!$
! Info: Touchstone file created by Circ.  Input file=Intel_C2M_200G_7p0in_202208016_staggered.circ
!$
# Hz S RI R 50
0	0.02030695	3.890137e-24	7.460449e-05	1.064644e-22	0.0001176453	2.984255e-22	7.453891e-05	1.062894e-22
	7.460449e-05	1.064644e-22	0.02032002	4.065354e-24	7.458761e-05	1.063912e-22	0.0001172621	2.966316e-22
	0.0001177028	2.98552e-22	7.45876e-05	1.063926e-22	0.02030181	3.71342e-24	7.455218e-05	1.062191e-22
	7.45389e-05	1.062907e-22	0.0001173195	2.967563e-22	7.455218e-05	1.062191e-22	0.02031798	3.849247e-24
1e+07	0.02513588	-0.0030624	1.454162e-05	7.655751e-06	0.001508912	0.006391912	2.759528e-06	1.964261e-05
	1.454162e-05	7.655751e-06	0.02487102	-0.003300709	4.6289e-05	7.43698e-06	0.001781454	0.006465431
	0.001508912	0.006391912	4.6289e-05	7.43698e-06	0.02545663	-0.003069852	1.930062e-05	2.330744e-05
	2.759528e-06	1.964261e-05	0.001781454	0.006465431	1.930062e-05	2.330744e-05	0.02471861	-0.003271452
2e+07	0.02813704	-0.01055193	6.68435e-06	2.185783e-05	0.003976384	0.01196979	3.705826e-06	6.477767e-06
	6.68435e-06	2.185783e-05	0.02766964	-0.01081947	3.203975e-05	2.251013e-05	0.004219116	0.01201247
	0.003976393	0.01196978	3.203975e-05	2.251013e-05	0.02833742	-0.01065194	1.450999e-05	1.977385e-05
	3.705827e-06	6.477766e-06	0.004219125	0.01201246	1.450999e-05	1.977385e-05	0.02755794	-0.01070567
3e+07	0.02865115	-0.01981258	2.207897e-05	2.603958e-05	0.007622653	0.01686509	5.273757e-06	3.501399e-06
	2.207897e-05	2.603958e-05	0.02802776	-0.02002992	2.415334e-05	3.42394e-05	0.007845038	0.01692576
	0.007622632	0.01686513	2.415333e-05	3.42394e-05	0.0287651	-0.01988752	1.203525e-05	2.051858e-05
	5.273758e-06	3.501399e-06	0.007845017	0.0169258	1.203525e-05	2.051858e-05	0.02795112	-0.01986346
4e+07	0.02687383	-0.0294655	3.461429e-05	2.418718e-05	0.01232473	0.02072824	7.073894e-06	2.805293e-06
	3.461429e-05	2.418718e-05	0.02612675	-0.02959221	1.902447e-05	4.100612e-05	0.01253211	0.02081554
	0.01232473	0.02072826	1.902447e-05	4.100612e-05	0.02693493	-0.02948863	1.066637e-05	2.144563e-05
	7.073894e-06	2.805293e-06	0.01253212	0.02081556	1.066638e-05	2.144563e-05	0.02609277	-0.02938979
5e+07	0.02310772	-0.03880021	4.434677e-05	1.865883e-05	0.01781712	0.02339871	9.198241e-06	3.060381e-06
	4.434677e-05	1.865883e-05	0.02226651	-0.03880872	3.263485e-05	3.620508e-05	0.01801301	0.02351466
	0.01781713	0.02339872	3.263485e-05	3.620508e-05	0.02314053	-0.03876015	1.571071e-05	1.87856e-05
	9.198241e-06	3.06038e-06	0.01801302	0.02351467	1.571071e-05	1.87856e-05	0.02227695	-0.03858282
6e+07	0.01761122	-0.047384	5.146546e-05	1.094938e-05	0.02382555	0.02473539	1.102089e-05	2.643905e-06
	5.146546e-05	1.094938e-05	0.01670512	-0.04725494	4.300153e-05	2.844686e-05	0.02401172	0.02487907
	0.02382556	0.02473538	4.300152e-05	2.844686e-05	0.01763735	-0.04727747	1.99344e-05	1.51693e-05
	1.102089e-05	2.643905e-06	0.02401173	0.02487905	1.993439e-05	1.51693e-05	0.01676024	-0.04701645
7e+07	0.01065496	-0.05487147	5.600076e-05	1.877299e-06	0.03004691	0.02465833	1.253997e-05	1.772314e-06
	5.600076e-05	1.877299e-06	0.009713603	-0.05459183	5.010101e-05	1.869584e-05	0.0302234	0.02482735
	0.03004691	0.02465832	5.010102e-05	1.869584e-05	0.01069332	-0.05470134	2.299765e-05	1.095444e-05
	1.253997e-05	1.772313e-06	0.0302234	0.02482734	2.299765e-05	1.095444e-05	0.009812236	-0.05435134
8e+07	0.002553937	-0.06099991	5.797698e-05	-7.980823e-06	0.03616987	0.02315376	1.374984e-05	5.668247e-07
	5.797698e-05	-7.980823e-06	0.001607845	-0.06056181	5.389942e-05	7.657016e-06	0.03633485	0.02334517
	0.03616987	0.02315376	5.389942e-05	7.657016e-06	0.0026207	-0.06077313	2.488983e-05	6.330006e-06
	1.374984e-05	5.668246e-07	0.03633485	0.02334517	2.488983e-05	6.330006e-06	0.001747265	-0.06032948
9e+07	-0.006345815	-0.06559554	5.73327e-05	-1.819568e-05	0.04188982	0.02027294	1.463154e-05	-8.522137e-07
	5.73327e-05	-1.819568e-05	-0.007263676	-0.06499486	5.435165e-05	-3.952217e-06	0.04203951	0.02048364
	0.04188983	0.02027295	5.435165e-05	-3.952218e-06	-0.006236969	-0.06532122	2.555273e-05	1.497996e-06
	1.463154e-05	-8.522141e-07	0.04203952	0.02048365	2.555273e-05	1.497995e-06	-0.007088714	-0.0647802
1e+08	-0.01565943	-0.06854929	5.31002e-05	-2.894091e-05	0.04692345	0.01612662	1.507516e-05	-2.403652e-06
	5.31002e-05	-2.894091e-05	-0.01650159	-0.06777789	5.029658e-05	-1.629481e-05	0.0470528	0.01635353
	0.04692345	0.01612661	5.029658e-05	-1.629481e-05	-0.01549131	-0.06823373	2.455402e-05	-3.573978e-06
	1.507516e-05	-2.403652e-06	0.0470528	0.01635352	2.455402e-05	-3.573978e-06	-0.01629913	-0.06758962
1.1e+08	-0.02506904	-0.0700776	4.539525e-05	-3.3949e-05	0.05101198	0.01085941	1.553228e-05	-3.442121e-06
	4.539525e-05	-3.3949e-05	-0.02578458	-0.06921221	4.190592e-05	-2.170434e-05	0.05110951	0.01109945
	0.05101198	0.01085941	4.190592e-05	-2.170434e-05	-0.02479379	-0.06981917	2.210126e-05	-6.247123e-06
	1.553228e-05	-3.442121e-06	0.05110951	0.01109945	2.210126e-05	-6.247123e-06	-0.02553475	-0.06910506
1.2e+08	-0.03442723	-0.07005779	3.971048e-05	-3.709664e-05	0.05390933	0.004737929	1.667245e-05	-4.500199e-06
	3.971048e-05	-3.709664e-05	-0.03504121	-0.06912898	3.580047e-05	-2.461647e-05	0.05396392	0.004995794
	0.05390933	0.004737927	3.580047e-05	-2.461647e-05	-0.03412397	-0.0698502	2.041657e-05	-8.24267e-06
	1.667245e-05	-4.500198e-06	0.05396391	0.004995792	2.041657e-05	-8.242669e-06	-0.03480706	-0.06907717
1.3e+08	-0.04339952	-0.06856985	3.649668e-05	-3.878057e-05	0.05547072	-0.001985152	1.763488e-05	-6.133597e-06
	3.649668e-05	-3.878057e-05	-0.04392167	-0.06759241	3.057253e-05	-2.654433e-05	0.05547273	-0.001702517
	0.05547072	-0.001985153	3.057253e-05	-2.654433e-05	-0.04308877	-0.06839465	1.894912e-05	-1.001464e-05
	1.763488e-05	-6.133597e-06	0.05547272	-0.001702518	1.894912e-05	-1.001464e-05	-0.0437147	-0.06756784
1.4e+08	-0.05173356	-0.06576301	3.543656e-05	-3.977084e-05	0.05559657	-0.009029405	1.830707e-05	-8.307283e-06
	3.543656e-05	-3.977084e-05	-0.05217034	-0.06474752	2.587895e-05	-2.791127e-05	0.0555377	-0.008712539
	0.05559657	-0.009029406	2.587895e-05	-2.791127e-05	-0.05141903	-0.06561556	1.755247e-05	-1.168389e-05
	1.830707e-05	-8.307283e-06	0.0555377	-0.008712539	1.755247e-05	-1.168389e-05	-0.05198641	-0.0647394
1.5e+08	-0.05922669	-0.06182323	3.393787e-05	-4.127217e-05	0.05424155	-0.01609959	1.86393e-05	-1.084379e-05
	3.393787e-05	-4.127217e-05	-0.0595831	-0.06077812	2.159495e-05	-2.88054e-05	0.05411535	-0.0157367
	0.05424155	-0.01609959	2.159496e-05	-2.88054e-05	-0.05891345	-0.06170698	1.613174e-05	-1.332514e-05
	1.86393e-05	-1.084379e-05	0.05411535	-0.0157367	1.613174e-05	-1.332514e-05	-0.05941986	-0.06078612
1.6e+08	-0.06572551	-0.05696258	3.195419e-05	-4.316808e-05	0.0514177	-0.02289693	1.854322e-05	-1.370429e-05
	3.195419e-05	-4.316808e-05	-0.06600565	-0.05589507	1.76101e-05	-2.937647e-05	0.05122011	-0.02247427
	0.0514177	-0.02289693	1.76101e-05	-2.937647e-05	-0.06542315	-0.05688279	1.460525e-05	-1.496843e-05
	1.854322e-05	-1.370429e-05	0.05122011	-0.02247427	1.460525e-05	-1.496843e-05	-0.06586585	-0.05592256
1.7e+08	-0.07112659	-0.05140986	2.933855e-05	-4.540768e-05	0.04719394	-0.02913005	1.791058e-05	-1.683874e-05
	2.933855e-05	-4.540768e-05	-0.07133416	-0.05032646	1.490854e-05	-2.960677e-05	0.04692383	-0.02863242
	0.04719393	-0.02913005	1.490854e-05	-2.960677e-05	-0.07084874	-0.05136906	1.315858e-05	-1.663267e-05
	1.791058e-05	-1.683874e-05	0.04692383	-0.02863242	1.315858e-05	-1.663267e-05	-0.07122514	-0.05037559
1.8e+08	-0.07537741	-0.04539985	2.603071e-05	-4.781416e-05	0.0416939	-0.03452526	1.664553e-05	-2.015948e-05
	2.603071e-05	-4.781416e-05	-0.07551597	-0.04430658	1.266917e-05	-2.979394e-05	0.04135335	-0.03393656
	0.04169389	-0.03452526	1.266917e-05	-2.979394e-05	-0.07513963	-0.04539607	1.1728e-05	-1.830248e-05
	1.664553e-05	-2.015948e-05	0.04135335	-0.03393656	1.1728e-05	-1.830248e-05	-0.07544774	-0.04437638
1.9e+08	-0.0784748	-0.0391637	2.202733e-05	-5.020246e-05	0.03509199	-0.03883642	1.470847e-05	-2.353539e-05
	2.202733e-05	-5.020246e-05	-0.07854812	-0.03806624	1.006541e-05	-2.998114e-05	0.03468669	-0.03814042
	0.03509199	-0.03883642	1.006541e-05	-2.998114e-05	-0.07829256	-0.03918989	9.834563e-06	-1.993623e-05
	1.470847e-05	-2.353539e-05	0.03468669	-0.03814042	9.834563e-06	-1.993623e-05	-0.07853138	-0.03815166
2e+08	-0.08046232	-0.03291798	1.729376e-05	-5.241808e-05	0.02760734	-0.04185358	1.204725e-05	-2.684302e-05
	1.729376e-05	-5.241808e-05	-0.08047441	-0.0318216	7.099675e-06	-3.00761e-05	0.02714666	-0.04103459
	0.02760734	-0.04185358	7.099675e-06	-3.00761e-05	-0.0803488	-0.03296344	7.476465e-06	-2.144492e-05
	1.204725e-05	-2.684302e-05	0.02714666	-0.04103459	7.476465e-06	-2.144492e-05	-0.0805186	-0.03191476
2.1e+08	-0.08142365	-0.02685666	1.18136e-05	-5.429857e-05	0.01949686	-0.0434106	8.631395e-06	-2.994079e-05
	1.18136e-05	-5.429857e-05	-0.08137901	-0.0257662	3.771353e-06	-3.000375e-05	0.01899379	-0.0424544
	0.01949686	-0.0434106	3.771353e-06	-3.000375e-05	-0.08138964	-0.02690662	4.663853e-06	-2.273765e-05
	8.631395e-06	-2.994079e-05	0.01899379	-0.0424544	4.663853e-06	-2.273765e-05	-0.08149214	-0.02585561
2.2e+08	-0.08147748	-0.02114279	5.603518e-06	-5.566677e-05	0.01104683	-0.04339162	4.457498e-06	-3.267439e-05
	5.603518e-06	-5.566677e-05	-0.0813811	-0.02006242	9.530274e-08	-2.967878e-05	0.01051785	-0.04228624
	0.01104683	-0.04339162	9.530274e-08	-2.967878e-05	-0.08152952	-0.02117994	1.419824e-06	-2.372497e-05
	4.457498e-06	-3.267439e-05	0.01051785	-0.04228624	1.419824e-06	-2.372497e-05	-0.08156799	-0.02013439
2.3e+08	-0.08076779	-0.01590265	-1.285115e-06	-5.634099e-05	0.002563313	-0.04173638	-4.489516e-07	-3.488134e-05
	-1.285115e-06	-5.634099e-05	-0.08062515	-0.01483572	-3.905216e-06	-2.9016e-05	0.002027929	-0.04047294
	0.002563313	-0.04173638	-3.905216e-06	-2.9016e-05	-0.08090847	-0.01590877	-2.21856e-06	-2.431928e-05
	-4.489516e-07	-3.488134e-05	0.002027929	-0.04047294	-2.21856e-06	-2.431928e-05	-0.08088761	-0.01487564
2.4e+08	-0.07945478	-0.01122181	-8.762764e-06	-5.614215e-05	-0.005637893	-0.03844329	-6.026684e-06	-3.639731e-05
	-8.762764e-06	-5.614215e-05	-0.07927166	-0.01017066	-8.191821e-06	-2.793148e-05	-0.006157707	-0.03701672
	-0.005637893	-0.03844329	-8.191821e-06	-2.793148e-05	-0.07968265	-0.0111779	-6.201878e-06	-2.443727e-05
	-6.026684e-06	-3.639731e-05	-0.006157707	-0.03701672	-6.201878e-06	-2.443727e-05	-0.07960839	-0.01016294
2.5e+08	-0.07770469	-0.007143068	-1.670077e-05	-5.490243e-05	-0.01324261	-0.03357103	-1.218044e-05	-3.706324e-05
	-1.670077e-05	-5.490243e-05	-0.07748698	-0.006108777	-1.271413e-05	-2.634336e-05	-0.01372319	-0.03198074
	-0.01324261	-0.03357103	-1.271413e-05	-2.634336e-05	-0.07801424	-0.007031191	-1.04659e-05	-2.400068e-05
	-1.218044e-05	-3.706324e-05	-0.01372319	-0.03198074	-1.04659e-05	-2.400068e-05	-0.07789336	-0.00603857
2.6e+08	-0.07567958	-0.003667533	-2.493204e-05	-5.247343e-05	-0.01994997	-0.02723854	-1.877993e-05	-3.673293e-05
	-2.493204e-05	-5.247343e-05	-0.07543292	-0.002649976	-1.740664e-05	-2.417402e-05	-0.02036693	-0.02548884
	-0.01994997	-0.02723854	-1.740664e-05	-2.417402e-05	-0.07606179	-0.00347073	-1.493411e-05	-2.293798e-05
	-1.877993e-05	-3.673293e-05	-0.02036693	-0.02548884	-1.493411e-05	-2.293798e-05	-0.07590145	-0.002502809
2.7e+08	-0.07352742	-0.000757397	-3.325541e-05	-4.873478e-05	-0.02548326	-0.0196214	-2.566282e-05	-3.52801e-05
	-3.325541e-05	-4.873478e-05	-0.07325684	0.0002448553	-2.218905e-05	-2.135093e-05	-0.02581251	-0.01772184
	-0.02548326	-0.0196214	-2.218905e-05	-2.135093e-05	-0.07396993	-0.000460737	-1.951733e-05	-2.118535e-05
	-2.566282e-05	-3.52801e-05	-0.02581251	-0.01772184	-1.951733e-05	-2.118535e-05	-0.07377717	0.0004820017
2.8e+08	-0.0713726	0.001659136	-4.143789e-05	-4.360294e-05	-0.02960157	-0.01094746	-3.263612e-05	-3.260608e-05
	-4.143789e-05	-4.360294e-05	-0.07108216	0.002648624	-2.696536e-05	-1.780931e-05	-0.02982052	-0.008912816
	-0.02960157	-0.01094746	-2.696536e-05	-1.780931e-05	-0.07186026	0.002067667	-2.411144e-05	-1.869006e-05
	-3.263612e-05	-3.260608e-05	-0.02982052	-0.008912816	-2.411144e-05	-1.869006e-05	-0.07164134	0.002986561
2.9e+08	-0.06930898	0.00367967	-4.922419e-05	-3.703669e-05	-0.03210961	-0.001489354	-3.948247e-05	-2.864649e-05
	-4.922419e-05	-3.703669e-05	-0.06900138	0.004659753	-3.162139e-05	-1.349656e-05	-0.03219828	0.0006606394
	-0.03210961	-0.001489354	-3.162139e-05	-1.349656e-05	-0.06982449	0.004209533	-2.859993e-05	-1.541158e-05
	-3.948247e-05	-2.864649e-05	-0.03219828	0.0006606399	-2.859993e-05	-1.541158e-05	-0.06958437	0.005107428
3e+08	-0.06739402	0.005418832	-5.634554e-05	-2.904073e-05	-0.03286564	0.008444951	-4.596649e-05	-2.337487e-05
	-5.634554e-05	-2.904073e-05	-0.06707032	0.00639329	-3.602643e-05	-8.376127e-06	-0.03280781	0.0106861
	-0.03286564	0.008444951	-3.602643e-05	-8.376127e-06	-0.06791861	0.006076072	-3.285331e-05	-1.132506e-05
	-4.596649e-05	-2.337487e-05	-0.03280781	0.0106861	-3.285331e-05	-1.132506e-05	-0.06766049	0.006956884
3.1e+08	-0.06564611	0.006997747	-6.252483e-05	-1.967448e-05	-0.03178863	0.01852321	-5.184198e-05	-1.680828e-05
	-6.252483e-05	-1.967448e-05	-0.06530557	0.007970283	-4.003537e-05	-2.428141e-06	-0.03157279	0.02082763
	-0.03178863	0.01852321	-4.003537e-05	-2.428141e-06	-0.06615979	0.007785379	-3.673018e-05	-6.425703e-06
	-5.184198e-05	-1.680828e-05	-0.03157279	0.02082763	-3.673018e-05	-6.425703e-06	-0.06588475	0.008653487
3.2e+08	-0.06404397	0.008533656	-6.749102e-05	-9.045369e-06	-0.02886182	0.02840106	-5.685898e-05	-9.009673e-06
	-6.749102e-05	-9.045369e-06	-0.06368401	0.009507276	-4.3488e-05	4.338945e-06	-0.02848208	0.03073814
	-0.02886182	0.02840106	-4.3488e-05	4.338945e-06	-0.06452622	0.009450237	-4.008039e-05	-7.294659e-07
	-5.685898e-05	-9.009673e-06	-0.02848208	0.03073814	-4.008039e-05	-7.294659e-07	-0.0642331	0.01030978
3.3e+08	-0.06252956	0.01012847	-7.09853e-05	2.685108e-06	-0.02413391	0.0377346	-6.077326e-05	-8.696951e-08
	-7.09853e-05	2.685108e-06	-0.06214594	0.01110487	-4.621562e-05	1.189143e-05	-0.02359044	0.04007226
	-0.02413391	0.0377346	-4.621562e-05	1.189143e-05	-0.06295997	0.01116936	-4.274695e-05	5.719017e-06
	-6.077326e-05	-8.696951e-08	-0.02359044	0.04007226	-4.274695e-05	5.719017e-06	-0.06264543	0.01202344
3.4e+08	-0.06101285	0.01185929	-7.27715e-05	1.530745e-05	-0.01771815	0.04619382	-6.335358e-05	9.802665e-06
	-7.27715e-05	1.530745e-05	-0.0606001	0.01283832	-4.804338e-05	2.016083e-05	-0.01701762	0.04849971
	-0.01771815	0.04619382	-4.804338e-05	2.016083e-05	-0.0613723	0.01301582	-4.457137e-05	1.284754e-05
	-6.335358e-05	9.802665e-06	-0.01701762	0.04849971	-4.457137e-05	1.284754e-05	-0.06103116	0.01386583
3.5e+08	-0.05938035	0.01377029	-7.264579e-05	2.856328e-05	-0.009788025	0.05347393	-6.438992e-05	2.046359e-05
	-7.264579e-05	2.856328e-05	-0.0589322	0.01474947	-4.879891e-05	2.90403e-05	-0.008943605	0.05571682
	-0.009788025	0.05347393	-4.879891e-05	2.90403e-05	-0.05965083	0.0150308	-4.539896e-05	2.055099e-05
	-6.438992e-05	2.046359e-05	-0.008943605	0.05571682	-4.539896e-05	2.055099e-05	-0.05927656	0.01587574
3.6e+08	-0.05750412	0.01586708	-7.04403e-05	4.215861e-05	-0.0005715363	0.05930685	-6.370103e-05	3.165396e-05
	-7.04403e-05	4.215861e-05	-0.05701424	0.01684127	-4.831771e-05	3.838914e-05	0.0003974186	0.06145788
	-0.0005715363	0.05930685	-4.831771e-05	3.838914e-05	-0.05767005	0.01721622	-4.508565e-05	2.868978e-05
	-6.370103e-05	3.165396e-05	0.0003974186	0.06145788	-4.508565e-05	2.868978e-05	-0.0572555	0.01805222
3.7e+08	-0.05525338	0.01811299	-6.603763e-05	5.575858e-05	0.009657613	0.0634706	-6.114223e-05	4.309539e-05
	-6.603763e-05	5.575858e-05	-0.05471619	0.01907428	-4.645495e-05	4.802164e-05	0.01072601	0.06550457
	0.009657613	0.0634706	-4.645495e-05	4.802164e-05	-0.05530193	0.01953276	-4.350355e-05	3.709507e-05
	-6.114223e-05	4.309539e-05	0.01072601	0.06550457	-4.350355e-05	3.709507e-05	-0.05484019	0.02035277
3.8e+08	-0.05250538	0.0204294	-5.93666e-05	6.900455e-05	0.02058913	0.06579597	-5.661233e-05	5.447741e-05
	-5.93666e-05	6.900455e-05	-0.05191673	0.02136716	-4.309066e-05	5.771995e-05	0.02172693	0.06769238
	0.02058913	0.06579597	-4.309066e-05	5.771995e-05	-0.05242661	0.02189966	-4.055201e-05	4.556216e-05
	-5.661233e-05	5.447741e-05	0.02172693	0.06769238	-4.055201e-05	4.556216e-05	-0.05191194	0.02269341
3.9e+08	-0.04915627	0.0226972	-5.041651e-05	8.151405e-05	0.03188647	0.06617285	-5.005602e-05	6.546559e-05
	-5.041651e-05	8.151405e-05	-0.0485144	0.0235984	-3.814037e-05	6.723183e-05	0.03305955	0.06791685
	0.03188647	0.06617285	-3.814037e-05	6.723183e-05	-0.04894478	0.0241959	-3.615886e-05	5.386304e-05
	-5.005602e-05	6.546559e-05	0.03305955	0.06791685	-3.615886e-05	5.386304e-05	-0.04837356	0.0249501
4e+08	-0.04513282	0.02476311	-3.923926e-05	9.288995e-05	0.04319854	0.06455262	-4.147891e-05	7.570106e-05
	-3.923926e-05	9.288995e-05	-0.044439	0.02561282	-3.156417e-05	7.627603e-05	0.04436989	0.06613572
	0.04319854	0.06455262	-3.156417e-05	7.627603e-05	-0.04478649	0.02626785	-3.029521e-05	6.174285e-05
	-4.147891e-05	7.570106e-05	0.04436989	0.06613572	-3.029521e-05	6.174285e-05	-0.04415814	0.02696661
4.1e+08	-0.04040061	0.02644769	-2.594954e-05	0.0001027337	0.05417013	0.06094972	-3.09401e-05	8.481658e-05
	-2.594954e-05	0.0001027337	-0.03965976	0.02722972	-2.337198e-05	8.455272e-05	0.05530101	0.06237036
	0.05417013	0.06094972	-2.337198e-05	8.455272e-05	-0.03992133	0.02793539	-2.297175e-05	6.893475e-05
	-3.09401e-05	8.481658e-05	0.05530101	0.06237036	-2.297175e-05	6.893475e-05	-0.03923907	0.02856089
4.2e+08	-0.03497033	0.02755294	-1.073355e-05	0.0001106484	0.06445357	0.05544146	-1.857051e-05	9.244121e-05
	-1.073355e-05	0.0001106484	-0.03419151	0.02825069	-1.362968e-05	9.175526e-05	0.06550471	0.05670521
	0.06445357	0.05544146	-1.362968e-05	9.175526e-05	-0.03436418	0.02900115	-1.425095e-05	7.5161e-05
	-1.857051e-05	9.244121e-05	0.06550471	0.05670521	-1.425095e-05	7.5161e-05	-0.03363577	0.02953442
4.3e+08	-0.02890326	0.02787585	6.150384e-06	0.0001162545	0.07371877	0.04816473	-4.566396e-06	9.821258e-05
	6.150384e-06	0.0001162545	-0.0280999	0.02847326	-2.46188e-06	9.757142e-05	0.07465183	0.04928444
	0.07371877	0.04816473	-2.46188e-06	9.757142e-05	-0.02817996	0.02926359	-4.246969e-06	8.014638e-05
	-4.566396e-06	9.821258e-05	0.07465183	0.04928444	-4.246969e-06	8.014638e-05	-0.02741815	0.02968564
4.4e+08	-0.02231228	0.02721951	2.436873e-05	0.0001192025	0.08166317	0.03931293	1.080959e-05	0.0001017897
	2.436873e-05	0.0001192025	-0.02150232	0.02770201	9.945489e-06	0.000101705	0.08244192	0.04030852
	0.08166317	0.03931293	9.945489e-06	0.000101705	-0.02148522	0.02852722	6.871704e-06	8.362497e-05
	1.080959e-05	0.0001017897	0.08244192	0.04030852	6.871704e-06	8.362497e-05	-0.02070798	0.0288201
4.5e+08	-0.01536189	0.02540424	4.351853e-05	0.0001191827	0.08802122	0.02913039	2.721761e-05	0.0001028644
	4.351853e-05	0.0001191827	-0.01456761	0.02575984	2.334516e-05	0.0001038836	0.08861287	0.03002847
	0.08802122	0.02913039	2.334516e-05	0.0001038836	-0.01444757	0.02661499	1.888782e-05	8.535151e-05
	2.721761e-05	0.0001028644	0.08861287	0.03002847	1.888782e-05	8.535151e-05	-0.0136782	0.026763
4.6e+08	-0.008264078	0.02228087	6.31252e-05	0.0001159433	0.09257233	0.01790551	4.425223e-05	0.0001011772
	6.31252e-05	0.0001159433	-0.007511861	0.0225011	3.743797e-05	0.0001038663	0.09294875	0.01873878
	0.09257233	0.01790551	3.743797e-05	0.0001038663	-0.00728143	0.02338107	3.152805e-05	8.511239e-05
	4.425223e-05	0.0001011772	0.09294875	0.01873878	3.152805e-05	8.511239e-05	-0.006548339	0.02337207
4.7e+08	-0.001272549	0.01774305	8.265312e-05	0.0001093056	0.09514853	0.005962641	6.145119e-05	9.653207e-05
	8.265312e-05	0.0001093056	-0.0005922338	0.01782416	5.186393e-05	0.0001014589	0.09528733	0.006769075
	0.09514853	0.005962641	5.186393e-05	0.0001014589	-0.0002428791	0.01872138	4.447113e-05	8.273343e-05
	6.145119e-05	9.653207e-05	0.09528733	0.006769075	4.447113e-05	8.273343e-05	0.0004209283	0.01854809
4.8e+08	0.005326627	0.0117341	0.0001015095	9.918171e-05	0.09563985	-0.006346515	7.829072e-05	8.881349e-05
	0.0001015095	9.918171e-05	0.005902376	0.0116778	6.622203e-05	9.652472e-05	0.09552538	-0.005524713
