# GHz S RI R 45
0.000     0.021446114000    0.000000000000    0.000000620735    0.000000000000    0.000642163660    -0.000000000000    -0.000009293045    0.000000000000
            0.000000620804    0.000000000000    0.021262966000    0.000000000000    0.000001084879    0.000000000000    0.000363844690    0.000000000000
            0.000642163660    -0.000000000000    0.000001085003    0.000000000000    0.021278907000    0.000000000000    -0.000031814135    0.000000000000
            -0.000009293023    0.000000000000    0.000363846390    0.000000000000    -0.000031814097    0.000000000000    0.021090472000    0.000000000000
0.025     0.026777043194    0.009118233216    -0.000018691310    -0.000060419531    0.002761325376    0.009510808580    -0.000017099922    -0.000057260225
            -0.000018691264    -0.000060419532    0.025419752058    0.009788792771    -0.000018635405    -0.000063430224    0.001775691190    0.010661889573
            0.002761303966    0.009510856344    -0.000018635280    -0.000063430249    0.026724836880    0.009096605561    -0.000010990490    -0.000045122072
            -0.000017099838    -0.000057260234    0.001775569245    0.010661722334    -0.000010990528    -0.000045122055    0.025425867527    0.009862705208
0.050     0.034189056873    0.012982354587    -0.000053907358    -0.000105065698    0.008646018440    0.017340253253    -0.000050199239    -0.000111376816
            -0.000053907358    -0.000105065698    0.029914597520    0.015385330458    -0.000055714767    -0.000110792911    0.005614863713    0.020387064907
            0.008646006908    0.017340263472    -0.000055714666    -0.000110792950    0.034137394969    0.012955656868    -0.000035905072    -0.000118083622
            -0.000050199157    -0.000111376842    0.005614893963    0.020387052427    -0.000035905113    -0.000118083610    0.029932998021    0.015350300463
0.075     0.043139508662    0.013330832356    -0.000103282468    -0.000136961515    0.017350189487    0.022103475185    -0.000103777607    -0.000150124846
            -0.000103282468    -0.000136961515    0.034634250234    0.019363955637    -0.000107919206    -0.000144475421    0.011385671097    0.028533092440
            0.017350182234    0.022103477065    -0.000107919068    -0.000144475499    0.043103328056    0.013303255108    -0.000095800178    -0.000170026946
            -0.000103777560    -0.000150124890    0.011385677814    0.028533091913    -0.000095800242    -0.000170026921    0.034564945152    0.019284639719
0.100     0.052513587679    0.009465497026    -0.000163489237    -0.000152253053    0.027495511541    0.022926238890    -0.000170573852    -0.000169510902
            -0.000163489169    -0.000152253096    0.039325994903    0.021678662253    -0.000171514260    -0.000160443673    0.018419759722    0.034677787646
            0.027495511140    0.022926239370    -0.000171514090    -0.000160443796    0.052510231881    0.009437099498    -0.000173177241    -0.000196944868
            -0.000170573786    -0.000169510954    0.018419761402    0.034677787887    -0.000173177241    -0.000196944868    0.039145370683    0.021625810555
0.125     0.060604390104    0.001282849223    -0.000229563538    -0.000148823473    0.037501970953    0.019467804780    -0.000244357376    -0.000167471768
            -0.000229563503    -0.000148823508    0.043408064856    0.022507552449    -0.000241149327    -0.000156566808    0.025965945374    0.038671851548
            0.037501971841    0.019467805241    -0.000241149220    -0.000156566918    0.060653547295    0.001246380974    -0.000258842820    -0.000197569619
            -0.000244357301    -0.000167471842    0.025965947281    0.038671851471    -0.000258842828    -0.000197569625    0.043130262221    0.022545360635
0.150     0.065822380249    -0.010757173615    -0.000296589695    -0.000126270924    0.045772006907    0.011957879163    -0.000319453118    -0.000143652909
            -0.000296589695    -0.000126270924    0.046340756311    0.022272662432    -0.000311572786    -0.000132470556    0.033305175814    0.040634660978
            0.045772006907    0.011957879163    -0.000311572661    -0.000132470696    0.065945846797    -0.010815555705    -0.000345782271    -0.000172212491
            -0.000319453041    -0.000143653008    0.033305167529    0.040634663890    -0.000345782319    -0.000172212440    0.046003790461    0.022453635593
0.175     0.066672521418    -0.025519029994    -0.000360303567    -0.000085106621    0.050859235152    0.001162667661    -0.000390841924    -0.000098690071
            -0.000360303542    -0.000085106682    0.047833604689    0.021599119816    -0.000378244939    -0.000088824023    0.039818940977    0.040917299761
            0.050859235152    0.001162667661    -0.000378244869    -0.000088824146    0.066889238240    -0.025625060582    -0.000427828975    -0.000122274117
            -0.000390841878    -0.000098690132    0.039818941691    0.040917299066    -0.000427828985    -0.000122274120    0.047497738003    0.021953944608
0.200     0.062165556532    -0.041384109983    -0.000417048688    -0.000026343931    0.051641552495    -0.011686408332    -0.000454266321    -0.000033787715
            -0.000417048678    -0.000026343930    0.047828505886    0.021187328504    -0.000437355982    -0.000026818489    0.045069017154    0.040060811619
            0.051641552495    -0.011686408332    -0.000437355982    -0.000026818489    0.062487048573    -0.041573686449    -0.000500158553    -0.000049624661
            -0.000454266321    -0.000033787715    0.045069008571    0.040060815254    -0.000500158553    -0.000049624661    0.047562660774    0.021719917868
0.225     0.051892780497    -0.056445892953    -0.000463412028    0.000048887131    0.047450692174    -0.025012809638    -0.000505703974    0.000049577223
            -0.000463412028    0.000048887131    0.046535702993    0.021720877521    -0.000485377534    0.000052238214    0.048848206794    0.038716414510
            0.047450692174    -0.025012809638    -0.000485377420    0.000052237773    0.052318486914    -0.056763497814    -0.000558292370    0.000043501509
            -0.000505703876    0.000049576679    0.048848209037    0.038716414900    -0.000558292480    0.000043501910    0.046408267661    0.022406441637
0.250     0.036115083256    -0.068699975912    -0.000495912055    0.000139283089    0.038176334986    -0.037055320212    -0.000541192933    0.000149672468
            -0.000495912065    0.000139283092    0.044420073600    0.023791764596    -0.000518776917    0.000146904400    0.051210383346    0.037564550980
            0.038176334986    -0.037055320212    -0.000518776907    0.000146904397    0.036628338471    -0.069194063424    -0.000598103794    0.000154825172
            -0.000541192952    0.000149672473    0.051210385614    0.037564551269    -0.000598103813    0.000154825177    0.044486793064    0.024579870005
0.275     0.015764336616    -0.076257820194    -0.000510616942    0.000243047344    0.024311832928    -0.046050582493    -0.000556403443    0.000264106128
            -0.000510616942    0.000243047344    0.042164237574    0.027792370515    -0.000533561748    0.000255258315    0.052463762045    0.037212963608
            0.024311832928    -0.046050582493    -0.000533561739    0.000255258311    0.016329950839    -0.076975141763    -0.000615137070    0.000281369582
            -0.000556403483    0.000264105671    0.052463764325    0.037212963850    -0.000615137079    0.000281369586    0.042459778222    0.028611747878
0.300     -0.007594092861    -0.077579024041    -0.000503228749    0.000357357255    0.006945327176    -0.050442964150    -0.000546809329    0.000389404671
            -0.000503228749    0.000357357255    0.040591138863    0.033854062925    -0.000525373945    0.000374376325    0.053137244977    0.038111956478
            0.006945327176    -0.050442964150    -0.000525373945    0.000374376325    -0.007030957418    -0.078557574798    -0.000604818201    0.000419251695
            -0.000546809321    0.000389404665    0.053137247933    0.038111955789    -0.000604818201    0.000419251695    0.041121616516    0.034622420773
0.325     -0.031895339899    -0.071669849496    -0.000469384338    0.000477750538    -0.012321316173    -0.049079317957    -0.000508009539    0.000520355914
            -0.000469384338    0.000477750538    0.040561718745    0.041786331353    -0.000489764349    0.000499665928    0.053904456139    0.040472099998
            -0.012321316173    -0.049079317957    -0.000489764349    0.000499665928    -0.031406231321    -0.072930724940    -0.000562709772    0.000562785400
            -0.000508009539    0.000520355914    0.053904459857    0.040472098377    -0.000562709772    0.000562785400    0.041301573359    0.042421367164
0.350     -0.054772311629    -0.058259308739    -0.000405534334    0.000597842743    -0.031528442710    -0.041387011926    -0.000436629379    0.000649873269
            -0.000405534328    0.000597842734    0.042856984800    0.051082781612    -0.000423090044    0.000624584804    0.055492234796    0.044226846443
            -0.031528442710    -0.041387011926    -0.000423090577    0.000624583948    -0.054440015699    -0.059800211498    -0.000485407777    0.000704467975
            -0.000436629379    0.000649873269    0.055492238676    0.044226844784    -0.000485407772    0.000704467966    0.043750189636    0.051514515607
0.375     -0.073812880878    -0.037877556673    -0.000309895603    0.000709360807    -0.048569624579    -0.027479035720    -0.000331270417    0.000769037255
            -0.000309895607    0.000709360816    0.048054809981    0.060947632473    -0.000323491649    0.000740630218    0.058560468943    0.049019532614
            -0.048569624579    -0.027479035720    -0.000323491649    0.000740630218    -0.073722829886    -0.039667409559    -0.000371552311    0.000834865220
            -0.000331270733    0.000769036879    0.058560473044    0.049019530831    -0.000371552311    0.000834865220    0.049020887344    0.061129589777
0.400     -0.086850635273    -0.011854376262    -0.000183489490    0.000802959521    -0.061451051904    -0.008184388055    -0.000193494400    0.000868029985
            -0.000183489490    0.000802959521    0.056433812344    0.070393977444    -0.000191965538    0.000838174966    0.063603256335    0.054254819594
            -0.061451051904    -0.008184388055    -0.000191965538    0.000838174966    -0.087080513200    -0.013832007239    -0.000222797658    0.000943639127
            -0.000193494400    0.000868029985    0.063603259936    0.054254816913    -0.000222797658    0.000943639127    0.057377750200    0.070311483882
0.425     -0.092228710380    0.017805294019    -0.000030662280    0.000869328850    -0.068531529722    0.015029594500    -0.000028291216    0.000937253769
            -0.000030662280    0.000869328850    0.067906898866    0.078355529420    -0.000032922349    0.000907577908    0.070857662410    0.059171640406
            -0.068531529722    0.015029594500    -0.000032922349    0.000907577908    -0.092837519301    0.015728309018    -0.000044390846    0.001020619588
            -0.000028291151    0.000937253791    0.070857665509    0.059171636696    -0.000044390810    0.001020619590    0.068732036273    0.078029882950
0.450     -0.089016182001    0.048633393556    0.000140989816    0.000900767956    -0.068734965597    0.040221123836    0.000156096659    0.000968936232
            0.000140989816    0.000900767956    0.082019607125    0.083835472100    0.000145861589    0.000940807212    0.080271321599    0.062961273505
            -0.068734965597    0.040221123836    0.000145861589    0.000940807212    -0.090034208982    0.046566259925    0.000155042618    0.001057502065
            0.000156096643    0.000968936245    0.080271324896    0.062961269302    0.000155042600    0.001057502068    0.082640732240    0.083322053348
0.475     -0.077113227750    0.077974619524    0.000321435048    0.000892356806    -0.061663439394    0.065198550971    0.000349042937    0.000958267986
            0.000321435044    0.000892356796    0.097990604285    0.086028595067    0.000334057095    0.000932651059    0.091499199994    0.064870912743
            -0.061663439394    0.065198550971    0.000334056189    0.000932650789    -0.078535754900    0.076037152968    0.000364305817    0.001049025997
            0.000349042467    0.000958267838    0.091499203391    0.064870907952    0.000364305784    0.001049025902    0.098345841064    0.085411914957
0.500     -0.057259042811    0.103279087018    0.000499558695    0.000842827891    -0.047631889160    0.087771919107    0.000538957077    0.000904218667
            0.000499558695    0.000842827891    0.114810949345    0.084430365316    0.000520145737    0.000881648716    0.103960416136    0.064309752658
            -0.047631889160    0.087771919107    0.000520145737    0.000881648716    -0.059042743101    0.101589587006    0.000571130746    0.000993857553
            0.000538957061    0.000904218676    0.103960416136    0.064309752658    0.000571130729    0.000993857563    0.114870786403    0.083812978099
0.525     -0.030926702088    0.122357982433    0.000664626402    0.000754522903    -0.027597979741    0.105971202877    0.000714763197    0.000809445430
            0.000664626402    0.000754522903    0.131358069206    0.078884505554    0.000692931350    0.000790079493    0.116905328419    0.060907080094
            -0.027597979741    0.105971202877    0.000692931350    0.000790079493    -0.032991905528    0.121020898721    0.000763666383    0.000894550094
            0.000714763169    0.000809445455    0.116905331608    0.060907073973    0.000763666383    0.000894550094    0.131130000841    0.078376103524
0.550     -0.000152502540    0.133582242949    0.000807649279    0.000632901700    -0.003039028023    0.118227177362    0.000867258787    0.000679717305
            0.000807649279    0.000632901700    0.146527616410    0.069596727702    0.000842951616    0.000663488657    0.129513357312    0.054551154160
            -0.003039028023    0.118227177362    0.000842951537    0.000663488595    -0.002387457503    0.132677151200    0.000931942127    0.000756971673
            0.000867258720    0.000679717228    0.129513350000    0.054551145757    0.000931943093    0.000756971594    0.146055948198    0.069299826367
0.575     0.032675682749    0.135992576650    0.000922155507    0.000485431276    0.024211330733    0.123470745097    0.000989858490    0.000522783702
            0.000922155507    0.000485431276    0.159336853196    0.057093538877    0.000963307340    0.000509579850    0.140966502094    0.045382096667
            0.024211330733    0.123470745097    0.000963307340    0.000509579850    0.030405594357    0.135564992554    0.001068662510    0.000589194059
            0.000989858401    0.000522783656    0.140966494951    0.045382086221    0.001068662510    0.000589194059    0.158699565032    0.057092948100
0.600     0.065033911045    0.129342778106    0.001004603263    0.000320491664    0.052128104595    0.121190209435    0.001078950275    0.000347231899
            0.001004603364    0.000320491676    0.169020679210    0.042160906010    0.001050122209    0.000337088517    0.150533442780    0.033774645356
            0.052128104595    0.121190209435    0.001050122209    0.000337088517    0.062876154446    0.129398400695    0.001169634213    0.000400270799
            0.001078949415    0.000347232287    0.150533435381    0.033774632658    0.001169634213    0.000400270799    0.168320679609    0.042513735901
0.625     0.094453274138    0.114074929156    0.001054103445    0.000146247799    0.078641627483    0.111423666253    0.001133596277    0.000161385153
            0.001054103445    0.000146247796    0.175078038012    0.025761703710    0.001102310044    0.000154614073    0.157613317538    0.020294266841
            0.078641627483    0.111423666253    0.001102309601    0.000154614358    0.092557346755    0.114576598236    0.001233504177    0.000199116736
            0.001133596276    0.000161385157    0.157613308222    0.020294260887    0.001233504177    0.000199116738    0.174434601804    0.026489734096
0.650     0.118688557820    0.091260434143    0.001072049329    -0.000030167411    0.101770951929    0.094740927372    0.001155096753    -0.000027531072
            0.001072049329    -0.000030167420    0.177312709645    0.008948906197    0.001121213046    -0.000030248505    0.161793359046    0.005656842340
            0.101770951929    0.094740927372    0.001121212363    -0.000030247895    0.117192972399    0.092128029036    0.001261353957    -0.000006401391
            0.001155096753    -0.000027531062    0.161793349338    0.005656833802    0.001261353857    -0.000006401372    0.176849932880    0.010036020258
0.675     0.135845921702    0.062513077117    0.001061284570    -0.000203194491    0.119725357118    0.072195971711    0.001146149517    -0.000213869383
            0.001061284566    -0.000203194510    0.175828979376    -0.007216269157    0.001109774661    -0.000211503919    0.162866140417    -0.009325765036
            0.119725357118    0.072195971711    0.001109774422    -0.000211503572    0.134867807027    0.063626549426    0.001255828236    -0.000210020535
            0.001146148937    -0.000213868674    0.162866140221    -0.009325768447    0.001255828237    -0.000210020526    0.175664025575    -0.005825385469
0.700     0.144498342306    0.029890943214    0.001025458066    -0.000369128809    0.131014487968    0.045282788224    0.001110187523    -0.000393803804
            0.001025458066    -0.000369128809    0.171032572063    -0.021747417199    0.001071872142    -0.000385093182    0.160869870387    -0.023799220353
            0.131014487968    0.045282788224    0.001071871671    -0.000385092422    0.144121372572    0.031095718083    0.001220465598    -0.000407374615
            0.001110187523    -0.000393803804    0.160869870387    -0.023799220353    0.001220465605    -0.000407374594    0.171264016705    -0.020144155432
0.725     0.143773086046    -0.004213006033    0.000968101308    -0.000526047650    0.134534837742    0.015873307039    0.001050482215    -0.000565217484
            0.000968101308    -0.000526047650    0.163595219689    -0.033804698368    0.001011356878    -0.000548859975    0.156084696967    -0.036934084606
            0.134534837742    0.015873307039    0.001011356878    -0.000548859975    0.144038338572    -0.003097959842    0.001158740069    -0.000595913579
            0.001050482225    -0.000565217466    0.156084696967    -0.036934084606    0.001158740158    -0.000595913624    0.164291277762    -0.032112089180
0.750     0.133438192156    -0.037200336171    0.000892002212    -0.000673576398    0.129683806936    -0.013863951571    0.000969517290    -0.000727432741
            0.000892002212    -0.000673576398    0.154422312248    -0.042772634139    0.000931360456    -0.000702350850    0.149050969536    -0.047996429043
            0.129683806936    -0.013863951571    0.000931360456    -0.000702350850    0.134334850639    -0.036370834681    0.001073386371    -0.000774657050
            0.000969517290    -0.000727432741    0.149050969536    -0.047996429043    0.001073386371    -0.000774657050    0.155612245835    -0.041133351477
0.775     0.113965519555    -0.066417289348    0.000798496341    -0.000812211043    0.116448837852    -0.041574025804    0.000868343609    -0.000880478440
            0.000798496341    -0.000812211043    0.144585236901    -0.048321920962    0.000833533937    -0.000846124447    0.140527338987    -0.056433539155
            0.116448837852    -0.041574025804    0.000833533937    -0.000846124447    0.115425427588    -0.066069493678    0.000965714245    -0.000943480512
            0.000868343609    -0.000880478440    0.140527338987    -0.056433539155    0.000965714245    -0.000943480512    0.146251694952    -0.046887991086
