# GHz S RI R 45
0.000     0.020344125000    0.000000000000    -0.000000787934    0.000000000000    0.000573212850    -0.000000000000    -0.000007605675    0.000000000000
            -0.000000787817    0.000000000000    0.021262966000    0.000000000000    0.000000841349    -0.000000000000    0.000363844690    0.000000000000
            0.000573233290    -0.000000000000    0.000000841381    -0.000000000000    0.020325973000    0.000000000000    0.000002825283    -0.000000000000
            -0.000007605567    0.000000000000    0.000363846390    0.000000000000    0.000002825265    -0.000000000000    0.021090472000    0.000000000000
0.025     0.025576038051    0.008405632289    -0.000000484643    -0.000001742158    0.002552562044    0.008634469119    0.000003955854    0.000004977429
            -0.000000484577    -0.000001742171    0.025419752058    0.009788792771    0.000005438571    0.000001444892    0.001775691190    0.010661889573
            0.002552591941    0.008634567479    0.000005436428    0.000001437012    0.025511254855    0.008359004771    0.000002906378    -0.000001243083
            0.000003955920    0.000004977418    0.001775569245    0.010661722334    0.000002907059    -0.000001238150    0.025425867527    0.009862705208
0.050     0.032685183562    0.011890354437    -0.000001938863    -0.000003837458    0.008068057073    0.015768733705    0.000006319211    -0.000002193836
            -0.000001938743    -0.000003837511    0.029914597520    0.015385330458    0.000006410336    -0.000001980886    0.005614863713    0.020387064907
            0.008068034762    0.015768719284    0.000006411802    -0.000001979901    0.032596652973    0.011829705526    0.000002294898    -0.000002641947
            0.000006319331    -0.000002193874    0.005614893963    0.020387052427    0.000002294470    -0.000002643095    0.029932998021    0.015350300463
0.075     0.041400328338    0.012146831554    -0.000004298884    -0.000004936485    0.016316279841    0.020141162286    0.000003903042    -0.000006919442
            -0.000004298773    -0.000004936548    0.034634250234    0.019363955637    0.000005398517    -0.000004526584    0.011385671097    0.028533092440
            0.016316283463    0.020141145195    0.000005399133    -0.000004526338    0.041294532306    0.012086367779    0.000001243010    -0.000003707063
            0.000003903139    -0.000006919499    0.011385677814    0.028533091913    0.000001242618    -0.000003707277    0.034564945152    0.019284639719
0.100     0.050782671195    0.008476664919    -0.000007041166    -0.000004908560    0.026106176879    0.020918792856    -0.000000042063    -0.000009422173
            -0.000007041059    -0.000004908608    0.039325994903    0.021678662253    0.000003687817    -0.000006293726    0.018419759722    0.034677787646
            0.026106191898    0.020918775712    0.000003687206    -0.000006293754    0.050671678104    0.008432296536    -0.000000074494    -0.000004401529
            -0.000000041966    -0.000009422223    0.018419761402    0.034677787887    -0.000000073961    -0.000004401451    0.039145370683    0.021625810555
0.125     0.059302270086    0.000670282153    -0.000009687326    -0.000003806694    0.036053879317    0.017709144717    -0.000004347375    -0.000010018269
            -0.000009687230    -0.000003806752    0.043408064856    0.022507552449    0.000001640140    -0.000007396313    0.025965945374    0.038671851548
            0.036053892857    0.017709121687    0.000001639357    -0.000007396140    0.059212844727    0.000654606421    -0.000001540039    -0.000004730696
            -0.000004347296    -0.000010018315    0.025965947281    0.038671851471    -0.000001539333    -0.000004730763    0.043130262221    0.022545360635
0.150     0.065531605094    -0.010984406723    -0.000011924507    -0.000001794059    0.044729125368    0.010602522554    -0.000008473993    -0.000009029392
            -0.000011924449    -0.000001794163    0.046340756311    0.022272662432    -0.000000595607    -0.000007905493    0.033305175814    0.040634660978
            0.044729126102    0.010602502115    -0.000000595094    -0.000007905918    0.065484664514    -0.010968862304    -0.000003097778    -0.000004696632
            -0.000008473938    -0.000009029485    0.033305167529    0.040634663890    -0.000003098167    -0.000004696281    0.046003790461    0.022453635593
0.175     0.068027380626    -0.025626889483    -0.000013522827    0.000000898757    0.050790453247    0.000152436956    -0.000012002209    -0.000006790039
            -0.000013522743    0.000000898689    0.047833604689    0.021599119816    -0.000002909041    -0.000007854528    0.039818940977    0.040917299761
            0.050790454311    0.000152415462    -0.000002909948    -0.000007854199    0.068056108382    -0.025584883752    -0.000004699541    -0.000004297371
            -0.000012002135    -0.000006790097    0.039818941691    0.040917299066    -0.000004698740    -0.000004297645    0.047497738003    0.021953944608
0.200     0.065747285719    -0.041930085709    -0.000014380711    0.000004049597    0.053133732955    -0.012668905449    -0.000014729873    -0.000003587210
            -0.000014380683    0.000004049500    0.047828505886    0.021187328504    -0.000005230466    -0.000007232762    0.045069017154    0.040060811619
            0.053133726587    -0.012668923532    -0.000005230505    -0.000007233087    0.065887097841    -0.041882477092    -0.000006306244    -0.000003491966
            -0.000014729844    -0.000003587298    0.045069008571    0.040060815254    -0.000006306185    -0.000003491709    0.047562660774    0.021719917868
0.225     0.058115951403    -0.058272006133    -0.000014443610    0.000007446617    0.051005346830    -0.026560398759    -0.000016504427    0.000000283015
            -0.000014443579    0.000007446502    0.046535702993    0.021720877521    -0.000007458143    -0.000006023385    0.048848206794    0.038716414510
            0.051005337136    -0.026560415212    -0.000007458133    -0.000006023414    0.058395424285    -0.058255863982    -0.000007845170    -0.000002236114
            -0.000016504397    0.000000282913    0.048848209037    0.038716414900    -0.000007845175    -0.000002236097    0.046408267661    0.022406441637
0.250     0.045109239150    -0.072882942137    -0.000013705591    0.000010927270    0.044097400171    -0.040014943099    -0.000017252485    0.000004597393
            -0.000013705580    0.000010927155    0.044420073600    0.023791764596    -0.000009467503    -0.000004192085    0.051210383346    0.037564550980
            0.044097386817    -0.040014954839    -0.000009467448    -0.000004192183    0.045544536661    -0.072948003476    -0.000009202846    -0.000000472068
            -0.000017252477    0.000004597298    0.051210385614    0.037564551269    -0.000009202899    -0.000000471998    0.044486793064    0.024579870005
0.275     0.027267515499    -0.084016366019    -0.000012160903    0.000014331874    0.032595031051    -0.051460176483    -0.000016912476    0.000009111990
            -0.000012160911    0.000014331777    0.042164237574    0.027792370515    -0.000011087741    -0.000001744178    0.052463762045    0.037212963608
            0.032595015248    -0.051460185310    -0.000011087671    -0.000001744325    0.027857354943    -0.084220468591    -0.000010216426    0.000001812388
            -0.000016912480    0.000009111893    0.052463764325    0.037212963850    -0.000010216481    0.000001812502    0.042459778222    0.028611747878
0.300     0.005687477097    -0.090132311323    -0.000009809468    0.000017517184    0.017186212808    -0.059421648511    -0.000015442185    0.000013610932
            -0.000009809480    0.000017517091    0.040591138863    0.033854062925    -0.000012115184    0.000001273043    0.053137244977    0.038111956478
            0.017186195455    -0.059421654571    -0.000012115223    0.000001273028    0.006409869074    -0.090535961995    -0.000010683851    0.000004580656
            -0.000015442200    0.000013610835    0.053137247933    0.038111955789    -0.000010683812    0.000004580659    0.041121616516    0.034622420773
0.325     -0.018063097347    -0.090059402167    -0.000006661155    0.000020305396    -0.000982277626    -0.062673042830    -0.000012831598    0.000017826675
            -0.000006661180    0.000020305306    0.040561718745    0.041786331353    -0.000012339982    0.000004719023    0.053904456139    0.040472099998
            -0.000982296253    -0.062673044539    -0.000012340023    0.000004719031    -0.017252152199    -0.090717971932    -0.000010400730    0.000007697119
            -0.000012831623    0.000017826584    0.053904459857    0.040472098377    -0.000010400698    0.000007697100    0.041301573359    0.042421367164
0.350     -0.042070536106    -0.083148180310    -0.000002754457    0.000022503374    -0.020397743256    -0.060384668377    -0.000009112870    0.000021485026
            -0.000002754497    0.000022503287    0.042856984800    0.051082781612    -0.000011577467    0.000008373318    0.055492234796    0.044226846443
            -0.020397743256    -0.060384668377    -0.000011577534    0.000008373262    -0.041235754361    -0.084103974782    -0.000009191476    0.000010941856
            -0.000009112910    0.000021484943    0.055492238676    0.044226844784    -0.000009191429    0.000010941879    0.043750189636    0.051514515607
0.375     -0.064249659086    -0.069358669737    0.000001807982    0.000023888265    -0.039315067556    -0.052223416192    -0.000004409943    0.000024279622
            0.000001807901    0.000023888145    0.048054809981    0.060947632473    -0.000009726587    0.000011921695    0.058560468943    0.049019532614
            -0.039315066954    -0.052223415393    -0.000009726569    0.000011921631    -0.063472084540    -0.070633408506    -0.000006971361    0.000014005679
            -0.000004409999    0.000024279543    0.058560473044    0.049019530831    -0.000006971385    0.000014005733    0.049020887344    0.061129589777
0.400     -0.082548937666    -0.049307395201    0.000006850695    0.000024250923    -0.055931698522    -0.038418747224    0.000001069385    0.000025932576
            0.000006850629    0.000024250852    0.056433812344    0.070393977444    -0.000006791655    0.000015010361    0.063603256335    0.054254819594
            -0.055931770187    -0.038418695876    -0.000006791664    0.000015010362    -0.081918976623    -0.050896370668    -0.000003765742    0.000016543777
            0.000001069330    0.000025932506    0.063603259936    0.054254816913    -0.000003765733    0.000016543767    0.057377750200    0.070311483882
0.425     -0.095153372288    -0.024229831650    0.000012107358    0.000023422655    -0.068563132018    -0.019756600845    0.000007004872    0.000026219909
            0.000012107291    0.000023422589    0.067906898866    0.078355529420    -0.000002925032    0.000017282760    0.070857662410    0.059171640406
            -0.068563160619    -0.019756570206    -0.000002925064    0.000017282795    -0.094761641644    -0.026098573110    0.000000252835    0.000018221428
            0.000007004824    0.000026219849    0.070857665509    0.059171636696    0.000000252877    0.000018221397    0.068732036273    0.078029882950
0.450     -0.100680856686    0.004115608117    0.000017252254    0.000021321657    -0.075825471867    0.002479990240    0.000013015643    0.000025023440
            0.000017252172    0.000021321608    0.082019607125    0.083835472100    0.000001604716    0.000018449542    0.080271321599    0.062961273505
            -0.075825512247    0.002480071049    0.000001604697    0.000018449483    -0.100608132954    0.002031445716    0.000004799674    0.000018779136
            0.000013015554    0.000025023397    0.080271324896    0.062961269302    0.000004799682    0.000018779192    0.082640732240    0.083322053348
0.475     -0.098321362565    0.033606666926    0.000021924402    0.000017979671    -0.076769978763    0.026629553887    0.000018679604    0.000022357620
            0.000021924309    0.000017979636    0.097990604285    0.086028595067    0.000006422794    0.000018335084    0.091499199994    0.064870912743
            -0.076770000874    0.026629636612    0.000006422746    0.000018335004    -0.098628411452    0.031397190679    0.000009497468    0.000018080896
            0.000018679515    0.000022357584    0.091499203391    0.064870907952    0.000009497533    0.000018080974    0.098345841064    0.085411914957
0.500     -0.087927920296    0.061954025273    0.000025788317    0.000013547219    -0.070985841352    0.050810752199    0.000023609228    0.000018368849
            0.000025788228    0.000013547190    0.114810949345    0.084430365316    0.000011128936    0.000016903798    0.103960416136    0.064309752658
            -0.070985842165    0.050810752781    0.000011128858    0.000016903783    -0.088647755993    0.059729148867    0.000013955537    0.000016131539
            0.000023609133    0.000018368818    0.103960416136    0.064309752658    0.000013955518    0.000016131523    0.114870786403    0.083812978099
0.525     -0.070028200049    0.086909587207    0.000028571117    0.000008281701    -0.058628145877    0.073093363844    0.000027484535    0.000013323594
            0.000028571026    0.000008281686    0.131358069206    0.078884505554    0.000015334596    0.000014268161    0.116905328419    0.060907080094
            -0.058628116504    0.073093457911    0.000015334496    0.000014268154    -0.071160334973    0.084789294494    0.000017813132    0.000013079032
            0.000027484443    0.000013323578    0.116905331608    0.060907073973    0.000017813175    0.000013079033    0.131130000841    0.078376103524
0.550     -0.045777116026    0.106468367591    0.000030103573    0.000002505245    -0.040403625719    0.091676350287    0.000030100804    0.000007555318
            0.000030103481    0.000002505243    0.146527616410    0.069596727702    0.000018735199    0.000010647763    0.129513357312    0.054551154160
            -0.040403625719    0.091676350287    0.000018735111    0.000010647755    -0.047284487730    0.104572542126    0.000020802942    0.000009167965
            0.000030100712    0.000007555317    0.129513350000    0.054551145757    0.000020802935    0.000009167969    0.146055948198    0.069299826367
0.575     -0.016847410050    0.119031017927    0.000030328599    -0.000003432073    -0.017494620064    0.105028051383    0.000031371406    0.000001430125
            0.000030328510    -0.000003432060    0.159336853196    0.057093538877    0.000021124654    0.000006344289    0.140966502094    0.045382096667
            -0.017494620064    0.105028051383    0.000021124601    0.000006344297    -0.018657942958    0.117468282732    0.000022765886    0.000004708353
            0.000031371268    0.000001430144    0.140966494951    0.045382086221    0.000022765883    0.000004708355    0.158699565032    0.057092948100
0.600     0.014715394250    0.123529737010    0.000029297785    -0.000009203054    0.008543787452    0.112010416529    0.000031324110    -0.000004713668
            0.000029297698    -0.000009203030    0.169020679210    0.042160906010    0.000022417660    0.000001672228    0.150533442780    0.033774645356
            0.008543787452    0.112010416529    0.000022417643    0.000001672239    0.012705336459    0.122386928710    0.000023661393    0.000000007342
            0.000031324019    -0.000004713642    0.150533435381    0.033774632658    0.000023661404    0.000000007333    0.168320679609    0.042513735901
0.625     0.046657380103    0.119493186040    0.000027149293    -0.000014528696    0.035910197726    0.111944267471    0.000030074734    -0.000010584556
            0.000027149208    -0.000014528659    0.175078038012    0.025761703710    0.000022631279    -0.000003060527    0.157613317538    0.020294266841
            0.035910197726    0.111944267471    0.000022631238    -0.000003060522    0.044576325811    0.118827532933    0.000023546773    -0.000004653279
            0.000030074647    -0.000010584519    0.157613308222    0.020294260887    0.000023546811    -0.000004653280    0.174434601804    0.026489734096
0.650     0.076689189338    0.107072398380    0.000024077517    -0.000019206032    0.062692064781    0.104656522311    0.000027793679    -0.000015971217
            0.000024077440    -0.000019205983    0.177312709645    0.008948906197    0.000021865223    -0.000007609162    0.161793359046    0.005656842340
            0.062692064781    0.104656522311    0.000021865263    -0.000007609085    0.074681341822    0.106904151721    0.000022548723    -0.000009064247
            0.000027793600    -0.000015971169    0.161793349338    0.005656833802    0.000022548729    -0.000009064243    0.176849932880    0.010036020258
0.675     0.102642901554    0.087014388800    0.000020304651    -0.000023107763    0.086990962261    0.090474631321    0.000024677012    -0.000020733612
            0.000020304583    -0.000023107705    0.175828979376    -0.007216269157    0.000020272844    -0.000011785582    0.162866140417    -0.009325765036
            0.086990962261    0.090474631321    0.000020272843    -0.000011785576    0.100858180605    0.087323379253    0.000020832649    -0.000013083337
            0.000024676942    -0.000020733558    0.162866140221    -0.009325768447    0.000020832648    -0.000013083339    0.175664025575    -0.005825385469
0.700     0.122621684632    0.060606476306    0.000016047771    -0.000026184507    0.107053409638    0.070210103079    0.000020910785    -0.000024808228
            0.000016047757    -0.000026184431    0.171032572063    -0.021747417199    0.000018024481    -0.000015488275    0.160869870387    -0.023799220353
            0.107053409638    0.070210103079    0.000018024359    -0.000015488139    0.121203942618    0.061330902501    0.000018562896    -0.000016652863
            0.000020910726    -0.000024808166    0.160869870387    -0.023799220353    0.000018562905    -0.000016652907    0.171264016705    -0.020144155432
0.725     0.135117731187    0.029588698829    0.000011501707    -0.000028447329    0.121372431222    0.045104598978    0.000016657767    -0.000028182278
            0.000011501631    -0.000028447214    0.163595219689    -0.033804698368    0.000015287306    -0.000018675199    0.156084696967    -0.036934084606
            0.121372431222    0.045104598978    0.000015287276    -0.000018675169    0.134194369064    0.030626214774    0.000015884134    -0.000019772607
            0.000016657717    -0.000028182204    0.156084696967    -0.036934084606    0.000015884134    -0.000019772600    0.164291277762    -0.032112089180
0.750     0.139117923248    -0.003957797393    0.000006814733    -0.000029953276    0.128799269367    0.016762253333    0.000012032487    -0.000030880587
            0.000006814689    -0.000029953196    0.154422312248    -0.042772634139    0.000012186748    -0.000021369385    0.149050969536    -0.047996429043
            0.128799269396    0.016762253108    0.000012186767    -0.000021369381    0.138787833319    -0.002744670959    0.000012886145    -0.000022492605
            0.000012032442    -0.000030880506    0.149050969536    -0.047996429043    0.000012886168    -0.000022492680    0.155612245835    -0.041133351477
0.775     0.134173179318    -0.037738650737    0.000002087351    -0.000030781377    0.128617226381    -0.012940548014    0.000007107002    -0.000032936723
            0.000002087324    -0.000030781290    0.144585236901    -0.048321920962    0.000008805334    -0.000023619975    0.140527338987    -0.056433539155
            0.128617252775    -0.012940585363    0.000008805319    -0.000023619934    0.134497451625    -0.036515077848    0.000009605351    -0.000024876669
            0.000007106971    -0.000032936636    0.140527338987    -0.056433539155    0.000009605349    -0.000024876662    0.146251694952    -0.046887991086
