# GHz S RI R 45
0.000     0.021220571000    0.000000000000    -0.000004993137    0.000000000000    0.000637209600    -0.000000000000    -0.000008203902    0.000000000000
            -0.000004992963    0.000000000000    0.021262966000    0.000000000000    -0.000048235412    0.000000000000    0.000363844690    0.000000000000
            0.000637201450    -0.000000000000    -0.000048235316    0.000000000000    0.021090490000    0.000000000000    0.000004896879    -0.000000000000
            -0.000008203707    0.000000000000    0.000363846390    0.000000000000    0.000004896807    -0.000000000000    0.021090472000    0.000000000000
0.025     0.026392507910    0.008819039160    -0.000016550713    -0.000032446462    0.002689276072    0.009179638854    -0.000014734105    -0.000026899731
            -0.000016550542    -0.000032446546    0.025419752058    0.009788792771    -0.000044801590    -0.000024227161    0.001775691190    0.010661889573
            0.002689245473    0.009179689395    -0.000044801496    -0.000024227181    0.026331480007    0.008816794561    -0.000026402608    -0.000046769474
            -0.000014733925    -0.000026899770    0.001775569245    0.010661722334    -0.000026402656    -0.000046769463    0.025425867527    0.009862705208
0.050     0.033642067929    0.012550363910    -0.000037729147    -0.000055309525    0.008404917550    0.016759303758    -0.000030885459    -0.000049481165
            -0.000037729060    -0.000055309562    0.029914597520    0.015385330458    -0.000067392510    -0.000062080412    0.005614863713    0.020387064907
            0.008404898439    0.016759318936    -0.000067392421    -0.000062080439    0.033573943638    0.012561182553    -0.000054802216    -0.000063959376
            -0.000030885270    -0.000049481227    0.005614893963    0.020387052427    -0.000054802228    -0.000063959367    0.029932998021    0.015350300463
0.075     0.042453752458    0.012883506685    -0.000066738241    -0.000068652216    0.016895779496    0.021398415678    -0.000055491468    -0.000064891989
            -0.000066738056    -0.000068652314    0.034634250234    0.019363955637    -0.000108397184    -0.000079752860    0.011385671097    0.028533092440
            0.016895767298    0.021398424034    -0.000108397082    -0.000079752931    0.042386456136    0.012918169848    -0.000084790592    -0.000075147151
            -0.000055491354    -0.000064892107    0.011385677814    0.028533091913    -0.000084790675    -0.000075147118    0.034564945152    0.019284639719
0.100     0.051771034863    0.009118445983    -0.000099794666    -0.000070619450    0.026856934418    0.022239228140    -0.000085462779    -0.000071385824
            -0.000099794584    -0.000070619497    0.039325994903    0.021678662253    -0.000153788103    -0.000077422335    0.018419759722    0.034677787646
            0.026856932077    0.022239234103    -0.000153788018    -0.000077422393    0.051720259311    0.009186662612    -0.000118866678    -0.000077614388
            -0.000085462623    -0.000071385948    0.018419761402    0.034677787887    -0.000118866756    -0.000077614379    0.039145370683    0.021625810555
0.125     0.059958438127    0.001114859063    -0.000132737104    -0.000061103422    0.036785149384    0.018922776303    -0.000117907744    -0.000068043231
            -0.000132737005    -0.000061103517    0.043408064856    0.022507552449    -0.000195809889    -0.000057705675    0.025965945374    0.038671851548
            0.036785149409    0.018922782811    -0.000195809821    -0.000057705729    0.059946825619    0.001220654988    -0.000154763397    -0.000069734608
            -0.000117907597    -0.000068043365    0.025965947281    0.038671851471    -0.000154763470    -0.000069734544    0.043130262221    0.022545360635
0.150     0.065472534457    -0.010731938746    -0.000162124061    -0.000041687557    0.045148686932    0.011626152289    -0.000150138015    -0.000054991803
            -0.000162123969    -0.000041687714    0.046340756311    0.022272662432    -0.000229664263    -0.000025042403    0.033305175814    0.040634660978
            0.045148688417    0.011626158553    -0.000229664180    -0.000025042515    0.065528316641    -0.010594001417    -0.000189610225    -0.000051472073
            -0.000150137744    -0.000054992863    0.033305167529    0.040634663890    -0.000189610245    -0.000051472114    0.046003790461    0.022453635593
0.175     0.066848106679    -0.025383512115    -0.000185747581    -0.000014682001    0.050543178703    0.001035355563    -0.000179888073    -0.000032783063
            -0.000185747468    -0.000014682155    0.047833604689    0.021599119816    -0.000252989248    0.000015903967    0.039818940977    0.040917299761
            0.050543182516    0.001035364731    -0.000252989251    0.000015903923    0.067000162719    -0.025231446827    -0.000221016071    -0.000023460595
            -0.000179887780    -0.000032783496    0.039818941691    0.040917299066    -0.000221016105    -0.000023460560    0.047497738003    0.021953944608
0.200     0.063079828445    -0.041329126367    -0.000202739870    0.000017430485    0.051855021557    -0.011716399420    -0.000205368727    -0.000002275230
            -0.000202739792    0.000017430336    0.047828505886    0.021187328504    -0.000265708956    0.000060877683    0.045069017154    0.040060811619
            0.051855026481    -0.011716395777    -0.000265708852    0.000060877512    0.063353039032    -0.041194058252    -0.000247053755    0.000013129921
            -0.000205368350    -0.000002275835    0.045069008571    0.040060815254    -0.000247053760    0.000013130008    0.047562660774    0.021719917868
0.225     0.053698641641    -0.056767537787    -0.000213181995    0.000052676073    0.048384904384    -0.025156876518    -0.000224978663    0.000035633884
            -0.000213181944    0.000052675903    0.046535702993    0.021720877521    -0.000269045596    0.000106773446    0.048848206794    0.038716414510
            0.048384912772    -0.025156871224    -0.000269045596    0.000106773446    0.054107801611    -0.056693309908    -0.000266209083    0.000057162284
            -0.000224978619    0.000035633716    0.048848209037    0.038716414900    -0.000266209083    0.000057162284    0.046408267661    0.022406441637
0.250     0.038860985269    -0.069780350164    -0.000217719777    0.000089896539    0.039948756288    -0.037620523390    -0.000237253386    0.000079998677
            -0.000217719757    0.000089896352    0.044420073600    0.023791764596    -0.000265029035    0.000152061094    0.051210383346    0.037564550980
            0.039948762554    -0.037620524029    -0.000265029035    0.000152061094    0.039405872230    -0.069819411542    -0.000277184970    0.000107450857
            -0.000237253366    0.000079998486    0.051210385614    0.037564551269    -0.000277184970    0.000107450857    0.044486793064    0.024579870005
0.275     0.019355042546    -0.078530044502    -0.000216869341    0.000128780954    0.026924118090    -0.047414480071    -0.000240594056    0.000129692999
            -0.000216869325    0.000128780433    0.042164237574    0.027792370515    -0.000255359383    0.000196636869    0.052463762045    0.037212963608
            0.026924127179    -0.047414480660    -0.000255359383    0.000196636869    0.020016109357    -0.078738094170    -0.000278623585    0.000162860862
            -0.000240591824    0.000129693747    0.052463764325    0.037212963850    -0.000278623531    0.000162860896    0.042459778222    0.028611747878
0.300     -0.003425135394    -0.081473115319    -0.000210607577    0.000169620683    0.010249947164    -0.053010878695    -0.000233343010    0.000183238753
            -0.000210607577    0.000169620683    0.040591138863    0.033854062925    -0.000240848749    0.000241547138    0.053137244977    0.038111956478
            0.010249951814    -0.053010882888    -0.000240848749    0.000241547138    -0.002688581346    -0.081902587424    -0.000269052121    0.000222001927
            -0.000233343010    0.000183238753    0.053137247933    0.038111955789    -0.000269052121    0.000222001927    0.041121616516    0.034622420773
0.325     -0.027594018256    -0.077546151897    -0.000198000484    0.000212744540    -0.008639522936    -0.053225087994    -0.000213840078    0.000238508234
            -0.000198000402    0.000212744452    0.040561718745    0.041786331353    -0.000220840068    0.000288056318    0.053904456139    0.040472099998
            -0.008639519862    -0.053225092546    -0.000220840080    0.000288056334    -0.026843161558    -0.078237468169    -0.000246841858    0.000283007394
            -0.000213833300    0.000238505029    0.053904459857    0.040472098377    -0.000246841802    0.000283007429    0.041301573359    0.042421367164
0.350     -0.050944321297    -0.066334452980    -0.000177313163    0.000257958879    -0.027945497630    -0.047383700304    -0.000180792722    0.000292646786
            -0.000177313208    0.000257958848    0.042856984800    0.051082781612    -0.000193299161    0.000336905519    0.055492234796    0.044226846443
            -0.027945500170    -0.047383704611    -0.000193299161    0.000336905519    -0.050256879374    -0.067308371935    -0.000210542258    0.000343251995
            -0.000180793211    0.000292645979    0.055492238676    0.044226844784    -0.000210542264    0.000343252003    0.043750189636    0.051514515607
0.375     -0.071172358677    -0.048155793937    -0.000146356083    0.000303950019    -0.045685860179    -0.035430638618    -0.000133643147    0.000342019878
            -0.000146356083    0.000303950019    0.048054809981    0.060947632473    -0.000155265342    0.000387353592    0.058560468943    0.049019532614
            -0.045685857156    -0.035430649043    -0.000155265591    0.000387353234    -0.070635804576    -0.049407250315    -0.000159216009    0.000399260287
            -0.000133643150    0.000342019887    0.058560473044    0.049019530831    -0.000159215943    0.000399260324    0.049020887344    0.061129589777
0.400     -0.086138617480    -0.024080480048    -0.000103187097    0.000348102351    -0.059924079398    -0.017973525452    -0.000073018127    0.000382570552
            -0.000103186880    0.000348101842    0.056433812344    0.070393977444    -0.000103752483    0.000436862004    0.063603256335    0.054254819594
            -0.059924083229    -0.017973526601    -0.000103752414    0.000436862051    -0.085840867163    -0.025574695282    -0.000093009121    0.000446890996
            -0.000073018985    0.000382587736    0.063603259936    0.054254816913    -0.000093008774    0.000446890895    0.057377750200    0.070311483882
0.425     -0.094111360225    0.004158675081    -0.000046822811    0.000386577996    -0.068987329449    0.003764285165    -0.000000977178    0.000410241126
            -0.000046822509    0.000386577992    0.067906898866    0.078355529420    -0.000036773553    0.000481053151    0.070857662410    0.059171640406
            -0.068987334100    0.003764273342    -0.000036773566    0.000481053211    -0.094130198596    0.002486159593    -0.000013468464    0.000481744373
            -0.000000972019    0.000410239718    0.070857665509    0.059171636696    -0.000013467072    0.000481744242    0.068732036273    0.078029882950
0.450     -0.093980182081    0.034334421060    0.000022160787    0.000414910256    -0.071672951460    0.028067977498    0.000078989867    0.000421684673
            0.000022160214    0.000414909856    0.082019607125    0.083835472100    0.000045795118    0.000514410360    0.080271321599    0.062961273505
            -0.071672955185    0.028067978956    0.000045795173    0.000514410375    -0.094373302674    0.032574393874    0.000076264901    0.000499865923
            0.000078993698    0.000421689388    0.080271324896    0.062961269302    0.000076264683    0.000499866129    0.082640732240    0.083322053348
0.475     -0.085379349978    0.063959855498    0.000101385348    0.000428714533    -0.067373942509    0.052918002111    0.000162289305    0.000414789431
            0.000101385380    0.000428714504    0.097990604285    0.086028595067    0.000141726720    0.000531161626    0.091499199994    0.064870912743
            -0.067373941320    0.052917963151    0.000141726720    0.000531161626    -0.086175752918    0.062221629444    0.000171721503    0.000498355058
            0.000162289305    0.000414789431    0.091499203391    0.064870907952    0.000171721491    0.000498355051    0.098345841064    0.085411914957
0.500     -0.068729666579    0.090549862326    0.000186840403    0.000424544282    -0.056142429108    0.076211098192    0.000243834072    0.000389113811
            0.000186840459    0.000424544268    0.114810949345    0.084430365316    0.000246530632    0.000526432200    0.103960416136    0.064309752658
            -0.056142431480    0.076211101412    0.000246529706    0.000526432015    -0.069923664958    0.088952128448    0.000267601010    0.000475933113
            0.000243832823    0.000389113779    0.103960416136    0.064309752658    0.000267600821    0.000475933185    0.114870786403    0.083812978099
0.525     -0.045177442457    0.111866152897    0.000273378666    0.000400446474    -0.038657321896    0.095967618378    0.000318723276    0.000345892938
            0.000273378552    0.000400446503    0.131358069206    0.078884505554    0.000353962357    0.000497075783    0.116905328419    0.060907080094
            -0.038657321896    0.095967618378    0.000353961891    0.000497075771    -0.046727224564    0.110525559452    0.000358498679    0.000433071912
            0.000318723770    0.000345893353    0.116905331608    0.060907073973    0.000358499252    0.000433071866    0.131130000841    0.078376103524
0.550     -0.016466825631    0.126123387823    0.000355439849    0.000356316666    -0.016138302748    0.110516568699    0.000382902640    0.000287812031
            0.000355439849    0.000356316666    0.146527616410    0.069596727702    0.000456921200    0.000442276267    0.129513357312    0.054551154160
            -0.016138306606    0.110516568136    0.000456921185    0.000442276268    -0.018295137667    0.125142880540    0.000439593463    0.000371893555
            0.000382902637    0.000287812019    0.129513350000    0.054551145757    0.000439593463    0.000371893555    0.146055948198    0.069299826367
0.575     0.015240235214    0.132121865241    0.000427732015    0.000293820069    0.009789451780    0.118613692979    0.000433552791    0.000218472128
            0.000427732020    0.000293820062    0.159336853196    0.057093538877    0.000548353006    0.000363606966    0.140966502094    0.045382096667
            0.009789448462    0.118613703287    0.000548352997    0.000363606961    0.013240336825    0.131581154178    0.000507146851    0.000295691575
            0.000433552773    0.000218472119    0.140966494951    0.045382086221    0.000507146847    0.000295691561    0.158699565032    0.057092948100
0.600     0.047559504892    0.129322364839    0.000485864106    0.000216138153    0.037244327020    0.119523541355    0.000469270513    0.000141836664
            0.000485864110    0.000216138144    0.169020679210    0.042160906010    0.000622157078    0.000264813001    0.150533442780    0.033774645356
            0.037244324934    0.119523542005    0.000622157073    0.000264813012    0.045517256617    0.129269314505    0.000558782952    0.000208422182
            0.000469270513    0.000141836664    0.150533435381    0.033774632658    0.000558782943    0.000208422178    0.168320679609    0.042513735901
0.625     0.078071284934    0.117851433220    0.000526691351    0.000127483775    0.064230932941    0.113036647941    0.000489918900    0.000061662936
            0.000526691281    0.000127483807    0.175078038012    0.025761703710    0.000673770678    0.000151246076    0.157613317538    0.020294266841
            0.064230933935    0.113036658877    0.000673770704    0.000151246094    0.076129852508    0.118296675839    0.000593433271    0.000114104737
            0.000489918209    0.000061662740    0.157613308222    0.020294260887    0.000593433247    0.000114104754    0.174434601804    0.026489734096
0.650     0.104494426852    0.098469109959    0.000548564378    0.000032605599    0.088778283563    0.099470109280    0.000496386454    -0.000018875704
            0.000548563663    0.000032606156    0.177312709645    0.008948906197    0.000700615716    0.000029203244    0.161793359046    0.005656842340
            0.088778288485    0.099470118290    0.000700615696    0.000029203238    0.102798682405    0.099382555450    0.000611178605    0.000016427211
            0.000496386453    -0.000018875722    0.161793349338    0.005656833802    0.000611178605    0.000016427219    0.176849932880    0.010036020258
0.675     0.124824174490    0.072499098904    0.000551270980    -0.000063731176    0.109047972415    0.079631603747    0.000490151670    -0.000097430781
            0.000551270656    -0.000063730842    0.175828979376    -0.007216269157    0.000702142369    -0.000094803032    0.162866140417    -0.009325765036
            0.109047979101    0.079631611547    0.000702142039    -0.000094802709    0.123510913064    0.073809667412    0.000612862678    -0.000081571991
            0.000490151678    -0.000097430791    0.162866140221    -0.009325768447    0.000612862669    -0.000081571982    0.175664025575    -0.005825385469
0.700     0.137458012717    0.041742013190    0.000535964810    -0.000157208272    0.123450261091    0.054781546527    0.000472939510    -0.000172534408
            0.000535964285    -0.000157207539    0.171032572063    -0.021747417199    0.000679771392    -0.000214747838    0.160869870387    -0.023799220353
            0.123450269276    0.054781552738    0.000679771378    -0.000214747847    0.136644053209    0.043340041315    0.000599803841    -0.000177607365
            0.000472939504    -0.000172534424    0.160869870387    -0.023799220353    0.000599803844    -0.000177607354    0.171264016705    -0.020144155432
0.725     0.141290997839    0.008372742659    0.000504824306    -0.000244321315    0.130731225983    0.026573430238    0.000446306084    -0.000243506073
            0.000504824283    -0.000244321293    0.163595219689    -0.033804698368    0.000636484911    -0.000325680959    0.156084696967    -0.036934084606
            0.130731235783    0.026573432230    0.000636484896    -0.000325680966    0.141062657347    0.010114803155    0.000573380093    -0.000270140337
            0.000446306412    -0.000243506515    0.156084696967    -0.036934084606    0.000573380051    -0.000270140403    0.164291277762    -0.032112089180
0.750     0.135804326369    -0.025181528898    0.000460724596    -0.000322691535    0.130082257278    -0.003020480999    0.000411406026    -0.000310268891
            0.000460724596    -0.000322691535    0.154422312248    -0.042772634139    0.000576342270    -0.000424202577    0.149050969536    -0.047996429043
            0.130082257278    -0.003020480999    0.000576342263    -0.000424202587    0.136207482083    -0.023463950757    0.000534805425    -0.000358264240
            0.000411406026    -0.000310268891    0.149050969536    -0.047996429043    0.000534805425    -0.000358264240    0.155612245835    -0.041133351477
0.775     0.121128878440    -0.056379464009    0.000406699016    -0.000391156958    0.121221231982    -0.031807678913    0.000368735437    -0.000373042907
            0.000406699031    -0.000391156972    0.144585236901    -0.048321920962    0.000503743810    -0.000508666291    0.140527338987    -0.056433539155
            0.121221231747    -0.031807640408    0.000503743796    -0.000508666277    0.122161382078    -0.054869209317    0.000484820709    -0.000441474042
            0.000368735437    -0.000373042907    0.140527338987    -0.056433539155    0.000484820717    -0.000441474034    0.146251694952    -0.046887991086
