# GHz S RI R 45
0.000     0.020851905000    0.000000000000    -0.000005453598    0.000000000000    0.000609218670    -0.000000000000    -0.000002399924    0.000000000000
            -0.000005453576    0.000000000000    0.021262966000    0.000000000000    -0.000006300161    0.000000000000    0.000363844690    0.000000000000
            0.000609220720    -0.000000000000    -0.000006300139    0.000000000000    0.020773139000    0.000000000000    -0.000013011836    0.000000000000
            -0.000002399976    0.000000000000    0.000363846390    0.000000000000    -0.000013011844    0.000000000000    0.021090472000    0.000000000000
0.025     0.025993997954    0.008718547002    0.000001612488    -0.000005314902    0.002618407977    0.008925367976    0.000007368083    -0.000002846747
            0.000001612508    -0.000005314886    0.025419752058    0.009788792771    -0.000006608616    -0.000010260078    0.001775691190    0.010661889573
            0.002618528496    0.008925226320    -0.000006609635    -0.000010263540    0.025920810009    0.008639521119    -0.000002587932    -0.000002212038
            0.000007368115    -0.000002846744    0.001775569245    0.010661722334    -0.000002586289    -0.000002210877    0.025425867527    0.009862705208
0.050     0.033162432350    0.012444683327    -0.000002493421    -0.000018416970    0.008218338257    0.016306641778    0.000004910336    -0.000016430617
            -0.000002493414    -0.000018416980    0.029914597520    0.015385330458    -0.000013006760    -0.000021376558    0.005614863713    0.020387064907
            0.008218289992    0.016306713135    -0.000013006279    -0.000021376027    0.033071816670    0.012301312909    -0.000001283904    -0.000017501589
            0.000004910362    -0.000016430628    0.005614893963    0.020387052427    -0.000001284272    -0.000017501694    0.029932998021    0.015350300463
0.075     0.041920079028    0.012864271580    -0.000013348719    -0.000026646308    0.016566308781    0.020844764768    -0.000004113448    -0.000025530576
            -0.000013348700    -0.000026646317    0.034634250234    0.019363955637    -0.000024242692    -0.000028634871    0.011385671097    0.028533092440
            0.016566283920    0.020844755147    -0.000024242762    -0.000028634761    0.041807054880    0.012667622438    -0.000011453031    -0.000028461024
            -0.000004113438    -0.000025530587    0.011385677814    0.028533091913    -0.000011453060    -0.000028461095    0.034564945152    0.019284639719
0.100     0.051270109971    0.009275750996    -0.000026891539    -0.000029364061    0.026418099708    0.021695743245    -0.000016036622    -0.000029947809
            -0.000026891481    -0.000029364059    0.039325994903    0.021678662253    -0.000037945590    -0.000031366443    0.018419759722    0.034677787646
            0.026418104013    0.021695752184    -0.000037945477    -0.000031366528    0.051138723033    0.009041818985    -0.000025277314    -0.000034040103
            -0.000016036577    -0.000029947839    0.018419761402    0.034677787887    -0.000025277330    -0.000034040087    0.039145370683    0.021625810555
0.125     0.059638429112    0.001503582892    -0.000040713506    -0.000026781386    0.036334410314    0.018483683728    -0.000028765482    -0.000029868890
            -0.000040713475    -0.000026781458    0.043408064856    0.022507552449    -0.000052477907    -0.000029328454    0.025965945374    0.038671851548
            0.036334421392    0.018483677390    -0.000052477943    -0.000029328462    0.059500801531    0.001246177731    -0.000040431460    -0.000034387049
            -0.000028765467    -0.000029868957    0.025965947281    0.038671851471    -0.000040431446    -0.000034387049    0.043130262221    0.022545360635
0.150     0.065526525322    -0.010119312173    -0.000053253754    -0.000019570639    0.044838122195    0.011340182894    -0.000041075388    -0.000025688647
            -0.000053253738    -0.000019570643    0.046340756311    0.022272662432    -0.000066488010    -0.000022815104    0.033305175814    0.040634660978
            0.044838118890    0.011340183723    -0.000066487947    -0.000022815174    0.065405406866    -0.010395003325    -0.000055475758    -0.000029875389
            -0.000041075354    -0.000025688685    0.033305167529    0.040634663890    -0.000055475765    -0.000029875393    0.046003790461    0.022453635593
0.175     0.067487318082    -0.024642923754    -0.000063302192    -0.000008707624    0.050558912024    0.000881100446    -0.000051927547    -0.000018031477
            -0.000063302147    -0.000008707719    0.047833604689    0.021599119816    -0.000078895398    -0.000012328381    0.039818940977    0.040917299761
            0.050558915045    0.000881099307    -0.000078895412    -0.000012328354    0.067408374086    -0.024942488535    -0.000069207103    -0.000021058448
            -0.000051927543    -0.000018031527    0.039818941691    0.040917299066    -0.000069207106    -0.000021058449    0.047497738003    0.021953944608
0.200     0.064497432332    -0.040654145698    -0.000070264297    0.000004810616    0.052388710347    -0.011845928581    -0.000060717466    -0.000007496370
            -0.000070264254    0.000004810490    0.047828505886    0.021187328504    -0.000088981438    0.000001514138    0.045069017154    0.040060811619
            0.052388715224    -0.011845929684    -0.000088981411    0.000001514044    0.064484958281    -0.040995137138    -0.000080839050    -0.000008512618
            -0.000060717436    -0.000007496495    0.045069008571    0.040060815254    -0.000080839048    -0.000008512632    0.047562660774    0.021719917868
0.225     0.056029412758    -0.056446791020    -0.000073782085    0.000019991124    0.049598941635    -0.025459258610    -0.000066959877    0.000005266823
            -0.000073782083    0.000019991123    0.046535702993    0.021720877521    -0.000096171377    0.000018102520    0.048848206794    0.038716414510
            0.049598940301    -0.025459259019    -0.000096171354    0.000018102429    0.056101592135    -0.056859071372    -0.000089698048    0.000007140819
            -0.000066959864    0.000005266775    0.048848209037    0.038716414900    -0.000089698049    0.000007140834    0.046408267661    0.022406441637
0.250     0.042141618789    -0.070179238787    -0.000073796028    0.000036066592    0.041938799076    -0.038376247746    -0.000070339416    0.000019738326
            -0.000073796027    0.000036066592    0.044420073600    0.023791764596    -0.000100046677    0.000036896313    0.051210383346    0.037564550980
            0.041938800415    -0.038376246282    -0.000100046677    0.000036896313    0.042305562106    -0.070702494531    -0.000095269655    0.000025366015
            -0.000070339404    0.000019738230    0.051210385614    0.037564551269    -0.000095269659    0.000025366016    0.044486793064    0.024579870005
0.275     0.023489453996    -0.080057883130    -0.000070279832    0.000052309107    0.029683334334    -0.048965330574    -0.000070542481    0.000035342831
            -0.000070279836    0.000052309110    0.042164237574    0.027792370515    -0.000100156973    0.000057336438    0.052463762045    0.037212963608
            0.029683330916    -0.048965332646    -0.000100156983    0.000057336421    0.023736933783    -0.080737464547    -0.000097017465    0.000045552437
            -0.000070542483    0.000035342786    0.052463764325    0.037212963850    -0.000097017456    0.000045552433    0.042459778222    0.028611747878
0.300     0.001310154432    -0.084535468039    -0.000063257675    0.000068140710    0.013639109563    -0.055722466502    -0.000067279717    0.000051525374
            -0.000063257694    0.000068140612    0.040591138863    0.033854062925    -0.000096055309    0.000078828423    0.053137244977    0.038111956478
            0.013639100335    -0.055722466702    -0.000096055309    0.000078828423    0.001614706559    -0.085416875290    -0.000094420694    0.000067048925
            -0.000067279728    0.000051525289    0.053137247933    0.038111955789    -0.000094420702    0.000067048931    0.041121616516    0.034622420773
0.325     -0.022675021707    -0.082484756062    -0.000052754943    0.000082883992    -0.004908113695    -0.057436136921    -0.000060298283    0.000067557379
            -0.000052754942    0.000082883959    0.040561718745    0.041786331353    -0.000087275374    0.000100576068    0.053904456139    0.040472099998
            -0.004908116447    -0.057436133675    -0.000087275411    0.000100575969    -0.022358133230    -0.083606324233    -0.000086982522    0.000088970842
            -0.000060298270    0.000067557388    0.053904459857    0.040472098377    -0.000086982522    0.000088970842    0.041301573359    0.042421367164
0.350     -0.046406112436    -0.073361647175    -0.000038854682    0.000095850387    -0.024304024991    -0.053346081043    -0.000049452361    0.000082605838
            -0.000038854682    0.000095850387    0.042856984800    0.051082781612    -0.000073462903    0.000121584337    0.055492234796    0.044226846443
            -0.024304025406    -0.053346081953    -0.000073462903    0.000121584337    -0.046137966606    -0.074747497765    -0.000074341907    0.000110242763
            -0.000049452348    0.000082605850    0.055492238676    0.044226844784    -0.000074341888    0.000110242776    0.043750189636    0.051514515607
0.375     -0.067683393739    -0.057293010801    -0.000021814590    0.000106203323    -0.042681399115    -0.043248677624    -0.000034831164    0.000095662717
            -0.000021814590    0.000106203323    0.048054809981    0.060947632473    -0.000054495569    0.000140592645    0.058560468943    0.049019532614
            -0.042681396305    -0.043248674777    -0.000054495621    0.000140592561    -0.067536488222    -0.058946728001    -0.000056416219    0.000129530498
            -0.000034831204    0.000095662671    0.058560473044    0.049019530831    -0.000056416190    0.000129530555    0.049020887344    0.061129589777
0.400     -0.084400682857    -0.035113413411    -0.000002114366    0.000113117351    -0.058162856407    -0.027556014858    -0.000016819401    0.000105697408
            -0.000002114426    0.000113117270    0.056433812344    0.070393977444    -0.000030631745    0.000156215155    0.063603256335    0.054254819594
            -0.058162855503    -0.027556014430    -0.000030631819    0.000156215100    -0.084451028847    -0.037013464221    -0.000033518974    0.000145407991
            -0.000016819385    0.000105697411    0.063603259936    0.054254816913    -0.000033518951    0.000145408006    0.057377750200    0.070311483882
0.425     -0.094770420361    -0.008303571255    0.000019436720    0.000115820948    -0.069058955699    -0.007270636094    0.000003820818    0.000111745288
            0.000019436728    0.000115820947    0.067906898866    0.078355529420    -0.000002606836    0.000167060102    0.070857662410    0.059171640406
            -0.069058954704    -0.007270635990    -0.000002606839    0.000167060102    -0.095088920148    -0.010402140375    -0.000006455308    0.000156473330
            0.000003820883    0.000111745306    0.070857665509    0.059171636696    -0.000006455219    0.000156473353    0.068732036273    0.078029882950
0.450     -0.097531788362    0.021140544176    0.000041781963    0.000113790998    -0.074065499759    0.016104899943    0.000026022689    0.000113098350
            0.000041781965    0.000113790997    0.082019607125    0.083835472100    0.000028382537    0.000171967577    0.080271321599    0.062961273505
            -0.074065498782    0.016104899730    0.000028382538    0.000171967587    -0.098174593890    0.018915842638    0.000023518944    0.000161597259
            0.000026022678    0.000113098363    0.080271324896    0.062961269302    0.000023518929    0.000161597271    0.082640732240    0.083322053348
0.475     -0.092085278343    0.050904684106    0.000063657008    0.000106846815    -0.072396754868    0.040721588542    0.000048489315    0.000109413956
            0.000063657006    0.000106846816    0.097990604285    0.086028595067    0.000060763637    0.000170174200    0.091499199994    0.064870912743
            -0.072396753996    0.040721588052    0.000060763625    0.000170174205    -0.093085585800    0.048645310297    0.000054793062    0.000160070676
            0.000048489313    0.000109413957    0.091499203391    0.064870907952    0.000054793074    0.000160070682    0.098345841064    0.085411914957
0.500     -0.078561780018    0.078588796549    0.000083798568    0.000095226297    -0.063870495090    0.064576384362    0.000069891722    0.000100788403
            0.000083798553    0.000095226297    0.114810949345    0.084430365316    0.000092789560    0.000161460435    0.103960416136    0.064309752658
            -0.063870493683    0.064576382940    0.000092789557    0.000161460436    -0.079923660305    0.076397528071    0.000085618736    0.000151737149
            0.000069891614    0.000100788380    0.103960416136    0.064309752658    0.000085618716    0.000151737149    0.114870786403    0.083812978099
0.525     -0.057798218411    0.101936547545    0.000101067410    0.000079565910    -0.048905863755    0.085703948004    0.000089014440    0.000087731949
            0.000101067396    0.000079565911    0.131358069206    0.078884505554    0.000122745675    0.000146147867    0.116905328419    0.060907080094
            -0.048905862764    0.085703946267    0.000122745675    0.000146147867    -0.059493652642    0.099917510471    0.000114304487    0.000136982579
            0.000089014387    0.000087731946    0.116905331608    0.060907073973    0.000114304492    0.000136982575    0.131130000841    0.078376103524
0.550     -0.031248516067    0.119041660551    0.000114625015    0.000060800561    -0.028472293714    0.102361002091    0.000104919662    0.000071073322
            0.000114625007    0.000060800554    0.146527616410    0.069596727702    0.000149158223    0.000125049757    0.129513357312    0.054551154160
            -0.028472293714    0.102361002091    0.000149158221    0.000125049759    -0.033217439236    0.117290422031    0.000139433668    0.000116663671
            0.000104919573    0.000071073329    0.129513350000    0.054551145757    0.000139433674    0.000116663680    0.146055948198    0.069299826367
0.575     -0.000837259176    0.128497982348    0.000123981789    0.000040038388    -0.003980477001    0.113156901787    0.000117006394    0.000051825437
            0.000123981789    0.000040038386    0.159336853196    0.057093538877    0.000170921854    0.000099309828    0.140966502094    0.045382096667
            -0.003980477001    0.113156901787    0.000170921852    0.000099309831    -0.002991112473    0.127091556807    0.000159964691    0.000091943135
            0.000117006346    0.000051825446    0.140966494951    0.045382086221    0.000159964691    0.000091943135    0.158699565032    0.057092948100
0.600     0.031214238046    0.129498407200    0.000129034777    0.000018394906    0.022845907320    0.117155418764    0.000125038063    0.000031035720
            0.000129034777    0.000018394903    0.169020679210    0.042160906010    0.000187371319    0.000070243546    0.150533442780    0.033774645356
            0.022845911410    0.117155417967    0.000187371317    0.000070243553    0.028986395875    0.128487513138    0.000175304463    0.000064125427
            0.000125038063    0.000031035722    0.150533435381    0.033774632658    0.000175304473    0.000064125430    0.168320679609    0.042513735901
0.625     0.062565072918    0.121868918922    0.000130002171    -0.000003117283    0.050106594007    0.113913696672    0.000129084882    0.000009665125
            0.000130002171    -0.000003117291    0.175078038012    0.025761703710    0.000198256956    0.000039162104    0.157613317538    0.020294266841
            0.050106589980    0.113913687518    0.000198256955    0.000039162111    0.060389038106    0.121271974034    0.000185261860    0.000034490618
            0.000129084880    0.000009665147    0.157613308222    0.020294260887    0.000185261847    0.000034490635    0.174434601804    0.026489734096
0.650     0.090927444447    0.106061998914    0.000127351228    -0.000023699908    0.075861133302    0.103503423683    0.000129454868    -0.000011501924
            0.000127351228    -0.000023699905    0.177312709645    0.008948906197    0.000203693304    0.000007250097    0.161793359046    0.005656842340
            0.075861131495    0.103503425007    0.000203693304    0.000007250097    0.088933833653    0.105861625663    0.000189995595    0.000004168134
            0.000129454878    -0.000011501920    0.161793349338    0.005656833802    0.000189995595    0.000004168137    0.176849932880    0.010036020258
0.675     0.114212864918    0.083107280893    0.000121693194    -0.000042803694    0.098243219296    0.086487560320    0.000126587383    -0.000031901032
            0.000121693193    -0.000042803696    0.175828979376    -0.007216269157    0.000204044109    -0.000024533379    0.162866140417    -0.009325765036
            0.098243219296    0.086487560320    0.000204044109    -0.000024533378    0.112527914789    0.083248665104    0.000189889003    -0.000025943957
            0.000126587353    -0.000031901027    0.162866140221    -0.009325768447    0.000189888981    -0.000025943971    0.175664025575    -0.005825385469
0.700     0.130666587921    0.054539422370    0.000113674551    -0.000060154695    0.115581045304    0.063892236516    0.000120964309    -0.000051198983
            0.000113674505    -0.000060154676    0.171032572063    -0.021747417199    0.000199822832    -0.000055499283    0.160869870387    -0.023799220353
            0.115581045304    0.063892236516    0.000199822868    -0.000055499267    0.129401610055    0.054932351866    0.000185453082    -0.000055220991
            0.000120964308    -0.000051198985    0.160869870387    -0.023799220353    0.000185453081    -0.000055220995    0.171264016705    -0.020144155432
0.725     0.138970638232    0.022304875138    0.000103884838    -0.000075722598    0.126487181511    0.037151679337    0.000113014350    -0.000069268641
            0.000103884839    -0.000075722597    0.163595219689    -0.033804698368    0.000191557529    -0.000085233564    0.156084696967    -0.036934084606
            0.126487181511    0.037151679337    0.000191557528    -0.000085233567    0.138213057925    0.022826587608    0.000177185927    -0.000083303648
            0.000113014349    -0.000069268643    0.156084696967    -0.036934084606    0.000177185935    -0.000083303656    0.164291277762    -0.032112089180
0.750     0.138339451665    -0.011351544937    0.000092761679    -0.000089675956    0.129966790948    0.008041157201    0.000103039980    -0.000086141303
            0.000092761671    -0.000089675964    0.154422312248    -0.042772634139    0.000179693465    -0.000113562428    0.149050969536    -0.047996429043
            0.129966790892    0.008041158109    0.000179693476    -0.000113562430    0.138142579178    -0.010849046677    0.000165490063    -0.000110055877
            0.000103039620    -0.000086140456    0.149050969536    -0.047996429043    0.000165490079    -0.000110055889    0.155612245835    -0.041133351477
0.775     0.128585692030    -0.044013437362    0.000080531449    -0.000102299407    0.125494254141    -0.021412047002    0.000091157845    -0.000101921557
            0.000080531323    -0.000102298946    0.144585236901    -0.048321920962    0.000164480993    -0.000140472424    0.140527338987    -0.056433539155
            0.125494254141    -0.021412047002    0.000164480869    -0.000140471985    0.128961638858    -0.043695745604    0.000150555437    -0.000135475908
            0.000091157840    -0.000101921562    0.140527338987    -0.056433539155    0.000150555442    -0.000135475902    0.146251694952    -0.046887991086
