# GHz S RI R 45
0.000     0.020788250000    0.000000000000    -0.000043830696    0.000000000000    0.000562849780    -0.000000000000    -0.000032996571    0.000000000000
            -0.000043831039    0.000000000000    0.021262966000    0.000000000000    -0.000020541706    0.000000000000    0.000363844690    0.000000000000
            0.000562768410    -0.000000000000    -0.000020541401    0.000000000000    0.020742291000    0.000000000000    -0.000016666488    0.000000000000
            -0.000032996771    0.000000000000    0.000363846390    0.000000000000    -0.000016666807    0.000000000000    0.021090472000    0.000000000000
0.025     0.026282118842    0.009463371530    -0.000035321550    -0.000046749235    0.002876211249    0.009783456833    -0.000037439105    -0.000047506079
            -0.000035321750    -0.000046749211    0.025419752058    0.009788792771    -0.000039228023    -0.000071987364    0.001775691190    0.010661889573
            0.002876107339    0.009783524904    -0.000039227762    -0.000071987305    0.026211801489    0.009415062025    -0.000037130895    -0.000063078516
            -0.000037439262    -0.000047506040    0.001775569245    0.010661722334    -0.000037131176    -0.000063078516    0.025425867527    0.009862705208
0.050     0.034077944785    0.013603002417    -0.000063104358    -0.000109802324    0.009178928590    0.017748277044    -0.000066867015    -0.000096009228
            -0.000063104556    -0.000109802268    0.029914597520    0.015385330458    -0.000081689543    -0.000131278091    0.005614863713    0.020387064907
            0.009178844782    0.017748323764    -0.000081689282    -0.000131278183    0.033991740201    0.013531068815    -0.000074981823    -0.000110545469
            -0.000066867206    -0.000096009181    0.005614893963    0.020387052427    -0.000074982100    -0.000110545378    0.029932998021    0.015350300463
0.075     0.043679123727    0.014119204856    -0.000121212330    -0.000152528387    0.018521090317    0.022497485334    -0.000117347963    -0.000127985404
            -0.000121212422    -0.000152528339    0.034634250234    0.019363955637    -0.000145924232    -0.000172573328    0.011385671097    0.028533092440
            0.018521024108    0.022497538546    -0.000145923909    -0.000172573496    0.043584301684    0.014036796061    -0.000129588950    -0.000142871092
            -0.000117348287    -0.000127985309    0.011385677814    0.028533091913    -0.000129589447    -0.000142870939    0.034564945152    0.019284639719
0.100     0.053959088717    0.010204103246    -0.000194283294    -0.000171329269    0.029496994734    0.023076253297    -0.000179152861    -0.000140217666
            -0.000194283369    -0.000171329214    0.039325994903    0.021678662253    -0.000224589709    -0.000191056555    0.018419759722    0.034677787646
            0.029496945929    0.023076322173    -0.000224589392    -0.000191056759    0.053870547054    0.010125027050    -0.000195566923    -0.000155917772
            -0.000179153020    -0.000140217690    0.018419761402    0.034677787887    -0.000195567091    -0.000155917850    0.039145370683    0.021625810555
0.125     0.063152098464    0.001654057671    -0.000273684719    -0.000164633532    0.040463912119    0.019071758765    -0.000245433720    -0.000131166294
            -0.000273684794    -0.000164633447    0.043408064856    0.022507552449    -0.000310379676    -0.000183989542    0.025965945374    0.038671851548
            0.040463883023    0.019071832225    -0.000310379471    -0.000183989713    0.063094463079    0.001586258541    -0.000266736775    -0.000147448275
            -0.000245433792    -0.000131166222    0.025965947281    0.038671851471    -0.000266736948    -0.000147448128    0.043130262221    0.022545360635
0.150     0.069580108492    -0.011140140191    -0.000352233145    -0.000133290205    0.049741002970    0.010660181897    -0.000310167186    -0.000101703417
            -0.000352233093    -0.000133290256    0.046340756311    0.022272662432    -0.000396281219    -0.000151401801    0.033305175814    0.040634660978
            0.049740992603    0.010660254133    -0.000396281283    -0.000151401746    0.069583838668    -0.011197369893    -0.000337128669    -0.000117795697
            -0.000310167157    -0.000101703407    0.033305167529    0.040634663890    -0.000337128592    -0.000117795736    0.046003790461    0.022453635593
0.175     0.071642380921    -0.027107473555    -0.000423905393    -0.000079174996    0.055779946974    -0.001428827858    -0.000368458827    -0.000053568842
            -0.000423905359    -0.000079175066    0.047833604689    0.021599119816    -0.000476264742    -0.000094508739    0.039818940977    0.040917299761
            0.055779954980    -0.001428749642    -0.000476264762    -0.000094508743    0.071741257999    -0.027169233550    -0.000401809172    -0.000068314953
            -0.000368459070    -0.000053568352    0.039818941691    0.040917299066    -0.000401809147    -0.000068314804    0.047497738003    0.021953944608
0.200     0.068215632033    -0.044662298575    -0.000484214096    -0.000004919910    0.057341872452    -0.015974989523    -0.000416763428    0.000010846223
            -0.000484214485    -0.000004919069    0.047828505886    0.021187328504    -0.000545511402    -0.000015450856    0.045069017154    0.040060811619
            0.057341900537    -0.015974911069    -0.000545510995    -0.000015451798    0.068440998814    -0.044758859406    -0.000457020899    -0.000001081937
            -0.000416763428    0.000010846223    0.045069008571    0.040060815254    -0.000457020909    -0.000001082017    0.047562660774    0.021719917868
0.225     0.058738978743    -0.061896248333    -0.000529263539    0.000086661881    0.053631576393    -0.031382944438    -0.000452105015    0.000089180752
            -0.000529263534    0.000086661786    0.046535702993    0.021720877521    -0.000599728143    0.000083452815    0.048848206794    0.038716414510
            0.053631618419    -0.031382878557    -0.000599728023    0.000083452372    0.059112728765    -0.062073211277    -0.000499568137    0.000081882178
            -0.000452105153    0.000089181189    0.048848209037    0.038716414900    -0.000499568263    0.000081882647    0.046408267661    0.022406441637
0.250     0.043311227956    -0.076760524033    -0.000555808871    0.000192769993    0.044408185994    -0.045838877557    -0.000472015675    0.000179198340
            -0.000555808871    0.000192769993    0.044420073600    0.023791764596    -0.000635058137    0.000199743425    0.051210383346    0.037564550980
            0.044408239493    -0.045838827121    -0.000635058034    0.000199742418    0.043839909104    -0.077075199922    -0.000526600255    0.000178637808
            -0.000472015675    0.000179198340    0.051210385614    0.037564551269    -0.000526600255    0.000178637808    0.044486793064    0.024579870005
0.275     0.022700373183    -0.087272595541    -0.000560440633    0.000310214906    0.030036152312    -0.057486841757    -0.000473765161    0.000278491040
            -0.000560440624    0.000310214901    0.042164237574    0.027792370515    -0.000647330254    0.000330533857    0.052463762045    0.037212963608
            0.030036224706    -0.057486799419    -0.000647330263    0.000330533861    0.023369979444    -0.087788760588    -0.000534878292    0.000287090278
            -0.000473765169    0.000278491045    0.052463764325    0.037212963850    -0.000534878292    0.000287090278    0.042459778222    0.028611747878
0.300     -0.001679099868    -0.091741727452    -0.000539818920    0.000435226574    0.011487959438    -0.064634624613    -0.000454501120    0.000384175833
            -0.000539818935    0.000435226586    0.040591138863    0.033854062925    -0.000632243415    0.000472095519    0.053137244977    0.038111956478
            0.011488048110    -0.064634599712    -0.000632243309    0.000472095612    -0.000906514151    -0.092521658158    -0.000520830619    0.000404518689
            -0.000454500958    0.000384176784    0.053137247933    0.038111955789    -0.000520830611    0.000404518683    0.041121616516    0.034622420773
0.325     -0.027880643244    -0.088961473125    -0.000490689859    0.000562667731    -0.009722048541    -0.065941835015    -0.000411245908    0.000492169527
            -0.000490689853    0.000562667723    0.040561718745    0.041786331353    -0.000585432967    0.000619093588    0.053904456139    0.040472099998
            -0.009721956291    -0.065941831432    -0.000585433241    0.000619093012    -0.027067070476    -0.090057266876    -0.000480578886    0.000526818391
            -0.000411245725    0.000492170006    0.053904459857    0.040472098377    -0.000480578566    0.000526819333    0.041301573359    0.042421367164
0.350     -0.053596919748    -0.078391560283    -0.000410685129    0.000686017893    -0.031671588851    -0.060603053331    -0.000341641118    0.000597033040
            -0.000410685134    0.000686017902    0.042856984800    0.051082781612    -0.000503391676    0.000764366481    0.055492234796    0.044226846443
            -0.031671502768    -0.060603068982    -0.000503391682    0.000764366489    -0.052824715963    -0.079835957922    -0.000410770141    0.000648164245
            -0.000341641113    0.000597033031    0.055492238676    0.044226844784    -0.000410769730    0.000648165098    0.043750189636    0.051514515607
0.375     -0.076387935729    -0.060250247609    -0.000299092279    0.000797176298    -0.052216256156    -0.048462762768    -0.000244688718    0.000691762274
            -0.000299091956    0.000797176708    0.048054809981    0.060947632473    -0.000384363026    0.000898753136    0.058560468943    0.049019532614
            -0.052216217587    -0.048462777864    -0.000384363241    0.000898752772    -0.075753439380    -0.062048680393    -0.000309438084    0.000760772026
            -0.000244688714    0.000691762264    0.058560473044    0.049019530831    -0.000309437916    0.000760772374    0.049020887344    0.061129589777
0.400     -0.093948907367    -0.035545744315    -0.000157732043    0.000887324337    -0.069228600058    -0.030075350691    -0.000121649547    0.000768502182
            -0.000157731368    0.000887325036    0.056433812344    0.070393977444    -0.000229470996    0.001011926589    0.063603256335    0.054254819594
            -0.069228529124    -0.030075406053    -0.000229470996    0.001011926589    -0.093552487942    -0.037671696790    -0.000177135943    0.000855579702
            -0.000121649546    0.000768502172    0.063603259936    0.054254816913    -0.000177135941    0.000855579692    0.057377750200    0.070311483882
0.425     -0.104362611841    -0.005995379256    0.000008538899    0.000947766835    -0.080826816377    -0.006664432626    0.000023425134    0.000819344725
            0.000008538916    0.000947766825    0.067906898866    0.078355529420    -0.000043352212    0.001093392196    0.070857662410    0.059171640406
            -0.080826759567    -0.006664513159    -0.000043352620    0.001093391879    -0.104297650433    -0.008388328537    -0.000017609496    0.000923160903
            0.000023425120    0.000819344736    0.070857665509    0.059171636696    -0.000017609512    0.000923160902    0.068732036273    0.078029882950
0.450     -0.106328914641    0.026135639817    0.000191939471    0.000971413297    -0.085599719506    0.019993539898    0.000183698876    0.000837712403
            0.000191939484    0.000971413274    0.082019607125    0.083835472100    0.000165778422    0.001134166310    0.080271321599    0.062961273505
            -0.085599678932    0.019993467401    0.000165777563    0.001134165829    -0.106669543039    0.023566768215    0.000162030905    0.000955293459
            0.000183698883    0.000837712432    0.080271324896    0.062961269302    0.000162030890    0.000955293472    0.082640732240    0.083322053348
0.475     -0.099302475755    0.058266916616    0.000382421006    0.000953793746    -0.082748347924    0.047757066689    0.000350133223    0.000819379564
            0.000382420973    0.000953793760    0.097990604285    0.086028595067    0.000386811984    0.001128048139    0.091499199994    0.064870912743
            -0.082748330165    0.047756979428    0.000386811984    0.001128048139    -0.100094060646    0.055636999969    0.000351893709    0.000946216399
            0.000350133219    0.000819379555    0.091499203391    0.064870907952    0.000351894128    0.000946216564    0.098345841064    0.085411914957
0.500     -0.083553985274    0.087769065000    0.000568932055    0.000893914362    -0.072171251854    0.074346426038    0.000512631935    0.000763325114
            0.000568932040    0.000893914372    0.114810949345    0.084430365316    0.000607075188    0.001072733564    0.103960416136    0.064309752658
            -0.072171261965    0.074346332602    0.000607074331    0.001072733359    -0.084805604747    0.085206900166    0.000540503161    0.000893725398
            0.000512631916    0.000763325114    0.103960416136    0.064309752658    0.000540503146    0.000893725407    0.114870786403    0.083812978099
0.525     -0.060122998590    0.112218446176    0.000740729792    0.000794259185    -0.054445547906    0.097562810812    0.000661308181    0.000671812042
            0.000740730219    0.000794259198    0.131358069206    0.078884505554    0.000813859969    0.000969975309    0.116905328419    0.060907080094
            -0.054445581906    0.097562711676    0.000813859935    0.000969975338    -0.061804603469    0.109854584047    0.000716254035    0.000799419772
            0.000661308705    0.000671812059    0.116905331608    0.060907073973    0.000716254024    0.000799419647    0.131130000841    0.078376103524
0.550     -0.030702405777    0.129619682110    0.000888716536    0.000660376334    -0.030754759738    0.115493618696    0.000787755385    0.000550030745
            0.000888716536    0.000660376334    0.146527616410    0.069596727702    0.000995992326    0.000825265034    0.129513357312    0.054551154160
            -0.030754802197    0.115493534950    0.000995991355    0.000825265109    -0.032744479693    0.127574403070    0.000868899772    0.000668452030
            0.000787755391    0.000550030789    0.129513350000    0.054551145757    0.000868899863    0.000668452075    0.146055948198    0.069299826367
0.575     0.002538834819    0.138555521666    0.001006193461    0.000499892122    -0.002754144431    0.126648657263    0.000885836650    0.000405196891
            0.001006193452    0.000499892140    0.159336853196    0.057093538877    0.001144842675    0.000646817389    0.140966502094    0.045382096667
            -0.002754174725    0.126648626597    0.001144842664    0.000646817409    0.000240023377    0.136927489629    0.000990585624    0.000508591539
            0.000885836623    0.000405196878    0.140966494951    0.045382086221    0.000990585624    0.000508591539    0.158699565032    0.057092948100
0.600     0.037152349661    0.138279832543    0.001089338775    0.000321460752    0.027578876855    0.130065056325    0.000952159894    0.000245547818
            0.001089338752    0.000321460828    0.169020679210    0.042160906010    0.001255015314    0.000444417748    0.150533442780    0.033774645356
            0.027578801044    0.130065000843    0.001255015314    0.000444417748    0.034728046109    0.137136437191    0.001076531674    0.000329143822
            0.000952160765    0.000245547564    0.150533435381    0.033774632658    0.001076531674    0.000329143822    0.168320679609    0.042513735901
0.625     0.070606169893    0.128735587708    0.001137014098    0.000133702440    0.058099445393    0.125336380612    0.000985966343    0.000079298117
            0.001137014198    0.000133702443    0.175078038012    0.025761703710    0.001324282655    0.000228119886    0.157613317538    0.020294266841
            0.058099363283    0.125336352541    0.001324282652    0.000228119904    0.068205855809    0.128106502853    0.001125052511    0.000139714234
            0.000985966342    0.000079298132    0.157613308222    0.020294260887    0.001125052508    0.000139714257    0.174434601804    0.026489734096
0.650     0.100467446561    0.110534034256    0.001150468639    -0.000055650154    0.086644713980    0.112629451851    0.000988845782    -0.000086192414
            0.001150468639    -0.000055650170    0.177312709645    0.008948906197    0.001353384941    0.000007276064    0.161793359046    0.005656842340
            0.086644626286    0.112629443613    0.001353384941    0.000007276068    0.098247929131    0.110406833746    0.001137365943    -0.000050800932
            0.000988845782    -0.000086192414    0.161793349338    0.005656833802    0.001137365943    -0.000050800914    0.176849932880    0.010036020258
0.675     0.124552754136    0.084887839965    0.001132602004    -0.000240298106    0.111156375294    0.092649081185    0.000964060825    -0.000245034104
            0.001132602004    -0.000240298106    0.175828979376    -0.007216269157    0.001345223012    -0.000210291671    0.162866140417    -0.009325765036
            0.111156332845    0.092649085257    0.001345223013    -0.000210291666    0.122666642285    0.085206259274    0.001116885877    -0.000235052420
            0.000964060825    -0.000245034104    0.162866140221    -0.009325768447    0.001116885869    -0.000235052459    0.175664025575    -0.005825385469
0.700     0.141062895302    0.053527009707    0.001087377576    -0.000415758061    0.129810225955    0.066605285494    0.000915937698    -0.000393178038
            0.001087377576    -0.000415758061    0.171032572063    -0.021747417199    0.001304244107    -0.000418850552    0.160869870387    -0.023799220353
            0.129810134613    0.066605310179    0.001304244099    -0.000418850575    0.139647194905    0.054192844958    0.001068564367    -0.000407802827
            0.000915937701    -0.000393178058    0.160869870387    -0.023799220353    0.001068564367    -0.000407802827    0.171264016705    -0.020144155432
0.725     0.148684076551    0.018594548999    0.001018958901    -0.000579352633    0.141110703725    0.036148863380    0.000849024994    -0.000528511463
            0.001018958901    -0.000579352633    0.163595219689    -0.033804698368    0.001235357367    -0.000614868138    0.156084696967    -0.036934084606
            0.141110629198    0.036148912524    0.001235357356    -0.000614868160    0.147848921790    0.019470698329    0.000997859566    -0.000566151848
            0.000849024918    -0.000528511395    0.156084696967    -0.036934084606    0.000997859576    -0.000566151830    0.164291277762    -0.032112089180
0.750     0.146682264239    -0.017475429254    0.000931098360    -0.000730136462    0.144010377901    0.003298134980    0.000767411992    -0.000650755455
            0.000931098360    -0.000730136462    0.154422312248    -0.042772634139    0.001143181473    -0.000797034883    0.149050969536    -0.047996429043
            0.144010316408    0.003298199459    0.001143181473    -0.000797034883    0.146499998464    -0.016556986057    0.000909900538    -0.000709548060
            0.000767411992    -0.000650755455    0.149050969536    -0.047996429043    0.000909900550    -0.000709548044    0.155612245835    -0.041133351477
0.775     0.134966677392    -0.052094324566    0.000826413047    -0.000868419464    0.137989569995    -0.029664209401    0.000673961436    -0.000761020848
            0.000826413047    -0.000868419464    0.144585236901    -0.048321920962    0.001031021465    -0.000965745184    0.140527338987    -0.056433539155
            0.137989525314    -0.029664131765    0.001031021448    -0.000965745202    0.135462652947    -0.051322900328    0.000808453271    -0.000839352125
            0.000673961436    -0.000761020848    0.140527338987    -0.056433539155    0.000808453285    -0.000839352111    0.146251694952    -0.046887991086
