# GHz S RI R 45
0.000     0.021306846000    0.000000000000    0.978268300000    -0.000000000000    0.000603347050    -0.000000000000    -0.000741887550    0.000000000000
            0.978268300000    -0.000000000000    0.021262966000    0.000000000000    -0.000742051010    0.000000000000    0.000363844690    0.000000000000
            0.000603316560    -0.000000000000    -0.000742086140    0.000000000000    0.021272673000    0.000000000000    0.978329290000    -0.000000000000
            -0.000741922710    0.000000000000    0.000363846390    0.000000000000    0.978329290000    -0.000000000000    0.021090472000    0.000000000000
0.025     0.027085837193    0.009900113016    0.960895529553    -0.166119783748    0.003018417814    0.010350134381    -0.001172852831    -0.002168570545
            0.960895529263    -0.166119785425    0.025419752058    0.009788792771    -0.001169288347    -0.002167518690    0.001775691190    0.010661889573
            0.003018365507    0.010350190260    -0.001169320297    -0.002167576105    0.027014972858    0.009837882356    0.960993115376    -0.165814058766
            -0.001172985916    -0.002168641131    0.001775569245    0.010661722334    0.960993115665    -0.165814057089    0.025425867527    0.009862705208
0.050     0.035154494861    0.014216314219    0.917305183971    -0.323538215979    0.009615889467    0.018746970219    -0.002584496572    -0.004050528995
            0.917305183971    -0.323538215979    0.029914597520    0.015385330458    -0.002580364289    -0.004051576110    0.005614863713    0.020387064907
            0.009615850393    0.018746994756    -0.002580397903    -0.004051574265    0.035076195829    0.014117651498    0.917556515429    -0.322933052556
            -0.002584531051    -0.004050528465    0.005614893963    0.020387052427    0.917556515429    -0.322933052556    0.029932998021    0.015350300463
0.075     0.045000104607    0.014672527418    0.848693150059    -0.470887615573    0.019326791527    0.023682402167    -0.004681737297    -0.005203643795
            0.848693150059    -0.470887615573    0.034634250234    0.019363955637    -0.004677795179    -0.005204566925    0.011385671097    0.028533092440
            0.019326763396    0.023682422543    -0.004677823971    -0.005204553283    0.044922454392    0.014538800639    0.849204828068    -0.470043334536
            -0.004681767130    -0.005203629464    0.011385677814    0.028533091913    0.849204828068    -0.470043334536    0.034564945152    0.019284639719
0.100     0.055354165192    0.010457199852    0.756893701845    -0.604167034243    0.030592124911    0.024171274775    -0.007103852418    -0.005537884477
            0.756893701845    -0.604167034243    0.039325994903    0.021678662253    -0.007097771286    -0.005537462991    0.018419759722    0.034677787646
            0.030592110871    0.024171295771    -0.007097799781    -0.005537443374    0.055287451451    0.010291587667    0.757745463145    -0.603166479247
            -0.007103881292    -0.005537867119    0.018419761402    0.034677787887    0.757745463145    -0.603166479247    0.039145370683    0.021625810555
0.125     0.064300354206    0.001444703815    0.644705217938    -0.719861493317    0.041612977997    0.019844557682    -0.009567809324    -0.005089380957
            0.644705217938    -0.719861493317    0.043408064856    0.022507552449    -0.009556092275    -0.005088762312    0.025965945374    0.038671851548
            0.041612966641    0.019844586141    -0.009556120619    -0.005088738870    0.064258300551    0.001244674104    0.645952515357    -0.718802297738
            -0.009567832365    -0.005089358935    0.025965947281    0.038671851471    0.645952515357    -0.718802297738    0.043130262221    0.022545360635
0.150     0.070051852844    -0.011836766910    0.515401374743    -0.814992733448    0.050577470533    0.010991776376    -0.011883372424    -0.003976764244
            0.515401374743    -0.814992733448    0.046340756311    0.022272662432    -0.011862904959    -0.003979946363    0.033305175814    0.040634660978
            0.050577467901    0.010991802613    -0.011862928398    -0.003979917371    0.070052886646    -0.012078149962    0.517076603860    -0.813984798021
            -0.011883390236    -0.003976742529    0.033305167529    0.040634663890    0.517076603860    -0.813984798021    0.046003790461    0.022453635593
0.175     0.070953008935    -0.028110026432    0.372635340856    -0.887217535156    0.055857379479    -0.001486888676    -0.013958388210    -0.002326417513
            0.372635340856    -0.887217535156    0.047833604689    0.021599119816    -0.013928559982    -0.002340051629    0.039818940977    0.040917299761
            0.055857382148    -0.001486863577    -0.013928578928    -0.002340017318    0.071013658941    -0.028412195985    0.374745555850    -0.886375128403
            -0.013958406718    -0.002326385543    0.039818941691    0.040917299066    0.374745571320    -0.886375121862    0.047497738003    0.021953944608
0.200     0.065916556247    -0.045562240773    0.220316582303    -0.934775314272    0.056204487957    -0.016165166615    -0.015776559630    -0.000226956016
            0.220316582303    -0.934775314272    0.047828505886    0.021187328504    -0.015740801320    -0.000258636489    0.045069017154    0.040060811619
            0.056204496933    -0.016165142644    -0.015740811770    -0.000258609181    0.066047033439    -0.045954787749    0.222844768437    -0.934215087891
            -0.015776574143    -0.000226920421    0.045069008571    0.040060815254    0.222844768437    -0.934215087891    0.047562660774    0.021719917868
0.225     0.054510009678    -0.062064194033    0.062562369298    -0.956487660115    0.050897885860    -0.031231140459    -0.017346752197    0.002305334842
            0.062562369298    -0.956487660115    0.046535702993    0.021720877521    -0.017313026122    0.002249294651    0.048848206794    0.038716414510
            0.050897906405    -0.031231112713    -0.017313034303    0.002249332586    0.054709696674    -0.062585022490    0.065466410019    -0.956323453476
            -0.017346759265    0.002305372754    0.048848209037    0.038716414900    0.065466410019    -0.956323453476    0.046408267661    0.022406441637
0.250     0.037053310068    -0.075386730009    -0.096352178132    -0.951804956490    0.039860508535    -0.044674726733    -0.018648052362    0.005327759416
            -0.096352194744    -0.951804954808    0.044420073600    0.023791764596    -0.018628094523    0.005244889028    0.051210383346    0.037564550980
            0.039860535045    -0.044674703079    -0.018628096920    0.005244924792    0.037306776130    -0.076078311424    -0.093141305115    -0.952146270188
            -0.018648054601    0.005327795260    0.051210385614    0.037564551269    -0.093141305115    -0.952146270188    0.044486793064    0.024579870005
0.275     0.014618202012    -0.083442784578    -0.252063887016    -0.920841004739    0.023707804562    -0.054498378577    -0.019573480074    0.008936718836
            -0.252063887016    -0.920841004739    0.042164237574    0.027792370515    -0.019580948189    0.008830327122    0.052463762045    0.037212963608
            0.023707815178    -0.054498371777    -0.019580944975    0.008830358573    0.014892184634    -0.084345811470    -0.248636700461    -0.921787295549
            -0.019573476303    0.008936758398    0.052463764325    0.037212963850    -0.248636700461    -0.921787295549    0.042459778222    0.028611747878
0.300     -0.011019786167    -0.084548710857    -0.400209613443    -0.864432942972    0.003733374802    -0.058961263247    -0.019905040640    0.013206347074
            -0.400209613443    -0.864432942972    0.040591138863    0.033854062925    -0.019952149162    0.013086301469    0.053137244977    0.038111956478
            0.003733372555    -0.058961260384    -0.019952141761    0.013086336457    -0.010777148149    -0.085695840932    -0.396686659018    -0.866064581830
            -0.019905030728    0.013206385528    0.053137247933    0.038111955789    -0.396686659018    -0.866064581830    0.041121616516    0.034622420773
0.325     -0.037535822242    -0.077647684397    -0.536548268120    -0.784171972558    -0.018191124386    -0.056801432809    -0.019322806452    0.018110841850
            -0.536548268120    -0.784171972558    0.040561718745    0.041786331353    -0.019417589635    0.017993006927    0.053904456139    0.040472099998
            -0.018191133385    -0.056801426777    -0.019417577921    0.017993040166    -0.037392214579    -0.079055268386    -0.533072081816    -0.786549363979
            -0.019322794540    0.018110875031    0.053904459857    0.040472098377    -0.533072081816    -0.786549363979    0.041301573359    0.042421367164
0.350     -0.062286436897    -0.062505350673    -0.657135393584    -0.682426895265    -0.039803010881    -0.047440240609    -0.017463038016    0.023462142493
            -0.657135393584    -0.682426895265    0.042856984800    0.051082781612    -0.017606025543    0.023365758317    0.055492234796    0.044226846443
            -0.039803009595    -0.047440239077    -0.017606005421    0.023365791008    -0.062320000095    -0.064166327420    -0.653868201718    -0.685577371609
            -0.017463022403    0.023462172813    0.055492238676    0.044226844784    -0.653868201718    -0.685577371609    0.043750189636    0.051514515607
0.375     -0.082604590701    -0.039790477069    -0.758486496387    -0.562298650441    -0.058699234605    -0.031094626119    -0.014006500991    0.028876463558
            -0.758486496387    -0.562298650441    0.048054809981    0.060947632473    -0.014189740042    0.028820672786    0.058560468943    0.049019532614
            -0.058699197116    -0.031094645619    -0.014189720192    0.028820695935    -0.082895130815    -0.041669884581    -0.755601654247    -0.566212876289
            -0.014006476862    0.028876490822    0.058560473044    0.049019530831    -0.755601654247    -0.566212876289    0.049020887344    0.061129589777
0.400     -0.096132931088    -0.011061192324    -0.837774334272    -0.427519547120    -0.072640831579    -0.008801582511    -0.008783183162    0.033798879739
            -0.837774334272    -0.427519547120    0.056433812344    0.070393977444    -0.008990704793    0.033798597240    0.063603256335    0.054254819594
            -0.072640831130    -0.008801569592    -0.008990679925    0.033798622480    -0.096751332580    -0.013094946469    -0.835448519766    -0.432146735611
            -0.008783158194    0.033798904825    0.063603259936    0.054254816913    -0.835448519766    -0.432146735611    0.057377750200    0.070311483882
0.425     -0.101117747924    0.021390758967    -0.892965870340    -0.282287504207    -0.079827584583    0.017687424544    -0.001857572935    0.037575695003
            -0.892965870340    -0.282287504207    0.067906898866    0.078355529420    -0.002067829091    0.037638008619    0.070857662410    0.059171640406
            -0.079827582630    0.017687424111    -0.002067801776    0.037638027145    -0.102114985802    0.019292796421    -0.891367295539    -0.287534116991
            -0.001857545574    0.037575713377    0.070857665509    0.059171636696    -0.891367295539    -0.287534116991    0.068732036273    0.078029882950
0.450     -0.096643119856    0.054794583454    -0.922918870853    -0.131045800956    -0.079134971483    0.046109847611    0.006430240355    0.039572852949
            -0.922918870853    -0.131045800956    0.082019607125    0.083835472100    0.006240205909    0.039695289904    0.080271321599    0.062961273505
            -0.079134949240    0.046109760647    0.006240233646    0.039695303765    -0.098040646788    0.052741562262    -0.922191812240    -0.136778277255
            0.006430268267    0.039572867663    0.080271324896    0.062961269302    -0.922191802348    -0.136778275787    0.082640732240    0.083322053348
0.475     -0.082729861496    0.086221149217    -0.927376677241    0.021740346012    -0.070226949287    0.073960655282    0.015483859227    0.039299551881
            -0.927376677241    0.021740346012    0.097990604285    0.086028595067    0.015333940105    0.039470085706    0.091499199994    0.064870912743
            -0.070226942401    0.073960648030    0.015333985740    0.039470099088    -0.084513341077    0.084329898320    -0.927636421352    0.015686343247
            0.015483904839    0.039299565080    0.091499203391    0.064870907952    -0.927636421352    0.015686343247    0.098345841064    0.085411914957
0.500     -0.060321261328    0.112912246526    -0.906913631956    0.171792991229    -0.053577081317    0.098783334476    0.024530532404    0.036517102917
            -0.906913631956    0.171792991229    0.114810949345    0.084430365316    0.024433466336    0.036716463319    0.103960416136    0.064309752658
            -0.053577081317    0.098783334476    0.024433466336    0.036716463319    -0.062438673141    0.111295537193    -0.908235716097    0.165605324693
            0.024530532404    0.036517102917    0.103960416136    0.064309752658    -0.908235716097    0.165605324693    0.114870786403    0.083812978099
0.525     -0.031143016404    0.132557664665    -0.862798606083    0.315183425947    -0.030367833854    0.118412085475    0.032739606760    0.031294546272
            -0.862798606083    0.315183425947    0.131358069206    0.078884505554    0.032698369254    0.031500209886    0.116905328419    0.060907080094
            -0.030367878465    0.118412001769    0.032698363416    0.031500213064    -0.033507263920    0.131311742626    -0.865221858448    0.309061203674
            0.032739693620    0.031294549472    0.116905331608    0.060907073973    -0.865221858448    0.309061203674    0.131130000841    0.078376103524
0.550     0.002503039247    0.143499061533    -0.796856739784    0.448429235406    -0.002338204607    0.131165440797    0.039358168737    0.024009730812
            -0.796856739784    0.448429235406    0.146527616410    0.069596727702    0.039365395743    0.024200910371    0.129513357312    0.054551154160
            -0.002338202139    0.131165430839    0.039365486638    0.024200898087    0.000008811237    0.142692679728    -0.800374951597    0.442573716057
            0.039358168737    0.024009730812    0.129513350000    0.054551145757    -0.800374951597    0.442573716057    0.146055948198    0.069299826367
0.575     0.037982716950    0.144828557490    -0.711309221528    0.568524346140    0.028409652113    0.135940761212    0.043825540398    0.015290569172
            -0.711309221528    0.568524346140    0.159336853196    0.057093538877    0.043865513968    0.015452566790    0.140966502094    0.045382096667
            0.028409652440    0.135940750927    0.043865602238    0.015452541946    0.035495420638    0.144495223204    -0.715882891581    0.563132490360
            0.043825584407    0.015290555354    0.140966494951    0.045382086221    -0.715882891581    0.563132490360    0.158699565032    0.057092948100
0.600     0.072565508379    0.136415757598    -0.608653314200    0.672939356623    0.059594929394    0.132264058632    0.045857749335    0.005915443094
            -0.608653320908    0.672939364039    0.169020679210    0.042160906010    0.045909846857    0.006042857882    0.150533442780    0.033774645356
            0.059594845235    0.132264019775    0.045909928588    0.006042826985    0.070231175107    0.136548169466    -0.614210258871    0.668191790352
            0.045857830059    0.005915411358    0.150533435381    0.033774632658    -0.614210258871    0.668191790352    0.168320679609    0.042513735901
0.625     0.103626122973    0.118860132928    -0.491576274829    0.759567895211    0.088917187483    0.120267665730    0.045476743106    -0.003307598504
            -0.491576274829    0.759567895211    0.175078038012    0.025761703710    0.045520264392    -0.003208969256    0.157613317538    0.020294266841
            0.088917101435    0.120267654729    0.045520302304    -0.003208986061    0.101588876291    0.119408786474    -0.498016146992    0.755630612642
            0.045476781823    -0.003307617598    0.157613308222    0.020294260887    -0.498016146992    0.755630612642    0.174434601804    0.026489734096
0.650     0.128815315087    0.093415781463    -0.362895899365    0.826690525081    0.114198473509    0.100664231123    0.042995477638    -0.011663274557
            -0.362895899365    0.826690525081    0.177312709645    0.008948906197    0.043014685898    -0.011577728703    0.161793359046    0.005656842340
            0.114198467764    0.100664222517    0.043014754415    -0.011577785791    0.127205351328    0.094289548028    -0.370099238624    0.823712699750
            0.042995546397    -0.011663334296    0.161793349338    0.005656833802    -0.370099238624    0.823712699750    0.176849932880    0.010036020258
0.675     0.146184100497    0.061889581576    -0.225556509695    0.872919619903    0.133486494564    0.074689682810    0.038951932071    -0.018631513746
            -0.225556509695    0.872919619903    0.175828979376    -0.007216269157    0.038940684118    -0.018535961377    0.162866140417    -0.009325765036
            0.133486452740    0.074689696119    0.038940715895    -0.018535992341    0.145106800617    0.062959415507    -0.233384883564    0.871033431724
            0.038951963781    -0.018631544786    0.162866140221    -0.009325768447    -0.233384883564    0.871033431724    0.175664025575    -0.005825385469
0.700     0.154296400214    0.026535102006    -0.082625564030    0.897190437107    0.145172826808    0.044055254880    0.034013390901    -0.023960610673
            -0.082625564030    0.897190437107    0.171032572063    -0.021747417199    0.033978064589    -0.023829666649    0.160869870387    -0.023799220353
            0.145172826808    0.044055254880    0.033978065408    -0.023829667223    0.153821503156    0.027640711025    -0.090925320401    0.896512330837
            0.034013390483    -0.023960611266    0.160869870387    -0.023799220353    -0.090925320401    0.896512330837    0.171264016705    -0.020144155432
0.725     0.152313096350    -0.010061865066    0.062666812649    0.898760471444    0.148085102071    0.010880848354    0.028855032495    -0.027693004467
            0.062666812649    0.898760471444    0.163595219689    -0.033804698368    0.028815165841    -0.027504489650    0.156084696967    -0.036934084606
            0.148085092098    0.010880847621    0.028815165841    -0.027504489650    0.152465810614    -0.009104056412    0.054073675227    0.899392675858
            0.028855051919    -0.027693046328    0.156084696967    -0.036934084606    0.054073675227    0.899392675858    0.164291277762    -0.032112089180
0.750     0.140080681161    -0.045118725255    0.206930208240    0.877254346884    0.141613967259    -0.022394691361    0.024036049746    -0.030145977068
            0.206930208240    0.877254346884    0.154422312248    -0.042772634139    0.024022665641    -0.029887522167    0.149050969536    -0.047996429043
            0.141613929130    -0.022394612368    0.024022669502    -0.029887521629    0.140833228738    -0.044502510410    0.198235881951    0.879279545340
            0.024036053000    -0.030145975752    0.149050969536    -0.047996429043    0.198235881951    0.879279545340    0.155612245835    -0.041133351477
0.775     0.118195921211    -0.075812827814    0.346582146299    0.832734990074    0.125813196394    -0.053135560881    0.019889342719    -0.031835410204
            0.346582146299    0.832734990074    0.144585236901    -0.048321920962    0.019940235957    -0.031509525097    0.140527338987    -0.056433539155
            0.125813196394    -0.053135560881    0.019940235957    -0.031509525097    0.119463210279    -0.075728271706    0.338006418307    0.836218299330
            0.019889354470    -0.031835500730    0.140527338987    -0.056433539155    0.338006418307    0.836218299330    0.146251694952    -0.046887991086
