# GHz S RI R 45
0.000     0.021160655000    0.000000000000    -0.000090099104    0.000000000000    0.000608151500    -0.000000000000    -0.000100588020    0.000000000000
            -0.000090098653    0.000000000000    0.021262966000    0.000000000000    -0.000059806654    0.000000000000    0.000363844690    0.000000000000
            0.000608148480    -0.000000000000    -0.000059805813    0.000000000000    0.021088282000    0.000000000000    -0.000062266101    0.000000000000
            -0.000100587340    0.000000000000    0.000363846390    0.000000000000    -0.000062266480    0.000000000000    0.021090472000    0.000000000000
0.025     0.026696468643    0.009648966826    -0.000106086854    -0.000196034137    0.002952300940    0.010046538876    -0.000078313169    -0.000134312311
            -0.000106086416    -0.000196034227    0.025419752058    0.009788792771    -0.000116516882    -0.000272841378    0.001775691190    0.010661889573
            0.002952275570    0.010046588022    -0.000116515989    -0.000272841530    0.026633706061    0.009622566784    -0.000094426435    -0.000207653055
            -0.000078312585    -0.000134312385    0.001775569245    0.010661722334    -0.000094426944    -0.000207652923    0.025425867527    0.009862705208
0.050     0.034602501032    0.013873563377    -0.000224699793    -0.000396720995    0.009380896047    0.018229334916    -0.000159830216    -0.000310508854
            -0.000224699412    -0.000396721131    0.029914597520    0.015385330458    -0.000277120443    -0.000510889829    0.005614863713    0.020387064907
            0.009380881969    0.018229346659    -0.000277119653    -0.000510890075    0.034532513123    0.013841975826    -0.000219165498    -0.000401166270
            -0.000159829629    -0.000310509044    0.005614893963    0.020387052427    -0.000219165962    -0.000401166119    0.029932998021    0.015350300463
0.075     0.044301332158    0.014362995852    -0.000428328072    -0.000532732109    0.018886740638    0.023081477590    -0.000324943924    -0.000428239802
            -0.000428326614    -0.000532735437    0.034634250234    0.019363955637    -0.000526350043    -0.000677337949    0.011385671097    0.028533092440
            0.018886731718    0.023081482305    -0.000526349248    -0.000677338389    0.044235526218    0.014334957456    -0.000420229004    -0.000532946593
            -0.000325122431    -0.000428341834    0.011385677814    0.028533091913    -0.000420234427    -0.000532946010    0.034564945152    0.019284639719
0.100     0.054594436005    0.010308267180    -0.000679771242    -0.000589907466    0.029988665499    0.023632973193    -0.000530682782    -0.000477179433
            -0.000679771211    -0.000589910767    0.039325994903    0.021678662253    -0.000832579041    -0.000753782901    0.018419759722    0.034677787646
            0.029988664635    0.023632975906    -0.000832578235    -0.000753783494    0.054549350277    0.010290988948    -0.000666053135    -0.000588841458
            -0.000530688289    -0.000477205658    0.018419761402    0.034677787887    -0.000666054709    -0.000588843678    0.039145370683    0.021625810555
0.125     0.063645713072    0.001540801463    -0.000951875304    -0.000561589300    0.040968734520    0.019491299792    -0.000751823012    -0.000454007152
            -0.000951874936    -0.000561589530    0.043408064856    0.022507552449    -0.001166484866    -0.000730897355    0.025965945374    0.038671851548
            0.040968734402    0.019491302367    -0.001166484526    -0.000730897709    0.063644681204    0.001536646081    -0.000930706689    -0.000563002145
            -0.000751822681    -0.000454007488    0.025965947281    0.038671851471    -0.000930706689    -0.000563002145    0.043130262221    0.022545360635
0.150     0.069718555257    -0.011477296840    -0.001220749958    -0.000449600702    0.050083518474    0.010885959462    -0.000968102465    -0.000362169768
            -0.001220749429    -0.000449598088    0.046340756311    0.022272662432    -0.001501157178    -0.000609215532    0.033305175814    0.040634660978
            0.050083518881    0.010885962297    -0.001501157974    -0.000609214635    0.069788525504    -0.011477371522    -0.001191663865    -0.000458115697
            -0.000968114533    -0.000362177750    0.033305167529    0.040634663890    -0.001191662332    -0.000458116062    0.046003790461    0.022453635593
0.175     0.071188317931    -0.027578148932    -0.001466197012    -0.000259673268    0.055745116451    -0.001372498134    -0.001163099735    -0.000208180891
            -0.001466215527    -0.000259666782    0.047833604689    0.021599119816    -0.001813798159    -0.000393845013    0.039818940977    0.040917299761
            0.055745117508    -0.001372495824    -0.001813798315    -0.000393845710    0.071357242212    -0.027594622606    -0.001430822369    -0.000280639166
            -0.001163093807    -0.000208167469    0.039818941691    0.040917299066    -0.001430822368    -0.000280635535    0.047497738003    0.021953944608
0.200     0.066947975057    -0.045066563442    -0.001672619095    -0.000000133995    0.056708811707    -0.015965302718    -0.001325210999    -0.000000059442
            -0.001672573294    -0.000000142457    0.047828505886    0.021187328504    -0.002086387024    -0.000092673423    0.045069017154    0.040060811619
            0.056708814189    -0.015965301280    -0.002086386460    -0.000092674857    0.067239266863    -0.045133157651    -0.001635162239    -0.000038795440
            -0.001325185799    -0.000000037931    0.045069008571    0.040060815254    -0.001635161812    -0.000038796572    0.047562660774    0.021719917868
0.225     0.056496943800    -0.061925509421    -0.001826344101    0.000319969120    0.052213204613    -0.031192879651    -0.001444758837    0.000254209982
            -0.001826343960    0.000319968767    0.046535702993    0.021720877521    -0.002302846514    0.000286040454    0.048848206794    0.038716414510
            0.052213207419    -0.031192878855    -0.002302846217    0.000286039601    0.056923049270    -0.062089152018    -0.001793941827    0.000259753068
            -0.001444758620    0.000254208904    0.048848209037    0.038716414900    -0.001793941827    0.000259753068    0.046408267661    0.022406441637
0.250     0.040040031353    -0.076016388894    -0.001915384354    0.000691354286    0.042093656707    -0.045145599129    -0.001513620733    0.000547433682
            -0.001915384125    0.000691353447    0.044420073600    0.023791764596    -0.002448197524    0.000733979366    0.051210383346    0.037564550980
            0.042093660329    -0.045145599854    -0.002448197493    0.000733978425    0.040596840312    -0.076332781278    -0.001897579497    0.000608522486
            -0.001513620549    0.000547432719    0.051210385614    0.037564551269    -0.001897579665    0.000608523271    0.044486793064    0.024579870005
0.275     0.018491608694    -0.085301791244    -0.001927069188    0.001103132018    0.026833401422    -0.055896619702    -0.001522704587    0.000871777760
            -0.001927065830    0.001103127416    0.042164237574    0.027792370515    -0.002505689891    0.001241218285    0.052463762045    0.037212963608
            0.026833404239    -0.055896620568    -0.002505690018    0.001241217804    0.019154147560    -0.085829853728    -0.001934660464    0.001000818027
            -0.001522703723    0.000871773030    0.052463764325    0.037212963850    -0.001934660553    0.001000818073    0.042459778222    0.028611747878
0.300     -0.006557437713    -0.088089346875    -0.001848716260    0.001541774307    0.007558370206    -0.061725595258    -0.001462229218    0.001217856340
            -0.001848716414    0.001541773342    0.040591138863    0.033854062925    -0.002457259627    0.001794312750    0.053137244977    0.038111956478
            0.007558372725    -0.061725597972    -0.002457261326    0.001794303471    -0.005837758379    -0.088882668134    -0.001891835919    0.001427976145
            -0.001462229548    0.001217855318    0.053137247933    0.038111955789    -0.001891835839    0.001427976085    0.041121616516    0.034622420773
0.325     -0.032973577675    -0.083239429354    -0.001668114937    0.001988537318    -0.014043774219    -0.061324141871    -0.001321951226    0.001572013035
            -0.001668122983    0.001988548320    0.040561718745    0.041786331353    -0.002284071982    0.002372937410    0.053904456139    0.040472099998
            -0.014043774665    -0.061324143821    -0.002284072327    0.002372936939    -0.032267198613    -0.084337304910    -0.001753972682    0.001876010245
            -0.001321961242    0.001572019377    0.053904459857    0.040472098377    -0.001753973406    0.001876009706    0.041301573359    0.042421367164
0.350     -0.058279386341    -0.070354721781    -0.001376509741    0.002419195755    -0.035882508437    -0.053989668068    -0.001093639712    0.001915820536
            -0.001376510361    0.002419195863    0.042856984800    0.051082781612    -0.001970317619    0.002948732997    0.055492234796    0.044226846443
            -0.035882509544    -0.053989669734    -0.001970317619    0.002948732997    -0.057674014121    -0.071773374073    -0.001507182474    0.002324093042
            -0.001093634272    0.001915814890    0.055492238676    0.044226844784    -0.001507182365    0.002324092874    0.043750189636    0.051514515607
0.375     -0.079914070359    -0.049869164194    -0.000971600957    0.002803742789    -0.055680745757    -0.039741386924    -0.000773887805    0.002225365293
            -0.000971600957    0.002803742789    0.048054809981    0.060947632473    -0.001507261294    0.003484523557    0.058560468943    0.049019532614
            -0.055680746571    -0.039741387505    -0.001507261294    0.003484523557    -0.079506418679    -0.051594694286    -0.001142535824    0.002743359671
            -0.000773885260    0.002225361731    0.058560473044    0.049019530831    -0.001142536302    0.002743359472    0.049020887344    0.061129589777
0.400     -0.095533785809    -0.023059359883    -0.000460824318    0.003109593756    -0.071245975453    -0.019365315243    -0.000367169000    0.002473764676
            -0.000460829600    0.003109602072    0.056433812344    0.070393977444    -0.000898072400    0.003937675072    0.063603256335    0.054254819594
            -0.071245974003    -0.019365328202    -0.000898072422    0.003937675170    -0.095418659938    -0.025044329503    -0.000660460896    0.003099344754
            -0.000367170050    0.002473769373    0.063603259936    0.054254816913    -0.000660460896    0.003099344754    0.057377750200    0.070311483882
0.425     -0.103286926729    0.008070653129    0.000136950442    0.003305069445    -0.080723452950    0.005656428168    0.000112237333    0.002634111914
            0.000136951611    0.003305062791    0.067906898866    0.078355529420    -0.000160722071    0.004264379813    0.070857662410    0.059171640406
            -0.080723454945    0.005656428308    -0.000160726520    0.004264377243    -0.103544637264    0.005906451200    -0.000073876032    0.003355529464
            0.000112235627    0.002634116191    0.070857665509    0.059171636696    -0.000073876329    0.003355529657    0.068732036273    0.078029882950
0.450     -0.102048388182    0.040995613076    0.000792015288    0.003364891685    -0.082829457387    0.033302518182    0.000640455450    0.002684368616
            0.000792017505    0.003364887670    0.082019607125    0.083835472100    0.000671564911    0.004426715639    0.080271321599    0.062961273505
            -0.082829459242    0.033302518928    0.000671564198    0.004426716151    -0.102733441491    0.038760300930    0.000591081170    0.003479477599
            0.000640454433    0.002684362485    0.080271324896    0.062961269302    0.000591081319    0.003479477370    0.082640732240    0.083322053348
0.475     -0.091542441088    0.072945570127    0.001466562006    0.003274046772    -0.076982327518    0.061240914156    0.001186161788    0.002610913257
            0.001466562006    0.003274046772    0.097990604285    0.086028595067    0.001553074345    0.004398208137    0.091499199994    0.064870912743
            -0.076982329866    0.061240916024    0.001553074345    0.004398208137    -0.092674857053    0.070765206377    0.001296964414    0.003447929076
            0.001186161788    0.002610913257    0.091499203391    0.064870907952    0.001296964414    0.003447929076    0.098345841064    0.085411914957
0.500     -0.072369655848    0.101206363133    0.002119604009    0.003030715512    -0.063359169166    0.087089051483    0.001714781020    0.002411401032
            0.002119603039    0.003030715702    0.114810949345    0.084430365316    0.002431102983    0.004168608908    0.103960416136    0.064309752658
            -0.063359169166    0.087089051483    0.002431103318    0.004168608480    -0.073928928586    0.099213330381    0.001999661243    0.003251245505
            0.001714781370    0.002411404464    0.103960416136    0.064309752658    0.001999670109    0.003251247331    0.114870786403    0.083812978099
0.525     -0.045915153553    0.123388691697    0.002712007805    0.002646009960    -0.042837367067    0.108648159764    0.002192927438    0.002094794467
            0.002712011132    0.002646013853    0.131358069206    0.078884505554    0.003252389283    0.003744821220    0.116905328419    0.060907080094
            -0.042837367067    0.108648159764    0.003252389020    0.003744820918    -0.047839957103    0.121708871583    0.002654008708    0.002894679707
            0.002192929016    0.002094791657    0.116905331608    0.060907073973    0.002654013515    0.002894679777    0.131130000841    0.078376103524
0.550     -0.014187120295    0.137645820052    0.003211363627    0.002142152316    -0.016882579210    0.124105702491    0.002592788109    0.001679862848
            0.003211363665    0.002142152260    0.146527616410    0.069596727702    0.003969804064    0.003149822943    0.129513357312    0.054551154160
            -0.016882583542    0.124105701902    0.003969804064    0.003149822943    -0.016377781960    0.136385460743    0.003219660767    0.002397543663
            0.002592788185    0.001679863283    0.129513350000    0.054551145757    0.003219661088    0.002397543902    0.146055948198    0.069299826367
0.575     0.020395819858    0.142800795734    0.003594606756    0.001548557889    0.012617364314    0.132153504561    0.002894622766    0.001191935277
            0.003594606756    0.001548557889    0.159336853196    0.057093538877    0.004546781814    0.002418422704    0.140966502094    0.045382096667
            0.012617364314    0.132153504561    0.004546781814    0.002418422704    0.018069751502    0.142035990881    0.003665263305    0.001789835858
            0.002894622674    0.001191935239    0.140966494951    0.045382086221    0.003665263216    0.001789835814    0.158699565032    0.057092948100
0.600     0.055223918995    0.138407928326    0.003849508628    0.000897831218    0.043522258116    0.132065617681    0.003088179052    0.000659315946
            0.003849508628    0.000897831218    0.169020679210    0.042160906010    0.004960471138    0.001592538121    0.150533442780    0.033774645356
            0.043522255811    0.132065618440    0.004960471138    0.001592538121    0.052914706808    0.138176191872    0.003971336583    0.001108110240
            0.003088179052    0.000659315946    0.150533435381    0.033774632658    0.003971336467    0.001108110282    0.168320679609    0.042513735901
0.625     0.087698352178    0.124737456440    0.003973690581    0.000221889930    0.073598663269    0.123701558265    0.003172027260    0.000109827191
            0.003973686623    0.000221887274    0.175078038012    0.025761703710    0.005201786809    0.000715802655    0.157613317538    0.020294266841
            0.073598661110    0.123701559549    0.005201786773    0.000715802919    0.085568858187    0.125032416434    0.004130674559    0.000390741379
            0.003172027892    0.000109826276    0.157613308222    0.020294260887    0.004130674520    0.000390741783    0.174434601804    0.026489734096
0.650     0.115409559843    0.102726112063    0.003973343967    -0.000450999587    0.100666477219    0.107499729676    0.003152483493    -0.000431887705
            0.003973343953    -0.000450999712    0.177312709645    0.008948906197    0.005274716574    -0.000170961293    0.161793359046    0.005656842340
            0.100666482178    0.107499738732    0.005274716476    -0.000170961234    0.113620660199    0.103495157086    0.004147866799    -0.000326142923
            0.003152483488    -0.000431887738    0.161793349338    0.005656833802    0.004147866700    -0.000326142915    0.176849932880    0.010036020258
0.675     0.136275140435    0.073890562597    0.003860470609    -0.001098063937    0.122711724101    0.084429305604    0.003041260037    -0.000946205630
            0.003860470725    -0.001098063897    0.175828979376    -0.007216269157    0.005193268297    -0.001033382294    0.162866140417    -0.009325765036
            0.122711732607    0.084429346167    0.005193268279    -0.001033382385    0.134974219770    0.075035247670    0.004036873396    -0.001012077405
            0.003041255029    -0.000946208263    0.162866140221    -0.009325768447    0.004036873405    -0.001012077782    0.175664025575    -0.005825385469
0.700     0.148663535412    0.040231597069    0.003650690404    -0.001703217883    0.138009258014    0.055949122676    0.002853486119    -0.001419660846
            0.003650690284    -0.001703217904    0.171032572063    -0.021747417199    0.004978698671    -0.001846157470    0.160869870387    -0.023799220353
            0.138009266305    0.055949128842    0.004978698638    -0.001846157557    0.147970776608    0.041611363787    0.003818589064    -0.001644887569
            0.002853484827    -0.001419661197    0.160869870387    -0.023799220353    0.003818588858    -0.001644887796    0.171264016705    -0.020144155432
0.725     0.151484332892    0.004122961662    0.003360335815    -0.002256993160    0.145213288799    0.023941999335    0.002605067424    -0.001845165934
            0.003360340344    -0.002256993053    0.163595219689    -0.033804698368    0.004655097816    -0.002594185934    0.156084696967    -0.036934084606
            0.145213288799    0.023941999335    0.004655095143    -0.002594182102    0.151482017736    0.005561346998    0.003516993022    -0.002212050443
            0.002605065699    -0.001845165601    0.156084696967    -0.036934084606    0.003516993339    -0.002212050128    0.164291277762    -0.032112089180
0.750     0.144279069605    -0.031814628044    0.003004231110    -0.002756163935    0.143478935391    -0.009364975790    0.002310505276    -0.002221754919
            0.003004227979    -0.002756155366    0.154422312248    -0.042772634139    0.004245631180    -0.003272833555    0.149050969536    -0.047996429043
            0.143478935391    -0.009364975790    0.004245631100    -0.003272833494    0.144999919757    -0.030519852838    0.003155501245    -0.002711232931
            0.002310505270    -0.002221755069    0.149050969536    -0.047996429043    0.003155501245    -0.002711232931    0.155612245835    -0.041133351477
0.775     0.127284203682    -0.064859648026    0.002593188473    -0.003202040074    0.132552182698    -0.041508278456    0.001980402799    -0.002553229585
            0.002593188418    -0.003202040119    0.144585236901    -0.048321920962    0.003767979735    -0.003886000787    0.140527338987    -0.056433539155
            0.132552182698    -0.041508278456    0.003767979735    -0.003886000787    0.128703055816    -0.063922823512    0.002752570187    -0.003148941167
            0.001980402799    -0.002553229585    0.140527338987    -0.056433539155    0.002752570242    -0.003148941119    0.146251694952    -0.046887991086
