# GHz S RI R 45
0.000     0.021673108000    0.000000000000    -0.000014957074    0.000000000000    0.000555897030    0.000000000000    -0.000003461154    0.000000000000
            -0.000014957096    0.000000000000    0.021262966000    0.000000000000    -0.000001505437    0.000000000000    0.000363844690    0.000000000000
            0.000555896980    0.000000000000    -0.000001505401    0.000000000000    0.021658899000    0.000000000000    -0.000007579114    0.000000000000
            -0.000003461138    0.000000000000    0.000363846390    0.000000000000    -0.000007579144    0.000000000000    0.021090472000    0.000000000000
0.025     0.026110925880    0.009459474060    -0.000019144589    -0.000010800165    0.002006431605    0.010119050435    -0.000015899521    -0.000017384153
            -0.000019144587    -0.000010800164    0.025419752058    0.009788792771    -0.000016225624    -0.000017719240    0.001775691190    0.010661889573
            0.002006307990    0.010118884305    -0.000016225631    -0.000017719235    0.026034578172    0.009469504751    -0.000012656177    -0.000013632656
            -0.000015899524    -0.000017384150    0.001775569245    0.010661722334    -0.000012656178    -0.000013632656    0.025425867527    0.009862705208
0.050     0.030815810455    0.014449583633    -0.000023004584    -0.000018048144    0.005894463640    0.019223273419    -0.000022886644    -0.000022633600
            -0.000023004586    -0.000018048139    0.029914597520    0.015385330458    -0.000023817727    -0.000020814686    0.005614863713    0.020387064907
            0.005894493920    0.019223262042    -0.000023817727    -0.000020814685    0.030714635224    0.014492329289    -0.000017232118    -0.000022783630
            -0.000022886648    -0.000022633596    0.005614893963    0.020387052427    -0.000017232118    -0.000022783630    0.029932998021    0.015350300463
0.075     0.035705866962    0.017660800357    -0.000027496134    -0.000024637003    0.011694398012    0.026630900549    -0.000027498230    -0.000028325794
            -0.000027496137    -0.000024636998    0.034634250234    0.019363955637    -0.000027994811    -0.000024731391    0.011385671097    0.028533092440
            0.011694403929    0.026630900135    -0.000027994762    -0.000024731400    0.035581999387    0.017756256017    -0.000022401148    -0.000031294011
            -0.000027498236    -0.000028325791    0.011385677814    0.028533091913    -0.000022401149    -0.000031294013    0.034564945152    0.019284639719
0.100     0.040469497091    0.019009034769    -0.000032798472    -0.000030462554    0.018663061848    0.031897327981    -0.000032269899    -0.000034161812
            -0.000032798472    -0.000030462554    0.039325994903    0.021678662253    -0.000031992905    -0.000029091528    0.018419759722    0.034677787646
            0.018663061848    0.031897327981    -0.000031992906    -0.000029091529    0.040333491844    0.019176118409    -0.000028489298    -0.000039014430
            -0.000032269996    -0.000034161796    0.018419761402    0.034677787887    -0.000028489398    -0.000039014409    0.039145370683    0.021625810555
0.125     0.044424497289    0.018670742700    -0.000038843595    -0.000035348831    0.025973733062    0.034879200627    -0.000037632775    -0.000039824466
            -0.000038843594    -0.000035348830    0.043408064856    0.022507552449    -0.000036367760    -0.000033531995    0.025965945374    0.038671851548
            0.025973733062    0.034879200627    -0.000036367761    -0.000033531996    0.044297570714    0.018924842405    -0.000035443982    -0.000045818252
            -0.000037632776    -0.000039824467    0.025965947281    0.038671851471    -0.000035443982    -0.000045818252    0.043130262221    0.022545360635
0.150     0.046920743516    0.017114622209    -0.000045366150    -0.000039429118    0.032829443627    0.035736025079    -0.000043581638    -0.000045264504
            -0.000045366147    -0.000039429115    0.046340756311    0.022272662432    -0.000041193930    -0.000037948791    0.033305175814    0.040634660978
            0.032829443627    0.035736025079    -0.000041193930    -0.000037948791    0.046830990551    0.017464697641    -0.000043043453    -0.000051842959
            -0.000043581637    -0.000045264503    0.033305167529    0.040634663890    -0.000043043453    -0.000051842959    0.046003790461    0.022453635593
0.175     0.047578411129    0.015062535479    -0.000052331033    -0.000042791274    0.038550380756    0.034889658506    -0.000050295035    -0.000050484560
            -0.000052331072    -0.000042791260    0.047833604689    0.021599119816    -0.000046680992    -0.000042320390    0.039818940977    0.040917299761
            0.038550380756    0.034889658506    -0.000046680945    -0.000042320407    0.047561158104    0.015504929795    -0.000051304675    -0.000057213052
            -0.000050295035    -0.000050484560    0.039818941691    0.040917299066    -0.000051304675    -0.000057213052    0.047497738003    0.021953944608
0.200     0.046283925923    0.013348875514    -0.000059740457    -0.000045612278    0.042660027504    0.032977477336    -0.000057879014    -0.000055524033
            -0.000059740455    -0.000045612276    0.047828505886    0.021187328504    -0.000052946588    -0.000046661849    0.045069017154    0.040060811619
            0.042660027504    0.032977477336    -0.000052946587    -0.000046661848    0.046374108684    0.013864819070    -0.000060305092    -0.000062087540
            -0.000057879013    -0.000055524032    0.045069008571    0.040060815254    -0.000060305184    -0.000062087505    0.047562660774    0.021719917868
0.225     0.043244946917    0.012814734400    -0.000067750408    -0.000047928877    0.044948045606    0.030764166371    -0.000066626298    -0.000060294991
            -0.000067750408    -0.000047928877    0.046535702993    0.021720877521    -0.000060289201    -0.000050874004    0.048848206794    0.038716414510
            0.044948045606    0.030764166371    -0.000060289202    -0.000050874005    0.043471007122    0.013370798629    -0.000070283383    -0.000066475612
            -0.000066626301    -0.000060294993    0.048848209037    0.038716414900    -0.000070283383    -0.000066475612    0.046408267661    0.022406441637
0.250     0.038979764400    0.014213034454    -0.000076552379    -0.000049725854    0.045504664129    0.029048325403    -0.000076768356    -0.000064634815
            -0.000076552376    -0.000049725853    0.044420073600    0.023791764596    -0.000068931123    -0.000054794000    0.051210383346    0.037564550980
            0.045504664129    0.029048325403    -0.000068931111    -0.000054794011    0.039357285777    0.014764319513    -0.000081508232    -0.000070281204
            -0.000076768364    -0.000064634821    0.051210385614    0.037564551269    -0.000081508239    -0.000070281211    0.044486793064    0.024579870005
0.275     0.034285388391    0.018079159880    -0.000086366145    -0.000050789707    0.044718590966    0.028546138313    -0.000088588046    -0.000068171746
            -0.000086366154    -0.000050789712    0.042164237574    0.027792370515    -0.000079153245    -0.000058058912    0.052463762045    0.037212963608
            0.044718590966    0.028546138313    -0.000079153212    -0.000058058930    0.034812954507    0.018574530706    -0.000094260559    -0.000073183992
            -0.000088588094    -0.000068171733    0.052463764325    0.037212963850    -0.000094260559    -0.000073183992    0.042459778222    0.028611747878
0.300     0.030150411886    0.024647904181    -0.000097342656    -0.000050793954    0.043238494634    0.029789525769    -0.000102216548    -0.000070419015
            -0.000097342647    -0.000050793971    0.040591138863    0.033854062925    -0.000091079655    -0.000060203895    0.053137244977    0.038111956478
            0.043238494634    0.029789525769    -0.000091079645    -0.000060203911    0.030807141569    0.025036600876    -0.000108715391    -0.000074708268
            -0.000102216560    -0.000070418997    0.053137247933    0.038111955789    -0.000108715391    -0.000074708268    0.041121616516    0.034622420773
0.325     0.027640059858    0.033771965339    -0.000109491843    -0.000049238230    0.041889132095    0.033028203870    -0.000117639468    -0.000070703285
            -0.000109491923    -0.000049238174    0.040561718745    0.041786331353    -0.000104704035    -0.000060583623    0.053904456139    0.040472099998
            0.041889132095    0.033028203870    -0.000104704035    -0.000060583623    0.028386011648    0.034011405896    -0.000124857057    -0.000074189705
            -0.000117639552    -0.000070703223    0.053904459857    0.040472098377    -0.000124857100    -0.000074189671    0.041301573359    0.042421367164
0.350     0.027751160550    0.044913766946    -0.000122611623    -0.000045582436    0.041560065975    0.038179641695    -0.000134559003    -0.000068334526
            -0.000122611702    -0.000045582368    0.042856984800    0.051082781612    -0.000119741237    -0.000058543720    0.055492234796    0.044226846443
            0.041560065975    0.038179641695    -0.000119741228    -0.000058543716    0.028530863674    0.044977088372    -0.000142399740    -0.000070920887
            -0.000134559074    -0.000068334474    0.055492238676    0.044226844784    -0.000142399740    -0.000070920887    0.043750189636    0.051514515607
0.375     0.031263547926    0.057169738761    -0.000136230388    -0.000039290566    0.043065997015    0.044812759596    -0.000152380915    -0.000062632684
            -0.000136230431    -0.000039290527    0.048054809981    0.060947632473    -0.000135630513    -0.000053439132    0.058560468943    0.049019532614
            0.043065997015    0.044812759596    -0.000135630513    -0.000053439132    0.032012195159    0.057050970555    -0.000160723753    -0.000064222643
            -0.000152380915    -0.000062632684    0.058560473044    0.049019530831    -0.000160723764    -0.000064222615    0.049020887344    0.061129589777
0.400     0.038610066783    0.069376004184    -0.000149635569    -0.000030011505    0.047021065277    0.052204528319    -0.000170220999    -0.000053158569
            -0.000149635643    -0.000030011439    0.056433812344    0.070393977444    -0.000151532158    -0.000044860901    0.063603256335    0.054254819594
            0.047021065277    0.052204528319    -0.000151532087    -0.000044860966    0.039262289571    0.069093801160    -0.000178917681    -0.000053647585
            -0.000170220999    -0.000053158569    0.063603259936    0.054254816913    -0.000178917681    -0.000053647585    0.057377750200    0.070311483882
0.425     0.049789406843    0.080243287168    -0.000161930163    -0.000017655474    0.053731789616    0.059430748289    -0.000186991096    -0.000039769994
            -0.000161930196    -0.000017655449    0.067906898866    0.078355529420    -0.000166418935    -0.000032682283    0.070857662410    0.059171640406
            0.053731789616    0.059430748289    -0.000166418935    -0.000032682283    0.050288478317    0.079839982437    -0.000195851208    -0.000039079909
            -0.000186991103    -0.000039769962    0.070857665509    0.059171636696    -0.000195851270    -0.000039079850    0.068732036273    0.078029882950
0.450     0.064349192772    0.088534359709    -0.000172195612    -0.000002504199    0.063151375478    0.065506534612    -0.000201573290    -0.000022769391
            -0.000172195612    -0.000002504199    0.082019607125    0.083835472100    -0.000179238220    -0.000017203774    0.080271321599    0.062961273505
            0.063151375478    0.065506534612    -0.000179238220    -0.000017203774    0.064655266274    0.088071379539    -0.000210371508    -0.000020854776
            -0.000201573347    -0.000022769326    0.080271324896    0.062961269302    -0.000210371508    -0.000020854776    0.082640732240    0.083322053348
0.475     0.081429011633    0.093219000524    -0.000179625363    0.000014823665    0.074881384173    0.069515529187    -0.000212977825    -0.000002844506
            -0.000179625363    0.000014823665    0.097990604285    0.086028595067    -0.000189070190    0.000000910086    0.091499199994    0.064870912743
            0.074881384173    0.069515529187    -0.000189070190    0.000000910086    0.081525685996    0.092770833558    -0.000221464737    0.000000277103
            -0.000212978111    -0.000002844101    0.091499203391    0.064870907952    -0.000221464737    0.000000277103    0.098345841064    0.085411914957
0.500     0.099870957059    0.093609636528    -0.000183706374    0.000033424324    0.088236578011    0.070735730525    -0.000220544682    0.000018976720
            -0.000183706374    0.000033424324    0.114810949345    0.084430365316    -0.000195308756    0.000020674952    0.103960416136    0.064309752658
            0.088236578011    0.070735730525    -0.000195308756    0.000020674952    0.099768093793    0.093253672734    -0.000228462866    0.000023223009
            -0.000220544682    0.000018976720    0.103960416136    0.064309752658    -0.000228462856    0.000023223008    0.114870786403    0.083812978099
0.525     0.118355183151    0.089428380212    -0.000184265346    0.000052275386    0.102332617628    0.068710655519    -0.000223998941    0.000041518702
            -0.000184265356    0.000052275389    0.131358069206    0.078884505554    -0.000197726645    0.000040975976    0.116905328419    0.060907080094
            0.102332617628    0.068710655519    -0.000197726654    0.000040975978    0.118089879583    0.089236696498    -0.000231115190    0.000046730804
            -0.000223998941    0.000041518702    0.116905331608    0.060907073973    -0.000231115439    0.000046731191    0.131130000841    0.078376103524
0.550     0.135555998403    0.080829390101    -0.000181528714    0.000070375213    0.116198850622    0.063292107119    -0.000223523784    0.000063610765
            -0.000181528714    0.000070375213    0.146527616410    0.069596727702    -0.000196524494    0.000060709840    0.129513357312    0.054551154160
            0.116198850622    0.063292107119    -0.000196524494    0.000060709840    0.135188019774    0.080859110582    -0.000229643447    0.000069566524
            -0.000223523784    0.000063610765    0.129513350000    0.054551145757    -0.000229643447    0.000069566524    0.146055948198    0.069299826367
0.575     0.150268014237    0.068358381864    -0.000176019611    0.000086895329    0.128870736887    0.054629651082    -0.000219649557    0.000084262216
            -0.000176019611    0.000086895329    0.159336853196    0.057093538877    -0.000192236352    0.000078954662    0.140966502094    0.045382096667
            0.128870736887    0.054629651082    -0.000192236352    0.000078954662    0.149875307734    0.068645844292    -0.000224647086    0.000090683235
            -0.000219649548    0.000084262212    0.140966494951    0.045382086221    -0.000224647086    0.000090683235    0.158699565032    0.057092948100
0.600     0.161519904959    0.052886040624    -0.000168505467    0.000101267353    0.139481317161    0.043148684469    -0.000213199288    0.000102765648
            -0.000168505467    0.000101267353    0.169020679210    0.042160906010    -0.000185666633    0.000095066280    0.150533442780    0.033774645356
            0.139481317161    0.043148684469    -0.000185666633    0.000095066280    0.161189968364    0.053441444397    -0.000217028034    0.000109341595
            -0.000213199288    0.000102765648    0.150533435381    0.033774632658    -0.000217028034    0.000109341595    0.168320679609    0.042513735901
0.625     0.168638224954    0.035516351800    -0.000159836617    0.000113224418    0.147315662890    0.029498509821    -0.000205109681    0.000118746454
            -0.000159836769    0.000113224861    0.175078038012    0.025761703710    -0.000177718157    0.000108722620    0.157613317538    0.020294266841
            0.147315662890    0.029498509821    -0.000177718174    0.000108722630    0.168461114648    0.036321106471    -0.000207814795    0.000125160151
            -0.000205109673    0.000118746449    0.157613308222    0.020294260887    -0.000207815140    0.000125161051    0.174434601804    0.026489734096
0.650     0.171298918596    0.017491304223    -0.000150880124    0.000122806924    0.151870248967    0.014509241640    -0.000196360355    0.000132177988
            -0.000150880175    0.000122806877    0.177312709645    0.008948906197    -0.000169324900    0.000119934284    0.161793359046    0.005656842340
            0.151870248967    0.014509241640    -0.000169324900    0.000119934284    0.171357211755    0.018499222253    -0.000198075227    0.000138129962
            -0.000196360380    0.000132178005    0.161793349338    0.005656833802    -0.000198075227    0.000138129962    0.176849932880    0.010036020258
0.675     0.169535612569    0.000096442698    -0.000142388355    0.000130308570    0.152879050325    -0.000868981803    -0.000187818985    0.000143328544
            -0.000142388355    0.000130308570    0.175828979376    -0.007216269157    -0.000161305069    0.000128992360    0.162866140417    -0.009325765036
            0.152879040316    -0.000868983214    -0.000161305069    0.000128992360    0.169897332129    0.001234898700    -0.000188767672    0.000148564450
            -0.000187818945    0.000143328564    0.162866140221    -0.009325768447    -0.000188767664    0.000148564444    0.175664025575    -0.005825385469
0.700     0.163749514482    -0.015433551142    -0.000134980499    0.000136243235    0.150357296831    -0.015620597997    -0.000180223674    0.000152733856
            -0.000134980499    0.000136243235    0.171032572063    -0.021747417199    -0.000154339549    0.000136435767    0.160869870387    -0.023799220353
            0.150357296831    -0.015620597997    -0.000154339549    0.000136435767    0.164458825168    -0.014257568277    -0.000180699186    0.000157065841
            -0.000180223674    0.000152733856    0.160869870387    -0.023799220353    -0.000180699186    0.000157065841    0.171264016705    -0.020144155432
0.725     0.154684887183    -0.028004793830    -0.000129063293    0.000141267455    0.144613337107    -0.028740767769    -0.000174075933    0.000161110548
            -0.000129063273    0.000141267433    0.163595219689    -0.033804698368    -0.000148879045    0.000142966328    0.156084696967    -0.036934084606
            0.144613337107    -0.028740767769    -0.000148879045    0.000142966328    0.155756529447    -0.026899706612    -0.000174427057    0.000164445561
            -0.000174075926    0.000161110541    0.156084696967    -0.036934084606    -0.000174427057    0.000164445561    0.164291277762    -0.032112089180
0.750     0.143403242413    -0.036761983766    -0.000124840873    0.000146153507    0.136270785182    -0.039317646668    -0.000169652067    0.000169330571
            -0.000124840873    0.000146153507    0.154422312248    -0.042772634139    -0.000145154450    0.000149423670    0.149050969536    -0.047996429043
            0.136270785182    -0.039317646668    -0.000145154450    0.000149423670    0.144817332470    -0.035839648284    -0.000170254251    0.000171681663
            -0.000169652067    0.000169330571    0.149050969536    -0.047996429043    -0.000170254251    0.000171681663    0.155612245835    -0.041133351477
0.775     0.131218730989    -0.041181181778    -0.000122260100    0.000151712040    0.126243890134    -0.046639198386    -0.000166923879    0.000178333822
            -0.000122260087    0.000151712025    0.144585236901    -0.048321920962    -0.000143108070    0.000156695266    0.140527338987    -0.056433539155
            0.126243890134    -0.046639198386    -0.000143108063    0.000156695313    0.132918470172    -0.040547591214    -0.000168146427    0.000179833606
            -0.000166923865    0.000178333808    0.140527338987    -0.056433539155    -0.000168146407    0.000179833584    0.146251694952    -0.046887991086
