# GHz S RI R 45
0.000     0.022594448000    0.000000000000    0.000023847933    -0.000000000000    0.000570466160    0.000000000000    -0.000003040657    0.000000000000
            0.000023847833    -0.000000000000    0.021262966000    0.000000000000    0.000002269321    0.000000000000    0.000363844690    0.000000000000
            0.000570384460    0.000000000000    0.000002269175    0.000000000000    0.022527916000    0.000000000000    0.000001355732    0.000000000000
            -0.000003040764    0.000000000000    0.000363846390    0.000000000000    0.000001355829    0.000000000000    0.021090472000    0.000000000000
0.025     0.027369792432    0.010006130627    -0.000009225857    -0.000018509084    0.002320989819    0.010889665689    0.000000895371    0.000004355223
            -0.000009225952    -0.000018509080    0.025419752058    0.009788792771    -0.000005909845    -0.000002801941    0.001775691190    0.010661889573
            0.002320783330    0.010889504183    -0.000005909989    -0.000002801933    0.027312354274    0.010036408220    -0.000002394681    -0.000000881511
            0.000000895262    0.000004355231    0.001775569245    0.010661722334    -0.000002394584    -0.000000881515    0.025425867527    0.009862705208
0.050     0.032752813996    0.015063246236    -0.000018854432    -0.000002618717    0.006978357054    0.020445953975    0.000003734540    0.000004767590
            -0.000018854532    -0.000002618708    0.029914597520    0.015385330458    -0.000007080680    0.000003164697    0.005614863713    0.020387064907
            0.006978305987    0.020445950271    -0.000007080826    0.000003164714    0.032716390695    0.015142837621    -0.000002372965    0.000002387257
            0.000003734435    0.000004767600    0.005614893963    0.020387052427    -0.000002372874    0.000002387248    0.029932998021    0.015350300463
0.075     0.038410341779    0.017904209013    -0.000016404298    0.000008152880    0.013810967842    0.027805761969    0.000006220857    0.000004812708
            -0.000016404397    0.000008152894    0.034634250234    0.019363955637    -0.000004316730    0.000007061972    0.011385671097    0.028533092440
            0.013810893551    0.027805773188    -0.000004316874    0.000007061994    0.038424000569    0.018019380920    -0.000000134980    0.000004364099
            0.000006220752    0.000004812722    0.011385677814    0.028533091913    -0.000000134888    0.000004364082    0.034564945152    0.019284639719
0.100     0.043818996831    0.018400318166    -0.000010352724    0.000014554767    0.021813588175    0.032428618134    0.000008892316    0.000004171225
            -0.000010352822    0.000014554786    0.039325994903    0.021678662253    -0.000000200688    0.000008892682    0.018419759722    0.034677787646
            0.021813509738    0.032428634740    -0.000000200831    0.000008892711    0.043901272848    0.018525891401    0.000002978048    0.000004874317
            0.000008892203    0.000004171247    0.018419761402    0.034677787887    0.000002978140    0.000004874299    0.039145370683    0.021625810555
0.125     0.048056667825    0.016795341643    -0.000003090271    0.000017385218    0.029872837213    0.034198451968    0.000011574168    0.000002639134
            -0.000003090362    0.000017385238    0.043408064856    0.022507552449    0.000004257589    0.000008835953    0.025965945374    0.038671851548
            0.029872759810    0.034198471779    0.000004257447    0.000008835990    0.048214493550    0.016899031884    0.000006259473    0.000003979726
            0.000011574074    0.000002639158    0.025965947281    0.038671851471    0.000006259566    0.000003979702    0.043130262221    0.022545360635
0.150     0.050269994994    0.013733172572    0.000004260789    0.000017256221    0.036935318266    0.033423771724    0.000013982850    0.000000179667
            0.000004260712    0.000017256252    0.046340756311    0.022272662432    0.000008472626    0.000007099520    0.033305175814    0.040634660978
            0.036935233406    0.033423796942    0.000008472484    0.000007099563    0.050500109169    0.013782565386    0.000009243740    0.000001757740
            0.000013982758    0.000000179695    0.033305167529    0.040634663890    0.000009243827    0.000001757714    0.046003790461    0.022453635593
0.175     0.049968261062    0.010194843005    0.000010909451    0.000014713730    0.042140243109    0.030775884812    0.000015839040    -0.000003125009
            0.000010909340    0.000014713757    0.047833604689    0.021599119816    0.000011984758    0.000004012980    0.039818940977    0.040917299761
            0.042140168095    0.030775911227    0.000011984644    0.000004013024    0.050254312918    0.010156473314    0.000011548933    -0.000001528516
            0.000015838950    -0.000003124976    0.039818941691    0.040917299066    0.000011549028    -0.000001528549    0.047497738003    0.021953944608
0.200     0.047039215614    0.007313734539    0.000016356714    0.000010233284    0.044939899422    0.027208401222    0.000016912450    -0.000007122877
            0.000016356623    0.000010233320    0.047828505886    0.021187328504    0.000014502547    -0.000000143029    0.045069017154    0.040060811619
            0.044939825975    0.027208431784    0.000014502458    -0.000000142992    0.047351560206    0.007159121204    0.000012894099    -0.000005646708
            0.000016912363    -0.000007122838    0.045069008571    0.040060815254    0.000012894194    -0.000005646746    0.047562660774    0.021719917868
0.225     0.041818291753    0.006224622272    0.000020256621    0.000004367346    0.045185598172    0.023825205364    0.000017016977    -0.000011598893
            0.000020256527    0.000004367390    0.046535702993    0.021720877521    0.000015837536    -0.000004998180    0.048848206794    0.038716414510
            0.045185526189    0.023825238969    0.000015837402    -0.000004998120    0.042115459506    0.005935028121    0.000013121766    -0.000010260369
            0.000017016888    -0.000011598850    0.048848209037    0.038716414900    0.000013121858    -0.000010260410    0.046408267661    0.022406441637
0.250     0.035073716004    0.007918407274    0.000022384310    -0.000002441563    0.043169061900    0.021733726571    0.000016021078    -0.000016314514
            0.000022384217    -0.000002441513    0.044420073600    0.023791764596    0.000015860665    -0.000010263050    0.051210383346    0.037564550980
            0.043168983726    0.021733768433    0.000015860490    -0.000010262959    0.035305538331    0.007489624462    0.000012113087    -0.000015081879
            0.000016020994    -0.000016314468    0.051210385614    0.037564551269    0.000012113177    -0.000015081926    0.044486793064    0.024579870005
0.275     0.027951591364    0.013062670679    0.000022646048    -0.000009660065    0.039607501499    0.021871972432    0.000013851201    -0.000020980094
            0.000022645959    -0.000009660011    0.042164237574    0.027792370515    0.000014534501    -0.000015580644    0.052463762045    0.037212963608
            0.039607433654    0.021872012546    0.000014534376    -0.000015580569    0.028064332089    0.012508814759    0.000009867092    -0.000019776521
            0.000013851120    -0.000020980043    0.052463764325    0.037212963850    0.000009867181    -0.000019776573    0.042459778222    0.028611747878
0.300     0.021843713632    0.021876409237    0.000020997188    -0.000016846028    0.035567808006    0.024853166563    0.000010497037    -0.000025295943
            0.000020997104    -0.000016845971    0.040591138863    0.033854062925    0.000011842928    -0.000020639718    0.053137244977    0.038111956478
            0.035567741724    0.024853210789    0.000011842850    -0.000020639664    0.021787002637    0.021232043100    0.000006402857    -0.000024039348
            0.000010496958    -0.000025295886    0.053137247933    0.038111955789    0.000006402865    -0.000024039350    0.041121616516    0.034622420773
0.325     0.018208942678    0.034026147636    0.000017561423    -0.000023488891    0.032320675880    0.030829956420    0.000006046238    -0.000028932183
            0.000017561338    -0.000023488810    0.040561718745    0.041786331353    0.000007892111    -0.000025080729    0.053904456139    0.040472099998
            0.032320612665    0.030830003857    0.000007891959    -0.000025080614    0.017943516830    0.033345081387    0.000001865997    -0.000027553462
            0.000006046166    -0.000028932124    0.053904459857    0.040472098377    0.000001866085    -0.000027553524    0.041301573359    0.042421367164
0.350     0.018351941795    0.048623573293    0.000012513881    -0.000029167011    0.031149001542    0.039436484137    0.000000673461    -0.000031590416
            0.000012513805    -0.000029166945    0.042856984800    0.051082781612    0.000002835011    -0.000028588860    0.055492234796    0.044226846443
            0.031148940216    0.039436533850    0.000002834858    -0.000028588737    0.017857345157    0.047975210316    -0.000003556601    -0.000030044250
            0.000000673314    -0.000031590292    0.055492238676    0.044226844784    -0.000003556596    -0.000030044254    0.043750189636    0.051514515607
0.375     0.023201987462    0.064293523158    0.000006224340    -0.000033487318    0.033126834440    0.049802721281    -0.000005324950    -0.000033018355
            0.000006224264    -0.000033487248    0.048054809981    0.060947632473    -0.000003025675    -0.000030879502    0.058560468943    0.049019532614
            0.033126761910    0.049802787540    -0.000003025744    -0.000030879439    0.022483096997    0.063755430506    -0.000009549043    -0.000031293942
            -0.000005325052    -0.000033018261    0.058560473044    0.049019530831    -0.000009549006    -0.000031293977    0.049020887344    0.061129589777
0.400     0.033137443299    0.079357596475    -0.000000906737    -0.000036201792    0.038931976502    0.060681403750    -0.000011592622    -0.000033074813
            -0.000000906804    -0.000036201719    0.056433812344    0.070393977444    -0.000009347313    -0.000031775885    0.063603256335    0.054254819594
            0.038931907351    0.060681473066    -0.000009347378    -0.000031775821    0.032226600986    0.079005987203    -0.000015770172    -0.000031185990
            -0.000011592679    -0.000033074752    0.063603259936    0.054254816913    -0.000015770099    -0.000031186064    0.057377750200    0.070311483882
0.425     0.047892134840    0.092063079730    -0.000008358327    -0.000037204524    0.048717554734    0.070631113222    -0.000017715743    -0.000031750985
            -0.000008358360    -0.000037204486    0.067906898866    0.078355529420    -0.000015699028    -0.000031228393    0.070857662410    0.059171640406
            0.048717490130    0.070631185723    -0.000015699160    -0.000031228248    0.046848667088    0.091962457862    -0.000021818706    -0.000029734449
            -0.000017715801    -0.000031750918    0.070857665509    0.059171636696    -0.000021818671    -0.000029734488    0.068732036273    0.078029882950
0.450     0.066580594266    0.100848728229    -0.000015681960    -0.000036559921    0.062091608246    0.078249368919    -0.000023328013    -0.000029180566
            -0.000015682024    -0.000036559839    0.082019607125    0.083835472100    -0.000021702391    -0.000029328873    0.080271321599    0.062961273505
            0.062091547551    0.078249443889    -0.000021702512    -0.000029328727    0.065485782244    0.101041516897    -0.000027357413    -0.000027076518
            -0.000023328069    -0.000029180501    0.080271324896    0.062961269302    -0.000027357350    -0.000027076597    0.082640732240    0.083322053348
0.475     0.087818591045    0.104553804980    -0.000022450098    -0.000034483842    0.078181948286    0.082367532947    -0.000028124728    -0.000025620809
            -0.000022450151    -0.000034483767    0.097990604285    0.086028595067    -0.000027014005    -0.000026300868    0.091499199994    0.064870912743
            0.078181919231    0.082367574313    -0.000027014089    -0.000026300757    0.086766415544    0.105055171436    -0.000032101603    -0.000023466527
            -0.000028124785    -0.000025620735    0.091499203391    0.064870907952    -0.000032101547    -0.000023466606    0.098345841064    0.085411914957
0.500     0.109922209866    0.102567516098    -0.000028404984    -0.000031280092    0.095782507355    0.082203723308    -0.000031942228    -0.000021394213
            -0.000028404984    -0.000031280092    0.114810949345    0.084430365316    -0.000031432865    -0.000022440294    0.103960416136    0.064309752658
            0.095782462274    0.082203806546    -0.000031432941    -0.000022440183    0.109010314245    0.103359549006    -0.000035907339    -0.000019207943
            -0.000031942285    -0.000021394131    0.103960416136    0.064309752658    -0.000035907290    -0.000019208021    0.114870786403    0.083812978099
0.525     0.131122387813    0.094866342318    -0.000033387531    -0.000027306754    0.113514966158    0.077422844592    -0.000034733094    -0.000016846655
            -0.000033387590    -0.000027306695    0.131358069206    0.078884505554    -0.000034858188    -0.000018083622    0.116905328419    0.060907080094
            0.113514920368    0.077422929475    -0.000034858263    -0.000018083498    0.130440817427    0.095900605801    -0.000038732148    -0.000014626845
            -0.000034733149    -0.000016846569    0.116905331608    0.060907073973    -0.000038732100    -0.000014626928    0.131130000841    0.078376103524
0.550     0.149770902380    0.081984528854    -0.000037404990    -0.000022885535    0.129996741604    0.068143541974    -0.000036582919    -0.000012275656
            -0.000037405031    -0.000022885462    0.146527616410    0.069596727702    -0.000037329602    -0.000013531147    0.129513357312    0.054551154160
            0.129996696410    0.068143628191    -0.000037329670    -0.000013531024    0.149392144352    0.083183669362    -0.000040659179    -0.000009996401
            -0.000036582968    -0.000012275566    0.129513350000    0.054551145757    -0.000040659131    -0.000009996480    0.146055948198    0.069299826367
0.575     0.164487438566    0.064913975944    -0.000040535567    -0.000018299717    0.143961156587    0.054883810197    -0.000037650126    -0.000007916394
            -0.000040535608    -0.000018299641    0.159336853196    0.057093538877    -0.000038956767    -0.000009040033    0.140966502094    0.045382096667
            0.143961112759    0.054883897088    -0.000038956829    -0.000009039904    0.164459058629    0.066178447638    -0.000041831885    -0.000005536027
            -0.000037650172    -0.000007916307    0.140966494951    0.045382086221    -0.000041831845    -0.000005536103    0.158699565032    0.057092948100
0.600     0.174269077262    0.044986605069    -0.000042946819    -0.000013729819    0.154360159791    0.038499227739    -0.000038150158    -0.000003901517
            -0.000042946863    -0.000013729734    0.169020679210    0.042160906010    -0.000039922568    -0.000004774330    0.150533442780    0.033774645356
            0.154360118211    0.038499311804    -0.000039922623    -0.000004774195    0.174606265774    0.046203412050    -0.000042447539    -0.000001367651
            -0.000038150202    -0.000003901428    0.150533435381    0.033774632658    -0.000042447502    -0.000001367732    0.168320679609    0.042513735901
0.625     0.178538988669    0.023748000938    -0.000044811654    -0.000009292201    0.160419281697    0.020102096918    -0.000038298919    -0.000000286206
            -0.000044811692    -0.000009292103    0.175078038012    0.025761703710    -0.000040419347    -0.000000833001    0.157613317538    0.020294266841
            0.160419240352    0.020102185583    -0.000040419399    -0.000000832875    0.179222137231    0.024798244289    -0.000042699919    0.000002451908
            -0.000038298961    -0.000000286106    0.157613308222    0.020294260887    -0.000042699885    0.000002451816    0.174434601804    0.026489734096
0.650     0.177180442491    0.002838626585    -0.000046318443    -0.000005001278    0.161697792375    0.000996025048    -0.000038301185    0.000002965729
            -0.000046318469    -0.000005001182    0.177312709645    0.008948906197    -0.000040649337    0.000002777124    0.161793359046    0.005656842340
            0.161697792372    0.000996025443    -0.000040649397    0.000002777306    0.178151672337    0.003609780880    -0.000042777354    0.000005950589
            -0.000038301215    0.000002965819    0.161793349338    0.005656833802    -0.000042777324    0.000005950494    0.176849932880    0.010036020258
0.675     0.170533537877    -0.016113941851    -0.000047615797    -0.000000826847    0.158122022312    -0.017404082312    -0.000038317623    0.000005939120
            -0.000047615831    -0.000000826748    0.175828979376    -0.007216269157    -0.000040783155    0.000006098474    0.162866140417    -0.009325765036
            0.158122007232    -0.017404036520    -0.000040783186    0.000006098617    0.171698865531    -0.015717794036    -0.000042828380    0.000009196473
            -0.000038317655    0.000005939214    0.162866140221    -0.009325768447    -0.000042828361    0.000009196375    0.175664025575    -0.005825385469
0.700     0.159401937370    -0.031605595048    -0.000048825484    0.000003335428    0.150040261282    -0.033655140933    -0.000038465314    0.000008776121
            -0.000048825513    0.000003335533    0.171032572063    -0.021747417199    -0.000040964228    0.000009243979    0.160869870387    -0.023799220353
            0.150040241049    -0.033655048380    -0.000040964261    0.000009244167    0.160634075213    -0.031651948532    -0.000042968939    0.000012314912
            -0.000038465360    0.000008776308    0.160869870387    -0.023799220353    -0.000042968924    0.000012314810    0.171264016705    -0.020144155432
0.725     0.145027560672    -0.042373554008    -0.000050010061    0.000007607269    0.138245283765    -0.046404517170    -0.000038803333    0.000011636250
            -0.000050010082    0.000007607370    0.163595219689    -0.033804698368    -0.000041282614    0.000012354888    0.156084696967    -0.036934084606
            0.138245272571    -0.046404424818    -0.000041282643    0.000012355077    0.146173895326    -0.042889688614    -0.000043263087    0.000015447864
            -0.000038803350    0.000011636344    0.156084696967    -0.036934084606    -0.000043263071    0.000015447765    0.164291277762    -0.032112089180
0.750     0.129055254710    -0.047535160245    -0.000051181290    0.000012156266    0.123992713018    -0.054534662362    -0.000039334196    0.000014708128
            -0.000051181293    0.000012156266    0.154422312248    -0.042772634139    -0.000041775466    0.000015620312    0.149050969536    -0.047996429043
            0.123992713018    -0.054534662362    -0.000041775494    0.000015620497    0.129950077660    -0.048496781636    -0.000043727666    0.000018774431
            -0.000039334212    0.000014708220    0.149050969536    -0.047996429043    -0.000043727654    0.000018774336    0.155612245835    -0.041133351477
0.775     0.113434817725    -0.046737451392    -0.000052277973    0.000017140939    0.108941025414    -0.057347151282    -0.000039994198    0.000018174039
            -0.000052277984    0.000017141044    0.144585236901    -0.048321920962    -0.000042405262    0.000019234318    0.140527338987    -0.056433539155
            0.108941026733    -0.057347105840    -0.000042405269    0.000019234411    0.113916460256    -0.048062649413    -0.000044314619    0.000022473240
            -0.000039994215    0.000018174182    0.140527338987    -0.056433539155    -0.000044314621    0.000022473173    0.146251694952    -0.046887991086
