# GHz S RI R 45
0.000     0.022384566000    0.000000000000    -0.000011162724    0.000000000000    0.000672163380    0.000000000000    -0.000014682163    0.000000000000
            -0.000011163211    0.000000000000    0.021262966000    0.000000000000    -0.000003227920    0.000000000000    0.000363844690    0.000000000000
            0.000672275230    0.000000000000    -0.000003228366    0.000000000000    0.022406486000    0.000000000000    -0.000005824211    0.000000000000
            -0.000014682561    0.000000000000    0.000363846390    0.000000000000    -0.000005823825    0.000000000000    0.021090472000    0.000000000000
0.025     0.027061920002    0.009702281061    -0.000035997627    -0.000022040478    0.002257643160    0.010544798998    -0.000028291247    -0.000014913664
            -0.000035998014    -0.000022040456    0.025419752058    0.009788792771    -0.000026309275    -0.000021482894    0.001775691190    0.010661889573
            0.002257636096    0.010544626658    -0.000026309723    -0.000021482855    0.026971678705    0.009644108595    -0.000021052215    -0.000016268330
            -0.000028291645    -0.000014913640    0.001775569245    0.010661722334    -0.000021051832    -0.000016268352    0.025425867527    0.009862705208
0.050     0.032151309338    0.014746352958    -0.000047524221    -0.000019078624    0.006616358583    0.019941912370    -0.000035664416    -0.000016413996
            -0.000047524609    -0.000019078578    0.029914597520    0.015385330458    -0.000037232085    -0.000019660914    0.005614863713    0.020387064907
            0.006616500837    0.019941890458    -0.000037232576    -0.000019660866    0.031999536597    0.014653404313    -0.000028814295    -0.000017361542
            -0.000035664812    -0.000016413952    0.005614893963    0.020387052427    -0.000028813914    -0.000017361580    0.029932998021    0.015350300463
0.075     0.037553293378    0.017733427319    -0.000052420713    -0.000017767450    0.013093194014    0.027314825354    -0.000040194242    -0.000018253569
            -0.000052421143    -0.000017767382    0.034634250234    0.019363955637    -0.000042089458    -0.000019372936    0.011385671097    0.028533092440
            0.013093311164    0.027314808012    -0.000042089887    -0.000019372822    0.037313339331    0.017645437535    -0.000033036739    -0.000019214628
            -0.000040194632    -0.000018253509    0.011385677814    0.028533091913    -0.000033036367    -0.000019214736    0.034564945152    0.019284639719
0.100     0.042791920004    0.018513061385    -0.000056382281    -0.000017329976    0.020757875766    0.032141017681    -0.000044671398    -0.000020025688
            -0.000056382656    -0.000017329898    0.039325994903    0.021678662253    -0.000046193831    -0.000019859016    0.018419759722    0.034677787646
            0.020757986624    0.032140996082    -0.000046194219    -0.000019858934    0.042459307586    0.018479903366    -0.000037057345    -0.000021352282
            -0.000044671882    -0.000020025587    0.018419761402    0.034677787887    -0.000037056970    -0.000021352359    0.039145370683    0.021625810555
0.125     0.047003002438    0.017290959272    -0.000060241917    -0.000017016076    0.028583794153    0.034287214873    -0.000049388254    -0.000021265069
            -0.000060242334    -0.000017015966    0.043408064856    0.022507552449    -0.000050324420    -0.000020398121    0.025965945374    0.038671851548
            0.028583903324    0.034287187655    -0.000050324802    -0.000020398020    0.046596123620    0.017360988999    -0.000041343525    -0.000023274503
            -0.000049388730    -0.000021264947    0.025965947281    0.038671851471    -0.000041343158    -0.000023274600    0.043130262221    0.022545360635
0.150     0.049377162889    0.014635276261    -0.000064133430    -0.000016478502    0.035592456473    0.034007799031    -0.000054247553    -0.000021871774
            -0.000064133886    -0.000016478357    0.046340756311    0.022272662432    -0.000054596643    -0.000020653354    0.033305175814    0.040634660978
            0.035592568318    0.034007764484    -0.000054597116    -0.000020653206    0.048939589212    0.014848100342    -0.000045904300    -0.000024799347
            -0.000054247927    -0.000021871661    0.033305167529    0.040634663890    -0.000045903939    -0.000024799463    0.046003790461    0.022453635593
0.175     0.049433563711    0.011449333875    -0.000068058565    -0.000015599594    0.040972426352    0.031891753747    -0.000059163820    -0.000021823682
            -0.000068059013    -0.000015599422    0.047833604689    0.021599119816    -0.000058999558    -0.000020487657    0.039818940977    0.040917299761
            0.040972532144    0.031891715515    -0.000058999960    -0.000020487450    0.049023181740    0.011822796240    -0.000050729648    -0.000025839772
            -0.000059164283    -0.000021823513    0.039818941691    0.040917299066    -0.000050729296    -0.000025839905    0.047497738003    0.021953944608
0.200     0.047039279729    0.008780560693    -0.000071994305    -0.000014388391    0.044190221934    0.028792085707    -0.000064079874    -0.000021230427
            -0.000071994742    -0.000014388203    0.047828505886    0.021187328504    -0.000063492626    -0.000019897492    0.045069017154    0.040060811619
            0.044190329661    0.028792039436    -0.000063492985    -0.000019897337    0.046719892229    0.009307424005    -0.000055785377    -0.000026420568
            -0.000064080235    -0.000021230274    0.045069008571    0.040060815254    -0.000055785026    -0.000026420724    0.047562660774    0.021719917868
0.225     0.042473186712    0.007685271456    -0.000075964438    -0.000012839272    0.045069380024    0.025707529175    -0.000069000460    -0.000020132224
            -0.000075964866    -0.000012839058    0.046535702993    0.021720877521    -0.000068071058    -0.000018864572    0.048848206794    0.038716414510
            0.045069480513    0.025707480155    -0.000068071453    -0.000018864387    0.042304399134    0.008331616365    -0.000061093317    -0.000026512861
            -0.000069000810    -0.000020132065    0.048848209037    0.038716414900    -0.000061093004    -0.000026513067    0.046408267661    0.022406441637
0.250     0.036414214788    0.009098734807    -0.000080012533    -0.000010970697    0.043830159715    0.023652704764    -0.000073978235    -0.000018585521
            -0.000080012945    -0.000010970469    0.044420073600    0.023791764596    -0.000072753175    -0.000017406164    0.051210383346    0.037564550980
            0.043830252810    0.023652652276    -0.000072753605    -0.000017405931    0.036440463391    0.009806750881    -0.000066682012    -0.000026111614
            -0.000073978663    -0.000018585299    0.051210385614    0.037564551269    -0.000066681684    -0.000026111794    0.044486793064    0.024579870005
0.275     0.029894886087    0.013669718774    -0.000084197737    -0.000008721665    0.041078980594    0.023503490345    -0.000079067851    -0.000016546437
            -0.000084198034    -0.000008721413    0.042164237574    0.027792370515    -0.000077570103    -0.000015470036    0.052463762045    0.037212963608
            0.041079074544    0.023503430850    -0.000077570521    -0.000015469781    0.030136066916    0.014364445809    -0.000072590867    -0.000025125278
            -0.000079068227    -0.000016546213    0.052463764325    0.037212963850    -0.000072590553    -0.000025125467    0.042459778222    0.028611747878
0.300     0.024183679969    0.021646158191    -0.000088564052    -0.000006014181    0.037746016566    0.025858771881    -0.000084322490    -0.000013941399
            -0.000088564358    -0.000006013968    0.040591138863    0.033854062925    -0.000082548768    -0.000012991998    0.053137244977    0.038111956478
            0.037746102229    0.025858710537    -0.000082549092    -0.000012991784    0.024629538651    0.022246568683    -0.000078834645    -0.000023448527
            -0.000084322895    -0.000013941134    0.053137247933    0.038111955789    -0.000078834426    -0.000023448671    0.041121616516    0.034622420773
0.325     0.020628477509    0.032776817943    -0.000093106784    -0.000002693783    0.034960854613    0.030916604148    -0.000089727275    -0.000010618954
            -0.000093107158    -0.000002693501    0.040561718745    0.041786331353    -0.000087672535    -0.000009837955    0.053904456139    0.040472099998
            0.034960940072    0.030916536191    -0.000087672846    -0.000009837727    0.021236285890    0.033207631283    -0.000085374858    -0.000020903272
            -0.000089727590    -0.000010618721    0.053904459857    0.040472098377    -0.000085374563    -0.000020903499    0.041301573359    0.042421367164
0.350     0.020458948988    0.046303393152    -0.000097754689    0.000001390206    0.033888280381    0.038416528105    -0.000095205923    -0.000006421714
            -0.000097754973    0.000001390449    0.042856984800    0.051082781612    -0.000092869090    -0.000005873275    0.055492234796    0.044226846443
            0.033888365525    0.038416454331    -0.000092869462    -0.000005872973    0.021157542541    0.046508461388    -0.000092100094    -0.000017319348
            -0.000095206300    -0.000006421405    0.055492238676    0.044226844784    -0.000092099808    -0.000017319578    0.043750189636    0.051514515607
0.375     0.024587830521    0.061010403917    -0.000102341745    0.000006399149    0.035534543872    0.047641277456    -0.000100571304    -0.000001192186
            -0.000102342057    0.000006399437    0.048054809981    0.060947632473    -0.000097976287    -0.000000951479    0.058560468943    0.049019532614
            0.035534617352    0.047641207678    -0.000097976613    -0.000000951191    0.025286041811    0.060963065132    -0.000098799211    -0.000012523150
            -0.000100571587    -0.000001191926    0.058560473044    0.049019530831    -0.000098798936    -0.000012523396    0.049020887344    0.061129589777
0.400     0.033445518142    0.075380422016    -0.000106630251    0.000012412665    0.040578337916    0.057517020160    -0.000105566262    0.000005148812
            -0.000106630574    0.000012413004    0.056433812344    0.070393977444    -0.000102763419    0.000005001124    0.063603256335    0.054254819594
            0.040578400394    0.057516955277    -0.000102763695    0.000005001407    0.034045392446    0.075090532556    -0.000105183591    -0.000006430411
            -0.000105566539    0.000005149084    0.063603259936    0.054254816913    -0.000105183335    -0.000006430672    0.057377750200    0.070311483882
0.425     0.046884028092    0.087791399940    -0.000110323493    0.000019432202    0.049245563853    0.066763567318    -0.000109867790    0.000012584329
            -0.000110323810    0.000019432536    0.067906898866    0.078355529420    -0.000106940112    0.000011982499    0.070857662410    0.059171640406
            0.049245623654    0.066763499598    -0.000106940435    0.000011982856    0.047295064804    0.087305606632    -0.000110903281    0.000000951249
            -0.000109868015    0.000012584646    0.070857665509    0.059171636696    -0.000110903033    0.000000950976    0.068732036273    0.078029882950
0.450     0.064181403172    0.096754685423    -0.000113135020    0.000027322299    0.061276024823    0.074097460002    -0.000113169096    0.000020959085
            -0.000113135260    0.000027322586    0.082019607125    0.083835472100    -0.000110223289    0.000019859589    0.080271321599    0.062961273505
            0.061276081875    0.074097392059    -0.000110223587    0.000019859961    0.064334297617    0.096151675376    -0.000115619307    0.000009463788
            -0.000113169334    0.000020959394    0.080271324896    0.062961269302    -0.000115619068    0.000009463525    0.082640732240    0.083322053348
0.475     0.084132300374    0.101112334575    -0.000114823456    0.000035852273    0.075962688398    0.078407408792    -0.000115214887    0.000030006055
            -0.000114823706    0.000035852615    0.097990604285    0.086028595067    -0.000112372285    0.000028402883    0.091499199994    0.064870912743
            0.075962744389    0.078407340624    -0.000112372521    0.000028403173    0.083989551395    0.100492886285    -0.000119046804    0.000018838038
            -0.000115215115    0.000030006372    0.091499203391    0.064870907952    -0.000119046587    0.000018837748    0.098345841064    0.085411914957
0.500     0.105217051848    0.100187113554    -0.000115260500    0.000044700122    0.092268837106    0.078903913367    -0.000115873941    0.000039369091
            -0.000115260710    0.000044700411    0.114810949345    0.084430365316    -0.000113255871    0.000037292104    0.103960416136    0.064309752658
            0.092268885968    0.078903840842    -0.000113256084    0.000037292415    0.104778665093    0.099660840833    -0.000121025930    0.000028703610
            -0.000115874150    0.000039369410    0.103960416136    0.064309752658    -0.000121025722    0.000028703316    0.114870786403    0.083812978099
0.525     0.125790726384    0.093838048151    -0.000114428962    0.000053529812    0.108966545493    0.075187361201    -0.000115140692    0.000048672077
            -0.000114429014    0.000053530007    0.131358069206    0.078884505554    -0.000112854135    0.000046189805    0.116905328419    0.060907080094
            0.108966614686    0.075187243314    -0.000112854374    0.000046190225    0.125095799231    0.093509918762    -0.000121526609    0.000038669953
            -0.000115140839    0.000048672447    0.116905331608    0.060907073973    -0.000121526416    0.000038669635    0.131130000841    0.078376103524
0.550     0.144277904914    0.082450328445    -0.000112444676    0.000062022285    0.124788261857    0.067270844652    -0.000113152177    0.000057566950
            -0.000112444667    0.000062022280    0.146527616410    0.069596727702    -0.000111279735    0.000054774802    0.129513357312    0.054551154160
            0.124788305298    0.067270764067    -0.000111279970    0.000054775207    0.143399086284    0.082407548293    -0.000120668149    0.000048366060
            -0.000113152353    0.000057567288    0.129513350000    0.054551145757    -0.000120668013    0.000048365835    0.146055948198    0.069299826367
0.575     0.159316953103    0.066857879073    -0.000109504997    0.000069935135    0.138542565975    0.055542297620    -0.000110138519    0.000065787636
            -0.000109505200    0.000069935560    0.159336853196    0.057093538877    -0.000108728814    0.000062801585    0.140966502094    0.045382096667
            0.138542633978    0.055542181743    -0.000108728911    0.000062801818    0.158354083145    0.067160377050    -0.000118667754    0.000057506193
            -0.000110138716    0.000065788066    0.140966494951    0.045382086221    -0.000118667593    0.000057505859    0.158699565032    0.057092948100
0.600     0.169876528015    0.048242391776    -0.000105879104    0.000077116217    0.149216360085    0.040715258009    -0.000106402273    0.000073170973
            -0.000105879096    0.000077116211    0.169020679210    0.042160906010    -0.000105468930    0.000070112878    0.150533442780    0.033774645356
            0.149216401408    0.040715182540    -0.000105469306    0.000070113739    0.168945077653    0.048915735998    -0.000115822853    0.000065905676
            -0.000106402647    0.000073171859    0.150533435381    0.033774632658    -0.000115822478    0.000065904820    0.168320679609    0.042513735901
0.625     0.175311507113    0.028016314374    -0.000101839845    0.000083516989    0.156032288536    0.023756264404    -0.000102254130    0.000079670391
            -0.000101839852    0.000083516965    0.175078038012    0.025761703710    -0.000101773895    0.000076658606    0.157613317538    0.020294266841
            0.156032331669    0.023756180413    -0.000101774068    0.000076659042    0.174532481018    0.029046994128    -0.000112438960    0.000073498589
            -0.000102254130    0.000079670391    0.157613308222    0.020294260887    -0.000112438792    0.000073498171    0.174434601804    0.026489734096
0.650     0.175404430803    0.007710507370    -0.000097657569    0.000089182179    0.158510047339    0.005824424962    -0.000097995281    0.000085340371
            -0.000097657871    0.000089183080    0.177312709645    0.008948906197    -0.000097914108    0.000082479261    0.161793359046    0.005656842340
            0.158510080582    0.005824337258    -0.000097914405    0.000082480183    0.174891827729    0.009046843873    -0.000108819673    0.000080325684
            -0.000097995288    0.000085340347    0.161793349338    0.005656833802    -0.000108819661    0.000080325734    0.176849932880    0.010036020258
0.675     0.170368375101    -0.011131471716    -0.000093546695    0.000094236829    0.156496486808    -0.011803025189    -0.000093868798    0.000090323159
            -0.000093546688    0.000094236822    0.175828979376    -0.007216269157    -0.000094104804    0.000087695425    0.162866140417    -0.009325765036
            0.156496526511    -0.011803163607    -0.000094105060    0.000087696339    0.170217946154    -0.009577188099    -0.000105206395    0.000086516079
            -0.000093868920    0.000090323623    0.162866140221    -0.009325768447    -0.000105206260    0.000086515660    0.175664025575    -0.005825385469
0.700     0.160854193890    -0.027058167921    -0.000089674490    0.000098861774    0.150217317994    -0.027805889860    -0.000090062677    0.000094825052
            -0.000089674487    0.000098861737    0.171032572063    -0.021747417199    -0.000090515917    0.000092486819    0.160869870387    -0.023799220353
            0.150217341311    -0.027805983659    -0.000090515924    0.000092486826    0.161131619612    -0.025403718150    -0.000101789731    0.000092264504
            -0.000090062894    0.000094825977    0.160869870387    -0.023799220353    -0.000101789722    0.000092264529    0.171264016705    -0.020144155432
0.725     0.147927588904    -0.038819525916    -0.000086126185    0.000103275389    0.140294745105    -0.040923802269    -0.000086678727    0.000099093976
            -0.000086126223    0.000103275838    0.163595219689    -0.033804698368    -0.000087235766    0.000097065821    0.156084696967    -0.036934084606
            0.140294766992    -0.040923941501    -0.000087235847    0.000097066286    0.148658454470    -0.037203732901    -0.000098670299    0.000097808603
            -0.000086678824    0.000099094436    0.156084696967    -0.036934084606    -0.000098670289    0.000097808627    0.164291277762    -0.032112089180
0.750     0.133038429041    -0.045491284525    -0.000082925214    0.000107717488    0.127768806004    -0.050079124544    -0.000083748136    0.000103401515
            -0.000082925338    0.000107718427    0.154422312248    -0.042772634139    -0.000084294295    0.000101671540    0.149050969536    -0.047996429043
            0.127768828614    -0.050079313486    -0.000084294410    0.000101672509    0.134202261363    -0.044060041931    -0.000095882064    0.000103412906
            -0.000083748267    0.000103402451    0.149050969536    -0.047996429043    -0.000095882046    0.000103412923    0.155612245835    -0.041133351477
0.775     0.117940027955    -0.046607264971    -0.000080006927    0.000112427604    0.114051799186    -0.054533755019    -0.000081207206    0.000108024866
            -0.000080006935    0.000112427574    0.144585236901    -0.048321920962    -0.000081634342    0.000106543836    0.140527338987    -0.056433539155
            0.114051816196    -0.054533858534    -0.000081634342    0.000106543836    0.119465330579    -0.045498274978    -0.000093360974    0.000109345349
            -0.000081207284    0.000108025833    0.140527338987    -0.056433539155    -0.000093360944    0.000109344889    0.146251694952    -0.046887991086
