# GHz S RI R 45
0.000     0.022063993000    0.000000000000    0.000002367468    -0.000000000000    0.000614813180    0.000000000000    0.000012626689    -0.000000000000
            0.000002367561    -0.000000000000    0.021262966000    0.000000000000    0.000007013255    -0.000000000000    0.000363844690    0.000000000000
            0.000614890850    0.000000000000    0.000007013387    -0.000000000000    0.022028346000    0.000000000000    0.000005083942    0.000000000000
            0.000012626785    -0.000000000000    0.000363846390    0.000000000000    0.000005083816    0.000000000000    0.021090472000    0.000000000000
0.025     0.026558030785    0.009469163607    -0.000001926965    -0.000004314087    0.002136526952    0.010302261089    -0.000001087168    -0.000011167636
            -0.000001926868    -0.000004314097    0.025419752058    0.009788792771    0.000004664969    -0.000003562347    0.001775691190    0.010661889573
            0.002136484920    0.010302090061    0.000004665105    -0.000003562353    0.026503500599    0.009500495521    0.000004904524    -0.000003232866
            -0.000001087080    -0.000011167639    0.001775569245    0.010661722334    0.000004904394    -0.000003232860    0.025425867527    0.009862705208
0.050     0.031354813840    0.014426034891    -0.000003311049    -0.000004333979    0.006238422121    0.019522987369    -0.000005792803    -0.000008385064
            -0.000003310953    -0.000004333989    0.029914597520    0.015385330458    0.000003777900    -0.000004756577    0.005614863713    0.020387064907
            0.006238530272    0.019522968557    0.000003778030    -0.000004756590    0.031305527177    0.014512034914    0.000004536223    -0.000006372183
            -0.000005792714    -0.000008385073    0.005614893963    0.020387052427    0.000004536089    -0.000006372168    0.029932998021    0.015350300463
0.075     0.036374528417    0.017524233124    -0.000003253920    -0.000005169330    0.012345139651    0.026902238078    -0.000005952924    -0.000007603689
            -0.000003253825    -0.000005169344    0.034634250234    0.019363955637    0.000003713237    -0.000006384458    0.011385671097    0.028533092440
            0.012345222908    0.026902226279    0.000003713371    -0.000006384479    0.036352388753    0.017662639981    0.000004093760    -0.000009614308
            -0.000005952838    -0.000007603703    0.011385677814    0.028533091913    0.000004093634    -0.000009614289    0.034564945152    0.019284639719
0.100     0.041249967755    0.018652234847    -0.000002984903    -0.000006704545    0.019632469829    0.031954690860    -0.000005173380    -0.000008432304
            -0.000002984808    -0.000006704565    0.039325994903    0.021678662253    0.000003737557    -0.000008468669    0.018419759722    0.034677787646
            0.019632545870    0.031954675831    0.000003737685    -0.000008468696    0.041271117302    0.018833874997    0.000003402499    -0.000013030044
            -0.000005173291    -0.000008432325    0.018419761402    0.034677787887    0.000003402378    -0.000013030020    0.039145370683    0.021625810555
0.125     0.045235158044    0.017999798872    -0.000002912551    -0.000008841704    0.027181232733    0.034537657764    -0.000004356396    -0.000010583309
            -0.000002912458    -0.000008841729    0.043408064856    0.022507552449    0.000003633026    -0.000011022704    0.025965945374    0.038671851548
            0.027181308583    0.034537638791    0.000003633162    -0.000011022738    0.045313132124    0.018210250541    0.000002415253    -0.000016684237
            -0.000004356309    -0.000010583331    0.025965947281    0.038671851471    0.000002415124    -0.000016684202    0.043130262221    0.022545360635
0.150     0.047626976037    0.016065880018    -0.000003192468    -0.000011418754    0.034108559412    0.034852113663    -0.000003893666    -0.000013704802
            -0.000003192378    -0.000011418783    0.046340756311    0.022272662432    0.000003206398    -0.000013986267    0.033305175814    0.040634660978
            0.034108634472    0.034852090577    0.000003206530    -0.000013986307    0.047772543508    0.016288383892    0.000000983419    -0.000020573537
            -0.000003893581    -0.000013704828    0.033305167529    0.040634663890    0.000000983302    -0.000020573498    0.046003790461    0.022453635593
0.175     0.048011792482    0.013642615101    -0.000004012149    -0.000014342886    0.039670942206    0.033395649080    -0.000004171357    -0.000017635880
            -0.000004012058    -0.000014342920    0.047833604689    0.021599119816    0.000002306235    -0.000017335758    0.039818940977    0.040917299761
            0.039671015756    0.033395622267    0.000002306357    -0.000017335801    0.048230326716    0.013854308007    -0.000001011914    -0.000024703437
            -0.000004171273    -0.000017635910    0.039818941691    0.040917299066    -0.000001012034    -0.000024703390    0.047497738003    0.021953944608
0.200     0.046275311471    0.011641528986    -0.000005432624    -0.000017487780    0.043362242649    0.030905554134    -0.000005333406    -0.000022126374
            -0.000005432535    -0.000017487817    0.047828505886    0.021187328504    0.000000777083    -0.000020978064    0.045069017154    0.040060811619
            0.043362314873    0.030905523440    0.000000777206    -0.000020978114    0.046564228258    0.011816623802    -0.000003728085    -0.000029002403
            -0.000005333324    -0.000022126410    0.045069008571    0.040060815254    -0.000003728197    -0.000029002356    0.047562660774    0.021719917868
0.225     0.042657943474    0.010978753758    -0.000007576916    -0.000020755910    0.044984927682    0.028255908094    -0.000007624767    -0.000026981263
            -0.000007576833    -0.000020755952    0.046535702993    0.021720877521    -0.000001527580    -0.000024821158    0.048848206794    0.038716414510
            0.044984998262    0.028255874689    -0.000001527458    -0.000024821214    0.043005117703    0.011091280641    -0.000007317144    -0.000033383919
            -0.000007624690    -0.000026981299    0.048848209037    0.038716414900    -0.000007317254    -0.000033383865    0.046408267661    0.022406441637
0.250     0.037742376837    0.012467692829    -0.000010520797    -0.000024017791    0.044686424224    0.026347228795    -0.000011156595    -0.000031944105
            -0.000010520718    -0.000024017837    0.044420073600    0.023791764596    -0.000004756191    -0.000028702424    0.051210383346    0.037564550980
            0.044686492710    0.026347191396    -0.000004756075    -0.000028702484    0.038125522573    0.012495193536    -0.000011939712    -0.000037675813
            -0.000011156521    -0.000031944147    0.051210385614    0.037564551269    -0.000011939817    -0.000037675755    0.044486793064    0.024579870005
0.275     0.032415580407    0.016676553036    -0.000014380148    -0.000027109583    0.042953869289    0.025972866138    -0.000016090025    -0.000036725116
            -0.000014380095    -0.000027109677    0.042164237574    0.027792370515    -0.000009032989    -0.000032414465    0.052463762045    0.037212963608
            0.042953926942    0.025972836500    -0.000009032873    -0.000032414530    0.032803222637    0.016604359902    -0.000017727190    -0.000041647500
            -0.000016089947    -0.000036725164    0.052463764325    0.037212963850    -0.000017727300    -0.000041647434    0.042459778222    0.028611747878
0.300     0.027769045406    0.023834507130    -0.000019222754    -0.000029801846    0.040564261103    0.027700306266    -0.000022475681    -0.000040964282
            -0.000019222682    -0.000029801896    0.040591138863    0.033854062925    -0.000014442414    -0.000035666861    0.053137244977    0.038111956478
            0.040564324011    0.027700262022    -0.000014442299    -0.000035666934    0.028123664373    0.023659574692    -0.000024760778    -0.000044973195
            -0.000022475607    -0.000040964333    0.053137247933    0.038111955789    -0.000024760875    -0.000044973130    0.041121616516    0.034622420773
0.325     0.024968187253    0.033745429781    -0.000025071175    -0.000031794222    0.038483186043    0.031761164443    -0.000030303560    -0.000044234788
            -0.000025071101    -0.000031794276    0.040561718745    0.041786331353    -0.000020971749    -0.000038113852    0.053904456139    0.040472099998
            0.038483246828    0.031761117501    -0.000020971644    -0.000038113930    0.025250351365    0.033478806168    -0.000033009568    -0.000047266701
            -0.000030303486    -0.000044234846    0.053904459857    0.040472098377    -0.000033009673    -0.000047266622    0.041301573359    0.042421367164
0.350     0.025088141607    0.045781478025    -0.000031829067    -0.000032743809    0.037729867649    0.037997865563    -0.000039399366    -0.000046085808
            -0.000031828995    -0.000032743872    0.042856984800    0.051082781612    -0.000028492104    -0.000039371841    0.055492234796    0.044226846443
            0.037729926258    0.037997815823    -0.000028491997    -0.000039371925    0.025261937946    0.045449274833    -0.000042307529    -0.000048104929
            -0.000039399303    -0.000046085864    0.055492238676    0.044226844784    -0.000042307624    -0.000048104852    0.043750189636    0.051514515607
0.375     0.028946109888    0.058917370438    -0.000039260574    -0.000032306235    0.039213422206    0.045853484413    -0.000049426857    -0.000046085742
            -0.000039260515    -0.000032306289    0.048054809981    0.060947632473    -0.000036708204    -0.000039087943    0.058560468943    0.049019532614
            0.039213483630    0.045853426621    -0.000036708107    -0.000039088030    0.028985769979    0.058559255000    -0.000052304787    -0.000047105377
            -0.000049426797    -0.000046085799    0.058560473044    0.049019530831    -0.000052304879    -0.000047105295    0.049020887344    0.061129589777
0.400     0.036960961624    0.071856619765    -0.000046983076    -0.000030219498    0.043587479428    0.054447205589    -0.000059880204    -0.000043923324
            -0.000046983010    -0.000030219560    0.056433812344    0.070393977444    -0.000045192690    -0.000037002856    0.063603256335    0.054254819594
            0.043587477528    0.054447207111    -0.000045192596    -0.000037002951    0.036855116172    0.071522114661    -0.000062505257    -0.000043997443
            -0.000059880148    -0.000043923380    0.063603259936    0.054254816913    -0.000062505317    -0.000043997388    0.057377750200    0.070311483882
0.425     0.049062837829    0.083189837266    -0.000054498715    -0.000026364087    0.051132970458    0.062690227475    -0.000070130132    -0.000039465694
            -0.000054498655    -0.000026364152    0.067906898866    0.078355529420    -0.000053402904    -0.000033029360    0.070857662410    0.059171640406
            0.051133033823    0.062690157725    -0.000053402814    -0.000033029459    0.048818776569    0.082932188678    -0.000072292700    -0.000038706442
            -0.000070130065    -0.000039465769    0.070857665509    0.059171636696    -0.000072292761    -0.000038706378    0.068732036273    0.078029882950
0.450     0.064686277374    0.091594469209    -0.000061279332    -0.000020820258    0.061716684856    0.069453949542    -0.000079524942    -0.000032821650
            -0.000061279275    -0.000020820323    0.082019607125    0.083835472100    -0.000060789716    -0.000027280139    0.080271321599    0.062961273505
            0.061716743988    0.069453876932    -0.000060789649    -0.000027280224    0.064330560025    0.091463507668    -0.000081048958    -0.000031383192
            -0.000079524881    -0.000032821722    0.080271324896    0.062961269302    -0.000081049018    -0.000031383118    0.082640732240    0.083322053348
0.475     0.082832907144    0.096005830065    -0.000066841272    -0.000013865340    0.074806332766    0.073720831704    -0.000087473742    -0.000024330643
            -0.000066841220    -0.000013865403    0.097990604285    0.086028595067    -0.000066862134    -0.000020078161    0.091499199994    0.064870912743
            0.074806391264    0.073720758099    -0.000066862074    -0.000020078245    0.082409732299    0.096041653295    -0.000088229884    -0.000022410700
            -0.000087473683    -0.000024330726    0.091499203391    0.064870907952    -0.000088229970    -0.000022410574    0.098345841064    0.085411914957
0.500     0.102205755802    0.095756533341    -0.000070847915    -0.000005937772    0.089557881575    0.074723280299    -0.000093565172    -0.000014517530
            -0.000070847864    -0.000005937843    0.114810949345    0.084430365316    -0.000071294723    -0.000011892618    0.103960416136    0.064309752658
            0.089557933888    0.074723201991    -0.000071294668    -0.000011892712    0.101772153558    0.095982613376    -0.000093479598    -0.000012332584
            -0.000093565119    -0.000014517606    0.103960416136    0.064309752658    -0.000093479650    -0.000012332507    0.114870786403    0.083812978099
0.525     0.121365424299    0.090637541565    -0.000073139201    0.000002438315    0.104925611914    0.072016209413    -0.000097594673    -0.000004005917
            -0.000073139151    0.000002438250    0.131358069206    0.078884505554    -0.000073949003    -0.000003276362    0.116905328419    0.060907080094
            0.104925663448    0.072016134330    -0.000073948953    -0.000003276463    0.120986161358    0.091057628667    -0.000096655999    -0.000001780270
            -0.000097594647    -0.000004005967    0.116905331608    0.060907073973    -0.000096656045    -0.000001780187    0.131130000841    0.078376103524
0.550     0.138900954808    0.080905371285    -0.000073766359    0.000010740732    0.119793055632    0.065513363278    -0.000099607269    0.000006584443
            -0.000073766311    0.000010740672    0.146527616410    0.069596727702    -0.000074902692    0.000005239887    0.129513357312    0.054551154160
            0.119793101369    0.065513279647    -0.000074902648    0.000005239792    0.138640675733    0.081500890112    -0.000097858661    0.000008642624
            -0.000099607222    0.000006584352    0.129513350000    0.054551145757    -0.000097858703    0.000008642714    0.146055948198    0.069299826367
0.575     0.153562615212    0.067226479462    -0.000072941130    0.000018517166    0.133078232032    0.055466382870    -0.000099833842    0.000016713656
            -0.000072941087    0.000018517087    0.159336853196    0.057093538877    -0.000074394968    0.000013202027    0.140966502094    0.045382096667
            0.133078268819    0.055466294610    -0.000074394929    0.000013201940    0.153479274666    0.067957522557    -0.000097369046    0.000018423454
            -0.000099833818    0.000016713617    0.140966494951    0.045382086221    -0.000097369085    0.000018423532    0.158699565032    0.057092948100
0.600     0.164374129544    0.050594704230    -0.000071009920    0.000025446613    0.143832533709    0.042430929747    -0.000098666880    0.000025994316
            -0.000071009880    0.000025446529    0.169020679210    0.042160906010    -0.000072793217    0.000020302293    0.150533442780    0.033774645356
            0.143832578811    0.042430847543    -0.000072793147    0.000020302110    0.164511946421    0.051403038199    -0.000095611271    0.000027214534
            -0.000098666870    0.000025994313    0.150533435381    0.033774632658    -0.000095611303    0.000027214615    0.168320679609    0.042513735901
0.625     0.170692415951    0.032230007395    -0.000068372079    0.000031348720    0.151298765682    0.027205440459    -0.000096560553    0.000034201472
            -0.000068372038    0.000031348643    0.175078038012    0.025761703710    -0.000070511887    0.000026377104    0.157613317538    0.020294266841
            0.151298784071    0.027205394697    -0.000070511844    0.000026376961    0.171076250872    0.033042088432    -0.000093061918    0.000034834512
            -0.000096560537    0.000034201428    0.157613308222    0.020294260887    -0.000093061969    0.000034834642    0.174434601804    0.026489734096
0.650     0.172251481583    0.013476113387    -0.000065447173    0.000036200530    0.154972692523    0.010778242707    -0.000093999206    0.000041295585
            -0.000065447144    0.000036200439    0.177312709645    0.008948906197    -0.000067974974    0.000031427248    0.161793359046    0.005656842340
            0.154972728903    0.010778152014    -0.000067974954    0.000031427153    0.172882309159    0.014211109958    -0.000090209129    0.000041286624
            -0.000093999180    0.000041295495    0.161793349338    0.005656833802    -0.000090209156    0.000041286712    0.176849932880    0.010036020258
0.675     0.169167262938    -0.004297080251    -0.000062611072    0.000040101295    0.154632292198    -0.005740786053    -0.000091416073    0.000047380430
            -0.000062611046    0.000040101201    0.175828979376    -0.007216269157    -0.000065555026    0.000035573982    0.162866140417    -0.009325765036
            0.154632300458    -0.005740833114    -0.000065555003    0.000035573836    0.170019561528    -0.003721684131    -0.000087482355    0.000046714014
            -0.000091416054    0.000047380380    0.162866140221    -0.009325768447    -0.000087482386    0.000046714148    0.175664025575    -0.005825385469
0.700     0.161944254183    -0.019790268773    -0.000060183738    0.000043270459    0.150384495797    -0.021185542059    -0.000089183055    0.000052706225
            -0.000060183715    0.000043270362    0.171032572063    -0.021747417199    -0.000063558557    0.000039058010    0.160869870387    -0.023799220353
            0.150384505847    -0.021185542404    -0.000063558541    0.000039057923    0.162964752083    -0.019449105772    -0.000085237272    0.000051397574
            -0.000089183032    0.000052706127    0.160869870387    -0.023799220353    -0.000085237285    0.000051397663    0.171264016705    -0.020144155432
0.725     0.151450916429    -0.031869726204    -0.000058391837    0.000046001849    0.142679320894    -0.034423377958    -0.000087558499    0.000057611814
            -0.000058391818    0.000046001751    0.163595219689    -0.033804698368    -0.000062191979    0.000042188394    0.156084696967    -0.036934084606
            0.142679330724    -0.034423422493    -0.000062191962    0.000042188255    0.152560053483    -0.031821891950    -0.000083713700    0.000055700937
            -0.000087558489    0.000057611720    0.156084696967    -0.036934084606    -0.000083713711    0.000055701029    0.164291277762    -0.032112089180
0.750     0.138891762103    -0.039672537444    -0.000057367692    0.000048664821    0.132330441330    -0.044454974227    -0.000086688547    0.000062529457
            -0.000057367670    0.000048664733    0.154422312248    -0.042772634139    -0.000061560406    0.000045342577    0.149050969536    -0.047996429043
            0.132330460795    -0.044455073295    -0.000061560398    0.000045342488    0.139988540755    -0.039950144579    -0.000083034211    0.000060069692
            -0.000086688542    0.000062529362    0.149050969536    -0.047996429043    -0.000083034228    0.000060069771    0.155612245835    -0.041133351477
0.775     0.125737235729    -0.042712676576    -0.000057120284    0.000051661106    0.120480818701    -0.050544262314    -0.000086566259    0.000067926573
            -0.000057120283    0.000051661033    0.144585236901    -0.048321920962    -0.000061644117    0.000048920095    0.140527338987    -0.056433539155
            0.120480822064    -0.050544357694    -0.000061644112    0.000048919950    0.126706806281    -0.043314313671    -0.000083170933    0.000064979460
            -0.000086566278    0.000067926467    0.140527338987    -0.056433539155    -0.000083170943    0.000064979561    0.146251694952    -0.046887991086
