# GHz S RI R 45
0.000     0.021928542000    0.000000000000    0.000080434568    -0.000000000000    0.000522022250    0.000000000000    0.000059544074    -0.000000000000
            0.000080434569    -0.000000000000    0.021262966000    0.000000000000    0.000049988305    -0.000000000000    0.000363844690    0.000000000000
            0.000522023560    0.000000000000    0.000049988295    -0.000000000000    0.021911787000    0.000000000000    0.000060137117    -0.000000000000
            0.000059544120    -0.000000000000    0.000363846390    0.000000000000    0.000060137043    -0.000000000000    0.021090472000    0.000000000000
0.025     0.026796177757    0.010391579963    0.000098378432    0.000036153678    0.002231726618    0.011284801000    0.000097187121    0.000047714996
            0.000098378442    0.000036153680    0.025419752058    0.009788792771    0.000100788519    0.000057457937    0.001775691190    0.010661889573
            0.002231604664    0.011284634496    0.000100788611    0.000057457917    0.026715977598    0.010335002365    0.000092409865    0.000044746096
            0.000097187164    0.000047714975    0.001775569245    0.010661722334    0.000092409774    0.000044746100    0.025425867527    0.009862705208
0.050     0.031995392126    0.016015391454    0.000115597755    0.000056418132    0.006711278085    0.021329781094    0.000120864858    0.000059108269
            0.000115597755    0.000056418132    0.029914597520    0.015385330458    0.000130007451    0.000064864748    0.005614863713    0.020387064907
            0.006711309129    0.021329769230    0.000130007485    0.000064864748    0.031849004616    0.015925167150    0.000113917919    0.000058754375
            0.000120864904    0.000059108267    0.005614893963    0.020387052427    0.000113917930    0.000058754376    0.029932998021    0.015350300463
0.075     0.037491602680    0.019614889411    0.000135219167    0.000072791274    0.013331633527    0.029388270902    0.000139387870    0.000069414119
            0.000135219168    0.000072791272    0.034634250234    0.019363955637    0.000149868531    0.000072392460    0.011385671097    0.028533092440
            0.013331639482    0.029388270396    0.000149868572    0.000072392467    0.037250670838    0.019536155355    0.000132096232    0.000071230186
            0.000139387902    0.000069414123    0.011385677814    0.028533091913    0.000132096231    0.000071230188    0.034564945152    0.019284639719
0.100     0.042854255979    0.021075813719    0.000157997296    0.000084369252    0.021209967437    0.034950002549    0.000159128137    0.000077297221
            0.000157997296    0.000084369252    0.039325994903    0.021678662253    0.000170053562    0.000078264298    0.018419759722    0.034677787646
            0.021209968566    0.034950003033    0.000170053604    0.000078264303    0.042515694819    0.021064203961    0.000151975300    0.000080988463
            0.000159128182    0.000077297220    0.018419761402    0.034677787887    0.000151975302    0.000080988458    0.039145370683    0.021625810555
0.125     0.047272029591    0.020658899962    0.000182747573    0.000089965777    0.029354431894    0.037886308366    0.000180101901    0.000081186693
            0.000182747564    0.000089965773    0.043408064856    0.022507552449    0.000191073824    0.000080578193    0.025965945374    0.038671851548
            0.029354433168    0.037886308645    0.000191073865    0.000080578199    0.046857378558    0.020767266372    0.000173395871    0.000086555097
            0.000180101945    0.000081186694    0.025965947281    0.038671851471    0.000173395872    0.000086555094    0.043130262221    0.022545360635
0.150     0.049981724298    0.018877616959    0.000207816122    0.000090087289    0.036824966825    0.038445595148    0.000201316096    0.000081084182
            0.000207816122    0.000090087289    0.046340756311    0.022272662432    0.000212112983    0.000079127592    0.033305175814    0.040634660978
            0.036824968188    0.038445595227    0.000212113024    0.000079127594    0.049543643514    0.019148613174    0.000195275532    0.000087993843
            0.000201316150    0.000081084183    0.033305167529    0.040634663890    0.000195275533    0.000087993840    0.046003790461    0.022453635593
0.175     0.050569451215    0.016643851814    0.000231966557    0.000085111552    0.042853182921    0.037195461616    0.000221914969    0.000077122752
            0.000231966557    0.000085111552    0.047833604689    0.021599119816    0.000232368598    0.000074003211    0.039818940977    0.040917299761
            0.042853183677    0.037195462271    0.000232368649    0.000074003214    0.050175257427    0.017094872793    0.000216728242    0.000085433081
            0.000221915020    0.000077122756    0.039818941691    0.040917299066    0.000216728242    0.000085433081    0.047497738003    0.021953944608
0.200     0.048967448058    0.014966507687    0.000254534829    0.000076066894    0.046946310711    0.034949590699    0.000241417699    0.000070020771
            0.000254534829    0.000076066894    0.047828505886    0.021187328504    0.000251403469    0.000065888672    0.045069017154    0.040060811619
            0.046946302622    0.034949594865    0.000251403531    0.000065888669    0.048689838889    0.015585547311    0.000237237139    0.000079600408
            0.000241417752    0.000070020768    0.045069008571    0.040060815254    0.000237237141    0.000079600404    0.047562660774    0.021719917868
0.225     0.045507456749    0.014829850316    0.000274986635    0.000063635385    0.048959896887    0.032647509717    0.000259458335    0.000060243665
            0.000274986625    0.000063635383    0.046535702993    0.021720877521    0.000268884350    0.000055239838    0.048848206794    0.038716414510
            0.048959898289    0.032647509417    0.000268884413    0.000055239831    0.045412785914    0.015574431878    0.000256409391    0.000070961571
            0.000259458397    0.000060243660    0.048848209037    0.038716414900    0.000256408946    0.000070961790    0.046408267661    0.022406441637
0.250     0.040898211635    0.017070991477    0.000293326744    0.000048565643    0.049129014669    0.031227110111    0.000276074309    0.000048331405
            0.000293326743    0.000048565646    0.044420073600    0.023791764596    0.000284877450    0.000042583164    0.051210383346    0.037564550980
            0.049129016357    0.031227111184    0.000284877513    0.000042583149    0.041034379976    0.017871896760    0.000274266850    0.000060070694
            0.000276074372    0.000048331395    0.051210385614    0.037564551269    0.000274266850    0.000060070694    0.044486793064    0.024579870005
0.275     0.036168138411    0.022221700995    0.000309399687    0.000031331002    0.048049898058    0.031473843552    0.000291188155    0.000034576802
            0.000309399687    0.000031331006    0.042164237574    0.027792370515    0.000299325334    0.000028197053    0.052463762045    0.037212963608
            0.048049900281    0.031473843809    0.000299325406    0.000028197032    0.036554071978    0.022991437599    0.000290728565    0.000047226434
            0.000291188217    0.000034576782    0.052463764325    0.037212963850    0.000290728575    0.000047226435    0.042459778222    0.028611747878
0.300     0.032540242758    0.030407338689    0.000323371026    0.000012282946    0.046610117819    0.033892456426    0.000304949156    0.000019175530
            0.000323371026    0.000012282952    0.040591138863    0.033854062925    0.000312388047    0.000012264783    0.053137244977    0.038111956478
            0.046610121429    0.033892456563    0.000312388108    0.000012264753    0.033159723751    0.031052523218    0.000305949447    0.000032628321
            0.000304949228    0.000019175500    0.053137247933    0.038111955789    0.000305949457    0.000032628322    0.041121616516    0.034622420773
0.325     0.031268682172    0.041262711532    0.000335125002    -0.000008319827    0.045859312295    0.038593836335    0.000317267124    0.000002214130
            0.000335125012    -0.000008319824    0.040561718745    0.041786331353    0.000323983713    -0.000005134752    0.053904456139    0.040472099998
            0.045859315846    0.038593835221    0.000323983782    -0.000005134791    0.032068608919    0.041698429784    0.000319850684    0.000016349465
            0.000317267194    0.000002214094    0.053904459857    0.040472098377    0.000319850693    0.000016349466    0.041301573359    0.042421367164
0.350     0.033445729927    0.053945505283    0.000344702167    -0.000030336185    0.046847676776    0.045255580222    0.000328129578    -0.000016308185
            0.000344702178    -0.000030336183    0.042856984800    0.051082781612    0.000334102124    -0.000024004935    0.055492234796    0.044226846443
            0.046847681304    0.045255579853    0.000334102180    -0.000024004983    0.034341241894    0.054110224264    0.000332426686    -0.000001631575
            0.000328129646    -0.000016308231    0.055492238676    0.044226844784    0.000332426696    -0.000001631582    0.043750189636    0.051514515607
0.375     0.039811336170    0.067203266126    0.000351884345    -0.000053540222    0.050438926830    0.053136859761    0.000337278013    -0.000036332629
            0.000351884345    -0.000053540221    0.048054809981    0.060947632473    0.000342489794    -0.000044284060    0.058560468943    0.049019532614
            0.050438930301    0.053136857845    0.000342489838    -0.000044284113    0.040695754805    0.067070387714    0.000343416498    -0.000021293251
            0.000337278087    -0.000036332688    0.058560473044    0.049019530831    0.000343416508    -0.000021293254    0.049020887344    0.061129589777
0.400     0.050609175359    0.079545160745    0.000356547471    -0.000077742672    0.057160069346    0.061192636733    0.000344476898    -0.000057784533
            0.000356547479    -0.000077742680    0.056433812344    0.070393977444    0.000348921523    -0.000065892270    0.063603256335    0.054254819594
            0.057160072550    0.061192633740    0.000348921573    -0.000065892330    0.051370177688    0.079130010515    0.000352565313    -0.000042597266
            0.000344476957    -0.000057784600    0.063603259936    0.054254816913    0.000352565332    -0.000042597276    0.057377750200    0.070311483882
0.425     0.065514808971    0.089441516531    0.000358441272    -0.000102553156    0.067095606210    0.068226003081    0.000349361445    -0.000080396183
            0.000358441273    -0.000102553150    0.067906898866    0.078355529420    0.000353046974    -0.000088559574    0.070857662410    0.059171640406
            0.067095607890    0.068226000026    0.000353046998    -0.000088559639    0.066050053574    0.088802160263    0.000359475031    -0.000065316278
            0.000349361500    -0.000080396260    0.070857665509    0.059171636696    0.000359475040    -0.000065316286    0.068732036273    0.078029882950
0.450     0.083668189777    0.095557323433    0.000357456765    -0.000127570471    0.079878854436    0.073084688856    0.000351665704    -0.000103813388
            0.000357456765    -0.000127570471    0.082019607125    0.083835472100    0.000354619019    -0.000111931570    0.080271321599    0.062961273505
            0.079878856987    0.073084686068    0.000354619059    -0.000111931644    0.083901561373    0.094786604307    0.000363828631    -0.000089113724
            0.000351665751    -0.000103813475    0.080271324896    0.062961269302    0.000363828638    -0.000089113739    0.082640732240    0.083322053348
0.475     0.103783177601    0.096929450791    0.000353538609    -0.000152206081    0.094745342073    0.074819995306    0.000351187714    -0.000127485190
            0.000353538607    -0.000152206087    0.097990604285    0.086028595067    0.000353454993    -0.000135461284    0.091499199994    0.064870912743
            0.094745344684    0.074819991999    0.000353455311    -0.000135461738    0.103676180725    0.096144365500    0.000365368330    -0.000113446582
            0.000351187746    -0.000127485278    0.091499203391    0.064870907952    0.000365368337    -0.000113446591    0.098345841064    0.085411914957
0.500     0.124329889399    0.093093249189    0.000346839916    -0.000175925094    0.110660147706    0.072814738632    0.000347931322    -0.000150834360
            0.000346839930    -0.000175925109    0.114810949345    0.084430365316    0.000349576304    -0.000158586902    0.103960416136    0.064309752658
            0.110660147706    0.072814738632    0.000349576318    -0.000158586967    0.123887330277    0.092418741465    0.000364039775    -0.000137723253
            0.000347930804    -0.000150833645    0.103960416136    0.064309752658    0.000364039787    -0.000137723279    0.114870786403    0.083812978099
0.525     0.143722226136    0.084111278443    0.000337665672    -0.000198139390    0.126451304651    0.066830091162    0.000342079726    -0.000173230989
            0.000337665668    -0.000198139396    0.131358069206    0.078884505554    0.000343183867    -0.000180693230    0.116905328419    0.060907080094
            0.126451299309    0.066830079868    0.000343183874    -0.000180693302    0.142993087352    0.083665367137    0.000359979172    -0.000161288008
            0.000342079737    -0.000173231077    0.116905331608    0.060907073973    0.000359979175    -0.000161288025    0.131130000841    0.078376103524
0.550     0.160504762234    0.070542411814    0.000326501441    -0.000218448836    0.140954533672    0.057011013074    0.000334026211    -0.000194171184
            0.000326501437    -0.000218448842    0.146527616410    0.069596727702    0.000334678528    -0.000201299584    0.129513357312    0.054551154160
            0.140954533672    0.057011013074    0.000334678534    -0.000201299652    0.159575539315    0.070420852466    0.000353540539    -0.000183590506
            0.000334026205    -0.000194171274    0.129513350000    0.054551145757    0.000353540541    -0.000183590523    0.146055948198    0.069299826367
0.575     0.173480917332    0.053348328504    0.000313941010    -0.000236542767    0.153112492115    0.043838592196    0.000324308535    -0.000213261775
            0.000313940989    -0.000236542812    0.159336853196    0.057093538877    0.000324601739    -0.000220034436    0.140966502094    0.045382096667
            0.153112501728    0.043838594948    0.000324601765    -0.000220034486    0.172467635233    0.053614502159    0.000345243608    -0.000204192475
            0.000324308517    -0.000213261877    0.140966494951    0.045382086221    0.000345243596    -0.000204192516    0.158699565032    0.057092948100
0.600     0.181814792269    0.033783445103    0.000300629419    -0.000252367987    0.162066314926    0.028075714741    0.000313551128    -0.000230332504
            0.000300629445    -0.000252367956    0.169020679210    0.042160906010    0.000313576825    -0.000236754347    0.150533442780    0.033774645356
            0.162066305955    0.028075707942    0.000313576804    -0.000236754392    0.180850160636    0.034460527976    0.000335708897    -0.000222872292
            0.000313551100    -0.000230332610    0.150533435381    0.033774632658    0.000335708487    -0.000222871446    0.168320679609    0.042513735901
0.625     0.185070022811    0.013274479472    0.000287206960    -0.000266016465    0.167198643853    0.010694656149    0.000302402741    -0.000245398584
            0.000287206976    -0.000266016462    0.175078038012    0.025761703710    0.000302241275    -0.000251495956    0.157613317538    0.020294266841
            0.167198634154    0.010694651133    0.000302241259    -0.000251496006    0.184290811279    0.014340645150    0.000325592823    -0.000239602228
            0.000302402728    -0.000245398617    0.157613308222    0.020294260887    0.000325592626    -0.000239601803    0.174434601804    0.026489734096
0.650     0.183239194613    -0.006694418316    0.000274220924    -0.000277808835    0.168189064727    -0.007183931902    0.000291453283    -0.000258694980
            0.000274220880    -0.000277808878    0.177312709645    0.008948906197    0.000291167393    -0.000264514838    0.161793359046    0.005656842340
            0.168189064740    -0.007183931608    0.000291167380    -0.000264514881    0.182772025590    -0.005304007157    0.000315508872    -0.000254579438
            0.000291453286    -0.000258695037    0.161793349338    0.005656833802    0.000315508927    -0.000254579401    0.176849932880    0.010036020258
0.675     0.176730051033    -0.024685661684    0.000262109906    -0.000288176817    0.165033118341    -0.024364513454    0.000281191364    -0.000270613246
            0.000262109897    -0.000288176838    0.175828979376    -0.007216269157    0.000280819556    -0.000276216642    0.162866140417    -0.009325765036
            0.165033118341    -0.024364513454    0.000280819560    -0.000276216723    0.176678534326    -0.023076764841    0.000305975242    -0.000268171983
            0.000281191383    -0.000270613284    0.162866140221    -0.009325768447    0.000305975243    -0.000268172012    0.175664025575    -0.005825385469
0.700     0.166360909391    -0.039414416242    0.000251129511    -0.000297680297    0.158088075092    -0.039653965550    0.000271943971    -0.000281686027
            0.000251129517    -0.000297680252    0.171032572063    -0.021747417199    0.000271493160    -0.000287138388    0.160869870387    -0.023799220353
            0.158088075092    -0.039653965550    0.000271493144    -0.000287138430    0.166792790066    -0.037725415275    0.000297355458    -0.000280898294
            0.000271944004    -0.000281686120    0.160869870387    -0.023799220353    0.000297355501    -0.000280898335    0.171264016705    -0.020144155432
0.725     0.153317978597    -0.049853288903    0.000241366534    -0.000306906543    0.148074052950    -0.051964374989    0.000263857066    -0.000292521012
            0.000241366517    -0.000306906544    0.163595219689    -0.033804698368    0.000263306519    -0.000297876159    0.156084696967    -0.036934084606
            0.148074043514    -0.051964371678    0.000263306524    -0.000297876248    0.154253484661    -0.048244851315    0.000289831681    -0.000293370178
            0.000263857015    -0.000292521058    0.156084696967    -0.036934084606    0.000289831643    -0.000293370160    0.164291277762    -0.032112089180
0.750     0.139105687578    -0.055351735496    0.000232697037    -0.000316444767    0.136080800212    -0.060435047442    0.000256867911    -0.000303743445
            0.000232697003    -0.000316444767    0.154422312248    -0.042772634139    0.000256167186    -0.000309036503    0.149050969536    -0.047996429043
            0.136080800212    -0.060435047442    0.000256167144    -0.000309036551    0.140510830125    -0.053989430047    0.000283376230    -0.000306227334
            0.000256867863    -0.000303743486    0.149050969536    -0.047996429043    0.000283376265    -0.000306227329    0.155612245835    -0.041133351477
0.775     0.125438464561    -0.055748357574    0.000224843061    -0.000326809225    0.123496307387    -0.064575881476    0.000250719803    -0.000315944235
            0.000224843055    -0.000326809229    0.144585236901    -0.048321920962    0.000249804036    -0.000321172439    0.140527338987    -0.056433539155
            0.123496307387    -0.064575881476    0.000249804004    -0.000321172502    0.127221544904    -0.054785207355    0.000277758701    -0.000320093872
            0.000250719772    -0.000315944298    0.140527338987    -0.056433539155    0.000277758701    -0.000320093872    0.146251694952    -0.046887991086
0.800     0.114091515160    -0.051475030429    0.000217361956    -0.000338399902    0.111897688637    -0.064399655077    0.000244968925    -0.000329606263
