# GHz S RI R 45
0.000     0.021566183000    0.000000000000    -0.000057088204    0.000000000000    0.000399291200    0.000000000000    -0.000028467434    0.000000000000
            -0.000057088441    0.000000000000    0.021262966000    0.000000000000    -0.000040071225    0.000000000000    0.000363844690    0.000000000000
            0.000399290100    0.000000000000    -0.000040071219    0.000000000000    0.021528826000    0.000000000000    -0.000028117773    0.000000000000
            -0.000028467100    0.000000000000    0.000363846390    0.000000000000    -0.000028117774    0.000000000000    0.021090472000    0.000000000000
0.025     0.026270591080    0.010293906105    -0.000011286270    0.000032181975    0.002063214104    0.011101785160    -0.000020598171    0.000011366139
            -0.000011286278    0.000032181980    0.025419752058    0.009788792771    -0.000017949793    0.000018176450    0.001775691190    0.010661889573
            0.002063090408    0.011101618963    -0.000017949791    0.000018176454    0.026180340178    0.010292320711    -0.000017416759    0.000016109879
            -0.000020598169    0.000011366138    0.001775569245    0.010661722334    -0.000017416773    0.000016109874    0.025425867527    0.009862705208
0.050     0.031281577951    0.015922970070    0.000002635671    0.000017262837    0.006316339079    0.021003694281    -0.000019311133    0.000014827771
            0.000002635654    0.000017262833    0.029914597520    0.015385330458    -0.000012306190    0.000013693691    0.005614863713    0.020387064907
            0.006316368930    0.021003683216    -0.000012306193    0.000013693690    0.031154938342    0.015962657855    -0.000014683068    0.000021513174
            -0.000019311038    0.000014827763    0.005614893963    0.020387052427    -0.000014682986    0.000021513167    0.029932998021    0.015350300463
0.075     0.036530613679    0.019663059226    -0.000000124422    0.000009547096    0.012593615012    0.029090057683    -0.000021714011    0.000020838678
            -0.000000124431    0.000009547113    0.034634250234    0.019363955637    -0.000015905177    0.000013638993    0.011385671097    0.028533092440
            0.012593620376    0.029090057540    -0.000015905132    0.000013638984    0.036373186103    0.019766963107    -0.000016307645    0.000029734597
            -0.000021714005    0.000020838673    0.011385677814    0.028533091913    -0.000016307599    0.000029734587    0.034564945152    0.019284639719
0.100     0.041667874914    0.021437758994    -0.000007024142    0.000007749857    0.020119207312    0.034893592746    -0.000024744745    0.000029585189
            -0.000007024123    0.000007749863    0.039325994903    0.021678662253    -0.000021982274    0.000017860700    0.018419759722    0.034677787646
            0.020119206094    0.034893593449    -0.000021982274    0.000017860700    0.041492289411    0.021629518630    -0.000018544713    0.000040876284
            -0.000024744745    0.000029585200    0.018419761402    0.034677787887    -0.000018544631    0.000040876274    0.039145370683    0.021625810555
0.125     0.045975299175    0.021491694479    -0.000015272763    0.000011446799    0.028009560318    0.038279001060    -0.000027243826    0.000041096600
            -0.000015272746    0.000011446803    0.043408064856    0.022507552449    -0.000028513735    0.000026314279    0.025965945374    0.038671851548
            0.028009559650    0.038279001549    -0.000028513741    0.000026314276    0.045804597976    0.021790561937    -0.000020082664    0.000054964704
            -0.000027243828    0.000041096602    0.025965947281    0.038671851471    -0.000020082685    0.000054964703    0.043130262221    0.022545360635
0.150     0.048773523961    0.020290986732    -0.000022987713    0.000019395732    0.035421504315    0.039441276651    -0.000028177538    0.000054980940
            -0.000022987695    0.000019395737    0.046340756311    0.022272662432    -0.000034101665    0.000038367488    0.033305175814    0.040634660978
            0.035421503626    0.039441277269    -0.000034101672    0.000038367482    0.048646572687    0.020709671917    -0.000019839224    0.000071528672
            -0.000028177540    0.000054980942    0.033305167529    0.040634663890    -0.000019839252    0.000071528674    0.046003790461    0.022453635593
0.175     0.049700229667    0.018648409898    -0.000028980417    0.000031112850    0.041654763448    0.038856242734    -0.000026851784    0.000070924696
            -0.000028980397    0.000031112850    0.047833604689    0.021599119816    -0.000037805392    0.000053704078    0.039818940977    0.040917299761
            0.041654771799    0.038856239647    -0.000037805394    0.000053704080    0.049661379429    0.019182820687    -0.000017023772    0.000090289672
            -0.000026851796    0.000070924688    0.039818941691    0.040917299066    -0.000017023788    0.000090289667    0.047497738003    0.021953944608
0.200     0.048694427515    0.017460625985    -0.000032377722    0.000045795778    0.046242679199    0.037220337287    -0.000022616741    0.000088348099
            -0.000032377698    0.000045795777    0.047828505886    0.021187328504    -0.000038767125    0.000071760732    0.045069017154    0.040060811619
            0.046242677770    0.037220337467    -0.000038767127    0.000071760735    0.048787477915    0.018088287852    -0.000010954277    0.000110614406
            -0.000022616742    0.000088348103    0.045069008571    0.040060815254    -0.000010954301    0.000110614413    0.047562660774    0.021719917868
0.225     0.046046116039    0.017600232792    -0.000032527416    0.000062787388    0.049016777232    0.035348595777    -0.000015018303    0.000106726510
            -0.000032527490    0.000062787423    0.046535702993    0.021720877521    -0.000036326407    0.000092051245    0.048848206794    0.038716414510
            0.049016775804    0.035348596048    -0.000036326408    0.000092051249    0.046306958883    0.018280602276    -0.000001074672    0.000131976375
            -0.000015018305    0.000106726509    0.048848209037    0.038716414900    -0.000001074611    0.000131976335    0.046408267661    0.022406441637
0.250     0.042375942989    0.019812671378    -0.000028818220    0.000081327225    0.050136124863    0.034066945650    -0.000003613219    0.000125357818
            -0.000028818284    0.000081327270    0.044420073600    0.023791764596    -0.000029751294    0.000113928525    0.051210383346    0.037564550980
            0.050136124036    0.034066945088    -0.000029751294    0.000113928525    0.042825333952    0.020490678761    0.000013108480    0.000153606770
            -0.000003613221    0.000125357828    0.051210385614    0.037564551269    0.000013108454    0.000153606782    0.044486793064    0.024579870005
0.275     0.038586143883    0.024576636361    -0.000020801256    0.000100581068    0.050075288600    0.034082913961    0.000011885185    0.000143486960
            -0.000020801277    0.000100581084    0.042164237574    0.027792370515    -0.000018444371    0.000136617681    0.052463762045    0.037212963608
            0.050075290980    0.034082910465    -0.000018444378    0.000136617680    0.039223838507    0.025188852133    0.000031981826    0.000174690641
            0.000011885182    0.000143486960    0.052463764325    0.037212963850    0.000031981793    0.000174690647    0.042459778222    0.028611747878
0.300     0.035752788873    0.032018947479    -0.000008060475    0.000119549224    0.049569089280    0.035875842639    0.000031697845    0.000160166872
            -0.000008060449    0.000119549216    0.040591138863    0.033854062925    -0.000001788152    0.000159079510    0.053137244977    0.038111956478
            0.049569087034    0.035875842332    -0.000001788152    0.000159079510    0.036554976908    0.032502092848    0.000055818361    0.000194166229
            0.000031697839    0.000160166873    0.053137247933    0.038111955789    0.000055818334    0.000194166237    0.041121616516    0.034622420773
0.325     0.034986736156    0.041838551723    0.000009515551    0.000137046400    0.049507114472    0.039596784348    0.000055751940    0.000174330701
            0.000009515538    0.000137046411    0.040561718745    0.041786331353    0.000020506324    0.000180007341    0.053904456139    0.040472099998
            0.049507111528    0.039596784827    0.000020506360    0.000180007317    0.035905518408    0.042138688365    0.000084605254    0.000210831633
            0.000055751925    0.000174330706    0.053904459857    0.040472098377    0.000084605221    0.000210831657    0.041301573359    0.042421367164
0.350     0.037268022789    0.053316716944    0.000031805179    0.000151747198    0.050801610788    0.045030114096    0.000083725988    0.000184797103
            0.000031805200    0.000151747183    0.042856984800    0.051082781612    0.000048468743    0.000197849349    0.055492234796    0.044226846443
            0.050801608468    0.045030115206    0.000048468820    0.000197849289    0.038236596090    0.053398945086    0.000118022886    0.000223336455
            0.000083725985    0.000184797104    0.055492238676    0.044226844784    0.000118022931    0.000223336408    0.043750189636    0.051514515607
0.375     0.043281228463    0.065368015368    0.000058142189    0.000162298441    0.054228749558    0.051595684186    0.000114811898    0.000190434964
            0.000058142211    0.000162298422    0.048054809981    0.060947632473    0.000081487921    0.000210965378    0.058560468943    0.049019532614
            0.054228746132    0.051595686336    0.000081487958    0.000210965353    0.044221173745    0.065222721814    0.000155228229    0.000230365261
            0.000114811888    0.000190434970    0.058560473044    0.049019530831    0.000155228235    0.000230365244    0.049020887344    0.061129589777
0.400     0.053288943715    0.076682811038    0.000087474552    0.000167514316    0.060299996515    0.058436637372    0.000147855536    0.000190311769
            0.000087474503    0.000167514364    0.056433812344    0.070393977444    0.000118475148    0.000217835497    0.063603256335    0.054254819594
            0.060299994475    0.058436639477    0.000118475149    0.000217835508    0.054120573666    0.076329854251    0.000194963663    0.000230806645
            0.000147855532    0.000190311771    0.063603259936    0.054254816913    0.000194963630    0.000230806672    0.057377750200    0.070311483882
0.425     0.067058751990    0.085893615982    0.000118225451    0.000166609925    0.069161434797    0.064538007383    0.000181278550    0.000183927068
            0.000118225436    0.000166609935    0.067906898866    0.078355529420    0.000157677394    0.000217352991    0.070857662410    0.059171640406
            0.069161431418    0.064538011004    0.000157677394    0.000217352991    0.067712662793    0.085381311550    0.000235495612    0.000224006794
            0.000181278551    0.000183927081    0.070857665509    0.059171636696    0.000235495596    0.000224006825    0.068732036273    0.078029882950
0.450     0.083881008333    0.091776995907    0.000148669918    0.000159356579    0.080574947439    0.068891398649    0.000213424215    0.000171319339
            0.000148669930    0.000159356554    0.082019607125    0.083835472100    0.000197094397    0.000209013168    0.080271321599    0.062961273505
            0.080574945034    0.068891401462    0.000197094393    0.000209013171    0.084307725133    0.091176548600    0.000274963446    0.000209901868
            0.000213424206    0.000171319350    0.080271324896    0.062961269302    0.000274963431    0.000209901887    0.082640732240    0.083322053348
0.475     0.102650435728    0.093413293832    0.000177006727    0.000146199930    0.093947607500    0.070631324574    0.000242653386    0.000153162635
            0.000177006686    0.000146199979    0.097990604285    0.086028595067    0.000234543409    0.000193088039    0.091499199994    0.064870912743
            0.093947607500    0.070631324574    0.000234543399    0.000193088052    0.102827858344    0.092811250865    0.000311501195    0.000189126249
            0.000242653386    0.000153162635    0.091499203391    0.064870907952    0.000311501200    0.000189126259    0.098345841064    0.085411914957
0.500     0.122016623899    0.090310643491    0.000201808109    0.000128152230    0.108430757567    0.069154992186    0.000267745590    0.000130628797
            0.000201808058    0.000128152291    0.114810949345    0.084430365316    0.000268177767    0.000170530056    0.103960416136    0.064309752658
            0.108430752739    0.069154999755    0.000268177771    0.000170529994    0.121953602266    0.089796558037    0.000343663303    0.000162879689
            0.000267745595    0.000130628788    0.103960416136    0.064309752658    0.000343663280    0.000162879759    0.114870786403    0.083812978099
0.525     0.140545109362    0.082443237072    0.000222069486    0.000106675671    0.123026653732    0.064173700905    0.000287945552    0.000105261133
            0.000222069489    0.000106675664    0.131358069206    0.078884505554    0.000296555029    0.000142884855    0.116905328419    0.060907080094
            0.123026650371    0.064173707347    0.000296555028    0.000142884810    0.140281052431    0.082100413695    0.000370493374    0.000132793768
            0.000287945552    0.000105261133    0.116905331608    0.060907073973    0.000370493361    0.000132793836    0.131130000841    0.078376103524
0.550     0.156888082767    0.070240380839    0.000237474524    0.000083366159    0.136715313188    0.055731575281    0.000303174896    0.000078655389
            0.000237474510    0.000083366168    0.146527616410    0.069596727702    0.000318966338    0.000111947760    0.129513357312    0.054551154160
            0.136715313188    0.055731575281    0.000318966321    0.000111947748    0.156488229081    0.070135037689    0.000391754472    0.000100593899
            0.000303174888    0.000078655382    0.129513350000    0.054551145757    0.000391754527    0.000100593884    0.146055948198    0.069299826367
0.575     0.169906530551    0.054513086454    0.000248231656    0.000059775761    0.148543154376    0.044172487815    0.000313868466    0.000052290904
            0.000248231657    0.000059775757    0.159336853196    0.057093538877    0.000335292938    0.000079589557    0.140966502094    0.045382096667
            0.148543154376    0.044172487815    0.000335292930    0.000079589549    0.169456603805    0.054687903159    0.000407772392    0.000067915853
            0.000313868475    0.000052290911    0.140966494951    0.045382086221    0.000407772438    0.000067915882    0.158699565032    0.057092948100
0.600     0.178774386447    0.036360570423    0.000255099558    0.000037120201    0.157710620323    0.030100320572    0.000320966388    0.000027255066
            0.000255099568    0.000037120136    0.169020679210    0.042160906010    0.000346081286    0.000047415878    0.150533442780    0.033774645356
            0.157710619273    0.030100326077    0.000346081214    0.000047415814    0.178370254018    0.036829116454    0.000419425519    0.000036006844
            0.000320966358    0.000027255058    0.150533435381    0.033774632658    0.000419425544    0.000036006904    0.168320679609    0.042513735901
0.625     0.183022447957    0.017061272466    0.000259092857    0.000016243166    0.163613622233    0.014316864703    0.000325621265    0.000004213905
            0.000259092856    0.000016243180    0.175078038012    0.025761703710    0.000352240958    0.000016713404    0.157613317538    0.020294266841
            0.163613631995    0.014316867859    0.000352240937    0.000016713410    0.182761590201    0.017804882566    0.000427842650    0.000005686610
            0.000325621264    0.000004213930    0.157613308222    0.020294260887    0.000427842650    0.000005686638    0.174434601804    0.026489734096
0.650     0.182573373688    -0.002035484632    0.000261406361    -0.000002534789    0.165898700789    -0.002230158274    0.000329110046    -0.000016716236
            0.000261406391    -0.000002534803    0.177312709645    0.008948906197    0.000355005963    -0.000011751174    0.161793359046    0.005656842340
            0.165898700788    -0.002230158361    0.000355005954    -0.000011751169    0.182545512079    -0.001065215354    0.000434314512    -0.000022787581
            0.000329110128    -0.000016716206    0.161793349338    0.005656833802    0.000434314564    -0.000022787546    0.176849932880    0.010036020258
0.675     0.177731002476    -0.019608383696    0.000263142852    -0.000019284899    0.164478473362    -0.018511598970    0.000332556488    -0.000035836156
            0.000263142845    -0.000019284859    0.175828979376    -0.007216269157    0.000355630801    -0.000037620664    0.162866140417    -0.009325765036
            0.164478473685    -0.018511596099    0.000355630817    -0.000037620706    0.178008692104    -0.018488197225    0.000439993162    -0.000049591104
            0.000332556466    -0.000035836172    0.162866140221    -0.009325768447    0.000439993144    -0.000049591093    0.175664025575    -0.005825385469
0.700     0.169176198402    -0.034465661648    0.000265267659    -0.000034506592    0.159575447338    -0.033481951343    0.000336882101    -0.000053879789
            0.000265267696    -0.000034506617    0.171032572063    -0.021747417199    0.000355367371    -0.000061037872    0.160869870387    -0.023799220353
            0.159575447338    -0.033481951343    0.000355367371    -0.000061037873    0.169805844612    -0.033294118743    0.000445861478    -0.000075348799
            0.000336882145    -0.000053879767    0.160869870387    -0.023799220353    0.000445861469    -0.000075348798    0.171264016705    -0.020144155432
0.725     0.157922783730    -0.045637627181    0.000268439287    -0.000048913334    0.151719954524    -0.046165639115    0.000342626413    -0.000071791973
            0.000268439282    -0.000048913362    0.163595219689    -0.033804698368    0.000355246950    -0.000082445336    0.156084696967    -0.036934084606
            0.151719964091    -0.046165642026    0.000355246917    -0.000082445302    0.158917885088    -0.044528372674    0.000452532850    -0.000100910647
            0.000342626428    -0.000071791951    0.156084696967    -0.036934084606    0.000452532893    -0.000100910640    0.164291277762    -0.032112089180
0.750     0.145272293734    -0.052481132963    0.000273037337    -0.000063433947    0.141764167326    -0.055754591845    0.000349976224    -0.000090699845
            0.000273037298    -0.000063433938    0.154422312248    -0.042772634139    0.000356110092    -0.000102640740    0.149050969536    -0.047996429043
            0.141764176632    -0.055754595505    0.000356110150    -0.000102640790    0.146608945626    -0.051550079414    0.000460300678    -0.000127336809
            0.000349976224    -0.000090699845    0.149050969536    -0.047996429043    0.000460300658    -0.000127336768    0.155612245835    -0.041133351477
0.775     0.132719285380    -0.054770899724    0.000279098541    -0.000079004596    0.130825717270    -0.061726288508    0.000358696356    -0.000111684382
            0.000279098534    -0.000079004620    0.144585236901    -0.048321920962    0.000358477301    -0.000122570138    0.140527338987    -0.056433539155
            0.130825717270    -0.061726288508    0.000358477290    -0.000122570107    0.134334102902    -0.054124974498    0.000469053094    -0.000155672937
            0.000358696354    -0.000111684354    0.140527338987    -0.056433539155    0.000469053116    -0.000155672935    0.146251694952    -0.046887991086
0.800     0.121828859204    -0.052786273100    0.000286389337    -0.000096604169    0.120213408169    -0.063954474188    0.000368225399    -0.000135779543
