# GHz S RI R 45
0.000     0.022291928000    0.000000000000    0.000014344310    0.000000000000    0.000354128040    0.000000000000    0.000023427025    0.000000000000
            0.000014344207    0.000000000000    0.021262966000    0.000000000000    0.000042785397    0.000000000000    0.000363844690    0.000000000000
            0.000354103480    0.000000000000    0.000042785210    0.000000000000    0.022214047000    0.000000000000    0.000022486674    0.000000000000
            0.000023426741    0.000000000000    0.000363846390    0.000000000000    0.000022486688    0.000000000000    0.021090472000    0.000000000000
0.025     0.027339367077    0.010843663868    -0.000046199227    -0.000021374023    0.002118213194    0.011769665158    -0.000029017685    -0.000017905012
            -0.000046199330    -0.000021374012    0.025419752058    0.009788792771    -0.000042611966    -0.000033528903    0.001775691190    0.010661889573
            0.002118064478    0.011769499886    -0.000042612143    -0.000033528886    0.027233121019    0.010799209722    -0.000021431835    -0.000009259283
            -0.000029017960    -0.000017904987    0.001775569245    0.010661722334    -0.000021431824    -0.000009259283    0.025425867527    0.009862705208
0.050     0.033081540098    0.016648024222    -0.000058034551    0.000021460125    0.007109169261    0.022211290825    -0.000038568259    0.000019881234
            -0.000058034649    0.000021460138    0.029914597520    0.015385330458    -0.000060583101    0.000023219661    0.005614863713    0.020387064907
            0.007109173800    0.022211280972    -0.000060583288    0.000023219684    0.032922683775    0.016582932812    -0.000025871808    0.000028891085
            -0.000038568546    0.000019881263    0.005614893963    0.020387052427    -0.000025871798    0.000028891085    0.029932998021    0.015350300463
0.075     0.039225848961    0.020031035547    -0.000043405701    0.000051183514    0.014456451491    0.030276813614    -0.000025462679    0.000046043477
            -0.000043405803    0.000051183526    0.034634250234    0.019363955637    -0.000043046214    0.000062518653    0.011385671097    0.028533092440
            0.014456431468    0.030276816526    -0.000043046397    0.000062518685    0.038998550519    0.019986891537    -0.000009933561    0.000055400957
            -0.000025462919    0.000046043513    0.011385677814    0.028533091913    -0.000009933551    0.000055400958    0.034564945152    0.019284639719
0.100     0.045129079362    0.020867261611    -0.000020082096    0.000068800204    0.023050346931    0.035406787200    -0.000004568321    0.000061617150
            -0.000020082192    0.000068800222    0.039325994903    0.021678662253    -0.000013631583    0.000086134952    0.018419759722    0.034677787646
            0.023050321628    0.035406792934    -0.000013631764    0.000086134994    0.044841547668    0.020887722706    0.000013821909    0.000071107741
            -0.000004568605    0.000061617206    0.018419761402    0.034677787887    0.000013821930    0.000071107737    0.039145370683    0.021625810555
0.125     0.049776930512    0.019490777229    0.000005733716    0.000075808686    0.031681364076    0.037515801423    0.000018492988    0.000067858236
            0.000005733624    0.000075808707    0.043408064856    0.022507552449    0.000019238381    0.000096094647    0.025965945374    0.038671851548
            0.031681336691    0.037515808844    0.000019238198    0.000096094699    0.049457481767    0.019612545727    0.000039734959    0.000076975272
            0.000018492731    0.000067858302    0.025965947281    0.038671851471    0.000039734966    0.000076975270    0.043130262221    0.022545360635
0.150     0.052253375575    0.016583828792    0.000030938491    0.000073950710    0.039235007880    0.036978188011    0.000041128702    0.000066263837
            0.000030938398    0.000073950733    0.046340756311    0.022272662432    0.000051716157    0.000094640956    0.033305175814    0.040634660978
            0.039234980267    0.036978196898    0.000051715984    0.000094641017    0.051954325552    0.016829920801    0.000065130295    0.000074393985
            0.000041128432    0.000066263921    0.033305167529    0.040634663890    0.000065130309    0.000074393985    0.046003790461    0.022453635593
0.175     0.052068962838    0.013270902749    0.000053149531    0.000065024757    0.044826802283    0.034555392066    0.000061159517    0.000058392710
            0.000053149431    0.000065024790    0.047833604689    0.021599119816    0.000080614917    0.000084028103    0.039818940977    0.040917299761
            0.044826784713    0.034555398479    0.000080614746    0.000084028170    0.051850855884    0.013639083022    0.000087626355    0.000064954580
            0.000061159298    0.000058392793    0.039818941691    0.040917299066    0.000087626375    0.000064954587    0.047497738003    0.021953944608
0.200     0.049176186773    0.010803746157    0.000071224173    0.000050781311    0.047936998756    0.031294717365    0.000077623402    0.000045781978
            0.000071224071    0.000050781350    0.047828505886    0.021187328504    0.000104493578    0.000066463827    0.045069017154    0.040060811619
            0.047936971703    0.031294729535    0.000104493413    0.000066463899    0.049098366812    0.011263940216    0.000106175572    0.000050322127
            0.000077623237    0.000045782052    0.045069008571    0.040060815254    0.000106175584    0.000050322124    0.047562660774    0.021719917868
0.225     0.044028687795    0.010398491806    0.000084368093    0.000032988981    0.048491349626    0.028377134611    0.000089761891    0.000029978036
            0.000084367995    0.000032989026    0.046535702993    0.021720877521    0.000122225840    0.000044184180    0.048848206794    0.038716414510
            0.048491323435    0.028377147688    0.000122225683    0.000044184261    0.044137634450    0.010893594342    0.000119913438    0.000032173700
            0.000089761640    0.000029978161    0.048848209037    0.038716414900    0.000119913449    0.000032173697    0.046408267661    0.022406441637
0.250     0.037557497933    0.013069179891    0.000092445993    0.000013061217    0.046899316207    0.026947549940    0.000097497674    0.000012236746
            0.000092445901    0.000013061267    0.044420073600    0.023791764596    0.000133657432    0.000019002880    0.051210383346    0.037564550980
            0.046899291839    0.026947564247    0.000133657453    0.000019002874    0.037875253048    0.013521038630    0.000128790156    0.000011909690
            0.000097497428    0.000012236883    0.051210385614    0.037564551269    0.000128790167    0.000011909686    0.044486793064    0.024579870005
0.275     0.031087000605    0.019428512825    0.000095470415    -0.000007620319    0.044017989476    0.027922045542    0.000100803308    -0.000006229799
            0.000095470363    -0.000007620292    0.042164237574    0.027792370515    0.000138738122    -0.000007317075    0.052463762045    0.037212963608
            0.044017974306    0.027922056389    0.000138737725    -0.000007316811    0.031602781942    0.019749212046    0.000132766570    -0.000009136381
            0.000100803067    -0.000006229650    0.052463764325    0.037212963850    0.000132766579    -0.000009136385    0.042459778222    0.028611747878
0.300     0.026171030486    0.029553427104    0.000093751486    -0.000028030598    0.041051199490    0.031819117655    0.000100002463    -0.000024526681
            0.000093751398    -0.000028030538    0.040591138863    0.033854062925    0.000137909583    -0.000033479198    0.053137244977    0.038111956478
            0.041051201626    0.031819118164    0.000137909602    -0.000033479205    0.026837491564    0.029658685212    0.000132255025    -0.000029985510
            0.000100002234    -0.000024526522    0.053137247933    0.038111955789    0.000132255044    -0.000029985516    0.041121616516    0.034622420773
0.325     0.024369212898    0.042886524035    0.000087704357    -0.000047143218    0.039363881784    0.038624348784    0.000095428577    -0.000041766345
            0.000087704357    -0.000047143212    0.040561718745    0.041786331353    0.000131655173    -0.000058199429    0.053904456139    0.040472099998
            0.039363843795    0.038624378934    0.000131655189    -0.000058199442    0.025104435413    0.042711560035    0.000127620534    -0.000049677402
            0.000095427805    -0.000041765765    0.053904459857    0.040472098377    0.000127620553    -0.000049677410    0.041301573359    0.042421367164
0.350     0.026988131102    0.058262663100    0.000077889022    -0.000064232264    0.040256437367    0.047753415180    0.000087609113    -0.000057345105
            0.000077889015    -0.000064232256    0.042856984800    0.051082781612    0.000120713680    -0.000080606329    0.055492234796    0.044226846443
            0.040256438845    0.047753415242    0.000120713695    -0.000080606342    0.027684671308    0.057775850260    0.000119484639    -0.000067590172
            0.000087609121    -0.000057345110    0.055492238676    0.044226844784    0.000119484654    -0.000067590187    0.043750189636    0.051514515607
0.375     0.034832099249    0.074024960091    0.000064995807    -0.000078612691    0.044715503112    0.058106269509    0.000077100330    -0.000070681947
            0.000064995807    -0.000078612691    0.048054809981    0.060947632473    0.000105883943    -0.000099863686    0.058560468943    0.049019532614
            0.044715505750    0.058106268740    0.000105883610    -0.000099863368    0.035372186910    0.073237744333    0.000108435359    -0.000083114442
            0.000077099995    -0.000070681617    0.058560473044    0.049019530831    0.000108435375    -0.000083114454    0.049020887344    0.061129589777
0.400     0.048032380721    0.088271069371    0.000049759400    -0.000089889613    0.053228463988    0.068247782610    0.000064547177    -0.000081469549
            0.000049759398    -0.000089889603    0.056433812344    0.070393977444    0.000088068377    -0.000115521294    0.063603256335    0.054254819594
            0.053228466371    0.068247780752    0.000088068392    -0.000115521308    0.048305255352    0.087239694353    0.000095182020    -0.000095964341
            0.000064546505    -0.000081468870    0.063603259936    0.054254816913    0.000095182037    -0.000095964352    0.057377750200    0.070311483882
0.425     0.065984824748    0.099136113186    0.000032995397    -0.000097792561    0.065678842931    0.076637891707    0.000050592438    -0.000089468546
            0.000032995334    -0.000097792487    0.067906898866    0.078355529420    0.000068189636    -0.000127230164    0.070857662410    0.059171640406
            0.065678814662    0.076637929104    0.000068189645    -0.000127230182    0.065904508751    0.097957000527    0.000080380348    -0.000105891682
            0.000050592122    -0.000089468208    0.070857665509    0.059171636696    0.000080380361    -0.000105891697    0.068732036273    0.078029882950
0.450     0.087436585014    0.105090203829    0.000015437233    -0.000102306144    0.081379275191    0.081893895987    0.000035855525    -0.000094678231
            0.000015437180    -0.000102306071    0.082019607125    0.083835472100    0.000047118912    -0.000134970275    0.080271321599    0.062961273505
            0.081379276621    0.081893894566    0.000047118921    -0.000134970293    0.086955760422    0.103887240867    0.000064679110    -0.000112923781
            0.000035854924    -0.000094677497    0.080271324896    0.062961269302    0.000064679129    -0.000112923805    0.082640732240    0.083322053348
0.475     0.110669051635    0.105148103895    -0.000002208993    -0.000103545310    0.099188134036    0.082983186837    0.000020885515    -0.000097158294
            -0.000002209053    -0.000103545239    0.097990604285    0.086028595067    0.000025652274    -0.000138816561    0.091499199994    0.064870912743
            0.099188134036    0.082983186837    0.000025651990    -0.000138816206    0.109786693305    0.104056733111    0.000048626773    -0.000117107922
            0.000020885381    -0.000097158125    0.091499203391    0.064870907952    0.000048626780    -0.000117107940    0.098345841064    0.085411914957
0.500     0.133755768412    0.098984687553    -0.000019404261    -0.000101766050    0.117703838565    0.079349452912    0.000006139335    -0.000097111770
            -0.000019404303    -0.000101765981    0.114810949345    0.084430365316    0.000004441495    -0.000139043790    0.103960416136    0.064309752658
            0.117703842720    0.079349446750    0.000004441500    -0.000139043800    0.132517296482    0.098133918157    0.000032690421    -0.000118664053
            0.000006139182    -0.000097111555    0.103960416136    0.064309752658    0.000032690429    -0.000118664072    0.114870786403    0.083812978099
0.525     0.154803260945    0.086925831509    -0.000035693869    -0.000097281842    0.135447182165    0.070931439185    -0.000008024107    -0.000094745647
            -0.000035693930    -0.000097281745    0.131358069206    0.078884505554    -0.000015980371    -0.000135948840    0.116905328419    0.060907080094
            0.135447152261    0.070931474734    -0.000015980608    -0.000135948440    0.153296407342    0.086423617554    0.000017228629    -0.000117772687
            -0.000008024209    -0.000094745399    0.116905331608    0.060907073973    0.000017228633    -0.000117772697    0.131130000841    0.078376103524
0.550     0.172165554278    0.069866867053    -0.000050779996    -0.000090421058    0.151032633064    0.058129296305    -0.000021328137    -0.000090312089
            -0.000050780045    -0.000090420961    0.146527616410    0.069596727702    -0.000035217556    -0.000129893323    0.129513357312    0.054551154160
            0.151032633064    0.058129296305    -0.000035218012    -0.000129892495    0.170508688035    0.069786233812    0.000002528697    -0.000114690587
            -0.000021328265    -0.000090311856    0.129513350000    0.054551145757    0.000002528697    -0.000114690597    0.146055948198    0.069299826367
0.575     0.184574784312    0.049132288374    -0.000064425792    -0.000081506985    0.163273131220    0.041720603550    -0.000033566312    -0.000084026123
            -0.000064425829    -0.000081506943    0.159336853196    0.057093538877    -0.000052963706    -0.000121200762    0.140966502094    0.045382096667
            0.163273110609    0.041720643819    -0.000052963788    -0.000121200606    0.182905344008    0.049504934075    -0.000011189983    -0.000109601278
            -0.000033566420    -0.000084025924    0.140966494951    0.045382086221    -0.000011189981    -0.000109601298    0.158699565032    0.057092948100
0.600     0.191231168568    0.026331214294    -0.000076480607    -0.000070813761    0.171267120728    0.022780630466    -0.000044558510    -0.000076105886
            -0.000076480654    -0.000070813681    0.169020679210    0.042160906010    -0.000068979760    -0.000110193732    0.150533442780    0.033774645356
            0.171267111451    0.022780624365    -0.000068979823    -0.000110193575    0.189691046471    0.027143492120    -0.000023726207    -0.000102723768
            -0.000044558622    -0.000076105650    0.150533435381    0.033774632658    -0.000023726211    -0.000102723787    0.168320679609    0.042513735901
0.625     0.191825964359    0.003216542747    -0.000086808209    -0.000058603613    0.174434772367    0.002595422526    -0.000054159407    -0.000066734017
            -0.000086808244    -0.000058603526    0.175078038012    0.025761703710    -0.000083068140    -0.000097152775    0.157613317538    0.020294266841
            0.174434772367    0.002595422465    -0.000083068206    -0.000097152613    0.190547731526    0.004408842030    -0.000034907174    -0.000094218250
            -0.000054159516    -0.000066733770    0.157613308222    0.020294260887    -0.000034907177    -0.000094218259    0.174434601804    0.026489734096
0.650     0.186559237344    -0.018441717725    -0.000095295209    -0.000045091733    0.172573148303    -0.017408835534    -0.000062203108    -0.000056109823
            -0.000095295239    -0.000045091646    0.177312709645    0.008948906197    -0.000095038513    -0.000082357960    0.161793359046    0.005656842340
            0.172573148303    -0.017408835534    -0.000095038583    -0.000082357788    0.185652207794    -0.016969704576    -0.000044535609    -0.000084293199
            -0.000062203211    -0.000056109561    0.161793349338    0.005656833802    -0.000044535603    -0.000084293223    0.176849932880    0.010036020258
0.675     0.176122150709    -0.036969944392    -0.000101821800    -0.000030512172    0.165881949067    -0.035750463928    -0.000068550473    -0.000044424448
            -0.000101821837    -0.000030512086    0.175828979376    -0.007216269157    -0.000104721916    -0.000066078697    0.162866140417    -0.009325765036
            0.165881949067    -0.035750463928    -0.000104721966    -0.000066078524    0.175660608145    -0.035353190292    -0.000052439737    -0.000073134267
            -0.000068550565    -0.000044424185    0.162866140221    -0.009325768447    -0.000052439747    -0.000073134280    0.175664025575    -0.005825385469
0.700     0.161693302545    -0.050915562085    -0.000106264366    -0.000015085722    0.155021042484    -0.050992347326    -0.000073032750    -0.000031923224
            -0.000106264389    -0.000015085630    0.171032572063    -0.021747417199    -0.000111932350    -0.000048618150    0.160869870387    -0.023799220353
            0.155021032094    -0.050992346907    -0.000111932390    -0.000048617981    0.161704013564    -0.049311404877    -0.000058414671    -0.000061014195
            -0.000073032809    -0.000031923053    0.160869870387    -0.023799220353    -0.000058414682    -0.000061014207    0.171264016705    -0.020144155432
0.725     0.144894230514    -0.059180739229    -0.000108512828    0.000000915479    0.141115780072    -0.061883806676    -0.000075536962    -0.000018864836
            -0.000108512858    0.000000915574    0.163595219689    -0.033804698368    -0.000116531262    -0.000030298397    0.156084696967    -0.036934084606
            0.141115768799    -0.061883757683    -0.000116531299    -0.000030298211    0.145348385784    -0.057754745715    -0.000062325087    -0.000048202037
            -0.000075537019    -0.000018864584    0.156084696967    -0.036934084606    -0.000062325100    -0.000048202047    0.164291277762    -0.032112089180
0.750     0.127722874178    -0.061186344564    -0.000108467047    0.000017205032    0.125755056947    -0.067536136855    -0.000075949993    -0.000005585469
            -0.000108467071    0.000017205133    0.154422312248    -0.042772634139    -0.000118374588    -0.000011503675    0.149050969536    -0.047996429043
            0.125755041807    -0.067536038232    -0.000118374616    -0.000011503490    0.128532820587    -0.060091283718    -0.000064025481    -0.000035085715
            -0.000075950040    -0.000005585205    0.149050969536    -0.047996429043    -0.000064025488    -0.000035085733    0.155612245835    -0.041133351477
0.775     0.112399002737    -0.057034166750    -0.000106086422    0.000033441328    0.110869175226    -0.067628271836    -0.000074264311    0.000007579887
            -0.000106086431    0.000033441432    0.144585236901    -0.048321920962    -0.000117420738    0.000007365163    0.140527338987    -0.056433539155
            0.110869176406    -0.067628269901    -0.000117420758    0.000007365329    0.113420539445    -0.056388690285    -0.000063510297    -0.000022015654
            -0.000074264342    0.000007580113    0.140527338987    -0.056433539155    -0.000063510308    -0.000022015657    0.146251694952    -0.046887991086
