# GHz S RI R 45
0.000     0.022162781000    0.000000000000    -0.000075374651    0.000000000000    0.000460732910    0.000000000000    -0.000041592464    0.000000000000
            -0.000075374160    0.000000000000    0.021262966000    0.000000000000    -0.000054453142    0.000000000000    0.000363844690    0.000000000000
            0.000460708140    0.000000000000    -0.000054453029    0.000000000000    0.022106549000    0.000000000000    -0.000049442322    0.000000000000
            -0.000041592112    0.000000000000    0.000363846390    0.000000000000    -0.000049442700    0.000000000000    0.021090472000    0.000000000000
0.025     0.026965332273    0.010457884232    -0.000111309010    -0.000035263140    0.002066756775    0.011418597668    -0.000099110069    -0.000047682094
            -0.000111309004    -0.000035263159    0.025419752058    0.009788792771    -0.000115680300    -0.000051010384    0.001775691190    0.010661889573
            0.002066608250    0.011418426382    -0.000115680336    -0.000051010352    0.026888587570    0.010428076833    -0.000088323329    -0.000036049963
            -0.000099109945    -0.000047682098    0.001775569245    0.010661722334    -0.000088323531    -0.000036049938    0.025425867527    0.009862705208
0.050     0.032322537619    0.016170636522    -0.000130504751    -0.000035320252    0.006736899267    0.021692561892    -0.000125616590    -0.000037555766
            -0.000130504751    -0.000035320252    0.029914597520    0.015385330458    -0.000144087709    -0.000040490700    0.005614863713    0.020387064907
            0.006736904088    0.021692552018    -0.000144087738    -0.000040490708    0.032195045645    0.016152115533    -0.000108344034    -0.000033597748
            -0.000125616619    -0.000037555775    0.005614893963    0.020387052427    -0.000108345030    -0.000033597642    0.029932998021    0.015350300463
0.075     0.038066252227    0.019693704045    -0.000142406491    -0.000036202573    0.013697543298    0.029787458394    -0.000136815181    -0.000031126314
            -0.000142405505    -0.000036202719    0.034634250234    0.019363955637    -0.000156212362    -0.000033774479    0.011385671097    0.028533092440
            0.013697523115    0.029787461071    -0.000156212391    -0.000033774486    0.037885272389    0.019719153769    -0.000119713978    -0.000032406079
            -0.000136815216    -0.000031126296    0.011385677814    0.028533091913    -0.000119713993    -0.000032406061    0.034564945152    0.019284639719
0.100     0.043649249290    0.020894049792    -0.000154302561    -0.000036667148    0.021931164852    0.035161675745    -0.000145846315    -0.000026536192
            -0.000154302561    -0.000036667148    0.039325994903    0.021678662253    -0.000166017577    -0.000028982857    0.018419759722    0.034677787646
            0.021931139837    0.035161680740    -0.000166017616    -0.000028982864    0.043425628115    0.020998753445    -0.000130585481    -0.000031113438
            -0.000145845384    -0.000026536391    0.018419761402    0.034677787887    -0.000130585491    -0.000031113441    0.039145370683    0.021625810555
0.125     0.048157991866    0.020061896193    -0.000166870181    -0.000035224838    0.030328839128    0.037705035601    -0.000154582036    -0.000021862530
            -0.000166869697    -0.000035224949    0.043408064856    0.022507552449    -0.000175499647    -0.000024109179    0.025965945374    0.038671851548
            0.030328815750    0.037705041571    -0.000175499195    -0.000024109304    0.047917853437    0.020275334622    -0.000141770744    -0.000028189202
            -0.000154582066    -0.000021862535    0.025965947281    0.038671851471    -0.000141770754    -0.000028189204    0.043130262221    0.022545360635
0.150     0.050755553547    0.017780045664    -0.000179720966    -0.000031439449    0.037859587809    0.037725401896    -0.000163248856    -0.000016168976
            -0.000179720966    -0.000031439449    0.046340756311    0.022272662432    -0.000184914634    -0.000018192526    0.033305175814    0.040634660978
            0.037859560114    0.037725409855    -0.000184913730    -0.000018192828    0.050547822528    0.018121846650    -0.000152957709    -0.000023115530
            -0.000163248886    -0.000016168979    0.033305167529    0.040634663890    -0.000152957709    -0.000023115530    0.046003790461    0.022453635593
0.175     0.050985004060    0.015059725556    -0.000192309624    -0.000025062059    0.043690629956    0.035885779694    -0.000171599586    -0.000009031475
            -0.000192309604    -0.000025062056    0.047833604689    0.021599119816    -0.000194047883    -0.000010802961    0.039818940977    0.040917299761
            0.043690607531    0.035885788091    -0.000194047463    -0.000010803142    0.050865340795    0.015526456191    -0.000163589103    -0.000015660726
            -0.000171599156    -0.000009031662    0.039818941691    0.040917299066    -0.000163589113    -0.000015660727    0.047497738003    0.021953944608
0.200     0.048784309688    0.013023333448    -0.000204180200    -0.000016302851    0.047311029068    0.033116160053    -0.000179350453    -0.000000386744
            -0.000204180160    -0.000016302848    0.047828505886    0.021187328504    -0.000202644402    -0.000001875448    0.045069017154    0.040060811619
            0.047311003727    0.033116171843    -0.000202644452    -0.000001875449    0.048807147785    0.013586719828    -0.000173208420    -0.000006028807
            -0.000179350523    -0.000000386775    0.045069008571    0.040060815254    -0.000173208430    -0.000006028807    0.047562660774    0.021719917868
0.225     0.044538243336    0.012764562464    -0.000214849052    -0.000005298224    0.048605732425    0.030478244147    -0.000186129403    0.000009758505
            -0.000214848607    -0.000005298438    0.046535702993    0.021720877521    -0.000210367147    0.000008616587    0.048848206794    0.038716414510
            0.048605711619    0.030478254739    -0.000210367197    0.000008616589    0.044746266460    0.013371949208    -0.000181309562    0.000005577169
            -0.000186129004    0.000009758289    0.048848209037    0.038716414900    -0.000181309582    0.000005577169    0.046408267661    0.022406441637
0.250     0.039056897073    0.015204518573    -0.000224019057    0.000007618345    0.047892390737    0.029016065781    -0.000191666515    0.000021223331
            -0.000224018182    0.000007617885    0.044420073600    0.023791764596    -0.000216964958    0.000020529744    0.051210383346    0.037564550980
            0.047892374430    0.029016075328    -0.000216965004    0.000020529786    0.039471397785    0.015784968343    -0.000187603021    0.000018772429
            -0.000191666564    0.000021223337    0.051210385614    0.037564551269    -0.000187603031    0.000018772430    0.044486793064    0.024579870005
0.275     0.033504377427    0.020915317516    -0.000231310014    0.000022138942    0.045892974291    0.029585248328    -0.000195630400    0.000033771723
            -0.000231309599    0.000022138658    0.042164237574    0.027792370515    -0.000222105211    0.000033692523    0.052463762045    0.037212963608
            0.045892951621    0.029585263194    -0.000222105270    0.000033692532    0.034117050310    0.021388584241    -0.000191734288    0.000033146832
            -0.000195630443    0.000033771765    0.052463764325    0.037212963850    -0.000191735157    0.000033147327    0.042459778222    0.028611747878
0.300     0.029256762191    0.030002819895    -0.000236535750    0.000037844675    0.043650232461    0.032704117374    -0.000197838780    0.000047057961
            -0.000236535741    0.000037844673    0.040591138863    0.033854062925    -0.000225575915    0.000047811701    0.053137244977    0.038111956478
            0.043650218985    0.032704128689    -0.000225575149    0.000047811168    0.030026990931    0.030291898390    -0.000193577615    0.000048214908
            -0.000197838829    0.000047057973    0.053137247933    0.038111955789    -0.000193577624    0.000048214911    0.041121616516    0.034622420773
0.325     0.027710276212    0.042016461891    -0.000239473941    0.000054265237    0.042370974787    0.038430124092    -0.000198119027    0.000060653501
            -0.000239473941    0.000054265237    0.040561718745    0.041786331353    -0.000227147663    0.000062512384    0.053904456139    0.040472099998
            0.042370938078    0.038430154146    -0.000227147331    0.000062512122    0.028566412361    0.042060962745    -0.000193003857    0.000063418965
            -0.000198118687    0.000060653246    0.053904459857    0.040472098377    -0.000193004268    0.000063419250    0.041301573359    0.042421367164
0.350     0.030059141487    0.055967473538    -0.000240136687    0.000070887847    0.043234712844    0.046319456003    -0.000196508658    0.000074097032
            -0.000240136677    0.000070887844    0.042856984800    0.051082781612    -0.000226782384    0.000077350439    0.055492234796    0.044226846443
            0.043234715952    0.046319454471    -0.000226781669    0.000077349842    0.030906238444    0.055736635207    -0.000190142415    0.000078217194
            -0.000196508715    0.000074097053    0.055492238676    0.044226844784    -0.000190142433    0.000078217201    0.043750189636    0.051514515607
0.375     0.037077021628    0.070418819308    -0.000238599757    0.000087172062    0.047175393035    0.055460070834    -0.000193141422    0.000086911389
            -0.000238599024    0.000087171416    0.048054809981    0.060947632473    -0.000224527489    0.000091843263    0.058560468943    0.049019532614
            0.047175360133    0.055460102760    -0.000224527519    0.000091843321    0.037809953823    0.069919313697    -0.000185202327    0.000092051940
            -0.000193141470    0.000086911451    0.058560473044    0.049019530831    -0.000185202702    0.000092052288    0.049020887344    0.061129589777
0.400     0.048961270600    0.083688591721    -0.000235181019    0.000102665511    0.054713529838    0.064615386229    -0.000188360695    0.000098718987
            -0.000235181019    0.000102665511    0.056433812344    0.070393977444    -0.000220654290    0.000105567532    0.063603256335    0.054254819594
            0.054713533221    0.064615383364    -0.000220654335    0.000105567553    0.049479885290    0.082968169253    -0.000178628182    0.000104519230
            -0.000188360731    0.000098719048    0.063603259936    0.054254816913    -0.000178628199    0.000104519240    0.057377750200    0.070311483882
0.425     0.065262650988    0.094090133309    -0.000230276016    0.000117013289    0.065847625553    0.072414045259    -0.000182588967    0.000109257074
            -0.000230275697    0.000117012924    0.067906898866    0.078355529420    -0.000215531649    0.000118197049    0.070857662410    0.059171640406
            0.065847627408    0.072414042221    -0.000215531710    0.000118197083    0.065488218199    0.093233017054    -0.000170927230    0.000115325341
            -0.000182589019    0.000109257105    0.070857665509    0.059171636696    -0.000170927893    0.000115326092    0.068732036273    0.078029882950
0.450     0.084942700090    0.100192816655    -0.000224407258    0.000130073610    0.080063039272    0.077578722715    -0.000176336730    0.000118473576
            -0.000224407258    0.000130073610    0.082019607125    0.083835472100    -0.000209650218    0.000129596880    0.080271321599    0.062961273505
            0.080063034798    0.077578712962    -0.000209650237    0.000129596943    0.084830430740    0.099309415503    -0.000162698517    0.000124436735
            -0.000176336759    0.000118473640    0.080271324896    0.062961269302    -0.000162698525    0.000124436741    0.082640732240    0.083322053348
0.475     0.106515510090    0.101017999378    -0.000218056752    0.000141868547    0.096413254021    0.079104109507    -0.000170060061    0.000126482327
            -0.000218056752    0.000141868547    0.097990604285    0.086028595067    -0.000203474393    0.000139806850    0.091499199994    0.064870912743
            0.096413249051    0.079104099799    -0.000203474402    0.000139806908    0.106062924132    0.100231027962    -0.000154468659    0.000131976357
            -0.000170060087    0.000126482392    0.091499203391    0.064870907952    -0.000154468674    0.000131976370    0.098345841064    0.085411914957
0.500     0.128266418429    0.096161137118    -0.000211659539    0.000152633121    0.113679802881    0.076387307287    -0.000164136972    0.000133583734
            -0.000211659539    0.000152633121    0.114810949345    0.084430365316    -0.000197421229    0.000149064959    0.103960416136    0.064309752658
            0.113679802881    0.076387307287    -0.000197421251    0.000149065030    0.127513495535    0.095588648726    -0.000146672993    0.000138291216
            -0.000164136988    0.000133583794    0.103960416136    0.064309752658    -0.000146673523    0.000138292054    0.114870786403    0.083812978099
0.525     0.148463327386    0.085803519899    -0.000205483780    0.000162695281    0.130529751558    0.069264298915    -0.000158773892    0.000140160047
            -0.000205483528    0.000162694907    0.131358069206    0.078884505554    -0.000191746014    0.000157717455    0.116905328419    0.060907080094
            0.130529751558    0.069264298915    -0.000191746038    0.000157717474    0.147490505737    0.085546013363    -0.000139561522    0.000143796297
            -0.000158773905    0.000140160108    0.116905331608    0.060907073973    -0.000139561536    0.000143796311    0.131130000841    0.078376103524
0.550     0.165559745957    0.070658373689    -0.000199648192    0.000172475375    0.145676848011    0.057998219754    -0.000154018580    0.000146652177
            -0.000199648192    0.000172475375    0.146527616410    0.069596727702    -0.000186554842    0.000166191291    0.129513357312    0.054551154160
            0.145676840745    0.057998210970    -0.000186554923    0.000166191305    0.164477470967    0.070784741076    -0.000133202956    0.000148982696
            -0.000154018657    0.000146652199    0.129513350000    0.054551145757    -0.000133202963    0.000148982704    0.146055948198    0.069299826367
0.575     0.178323932806    0.051855300860    -0.000194082223    0.000182356082    0.157985602742    0.043214321344    -0.000149738768    0.000153452928
            -0.000194082022    0.000182355638    0.159336853196    0.057093538877    -0.000181763308    0.000174889567    0.140966502094    0.045382096667
            0.157985558561    0.043214407060    -0.000181763322    0.000174889581    0.177262296028    0.052396082590    -0.000127480147    0.000154271554
            -0.000149738542    0.000153452590    0.140966494951    0.045382086221    -0.000127480139    0.000154271599    0.158699565032    0.057092948100
0.600     0.185934909876    0.030812868983    -0.000188580680    0.000192683827    0.166562740801    0.025832429349    -0.000145670642    0.000160890540
            -0.000188580680    0.000192683827    0.169020679210    0.042160906010    -0.000177149880    0.000184167134    0.150533442780    0.033774645356
            0.166562732452    0.025832417932    -0.000177149875    0.000184167194    0.185030318490    0.031755479275    -0.000122129192    0.000160028628
            -0.000145670634    0.000160890587    0.150533435381    0.033774632658    -0.000122129199    0.000160028636    0.168320679609    0.042513735901
0.625     0.188014706146    0.009108281497    -0.000182811150    0.000203670182    0.170799245310    0.006985861408    -0.000141438931    0.000169156484
            -0.000182811136    0.000203670167    0.175078038012    0.025761703710    -0.000172360353    0.000194254496    0.157613317538    0.020294266841
            0.170799245310    0.006985861408    -0.000172360393    0.000194254541    0.187396087793    0.010395261216    -0.000116777765    0.000166456794
            -0.000141438780    0.000169156063    0.157613308222    0.020294260887    -0.000116777953    0.000166457248    0.174434601804    0.026489734096
0.650     0.184650122454    -0.011643803609    -0.000176378907    0.000215415505    0.170424669231    -0.012045885708    -0.000136618053    0.000178315186
            -0.000176378600    0.000215414593    0.177312709645    0.008948906197    -0.000166979034    0.000205261012    0.161793359046    0.005656842340
            0.170424669000    -0.012045888980    -0.000166978742    0.000205260141    0.184426054831    -0.010109532634    -0.000110996411    0.000173638360
            -0.000136617736    0.000178314320    0.161793349338    0.005656833802    -0.000110996694    0.000173639270    0.176849932880    0.010036020258
0.675     0.176377243950    -0.029898135242    -0.000168854626    0.000227841115    0.165530170598    -0.029917324316    -0.000130762270    0.000188254264
            -0.000168854368    0.000227840186    0.175828979376    -0.007216269157    -0.000160546267    0.000217121598    0.162866140417    -0.009325765036
            0.165530158749    -0.029917277423    -0.000160546247    0.000217121650    0.176623397109    -0.028248855425    -0.000104349857    0.000181463001
            -0.000130762248    0.000188254303    0.162866140221    -0.009325768447    -0.000104350104    0.000181463943    0.175664025575    -0.005825385469
0.700     0.164175939107    -0.044293490910    -0.000159840987    0.000240737330    0.156617458870    -0.045306014234    -0.000123471332    0.000198722138
            -0.000159840778    0.000240736376    0.171032572063    -0.021747417199    -0.000152634707    0.000229628826    0.160869870387    -0.023799220353
            0.156617424164    -0.045305918290    -0.000152634683    0.000229628878    0.164923860470    -0.042684921030    -0.000096441300    0.000189685744
            -0.000123471313    0.000198722185    0.160869870387    -0.023799220353    -0.000096441527    0.000189686683    0.171264016705    -0.020144155432
0.725     0.149426632426    -0.053768420457    -0.000149008416    0.000253719911    0.144603427902    -0.057033303382    -0.000114428115    0.000209300429
            -0.000149008316    0.000253719436    0.163595219689    -0.033804698368    -0.000142875677    0.000242401501    0.156084696967    -0.036934084606
            0.144603402945    -0.057033203130    -0.000142875484    0.000242400593    0.150654524037    -0.052367614410    -0.000086974986    0.000197892572
            -0.000114428052    0.000209300487    0.156084696967    -0.036934084606    -0.000086974986    0.000197892572    0.164291277762    -0.032112089180
0.750     0.133854535515    -0.057699299141    -0.000136158692    0.000266301555    0.130820965599    -0.064211498998    -0.000103462997    0.000219467850
            -0.000136158683    0.000266301537    0.154422312248    -0.042772634139    -0.000131034102    0.000254936878    0.149050969536    -0.047996429043
            0.130820956576    -0.064211403903    -0.000131033976    0.000254935976    0.135483693927    -0.056664341005    -0.000075793469    0.000205571482
            -0.000103462963    0.000219467877    0.149050969536    -0.047996429043    -0.000075793579    0.000205572443    0.155612245835    -0.041133351477
0.775     0.119402724793    -0.056035189445    -0.000121266143    0.000277890677    0.116923742113    -0.066415789402    -0.000090593337    0.000228617362
            -0.000121266100    0.000277890183    0.144585236901    -0.048321920962    -0.000117043473    0.000266623118    0.140527338987    -0.056433539155
            0.116923735734    -0.066415739892    -0.000117043485    0.000266623146    0.121298114957    -0.055496049165    -0.000062940916    0.000212127633
            -0.000090593342    0.000228616909    0.140527338987    -0.056433539155    -0.000062940879    0.000212127644    0.146251694952    -0.046887991086
