!$
! Info: Touchstone file created by Circ.  Input file=Intel_C2M_200G_6p5in_202208016_staggered.circ
!$
# Hz S RI R 50
0	0.02385997	6.96175e-24	-9.071421e-05	1.110929e-20	0.0003344264	8.05752e-22	-8.643883e-05	1.05857e-20
	-9.07143e-05	1.11093e-20	0.02330717	3.777605e-24	-9.780648e-05	1.197784e-20	0.0001115701	2.860935e-22
	0.0003344932	8.063207e-22	-9.780657e-05	1.197785e-20	0.0238612	7.112739e-24	-9.07395e-05	1.111238e-20
	-8.643882e-05	1.05857e-20	0.0001116272	2.862187e-22	-9.07394e-05	1.111237e-20	0.02330513	3.577834e-24
1e+07	0.02947519	0.007497174	-0.0008067462	-5.229694e-05	0.001399333	0.006161827	-7.013829e-05	-0.0001049632
	-0.0008067462	-5.229694e-05	0.02838226	0.007995295	-0.0005226498	-8.695517e-06	0.001838833	0.006146329
	0.001399333	0.006161827	-0.0005226498	-8.695517e-06	0.02896668	0.00771538	-0.0003523523	-0.0001004204
	-7.013829e-05	-0.0001049632	0.001838833	0.006146329	-0.0003523523	-0.0001004204	0.02816261	0.007862693
2e+07	0.03594357	0.01025305	-0.0007399478	-0.0002952322	0.003189208	0.01168372	-0.0001012313	-0.0001518815
	-0.0007399477	-0.0002952321	0.03388047	0.01158804	-0.0005432959	-0.0002245607	0.004016441	0.01136673
	0.003189298	0.01168362	-0.0005432959	-0.0002245607	0.03575307	0.01077797	-0.0003622541	-0.0002065155
	-0.0001012313	-0.0001518814	0.004016451	0.01136672	-0.0003622541	-0.0002065155	0.03354308	0.0114734
3e+07	0.04191039	0.01020652	-0.0007307058	-0.0004219974	0.005908348	0.01668671	-0.0001458019	-0.0002012299
	-0.0007307058	-0.0004219974	0.03852265	0.01284835	-0.0005932076	-0.000323224	0.007232431	0.01609045
	0.005908324	0.01668668	-0.0005932076	-0.000323224	0.04198346	0.01079525	-0.0004075778	-0.0002968094
	-0.0001458019	-0.0002012298	0.007232409	0.01609049	-0.0004075778	-0.0002968094	0.03810103	0.01280091
4e+07	0.04774038	0.008613801	-0.0007559555	-0.0005006558	0.009378487	0.02110186	-0.0002048016	-0.0002407974
	-0.0007559555	-0.0005006558	0.04240863	0.01295611	-0.0006647808	-0.000384172	0.01140779	0.01996494
	0.009378487	0.02110187	-0.0006647808	-0.000384172	0.04802971	0.009179643	-0.0004743801	-0.0003568137
	-0.0002048016	-0.0002407974	0.01140779	0.01996496	-0.0004743802	-0.0003568137	0.04193613	0.01299171
5e+07	0.05332704	0.005601486	-0.0008041043	-0.0005475852	0.01350247	0.02479189	-0.0002742644	-0.0002717797
	-0.0008041043	-0.0005475852	0.04569712	0.01240227	-0.0007502494	-0.000416848	0.01633424	0.02285407
	0.01350247	0.0247919	-0.0007502494	-0.000416848	0.05378953	0.006089616	-0.000555925	-0.0003913942
	-0.0002742644	-0.0002717796	0.01633425	0.02285408	-0.000555925	-0.0003913942	0.04519739	0.01252929
6e+07	0.05848907	0.001335055	-0.0008665422	-0.0005677832	0.01812934	0.02766373	-0.0003500753	-0.0002889334
	-0.0008665422	-0.0005677832	0.04847143	0.01142493	-0.0008436422	-0.0004249646	0.02180408	0.02462817
	0.01812934	0.02766374	-0.0008436422	-0.0004249646	0.0590806	0.001708126	-0.0006460673	-0.0004017651
	-0.0003500753	-0.0002889334	0.02180409	0.02462815	-0.0006460672	-0.0004017651	0.04796544	0.01164736
7e+07	0.06307882	-0.004036494	-0.0009450893	-0.0005556228	0.02309684	0.02965621	-0.0004298593	-0.0002918812
	-0.0009450893	-0.0005556228	0.05079849	0.01020767	-0.0009398959	-0.0004109212	0.02758363	0.0251992
	0.02309684	0.02965621	-0.0009398959	-0.0004109212	0.06375306	-0.003802933	-0.0007391624	-0.000388888
	-0.0004298593	-0.0002918812	0.02758363	0.02519919	-0.0007391624	-0.000388888	0.05030564	0.01052588
8e+07	0.06695953	-0.01037591	-0.00103169	-0.0005092242	0.02823543	0.03073941	-0.0005113435	-0.000280612
	-0.00103169	-0.0005092242	0.05276958	0.008891021	-0.001035194	-0.0003771556	0.03342724	0.02452535
	0.02823543	0.03073941	-0.001035194	-0.0003771556	0.0676683	-0.01029493	-0.000830025	-0.0003541892
	-0.0005113435	-0.000280612	0.03342724	0.02452535	-0.000830025	-0.0003541892	0.05230839	0.009303177
9e+07	0.07000992	-0.01753477	-0.001106566	-0.0004397883	0.03337556	0.03091607	-0.0005923912	-0.0002554972
	-0.001106566	-0.0004397883	0.05449815	0.007568671	-0.001127488	-0.0003262281	0.03908641	0.0226114
	0.03337556	0.03091607	-0.001127488	-0.0003262281	0.0707025	-0.01760875	-0.0009161195	-0.0002966557
	-0.0005923912	-0.0002554972	0.03908641	0.0226114	-0.0009161195	-0.0002966556	0.05408691	0.008072365
1e+08	0.07220427	-0.02532687	-0.001153584	-0.0003443485	0.03835668	0.03021797	-0.0006708997	-0.0002175479
	-0.001153584	-0.0003443485	0.05615028	0.006318178	-0.001216128	-0.0002607512	0.04432012	0.01950523
	0.03835668	0.03021797	-0.001216128	-0.0002607512	0.07281337	-0.0255518	-0.0009928565	-0.0002123011
	-0.0006708997	-0.0002175479	0.04432012	0.01950523	-0.0009928565	-0.0002123011	0.0558159	0.006919641
1.1e+08	0.07338309	-0.03400407	-0.001200951	-0.0002170021	0.04300258	0.02870172	-0.0007431234	-0.0001694107
	-0.001200951	-0.0002170021	0.05781329	0.00481136	-0.00129202	-0.0001876988	0.04888724	0.01528833
	0.04300258	0.02870172	-0.00129202	-0.0001876988	0.07386723	-0.03426111	-0.001055836	-0.0001156036
	-0.0007431234	-0.0001694107	0.04888724	0.01528833	-0.001055836	-0.0001156036	0.05764057	0.005407062
1.2e+08	0.07312912	-0.04301205	-0.001252179	-9.305493e-05	0.0471821	0.02648308	-0.0008108015	-0.0001094864
	-0.001252179	-9.305493e-05	0.05930708	0.003269223	-0.001358656	-0.0001032792	0.05255522	0.01015109
	0.0471821	0.02648308	-0.001358656	-0.0001032792	0.07352483	-0.04328322	-0.001109632	-1.322493e-05
	-0.0008108015	-0.0001094864	0.05255521	0.01015108	-0.001109632	-1.322493e-05	0.05921603	0.003844237
1.3e+08	0.0715378	-0.05205807	-0.001294985	3.457917e-05	0.05078879	0.02367816	-0.0008735472	-3.911658e-05
	-0.001294985	3.457917e-05	0.06077502	0.001698869	-0.001417378	-9.774476e-06	0.05516774	0.004268905
	0.05078879	0.02367816	-0.001417378	-9.774476e-06	0.07185583	-0.05233233	-0.00115105	9.447507e-05
	-0.0008735472	-3.911658e-05	0.05516773	0.004268903	-0.00115105	9.447507e-05	0.06074445	0.002262476
1.4e+08	0.06866466	-0.06090384	-0.001326986	0.0001660319	0.05373863	0.02042169	-0.0009290721	4.135079e-05
	-0.001326986	0.0001660319	0.06228021	4.949746e-05	-0.001468564	9.157703e-05	0.05659515	-0.002149626
	0.05373863	0.02042169	-0.001468564	9.157703e-05	0.06891064	-0.06116917	-0.00118013	0.000205385
	-0.0009290721	4.135079e-05	0.05659514	-0.002149626	-0.00118013	0.000205385	0.06230775	0.0006003183
1.5e+08	0.06458925	-0.06933406	-0.001347423	0.0003006158	0.05597627	0.0168602	-0.0009765479	0.0001310588
	-0.001347423	0.0003006158	0.06385344	-0.001746518	-0.001512501	0.0002001671	0.05674555	-0.008873294
	0.05597627	0.0168602	-0.001512501	0.0002001671	0.06476893	-0.06957813	-0.001197755	0.0003177112
	-0.0009765479	0.0001310588	0.05674555	-0.008873294	-0.001197755	0.0003177112	0.06393676	-0.001218198
1.6e+08	0.05941862	-0.07715542	-0.001356204	0.0004375082	0.05747649	0.01314677	-0.001015227	0.0002291606
	-0.001356204	0.0004375082	0.06549693	-0.003765299	-0.001549288	0.0003160663	0.0555703	-0.01565625
	0.05747649	0.01314677	-0.001549288	0.0003160663	0.05953878	-0.07736641	-0.001205307	0.0004301946
	-0.001015227	0.0002291606	0.0555703	-0.01565625	-0.001205307	0.0004301946	0.06562932	-0.003272188
1.7e+08	0.05328603	-0.08419971	-0.001352929	0.0005754776	0.05824462	0.009434132	-0.001044454	0.000334972
	-0.001352929	0.0005754776	0.06718498	-0.0060848	-0.00157376	0.0004715505	0.05306639	-0.0222464
	0.05824462	0.009434132	-0.00157376	0.0004715505	0.05335523	-0.08436656	-0.00120409	0.0005405414
	-0.001044454	0.000334972	0.05306639	-0.02224639	-0.00120409	0.0005405414	0.06735508	-0.005638501
1.8e+08	0.04634805	-0.09032621	-0.001338648	0.0007147136	0.05831635	0.005869212	-0.001063439	0.0004478515
	-0.001338648	0.0007147136	0.06886492	-0.008778199	-0.001584562	0.0006318417	0.04927733	-0.02839402
	0.05831636	0.005869212	-0.001584562	0.0006318417	0.04637587	-0.09043939	-0.001196444	0.0006506687
	-0.001063439	0.0004478515	0.04927733	-0.02839402	-0.001196444	0.0006506687	0.06905755	-0.00838671
1.9e+08	0.03877914	-0.09542435	-0.001313489	0.000855235	0.05775555	0.002587873	-0.001071386	0.0005672228
	-0.001313489	0.000855235	0.07045818	-0.01190691	-0.001581482	0.0007967489	0.04429243	-0.03386036
	0.05775555	0.002587873	-0.001581482	0.0007967489	0.03877737	-0.09547627	-0.001183422	0.0007615522
	-0.001071386	0.0005672228	0.04429243	-0.03386036	-0.001183422	0.0007615522	0.07065618	-0.01157363
2e+08	0.03076836	-0.09941638	-0.001277378	0.0009967625	0.056651	-0.0002913244	-0.001067369	0.0006924396
	-0.001277378	0.0009967625	0.07186331	-0.01551332	-0.001561215	0.0009737616	0.03824372	-0.03842564
	0.056651	-0.0002913243	-0.001561215	0.0009737616	0.03074838	-0.09940075	-0.001165428	0.0008746274
	-0.001067369	0.0006924396	0.03824372	-0.03842564	-0.001165428	0.0008746274	0.0720497	-0.01523761
2.1e+08	0.02251168	-0.1022588	-0.001229782	0.001140066	0.0551137	-0.002670918	-0.001050343	0.0008228334
	-0.001229782	0.001140066	0.07296173	-0.01961479	-0.001524424	0.001153918	0.03130206	-0.04189653
	0.0551137	-0.002670918	-0.001524424	0.001153918	0.02248712	-0.1021717	-0.001142295	0.0009916959
	-0.001050343	0.0008228334	0.03130206	-0.04189653	-0.001142295	0.0009916959	0.07311993	-0.01939174
2.2e+08	0.01420853	-0.1039429	-0.001169651	0.001285321	0.05327093	-0.004478645	-0.001019105	0.0009575737
	-0.001169651	0.001285321	0.07362279	-0.02419942	-0.001470117	0.001336608	0.02367175	-0.04411275
	0.05327093	-0.004478645	-0.001470117	0.001336608	0.01419271	-0.1037822	-0.001112866	0.00111454
	-0.001019105	0.0009575737	0.02367175	-0.04411275	-0.001112866	0.00111454	0.07373846	-0.02402055
2.3e+08	0.006054676	-0.1044943	-0.001095551	0.001432356	0.05126156	-0.005670372	-0.0009723632	0.001095598
	-0.001095551	0.001432356	0.07371215	-0.02922256	-0.001397162	0.001520867	0.01558403	-0.04495285
	0.05126156	-0.005670372	-0.001397162	0.001520867	0.006061327	-0.1042603	-0.001075156	0.001244652
	-0.0009723632	0.001095598	0.01558403	-0.04495285	-0.001075156	0.001244652	0.07377328	-0.02907705
2.4e+08	-0.001763715	-0.1039726	-0.001005605	0.001580647	0.0492304	-0.006231344	-0.0009087533	0.001235542
	-0.001005605	0.001580647	0.07309933	-0.03460548	-0.001304232	0.001705476	0.00729001	-0.04433801
	0.0492304	-0.006231344	-0.001304232	0.001705476	-0.001720552	-0.1036677	-0.001026346	0.001382979
	-0.0009087533	0.001235542	0.00729001	-0.04433801	-0.001026346	0.001382979	0.07309631	-0.03448004
2.5e+08	-0.00907451	-0.1024684	-0.0008978191	0.001728984	0.04732175	-0.006177256	-0.0008268436	0.001375695
	-0.0008978191	0.001728984	0.07166581	-0.04023558	-0.0011899	0.0018888	-0.0009473416	-0.04223516
	0.04732175	-0.006177256	-0.0011899	0.0018888	-0.008981321	-0.1020968	-0.0009630294	0.00152968
	-0.0008268436	0.001375695	-0.0009473418	-0.04223516	-0.0009630294	0.00152968	0.07159214	-0.0401159
2.6e+08	-0.01572636	-0.1001	-0.0007700909	0.001875475	0.04567353	-0.00555343	-0.0007253938	0.001513917
	-0.0007700909	0.001875475	0.06931326	-0.04596926	-0.001052795	0.002068798	-0.00886167	-0.03865887
	0.04567353	-0.005553431	-0.001052795	0.002068798	-0.01556979	-0.09966878	-0.0008813483	0.001683885
	-0.0007253938	0.001513917	-0.008861671	-0.03865887	-0.0008813483	0.001683885	0.06916505	-0.04583979
2.7e+08	-0.0215914	-0.09700992	-0.0006204861	0.002017488	0.04441161	-0.004432545	-0.000603231	0.001647649
	-0.0006204861	0.002017488	0.06597072	-0.05163578	-0.0008917542	0.002242915	-0.01619102	-0.03367055
	0.04441161	-0.004432545	-0.0008917542	0.002242915	-0.02135953	-0.09652829	-0.0007773157	0.001843566
	-0.000603231	0.001647649	-0.01619102	-0.03367055	-0.0007773157	0.001843566	0.06574708	-0.05148058
2.8e+08	-0.02657034	-0.09336058	-0.0004474576	0.002151647	0.04364443	-0.002912539	-0.0004596241	0.001773863
	-0.0004474576	0.002151647	0.06160157	-0.05704257	-0.0007057192	0.002408181	-0.02268672	-0.0273777
	0.04364443	-0.002912539	-0.0007057192	0.002408181	-0.02625248	-0.09283946	-0.0006471854	0.002005464
	-0.0004596241	0.001773863	-0.02268672	-0.0273777	-0.0006471854	0.002005464	0.06130468	-0.05684606
2.9e+08	-0.03059529	-0.08932787	-0.0002501019	0.002273875	0.04345813	-0.001111834	-0.0002942529	0.001889165
	-0.0002501019	0.002273875	0.05620845	-0.06198332	-0.0004940536	0.002561161	-0.02812107	-0.01993106
	0.04345813	-0.001111834	-0.0004940536	0.002561161	-0.03018226	-0.08878052	-0.0004876738	0.002165114
	-0.0002942529	0.001889165	-0.02812107	-0.01993106	-0.0004876738	0.002165114	0.05584306	-0.06172996
3e+08	-0.03363085	-0.08509618	-2.829532e-05	0.002379567	0.04391279	0.0008346863	-0.0001073731	0.001989856
	-2.829532e-05	0.002379567	0.04983709	-0.06624579	-0.0002566504	0.002698002	-0.03229427	-0.01152009
	0.04391279	0.0008346863	-0.0002566504	0.002698002	-0.03311562	-0.08453724	-0.0002964313	0.002316937
	-0.0001073731	0.001989856	-0.03229427	-0.01152009	-0.0002964313	0.002316937	0.04941057	-0.06592113
3.1e+08	-0.03567593	-0.08085204	0.000217083	0.002463807	0.04504	0.002782281	0.0001001181	0.002071996
	0.000217083	0.002463807	0.04257797	-0.06962132	6.087171e-06	0.002814489	-0.03504163	-0.002367984
	0.04504	0.002782281	6.087171e-06	0.002814489	-0.03505395	-0.08029785	-7.237091e-05	0.002454503
	0.0001001181	0.002071996	-0.03504163	-0.002367984	-7.237091e-05	0.002454503	0.04210029	-0.06921158
3.2e+08	-0.03676301	-0.07677836	0.0004840719	0.002521531	0.04684076	0.004581153	0.0003264272	0.00213161
	0.0004840719	0.002521531	0.0345663	-0.07191368	0.0002928671	0.00290622	-0.03623875	0.007274859
	0.04684076	0.004581153	0.0002928671	0.00290622	-0.03603287	-0.0762459	0.0001842337	0.002570751
	0.0003264272	0.00213161	-0.03623875	0.007274859	0.0001842337	0.002570751	0.03405035	-0.07140746
3.3e+08	-0.03695718	-0.07304754	0.0007695998	0.002547849	0.04928492	0.006083519	0.0005690274	0.002164823
	0.0007695998	0.002547849	0.0259799	-0.07294952	0.0006018037	0.002968639	-0.03580537	0.0171381
	0.04928492	0.006083519	0.0006018037	0.002968639	-0.03611982	-0.07255447	0.0004714718	0.002658405
	0.0005690274	0.002164823	-0.03580537	0.0171381	0.0004714718	0.002658405	0.02544068	-0.072337
3.4e+08	-0.03635335	-0.0698168	0.001071066	0.002537955	0.05231294	0.00714977	0.0008245077	0.002168141
	0.001071066	0.002537955	0.01703533	-0.07258706	0.0009298613	0.002997276	-0.03370946	0.02693963
	0.05231294	0.00714977	0.0009298613	0.002997276	-0.03541346	-0.06938027	0.0007857277	0.002710365
	0.0008245077	0.002168141	-0.03370946	0.02693963	0.0007857277	0.002710365	0.01648963	-0.0718614
3.5e+08	-0.03507359	-0.06722176	0.001381236	0.002488237	0.05583707	0.007653779	0.00108871	0.002138453
	0.001381236	0.002488237	0.007981223	-0.07072448	0.001273288	0.002987988	-0.02996781	0.03639357
	0.05583707	0.007653779	0.001273288	0.002987988	-0.03403812	-0.06685902	0.00112163	0.002720131
	0.00108871	0.002138453	-0.02996781	0.03639357	0.00112163	0.002720131	0.007447572	-0.06988119
3.6e+08	-0.03326167	-0.06537341	0.001693874	0.00239607	0.05974508	0.007489299	0.001356747	0.002073434
	0.001693874	0.00239607	-0.0009092548	-0.06730665	0.001627445	0.002936934	-0.024647	0.04521919
	0.05974508	0.007489299	0.001627445	0.002936934	-0.03214098	-0.06509949	0.001472314	0.002682243
	0.001356747	0.002073434	-0.024647	0.04521919	0.001472314	0.002682243	-0.001411211	-0.06634503
3.7e+08	-0.0310786	-0.06435279	0.002002108	0.002259968	0.0639049	0.006574005	0.001623243	0.001971553
	0.002002108	0.002259968	-0.009347947	-0.06233113	0.001986772	0.002840987	-0.01786154	0.0531498
	0.0639049	0.006574005	0.001986772	0.002840987	-0.02988584	-0.06418136	0.001829679	0.00259256
	0.001623243	0.001971553	-0.01786154	0.0531498	0.001829679	0.00259256	-0.009798113	-0.06125394
3.8e+08	-0.02869656	-0.06420939	0.002298649	0.002079903	0.06816942	0.004853018	0.001882341	0.001832366
	0.002298649	0.002079903	-0.01704189	-0.05585066	0.002344896	0.002697917	-0.009770875	0.05994021
	0.06816942	0.004853018	0.002344896	0.002697917	-0.0274469	-0.06415214	0.002184546	0.002448721
	0.001882341	0.001832366	-0.009770875	0.05994021	0.002184546	0.002448721	-0.01742006	-0.05466414
3.9e+08	-0.02629322	-0.06496043	0.002576213	0.001857251	0.07238278	0.002301789	0.002128117	0.001656447
	0.002576213	0.001857251	-0.02370364	-0.04797544	0.002694926	0.002506487	-0.0005759694	0.0653752
	0.07238278	0.002301789	0.002694926	0.002506487	-0.02500419	-0.06502522	0.002527259	0.002250269
	0.002128117	0.001656447	-0.0005759694	0.0653752	0.002527259	0.002250269	-0.02399111	-0.04669019
4e+08	-0.02404485	-0.06658906	0.002827801	0.001594825	0.07638641	-0.001073118	0.002354701	0.001445514
	0.002827801	0.001594825	-0.02906412	-0.03887165	0.003029587	0.002266539	0.009487523	0.06927593
	0.07638641	-0.001073118	0.003029587	0.002266539	-0.02273475	-0.06678129	0.002848079	0.001998702
	0.002354701	0.001445514	0.009487523	0.06927593	0.002848079	0.001998702	-0.02924352	-0.03750117
4.1e+08	-0.02212001	-0.06904611	0.003047041	0.00129675	0.08002594	-0.005233559	0.002556584	0.00120237
	0.003047041	0.00129675	-0.03288342	-0.02875787	0.003341341	0.001979434	0.02015509	0.07150565
	0.08002594	-0.005233559	0.003341341	0.001979434	-0.02080828	-0.06936754	0.003137598	0.001697696
	0.002556584	0.00120237	0.02015509	0.07150565	0.003137598	0.001697696	-0.03293939	-0.02731934
4.2e+08	-0.02067457	-0.07225279	0.003228463	0.0009683571	0.08315654	-0.01011254	0.002728832	0.0009308515
	0.003228463	0.0009683571	-0.03495949	-0.01790097	0.003622878	0.001647559	0.03114155	0.0719748
	0.08315654	-0.01011254	0.003622878	0.001647559	-0.01938034	-0.07270171	0.003387337	0.001352663
	0.002728832	0.0009308515	0.03114155	0.0719748	0.003387337	0.001352663	-0.03487984	-0.01641459
4.3e+08	-0.01984528	-0.07610321	0.003367753	0.0006158611	0.08564959	-0.0156154	0.002867278	0.0006354704
	0.003367753	0.0006158611	-0.03513963	-0.006607116	0.003867135	0.001274926	0.0421496	0.07064326
	0.08564959	-0.0156154	0.003867135	0.001274926	-0.01858752	-0.07667439	0.003590081	0.000970622
	0.002867278	0.0006354704	0.0421496	0.07064326	0.003590081	0.000970622	-0.03491566	-0.005095204
4.4e+08	-0.01974621	-0.08046895	0.003461886	0.0002461311	0.08739682	-0.02162498	0.00296867	0.0003215662
	0.003461886	0.0002461311	-0.03332696	0.004787124	0.004067768	0.0008665511	0.05287825	0.06752226
	0.08739682	-0.02162498	0.004067768	0.0008665511	-0.01854197	-0.08115391	0.003740167	0.0005600668
	0.00296867	0.0003215662	0.05287825	0.06752226	0.003740167	0.0005600668	-0.03295374	0.006300117
4.5e+08	-0.0204648	-0.0852042	0.003509268	-0.0001336798	0.08831514	-0.02800561	0.003030813	-5.109272e-06
	0.003509268	-0.0001336798	-0.02948644	0.01592409	0.004219308	0.0004285726	0.06303228	0.06267441
	0.08831514	-0.02800561	0.004219308	0.0004285726	-0.01932931	-0.08599136	0.003833861	0.0001302385
	0.003030813	-5.109272e-06	0.06303228	0.06267441	0.003833861	0.0001302385	-0.02896336	0.01741279
4.6e+08	-0.02205947	-0.09015111	0.00350967	-0.0005163429	0.08834893	-0.0346091	0.003052585	-0.0003387142
	0.00350967	-0.0005163429	-0.0236487	0.026438	0.004317353	-3.172111e-05	0.07233091	0.0562115
	0.08834893	-0.0346091	0.004317353	-3.172111e-05	-0.02100545	-0.09102626	0.003869335	-0.0003093515
	0.003052585	-0.0003387142	0.07233091	0.0562115	0.003869335	-0.0003093515	-0.02297964	0.02787728
4.7e+08	-0.02455823	-0.09514465	0.003464189	-0.0008951245	0.08747216	-0.04127995	0.003033945	-0.0006733552
	0.003464189	-0.0008951245	-0.01591268	0.03596826	0.00435881	-0.0005065023	0.08051662	0.04829124
	0.08747216	-0.04127995	0.00435881	-0.0005065023	-0.02359522	-0.09609196	0.003846805	-0.0007489771
	0.003033945	-0.0006733552	0.08051662	0.04829124	0.003846805	-0.0007489771	-0.01510555	0.03733251
4.8e+08	-0.02795817	-0.1000201	0.003375089	-0.001263812	0.08568861	-0.04786198	0.002975828	-0.001003514
	0.003375089	-0.001263812	-0.006442227	0.04416947	0.004341983	-0.000987693	0.08736189	0.03911256
	0.08568861	-0.04786198	0.004341983	-0.000987693	-0.02709255	-0.101022	0.003768288	-0.001179638
	0.002975828	-0.001003514	0.08736189	0.03911256	0.003768288	-0.001179638	-0.005510234	0.0454351
4.9e+08	-0.03222718	-0.1046172	0.003245579	-0.001616937	0.0830312	-0.0542038	0.002880073	-0.001324105
	0.003245579	-0.001616937	0.004533805	0.05072494	0.004266622	-0.001466766	0.09267694	0.02890933
