!$
! Info: Touchstone file created by Circ.  Input file=Intel_C2M_200G_6p5in_202208016_staggered.circ
!$
# Hz S RI R 50
0	0.02329423	3.43964e-24	6.88961e-05	9.632232e-23	0.000111973	2.883008e-22	6.8889e-05	9.615614e-23
	6.88961e-05	9.632232e-23	0.02330717	3.777605e-24	6.89006e-05	9.640836e-23	0.0001115701	2.860935e-22
	0.0001120301	2.884264e-22	6.890059e-05	9.640967e-23	0.02328913	3.592023e-24	6.889143e-05	9.623127e-23
	6.888899e-05	9.615744e-23	0.0001116272	2.862187e-22	6.889143e-05	9.623127e-23	0.02330513	3.577834e-24
1e+07	0.02813098	0.007828821	6.798203e-06	2.917578e-05	0.001833103	0.006089555	1.076079e-05	2.275049e-05
	6.798204e-06	2.917578e-05	0.02838226	0.007995295	6.617708e-06	4.845445e-05	0.001838833	0.006146329
	0.001833103	0.006089555	6.617708e-06	4.845445e-05	0.02835838	0.008043086	6.855932e-06	3.019683e-05
	1.076079e-05	2.275049e-05	0.001838833	0.006146329	6.855932e-06	3.019683e-05	0.02816261	0.007862693
2e+07	0.03349566	0.01141328	1.197508e-05	2.465668e-05	0.004003967	0.01125515	5.994006e-06	1.729609e-05
	1.197509e-05	2.46567e-05	0.03388047	0.01158804	4.303335e-05	5.728098e-05	0.004016441	0.01136673
	0.004003976	0.01125513	4.303335e-05	5.728098e-05	0.03386168	0.01168532	1.304416e-05	2.628547e-05
	5.994006e-06	1.729609e-05	0.004016451	0.01136672	1.304416e-05	2.628547e-05	0.03354308	0.0114734
3e+07	0.03803819	0.01271213	2.122191e-05	2.097499e-05	0.00720997	0.0159274	8.102202e-06	1.552831e-05
	2.122192e-05	2.097499e-05	0.03852265	0.01284835	7.120677e-05	5.281085e-05	0.007232431	0.01609045
	0.007209947	0.01592743	7.120677e-05	5.281085e-05	0.03850765	0.01300236	2.306954e-05	2.266427e-05
	8.102205e-06	1.552831e-05	0.007232409	0.01609049	2.306954e-05	2.266427e-05	0.03810103	0.01280091
4e+07	0.04184806	0.01288165	2.819799e-05	1.592002e-05	0.01137342	0.0197547	1.25129e-05	1.233583e-05
	2.819799e-05	1.592002e-05	0.04240863	0.01295611	9.294984e-05	4.117748e-05	0.01140779	0.01996494
	0.01137341	0.01975473	9.294984e-05	4.117748e-05	0.0424088	0.01316295	3.069554e-05	1.74729e-05
	1.25129e-05	1.233583e-05	0.01140779	0.01996496	3.069554e-05	1.74729e-05	0.04193613	0.01299171
5e+07	0.04507997	0.01240428	3.316105e-05	9.797056e-06	0.01628733	0.02260156	1.569621e-05	8.568783e-06
	3.316105e-05	9.797055e-06	0.04569712	0.01240227	0.0001091234	2.500042e-05	0.01633424	0.02285407
	0.01628734	0.02260157	0.0001091234	2.500042e-05	0.045718	0.01265717	3.621337e-05	1.108071e-05
	1.569621e-05	8.568782e-06	0.01633425	0.02285408	3.621337e-05	1.108071e-05	0.04519739	0.01252929
6e+07	0.04781521	0.01151336	3.622519e-05	2.986526e-06	0.02174552	0.0243386	1.76663e-05	4.436637e-06
	3.622519e-05	2.986527e-06	0.04847143	0.01142493	0.0001200731	5.808683e-06	0.02180408	0.02462817
	0.02174553	0.02433859	0.0001200731	5.808684e-06	0.0485171	0.01172241	3.975186e-05	3.894147e-06
	1.76663e-05	4.436638e-06	0.02180409	0.02462815	3.975186e-05	3.894148e-06	0.04796544	0.01164736
7e+07	0.05011956	0.01038953	3.746108e-05	-4.167981e-06	0.02751592	0.02487773	1.846924e-05	1.553292e-07
	3.746108e-05	-4.16798e-06	0.05079849	0.01020767	0.0001258992	-1.535056e-05	0.02758363	0.0251992
	0.02751592	0.02487772	0.0001258992	-1.535056e-05	0.05087152	0.01054103	4.13883e-05	-3.73179e-06
	1.846924e-05	1.553295e-07	0.02758363	0.02519919	4.13883e-05	-3.73179e-06	0.05030564	0.01052588
8e+07	0.05208378	0.009171672	3.69345e-05	-1.137361e-05	0.03335447	0.02417661	1.815082e-05	-4.076824e-06
	3.69345e-05	-1.137361e-05	0.05276958	0.008891021	0.0001266129	-3.767357e-05	0.03342724	0.02452535
	0.03335447	0.02417661	0.0001266129	-3.767358e-05	0.05287071	0.009253033	4.116974e-05	-1.150915e-05
	1.815082e-05	-4.076824e-06	0.03342724	0.02452535	4.116974e-05	-1.150915e-05	0.05230839	0.009303177
9e+07	0.05382217	0.007953546	3.463844e-05	-1.843259e-05	0.03901416	0.02223913	1.67261e-05	-8.101644e-06
	3.463844e-05	-1.843259e-05	0.05449815	0.007568671	0.000121984	-6.068496e-05	0.03908641	0.0226114
	0.03901417	0.02223913	0.000121984	-6.068496e-05	0.05462559	0.007952147	3.907323e-05	-1.924985e-05
	1.67261e-05	-8.101645e-06	0.03908641	0.0226114	3.907323e-05	-1.924985e-05	0.05408691	0.008072365
1e+08	0.05550988	0.006821571	2.990194e-05	-2.56148e-05	0.0442553	0.01911181	1.383324e-05	-1.196771e-05
	2.990194e-05	-2.56148e-05	0.05615028	0.006318178	0.0001096131	-8.566592e-05	0.04432012	0.01950523
	0.0442553	0.0191118	0.0001096131	-8.566592e-05	0.05629961	0.006716972	3.434897e-05	-2.731413e-05
	1.383324e-05	-1.196771e-05	0.04432012	0.01950523	3.434897e-05	-2.731413e-05	0.0558159	0.006919641
1.1e+08	0.05725799	0.005387446	2.245869e-05	-2.833065e-05	0.04883786	0.01487405	9.719368e-06	-1.311566e-05
	2.245869e-05	-2.833065e-05	0.05781329	0.00481136	8.670191e-05	-9.751407e-05	0.04888724	0.01528833
	0.04883786	0.01487404	8.670191e-05	-9.751407e-05	0.05801906	0.005174017	2.644169e-05	-3.066317e-05
	9.719368e-06	-1.311566e-05	0.04888724	0.01528833	2.644169e-05	-3.066317e-05	0.05764057	0.005407062
1.2e+08	0.05882091	0.003891374	1.659813e-05	-2.922156e-05	0.05252946	0.009714448	6.599555e-06	-1.324275e-05
	1.659813e-05	-2.922156e-05	0.05930708	0.003269223	7.02748e-05	-0.000101501	0.05255522	0.01015109
	0.05252946	0.009714445	7.02748e-05	-0.000101501	0.05950444	0.003611248	2.01738e-05	-3.198694e-05
	6.599555e-06	-1.324275e-05	0.05255521	0.01015108	2.01738e-05	-3.198694e-05	0.05921603	0.003844237
1.3e+08	0.06035018	0.002355252	1.294752e-05	-2.847748e-05	0.05517389	0.003806398	3.919817e-06	-1.305891e-05
	1.294752e-05	-2.847748e-05	0.06077502	0.001698869	6.457932e-05	-9.719902e-05	0.05516774	0.004268905
	0.05517389	0.003806396	6.457932e-05	-9.719902e-05	0.06094894	0.002046759	1.657091e-05	-3.124212e-05
	3.919817e-06	-1.305891e-05	0.05516773	0.004268903	1.657091e-05	-3.124212e-05	0.06074445	0.002262476
1.4e+08	0.06191045	0.0007327765	1.110624e-05	-2.640029e-05	0.056641	-0.002643619	1.562769e-06	-1.263172e-05
	1.110625e-05	-2.640029e-05	0.06228021	4.949746e-05	5.855847e-05	-9.363339e-05	0.05659515	-0.002149626
	0.056641	-0.00264362	5.855847e-05	-9.363339e-05	0.06243372	0.000416256	1.462894e-05	-2.925723e-05
	1.562769e-06	-1.263172e-05	0.05659514	-0.002149626	1.462894e-05	-2.925723e-05	0.06230775	0.0006003183
1.5e+08	0.06353348	-0.001040857	9.513735e-06	-2.463792e-05	0.05683799	-0.009406431	5.392221e-07	-1.13058e-05
	9.513735e-06	-2.463792e-05	0.06385344	-0.001746518	5.247558e-05	-9.024823e-05	0.05674555	-0.008873294
	0.05683798	-0.009406432	5.247558e-05	-9.024823e-05	0.06399017	-0.001357613	1.278509e-05	-2.740608e-05
	5.392223e-07	-1.13058e-05	0.05674555	-0.008873294	1.278509e-05	-2.740608e-05	0.06393676	-0.001218198
1.6e+08	0.06522244	-0.003039667	8.032743e-06	-2.29028e-05	0.0557148	-0.01623803	-8.90555e-08	-9.951943e-06
	8.032743e-06	-2.29028e-05	0.06549693	-0.003765299	4.647126e-05	-8.686659e-05	0.0555703	-0.01565625
	0.0557148	-0.01623803	4.647126e-05	-8.686659e-05	0.0656171	-0.003354878	1.113934e-05	-2.573177e-05
	-8.905539e-08	-9.951943e-06	0.0555703	-0.01565625	1.113934e-05	-2.573177e-05	0.06562932	-0.003272188
1.7e+08	0.06695308	-0.005340294	6.698948e-06	-2.11653e-05	0.05326658	-0.02288798	-5.234502e-07	-8.809842e-06
	6.698948e-06	-2.11653e-05	0.06718498	-0.0060848	4.064514e-05	-8.338661e-05	0.05306639	-0.0222464
	0.05326658	-0.02288798	4.064514e-05	-8.338661e-05	0.06728556	-0.005653174	9.621297e-06	-2.406057e-05
	-5.234501e-07	-8.809842e-06	0.05306639	-0.02224639	9.621297e-06	-2.406057e-05	0.06735508	-0.005638501
1.8e+08	0.06867367	-0.008014567	5.537243e-06	-1.942837e-05	0.04953461	-0.0291078	-8.521423e-07	-7.691089e-06
	5.537243e-06	-1.942837e-05	0.06886492	-0.008778199	3.507325e-05	-7.975454e-05	0.04927733	-0.02839402
	0.04953461	-0.0291078	3.507325e-05	-7.975454e-05	0.06894094	-0.008323339	8.257642e-06	-2.238665e-05
	-8.521423e-07	-7.691089e-06	0.04927733	-0.02839402	8.257643e-06	-2.238665e-05	0.06905755	-0.00838671
1.9e+08	0.07030712	-0.01112322	4.561144e-06	-1.770034e-05	0.0446056	-0.03465952	-1.069317e-06	-6.601574e-06
	4.561144e-06	-1.770034e-05	0.07045818	-0.01190691	2.981614e-05	-7.59457e-05	0.04429243	-0.03386036
	0.0446056	-0.03465952	2.981614e-05	-7.59457e-05	0.0705045	-0.01142368	7.064041e-06	-2.071343e-05
	-1.069317e-06	-6.601574e-06	0.04429243	-0.03386036	7.064041e-06	-2.071343e-05	0.07065618	-0.01157363
2e+08	0.07175357	-0.01470852	3.779183e-06	-1.599524e-05	0.03860877	-0.0393237	-1.17239e-06	-5.549857e-06
	3.779183e-06	-1.599524e-05	0.07186331	-0.01551332	2.492366e-05	-7.195619e-05	0.03824372	-0.03842564
	0.03860877	-0.0393237	2.492366e-05	-7.195619e-05	0.07187667	-0.01499437	6.050779e-06	-1.905058e-05
	-1.17239e-06	-5.549857e-06	0.03824372	-0.03842564	6.050779e-06	-1.905058e-05	0.0720497	-0.01523761
2.1e+08	0.072896	-0.01878804	3.192235e-06	-1.433038e-05	0.03171207	-0.04290667	-1.161937e-06	-4.546062e-06
	3.192235e-06	-1.433038e-05	0.07296173	-0.01961479	2.043631e-05	-6.779717e-05	0.03130206	-0.04189653
	0.03171207	-0.04290667	2.043631e-05	-6.779717e-05	0.07294083	-0.01905086	5.221399e-06	-1.741179e-05
	-1.161937e-06	-4.546062e-06	0.03130206	-0.04189653	5.221399e-06	-1.741179e-05	0.07311993	-0.01939174
2.2e+08	0.07360525	-0.02335074	2.797407e-06	-1.272454e-05	0.02411682	-0.0452472	-1.041093e-06	-3.601187e-06
	2.797407e-06	-1.272454e-05	0.07362279	-0.02419942	1.638722e-05	-6.349125e-05	0.02367175	-0.04411275
	0.02411682	-0.0452472	1.638722e-05	-6.349125e-05	0.07356982	-0.02358043	4.57592e-06	-1.581285e-05
	-1.041093e-06	-3.601187e-06	0.02367175	-0.04411275	4.57592e-06	-1.581285e-05	0.07373846	-0.02402055
2.3e+08	0.07374819	-0.02835328	2.585214e-06	-1.119564e-05	0.01605143	-0.04622232	-8.15224e-07	-2.726604e-06
	2.585214e-06	-1.119564e-05	0.07371215	-0.02922256	1.279461e-05	-5.906928e-05	0.01558403	-0.04495285
	0.01605143	-0.04622232	1.279461e-05	-5.906928e-05	0.07363236	-0.02853927	4.110959e-06	-1.427065e-05
	-8.15224e-07	-2.726604e-06	0.01558403	-0.04495285	4.110959e-06	-1.427065e-05	0.07377328	-0.02907705
2.4e+08	0.07319523	-0.03371867	2.547428e-06	-9.763023e-06	0.007764473	-0.04575099	-4.920993e-07	-1.933487e-06
	2.547428e-06	-9.763023e-06	0.07309933	-0.03460548	9.685452e-06	-5.456761e-05	0.00729001	-0.04433801
	0.007764473	-0.04575099	9.685452e-06	-5.456761e-05	0.07300057	-0.03384966	3.818635e-06	-1.280252e-05
	-4.920993e-07	-1.933487e-06	0.00729001	-0.04433801	3.818635e-06	-1.280252e-05	0.07309631	-0.03448004
2.5e+08	0.07182822	-0.0393364	2.670521e-06	-8.444722e-06	-0.0004833301	-0.0437974	-8.131233e-08	-1.232621e-06
	2.670521e-06	-8.444722e-06	0.07166581	-0.04023558	7.067536e-06	-5.002812e-05	-0.0009473416	-0.04223516
	-0.0004833303	-0.0437974	7.067536e-06	-5.002812e-05	0.0715585	-0.03940173	3.687006e-06	-1.142371e-05
	-8.131232e-08	-1.232621e-06	-0.0009473418	-0.04223516	3.687006e-06	-1.142371e-05	0.07159214	-0.0401159
2.6e+08	0.06954862	-0.04506521	2.937261e-06	-7.256744e-06	-0.008427225	-0.04037284	4.055383e-07	-6.338121e-07
	2.937261e-06	-7.256744e-06	0.06931326	-0.04596926	4.950796e-06	-4.549827e-05	-0.00886167	-0.03865887
	-0.008427225	-0.04037284	4.950796e-06	-4.549827e-05	0.06920907	-0.0450544	3.704552e-06	-1.01505e-05
	4.055383e-07	-6.338121e-07	-0.008861671	-0.03865887	3.704552e-06	-1.01505e-05	0.06916505	-0.04583979
2.7e+08	0.06628462	-0.05073675	3.328288e-06	-6.213044e-06	-0.01580632	-0.03553502	9.551584e-07	-1.45774e-07
	3.328288e-06	-6.213044e-06	0.06597072	-0.05163578	3.333746e-06	-4.102841e-05	-0.01619102	-0.03367055
	-0.01580632	-0.03553502	3.333746e-06	-4.102841e-05	0.06588212	-0.05064016	3.856091e-06	-8.99742e-06
	9.551584e-07	-1.45774e-07	-0.01619102	-0.03367055	3.856091e-06	-8.99742e-06	0.06574708	-0.05148058
2.8e+08	0.06199804	-0.05616076	3.822379e-06	-5.325224e-06	-0.02237225	-0.02938752	1.552647e-06	2.242194e-07
	3.822379e-06	-5.325224e-06	0.06160157	-0.05704257	2.206253e-06	-3.667004e-05	-0.02268672	-0.0273777
	-0.02237225	-0.02938752	2.206253e-06	-3.667004e-05	0.06154101	-0.05597008	4.124089e-06	-7.977055e-06
	1.552647e-06	2.242194e-07	-0.02268672	-0.0273777	4.124089e-06	-7.977055e-06	0.06130468	-0.05684606
2.9e+08	0.05668922	-0.061133	4.396684e-06	-4.60221e-06	-0.02789682	-0.02207698	2.181649e-06	4.706885e-07
	4.396684e-06	-4.60221e-06	0.05620845	-0.06198332	1.550521e-06	-3.247447e-05	-0.02812107	-0.01993106
	-0.02789682	-0.02207698	1.550521e-06	-3.247447e-05	0.05618704	-0.06084065	4.489199e-06	-7.100004e-06
	2.181649e-06	4.706885e-07	-0.02812107	-0.01993106	4.489199e-06	-7.100004e-06	0.05584306	-0.06172996
3e+08	0.05040102	-0.06544274	5.02708e-06	-4.050134e-06	-0.03217893	-0.01378886	2.824551e-06	5.90225e-07
	5.02708e-06	-4.050134e-06	0.04983709	-0.06624579	1.341065e-06	-2.849171e-05	-0.03229427	-0.01152009
	-0.03217893	-0.01378886	1.341065e-06	-2.849171e-05	0.04986399	-0.0650426	4.930474e-06	-6.374586e-06
	2.824551e-06	5.90225e-07	-0.03229427	-0.01152009	4.930474e-06	-6.374586e-06	0.04941057	-0.06592113
3.1e+08	0.04322051	-0.06888226	5.688571e-06	-3.67211e-06	-0.03505179	-0.004742502	3.462799e-06	5.818513e-07
	5.688571e-06	-3.67211e-06	0.04257797	-0.06962132	1.545107e-06	-2.476912e-05	-0.03504163	-0.002367984
	-0.03505179	-0.004742502	1.545107e-06	-2.476912e-05	0.04265974	-0.06836898	5.425751e-06	-5.806633e-06
	3.462799e-06	5.818513e-07	-0.03504163	-0.002367984	5.425751e-06	-5.806633e-06	0.04210029	-0.06921158
3.2e+08	0.03527908	-0.07125546	6.355585e-06	-3.468044e-06	-0.03638805	0.004815147	4.077219e-06	4.472906e-07
	6.355585e-06	-3.468044e-06	0.0345663	-0.07191368	2.122592e-06	-2.135039e-05	-0.03623875	0.007274859
	-0.03638805	0.004815147	2.122592e-06	-2.135039e-05	0.03470695	-0.07062583	5.951744e-06	-5.399208e-06
	4.077219e-06	4.472906e-07	-0.03623875	0.007274859	5.951744e-06	-5.399208e-06	0.03405035	-0.07140746
3.3e+08	0.02675055	-0.07238823	7.002295e-06	-3.434494e-06	-0.03610398	0.01461666	4.648429e-06	1.91183e-07
	7.002295e-06	-3.434494e-06	0.0259799	-0.07294952	3.026905e-06	-1.827414e-05	-0.03580537	0.0171381
	-0.03610398	0.01461666	3.026905e-06	-1.827414e-05	0.02617996	-0.07164004	6.484422e-06	-5.15245e-06
	4.648429e-06	1.91183e-07	-0.03580537	0.0171381	6.484422e-06	-5.15245e-06	0.02544068	-0.072337
3.4e+08	0.01784758	-0.072137	7.603125e-06	-3.564459e-06	-0.0341633	0.0243822	5.157417e-06	-1.786831e-07
	7.603125e-06	-3.564459e-06	0.01703533	-0.07258706	4.205554e-06	-1.557273e-05	-0.03370946	0.02693963
	-0.0341633	0.0243822	4.205554e-06	-1.557273e-05	0.01729172	-0.07127024	6.999444e-06	-5.063154e-06
	5.157417e-06	-1.786832e-07	-0.03370946	0.02693963	6.999444e-06	-5.063154e-06	0.01648963	-0.0718614
3.5e+08	0.008815078	-0.0703973	8.133185e-06	-3.847299e-06	-0.03057825	0.03382741	5.586027e-06	-6.513355e-07
	8.133185e-06	-3.847299e-06	0.007981223	-0.07072448	5.601006e-06	-1.327129e-05	-0.02996781	0.03639357
	-0.03057825	0.03382741	5.601006e-06	-1.327129e-05	0.008287625	-0.06941317	7.472528e-06	-5.124656e-06
	5.586027e-06	-6.513355e-07	-0.02996781	0.03639357	7.472528e-06	-5.124656e-06	0.007447572	-0.06988119
3.6e+08	-7.685809e-05	-0.06711038	8.568869e-06	-4.268582e-06	-0.02541046	0.0426722	5.91768e-06	-1.212611e-06
	8.568869e-06	-4.268582e-06	-0.0009092548	-0.06730665	7.151868e-06	-1.13866e-05	-0.024647	0.04521919
	-0.02541046	0.0426722	7.151868e-06	-1.13866e-05	-0.0005621619	-0.06601265	7.880067e-06	-5.32656e-06
	5.91768e-06	-1.212611e-06	-0.024647	0.04521919	7.880067e-06	-5.32656e-06	-0.001411211	-0.06634503
3.7e+08	-0.008542542	-0.06226942	8.888492e-06	-4.810163e-06	-0.01876939	0.05064963	6.137989e-06	-1.845389e-06
	8.888492e-06	-4.810163e-06	-0.009347947	-0.06233113	8.794217e-06	-9.926331e-06	-0.01786154	0.0531498
	-0.01876939	0.05064963	8.794217e-06	-9.926331e-06	-0.008972246	-0.06106384	8.19975e-06	-5.654752e-06
	6.137989e-06	-1.845389e-06	-0.01786154	0.0531498	8.19975e-06	-5.654752e-06	-0.009798113	-0.06125394
3.8e+08	-0.01629047	-0.0559222	9.072948e-06	-5.450274e-06	-0.01080946	0.05751337	6.235373e-06	-2.529896e-06
	9.072948e-06	-5.450274e-06	-0.01704189	-0.05585066	1.046306e-05	-8.888536e-06	-0.009770875	0.05994021
	-0.01080946	0.05751337	1.046306e-05	-8.888536e-06	-0.01665153	-0.05461644	8.411217e-06	-6.091407e-06
	6.235373e-06	-2.529896e-06	-0.009770875	0.05994021	8.411217e-06	-6.091407e-06	-0.01742006	-0.05466414
3.9e+08	-0.0230337	-0.04817355	9.106525e-06	-6.163824e-06	-0.001726714	0.06304614	6.201723e-06	-3.244176e-06
	9.106525e-06	-6.163824e-06	-0.02370364	-0.04797544	1.20939e-05	-8.261148e-06	-0.0005759694	0.0653752
	-0.001726714	0.06304614	1.20939e-05	-8.261148e-06	-0.02331471	-0.04677798	8.4969e-06	-6.615102e-06
	6.201723e-06	-3.244176e-06	-0.0005759694	0.0653752	8.4969e-06	-6.615102e-06	-0.02399111	-0.04669019
4e+08	-0.02850246	-0.03918413	8.977567e-06	-6.922897e-06	0.008247653	0.06706614	6.032809e-06	-3.964803e-06
	8.977567e-06	-6.922897e-06	-0.02906412	-0.03887165	1.362466e-05	-8.022142e-06	0.009487523	0.06927593
	0.008247653	0.06706614	1.362466e-05	-8.022142e-06	-0.02869326	-0.03771038	8.442729e-06	-7.201391e-06
	6.032809e-06	-3.964803e-06	0.009487523	0.06927593	8.442729e-06	-7.201391e-06	-0.02924352	-0.03750117
4.1e+08	-0.03245506	-0.02916709	8.679214e-06	-7.697413e-06	0.01885325	0.06943294	5.728706e-06	-4.667618e-06
	8.679214e-06	-7.697413e-06	-0.03288342	-0.02875787	1.499749e-05	-8.139829e-06	0.02015509	0.07150565
	0.01885325	0.06943294	1.499749e-05	-8.139829e-06	-0.03254703	-0.02762887	8.238856e-06	-7.823207e-06
	5.728706e-06	-4.667618e-06	0.02015509	0.07150565	8.238856e-06	-7.823207e-06	-0.03293939	-0.02731934
4.2e+08	-0.03468657	-0.01838422	8.209854e-06	-8.456027e-06	0.02980827	0.07005247	5.293918e-06	-5.3286e-06
	8.209854e-06	-8.456027e-06	-0.03495949	-0.01790097	1.616016e-05	-8.573404e-06	0.03114155	0.0719748
	0.02980827	0.07005247	1.616016e-05	-8.573404e-06	-0.03467352	-0.0167967	7.880214e-06	-8.45173e-06
	5.293918e-06	-5.3286e-06	0.03114155	0.0719748	7.880214e-06	-8.45173e-06	-0.03487984	-0.01641459
4.3e+08	-0.03504039	-0.007137103	7.573483e-06	-9.167099e-06	0.04081813	0.06887949	4.737336e-06	-5.924808e-06
	7.573483e-06	-9.167099e-06	-0.03513963	-0.006607116	1.706814e-05	-9.274249e-06	0.0421496	0.07064326
	0.04081813	0.06887949	1.706814e-05	-9.274249e-06	-0.03491855	-0.005516202	7.366977e-06	-9.057321e-06
	4.737336e-06	-5.924808e-06	0.0421496	0.07064326	7.366977e-06	-9.057321e-06	-0.03491566	-0.005095204
4.4e+08	-0.03341486	0.004241505	6.779896e-06	-9.799842e-06	0.05158367	0.06591967	4.072024e-06	-6.435248e-06
	6.779896e-06	-9.799842e-06	-0.03332696	0.004787124	1.76857e-05	-1.018714e-05	0.05287825	0.06752226
	0.05158367	0.06591967	1.76857e-05	-1.018714e-05	-0.03318296	0.005878901	6.704753e-06	-9.610501e-06
	4.072024e-06	-6.435248e-06	0.05287825	0.06752226	6.704753e-06	-9.610501e-06	-0.03295374	0.006300117
4.5e+08	-0.02976944	0.01539689	5.844439e-06	-1.032545e-05	0.06181057	0.06122958	3.31471e-06	-6.84171e-06
	5.844439e-06	-1.032545e-05	-0.02948644	0.01592409	1.798701e-05	-1.125182e-05	0.06303228	0.06267441
	0.06181057	0.06122958	1.798701e-05	-1.125182e-05	-0.02942895	0.01703393	5.904525e-06	-1.00831e-05
	3.31471e-06	-6.84171e-06	0.06303228	0.06267441	5.904525e-06	-1.00831e-05	-0.02896336	0.01741279
4.6e+08	-0.02412872	0.02596525	4.787633e-06	-1.071827e-05	0.0712179	0.05491477	2.485164e-06	-7.129491e-06
	4.787633e-06	-1.071827e-05	-0.0236487	0.026438	1.795704e-05	-1.240507e-05	0.07233091	0.0562115
	0.0712179	0.05491477	1.795704e-05	-1.240507e-05	-0.02368383	0.02758606	4.98239e-06	-1.044936e-05
	2.485164e-06	-7.129491e-06	0.07233091	0.0562115	4.98239e-06	-1.044936e-05	-0.02297964	0.02787728
4.7e+08	-0.01658521	0.03558686	3.634534e-06	-1.095683e-05	0.07954691	0.04712672	1.605385e-06	-7.287937e-06
	3.634534e-06	-1.095683e-05	-0.01591268	0.03596826	1.759201e-05	-1.35826e-05	0.08051662	0.04829124
	0.07954691	0.04712672	1.759201e-05	-1.35826e-05	-0.01604222	0.03717536	3.958954e-06	-1.068689e-05
	1.605385e-06	-7.287937e-06	0.08051662	0.04829124	3.958954e-06	-1.068689e-05	-0.01510555	0.03733251
4.8e+08	-0.007296148	0.04391621	2.413698e-06	-1.102467e-05	0.08656773	0.03805824	6.987099e-07	-7.310727e-06
	2.413698e-06	-1.102467e-05	-0.006442227	0.04416947	1.689909e-05	-1.472105e-05	0.08736189	0.03911256
	0.08656773	0.03805824	1.689909e-05	-1.472105e-05	-0.006664597	0.04545826	2.858649e-06	-1.077756e-05
