!$
! Info: Touchstone file created by Circ.  Input file=Intel_C2M_200G_6p5in_202208016_staggered.circ
!$
# Hz S RI R 50
0	0.02330717	3.777605e-24	0.9764936	-6.516946e-24	0.0001115701	2.860935e-22	-0.0002419554	2.9631e-20
	0.9764936	-6.514375e-24	0.02385997	6.962328e-24	-0.0002420109	2.963779e-20	0.0003344246	8.057573e-22
	0.0001116272	2.862187e-22	-0.0002421469	2.965444e-20	0.02330513	3.577834e-24	0.9764939	-6.626505e-24
	-0.0002420914	2.964764e-20	0.0003344915	8.063277e-22	0.9764939	-6.629081e-24	0.02386139	7.110839e-24
1e+07	0.02838226	0.007995295	0.9665626	-0.103949	0.001838833	0.006146329	-0.001248379	-0.0008387919
	0.9665626	-0.103949	0.02883284	0.007731147	-0.001248738	-0.0008384888	0.001709337	0.006188074
	0.001838833	0.006146329	-0.001248738	-0.0008384888	0.02816261	0.007862693	0.9667911	-0.1037929
	-0.001248379	-0.0008387919	0.001709337	0.006188074	0.9667911	-0.1037929	0.02860291	0.00760536
2e+07	0.03388047	0.01158804	0.9462279	-0.202293	0.004016441	0.01136673	-0.001681893	-0.001049305
	0.9462279	-0.202293	0.03572915	0.01080757	-0.001682532	-0.001047956	0.003467699	0.01160988
	0.004016451	0.01136672	-0.001682535	-0.001048066	0.03354308	0.0114734	0.9465957	-0.2021452
	-0.001681895	-0.001049408	0.003467789	0.01160978	0.9465957	-0.2021452	0.03535784	0.01073136
3e+07	0.03852265	0.01284835	0.9174024	-0.2960996	0.007232431	0.01609045	-0.002132921	-0.001160008
	0.9174024	-0.2960996	0.04202065	0.01075952	-0.002133322	-0.001157084	0.00615576	0.0165656
	0.007232409	0.01609049	-0.002133365	-0.00115708	0.03810103	0.01280091	0.9178689	-0.2960134
	-0.002132934	-0.001160013	0.006155736	0.01656557	0.9178689	-0.2960134	0.04156809	0.01078656
4e+07	0.04240863	0.01295611	0.8800611	-0.3856958	0.01140779	0.01996494	-0.002579721	-0.001147208
	0.8800611	-0.3856958	0.0480984	0.009052127	-0.002579016	-0.00114265	0.009592551	0.02094716
	0.01140779	0.01996496	-0.002579021	-0.001142645	0.04193613	0.01299171	0.8805967	-0.3856976
	-0.002579722	-0.001147195	0.009592551	0.02094716	0.8805967	-0.3856976	0.04760341	0.009207974
5e+07	0.04569712	0.01240227	0.8345069	-0.4705605	0.01633424	0.02285407	-0.00299796	-0.001019596
	0.8345069	-0.4705605	0.05385836	0.005859045	-0.002995346	-0.001013846	0.01368116	0.0246128
	0.01633425	0.02285408	-0.002995343	-0.001013847	0.04519739	0.01252929	0.8350851	-0.4706675
	-0.002997957	-0.001019598	0.01368117	0.02461281	0.8350851	-0.4706675	0.05336009	0.006155023
6e+07	0.04847143	0.01142493	0.7811856	-0.5500636	0.02180408	0.02462817	-0.003364697	-0.0007972684
	0.7811856	-0.5500636	0.05911903	0.001373377	-0.003359581	-0.0007910187	0.01827141	0.02746823
	0.02180409	0.02462815	-0.003359579	-0.0007910196	0.04796544	0.01164736	0.7817802	-0.5502865
	-0.003364695	-0.0007972686	0.01827141	0.02746823	0.7817802	-0.5502865	0.05865503	0.001810218
7e+07	0.05079849	0.01020767	0.7206301	-0.6235723	0.02758363	0.0251992	-0.003665449	-0.0005035744
	0.7206301	-0.6235723	0.0637329	-0.0042347	-0.003657446	-0.0004978519	0.02320205	0.02945175
	0.02758363	0.02519919	-0.003657406	-0.0004979094	0.05030564	0.01052588	0.7212138	-0.623917
	-0.003665446	-0.0005035767	0.02320206	0.02945175	0.7212138	-0.623917	0.06333772	-0.003665119
8e+07	0.05276958	0.008891021	0.6534408	-0.690485	0.03342724	0.02452535	-0.003892636	-0.00016203
	0.6534408	-0.690485	0.06756384	-0.01080983	-0.003881789	-0.0001579963	0.02830457	0.03053307
	0.03342724	0.02452535	-0.00388179	-0.0001579938	0.05230839	0.009303177	0.6539872	-0.6909542
	-0.003892638	-0.0001620276	0.02830457	0.03053307	0.6539872	-0.6909542	0.06726909	-0.01012276
9e+07	0.05449815	0.007568671	0.5802712	-0.7502498	0.03908641	0.0226114	-0.004045112	0.00020522
	0.5802712	-0.7502498	0.07048992	-0.01818748	-0.004031913	0.000206348	0.03341041	0.03071449
	0.03908641	0.0226114	-0.004031911	0.0002063571	0.05408691	0.008072365	0.5807494	-0.7508417
	-0.004045111	0.0002052299	0.03341041	0.03071449	0.5807494	-0.7508417	0.07032514	-0.01740346
1e+08	0.05615028	0.006318178	0.5017638	-0.8024043	0.04432012	0.01950523	-0.004129492	0.0005805147
	0.5017638	-0.8024043	0.07246122	-0.02616733	-0.004115161	0.0005774142	0.03836014	0.0300277
	0.04432012	0.01950523	-0.004115161	0.0005774133	0.0558159	0.006919641	0.5021308	-0.8031213
	-0.004129492	0.0005805137	0.03836014	0.0300277	0.5021308	-0.8031213	0.07246578	-0.02531069
1.1e+08	0.05781329	0.00481136	0.4186877	-0.8461329	0.04888724	0.01528833	-0.00413488	0.000954571
	0.4186877	-0.8461329	0.07338507	-0.03485551	-0.004120623	0.0009485872	0.04298066	0.02852746
	0.04888724	0.01528833	-0.004120623	0.0009485857	0.05764057	0.005407062	0.4189053	-0.8469
	-0.00413488	0.0009545695	0.04298066	0.02852746	0.4189053	-0.8469	0.07356788	-0.03400194
1.2e+08	0.05930708	0.003269223	0.3321753	-0.8813076	0.05255522	0.01015109	-0.004081627	0.001283874
	0.3321753	-0.8813076	0.0729392	-0.0438285	-0.004068443	0.001274466	0.04713933	0.02632732
	0.05255521	0.01015108	-0.004068443	0.001274464	0.05921603	0.003844237	0.3322596	-0.8820961
	-0.004081627	0.001283873	0.04713933	0.02632732	0.3322596	-0.8820961	0.0732671	-0.04301901
1.3e+08	0.06077502	0.001698869	0.2429944	-0.9077314	0.05516774	0.004268905	-0.003994938	0.001564048
	0.2429944	-0.9077314	0.07118982	-0.05281016	-0.003984252	0.00155145	0.05072981	0.02354289
	0.05516773	0.004268903	-0.003984253	0.001551449	0.06074445	0.002262476	0.2429519	-0.9085216
	-0.003994939	0.001564047	0.05072981	0.02354289	0.2429519	-0.9085216	0.07163567	-0.05206988
1.4e+08	0.06228021	4.949746e-05	0.1519861	-0.9252411	0.05659515	-0.002149626	-0.003896452	0.001793977
	0.1519861	-0.9252411	0.06818816	-0.06157047	-0.003889129	0.001779585	0.05366811	0.02030803
	0.05659514	-0.002149626	-0.00388913	0.001779584	0.06230775	0.0006003183	0.151824	-0.9260127
	-0.003896453	0.001793976	0.05366811	0.02030803	0.151824	-0.9260127	0.06872449	-0.06091341
1.5e+08	0.06385344	-0.001746518	0.06000702	-0.9337452	0.05674555	-0.008873294	-0.003805984	0.001978504
	0.06000702	-0.9337452	0.06401211	-0.06990068	-0.003802156	0.001963431	0.05589881	0.01676843
	0.05674555	-0.008873294	-0.003802157	0.001963431	0.06393676	-0.001218198	0.05973441	-0.9344823
	-0.003805985	0.001978504	0.05589881	0.01676843	0.05973441	-0.9344823	0.06461341	-0.06933295
1.6e+08	0.06549693	-0.003765299	-0.0320796	-0.9332276	0.0555703	-0.01565625	-0.003740527	0.002127545
	-0.0320796	-0.9332276	0.05876752	-0.07761316	-0.003739868	0.00211283	0.05739644	0.01307637
	0.0555703	-0.01565625	-0.003739869	0.002112829	0.06562932	-0.003272188	-0.03245473	-0.9339172
	-0.003740528	0.002127545	0.05739644	0.01307637	-0.03245473	-0.9339172	0.0594106	-0.07713497
1.7e+08	0.06718498	-0.0060848	-0.1234164	-0.9237536	0.05306639	-0.0222464	-0.003713253	0.002255263
	-0.1234164	-0.9237536	0.05258619	-0.0845446	-0.003715178	0.002241708	0.05816597	0.009383835
	0.05306639	-0.02224639	-0.003715179	0.002241708	0.06735508	-0.005638501	-0.1238844	-0.9243838
	-0.003713254	0.002255263	0.05816597	0.009383835	-0.1238844	-0.9243838	0.05325127	-0.08415164
1.8e+08	0.06886492	-0.008778199	-0.2131577	-0.9054655	0.04927733	-0.02839402	-0.003732862	0.002379092
	-0.2131577	-0.9054655	0.04562295	-0.09055878	-0.003736645	0.002367083	0.05824263	0.005837115
	0.04927733	-0.02839402	-0.003736645	0.002367083	0.06905755	-0.00838671	-0.2137081	-0.9060257
	-0.003732863	0.002379092	0.05824263	0.005837115	-0.2137081	-0.9060257	0.04629288	-0.09024311
1.9e+08	0.07045818	-0.01190691	-0.3004739	-0.8785813	0.04429243	-0.03386036	-0.003802684	0.002518791
	-0.3004739	-0.8785813	0.03805013	-0.09554897	-0.003807632	0.002508409	0.05768972	0.002571552
	0.04429243	-0.03386036	-0.003807632	0.002508409	0.07065618	-0.01157363	-0.3010955	-0.8790649
	-0.003802684	0.002518791	0.05768972	0.002571552	-0.3010955	-0.8790649	0.03871205	-0.09530032
2e+08	0.07186331	-0.01551332	-0.3845622	-0.8433948	0.03824372	-0.03842564	-0.003920617	0.002694726
	-0.3845622	-0.8433948	0.03005418	-0.09944057	-0.003926224	0.002685679	0.05659541	-0.0002947248
	0.03824372	-0.03842564	-0.003926224	0.002685679	0.0720497	-0.01523761	-0.3852445	-0.8437927
	-0.003920617	0.002694726	0.05659541	-0.0002947247	-0.3852445	-0.8437927	0.03069754	-0.0992465
2.1e+08	0.07296173	-0.01961479	-0.4646529	-0.800272	0.03130206	-0.04189653	-0.004079298	0.002926646
	-0.4646529	-0.800272	0.02182831	-0.1021928	-0.004085069	0.002918773	0.05507004	-0.002664502
	0.03130206	-0.04189653	-0.004085069	0.002918773	0.07311993	-0.01939174	-0.4653836	-0.8005792
	-0.004079298	0.002926646	0.05507004	-0.002664502	-0.4653836	-0.8005792	0.02244748	-0.1020401
2.2e+08	0.07362279	-0.02419942	-0.5400129	-0.7496473	0.02367175	-0.04411275	-0.004265652	0.003232881
	-0.5400129	-0.7496473	0.01356891	-0.1037988	-0.004271474	0.003225656	0.05324015	-0.004465666
	0.02367175	-0.04411275	-0.004271474	0.003225656	0.07373846	-0.02402055	-0.5407804	-0.7498593
	-0.004265652	0.003232881	0.05324015	-0.004465666	-0.5407804	-0.7498593	0.01416097	-0.1036739
2.3e+08	0.07371215	-0.02922256	-0.6099511	-0.6920211	0.01558403	-0.04495285	-0.004462266	0.00362836
	-0.6099511	-0.6920211	0.005468582	-0.1042857	-0.004468055	0.003621573	0.05124395	-0.005654096
	0.01558403	-0.04495285	-0.004468055	0.003621573	0.07377328	-0.02907705	-0.6107445	-0.6921343
	-0.004462267	0.00362836	0.05124395	-0.005654096	-0.6107445	-0.6921343	0.006034206	-0.1041754
2.4e+08	0.07309933	-0.03460548	-0.6738302	-0.6279557	0.00729001	-0.04433801	-0.004647094	0.00412486
	-0.6738302	-0.6279557	-0.002289688	-0.1037137	-0.004653182	0.004117992	0.04922556	-0.006214895
	0.00729001	-0.04433801	-0.004653182	0.004117992	0.07309631	-0.03448004	-0.6746375	-0.6279695
	-0.004647094	0.00412486	0.04922556	-0.006214895	-0.6746375	-0.6279695	-0.00174634	-0.103606
2.5e+08	0.07166581	-0.04023558	-0.7310651	-0.5580729	-0.0009473416	-0.04223516	-0.004794996	0.004728902
	-0.7310651	-0.5580729	-0.009536801	-0.1021735	-0.004801713	0.004721657	0.04732867	-0.006163513
	-0.0009473418	-0.04223516	-0.004801713	0.004721657	0.07159214	-0.0401159	-0.731874	-0.5579846
	-0.004794996	0.004728902	0.04732867	-0.006163513	-0.731874	-0.5579846	-0.009008985	-0.1020579
2.6e+08	0.06931326	-0.04596926	-0.7811318	-0.4830439	-0.00886167	-0.03865887	-0.004878706	0.005441552
	-0.7811318	-0.4830439	-0.01612428	-0.09978288	-0.004886343	0.005433979	0.04569069	-0.005544892
	-0.008861671	-0.03865887	-0.004886344	0.005433979	0.06916505	-0.04583979	-0.7819292	-0.4828555
	-0.004878706	0.005441551	0.04569069	-0.005544892	-0.7819292	-0.4828555	-0.01560248	-0.09965161
2.7e+08	0.06597072	-0.05163578	-0.8235694	-0.4035891	-0.01619102	-0.03367055	-0.004869397	0.006257922
	-0.8235694	-0.4035891	-0.02192692	-0.09668356	-0.004878715	0.00625003	0.04443699	-0.004431257
	-0.01619102	-0.03367055	-0.004878715	0.00625003	0.06574708	-0.05148058	-0.8243452	-0.4033023
	-0.004869397	0.006257922	0.04443699	-0.004431257	-0.8243452	-0.4033023	-0.02140026	-0.09653148
2.8e+08	0.06160157	-0.05704257	-0.857989	-0.3204716	-0.02268672	-0.0273777	-0.004738485	0.00716653
	-0.857989	-0.3204716	-0.02684761	-0.09303645	-0.004749797	0.00715879	0.04367574	-0.002920006
	-0.02268672	-0.0273777	-0.004749797	0.00715879	0.06130468	-0.05684606	-0.8587321	-0.3200892
	-0.004738485	0.00716653	0.04367574	-0.002920006	-0.8587321	-0.3200892	-0.02630402	-0.0928612
2.9e+08	0.05620845	-0.06198332	-0.8840752	-0.2344909	-0.02812107	-0.01993106	-0.004458128	0.008149547
	-0.8840752	-0.2344909	-0.03082037	-0.08901581	-0.004472123	0.008142593	0.04349282	-0.001128964
	-0.02812107	-0.01993106	-0.004472123	0.008142593	0.05584306	-0.06172996	-0.8847747	-0.234017
	-0.004458128	0.008149547	0.04349282	-0.001128964	-0.8847747	-0.234017	-0.03024717	-0.08881858
3e+08	0.04983709	-0.06624579	-0.9015893	-0.1464741	-0.03229427	-0.01152009	-0.004004007	0.009182557
	-0.9015893	-0.1464741	-0.03381116	-0.08480407	-0.004020958	0.009177281	0.04394825	0.0008075701
	-0.03229427	-0.01152009	-0.004020958	0.009177281	0.04941057	-0.06592113	-0.902234	-0.1459132
	-0.004004007	0.009182557	0.04394825	0.00080757	-0.902234	-0.1459132	-0.03319608	-0.08458896
3.1e+08	0.04257797	-0.06962132	-0.910376	-0.05726996	-0.03504163	-0.002367984	-0.003355595	0.01023519
	-0.910376	-0.05726996	-0.03581988	-0.0805857	-0.003375251	0.01023245	0.0450737	0.002745484
	-0.03504163	-0.002367984	-0.003375251	0.01023245	0.04210029	-0.06921158	-0.9109541	-0.05662958
	-0.003355596	0.01023519	0.0450737	0.002745484	-0.9109541	-0.05662958	-0.03515172	-0.08036021
3.2e+08	0.0345663	-0.07191368	-0.9103616	0.03225572	-0.03623875	0.007274859	-0.002497801	0.01127165
	-0.9103616	0.03225572	-0.03687943	-0.07654142	-0.002519783	0.01127258	0.04687032	0.004535562
	-0.03623875	0.007274859	-0.002519783	0.01127258	0.03405035	-0.07140746	-0.9108654	0.03297037
	-0.002497801	0.01127165	0.04687032	0.004535562	-0.9108654	0.03297037	-0.03614918	-0.07631563
3.3e+08	0.0259799	-0.07294952	-0.9015589	0.121236	-0.03580537	0.0171381	-0.001421993	0.01225173
	-0.9015589	0.121236	-0.03705495	-0.07284158	-0.001446137	0.01225754	0.0493083	0.006030481
	-0.03580537	0.0171381	-0.001446137	0.01225754	0.02544068	-0.072337	-0.9019794	0.1220149
	-0.001421993	0.01225173	0.0493083	0.006030481	-0.9019794	0.1220149	-0.03625535	-0.07262807
3.4e+08	0.01703533	-0.07258706	-0.8840694	0.2088023	-0.03370946	0.02693963	-0.0001283355	0.0131323
	-0.8840694	0.2088023	-0.03644098	-0.06964139	-0.0001530371	0.01314376	0.05232849	0.007091087
	-0.03370946	0.02693963	-0.0001530372	0.01314376	0.01648963	-0.0718614	-0.8843994	0.2096389
	-0.0001283356	0.0131323	0.05232849	0.007091087	-0.8843994	0.2096389	-0.03556822	-0.06945413
3.5e+08	0.007981223	-0.07072448	-0.8580815	0.2941045	-0.02996781	0.03639357	0.001375162	0.01386877
	-0.8580815	0.2941045	-0.03515875	-0.06707474	0.001351312	0.01388649	0.05584365	0.007591579
	-0.02996781	0.03639357	0.001351312	0.01388649	0.007447572	-0.06988119	-0.858312	0.2949846
	0.001375162	0.01386877	0.05584365	0.007591579	-0.858312	0.2949846	-0.0342115	-0.06692955
3.6e+08	-0.0009092548	-0.06730665	-0.8238694	0.3763091	-0.024647	0.04521919	0.003070926	0.01441687
	-0.8238694	0.3763091	-0.03335098	-0.06525108	0.003049428	0.01444135	0.05974209	0.007425886
	-0.024647	0.04521919	0.003049428	0.01444135	-0.001411211	-0.06634503	-0.8239946	0.3772218
	0.003070926	0.01441687	0.05974209	0.007425886	-0.8239946	0.3772218	-0.03233163	-0.06516325
3.7e+08	-0.009347947	-0.06233113	-0.7817904	0.4546173	-0.01786154	0.0531498	0.004931753	0.014735
	-0.7817904	0.4546173	-0.03117728	-0.06425028	0.004914725	0.01476586	0.06389232	0.006511728
	-0.01786154	0.0531498	0.004914725	0.01476586	-0.009798113	-0.06125394	-0.7818062	0.4555513
	0.004931753	0.014735	0.06389232	0.006511728	-0.7818062	0.4555513	-0.03009181	-0.06423522
3.8e+08	-0.01704189	-0.05585066	-0.732283	0.5282716	-0.009770875	0.05994021	0.00692229	0.01478542
	-0.732283	0.5282716	-0.02880833	-0.06412101	0.006911104	0.01482237	0.06814779	0.004794199
	-0.009770875	0.05994021	0.006911104	0.01482237	-0.01742006	-0.05466414	-0.7321852	0.5292111
	0.00692229	0.01478542	0.06814779	0.004794199	-0.7321852	0.5292111	-0.02766562	-0.06419335
3.9e+08	-0.02370364	-0.04797544	-0.6758622	0.5965605	-0.0005759694	0.0653752	0.008997685	0.01453801
	-0.6758622	0.5965605	-0.02642015	-0.06488007	0.008994748	0.01457907	0.07235319	0.002248465
	-0.0005759694	0.0653752	0.008994748	0.01457907	-0.02399111	-0.04669019	-0.6756517	0.5974934
	0.008997685	0.01453801	0.07235319	0.002248465	-0.6756517	0.5974934	-0.02523258	-0.06505162
4e+08	-0.02906412	-0.03887165	-0.6131145	0.6588331	0.009487523	0.06927593	0.01110738	0.01396982
	-0.6131145	0.6588331	-0.02418742	-0.06651048	0.0111139	0.01401367	0.07635041	-0.001119171
	0.009487523	0.06927593	0.0111139	0.01401367	-0.02924352	-0.03750117	-0.6127893	0.6597442
	0.01110738	0.01396982	0.07635041	-0.001119171	-0.6127893	0.6597442	-0.02296934	-0.06679137
4.1e+08	-0.03288342	-0.02875787	-0.5446828	0.7145055	0.02015509	0.07150565	0.01319538	0.01306841
	-0.5446828	0.7145055	-0.02227713	-0.0689634	0.01321226	0.01311287	0.07998545	-0.005271008
	0.02015509	0.07150565	0.01321226	0.01311287	-0.03293939	-0.02731934	-0.5442456	0.7153814
	0.01319538	0.01306841	0.07998545	-0.005271008	-0.5442456	0.7153814	-0.02104533	-0.06936051
4.2e+08	-0.03495949	-0.01790097	-0.4712721	0.7630635	0.03114155	0.0719748	0.01520255	0.01183295
	-0.4712721	0.7630635	-0.02084373	-0.07216066	0.01523036	0.01187515	0.08311375	-0.01014055
	0.03114155	0.0719748	0.01523036	0.01187515	-0.03487984	-0.01641459	-0.4707286	0.7638888
	0.01520255	0.01183295	0.08311375	-0.01014055	-0.4707286	0.7638888	-0.01961601	-0.07267759
4.3e+08	-0.03513963	-0.006607116	-0.3936286	0.8040717	0.0421496	0.07064326	0.0170698	0.0102733
	-0.3936286	0.8040717	-0.02002277	-0.07599725	0.01710843	0.01031086	0.08560684	-0.01563365
	0.0421496	0.07064326	0.01710843	0.01031086	-0.03491566	-0.005095204	-0.3929846	0.8048334
	0.0170698	0.0102733	0.08560684	-0.01563365	-0.3929846	0.8048334	-0.01881805	-0.07663399
4.4e+08	-0.03332696	0.004787124	-0.3125353	0.8371758	0.05287825	0.06752226	0.01873995	0.008411957
	-0.3125353	0.8371758	-0.01992735	-0.08034593	0.01878841	0.008441809	0.08735647	-0.02163375
	0.05287825	0.06752226	0.01878841	0.008441809	-0.03295374	0.006300117	-0.3118	0.8378611
	0.01873995	0.008411957	0.08735647	-0.02163375	-0.3118	0.8378611	-0.01876382	-0.08109879
4.5e+08	-0.02948644	0.01592409	-0.2288057	0.8621044	0.06303228	0.06267441	0.02016069	0.006282357
	-0.2288057	0.8621044	-0.0206443	-0.08506215	0.02021746	0.006301939	0.0882794	-0.02800567
	0.06303228	0.06267441	0.02021746	0.006301939	-0.02896336	0.01741279	-0.2279894	0.862702
	0.02016069	0.006282357	0.0882794	-0.02800567	-0.2279894	0.862702	-0.01953934	-0.08592384
4.6e+08	-0.0236487	0.026438	-0.1432687	0.878672	0.07233091	0.0562115	0.02128691	0.003927454
	-0.1432687	0.878672	-0.02223164	-0.08998949	0.02134978	0.003934955	0.08831984	-0.03460178
	0.07233091	0.0562115	0.02134978	0.003934955	-0.02297964	0.02787728	-0.1423817	0.8791723
	0.02128691	0.003927454	0.08831984	-0.03460178	-0.1423817	0.8791723	-0.02120105	-0.09094926
4.7e+08	-0.01591268	0.03596826	-0.05675747	0.8867826	0.08051662	0.04829124	0.02208288	0.001399604
	-0.05675747	0.8867826	-0.02471745	-0.09496434	0.02214899	0.001393071	0.08745139	-0.04126697
	0.08051662	0.04829124	0.02214899	0.001393071	-0.01510555	0.03733251	-0.05581399	0.8871761
	0.02208288	0.001399604	0.08745139	-0.04126697	-0.05581399	0.8871761	-0.02377442	-0.09600887
4.8e+08	-0.006442227	0.04416947	0.02989328	0.8864158	0.08736189	0.03911256	0.02252385	-0.001244469
	0.02989328	0.8864158	-0.0280991	-0.09982339	0.02258998	-0.001265466	0.08567738	-0.04784544
	0.08736189	0.03911256	0.02258998	-0.001265466	-0.005510234	0.0454351	0.03087935	0.8866999
	0.02252385	-0.001244469	0.08567738	-0.04784544	0.03087935	0.8866999	-0.02725417	-0.1009366
4.9e+08	0.004533805	0.05072494	0.1158555	0.8776412	0.09267694	0.02890933	0.02259717	-0.003943107
	0.1158555	0.8776412	-0.0323451	-0.1044075	0.02265984	-0.003979196	0.08303032	-0.05418603
	0.09267694	0.02890933	0.02265984	-0.003979196	0.005574114	0.05187046	0.1168726	0.8778112
	0.02259717	-0.003943107	0.08303032	-0.05418603	0.1168726	0.8778112	-0.03160533	-0.1055719
5e+08	0.01672906	0.05536009	0.2003293	0.8606056	0.09631366	0.01794288	0.02230212	-0.006635697
	0.2003293	0.8606056	-0.03739629	-0.108568	0.02235812	-0.006685752	0.07956995	-0.06014789
	0.09631366	0.01794288	0.02235812	-0.006685752	0.01785712	0.05636612	0.2013597	0.8606591
	0.02230212	-0.006635697	0.07956995	-0.06014789	0.2013597	0.8606591	-0.03676493	-0.109765
5.1e+08	0.02980673	0.05784929	0.2825305	0.8355267	0.09817013	0.006495083	0.02165092	-0.009262515
	0.2825305	0.8355267	-0.04316835	-0.1121706	0.02169692	-0.009325034	0.07538031	-0.06560546
	0.09817013	0.006495083	0.02169692	-0.009325034	0.03099875	0.05870087	0.2835623	0.8354663
	0.02165092	-0.009262515	0.07538031	-0.06560546	0.2835623	0.8354663	-0.04264493	-0.1133814
5.2e+08	0.04338799	0.05802861	0.3617104	0.8026985	0.09819339	-0.005141669	0.02066599	-0.01176991
	0.3617104	0.8026985	-0.04955573	-0.1150995	0.02069903	-0.01184297	0.07056642	-0.07045243
	0.09819339	-0.005141669	0.02069903	-0.01184297	0.04461783	0.05871399	0.3627309	0.8025238
