!$
! Info: Touchstone file created by Circ.  Input file=Intel_C2M_200G_6p5in_202208016_staggered.circ
!$
# Hz S RI R 50
0	0.02329417	3.601327e-24	6.917272e-05	9.651555e-23	0.0001119509	2.88175e-22	6.910746e-05	9.634348e-23
	6.917272e-05	9.651555e-23	0.02330717	3.777605e-24	6.915584e-05	9.645739e-23	0.0001115701	2.860935e-22
	0.000112008	2.883007e-22	6.915583e-05	9.645869e-23	0.02328906	3.44102e-24	6.912056e-05	9.628849e-23
	6.910745e-05	9.634479e-23	0.0001116272	2.862187e-22	6.912056e-05	9.628849e-23	0.02330513	3.577834e-24
1e+07	0.02849808	0.007933635	6.18444e-05	8.883301e-06	0.001522747	0.006055668	7.791418e-06	4.783061e-05
	6.18444e-05	8.883301e-06	0.02838226	0.007995295	5.992985e-05	4.037584e-05	0.001838833	0.006146329
	0.001522747	0.006055668	5.992985e-05	4.037584e-05	0.02902251	0.007813267	3.381017e-05	2.830499e-05
	7.791418e-06	4.783061e-05	0.001838833	0.006146329	3.381017e-05	2.830499e-05	0.02816261	0.007862693
2e+07	0.03389414	0.01144239	4.73478e-05	2.061228e-05	0.003719495	0.0113166	3.676907e-05	5.079612e-05
	4.73478e-05	2.061228e-05	0.03388047	0.01158804	7.317504e-05	3.178646e-05	0.004016441	0.01136673
	0.003719504	0.01131659	7.317504e-05	3.178646e-05	0.03415097	0.01108264	3.615383e-05	1.360709e-05
	3.676907e-05	5.079612e-05	0.004016451	0.01136672	3.615383e-05	1.360709e-05	0.03354308	0.0114734
3e+07	0.03845348	0.01268989	4.299995e-05	2.935068e-05	0.0069502	0.01603377	5.928816e-05	4.727631e-05
	4.299995e-05	2.935067e-05	0.03852265	0.01284835	8.44074e-05	2.655665e-05	0.007232431	0.01609045
	0.006950178	0.01603381	8.440739e-05	2.655665e-05	0.03850373	0.01231358	3.823616e-05	8.092782e-06
	5.928816e-05	4.727631e-05	0.007232409	0.01609049	3.823616e-05	8.09278e-06	0.03810103	0.01280091
4e+07	0.04226567	0.01280767	3.944618e-05	3.218395e-05	0.01114018	0.01989479	7.750521e-05	3.935596e-05
	3.944618e-05	3.218395e-05	0.04240863	0.01295611	9.354198e-05	1.899259e-05	0.01140779	0.01996494
	0.01114018	0.01989482	9.354198e-05	1.899259e-05	0.04215823	0.01247807	3.963742e-05	3.447604e-06
	7.750521e-05	3.935596e-05	0.01140779	0.01996496	3.963742e-05	3.447604e-06	0.04193613	0.01299171
5e+07	0.0454856	0.01227924	3.582853e-05	3.226978e-05	0.01608296	0.02276842	9.222619e-05	2.821752e-05
	3.582853e-05	3.226978e-05	0.04569712	0.01240227	0.0001034835	6.05999e-06	0.01633424	0.02285407
	0.01608296	0.02276843	0.0001034835	6.05999e-06	0.0452576	0.01203191	4.124481e-05	-2.264303e-06
	9.222619e-05	2.821751e-05	0.01633425	0.02285408	4.124481e-05	-2.264303e-06	0.04519739	0.01252929
6e+07	0.04819511	0.0113408	3.167215e-05	3.09303e-05	0.02157217	0.02452621	0.0001034573	1.441125e-05
	3.167215e-05	3.09303e-05	0.04847143	0.01142493	0.0001098309	-8.73786e-06	0.02180408	0.02462817
	0.02157218	0.02452619	0.0001098309	-8.73786e-06	0.04788056	0.01119802	4.15656e-05	-8.097642e-06
	0.0001034573	1.441125e-05	0.02180409	0.02462815	4.15656e-05	-8.097642e-06	0.04796544	0.01164736
7e+07	0.05046104	0.01017598	3.623367e-05	2.359159e-05	0.02737522	0.0250801	0.0001109673	-1.596124e-06
	3.623367e-05	2.359159e-05	0.05079849	0.01020767	0.0001121684	-2.494448e-05	0.02758363	0.0251992
	0.02737522	0.0250801	0.0001121684	-2.494448e-05	0.05009218	0.01015091	4.053675e-05	-1.379338e-05
	0.0001109673	-1.596125e-06	0.02758363	0.02519919	4.053675e-05	-1.379338e-05	0.05030564	0.01052588
8e+07	0.0523756	0.008926566	4.062717e-05	1.386328e-05	0.03324743	0.02438768	0.0001148171	-1.919428e-05
	4.062717e-05	1.386328e-05	0.05276958	0.008891021	0.0001106965	-4.167452e-05	0.03342724	0.02452535
	0.03324743	0.02438768	0.0001106965	-4.167452e-05	0.05198384	0.009026244	3.827158e-05	-1.910866e-05
	0.0001148171	-1.919428e-05	0.03342724	0.02452535	3.827158e-05	-1.910866e-05	0.05230839	0.009303177
9e+07	0.05405448	0.007689003	4.194391e-05	3.651317e-06	0.03894095	0.02245244	0.0001147603	-3.814785e-05
	4.194391e-05	3.651317e-06	0.05449815	0.007568671	0.0001053371	-5.839464e-05	0.03908641	0.0226114
	0.03894095	0.02245245	0.0001053371	-5.839464e-05	0.05367144	0.007917061	3.482908e-05	-2.382923e-05
	0.0001147603	-3.814785e-05	0.03908641	0.0226114	3.482908e-05	-2.382923e-05	0.05408691	0.008072365
1e+08	0.05567063	0.006552883	3.902052e-05	-7.140515e-06	0.04421504	0.01931983	0.0001088084	-6.000205e-05
	3.902052e-05	-7.140515e-06	0.05615028	0.006318178	9.456676e-05	-7.567325e-05	0.04432012	0.01950523
	0.04421504	0.01931982	9.456676e-05	-7.567325e-05	0.05534139	0.006921194	3.255575e-05	-2.477658e-05
	0.0001088084	-6.000205e-05	0.04432012	0.01950523	3.255575e-05	-2.477658e-05	0.0558159	0.006919641
1.1e+08	0.05735345	0.0051513	3.21998e-05	-1.166186e-05	0.04882355	0.01507095	9.343072e-05	-7.253304e-05
	3.21998e-05	-1.166186e-05	0.05781329	0.00481136	8.773036e-05	-7.405172e-05	0.04888724	0.01528833
	0.04882355	0.01507094	8.773036e-05	-7.405172e-05	0.057179	0.00553169	3.092795e-05	-2.295906e-05
	9.343072e-05	-7.253304e-05	0.04888724	0.01528833	3.092795e-05	-2.295906e-05	0.05764057	0.005407062
1.2e+08	0.05886985	0.003697581	2.787296e-05	-1.413686e-05	0.0525374	0.009898372	8.357585e-05	-7.805799e-05
	2.787296e-05	-1.413686e-05	0.05930708	0.003269223	8.257128e-05	-7.213251e-05	0.05255522	0.01015109
	0.0525374	0.00989837	8.257128e-05	-7.213251e-05	0.05876048	0.004069028	2.940657e-05	-2.216793e-05
	8.357585e-05	-7.805799e-05	0.05255521	0.01015108	2.940657e-05	-2.216793e-05	0.05921603	0.003844237
1.3e+08	0.06036658	0.002210166	2.488553e-05	-1.657699e-05	0.0552004	0.003975305	8.110246e-05	-7.712566e-05
	2.488553e-05	-1.657699e-05	0.06077502	0.001698869	7.740487e-05	-7.092177e-05	0.05516774	0.004268905
	0.0552004	0.003975304	7.740487e-05	-7.092177e-05	0.06029694	0.002581258	2.794155e-05	-2.20897e-05
	8.110246e-05	-7.712566e-05	0.05516773	0.004268903	2.794155e-05	-2.20897e-05	0.06074445	0.002262476
1.4e+08	0.06190757	0.0006398321	2.278023e-05	-1.906652e-05	0.05668239	-0.002491239	7.815874e-05	-7.721759e-05
	2.278023e-05	-1.906652e-05	0.06228021	4.949746e-05	7.23399e-05	-7.008828e-05	0.05659515	-0.002149626
	0.05668238	-0.00249124	7.23399e-05	-7.008828e-05	0.06187248	0.001010321	2.65557e-05	-2.215098e-05
	7.815874e-05	-7.721759e-05	0.05659514	-0.002149626	2.65557e-05	-2.215098e-05	0.06230775	0.0006003183
1.5e+08	0.06352405	-0.001080893	2.077047e-05	-2.134681e-05	0.05689051	-0.009271469	7.481684e-05	-7.80188e-05
	2.077047e-05	-2.134681e-05	0.06385344	-0.001746518	6.739468e-05	-6.950326e-05	0.05674555	-0.008873294
	0.05689051	-0.009271469	6.739468e-05	-6.950326e-05	0.06351922	-0.0007184421	2.523419e-05	-2.235532e-05
	7.481684e-05	-7.80188e-05	0.05674555	-0.008873294	2.523419e-05	-2.235532e-05	0.06393676	-0.001218198
1.6e+08	0.06521833	-0.003028411	1.87799e-05	-2.353793e-05	0.05577481	-0.01612077	7.107494e-05	-7.934031e-05
	1.87799e-05	-2.353793e-05	0.06549693	-0.003765299	6.253968e-05	-6.910839e-05	0.0555703	-0.01565625
	0.05577481	-0.01612077	6.253968e-05	-6.910839e-05	0.06523597	-0.002683706	2.394293e-05	-2.27105e-05
	7.107494e-05	-7.934031e-05	0.0555703	-0.01565625	2.394293e-05	-2.27105e-05	0.06562932	-0.003272188
1.7e+08	0.06696501	-0.005281436	1.672403e-05	-2.571594e-05	0.05333063	-0.02278809	6.689979e-05	-8.104222e-05
	1.672403e-05	-2.571594e-05	0.06718498	-0.0060848	5.776344e-05	-6.924076e-05	0.05306639	-0.0222464
	0.05333063	-0.02278809	5.776344e-05	-6.924076e-05	0.06699321	-0.004962311	2.263704e-05	-2.332241e-05
	6.689979e-05	-8.104222e-05	0.05306639	-0.02224639	2.263704e-05	-2.332241e-05	0.06735508	-0.005638501
1.8e+08	0.06871133	-0.007913936	1.451483e-05	-2.792264e-05	0.04959947	-0.02902442	6.224197e-05	-8.300144e-05
	1.451483e-05	-2.792264e-05	0.06886492	-0.008778199	5.283272e-05	-6.972834e-05	0.04927733	-0.02839402
	0.04959947	-0.02902442	5.283272e-05	-6.972834e-05	0.06873549	-0.007624378	2.122319e-05	-2.424535e-05
	6.224197e-05	-8.300144e-05	0.04927733	-0.02839402	2.122319e-05	-2.424535e-05	0.06905755	-0.00838671
1.9e+08	0.0703786	-0.01098831	1.206711e-05	-3.016664e-05	0.0446684	-0.03459131	5.705342e-05	-8.509831e-05
	1.206711e-05	-3.016664e-05	0.07045818	-0.01190691	4.763424e-05	-7.021434e-05	0.04429243	-0.03386036
	0.0446684	-0.03459131	4.763424e-05	-7.021434e-05	0.0703831	-0.01072759	1.961051e-05	-2.527896e-05
	5.705342e-05	-8.509831e-05	0.04429243	-0.03386036	1.961051e-05	-2.527896e-05	0.07065618	-0.01157363
2e+08	0.07186512	-0.01454812	9.291576e-06	-3.242879e-05	0.03866705	-0.03926892	5.128732e-05	-8.720916e-05
	9.291576e-06	-3.242879e-05	0.07186331	-0.01551332	4.214397e-05	-7.063223e-05	0.03824372	-0.03842564
	0.03866705	-0.03926892	4.214397e-05	-7.063223e-05	0.07183544	-0.01431152	1.775723e-05	-2.639281e-05
	5.128732e-05	-8.720916e-05	0.03824372	-0.03842564	1.775723e-05	-2.639281e-05	0.0720497	-0.01523761
2.1e+08	0.07305188	-0.01861193	6.103156e-06	-3.466073e-05	0.03176377	-0.04286327	4.490653e-05	-8.920171e-05
	6.103156e-06	-3.466073e-05	0.07296173	-0.01961479	3.633281e-05	-7.09079e-05	0.03130206	-0.04189653
	0.03176377	-0.04286327	3.633281e-05	-7.09079e-05	0.07297486	-0.01839085	1.56215e-05	-2.754649e-05
	4.490653e-05	-8.920171e-05	0.03130206	-0.04189653	1.56215e-05	-2.754649e-05	0.07311993	-0.01939174
2.2e+08	0.07380761	-0.02316923	2.428447e-06	-3.678692e-05	0.02416037	-0.04521288	3.788999e-05	-9.093455e-05
	2.428447e-06	-3.678692e-05	0.07362279	-0.02419942	3.018283e-05	-7.095902e-05	0.02367175	-0.04411275
	0.02416037	-0.04521288	3.018283e-05	-7.095902e-05	0.07367312	-0.02295194	1.316444e-05	-2.868834e-05
	3.788999e-05	-9.093455e-05	0.02367175	-0.04411275	1.316444e-05	-2.868834e-05	0.07373846	-0.02402055
2.3e+08	0.07399703	-0.02817681	-1.020512e-06	-3.876321e-05	0.01608575	-0.04619464	3.015802e-05	-9.224684e-05
	-1.020512e-06	-3.876321e-05	0.07371215	-0.02922256	2.360665e-05	-7.068456e-05	0.01558403	-0.04495285
	0.01608575	-0.04619464	2.360665e-05	-7.068456e-05	0.07379804	-0.02794998	1.035928e-05	-2.975585e-05
	3.015802e-05	-9.224684e-05	0.01558403	-0.04495285	1.035928e-05	-2.975585e-05	0.07377328	-0.02907705
2.4e+08	0.07348843	-0.03355742	-5.145624e-06	-4.051399e-05	0.007788968	-0.04572748	2.181705e-05	-9.297143e-05
	-5.145624e-06	-4.051399e-05	0.07309933	-0.03460548	1.669311e-05	-6.997526e-05	0.00729001	-0.04433801
	0.007788968	-0.04572748	1.669311e-05	-6.997526e-05	0.07322091	-0.03330611	7.177288e-06	-3.067627e-05
	2.181705e-05	-9.297143e-05	0.00729001	-0.04433801	7.177288e-06	-3.067627e-05	0.07309631	-0.03448004
2.5e+08	0.07216169	-0.03919988	-1.001094e-05	-4.187083e-05	-0.0004687855	-0.04377556	1.292858e-05	-9.295461e-05
	-1.001094e-05	-4.187083e-05	0.07166581	-0.04023558	9.475342e-06	-6.873257e-05	-0.0009473416	-0.04223516
	-0.0004687857	-0.04377556	9.475342e-06	-6.873257e-05	0.0718251	-0.03890918	3.608718e-06	-3.136551e-05
	1.292858e-05	-9.295461e-05	-0.0009473418	-0.04223516	3.608718e-06	-3.136551e-05	0.07159214	-0.0401159
2.6e+08	0.0699164	-0.04496188	-1.558324e-05	-4.265758e-05	-0.008422289	-0.04035031	3.577578e-06	-9.204658e-05
	-1.558324e-05	-4.265758e-05	0.06931326	-0.04596926	2.000021e-06	-6.685732e-05	-0.00886167	-0.03865887
	-0.008422289	-0.04035031	2.000021e-06	-6.685732e-05	0.06951307	-0.04461673	-3.410143e-07	-3.173253e-05
	3.577578e-06	-9.204658e-05	-0.008861671	-0.03865887	-3.410143e-07	-3.173253e-05	0.06916505	-0.04583979
2.7e+08	0.0666792	-0.05067373	-2.179406e-05	-4.269793e-05	-0.01581024	-0.0355096	-6.12185e-06	-9.010679e-05
	-2.179406e-05	-4.269793e-05	0.06597072	-0.05163578	-5.666663e-06	-6.425223e-05	-0.01619102	-0.03367055
	-0.01581024	-0.0355096	-5.666663e-06	-6.425223e-05	0.0662144	-0.05025987	-4.649266e-06	-3.168163e-05
	-6.12185e-06	-9.010679e-05	-0.01619102	-0.03367055	-4.649266e-06	-3.168163e-05	0.06574708	-0.05148058
2.8e+08	0.06241062	-0.05614356	-2.853511e-05	-4.18229e-05	-0.02238387	-0.02935724	-1.602456e-05	-8.701014e-05
	-2.853511e-05	-4.18229e-05	0.06160157	-0.05704257	-1.34382e-05	-6.08262e-05	-0.02268672	-0.0273777
	-0.02238387	-0.02935724	-1.34382e-05	-6.08262e-05	0.0618924	-0.05564823	-9.271788e-06	-3.111633e-05
	-1.602456e-05	-8.701014e-05	-0.02268672	-0.0273777	-9.271788e-06	-3.111633e-05	0.06130468	-0.05684606
2.9e+08	0.05711007	-0.06116523	-3.566179e-05	-3.987884e-05	-0.02791468	-0.02204018	-2.595702e-05	-8.265374e-05
	-3.566179e-05	-3.987884e-05	0.05620845	-0.06198332	-2.120541e-05	-5.649868e-05	-0.02812107	-0.01993106
	-0.02791468	-0.02204018	-2.120541e-05	-5.649868e-05	0.05654857	-0.06057687	-1.414429e-05	-2.994301e-05
	-2.595702e-05	-8.265374e-05	-0.02812107	-0.01993106	-1.414429e-05	-2.994301e-05	0.05584306	-0.06172996
3e+08	0.05081983	-0.06552609	-4.299647e-05	-3.673447e-05	-0.03220132	-0.01374418	-3.572137e-05	-7.696131e-05
	-4.299647e-05	-3.673447e-05	0.04983709	-0.06624579	-2.883873e-05	-5.120452e-05	-0.03229427	-0.01152009
	-0.03220132	-0.01374418	-2.883873e-05	-5.120452e-05	0.05022706	-0.06483524	-1.918101e-05	-2.807541e-05
	-3.572137e-05	-7.696131e-05	-0.03229427	-0.01152009	-1.918101e-05	-2.807541e-05	0.04941057	-0.06592113
3.1e+08	0.04362677	-0.06901631	-5.032668e-05	-3.229204e-05	-0.03507675	-0.004688978	-4.509903e-05	-6.989048e-05
	-5.032668e-05	-3.229204e-05	0.04257797	-0.06962132	-3.619226e-05	-4.489524e-05	-0.03504163	-0.002367984
	-0.03507675	-0.004688978	-3.619226e-05	-4.489524e-05	0.04301639	-0.06821509	-2.427466e-05	-2.543999e-05
	-4.509903e-05	-6.989048e-05	-0.03504163	-0.002367984	-2.427466e-05	-2.543999e-05	0.04210029	-0.06921158
3.2e+08	0.03566256	-0.07143777	-5.741855e-05	-2.648845e-05	-0.03641352	0.00487807	-5.385582e-05	-6.143695e-05
	-5.741855e-05	-2.648845e-05	0.0345663	-0.07191368	-4.310115e-05	-3.754863e-05	-0.03623875	0.007274859
	-0.03641352	0.00487807	-4.310115e-05	-3.754863e-05	0.03504997	-0.07052137	-2.930022e-05	-2.197826e-05
	-5.385582e-05	-6.143695e-05	-0.03623875	0.007274859	-2.930022e-05	-2.197826e-05	0.03405035	-0.07140746
3.3e+08	0.02710159	-0.07261437	-6.401822e-05	-1.930545e-05	-0.03612779	0.01468912	-6.175061e-05	-5.163658e-05
	-6.401822e-05	-1.930545e-05	0.0259799	-0.07294952	-4.939056e-05	-2.916642e-05	-0.03580537	0.0171381
	-0.03612779	0.01468912	-4.939056e-05	-2.916642e-05	0.02650309	-0.07158002	-3.411463e-05	-1.765463e-05
	-6.175061e-05	-5.163658e-05	-0.03580537	0.0171381	-3.411463e-05	-1.765463e-05	0.02544068	-0.072337
3.4e+08	0.01815755	-0.07240076	-6.986304e-05	-1.077063e-05	-0.03418335	0.02446392	-6.854011e-05	-4.057184e-05
	-6.986304e-05	-1.077063e-05	0.01703533	-0.07258706	-5.487413e-05	-1.978121e-05	-0.03370946	0.02693963
	-0.03418335	0.02446392	-5.487413e-05	-1.978121e-05	0.01758978	-0.07124891	-3.856314e-05	-1.245662e-05
	-6.854011e-05	-4.057184e-05	-0.03370946	0.02693963	-3.856314e-05	-1.245662e-05	0.01648963	-0.0718614
3.5e+08	0.009076654	-0.07069089	-7.468847e-05	-9.638742e-07	-0.03059247	0.03391771	-7.399091e-05	-2.836412e-05
	-7.468847e-05	-9.638742e-07	0.007981223	-0.07072448	-5.936643e-05	-9.462979e-06	-0.02996781	0.03639357
	-0.03059247	0.03391771	-5.936643e-05	-9.462979e-06	0.008556598	-0.06942423	-4.24814e-05	-6.401094e-06
	-7.399091e-05	-2.836412e-05	-0.02996781	0.03639357	-4.24814e-05	-6.401094e-06	0.007447572	-0.06988119
3.6e+08	0.000130576	-0.06742469	-7.823848e-05	9.991163e-06	-0.02541698	0.04276996	-7.788286e-05	-1.518259e-05
	-7.823848e-05	9.991163e-06	-0.0009092548	-0.06730665	-6.268343e-05	1.689841e-06	-0.024647	0.04521919
	-0.02541698	0.04276996	-6.268343e-05	1.689841e-06	-0.0003250983	-0.06604944	-4.570197e-05	4.630827e-07
	-7.788286e-05	-1.518259e-05	-0.024647	0.04521919	-4.570197e-05	4.630827e-07	-0.001411211	-0.06634503
3.7e+08	-0.008393157	-0.06259441	-8.027632e-05	2.191504e-05	-0.01876652	0.0507534	-8.001999e-05	-1.236836e-06
	-8.027632e-05	2.191504e-05	-0.009347947	-0.06233113	-6.464923e-05	1.353627e-05	-0.01786154	0.0531498
	-0.01876652	0.0507534	-6.464923e-05	1.353627e-05	-0.008768672	-0.06111959	-4.806073e-05	8.058956e-06
	-8.001999e-05	-1.236836e-06	-0.01786154	0.0531498	-4.806073e-05	8.058956e-06	-0.009798113	-0.06125394
3.8e+08	-0.01620112	-0.05624723	-8.05889e-05	3.459025e-05	-0.01079585	0.05762133	-8.023762e-05	1.322645e-05
	-8.05889e-05	3.459025e-05	-0.01704189	-0.05585066	-6.510484e-05	2.590489e-05	-0.009770875	0.05994021
	-0.01079585	0.05762133	-6.510484e-05	2.590489e-05	-0.01648185	-0.05468441	-4.94026e-05	1.627195e-05
	-8.023762e-05	1.322645e-05	-0.009770875	0.05994021	-4.94026e-05	1.627195e-05	-0.01742006	-0.05466414
3.9e+08	-0.02300432	-0.04848778	-7.899916e-05	4.775489e-05	-0.001701375	0.06315625	-7.840689e-05	2.793244e-05
	-7.899916e-05	4.775489e-05	-0.02370364	-0.04797544	-6.391438e-05	3.858935e-05	-0.0005759694	0.0653752
	-0.001701375	0.06315625	-6.391438e-05	3.858935e-05	-0.02317817	-0.04685181	-4.958663e-05	2.496214e-05
	-7.840689e-05	2.793244e-05	-0.0005759694	0.0653752	-4.958663e-05	2.496214e-05	-0.02399111	-0.04669019
4e+08	-0.028531	-0.03947687	-7.537133e-05	6.11109e-05	0.008285354	0.06717613	-7.444457e-05	4.257325e-05
	-7.537133e-05	6.11109e-05	-0.02906412	-0.03887165	-6.09724e-05	5.135065e-05	0.009487523	0.06927593
	0.008285354	0.06717613	-6.09724e-05	5.135065e-05	-0.02858806	-0.03778409	-4.849524e-05	3.395471e-05
	-7.444457e-05	4.257325e-05	0.009487523	0.06927593	-4.849524e-05	3.395471e-05	-0.02924352	-0.03750117
4.1e+08	-0.03253751	-0.02942822	-6.961561e-05	7.433698e-05	0.01890343	0.06954039	-6.831031e-05	5.682852e-05
	-6.961561e-05	7.433698e-05	-0.03288342	-0.02875787	-5.621023e-05	6.392544e-05	0.02015509	0.07150565
	0.01890343	0.06954039	-5.621023e-05	6.392544e-05	-0.03247046	-0.02769717	-4.60354e-05	4.305576e-05
	-6.831031e-05	5.682852e-05	0.02015509	0.07150565	-4.60354e-05	4.305576e-05	-0.03293939	-0.02731934
4.2e+08	-0.03481714	-0.0186045	-6.169376e-05	8.708787e-05	0.02987062	0.07015497	-6.002e-05	7.036176e-05
	-6.169376e-05	8.708787e-05	-0.03495949	-0.01790097	-4.960372e-05	7.603392e-05	0.03114155	0.0719748
	0.02987062	0.07015497	-4.960372e-05	7.603392e-05	-0.03462209	-0.01685507	-4.214696e-05	5.204696e-05
	-6.002e-05	7.036176e-05	0.03114155	0.0719748	-4.214696e-05	5.204696e-05	-0.03487984	-0.01641459
4.3e+08	-0.03521175	-0.007308553	-5.16233e-05	9.900703e-05	0.04089186	0.06897468	-4.96395e-05	8.283499e-05
	-5.16233e-05	9.900703e-05	-0.03513963	-0.006607116	-4.117164e-05	8.737972e-05	0.0421496	0.07064326
	0.04089186	0.06897468	-4.117164e-05	8.737972e-05	-0.03488817	-0.005560983	-3.680601e-05	6.06968e-05
	-4.96395e-05	8.283499e-05	0.0421496	0.07064326	-3.680601e-05	6.06968e-05	-0.03491566	-0.005095204
4.4e+08	-0.03361834	0.004125451	-3.948149e-05	0.0001097352	0.05166749	0.06600531	-3.728524e-05	9.391793e-05
	-3.948149e-05	0.0001097352	-0.03332696	0.004787124	-3.098498e-05	9.766695e-05	0.05287825	0.06752226
	0.05166749	0.06600531	-3.098498e-05	9.766695e-05	-0.03316913	0.00585038	-3.002709e-05	6.876364e-05
	-3.728524e-05	9.391793e-05	0.05287825	0.06752226	-3.002709e-05	6.876364e-05	-0.03295374	0.006300117
4.5e+08	-0.02999534	0.01534112	-2.53994e-05	0.0001189174	0.06190278	0.06130368	-2.313213e-05	0.000103289
	-2.53994e-05	0.0001189174	-0.02948644	0.01592409	-1.916628e-05	0.0001066051	0.06303228	0.06267441
	0.06190278	0.06130368	-1.916628e-05	0.0001066051	-0.02942693	0.01702341	-2.186099e-05	7.600626e-05
	-2.313213e-05	0.000103289	0.06303228	0.06267441	-2.186099e-05	7.600626e-05	-0.02896336	0.01741279
4.6e+08	-0.02436669	0.02597285	-9.568248e-06	0.0001262122	0.07131638	0.0549757	-7.404546e-06	0.000110649
	-9.568248e-06	0.0001262122	-0.0236487	0.026438	-5.880859e-06	0.000113919	0.07233091	0.0562115
	0.07131638	0.0549757	-5.880859e-06	0.000113919	-0.02368888	0.02759424	-1.240346e-05	8.218616e-05
	-7.404546e-06	0.000110649	0.07233091	0.0562115	-1.240346e-05	8.218616e-05	-0.02297964	0.02787728
4.7e+08	-0.01682451	0.03565905	7.765868e-06	0.0001313019	0.07964924	0.04717322	9.62905e-06	0.000115731
	7.765868e-06	0.0001313019	-0.01591268	0.03596826	8.652532e-06	0.0001193526	0.08051662	0.04829124
	0.07964924	0.04717322	8.652532e-06	0.0001193526	-0.01604973	0.03720201	-1.789359e-06	8.707427e-05
	9.62905e-06	0.000115731	0.08051662	0.04829124	-1.789359e-06	8.707427e-05	-0.01510555	0.03733251
4.8e+08	-0.00752605	0.04405228	2.629841e-05	0.0001338991	0.08667124	0.03808954	2.764725e-05	0.000118301
	2.629841e-05	0.0001338991	-0.006442227	0.04416947	2.417692e-05	0.0001226838	0.08736189	0.03911256
