!$
! Info: Touchstone file created by Circ.  Input file=Intel_C2M_200G_3p5in_202208016_staggered.circ
!$
# Hz S RI R 50
0	0.01494301	2.317164e-24	4.563032e-05	5.394726e-23	8.944444e-05	2.471233e-22	4.562277e-05	5.383974e-23
	4.563032e-05	5.394726e-23	0.01495617	2.59768e-24	4.563505e-05	5.399743e-23	8.903533e-05	2.45778e-22
	8.95025e-05	2.472512e-22	4.563505e-05	5.399842e-23	0.01493782	2.402609e-24	4.56254e-05	5.388308e-23
	4.562276e-05	5.384073e-23	8.90934e-05	2.459057e-22	4.56254e-05	5.388308e-23	0.0149541	2.465026e-24
1e+07	0.0180383	0.002578229	2.87425e-06	1.813854e-05	0.00111187	0.004768311	6.199832e-06	1.384762e-05
	2.874251e-06	1.813856e-05	0.01803132	0.002851756	1.903412e-06	1.863148e-05	0.001117479	0.004828512
	0.00111187	0.004768311	1.903412e-06	1.863148e-05	0.01800802	0.002900736	2.876659e-06	1.86535e-05
	6.199832e-06	1.384762e-05	0.001117479	0.004828512	2.876659e-06	1.86535e-05	0.01806641	0.002605197
2e+07	0.02084333	0.00252202	5.651844e-06	1.446312e-05	0.002333963	0.009023981	4.022966e-06	9.016867e-06
	5.651843e-06	1.446315e-05	0.02111608	0.002974169	1.264022e-05	2.112081e-05	0.002345575	0.009143183
	0.002333974	0.009023969	1.264022e-05	2.112081e-05	0.0211015	0.003072904	6.114331e-06	1.533026e-05
	4.022966e-06	9.016866e-06	0.002345586	0.009143171	6.114331e-06	1.533026e-05	0.02088512	0.002567924
3e+07	0.02293389	0.001242177	1.024137e-05	1.30463e-05	0.004111202	0.01313133	2.63273e-06	8.172664e-06
	1.024137e-05	1.30463e-05	0.02341814	0.001712936	2.240464e-05	2.089263e-05	0.004132446	0.01330765
	0.004111172	0.01313137	2.240464e-05	2.089263e-05	0.02340971	0.001867004	1.106063e-05	1.402339e-05
	2.632731e-06	8.172664e-06	0.004132416	0.01330768	1.106063e-05	1.402339e-05	0.02298014	0.001307159
4e+07	0.02433028	-0.0006284137	1.397373e-05	1.129057e-05	0.006491028	0.01689322	3.683713e-06	6.997682e-06
	1.397373e-05	1.129057e-05	0.02498557	-0.0001933313	3.028393e-05	1.828281e-05	0.006524854	0.01712394
	0.006491021	0.01689325	3.028393e-05	1.828281e-05	0.02499495	1.34068e-05	1.509765e-05	1.229922e-05
	3.683713e-06	6.997682e-06	0.006524847	0.01712396	1.509765e-05	1.229922e-05	0.02438482	-0.0005482485
5e+07	0.02516151	-0.00275569	1.700777e-05	9.084869e-06	0.009397822	0.02026961	5.259612e-06	5.549059e-06
	1.700777e-05	9.084869e-06	0.02595782	-0.002389319	3.660166e-05	1.408422e-05	0.009446644	0.02055146
	0.009397823	0.02026962	3.660166e-05	1.408422e-05	0.02599135	-0.002133299	1.840935e-05	1.007468e-05
	5.259612e-06	5.549058e-06	0.009446645	0.02055147	1.840935e-05	1.007467e-05	0.02522368	-0.00266241
6e+07	0.02549918	-0.004995902	1.941539e-05	6.482297e-06	0.01278091	0.02319813	6.423142e-06	3.936705e-06
	1.941539e-05	6.482297e-06	0.02641148	-0.004722251	4.149022e-05	8.721825e-06	0.0128465	0.02352729
	0.01278093	0.02319812	4.149022e-05	8.721825e-06	0.02647471	-0.004420657	2.108023e-05	7.412164e-06
	6.423141e-06	3.936705e-06	0.01284652	0.02352728	2.108023e-05	7.412164e-06	0.0255685	-0.004890242
7e+07	0.02538576	-0.007231776	2.122525e-05	3.538395e-06	0.01657704	0.02562128	7.173274e-06	2.192306e-06
	2.122525e-05	3.538395e-06	0.02639159	-0.007070596	4.500246e-05	2.474264e-06	0.01666039	0.02599351
	0.01657704	0.02562128	4.500246e-05	2.474264e-06	0.02648964	-0.006728175	2.31443e-05	4.366887e-06
	7.173274e-06	2.192306e-06	0.01666039	0.0259935	2.31443e-05	4.366887e-06	0.0254625	-0.007114296
8e+07	0.02487507	-0.009359609	2.243299e-05	2.84541e-07	0.02071651	0.02749017	7.496571e-06	3.575122e-07
	2.243299e-05	2.845409e-07	0.02595296	-0.009329507	4.711993e-05	-4.498653e-06	0.02081779	0.0279009
	0.02071651	0.02749017	4.711993e-05	-4.498653e-06	0.02609022	-0.008951682	2.459922e-05	9.645045e-07
	7.496571e-06	3.575121e-07	0.02081779	0.0279009	2.459922e-05	9.645044e-07	0.02496019	-0.009230653
9e+07	0.02403752	-0.01129344	2.298908e-05	-3.303789e-06	0.0251251	0.02876484	7.360215e-06	-1.533699e-06
	2.298908e-05	-3.303789e-06	0.02516491	-0.01141626	4.772543e-05	-1.217842e-05	0.02524358	0.02920941
	0.0251251	0.02876485	4.772543e-05	-1.217842e-05	0.02534427	-0.01100926	2.539463e-05	-2.834248e-06
	7.360215e-06	-1.533699e-06	0.02524358	0.02920942	2.539463e-05	-2.834248e-06	0.02413211	-0.01115371
1e+08	0.02297833	-0.01293615	2.256008e-05	-7.653246e-06	0.02972648	0.0294144	6.559689e-06	-3.558901e-06
	2.256008e-05	-7.653246e-06	0.02412038	-0.01326129	4.604911e-05	-2.135884e-05	0.02986049	0.0298882
	0.02972648	0.0294144	4.604911e-05	-2.135884e-05	0.02434311	-0.0128319	2.518471e-05	-7.52468e-06
	6.559689e-06	-3.558901e-06	0.02986049	0.02988819	2.518471e-05	-7.52468e-06	0.02308377	-0.01278696
1.1e+08	0.02184394	-0.01448562	1.987787e-05	-1.047388e-05	0.03445395	0.02940864	4.961917e-06	-4.51734e-06
	1.987787e-05	-1.047388e-05	0.02287556	-0.01496011	3.974953e-05	-2.699857e-05	0.03460094	0.02990733
	0.03445395	0.02940864	3.974953e-05	-2.699857e-05	0.02320385	-0.01452768	2.246533e-05	-1.067957e-05
	4.961917e-06	-4.51734e-06	0.03460095	0.02990733	2.246533e-05	-1.067957e-05	0.02201937	-0.01434073
1.2e+08	0.02046515	-0.0157946	1.765254e-05	-1.217986e-05	0.03917519	0.02874321	3.68704e-06	-4.994976e-06
	1.765254e-05	-1.217986e-05	0.02140143	-0.01636022	3.494442e-05	-3.021087e-05	0.03933159	0.02926274
	0.03917519	0.02874321	3.494442e-05	-3.021087e-05	0.02177736	-0.01594992	2.020742e-05	-1.262453e-05
	3.68704e-06	-4.994976e-06	0.03933159	0.02926273	2.020742e-05	-1.262453e-05	0.02065328	-0.01567214
1.3e+08	0.01895967	-0.01680164	1.620772e-05	-1.255652e-05	0.04381992	0.0274244	2.589816e-06	-5.337323e-06
	1.620772e-05	-1.255652e-05	0.01980634	-0.01743364	3.335682e-05	-2.888812e-05	0.04398135	0.02796125
	0.04381992	0.0274244	3.335682e-05	-2.888812e-05	0.02020515	-0.0170365	1.890607e-05	-1.287078e-05
	2.589816e-06	-5.337323e-06	0.04398135	0.02796125	1.890607e-05	-1.287078e-05	0.0191382	-0.01668634
1.4e+08	0.01740679	-0.01749658	1.529525e-05	-1.199945e-05	0.04831028	0.02546657	1.604364e-06	-5.568846e-06
	1.529525e-05	-1.199945e-05	0.01816833	-0.01817791	3.172899e-05	-2.790746e-05	0.04847167	0.02601791
	0.04831027	0.02546657	3.172899e-05	-2.790746e-05	0.01858626	-0.01778507	1.806893e-05	-1.229191e-05
	1.604364e-06	-5.568846e-06	0.04847167	0.0260179	1.806893e-05	-1.229191e-05	0.01757585	-0.01737423
1.5e+08	0.01587621	-0.01788348	1.464589e-05	-1.153134e-05	0.05256782	0.02289267	6.826631e-07	-5.648314e-06
	1.464589e-05	-1.153134e-05	0.01655686	-0.01860107	3.004546e-05	-2.710169e-05	0.05272348	0.02345637
	0.05256782	0.02289266	3.004546e-05	-2.710169e-05	0.01699639	-0.01821052	1.724783e-05	-1.179662e-05
	6.826632e-07	-5.648314e-06	0.05272348	0.02345637	1.724783e-05	-1.179662e-05	0.01604319	-0.01774777
1.6e+08	0.01443163	-0.01797751	1.398975e-05	-1.113001e-05	0.0565164	0.01973469	-9.840742e-08	-5.621948e-06
	1.398975e-05	-1.113001e-05	0.01503574	-0.01872088	2.833739e-05	-2.639096e-05	0.05666009	0.02030954
	0.0565164	0.01973469	2.833739e-05	-2.639096e-05	0.01549979	-0.01833571	1.660196e-05	-1.139563e-05
	-9.840739e-08	-5.621948e-06	0.05666008	0.02030954	1.660196e-05	-1.139563e-05	0.01460524	-0.01782847
1.7e+08	0.0131318	-0.01780397	1.333361e-05	-1.077424e-05	0.06008373	0.0160334	-6.498382e-07	-5.572513e-06
	1.333361e-05	-1.077424e-05	0.0136639	-0.01856463	2.662643e-05	-2.573576e-05	0.06020887	0.0166191
	0.06008373	0.0160334	2.662643e-05	-2.573576e-05	0.01415297	-0.01819051	1.595507e-05	-1.105431e-05
	-6.498382e-07	-5.572513e-06	0.06020887	0.0166191	1.595507e-05	-1.105431e-05	0.01331897	-0.01764564
1.8e+08	0.01202907	-0.01739788	1.268323e-05	-1.046043e-05	0.06320282	0.01183788	-1.02515e-06	-5.262206e-06
	1.268323e-05	-1.046043e-05	0.01249382	-0.01816898	2.492594e-05	-2.510334e-05	0.06330256	0.01243514
	0.06320282	0.01183788	2.492594e-05	-2.510334e-05	0.01300573	-0.0178123	1.531096e-05	-1.076692e-05
	-1.02515e-06	-5.262206e-06	0.06330256	0.01243514	1.531096e-05	-1.076692e-05	0.01223439	-0.01723653
1.9e+08	0.01116905	-0.01680307	1.204092e-05	-1.016097e-05	0.06581332	0.007205105	-1.364088e-06	-4.910204e-06
	1.204092e-05	-1.016097e-05	0.01157119	-0.01757921	2.324856e-05	-2.445799e-05	0.0658807	0.007815734
	0.06581332	0.007205105	2.324856e-05	-2.445799e-05	0.01210114	-0.01724576	1.46714e-05	-1.050355e-05
	-1.364088e-06	-4.910204e-06	0.0658807	0.007815733	1.46714e-05	-1.050355e-05	0.01139453	-0.01664605
2e+08	0.01058857	-0.01607128	1.141093e-05	-9.865e-06	0.06786217	0.002198801	-1.682947e-06	-4.543295e-06
	1.141093e-05	-9.865e-06	0.01093274	-0.01684829	2.16061e-05	-2.378443e-05	0.06789027	0.002825678
	0.06786217	0.0021988	2.16061e-05	-2.378443e-05	0.01147466	-0.01654225	1.403975e-05	-1.025221e-05
	-1.682947e-06	-4.543295e-06	0.06789027	0.002825678	1.403975e-05	-1.025221e-05	0.0108346	-0.01592585
2.1e+08	0.01031455	-0.0152597	1.079665e-05	-9.567206e-06	0.06930433	-0.00311137	-1.977742e-06	-4.161029e-06
	1.079665e-05	-9.567206e-06	0.01060531	-0.01603464	2.000831e-05	-2.307343e-05	0.06928643	-0.002464288
	0.06930433	-0.00311137	2.000831e-05	-2.307343e-05	0.01115176	-0.0157588	1.341877e-05	-1.000631e-05
	-1.977742e-06	-4.161029e-06	0.06928643	-0.002464288	1.341877e-05	-1.000631e-05	0.01057961	-0.01513343
2.2e+08	0.01036355	-0.01443071	1.020118e-05	-9.263659e-06	0.07010335	-0.00865095	-2.245028e-06	-3.763943e-06
	1.020118e-05	-9.263659e-06	0.01060512	-0.01520172	1.84641e-05	-2.231899e-05	0.07003312	-0.007978617
	0.07010335	-0.00865095	1.84641e-05	-2.231899e-05	0.01114819	-0.01495652	1.281098e-05	-9.760778e-06
	-2.245028e-06	-3.763943e-06	0.07003312	-0.007978617	1.281098e-05	-9.760778e-06	0.01064467	-0.01433031
2.3e+08	0.01074102	-0.01364894	9.627233e-06	-8.951846e-06	0.07023225	-0.01434184	-2.481867e-06	-3.353355e-06
	9.627233e-06	-8.951846e-06	0.01093726	-0.01441513	1.698144e-05	-2.151801e-05	0.07010381	-0.01363817
	0.07023225	-0.01434184	1.698144e-05	-2.151801e-05	0.01146956	-0.01419933	1.221857e-05	-9.511976e-06
	-2.481867e-06	-3.353355e-06	0.07010381	-0.01363817	1.221857e-05	-9.511976e-06	0.01103452	-0.01358083
2.4e+08	0.0114411	-0.01297977	9.077316e-06	-8.630313e-06	0.06967327	-0.02010307	-2.685769e-06	-2.931208e-06
	9.077316e-06	-8.630313e-06	0.01159526	-0.01374108	1.55675e-05	-2.066973e-05	0.06948146	-0.01936098
	0.06967327	-0.02010307	1.55675e-05	-2.066973e-05	0.01210947	-0.01355198	1.164365e-05	-9.257342e-06
	-2.685769e-06	-2.931208e-06	0.06948146	-0.01936098	1.164365e-05	-9.257342e-06	0.01174177	-0.01295006
2.5e+08	0.01244629	-0.01248755	8.553578e-06	-8.298473e-06	0.06841828	-0.0258523	-2.85473e-06	-2.49992e-06
	8.553578e-06	-8.298473e-06	0.012561	-0.01324466	1.422869e-05	-1.977514e-05	0.0681587	-0.02506376
	0.06841828	-0.0258523	1.422869e-05	-1.977514e-05	0.01305117	-0.01307802	1.108803e-05	-8.995198e-06
	-2.85473e-06	-2.49992e-06	0.0681587	-0.02506376	1.108803e-05	-8.995198e-06	0.01274848	-0.01250171
2.6e+08	0.01372836	-0.0122338	8.057914e-06	-7.95641e-06	0.06646925	-0.03150689	-2.987222e-06	-2.062281e-06
	8.057914e-06	-7.95641e-06	0.01380549	-0.01298797	1.297065e-05	-1.883668e-05	0.06613845	-0.03066308
	0.06646925	-0.03150689	1.297065e-05	-1.883668e-05	0.01426636	-0.01283872	1.05534e-05	-8.724538e-06
	-2.987222e-06	-2.062281e-06	0.06613845	-0.03066308	1.05534e-05	-8.724538e-06	0.01402508	-0.01229704
2.7e+08	0.01524862	-0.01227565	7.591908e-06	-7.604747e-06	0.06383733	-0.03698465	-3.082178e-06	-1.621347e-06
	7.591908e-06	-7.604747e-06	0.01528918	-0.01302854	1.179819e-05	-1.785798e-05	0.06343295	-0.03607599
	0.06383733	-0.03698465	1.179819e-05	-1.785798e-05	0.01571679	-0.01289073	1.004121e-05	-8.444918e-06
	-3.082178e-06	-1.621347e-06	0.06343295	-0.03607599	1.004121e-05	-8.444918e-06	0.01553197	-0.01239253
2.8e+08	0.01695819	-0.01266385	7.156872e-06	-7.244552e-06	0.06054338	-0.04220545	-3.138997e-06	-1.180372e-06
	7.156872e-06	-7.244552e-06	0.01696227	-0.01341738	1.07155e-05	-1.684366e-05	0.06006421	-0.04122173
	0.06054338	-0.04220545	1.07155e-05	-1.684366e-05	0.01735433	-0.01328432	9.552802e-06	-8.156363e-06
	-3.138997e-06	-1.180372e-06	0.06006421	-0.04122173	9.552802e-06	-8.156363e-06	0.01721955	-0.01283807
2.9e+08	0.01879988	-0.01344165	6.753838e-06	-6.877228e-06	0.05661761	-0.04709204	-3.157551e-06	-7.427135e-07
	6.753838e-06	-6.877228e-06	0.01876665	-0.01419782	9.725954e-06	-1.57991e-05	0.05606376	-0.04602269
	0.05661761	-0.04709204	9.725954e-06	-1.57991e-05	0.01912181	-0.01406284	9.089294e-06	-7.859232e-06
	-3.157551e-06	-7.427135e-07	0.05606376	-0.04602269	9.089294e-06	-7.859232e-06	0.01902928	-0.01367631
3e+08	0.02070885	-0.01464328	6.383519e-06	-6.504425e-06	0.05209869	-0.05157079	-3.138131e-06	-3.117596e-07
	6.383519e-06	-6.504425e-06	0.02063646	-0.01540396	8.832152e-06	-1.473029e-05	0.05147165	-0.05040486
	0.05209869	-0.05157079	8.832152e-06	-1.473029e-05	0.020955	-0.01526046	8.651639e-06	-7.554193e-06
	-3.138131e-06	-3.117595e-07	0.05147165	-0.05040486	8.651639e-06	-7.554193e-06	0.0208955	-0.01494055
3.1e+08	0.02261422	-0.01629297	6.046336e-06	-6.127979e-06	0.04703384	-0.05557332	-3.081484e-06	1.091346e-07
	6.046336e-06	-6.127979e-06	0.02249987	-0.01705971	8.035942e-06	-1.364368e-05	0.04633651	-0.05429981
	0.04703384	-0.05557332	8.035942e-06	-1.364368e-05	0.02278291	-0.01690157	8.240641e-06	-7.242141e-06
	-3.081484e-06	1.091346e-07	0.04633651	-0.05429981	8.240641e-06	-7.242141e-06	0.02274585	-0.01665398
3.2e+08	0.02444001	-0.01840413	5.742471e-06	-5.74984e-06	0.04147787	-0.05903697	-2.988751e-06	5.167112e-07
	5.742471e-06	-5.74984e-06	0.02427993	-0.01917797	7.338427e-06	-1.25461e-05	0.04071465	-0.05764491
	0.04147787	-0.05903697	7.338427e-06	-1.25461e-05	0.02453037	-0.01899885	7.856896e-06	-6.924164e-06
	-2.988751e-06	5.167112e-07	0.04071465	-0.05764491	7.856896e-06	-6.924164e-06	0.024504	-0.01882788
3.3e+08	0.02610752	-0.0209784	5.471821e-06	-5.372015e-06	0.03549251	-0.06190535	-2.861427e-06	9.078483e-07
	5.471821e-06	-5.372015e-06	0.02589712	-0.0217596	6.739947e-06	-1.144455e-05	0.03466932	-0.06038406
	0.03549251	-0.06190535	6.739947e-06	-1.144455e-05	0.02611848	-0.02155416	7.500874e-06	-6.601469e-06
	-2.861427e-06	9.078483e-07	0.03466932	-0.06038406	7.500874e-06	-6.601469e-06	0.02608997	-0.02146245
3.4e+08	0.02753648	-0.02400487	5.234029e-06	-4.99654e-06	0.02914564	-0.06413003	-2.701374e-06	1.279635e-06
	5.234029e-06	-4.99654e-06	0.02727041	-0.02479281	6.240097e-06	-1.034624e-05	0.02826987	-0.06246929
	0.02914564	-0.06413003	6.240097e-06	-1.034624e-05	0.02746778	-0.02455653	7.172873e-06	-6.275388e-06
	-2.701374e-06	1.279635e-06	0.02826987	-0.06246929	7.172873e-06	-6.275388e-06	0.02742349	-0.02454483
3.5e+08	0.02864729	-0.02746037	5.02853e-06	-4.625413e-06	0.02251039	-0.06567006	-2.510727e-06	1.629378e-06
	5.02853e-06	-4.625413e-06	0.02831958	-0.02825331	5.837757e-06	-9.25836e-06	0.02159091	-0.06386035
	0.02251039	-0.06567006	5.837757e-06	-9.25836e-06	0.02849827	-0.02798285	6.87306e-06	-5.947316e-06
	-2.510727e-06	1.629378e-06	0.02159091	-0.06386035	6.87306e-06	-5.947316e-06	0.02842401	-0.02804978
3.6e+08	0.02936234	-0.03130927	4.85456e-06	-4.260584e-06	0.01566439	-0.06649346	-2.291901e-06	1.95466e-06
	4.85456e-06	-4.260584e-06	0.02896661	-0.0321042	5.531072e-06	-8.188057e-06	0.01471145	-0.0645261
	0.01566439	-0.06649346	5.531072e-06	-8.188057e-06	0.02913313	-0.03179708	6.601457e-06	-5.618709e-06
	-2.291901e-06	1.95466e-06	0.01471145	-0.0645261	6.601457e-06	-5.618709e-06	0.02901442	-0.03193906
3.7e+08	0.02960872	-0.03550366	4.711183e-06	-3.903909e-06	0.008688097	-0.0665773	-2.047499e-06	2.253366e-06
	4.711183e-06	-3.903909e-06	0.0291384	-0.03629611	5.317526e-06	-7.14233e-06	0.007713249	-0.06444476
	0.008688097	-0.0665773	5.317526e-06	-7.14233e-06	0.0292997	-0.03595131	6.35797e-06	-5.291052e-06
	-2.047499e-06	2.253366e-06	0.007713249	-0.06444476	6.35797e-06	-5.291052e-06	0.02912213	-0.03616232
3.8e+08	0.02931908	-0.03998408	4.597329e-06	-3.557149e-06	0.001664383	-0.06590762	-1.780286e-06	2.52367e-06
	4.597329e-06	-3.557149e-06	0.02876765	-0.04076807	5.193978e-06	-6.127947e-06	0.0006803545	-0.06360361
	0.001664383	-0.06590762	5.193978e-06	-6.127947e-06	0.02893058	-0.04038599	6.142412e-06	-4.965848e-06
	-1.780286e-06	2.52367e-06	0.0006803545	-0.06360361	6.142412e-06	-4.965848e-06	0.02868021	-0.04065756
3.9e+08	0.02843362	-0.04467924	4.511804e-06	-3.221961e-06	-0.005322708	-0.06448065	-1.49318e-06	2.764069e-06
	4.511804e-06	-3.221961e-06	0.02779485	-0.0454472	5.156624e-06	-5.151468e-06	-0.006302171	-0.06200031
	-0.005322708	-0.06448065	5.156624e-06	-5.151468e-06	0.02796723	-0.04502983	5.95446e-06	-4.644644e-06
	-1.49318e-06	2.764069e-06	-0.006302171	-0.06200031	5.95446e-06	-4.644644e-06	0.02763099	-0.04535105
4e+08	0.02690234	-0.04950859	4.453331e-06	-2.899879e-06	-0.01218947	-0.06230165	-1.189132e-06	2.973367e-06
	4.453331e-06	-2.899879e-06	0.02617066	-0.05025131	5.201129e-06	-4.219059e-06	-0.01314982	-0.0596417
	-0.01218947	-0.06230165	5.201129e-06	-4.219059e-06	0.02635938	-0.04980256	5.793728e-06	-4.328947e-06
	-1.189132e-06	2.973367e-06	-0.01314982	-0.0596417	5.793728e-06	-4.328947e-06	0.02592541	-0.05016005
4.1e+08	0.02468631	-0.05438349	4.420486e-06	-2.592126e-06	-0.01885315	-0.0593855	-8.7116e-07	3.150557e-06
	4.420486e-06	-2.592126e-06	0.02385718	-0.05509002	5.32242e-06	-3.335118e-06	-0.01977914	-0.05654438
	-0.01885315	-0.0593855	5.32242e-06	-3.335118e-06	0.02406862	-0.05461502	5.659413e-06	-4.019032e-06
	-8.7116e-07	3.150557e-06	-0.01977914	-0.05654438	5.659413e-06	-4.019032e-06	0.02352668	-0.05499325
4.2e+08	0.02175851	-0.0592066	4.411918e-06	-2.300182e-06	-0.02523351	-0.05575665	-5.423038e-07	3.295097e-06
	4.411918e-06	-2.300182e-06	0.02082864	-0.05986458	5.51543e-06	-2.505115e-06	-0.02610954	-0.05273459
	-0.02523351	-0.05575665	5.51543e-06	-2.505115e-06	0.02106858	-0.05937007	5.551256e-06	-3.716528e-06
	-5.423038e-07	3.295097e-06	-0.02610954	-0.05273459	5.551256e-06	-3.716528e-06	0.0204105	-0.05975131
4.3e+08	0.01810572	-0.06387631	4.426257e-06	-2.025343e-06	-0.03125373	-0.05144795	-2.054967e-07	3.406801e-06
	4.426257e-06	-2.025343e-06	0.01707335	-0.06447209	5.774772e-06	-1.734937e-06	-0.03206398	-0.04824706
	-0.03125373	-0.05144795	5.774772e-06	-1.734937e-06	0.0173462	-0.06396655	5.468985e-06	-3.424067e-06
	-2.054967e-07	3.406801e-06	-0.03206398	-0.04824706	5.468985e-06	-3.424067e-06	0.0165664	-0.06433112
4.4e+08	0.01372873	-0.0682876	4.462067e-06	-1.768737e-06	-0.03684112	-0.04650091	1.363745e-07	3.485627e-06
	4.462067e-06	-1.768737e-06	0.01259397	-0.06880639	6.094396e-06	-1.028928e-06	-0.0375698	-0.04312515
	-0.03684112	-0.04650091	6.094396e-06	-1.028928e-06	0.0129028	-0.06829912	5.411877e-06	-3.143266e-06
	1.363745e-07	3.485627e-06	-0.0375698	-0.04312515	5.411877e-06	-3.143266e-06	0.01199848	-0.06862579
4.5e+08	0.00864374	-0.07233285	4.517895e-06	-1.531463e-06	-0.04192854	-0.04096484	4.805092e-07	3.531775e-06
	4.517895e-06	-1.531463e-06	0.007408845	-0.07275895	6.467928e-06	-3.909633e-07	-0.04256016	-0.03742008
	-0.04192854	-0.04096484	6.467928e-06	-3.909633e-07	0.007754891	-0.07226043	5.379119e-06	-2.875771e-06
	4.805092e-07	3.531775e-06	-0.04256016	-0.03742008	5.379119e-06	-2.875771e-06	0.006726493	-0.07252688
4.6e+08	0.002881925	-0.07590528	4.592287e-06	-1.31458e-06	-0.04645476	-0.03489594	8.242174e-07	3.545642e-06
	4.592287e-06	-1.31458e-06	0.001551561	-0.07622237	6.88874e-06	1.756764e-07	-0.04697434	-0.03118991
	-0.04645476	-0.03489594	6.88874e-06	1.756764e-07	0.001933914	-0.07574442	5.369785e-06	-2.623238e-06
	8.242174e-07	3.545642e-06	-0.04697434	-0.03118991	5.369785e-06	-2.623238e-06	0.0007852701	-0.07592761
4.7e+08	-0.003509613	-0.07890237	4.683737e-06	-1.119068e-06	-0.0503658	-0.02835652	1.164936e-06	3.527825e-06
	4.683737e-06	-1.119068e-06	-0.004928229	-0.07909393	7.350036e-06	6.683281e-07	-0.05075909	-0.02449869
	-0.0503658	-0.02835652	7.350036e-06	6.683281e-07	-0.004512676	-0.0786476	5.382815e-06	-2.387342e-06
	1.164936e-06	3.527825e-06	-0.05075909	-0.02449869	5.382815e-06	-2.387342e-06	-0.00577412	-0.07872434
4.8e+08	-0.01046984	-0.08122479	4.790741e-06	-9.459535e-07	-0.05361465	-0.0214144	1.500205e-06	3.479052e-06
	4.790741e-06	-9.459535e-07	-0.01196678	-0.08127449	7.844855e-06	1.0848e-06	-0.05386835	-0.01741595
	-0.05361465	-0.0214144	7.844855e-06	1.0848e-06	-0.01152278	-0.08087178	5.417008e-06	-2.169774e-06
