!$
! Info: Touchstone file created by Circ.  Input file=Intel_C2M_200G_3p5in_202208016_staggered.circ
!$
# Hz S RI R 50
0	0.01494296	2.40819e-24	4.591198e-05	5.406548e-23	8.942198e-05	2.470422e-22	4.584526e-05	5.395419e-23
	4.591198e-05	5.406548e-23	0.01495617	2.59768e-24	4.58944e-05	5.403591e-23	8.903533e-05	2.45778e-22
	8.948005e-05	2.4717e-22	4.589439e-05	5.403689e-23	0.01493776	2.317232e-24	4.585818e-05	5.392673e-23
	4.584526e-05	5.395517e-23	8.90934e-05	2.459057e-22	4.585818e-05	5.392673e-23	0.0149541	2.465026e-24
1e+07	0.0184306	0.002783321	3.395036e-05	4.534159e-06	0.0009251944	0.004719175	1.592513e-06	9.163843e-06
	3.395036e-05	4.534159e-06	0.01803132	0.002851756	4.047654e-05	1.558529e-05	0.001117479	0.004828512
	0.0009251944	0.004719175	4.047654e-05	1.558529e-05	0.01858576	0.002664965	1.621387e-05	9.815265e-06
	1.592513e-06	9.163843e-06	0.001117479	0.004828512	1.621387e-05	9.815265e-06	0.01806641	0.002605197
2e+07	0.02135626	0.002709197	2.234957e-05	2.323408e-05	0.002137463	0.009013535	1.332785e-05	1.92139e-05
	2.234957e-05	2.323408e-05	0.02111608	0.002974169	3.582727e-05	7.727997e-06	0.002345575	0.009143183
	0.002137474	0.009013523	3.582727e-05	7.727997e-06	0.02132907	0.002474964	9.89491e-06	1.373511e-05
	1.332785e-05	1.92139e-05	0.002345586	0.009143171	9.89491e-06	1.373511e-05	0.02088512	0.002567924
3e+07	0.02353545	0.001391492	1.891168e-05	3.1279e-05	0.00390857	0.01314202	2.265865e-05	2.180394e-05
	1.891168e-05	3.1279e-05	0.02341814	0.001712936	3.347418e-05	9.303628e-06	0.004132446	0.01330765
	0.003908539	0.01314205	3.347417e-05	9.30363e-06	0.02336548	0.001171233	5.820329e-06	1.835162e-05
	2.265865e-05	2.180394e-05	0.004132416	0.01330768	5.820329e-06	1.835162e-05	0.02298014	0.001307159
4e+07	0.02499892	-0.000534279	1.627593e-05	3.500589e-05	0.006285306	0.01692362	3.063489e-05	2.214579e-05
	1.627593e-05	3.500588e-05	0.02498557	-0.0001933313	3.243605e-05	1.329573e-05	0.006524854	0.01712394
	0.006285299	0.01692364	3.243605e-05	1.329573e-05	0.0247206	-0.0007024276	9.01938e-06	2.031356e-05
	3.063489e-05	2.214579e-05	0.006524847	0.01712396	9.01938e-06	2.031356e-05	0.02438482	-0.0005482485
5e+07	0.02587922	-0.002729	2.14812e-05	3.499662e-05	0.009191789	0.02031954	3.764691e-05	2.100381e-05
	2.14812e-05	3.499662e-05	0.02595782	-0.002389319	3.575084e-05	1.354076e-05	0.009446644	0.02055146
	0.009191791	0.02031954	3.575084e-05	1.354076e-05	0.02551589	-0.002822516	1.442029e-05	2.003428e-05
	3.764691e-05	2.100381e-05	0.009446645	0.02055147	1.442029e-05	2.003428e-05	0.02522368	-0.00266241
6e+07	0.02624944	-0.005045525	3.015868e-05	3.218725e-05	0.01257723	0.02326753	4.367352e-05	1.84761e-05
	3.015868e-05	3.218725e-05	0.02641148	-0.004722251	3.835023e-05	1.260442e-05	0.0128465	0.02352729
	0.01257725	0.02326752	3.835023e-05	1.260442e-05	0.02582153	-0.005048378	1.91322e-05	1.870557e-05
	4.367352e-05	1.84761e-05	0.01284652	0.02352728	1.91322e-05	1.870557e-05	0.0255685	-0.004890242
7e+07	0.0261527	-0.007364304	3.737041e-05	2.786988e-05	0.01637829	0.02570998	4.8821e-05	1.48964e-05
	3.737041e-05	2.786988e-05	0.02639159	-0.007070596	4.019564e-05	1.092422e-05	0.01666039	0.02599351
	0.01637829	0.02570998	4.019564e-05	1.092422e-05	0.02567956	-0.007264541	2.311486e-05	1.658626e-05
	4.8821e-05	1.48964e-05	0.01666039	0.0259935	2.311487e-05	1.658626e-05	0.0254625	-0.007114296
8e+07	0.02564274	-0.009580289	4.311149e-05	2.230256e-05	0.02052532	0.02759796	5.309083e-05	1.037159e-05
	4.311149e-05	2.230256e-05	0.02595296	-0.009329507	4.121539e-05	8.764133e-06	0.02081779	0.0279009
	0.02052532	0.02759796	4.121539e-05	8.764133e-06	0.02514364	-0.009367761	2.63569e-05	1.379414e-05
	5.309083e-05	1.037159e-05	0.02081779	0.0279009	2.63569e-05	1.379414e-05	0.02496019	-0.009230653
9e+07	0.02478873	-0.01160779	4.72554e-05	1.553014e-05	0.02494428	0.02889151	5.639867e-05	4.835526e-06
	4.72554e-05	1.553015e-05	0.02516491	-0.01141626	4.130745e-05	6.357841e-06	0.02524358	0.02920941
	0.02494429	0.02889152	4.130745e-05	6.357841e-06	0.02428363	-0.01127191	2.878423e-05	1.035005e-05
	5.639867e-05	4.835526e-06	0.02524358	0.02920942	2.878423e-05	1.035005e-05	0.02413211	-0.01115371
1e+08	0.02368694	-0.01335985	4.895135e-05	6.488192e-06	0.0295601	0.02956103	5.815835e-05	-2.73435e-06
	4.895135e-05	6.488192e-06	0.02412038	-0.01326129	3.997894e-05	3.863678e-06	0.02986049	0.0298882
	0.0295601	0.02956103	3.997894e-05	3.863678e-06	0.02320467	-0.01287531	2.993249e-05	5.737351e-06
	5.815835e-05	-2.73435e-06	0.02986049	0.02988819	2.993249e-05	5.737351e-06	0.02308377	-0.01278696
1.1e+08	0.02245482	-0.01497378	4.520271e-05	1.282368e-06	0.03430956	0.02956743	5.524227e-05	-7.870568e-06
	4.520271e-05	1.282368e-06	0.02287556	-0.01496011	3.788228e-05	3.611964e-06	0.03460094	0.02990733
	0.03430956	0.02956743	3.788228e-05	3.611964e-06	0.02213215	-0.01439808	2.82189e-05	3.060409e-06
	5.524227e-05	-7.870568e-06	0.03460095	0.02990733	2.82189e-05	3.060409e-06	0.02201937	-0.01434073
1.2e+08	0.02099185	-0.0163159	4.287875e-05	-1.434772e-06	0.03905046	0.028909	5.406234e-05	-9.475118e-06
	4.287875e-05	-1.434772e-06	0.02140143	-0.01636022	3.664537e-05	3.841388e-06	0.03933159	0.02926274
	0.03905046	0.028909	3.664537e-05	3.841389e-06	0.02075921	-0.0157067	2.725466e-05	1.618591e-06
	5.406234e-05	-9.475118e-06	0.03933159	0.02926273	2.725466e-05	1.618591e-06	0.02065328	-0.01567214
1.3e+08	0.01940846	-0.01734026	4.181529e-05	-3.308072e-06	0.04371365	0.02759424	5.491586e-05	-7.429551e-06
	4.181529e-05	-3.308072e-06	0.01980634	-0.01743364	3.581205e-05	4.294407e-06	0.04398135	0.02796125
	0.04371364	0.02759424	3.581205e-05	4.294408e-06	0.0192379	-0.0167009	2.666622e-05	5.038824e-07
	5.491586e-05	-7.429551e-06	0.04398135	0.02796125	2.666622e-05	5.038823e-07	0.0191382	-0.01668634
1.4e+08	0.01778301	-0.01804069	4.180726e-05	-4.746693e-06	0.04822141	0.02563816	5.591525e-05	-5.945744e-06
	4.180726e-05	-4.746693e-06	0.01816833	-0.01817791	3.531309e-05	4.883834e-06	0.04847167	0.02601791
	0.0482214	0.02563816	3.531309e-05	4.883834e-06	0.0176695	-0.01737028	2.628588e-05	-3.266985e-07
	5.591525e-05	-5.945744e-06	0.04847167	0.0260179	2.628588e-05	-3.266985e-07	0.01757585	-0.01737423
1.5e+08	0.01618512	-0.01842349	4.198812e-05	-6.032405e-06	0.05249531	0.02306405	5.709821e-05	-4.960508e-06
	4.198812e-05	-6.032405e-06	0.01655686	-0.01860107	3.513814e-05	5.491213e-06	0.05272348	0.02345637
	0.05249531	0.02306405	3.513814e-05	5.491213e-06	0.0161307	-0.01772612	2.67311e-05	5.081836e-08
	5.709821e-05	-4.960507e-06	0.05272348	0.02345637	2.67311e-05	5.081831e-08	0.01604319	-0.01774777
1.6e+08	0.01467861	-0.01850543	4.235536e-05	-7.257968e-06	0.05645912	0.01990421	5.844771e-05	-4.381603e-06
	4.235536e-05	-7.257968e-06	0.01503574	-0.01872088	3.525272e-05	6.104207e-06	0.05666009	0.02030954
	0.05645912	0.01990421	3.525272e-05	6.104207e-06	0.01468627	-0.01778934	2.751381e-05	6.148876e-07
	5.844771e-05	-4.381603e-06	0.05666008	0.02030954	2.751381e-05	6.148876e-07	0.01460524	-0.01782847
1.7e+08	0.01332243	-0.01831311	4.351163e-05	-7.661876e-06	0.06004053	0.01619961	5.995676e-05	-4.234161e-06
	4.351163e-05	-7.661876e-06	0.0136639	-0.01856463	3.605022e-05	6.456705e-06	0.06020887	0.0166191
	0.06004053	0.01619961	3.605022e-05	6.456705e-06	0.01339306	-0.01758874	2.854771e-05	9.552382e-07
	5.995676e-05	-4.234161e-06	0.06020887	0.0166191	2.854771e-05	9.552381e-07	0.01331897	-0.01764564
1.8e+08	0.01216911	-0.01788264	4.539613e-05	-7.556558e-06	0.06317252	0.01199954	6.159711e-05	-4.51299e-06
	4.539613e-05	-7.556558e-06	0.01249382	-0.01816898	3.724878e-05	6.476544e-06	0.06330256	0.01243514
	0.06317252	0.01199954	3.724878e-05	6.476544e-06	0.01230099	-0.01716103	2.982567e-05	1.013778e-06
	6.159711e-05	-4.51299e-06	0.06330256	0.01243514	2.982567e-05	1.013778e-06	0.01223439	-0.01723653
1.9e+08	0.01126446	-0.0172589	4.739462e-05	-7.838754e-06	0.06579463	0.00736118	6.334324e-05	-5.160576e-06
	4.739462e-05	-7.838754e-06	0.01157119	-0.01757921	3.852991e-05	6.301786e-06	0.0658807	0.007815734
	0.06579463	0.00736118	3.852991e-05	6.301786e-06	0.01145311	-0.01655055	3.115795e-05	8.47267e-07
	6.334324e-05	-5.160576e-06	0.0658807	0.007815733	3.115795e-05	8.47267e-07	0.01139453	-0.01664605
2e+08	0.01064534	-0.01649453	4.948793e-05	-8.520867e-06	0.06785385	0.002348408	6.51716e-05	-6.188129e-06
	4.948793e-05	-8.520867e-06	0.01093274	-0.01684829	3.988606e-05	5.918016e-06	0.06789027	0.002825678
	0.06785385	0.002348408	3.988606e-05	5.918016e-06	0.0108849	-0.01580847	3.253436e-05	4.507125e-07
	6.51716e-05	-6.188129e-06	0.06789027	0.002825678	3.253436e-05	4.507125e-07	0.0108346	-0.01592585
2.1e+08	0.01033878	-0.01564762	5.164754e-05	-9.622267e-06	0.06930505	-0.002968926	6.705231e-05	-7.609749e-06
	5.164754e-05	-9.622267e-06	0.01060531	-0.01603464	4.130331e-05	5.304115e-06	0.06928643	-0.002464288
	0.06930505	-0.002968926	4.130331e-05	5.304115e-06	0.01062163	-0.01499169	3.394148e-05	-1.837309e-07
	6.705231e-05	-7.609749e-06	0.06928643	-0.002464288	3.394148e-05	-1.837309e-07	0.01057961	-0.01513343
2.2e+08	0.01036128	-0.01478142	5.383852e-05	-1.116186e-05	0.07011181	-0.008516196	6.895037e-05	-9.439824e-06
	5.383852e-05	-1.116186e-05	0.01060512	-0.01520172	4.276412e-05	4.442194e-06	0.07003312	-0.007978617
	0.07011181	-0.008516197	4.276412e-05	4.442194e-06	0.01067885	-0.01416135	3.536264e-05	-1.065468e-06
	6.895037e-05	-9.439824e-06	0.07003312	-0.007978617	3.536264e-05	-1.065468e-06	0.01064467	-0.01433031
2.3e+08	0.01071824	-0.01396135	5.601928e-05	-1.315824e-05	0.07024712	-0.01421516	7.082538e-05	-1.169371e-05
	5.601928e-05	-1.315824e-05	0.01093726	-0.01441513	4.424646e-05	3.311703e-06	0.07010381	-0.01363817
	0.07024712	-0.01421516	4.424646e-05	3.311703e-06	0.01106191	-0.01338132	3.677754e-05	-2.203595e-06
	7.082538e-05	-1.169371e-05	0.07010381	-0.01363817	3.677754e-05	-2.203595e-06	0.01103452	-0.01358083
2.4e+08	0.01140361	-0.01325352	5.814189e-05	-1.562784e-05	0.06969325	-0.0199847	7.263195e-05	-1.438208e-05
	5.814189e-05	-1.562784e-05	0.01159526	-0.01374108	4.572404e-05	1.895832e-06	0.06948146	-0.01936098
	0.06969325	-0.0199847	4.572404e-05	1.895832e-06	0.01176412	-0.01271639	3.816352e-05	-3.607926e-06
	7.263195e-05	-1.438208e-05	0.06948146	-0.01936098	3.816352e-05	-3.607926e-06	0.01174177	-0.01295006
2.5e+08	0.01239967	-0.01272305	6.015254e-05	-1.858355e-05	0.06844208	-0.0257423	7.432e-05	-1.75132e-05
	6.015254e-05	-1.858355e-05	0.012561	-0.01324466	4.716613e-05	1.781642e-07	0.0681587	-0.02506376
	0.06844208	-0.0257423	4.716613e-05	1.781642e-07	0.01276831	-0.01223011	3.949458e-05	-5.285641e-06
	7.432e-05	-1.75132e-05	0.0681587	-0.02506376	3.949458e-05	-5.285641e-06	0.01274848	-0.01250171
2.6e+08	0.01367792	-0.01243212	6.199182e-05	-2.203318e-05	0.06649565	-0.03140519	7.58354e-05	-2.109059e-05
	6.199182e-05	-2.203318e-05	0.01380549	-0.01298797	4.853847e-05	-1.854401e-06	0.06613845	-0.03066308
	0.06649565	-0.03140519	4.853847e-05	-1.854401e-06	0.01404585	-0.01198372	4.074209e-05	-7.243357e-06
	7.58354e-05	-2.109059e-05	0.06613845	-0.03066308	4.074209e-05	-7.243357e-06	0.01402508	-0.01229704
2.7e+08	0.01519932	-0.01243845	6.359574e-05	-2.597952e-05	0.06386511	-0.03689106	7.712041e-05	-2.51133e-05
	6.359574e-05	-2.597952e-05	0.01528918	-0.01302854	4.98025e-05	-4.212517e-06	0.06343295	-0.03607599
	0.06386511	-0.03689106	4.98025e-05	-4.212517e-06	0.01555804	-0.01203382	4.187443e-05	-9.486469e-06
	7.712041e-05	-2.51133e-05	0.06343295	-0.03607599	4.187443e-05	-9.486469e-06	0.01553197	-0.01239253
2.8e+08	0.01691457	-0.01279335	6.489657e-05	-3.041595e-05	0.06057141	-0.04211961	7.811444e-05	-2.957295e-05
	6.489657e-05	-3.041595e-05	0.01696227	-0.01341738	5.091617e-05	-6.903909e-06	0.06006421	-0.04122173
	0.06057141	-0.04211961	5.091617e-05	-6.903909e-06	0.01725633	-0.01243058	4.285783e-05	-1.201593e-05
	7.811444e-05	-2.957295e-05	0.06006421	-0.04122173	4.285783e-05	-1.201593e-05	0.01721955	-0.01283807
2.9e+08	0.01876608	-0.01354061	6.582351e-05	-3.532859e-05	0.05664482	-0.0470135	7.875542e-05	-3.44538e-05
	6.582351e-05	-3.532859e-05	0.01876665	-0.01419782	5.183451e-05	-9.930172e-06	0.05606376	-0.04602269
	0.05664482	-0.0470135	5.183451e-05	-9.930172e-06	0.01908313	-0.01321723	4.365604e-05	-1.483065e-05
	7.875542e-05	-3.44538e-05	0.05606376	-0.04602269	4.365604e-05	-1.483065e-05	0.01902928	-0.01367631
3e+08	0.02068846	-0.01471486	6.630324e-05	-4.069675e-05	0.05212411	-0.05149898	7.897918e-05	-3.973321e-05
	6.630324e-05	-4.069675e-05	0.02063646	-0.01540396	5.25105e-05	-1.328748e-05	0.05147165	-0.05040486
	0.05212411	-0.05149898	5.25105e-05	-1.328748e-05	0.02097377	-0.01442773	4.423069e-05	-1.792581e-05
	7.897918e-05	-3.973321e-05	0.05147165	-0.05040486	4.423069e-05	-1.792581e-05	0.0208955	-0.01494055
3.1e+08	0.02261032	-0.01634074	6.626386e-05	-4.648547e-05	0.04705655	-0.05550756	7.872236e-05	-4.538019e-05
	6.626386e-05	-4.648547e-05	0.02249987	-0.01705971	5.289331e-05	-1.69694e-05	0.04633651	-0.05429981
	0.04705655	-0.05550756	5.289331e-05	-1.69694e-05	0.02285684	-0.01608623	4.454238e-05	-2.129156e-05
	7.872236e-05	-4.538019e-05	0.04633651	-0.05429981	4.454238e-05	-2.129156e-05	0.02274585	-0.01665398
3.2e+08	0.02445509	-0.01843194	6.563192e-05	-5.26542e-05	0.04149708	-0.0589765	7.792257e-05	-5.135419e-05
	6.563192e-05	-5.26542e-05	0.02427993	-0.01917797	5.293282e-05	-2.095946e-05	0.04071465	-0.05764491
	0.04149708	-0.0589765	5.293282e-05	-2.095946e-05	0.02465678	-0.01820514	4.454922e-05	-2.491543e-05
	7.792257e-05	-5.135419e-05	0.04071465	-0.05764491	4.454922e-05	-2.491543e-05	0.024504	-0.01882788
3.3e+08	0.0261435	-0.02099033	6.433753e-05	-5.914949e-05	0.03550758	-0.06184932	7.651901e-05	-5.760743e-05
	6.433753e-05	-5.914949e-05	0.02589712	-0.0217596	5.257601e-05	-2.52384e-05	0.03466932	-0.06038406
	0.03550758	-0.06184932	5.257601e-05	-2.52384e-05	0.02629433	-0.02078599	4.42099e-05	-2.877778e-05
	7.651901e-05	-5.760743e-05	0.03466932	-0.06038406	4.42099e-05	-2.877778e-05	0.02608997	-0.02146245
3.4e+08	0.02759464	-0.02400514	6.231344e-05	-6.590851e-05	0.02915597	-0.0640775	7.445655e-05	-6.408048e-05
	6.231344e-05	-6.590851e-05	0.02727041	-0.02479281	5.177016e-05	-2.977818e-05	0.02826987	-0.06246929
	0.02915597	-0.0640775	5.177016e-05	-2.977818e-05	0.02768969	-0.02381745	4.348152e-05	-3.285534e-05
	7.445655e-05	-6.408048e-05	0.02826987	-0.06246929	4.348152e-05	-3.285534e-05	0.02742349	-0.02454483
3.5e+08	0.02872831	-0.02745328	5.950074e-05	-7.285624e-05	0.02251556	-0.06562008	7.168097e-05	-7.070994e-05
	5.950074e-05	-7.285624e-05	0.02831958	-0.02825331	5.046486e-05	-3.454252e-05	0.02159091	-0.06386035
	0.02251556	-0.06562008	5.046486e-05	-3.454252e-05	0.02876257	-0.02727598	4.232219e-05	-3.71184e-05
	7.168097e-05	-7.070994e-05	0.02159091	-0.06386035	4.232219e-05	-3.71184e-05	0.02842401	-0.02804978
3.6e+08	0.02946625	-0.03129912	5.584147e-05	-7.991066e-05	0.01566413	-0.06644496	6.814726e-05	-7.741996e-05
	5.584147e-05	-7.991066e-05	0.02896661	-0.0321042	4.860733e-05	-3.949113e-05	0.01471145	-0.0645261
	0.01566413	-0.06644496	4.860733e-05	-3.949113e-05	0.02943593	-0.03112513	4.06919e-05	-4.153011e-05
	6.814726e-05	-7.741996e-05	0.01471145	-0.0645261	4.06919e-05	-4.153011e-05	0.02901442	-0.03193906
3.7e+08	0.02973498	-0.03549463	5.129382e-05	-8.697769e-05	0.00868222	-0.06652929	6.38174e-05	-8.41278e-05
	5.129382e-05	-8.697769e-05	0.0291384	-0.03629611	4.615244e-05	-4.457142e-05	0.007713249	-0.06444476
	0.00868222	-0.06652929	4.615244e-05	-4.457142e-05	0.02963692	-0.03531652	3.85492e-05	-4.605032e-05
	6.38174e-05	-8.41278e-05	0.007713249	-0.06444476	3.85492e-05	-4.605032e-05	0.02912213	-0.03616232
3.8e+08	0.02946656	-0.03998018	4.581789e-05	-9.395657e-05	0.001652894	-0.06585904	5.866212e-05	-9.074395e-05
	4.581789e-05	-9.395657e-05	0.02876765	-0.04076807	4.305419e-05	-4.972661e-05	0.0006803545	-0.06360361
	0.001652893	-0.06585904	4.305419e-05	-4.972661e-05	0.02929797	-0.03979013	3.585989e-05	-5.062907e-05
	5.866212e-05	-9.074395e-05	0.0006803545	-0.06360361	3.585989e-05	-5.062907e-05	0.02868021	-0.04065756
3.9e+08	0.0286006	-0.04468428	3.938941e-05	-0.0001007384	-0.005339678	-0.06443044	5.265762e-05	-9.717433e-05
	3.938941e-05	-0.0001007384	0.02779485	-0.0454472	3.927194e-05	-5.489125e-05	-0.006302171	-0.06200031
	-0.005339678	-0.06443044	3.927194e-05	-5.489125e-05	0.02836055	-0.04447416	3.25878e-05	-5.521286e-05
	5.265762e-05	-9.717433e-05	-0.006302171	-0.06200031	3.25878e-05	-5.521286e-05	0.02763099	-0.04535105
4e+08	0.0270866	-0.049526	3.199743e-05	-0.0001072067	-0.01221168	-0.06224883	4.57983e-05	-0.0001033168
	3.199743e-05	-0.0001072067	0.02617066	-0.05025131	3.477235e-05	-5.999077e-05	-0.01314982	-0.0596417
	-0.01221168	-0.06224883	3.477235e-05	-5.999077e-05	0.02677431	-0.04928791	2.870748e-05	-5.973886e-05
	4.57983e-05	-0.0001033168	-0.01314982	-0.0596417	2.870748e-05	-5.973886e-05	0.02592541	-0.05016005
4.1e+08	0.02488525	-0.05441624	2.364005e-05	-0.0001132414	-0.01888015	-0.05932909	3.808175e-05	-0.0001090669
	2.364005e-05	-0.0001132414	0.02385718	-0.05509002	2.952754e-05	-6.494466e-05	-0.01977914	-0.05654438
	-0.01888015	-0.05932909	2.952754e-05	-6.494466e-05	0.02450082	-0.05414182	2.419281e-05	-6.414071e-05
	3.808175e-05	-0.0001090669	-0.01977914	-0.05654438	2.419281e-05	-6.414071e-05	0.02352668	-0.05499325
4.2e+08	0.02196913	-0.05925725	1.433278e-05	-0.0001187189	-0.0252648	-0.05569575	2.952571e-05	-0.0001143175
	1.433278e-05	-0.0001187189	0.02082864	-0.05986458	2.35176e-05	-6.966765e-05	-0.02610954	-0.05273459
	-0.0252648	-0.05569575	2.35176e-05	-6.966765e-05	0.02151381	-0.05893825	1.902794e-05	-6.834396e-05
	2.952571e-05	-0.0001143175	-0.02610954	-0.05273459	1.902794e-05	-6.834396e-05	0.0204105	-0.05975131
4.3e+08	0.01832464	-0.06394705	4.10561e-06	-0.0001235154	-0.03128867	-0.05138176	2.01574e-05	-0.0001189598
	4.10561e-06	-0.0001235154	0.01707335	-0.06447209	1.67326e-05	-7.40616e-05	-0.03206398	-0.04824706
	-0.03128867	-0.05138176	1.67326e-05	-7.40616e-05	0.01780044	-0.06357551	1.320413e-05	-7.227039e-05
	2.01574e-05	-0.0001189598	-0.03206398	-0.04824706	1.320413e-05	-7.227039e-05	0.0165664	-0.06433112
4.4e+08	0.01395227	-0.06838009	-6.993975e-06	-0.0001275087	-0.03687893	-0.04642869	1.001311e-05	-0.0001228865
	-6.993975e-06	-0.0001275087	0.01259397	-0.06880639	9.173361e-06	-7.802826e-05	-0.0375698	-0.04312515
	-0.03687893	-0.04642869	9.173361e-06	-7.802826e-05	0.01336223	-0.06794779	6.722573e-06	-7.583565e-05
	1.001311e-05	-0.0001228865	-0.0375698	-0.04312515	6.722573e-06	-7.583565e-05	0.01199848	-0.06862579
4.5e+08	0.008868004	-0.07244817	-1.890651e-05	-0.0001305758	-0.04196836	-0.04088596	-8.498657e-07	-0.0001259917
	-1.890651e-05	-0.0001305758	0.007408845	-0.07275895	8.542883e-07	-8.146532e-05	-0.04256016	-0.03742008
	-0.04196836	-0.04088596	8.542883e-07	-8.146532e-05	0.008215956	-0.07194744	-4.10715e-07	-7.895222e-05
	-8.498657e-07	-0.0001259917	-0.04256016	-0.03742008	-4.10715e-07	-7.895222e-05	0.006726493	-0.07252688
4.6e+08	0.003102941	-0.07604395	-3.155479e-05	-0.000132599	-0.04649565	-0.03480993	-1.236322e-05	-0.0001281724
	-3.155479e-05	-0.000132599	0.001551561	-0.07622237	-8.203631e-06	-8.426542e-05	-0.04697434	-0.03118991
	-0.04649565	-0.03480993	-8.203631e-06	-8.426542e-05	0.002393358	-0.07546806	-8.17333e-06	-8.153069e-05
	-1.236322e-05	-0.0001281724	-0.04697434	-0.03118991	-8.17333e-06	-8.153069e-05	0.0007852701	-0.07592761
4.7e+08	-0.003295884	-0.07906432	-4.484878e-05	-0.0001334674	-0.05040675	-0.02826298	-2.445116e-05	-0.0001293331
	-4.484878e-05	-0.0001334674	-0.004928229	-0.07909393	-1.795731e-05	-8.63192e-05	-0.05075909	-0.02449869
	-0.05040675	-0.02826298	-1.795731e-05	-8.63192e-05	-0.004057793	-0.07840581	-1.6531e-05	-8.34781e-05
	-2.445116e-05	-0.0001293331	-0.05075909	-0.02449869	-1.6531e-05	-8.34781e-05	-0.00577412	-0.07872434
4.8e+08	-0.01026736	-0.08140933	-5.867889e-05	-0.0001330787	-0.05365462	-0.02131312	-3.70153e-05	-0.0001293845
	-5.867889e-05	-0.0001330787	-0.01196678	-0.08127449	-2.835498e-05	-8.751942e-05	-0.05386835	-0.01741595
	-0.05365462	-0.02131312	-2.835498e-05	-8.751942e-05	-0.01107503	-0.08066234	-2.544268e-05	-8.470398e-05
