!$
! Info: Touchstone file created by Circ.  Input file=Intel_C2M_200G_3p5in_202208016_staggered.circ
!$
# Hz S RI R 50
0	0.01551239	5.120627e-24	-6.783211e-05	8.307038e-21	0.0003141309	4.042999e-22	-6.348265e-05	7.774382e-21
	-6.783221e-05	8.307049e-21	0.01495617	2.59768e-24	-7.504602e-05	9.190486e-21	8.903533e-05	2.45778e-22
	0.0003142001	4.045814e-22	-7.504611e-05	9.190497e-21	0.01551361	5.204972e-24	-6.785764e-05	8.310165e-21
	-6.348264e-05	7.774381e-21	8.90934e-05	2.459057e-22	-6.785755e-05	8.310153e-21	0.0149541	2.465026e-24
1e+07	0.0187198	0.00255519	-0.0004065757	-0.0001095184	0.0008805027	0.004799989	-4.505562e-05	-0.0001006704
	-0.0004065757	-0.0001095184	0.01803132	0.002851756	-0.0003561239	2.104277e-05	0.001117479	0.004828512
	0.0008805027	0.004799989	-0.0003561239	2.104277e-05	0.01858094	0.002771657	-0.0003222877	-8.949744e-05
	-4.505562e-05	-0.0001006704	0.001117479	0.004828512	-0.0003222877	-8.949744e-05	0.01806641	0.002605197
2e+07	0.02192988	0.002336229	-0.0003856542	-0.0002645215	0.001906896	0.009263805	-6.79564e-05	-0.0001655179
	-0.0003856541	-0.0002645215	0.02111608	0.002974169	-0.0004132093	-0.0001047705	0.002345575	0.009143183
	0.001906984	0.009263701	-0.0004132092	-0.0001047705	0.02201507	0.002743944	-0.0003050541	-0.0002839046
	-6.795639e-05	-0.0001655179	0.002345586	0.009143171	-0.0003050542	-0.0002839046	0.02088512	0.002567924
3e+07	0.02430077	0.0006194153	-0.0003964587	-0.0003818815	0.003513838	0.01347966	-0.0001020551	-0.0002336484
	-0.0003964587	-0.0003818816	0.02341814	0.001712936	-0.000473906	-0.000185662	0.004132446	0.01330765
	0.003513814	0.01347963	-0.000473906	-0.000185662	0.02457619	0.001073255	-0.0003163159	-0.0004023159
	-0.0001020551	-0.0002336484	0.004132416	0.01330768	-0.0003163159	-0.0004023159	0.02298014	0.001307159
4e+07	0.02625056	-0.001613938	-0.0004287381	-0.0004743274	0.005597156	0.01746281	-0.0001498406	-0.0002958107
	-0.0004287381	-0.0004743274	0.02498557	-0.0001933313	-0.0005426118	-0.0002538142	0.006524854	0.01712394
	0.005597156	0.01746281	-0.0005426118	-0.0002538142	0.026686	-0.001168237	-0.0003490724	-0.0004971241
	-0.0001498406	-0.0002958107	0.006524847	0.01712396	-0.0003490725	-0.0004971241	0.02438482	-0.0005482485
5e+07	0.02781703	-0.004276723	-0.0004778699	-0.000549658	0.008152753	0.02113781	-0.0002064979	-0.0003502817
	-0.0004778699	-0.000549658	0.02595782	-0.002389319	-0.0006195301	-0.0003120517	0.009446644	0.02055146
	0.008152756	0.02113782	-0.0006195301	-0.0003120517	0.02838855	-0.003875417	-0.0003986914	-0.0005751689
	-0.0002064979	-0.0003502817	0.009446645	0.02055147	-0.0003986914	-0.0005751689	0.02522368	-0.00266241
6e+07	0.02898407	-0.007228315	-0.0005405244	-0.0006097888	0.01113517	0.02445201	-0.0002709564	-0.0003965722
	-0.0005405244	-0.0006097888	0.02641148	-0.004722251	-0.0007044889	-0.0003611414	0.0128465	0.02352729
	0.01113517	0.02445201	-0.0007044889	-0.0003611414	0.02966844	-0.006898929	-0.0004617576	-0.0006380552
	-0.0002709564	-0.0003965722	0.01284652	0.02352728	-0.0004617575	-0.0006380552	0.0255685	-0.004890242
7e+07	0.02977247	-0.01035894	-0.0006249911	-0.0006490477	0.01449506	0.02736093	-0.0003422391	-0.0004340245
	-0.0006249911	-0.0006490477	0.02639159	-0.007070596	-0.0007971088	-0.0004011537	0.01666039	0.02599351
	0.01449506	0.02736093	-0.0007971088	-0.0004011538	0.03054495	-0.01012359	-0.0005353178	-0.0006859354
	-0.0003422391	-0.0004340245	0.01666039	0.0259935	-0.0005353178	-0.0006859354	0.0254625	-0.007114296
8e+07	0.03020671	-0.01359287	-0.0007287094	-0.0006639503	0.01817785	0.02982635	-0.0004191018	-0.0004618606
	-0.0007287094	-0.0006639503	0.02595296	-0.009329507	-0.0008967004	-0.000431986	0.02081779	0.0279009
	0.01817785	0.02982635	-0.0008967004	-0.000431986	0.03104012	-0.01346953	-0.0006374974	-0.0007051882
	-0.0004191018	-0.0004618606	0.02081779	0.0279009	-0.0006374974	-0.0007051882	0.02496019	-0.009230653
9e+07	0.03030925	-0.01686599	-0.0008337331	-0.0006606399	0.02212594	0.03181794	-0.0005003871	-0.0004796488
	-0.0008337331	-0.0006606399	0.02516491	-0.01141626	-0.001004327	-0.0004550411	0.02524358	0.02920941
	0.02212594	0.03181794	-0.001004327	-0.0004550411	0.03117263	-0.01686925	-0.0007572083	-0.000694272
	-0.0005003871	-0.0004796488	0.02524358	0.02920942	-0.0007572083	-0.0006942719	0.02413211	-0.01115371
1e+08	0.03013726	-0.02008825	-0.0009338756	-0.0006347481	0.02628326	0.0333138	-0.0005845232	-0.0004869725
	-0.0009338756	-0.0006347481	0.02412038	-0.01326129	-0.001125852	-0.0004767052	0.02986049	0.0298882
	0.02628326	0.0333138	-0.001125852	-0.0004767052	0.03098268	-0.02023847	-0.000876501	-0.0006524324
	-0.0005845232	-0.0004869725	0.02986049	0.02988819	-0.000876501	-0.0006524324	0.02308377	-0.01278696
1.1e+08	0.02980252	-0.02343513	-0.00103218	-0.0005971268	0.03058038	0.03427844	-0.0006705179	-0.0004848504
	-0.00103218	-0.0005971268	0.02287556	-0.01496011	-0.00122962	-0.0005056379	0.03460094	0.02990733
	0.03058038	0.03427845	-0.00122962	-0.0005056379	0.03056944	-0.02364628	-0.0009742663	-0.0006133164
	-0.0006705179	-0.0004848504	0.03460095	0.02990733	-0.0009742663	-0.0006133164	0.02201937	-0.01434073
1.2e+08	0.02906815	-0.02678519	-0.001135369	-0.000553982	0.03493714	0.03471987	-0.0007590706	-0.0004727821
	-0.001135369	-0.000553982	0.02140143	-0.01636022	-0.001331143	-0.0005115981	0.03933159	0.02926274
	0.03493714	0.03471987	-0.001331143	-0.0005115981	0.02978432	-0.02704079	-0.001076708	-0.0005700036
	-0.0007590707	-0.0004727821	0.03933159	0.02926273	-0.001076708	-0.0005700036	0.02065328	-0.01567214
1.3e+08	0.02800517	-0.03003606	-0.001238323	-0.0005000083	0.03929398	0.03464466	-0.0008495183	-0.0004509368
	-0.001238323	-0.0005000083	0.01980634	-0.01743364	-0.001434887	-0.0005019016	0.04398135	0.02796125
	0.03929398	0.03464466	-0.001434887	-0.0005019016	0.02867637	-0.03033085	-0.001178519	-0.0005164761
	-0.0008495183	-0.0004509368	0.04398135	0.02796125	-0.001178519	-0.0005164761	0.0191382	-0.01668634
1.4e+08	0.02665921	-0.03313523	-0.001338901	-0.0004344177	0.04358965	0.03406514	-0.0009396564	-0.0004181797
	-0.001338901	-0.0004344177	0.01816833	-0.01817791	-0.00154089	-0.0004778412	0.04847167	0.02601791
	0.04358965	0.03406514	-0.00154089	-0.0004778412	0.02728623	-0.03346368	-0.001277554	-0.000451944
	-0.0009396564	-0.0004181797	0.04847167	0.0260179	-0.001277554	-0.000451944	0.01757585	-0.01737423
1.5e+08	0.02507472	-0.03604622	-0.001435465	-0.0003571555	0.0477656	0.03300063	-0.001028432	-0.0003745581
	-0.001435465	-0.0003571555	0.01655686	-0.01860107	-0.001648596	-0.0004396667	0.05272348	0.02345637
	0.0477656	0.03300063	-0.001648596	-0.0004396667	0.02565749	-0.03640231	-0.00137218	-0.0003764137
	-0.001028432	-0.0003745581	0.05272348	0.02345637	-0.00137218	-0.0003764138	0.01604319	-0.01774777
1.6e+08	0.02329592	-0.03874355	-0.001526576	-0.000268582	0.05176688	0.03147758	-0.001114773	-0.0003202821
	-0.001526576	-0.000268582	0.01503574	-0.01872088	-0.001757091	-0.0003873243	0.05666009	0.02030954
	0.05176688	0.03147758	-0.001757091	-0.0003873243	0.02383443	-0.03912109	-0.001461053	-0.000290319
	-0.001114773	-0.0003202821	0.05666008	0.02030954	-0.001461053	-0.000290319	0.01460524	-0.01782847
1.7e+08	0.02136652	-0.04121083	-0.001610995	-0.0001692228	0.0555429	0.02952827	-0.001197664	-0.0002555941
	-0.001610995	-0.0001692228	0.0136639	-0.01856463	-0.001865255	-0.0003206756	0.06020887	0.0166191
	0.0555429	0.02952827	-0.001865255	-0.0003206756	0.02186155	-0.04160393	-0.001543002	-0.0001942899
	-0.001197664	-0.0002555941	0.06020887	0.0166191	-0.001543002	-0.0001942899	0.01331897	-0.01764564
1.8e+08	0.0193296	-0.04343905	-0.001687643	-5.981291e-05	0.05904862	0.02719068	-0.001276109	-0.0001808222
	-0.001687643	-5.981291e-05	0.01249382	-0.01816898	-0.001971838	-0.0002394226	0.06330256	0.01243514
	0.05904862	0.02719068	-0.001971838	-0.0002394226	0.0197819	-0.04384236	-0.001617123	-8.917612e-05
	-0.001276109	-0.0001808222	0.06330256	0.01243514	-0.001617123	-8.917612e-05	0.01223439	-0.01723653
1.9e+08	0.01722615	-0.04542616	-0.001755579	5.887089e-05	0.06224482	0.02450801	-0.001349182	-9.635425e-05
	-0.001755579	5.887089e-05	0.01157119	-0.01757921	-0.002075407	-0.0001433985	0.0658807	0.007815734
	0.06224482	0.02450801	-0.002075407	-0.0001433985	0.01763733	-0.04583492	-0.001682599	2.414955e-05
	-0.001349182	-9.635425e-05	0.0658807	0.007815733	-0.001682599	2.414955e-05	0.01139453	-0.01664605
2e+08	0.01509609	-0.04717627	-0.001813601	0.0001855693	0.0650984	0.0215269	-0.001415952	-2.691449e-06
	-0.001813601	0.0001855693	0.01093274	-0.01684829	-0.002176329	-2.401624e-05	0.06789027	0.002825678
	0.0650984	0.0215269	-0.002176329	-2.401624e-05	0.01546697	-0.04758587	-0.001738687	0.0001447808
	-0.001415952	-2.691449e-06	0.06789027	0.002825678	-0.001738687	0.0001447808	0.0108346	-0.01592585
2.1e+08	0.01297565	-0.04869902	-0.001861518	0.0003196726	0.06758386	0.01829743	-0.001475576	9.964856e-05
	-0.001861518	0.0003196726	0.01060531	-0.01603464	-0.0022698	0.0001099301	0.06928643	-0.002464288
	0.06758386	0.01829743	-0.0022698	0.0001099301	0.01330824	-0.04910539	-0.001785083	0.0002717404
	-0.001475576	9.964856e-05	0.06928643	-0.002464288	-0.001785083	0.0002717404	0.01057961	-0.01513343
2.2e+08	0.01089908	-0.05000914	-0.001898776	0.000460304	0.0696823	0.01487158	-0.00152724	0.0002100819
	-0.001898776	0.000460304	0.01060512	-0.01520172	-0.002354138	0.0002580921	0.07003312	-0.007978617
	0.0696823	0.01487158	-0.002354138	0.0002580921	0.01119473	-0.05040826	-0.001821449	0.0004041364
	-0.00152724	0.0002100819	0.07003312	-0.007978617	-0.001821449	0.0004041364	0.01064467	-0.01433031
2.3e+08	0.008896595	-0.05112583	-0.001924917	0.0006065169	0.07138214	0.01130233	-0.001570201	0.0003279474
	-0.001924917	0.0006065169	0.01093726	-0.01441513	-0.00242764	0.0004197673	0.07010381	-0.01363817
	0.07138214	0.01130233	-0.00242764	0.0004197673	0.009157012	-0.05151376	-0.001847585	0.0005410782
	-0.001570201	0.0003279474	0.07010381	-0.01363817	-0.001847585	0.0005410782	0.01103452	-0.01358083
2.4e+08	0.006994461	-0.05207218	-0.001939554	0.0007575218	0.07267946	0.007643002	-0.00160376	0.0004525309
	-0.001939554	0.0007575218	0.01159526	-0.01374108	-0.002488626	0.0005941105	0.06948146	-0.01936098
	0.07267946	0.007643002	-0.002488626	0.0005941105	0.007221648	-0.05244506	-0.001863342	0.0006817653
	-0.00160376	0.0004525309	0.06948146	-0.01936098	-0.001863342	0.0006817653	0.01174177	-0.01295006
2.5e+08	0.005215012	-0.05287468	-0.001942389	0.0009124115	0.07357717	0.003945779	-0.001627242	0.0005831264
	-0.001942389	0.0009124115	0.012561	-0.01324466	-0.002535435	0.0007800444	0.0681587	-0.02506376
	0.07357717	0.003945779	-0.002535435	0.0007800444	0.005411192	-0.05322846	-0.001868693	0.0008254393
	-0.001627242	0.0005831264	0.0681587	-0.02506376	-0.001868693	0.0008254393	0.01274848	-0.01250171
2.6e+08	0.003575293	-0.05356206	-0.001933132	0.001070358	0.07408514	0.0002609422	-0.00164009	0.0007189059
	-0.001933132	0.001070358	0.01380549	-0.01298797	-0.002566556	0.0009762641	0.06613845	-0.03066308
	0.07408514	0.0002609422	-0.002566556	0.0009762641	0.003743211	-0.05389311	-0.001863613	0.0009714387
	-0.00164009	0.0007189059	0.06613845	-0.03066308	-0.001863613	0.0009714387	0.01402508	-0.01229704
2.7e+08	0.002088152	-0.05416529	-0.001911543	0.001230559	0.07421971	-0.003363627	-0.001641716	0.0008591075
	-0.001911543	0.001230559	0.01528918	-0.01302854	-0.002580643	0.001181161	0.06343295	-0.03607599
	0.07421971	-0.003363627	-0.002580643	0.001181161	0.002230904	-0.0544698	-0.0018481	0.001119177
	-0.001641716	0.0008591075	0.06343295	-0.03607599	-0.0018481	0.001119177	0.01553197	-0.01239253
2.8e+08	0.0007611722	-0.05471659	-0.001877411	0.001392225	0.07400335	-0.006884007	-0.00163164	0.001002819
	-0.001877411	0.001392225	0.01696227	-0.01341738	-0.002576465	0.001393069	0.06006421	-0.04122173
	0.07400335	-0.006884007	-0.002576465	0.001393069	0.0008823925	-0.05499071	-0.001822181	0.001268106
	-0.00163164	0.001002819	0.06006421	-0.04122173	-0.001822181	0.001268106	0.01721955	-0.01283807
2.9e+08	-0.0004034653	-0.05524829	-0.001830537	0.001554524	0.07346379	-0.01026021	-0.001609429	0.001149149
	-0.001830537	0.001554524	0.01876665	-0.01419782	-0.002553041	0.001610119	0.05606376	-0.04602269
	0.07346379	-0.01026021	-0.002553041	0.001610119	-0.0002994421	-0.05548875	-0.001785809	0.001417801
	-0.001609429	0.001149149	0.05606376	-0.04602269	-0.001785809	0.001417801	0.01902928	-0.01367631
3e+08	-0.001408068	-0.05579279	-0.001770716	0.001716658	0.07263331	-0.01345766	-0.001574704	0.001297172
	-0.001770716	0.001716658	0.02063646	-0.01540396	-0.002509648	0.00183027	0.05147165	-0.05040486
	0.07263331	-0.01345766	-0.002509648	0.00183027	-0.001316299	-0.05599643	-0.001738916	0.001567831
	-0.001574704	0.001297172	0.05147165	-0.05040486	-0.001738916	0.001567831	0.0208955	-0.01494055
3.1e+08	-0.002260003	-0.05638143	-0.001697785	0.001877815	0.07154856	-0.01644665	-0.001527083	0.001445948
	-0.001697785	0.001877815	0.02249987	-0.01705971	-0.002445736	0.002051461	0.04633651	-0.05429981
	0.07154856	-0.01644665	-0.002445736	0.002051461	-0.002175186	-0.05654578	-0.00168145	0.001717757
	-0.001527083	0.001445948	0.04633651	-0.05429981	-0.00168145	0.001717757	0.02274585	-0.01665398
3.2e+08	-0.002971407	-0.05704414	-0.001611541	0.002037147	0.07024913	-0.01920404	-0.001466336	0.001594413
	-0.001611541	0.002037147	0.02427993	-0.01917797	-0.002361164	0.002271476	0.04071465	-0.05764491
	0.07024913	-0.01920404	-0.002361164	0.002271476	-0.002887673	-0.05716718	-0.00161321	0.001867192
	-0.001466336	0.001594413	0.04071465	-0.05764491	-0.00161321	0.001867192	0.024504	-0.01882788
3.3e+08	-0.003558714	-0.05780845	-0.001511809	0.002193769	0.06877644	-0.02171259	-0.001392215	0.001741535
	-0.001511809	0.002193769	0.02589712	-0.0217596	-0.00225589	0.002488245	0.03466932	-0.06038406
	0.06877644	-0.02171259	-0.00225589	0.002488245	-0.003469464	-0.05788887	-0.001533955	0.002015735
	-0.001392215	0.001741535	0.03466932	-0.06038406	-0.001533955	0.002015735	0.02608997	-0.02146245
3.4e+08	-0.004042226	-0.05869922	-0.001398458	0.002346732	0.06717398	-0.0239615	-0.001304576	0.001886251
	-0.001398458	0.002346732	0.02727041	-0.02479281	-0.002130302	0.00269958	0.02826987	-0.06246929
	0.06717398	-0.0239615	-0.002130302	0.00269958	-0.003940825	-0.05873637	-0.001443386	0.002162947
	-0.001304576	0.001886251	0.02826987	-0.06246929	-0.001443386	0.002162947	0.02742349	-0.02454483
3.5e+08	-0.004446074	-0.05973779	-0.001271387	0.002494994	0.06548515	-0.02594695	-0.001203344	0.002027393
	-0.001271387	0.002494994	0.02831958	-0.02825331	-0.001985008	0.002903474	0.02159091	-0.06386035
	0.06548515	-0.02594695	-0.001985008	0.002903474	-0.004325227	-0.05973241	-0.001341179	0.002308265
	-0.001203344	0.002027393	0.02159091	-0.06386035	-0.001341179	0.002308265	0.02842401	-0.02804978
3.6e+08	-0.004797193	-0.06094229	-0.001130544	0.002637506	0.06375295	-0.0276713	-0.001088548	0.002163809
	-0.001130544	0.002637506	0.02896661	-0.0321042	-0.00182071	0.003098041	0.01471145	-0.0645261
	0.06375295	-0.0276713	-0.00182071	0.003098041	-0.00464952	-0.06089533	-0.00122696	0.002451091
	-0.001088548	0.002163809	0.01471145	-0.0645261	-0.00122696	0.002451091	0.02901442	-0.03193906
3.7e+08	-0.005124964	-0.0623261	-0.0009758733	0.002773119	0.06201897	-0.02914327	-0.0009602035	0.002294337
	-0.0009758733	0.002773119	0.0291384	-0.03629611	-0.001638412	0.003281527	0.007713249	-0.06444476
	0.06201897	-0.02914327	-0.001638412	0.003281527	-0.004943134	-0.06224003	-0.00110023	0.002590738
	-0.0009602035	0.002294337	0.007713249	-0.06444476	-0.00110023	0.002590738	0.02912213	-0.03616232
3.8e+08	-0.005460519	-0.06389824	-0.0008075013	0.002900604	0.06032236	-0.03037784	-0.0008185563	0.002417725
	-0.0008075013	0.002900604	0.02876765	-0.04076807	-0.00143936	0.00345231	0.0006803545	-0.06360361
	0.06032236	-0.03037784	-0.00143936	0.00345231	-0.005237059	-0.06377687	-0.000960611	0.002726331
	-0.0008185563	0.002417725	0.0006803545	-0.06360361	-0.000960611	0.002726331	0.02868021	-0.04065756
3.9e+08	-0.005836518	-0.06566379	-0.0006256073	0.003018682	0.05869934	-0.0313957	-0.0006638519	0.002532734
	-0.0006256073	0.003018682	0.02779485	-0.0454472	-0.001224863	0.003609025	-0.006302171	-0.06200031
	0.05869934	-0.0313957	-0.001224863	0.003609025	-0.005564466	-0.06551116	-0.0008076869	0.002856907
	-0.0006638519	0.002532734	-0.006302171	-0.06200031	-0.0008076869	0.002856907	0.02763099	-0.04535105
4e+08	-0.006285915	-0.06762245	-0.0004304964	0.003126005	0.05718199	-0.03222263	-0.0004964904	0.002638089
	-0.0004304964	0.003126005	0.02617066	-0.05025131	-0.0009962375	0.00375049	-0.01314982	-0.0596417
	0.05718199	-0.03222263	-0.0009962375	0.00375049	-0.00595833	-0.0674444	-0.0006410298	0.002981334
	-0.0004964904	0.002638089	-0.01314982	-0.0596417	-0.0006410298	0.002981334	0.02592541	-0.05016005
4.1e+08	-0.006841256	-0.0697693	-0.0002227337	0.003220653	0.05579782	-0.0328884	-0.0003169522	0.002732569
	-0.0002227337	0.003220653	0.02385718	-0.05509002	-0.0007434161	0.003879741	-0.01977914	-0.05654438
	0.05579782	-0.0328884	-0.0007434161	0.003879741	-0.006451926	-0.06957247	-0.0004613622	0.003098413
	-0.0003169522	0.002732569	-0.01977914	-0.05654438	-0.0004613622	0.003098413	0.02352668	-0.05499325
4.2e+08	-0.007534746	-0.07209499	-2.96172e-06	0.003301511	0.05456899	-0.03342775	-0.0001259144	0.002814901
	-2.96172e-06	0.003301511	0.02082864	-0.05986458	-0.0004734486	0.003991897	-0.02610954	-0.05273459
	0.05456899	-0.03342775	-0.0004734486	0.003991897	-0.007078008	-0.07188708	-0.0002679135	0.003206922
	-0.0001259144	0.002814901	-0.02610954	-0.05273459	-0.0002679135	0.003206922	0.0204105	-0.05975131
4.3e+08	-0.008396635	-0.07458553	0.00022813	0.003367419	0.05351194	-0.03387715	7.596436e-05	0.002883779
	0.00022813	0.003367419	0.01707335	-0.06447209	-0.0001936688	0.004084075	-0.03206398	-0.04824706
	0.05351194	-0.03387715	-0.0001936688	0.004084075	-0.007868237	-0.07437527	-6.009909e-05	0.003305285
	7.596436e-05	0.002883779	-0.03206398	-0.04824706	-6.009909e-05	0.003305285	0.0165664	-0.06433112
4.4e+08	-0.009455387	-0.07722277	0.0004695907	0.003416965	0.05263675	-0.03427578	0.0002877268	0.002937989
	0.0004695907	0.003416965	0.01259397	-0.06880639	9.439157e-05	0.004155883	-0.0375698	-0.04312515
	0.05263675	-0.03427578	9.439157e-05	0.004155883	-0.00885164	-0.07701971	0.0001618402	0.00339179
	0.0002877268	0.002937989	-0.0375698	-0.04312515	0.0001618402	0.00339179	0.01199848	-0.06862579
4.5e+08	-0.01073687	-0.07998489	0.0007203183	0.003448799	0.05194754	-0.03466394	0.0005082972	0.002976372
	0.0007203183	0.003448799	0.007408845	-0.07275895	0.0003892734	0.00420709	-0.04256016	-0.03742008
	0.05194754	-0.03466394	0.0003892734	0.00420709	-0.0100554	-0.07979921	0.0003975929	0.003464655
	0.0005082972	0.002976372	-0.04256016	-0.03742008	0.0003975929	0.003464655	0.006726493	-0.07252688
4.6e+08	-0.01226386	-0.08284678	0.0009789176	0.003461632	0.05144162	-0.03508226	0.0007365566	0.002997799
	0.0009789176	0.003461632	0.001551561	-0.07622237	0.000689385	0.004237598	-0.04697434	-0.03118991
	0.05144162	-0.03508226	0.000689385	0.004237598	-0.0115036	-0.08268919	0.0006467278	0.003521936
	0.0007365566	0.002997799	-0.04697434	-0.03118991	0.0006467278	0.003521936	0.0007852701	-0.07592761
4.7e+08	-0.01405546	-0.08577978	0.001243975	0.003454246	0.05110974	-0.03557007	0.0009711461	0.003001254
	0.001243975	0.003454246	-0.004928229	-0.07909393	0.0009934077	0.004247374	-0.05075909	-0.02449869
	0.05110974	-0.03557007	0.0009934077	0.004247374	-0.01321669	-0.08566162	0.0009082808	0.003561782
	0.0009711461	0.003001254	-0.05075909	-0.02449869	0.0009082808	0.003561782	-0.00577412	-0.07872434
4.8e+08	-0.01612674	-0.08875378	0.00151382	0.003425582	0.05093663	-0.03616544	0.001210678	0.002985778
	0.00151382	0.003425582	-0.01196678	-0.08127449	0.001300311	0.004236425	-0.05386835	-0.01741595
	0.05093663	-0.03616544	0.001300311	0.004236425	-0.01521122	-0.08868617	0.001181216	0.003582238
	0.001210678	0.002985778	-0.05386835	-0.01741595	0.001181216	0.003582238	-0.01288583	-0.08081933
4.9e+08	-0.01848912	-0.09173608	0.001786534	0.003374742	0.05090068	-0.03690385	0.001453606	0.00295056
