# GHz S RI R 45
0.000     0.069299134754    0.042235179272    -0.000130669525    -0.000013426193    0.024810648549    0.043647459993    -0.000130316258    0.000002311673
            -0.000130669257    -0.000013426258    0.069630247499    0.042600373610    -0.000129018739    -0.000041512054    0.024681540325    0.043918441912
            0.024810705271    0.043647419698    -0.000129016459    -0.000041512936    0.069179542537    0.041706727811    -0.000107157918    -0.000023395377
            -0.000130315553    0.000002311410    0.024681517583    0.043918440928    -0.000107157990    -0.000023395236    0.069550987188    0.042074407112
0.025     0.147328583916    0.035305148655    -0.000402869572    -0.000026455605    0.104410537859    0.053748049064    -0.000287548241    -0.000005491286
            -0.000402867485    -0.000026453208    0.148653841218    0.034537907249    -0.000556357976    -0.000080486146    0.105095867384    0.053107785762
            0.104417952043    0.053753834512    -0.000556354342    -0.000080479772    0.146548095508    0.034734718525    -0.000411690094    -0.000046017947
            -0.000287545565    -0.000005485813    0.105099936829    0.053111661346    -0.000411691764    -0.000046017770    0.147971016184    0.033897475684
0.050     0.153561974060    -0.083389245557    -0.000583240496    0.000270668249    0.134354599774    -0.064145048339    -0.000447001914    0.000178002696
            -0.000583240677    0.000270666601    0.152406922084    -0.086850878318    -0.000816991628    0.000400041173    0.133050690416    -0.066952514355
            0.134354925423    -0.064146617625    -0.000816993019    0.000400039379    0.152161870424    -0.082845441624    -0.000603692488    0.000278756903
            -0.000447002761    0.000178001136    0.133050678237    -0.066952627545    -0.000603692359    0.000278757994    0.150923520555    -0.086307938281
0.075     0.040762321383    -0.083534691899    -0.000323416213    0.001389619290    0.015681788927    -0.076930001050    -0.000280615608    0.001087650201
            -0.000323416902    0.001389620054    0.035941148077    -0.083642636781    -0.000385736950    0.001835724187    0.011569258119    -0.076956256690
            0.015681503635    -0.076930001032    -0.000385738076    0.001835724768    0.040472395403    -0.081986438421    -0.000320109655    0.001408857505
            -0.000280616627    0.001087651797    0.011569210371    -0.076956249711    -0.000320109163    0.001408857617    0.035705424330    -0.082099874523
0.100     0.069392198024    0.000969193111    0.001794067453    0.000935154175    0.036963384006    0.020804278484    0.001415165416    0.000727466219
            0.001794067493    0.000935154315    0.069008425146    0.003248144442    0.002299111358    0.001266916274    0.036885167627    0.022218838253
            0.036963327217    0.020804285598    0.002299111221    0.001266917350    0.070182127619    0.001600372397    0.001804590446    0.000945794622
            0.001415166001    0.000727467707    0.036885122429    0.022218880339    0.001804591091    0.000945794037    0.069774335186    0.003850419557
0.125     0.130434547388    -0.066536615384    0.001487474842    -0.001060499340    0.112264089343    -0.040729618796    0.001141154565    -0.000828283983
            0.001487474986    -0.001060498621    0.129478097678    -0.071242317850    0.002064844341    -0.001325921599    0.110892145901    -0.045973091313
            0.112264043370    -0.040729657549    0.002064845162    -0.001325921617    0.130386902402    -0.066558085522    0.001516550541    -0.001060583510
            0.001141154863    -0.000828283743    0.110892163533    -0.045972996559    0.001516550578    -0.001060583457    0.129580904909    -0.071250970798
0.150     0.051479199597    -0.124872994426    0.000577326502    -0.001946117689    0.033271577052    -0.107543329246    0.000465434704    -0.001520381601
            0.000577326485    -0.001946118007    0.039635932215    -0.127844498256    0.000801457039    -0.002641465411    0.021762411290    -0.110402652546
            0.033271548057    -0.107543275410    0.000801457956    -0.002641465446    0.051160985846    -0.123766843219    0.000589254079    -0.001985579314
            0.000465434657    -0.001520381825    0.021762378526    -0.110402648812    0.000589253994    -0.001985579027    0.039409640060    -0.127049291931
0.175     0.006348632717    -0.056888857552    -0.002088834844    -0.002355036656    -0.016941482897    -0.027439295782    -0.001687444556    -0.001856548920
            -0.002088835388    -0.002355036441    -0.003319560751    -0.047320353973    -0.002679323783    -0.003112333602    -0.025310157087    -0.018887780326
            -0.016941420944    -0.027439281147    -0.002679323240    -0.003112334069    0.007672472232    -0.055541538101    -0.002124275033    -0.002379126998
            -0.001687443896    -0.001856548845    -0.025310163952    -0.018887751062    -0.002124275448    -0.002379126627    -0.002289736878    -0.046017948454
0.200     0.063736288916    -0.046909740072    -0.003279205471    0.001359709088    0.055920417723    -0.011216034811    -0.002558615738    0.001157728330
            -0.003279205062    0.001359708247    0.064266494747    -0.043280509582    -0.004346192457    0.001560581267    0.056680889906    -0.009761513395
            0.055920420307    -0.011216138885    -0.004346192259    0.001560580339    0.065499702980    -0.047330857003    -0.003311486505    0.001376775009
            -0.002558615687    0.001157727231    0.056680883974    -0.009761441784    -0.003311486689    0.001376775085    0.066328070462    -0.043443505153
0.225     0.046500639758    -0.109754755737    -0.000523610189    0.003077525252    0.042190743541    -0.084016251687    -0.000338291918    0.002406232855
            -0.000523610961    0.003077524918    0.033518984356    -0.114046428578    -0.000947197309    0.004068793800    0.028497472185    -0.089625048613
            0.042190680014    -0.084016242186    -0.000947198661    0.004068793177    0.046905804987    -0.110515866810    -0.000537436580    0.003109199623
            -0.000338292940    0.002406232812    0.028497472987    -0.089625029469    -0.000537436746    0.003109199290    0.034368577369    -0.115426666958
0.250     -0.021688117108    -0.094728264329    0.001940712158    0.002879233018    -0.030244290991    -0.061102716053    0.001571579150    0.002248627220
            0.001940711421    0.002879233876    -0.043455953729    -0.079097353505    0.002467212313    0.003937876823    -0.051447764597    -0.046570803731
            -0.030244275482    -0.061102657897    0.002467212488    0.003937876950    -0.021140100164    -0.094406090327    0.001964017312    0.002930727532
            0.001571578422    0.002248627851    -0.051447754191    -0.046570777975    0.001964018028    0.002930727052    -0.043494738386    -0.079295010224
0.275     -0.012654919062    -0.040905901880    0.004638789898    -0.000246242714    -0.001632123276    -0.000931289515    0.003704121594    -0.000332156871
            0.004638789995    -0.000246242768    -0.013095575211    -0.018443593679    0.006053760332    -0.000057877794    -0.001572633123    0.018463757257
            -0.001632084396    -0.000931318306    0.006053760335    -0.000057877538    -0.010830449597    -0.041302513162    0.004716371338    -0.000263168626
            0.003704121304    -0.000332156741    -0.001572621930    0.018463778282    0.004716371216    -0.000263169024    -0.011333849897    -0.018274842332
0.300     0.020944181457    -0.059758815110    0.001725547875    -0.004684429252    0.038515153231    -0.038908933729    0.001165495767    -0.003783297946
            0.001725548369    -0.004684428324    0.018136928478    -0.058139642045    0.002654959407    -0.005939066427    0.033937237995    -0.040307405331
            0.038515107053    -0.038908979440    0.002654964741    -0.005939059441    0.021984757020    -0.061741744703    0.001714504464    -0.004752937240
            0.001165496316    -0.003783297149    0.033937253829    -0.040307384156    0.001714503544    -0.004752936509    0.020129578137    -0.060625065157
0.325     -0.015610446846    -0.092618818269    -0.002744491287    -0.003630332236    -0.010886396836    -0.069618816547    -0.002274800186    -0.002725807346
            -0.002744490593    -0.003630332635    -0.041947086495    -0.076986073645    -0.003280947401    -0.005077458186    -0.039060722236    -0.054846819334
            -0.010886484021    -0.069618745221    -0.003280947347    -0.005077458102    -0.015912925305    -0.094204147641    -0.002764878517    -0.003643921289
            -0.002274799646    -0.002725807666    -0.039060705993    -0.054846796526    -0.002764879153    -0.003643920806    -0.042770985135    -0.079874234090
0.350     -0.060552609978    -0.052736761062    -0.004887298217    -0.000526020201    -0.038817919326    -0.017788189469    -0.003888511877    -0.000281032340
            -0.004887298714    -0.000526020254    -0.066265565922    -0.010868575496    -0.006424972145    -0.001055906616    -0.044596573397    0.022430432135
            -0.038817865690    -0.017788164891    -0.006424972540    -0.001055906681    -0.060589706897    -0.053506274838    -0.004949746192    -0.000559200143
            -0.003888513224    -0.000281033119    -0.044596491367    0.022430488403    -0.004949745498    -0.000559200939    -0.067173614870    -0.011267850241
0.375     -0.024409584943    -0.011621544902    -0.003884065838    0.004971399030    0.014568128871    -0.002358029794    -0.002894756686    0.004167788385
            -0.003884065900    0.004971399109    -0.009801127594    0.006216812958    -0.005437283128    0.006103335474    0.027520239305    0.012337849060
            0.014568141603    -0.002358095076    -0.005437283128    0.006103335474    -0.023994030414    -0.013075831873    -0.003932156026    0.005076943216
            -0.002894756743    0.004167788467    0.027520239951    0.012337847620    -0.003932156789    0.005076942371    -0.008456784674    0.004900536786
0.400     -0.001346868220    -0.056973784147    0.003283983904    0.005954210470    0.012963730233    -0.062049472729    0.002954152857    0.004522939211
            0.003283983953    0.005954210557    -0.017183582718    -0.046174203375    0.003572391622    0.008043695596    -0.005932772415    -0.052206437382
            0.012963732194    -0.062049471297    0.003572391563    0.008043695842    -0.001999061786    -0.059059523309    0.003377033830    0.005975418498
            0.002954152833    0.004522939347    -0.005932681780    -0.052206419502    0.003377033732    0.005975418324    -0.017758323797    -0.049977244307
0.425     -0.068937718324    -0.068997735503    0.006042440797    0.000259791110    -0.055385710297    -0.051119381251    0.004710164897    -0.000099834425
            0.006042440572    0.000259791681    -0.080727889627    -0.018878464526    0.007897333793    0.001071000284    -0.068090092733    -0.000429290086
            -0.055385704099    -0.051119303925    0.007897330798    0.001071003766    -0.070567496285    -0.070345535580    0.006040505996    0.000249668717
            0.004710164807    -0.000099833962    -0.068090093808    -0.000429278208    0.006040505333    0.000249667813    -0.083923480982    -0.020633899859
0.450     -0.078251135872    0.010496482454    0.004750254908    -0.004387150822    -0.036784238737    0.014486745396    0.003623551864    -0.003671475886
            0.004750255425    -0.004387151146    -0.048407089088    0.050251353939    0.006610969124    -0.005293434521    -0.006927926356    0.052879476887
            -0.036784170147    0.014486725799    0.006610969514    -0.005293434833    -0.079726495031    0.010139649067    0.004835294475    -0.004406220922
            0.003623552280    -0.003671476179    -0.006927923587    0.052879477249    0.004835294253    -0.004406220720    -0.049753765685    0.050627360585
0.475     -0.005114840956    -0.000473995139    -0.001929041509    -0.008386583857    0.017213083480    -0.031067657891    -0.002059597546    -0.006668086856
            -0.001929041576    -0.008386584149    0.004415497148    0.006243942653    -0.001558065002    -0.010856240752    0.025106572689    -0.025699365898
            0.017213048445    -0.031067716171    -0.001558065381    -0.010856240697    -0.005957291750    -0.000906197404    -0.001995285028    -0.008500047568
            -0.002059597605    -0.006668087047    0.025106614848    -0.025699384825    -0.001995285005    -0.008500047471    0.004251136077    0.004539899673
0.500     -0.054316608198    -0.066460342872    -0.008806839360    -0.000952921908    -0.062331007474    -0.077291985382    -0.007060827448    -0.000087387713
            -0.008806838565    -0.000952921822    -0.065864534816    -0.024380198281    -0.011031149103    -0.002458170423    -0.074612733211    -0.034558305412
            -0.062331058923    -0.077291938753    -0.011031149650    -0.002458172566    -0.055714013586    -0.067314158717    -0.008864854117    -0.000881443996
            -0.007060826748    -0.000087387705    -0.074612733211    -0.034558305412    -0.008864861345    -0.000881440027    -0.068764632615    -0.026518442037
0.525     -0.122119630444    0.010166716906    -0.004557190040    0.005556477247    -0.105247333501    0.016013038458    -0.003198145697    0.004564942409
            -0.004557189660    0.005556476783    -0.087136406666    0.066609126549    -0.006765927852    0.006560282036    -0.068641212946    0.072212476321
            -0.105247285572    0.016013087549    -0.006765929571    0.006560281412    -0.124405905509    0.010214277640    -0.004552795004    0.005534465757
            -0.003198146379    0.004564941687    -0.068641180565    0.072212442256    -0.004552795042    0.005534469740    -0.090403370504    0.067327890078
0.550     -0.036225907637    0.066630468381    0.000270245998    0.008333632635    -0.014475990989    0.037480150018    0.000581169524    0.006713505737
            0.000270245306    0.008333633758    0.005623867114    0.074701256336    -0.000526542064    0.010709996458    0.028789929218    0.043822894526
            -0.014475951548    0.037480106291    -0.000526542113    0.010709997457    -0.037776464865    0.068273047503    0.000215360054    0.008418220214
            0.000581169827    0.006713506513    0.028789932494    0.043822891177    0.000215360770    0.008418219496    0.004642319239    0.076020243923
0.575     -0.027628324994    -0.029676260772    0.010686868145    0.003917883448    -0.047795831353    -0.062461557198    0.009043020258    0.002388880160
            0.010686868419    0.003917882702    -0.028987205945    -0.009362076063    0.012685490007    0.006284387616    -0.047986586469    -0.043957231955
            -0.047795900520    -0.062461579822    0.012685489330    0.006284386730    -0.027546066104    -0.028712501279    0.010798941973    0.003942001240
            0.009043020425    0.002388879529    -0.047986546477    -0.043957318545    0.010798941767    0.003942001806    -0.029743745291    -0.009873254130
0.600     -0.136876985077    0.012639337878    0.006044853744    -0.008213729461    -0.159405820851    0.018141989713    0.004003933458    -0.007091213883
            0.006044853457    -0.008213729672    -0.106126172700    0.069800617947    0.009017321777    -0.009109192798    -0.126446116940    0.073394756555
            -0.159405824454    0.018142046487    0.009017321777    -0.009109192798    -0.137676678477    0.012621219811    0.006039523100    -0.008263920654
            0.004003933039    -0.007091213430    -0.126446116940    0.073394756555    0.006039522956    -0.008263920760    -0.108518357864    0.069847310041
0.625     -0.078665441766    0.127218777551    -0.001658086109    -0.007430270513    -0.072864083720    0.125518238018    -0.001721688809    -0.005604416657
            -0.001658084769    -0.007430270607    -0.013460485167    0.144124193462    -0.000845776560    -0.009954244411    -0.004969033902    0.138887578916
            -0.072864056792    0.125518242087    -0.000845776395    -0.009954244526    -0.080294831728    0.128781702582    -0.001610820555    -0.007431649916
            -0.001721687831    -0.005604416958    -0.004969031120    0.138887569009    -0.001610820534    -0.007431649818    -0.015266329472    0.145944113196
0.650     0.012401969930    0.050445895169    -0.008604935577    -0.006280671985    -0.002542555102    0.026178713520    -0.007421186205    -0.004710138538
            -0.008604936385    -0.006280672575    0.032603318597    0.041773682534    -0.009961318591    -0.008872367269    0.020504058826    0.013075116293
            -0.002542564520    0.026178644285    -0.009961319338    -0.008872367934    0.013192586007    0.053255420478    -0.008629463698    -0.006388630675
            -0.007421187133    -0.004710139127    0.020504052220    0.013075108054    -0.008629463698    -0.006388630675    0.032952369051    0.043751607796
0.675     -0.107659003475    0.022554152292    -0.009827362555    0.008853290902    -0.149106778391    0.025974977603    -0.007252737521    0.008289848658
            -0.009827362555    0.008853290902    -0.087938291275    0.063647444477    -0.013349384431    0.008940447152    -0.126657934201    0.058533812581
            -0.149106857204    0.025974991332    -0.013349384431    0.008940447152    -0.105774290267    0.022681874549    -0.009930231574    0.008869932625
            -0.007252736074    0.008289849924    -0.126657934201    0.058533812581    -0.009930230083    0.008869931293    -0.087384855774    0.063424429107
0.700     -0.095046561174    0.166006669296    0.003847074822    0.009279616475    -0.113556592506    0.193501685291    0.004093082862    0.006840466530
            0.003847074719    0.009279617600    -0.026470115246    0.189193776252    0.002589098468    0.012243115899    -0.044269993377    0.210006780449
            -0.113556602629    0.193501702540    0.002589098675    0.012243116877    -0.095231279177    0.165782229884    0.003816650694    0.009327927243
            0.004093082932    0.006840467188    -0.044269993377    0.210006780449    0.003816650694    0.009327927243    -0.027544794719    0.189165349066
0.725     0.047634361766    0.151867043673    0.006638768237    0.003779338713    0.043779421836    0.163041554413    0.005297616084    0.002554747424
            0.006638766933    0.003779337971    0.096136922348    0.126027842779    0.007888637955    0.006193434967    0.092907533159    0.130659437789
            0.043779428284    0.163041521619    0.007888634406    0.006193434629    0.047764009666    0.153919039911    0.006635481178    0.003866916668
            0.005297615991    0.002554746695    0.092907545420    0.130659392260    0.006635482595    0.003866914236    0.095458980507    0.127919024024
0.750     -0.013074329307    0.032569595712    0.011913790456    -0.004460946313    -0.034753549195    0.041815124759    0.009690387168    -0.004592681429
            0.011913786005    -0.004460941090    -0.006263443052    0.039276436419    0.015059980079    -0.003591429463    -0.026580526862    0.039469511823
            -0.034753613333    0.041815083156    0.015059980926    -0.003591430221    -0.009786308839    0.033504376941    0.012018012056    -0.004401152161
            0.009690390097    -0.004592679918    -0.026580592583    0.039469445862    0.012018012133    -0.004401151951    -0.003795514940    0.040270595288
0.775     -0.074668220908    0.166592043534    -0.002896134622    -0.012486408638    -0.096727509613    0.205388353164    -0.003961938084    -0.009972971211
            -0.002896134622    -0.012486408638    -0.019656540028    0.189027770042    -0.000651629029    -0.015309043990    -0.043011669330    0.221291321419
            -0.096727539438    0.205388416492    -0.000651629563    -0.015309043967    -0.072996038003    0.164451697936    -0.002796995113    -0.012566029920
