# GHz S RI R 45
0.000     0.069295595648    0.042435766848    -0.000031575378    -0.000004918316    0.024815965335    0.043727765193    -0.000021343207    -0.000004638504
            -0.000031575198    -0.000004918378    0.069630247499    0.042600373610    -0.000069696152    0.000001042081    0.024681540325    0.043918441912
            0.024815965020    0.043727769971    -0.000069696377    0.000001042401    0.069241668912    0.041792555017    -0.000010902572    -0.000013349967
            -0.000021342970    -0.000004638495    0.024681517583    0.043918440928    -0.000010909251    -0.000013347957    0.069550987188    0.042074407112
0.025     0.147936230478    0.034425509884    -0.000065355775    0.000005001717    0.104914077811    0.053044256838    -0.000060102240    0.000001043548
            -0.000065356024    0.000005000703    0.148653841218    0.034537907249    -0.000089967982    0.000020983601    0.105095867384    0.053107785762
            0.104913019568    0.053045308219    -0.000089967851    0.000020983985    0.147037692270    0.033794693411    -0.000095681765    -0.000010937864
            -0.000060101145    0.000001043047    0.105099936829    0.053111661346    -0.000095681644    -0.000010937038    0.147971016184    0.033897475684
0.050     0.152171953531    -0.085105488266    -0.000090143628    0.000037283225    0.133458499269    -0.066056722664    -0.000080233810    0.000044047512
            -0.000090143860    0.000037282898    0.152406922084    -0.086850878318    -0.000122440415    0.000073306856    0.133050690416    -0.066952514355
            0.133458023962    -0.066057908375    -0.000122440706    0.000073306798    0.150798075833    -0.084694027695    -0.000121499873    0.000078584648
            -0.000080234053    0.000044047208    0.133050678237    -0.066952627545    -0.000121499837    0.000078584685    0.150923520555    -0.086307938281
0.075     0.038884335008    -0.082977405612    -0.000057407758    0.000237088457    0.013770611833    -0.077201145921    -0.000030805851    0.000199005498
            -0.000057408081    0.000237088523    0.035941148077    -0.083642636781    -0.000043610003    0.000316245852    0.011569258119    -0.076956256690
            0.013770194894    -0.077201232480    -0.000043610114    0.000316245967    0.038467845445    -0.081846032620    -0.000026477860    0.000275356353
            -0.000030806166    0.000199005652    0.011569210371    -0.076956249711    -0.000026477876    0.000275356322    0.035705424330    -0.082099874523
0.100     0.070177263211    0.000662047782    0.000304216186    0.000137650763    0.037313900279    0.020066058903    0.000253479534    0.000108242555
            0.000304216142    0.000137650909    0.069008425146    0.003248144442    0.000402172032    0.000174644290    0.036885167627    0.022218838253
            0.037313828865    0.020066204368    0.000402171904    0.000174644659    0.070467935241    0.001029700506    0.000340583652    0.000153214652
            0.000253479510    0.000108242738    0.036885122429    0.022218880339    0.000340583637    0.000153214659    0.069774335186    0.003850419557
0.125     0.128781172721    -0.070039153723    0.000223033974    -0.000160288033    0.110628527946    -0.044760345378    0.000196529343    -0.000146275036
            0.000223033993    -0.000160287852    0.129478097678    -0.071242317850    0.000318851925    -0.000231674942    0.110892145901    -0.045973091313
            0.110628592055    -0.044760373564    0.000318851969    -0.000231674897    0.128458772781    -0.070090678559    0.000289374172    -0.000200133782
            0.000196529408    -0.000146274865    0.110892163533    -0.045972996559    0.000289374162    -0.000200133850    0.129580904909    -0.071250970798
0.150     0.046156101114    -0.125202459149    0.000126838156    -0.000321049855    0.027542998062    -0.109175118242    0.000075428970    -0.000284925301
            0.000126838427    -0.000321049770    0.039635932215    -0.127844498256    0.000124169120    -0.000453698095    0.021762411290    -0.110402652546
            0.027542991522    -0.109175140518    0.000124169228    -0.000453698086    0.045550905832    -0.124525795089    0.000095140420    -0.000401397069
            0.000075428990    -0.000284925295    0.021762378526    -0.110402648812    0.000095140415    -0.000401397050    0.039409640060    -0.127049291931
0.175     0.004581312758    -0.054194682540    -0.000376097318    -0.000400948537    -0.020123810337    -0.025578909718    -0.000325868075    -0.000304373312
            -0.000376097178    -0.000400948669    -0.003319560751    -0.047320353973    -0.000500773206    -0.000488885492    -0.025310157087    -0.018887780326
            -0.020123820503    -0.025578904265    -0.000500773213    -0.000488885499    0.004949720407    -0.053064156869    -0.000426726538    -0.000411088595
            -0.000325867848    -0.000304373526    -0.025310163952    -0.018887751062    -0.000426726524    -0.000411088581    -0.002289736878    -0.046017948454
0.200     0.063077373398    -0.048736856987    -0.000513695818    0.000245437133    0.054271803678    -0.013308464039    -0.000422480051    0.000217906867
            -0.000513695850    0.000245436928    0.064266494747    -0.043280509582    -0.000675358077    0.000315226194    0.056680889906    -0.009761513395
            0.054271808597    -0.013308494367    -0.000675358086    0.000315226055    0.064220922397    -0.048641307588    -0.000586911179    0.000259265875
            -0.000422480091    0.000217906702    0.056680883974    -0.009761441784    -0.000586911170    0.000259265994    0.066328070462    -0.043443505153
0.225     0.039858404494    -0.111324216574    -0.000110566225    0.000475238256    0.034301651145    -0.086594249225    -0.000065733816    0.000420187717
            -0.000110566377    0.000475238159    0.033518984356    -0.114046428578    -0.000131470067    0.000653801968    0.028497472185    -0.089625048613
            0.034301669559    -0.086594295711    -0.000131470069    0.000653801978    0.040100339191    -0.112034854042    -0.000118532187    0.000580269614
            -0.000065733996    0.000420187618    0.028497472987    -0.089625029469    -0.000118532189    0.000580269624    0.034368577369    -0.115426666958
0.250     -0.028060989425    -0.089626481501    0.000324947926    0.000530931156    -0.039104978311    -0.056272779227    0.000309850406    0.000406429557
            0.000324947951    0.000530931739    -0.043455953729    -0.079097353505    0.000447804605    0.000653576579    -0.051447764597    -0.046570803731
            -0.039105016336    -0.056272771070    0.000447804605    0.000653576604    -0.028418052521    -0.089283267247    0.000400103905    0.000557970602
            0.000309850370    0.000406430024    -0.051447754191    -0.046570777975    0.000400103915    0.000557970595    -0.043494738386    -0.079295010224
0.275     -0.013319302085    -0.036425422029    0.000803406788    -0.000091934757    -0.004139711143    0.004729413446    0.000647571672    -0.000112837745
            0.000803406702    -0.000091934282    -0.013095575211    -0.018443593679    0.001005227504    -0.000107263323    -0.001572633123    0.018463757257
            -0.004139714928    0.004729419435    0.001005227504    -0.000107263319    -0.012134902757    -0.035732513891    0.000860820111    -0.000093425207
            0.000647571741    -0.000112837640    -0.001572621930    0.018463778282    0.000860820086    -0.000093425158    -0.011333849897    -0.018274842332
0.300     0.017587082353    -0.059781654016    0.000237287980    -0.000761276960    0.033997264442    -0.038436604189    0.000167983513    -0.000649082899
            0.000237288022    -0.000761276999    0.018136928478    -0.058139642045    0.000333222965    -0.000975380013    0.033937237995    -0.040307405331
            0.033997263771    -0.038436604782    0.000333222982    -0.000975380007    0.019037015948    -0.061052145783    0.000297169282    -0.000844767476
            0.000167983534    -0.000649082935    0.033937253829    -0.040307384156    0.000297169261    -0.000844767462    0.020129578137    -0.060625065157
0.325     -0.024089332504    -0.087524322999    -0.000417500256    -0.000609904719    -0.021917399497    -0.063682030765    -0.000399930544    -0.000483374062
            -0.000417500267    -0.000609904735    -0.041947086495    -0.076986073645    -0.000547448073    -0.000783804062    -0.039060722236    -0.054846819334
            -0.021917401124    -0.063682035493    -0.000547448233    -0.000783803999    -0.024588470521    -0.088964927948    -0.000486988472    -0.000687558255
            -0.000399930570    -0.000483374093    -0.039060705993    -0.054846796526    -0.000486988466    -0.000687558247    -0.042770985135    -0.079874234090
0.350     -0.063322439637    -0.041009080570    -0.000881290922    -0.000092875926    -0.043432446121    -0.003044298691    -0.000719559773    -0.000011658245
            -0.000881291084    -0.000092876099    -0.066265565922    -0.010868575496    -0.001084583133    -0.000123072574    -0.044596573397    0.022430432135
            -0.043432456096    -0.003044299390    -0.001084583232    -0.000123072585    -0.063526873483    -0.040575283801    -0.000940034783    -0.000088704513
            -0.000719559421    -0.000011658993    -0.044596491367    0.022430488403    -0.000940034743    -0.000088704509    -0.067173614870    -0.011267850241
0.375     -0.021012850868    -0.005025539116    -0.000583835728    0.000908810399    0.018308728019    0.006978636221    -0.000439791177    0.000769604665
            -0.000583835782    0.000908810483    -0.009801127594    0.006216812958    -0.000779506034    0.001090494085    0.027520239305    0.012337849060
            0.018308727087    0.006978644283    -0.000779506108    0.001090493787    -0.019390612635    -0.005556004598    -0.000668182228    0.000939041726
            -0.000439791201    0.000769604708    0.027520239951    0.012337847620    -0.000668182170    0.000939041645    -0.008456784674    0.004900536786
0.400     -0.004256535665    -0.053780263387    0.000574640458    0.000901574928    0.009847229315    -0.057248224711    0.000532995115    0.000738549547
            0.000574640480    0.000901575032    -0.017183582718    -0.046174203375    0.000673327813    0.001179839950    -0.005932772415    -0.052206437382
            0.009847230484    -0.057248225524    0.000673327862    0.001179840037    -0.004071836195    -0.056057751678    0.000583951462    0.001033613523
            0.000532995132    0.000738549596    -0.005932681780    -0.052206419502    0.000583951431    0.001033613426    -0.017758323797    -0.049977244307
0.425     -0.073413082522    -0.055691257192    0.000979779955    0.000073972962    -0.060333822866    -0.034388548818    0.000831957902    -0.000023386260
            0.000979780217    0.000073973468    -0.080727889627    -0.018878464526    0.001221498071    0.000125364415    -0.068090092733    -0.000429290086
            -0.060333828079    -0.034388551789    0.001221498307    0.000125364073    -0.074625943438    -0.056447429907    0.001078413665    0.000091564473
            0.000831957952    -0.000023386252    -0.068090093808    -0.000429278208    0.001078413665    0.000091564475    -0.083923480982    -0.020633899859
0.450     -0.069334834366    0.025772570110    0.000813623378    -0.000816059780    -0.025535996609    0.033642494082    0.000605577401    -0.000711131062
            0.000813623623    -0.000816058971    -0.048407089088    0.050251353939    0.001041905162    -0.000936484786    -0.006927926356    0.052879476887
            -0.025536002050    0.033642501251    0.001041905237    -0.000936484853    -0.068899545149    0.025906365387    0.000880239432    -0.000818480999
            0.000605577733    -0.000711130345    -0.006927923587    0.052879477249    0.000880239505    -0.000818481067    -0.049753765685    0.050627360585
0.475     0.005160632160    0.001522623504    -0.000471066762    -0.001333907609    0.030930314496    -0.027426824749    -0.000444737546    -0.001104439084
            -0.000471066795    -0.001333907703    0.004415497148    0.006243942653    -0.000451308244    -0.001681678711    0.025106572689    -0.025699365898
            0.030930365757    -0.027426828738    -0.000451308244    -0.001681678711    0.005883902201    -0.000115529815    -0.000384595327    -0.001461025296
            -0.000444737390    -0.001104439255    0.025106614848    -0.025699384825    -0.000384595327    -0.001461025296    0.004251136077    0.004539899673
0.500     -0.055540185910    -0.061322565155    -0.001346800200    -0.000071837064    -0.061071225331    -0.070899213952    -0.001185284775    0.000025995260
            -0.001346800200    -0.000071837064    -0.065864534816    -0.024380198281    -0.001663471251    -0.000211342950    -0.074612733211    -0.034558305412
            -0.061071214915    -0.070899226884    -0.001663470682    -0.000211343468    -0.056440946119    -0.062734558765    -0.001478409128    -0.000177125802
            -0.001185284879    0.000025995055    -0.074612733211    -0.034558305412    -0.001478408929    -0.000177125779    -0.068764632615    -0.026518442037
0.525     -0.113862531239    0.027677859550    -0.000773749283    0.000879709886    -0.093247366257    0.035459441084    -0.000551472056    0.000823405703
            -0.000773749283    0.000879709886    -0.087136406666    0.066609126549    -0.001013706688    0.001010923234    -0.068641212946    0.072212476321
            -0.093247366611    0.035459459847    -0.001013706899    0.001010922739    -0.114286213642    0.027441510827    -0.000849777831    0.000915242215
            -0.000551472078    0.000823405736    -0.068641180565    0.072212442256    -0.000849777808    0.000915242510    -0.090403370504    0.067327890078
0.550     -0.012931331604    0.070248309513    0.000154770230    0.001431334060    0.014184368829    0.041255677745    0.000198278969    0.001161369329
            0.000154769537    0.001431333733    0.005623867114    0.074701256336    0.000041180672    0.001736540585    0.028789929218    0.043822894526
            0.014184373056    0.041255690038    0.000041180791    0.001736540482    -0.012572019401    0.069410157059    0.000037195162    0.001484200604
            0.000198278925    0.001161369438    0.028789932494    0.043822891177    0.000037195187    0.001484200603    0.004642319239    0.076020243923
0.575     -0.019795489363    -0.038992320229    0.001725965408    0.000432915648    -0.034885541503    -0.073709180780    0.001533617215    0.000303789115
            0.001725965490    0.000432915732    -0.028987205945    -0.009362076063    0.002020194636    0.000721832133    -0.047986586469    -0.043957231955
            -0.034885539792    -0.073709177164    0.002020194705    0.000721832237    -0.020084004504    -0.040078242834    0.001791402665    0.000644297473
            0.001533616878    0.000303789271    -0.047986546477    -0.043957318545    0.001791402725    0.000644297601    -0.029743745291    -0.009873254130
0.600     -0.134633974849    0.019618055149    0.000874048155    -0.001244294965    -0.152868852118    0.022270227610    0.000657530955    -0.001212763360
            0.000874048256    -0.001244295016    -0.106126172700    0.069800617947    0.001207550300    -0.001385878242    -0.126446116940    0.073394756555
            -0.152868862013    0.022270229052    0.001207550300    -0.001385878242    -0.134564355591    0.018907140617    0.001036301150    -0.001282044247
            0.000657530976    -0.001212763349    -0.126446116940    0.073394756555    0.001036301150    -0.001282044247    -0.108518357864    0.069847310041
0.625     -0.055578443735    0.133842464382    -0.000235754769    -0.001234934128    -0.045859206005    0.128547524609    -0.000355078330    -0.000979587827
            -0.000235754572    -0.001234934267    -0.013460485167    0.144124193462    -0.000127921556    -0.001512663258    -0.004969033902    0.138887578916
            -0.045859209365    0.128547534028    -0.000127921538    -0.001512663360    -0.055524526358    0.132502845234    -0.000169988162    -0.001272144861
            -0.000355077920    -0.000979587231    -0.004969031120    0.138887569009    -0.000169988162    -0.001272144861    -0.015266329472    0.145944113196
0.650     0.031258281086    0.030073190815    -0.001502561660    -0.000910372272    0.019967674526    0.001484902140    -0.001308368305    -0.000705771202
            -0.001502560915    -0.000910372538    0.032603318597    0.041773682534    -0.001665867104    -0.001252526527    0.020504058826    0.013075116293
            0.019967693546    0.001484902574    -0.001665867184    -0.001252526587    0.030670172939    0.029186928513    -0.001435052628    -0.001107118481
            -0.001308368358    -0.000705771525    0.020504052220    0.013075108054    -0.001435052628    -0.001107118481    0.032952369051    0.043751607796
0.675     -0.112891797798    0.011371965096    -0.001370516787    0.001438759461    -0.150463321378    0.007756975870    -0.001145805007    0.001416266456
            -0.001370516649    0.001438759316    -0.087938291275    0.063647444477    -0.001791368761    0.001468097327    -0.126657934201    0.058533812581
            -0.150463321378    0.007756975870    -0.001791368862    0.001468096888    -0.112251444142    0.010969145485    -0.001593269190    0.001360427964
            -0.001145805317    0.001416266334    -0.126657934201    0.058533812581    -0.001593269038    0.001360427834    -0.087384855774    0.063424429107
0.700     -0.087403293307    0.170200280614    0.000549062009    0.001386628090    -0.105450864601    0.189577857278    0.000715257114    0.001170636157
            0.000549061667    0.001386627580    -0.026470115246    0.189193776252    0.000397033961    0.001706284949    -0.044269993377    0.210006780449
            -0.105450907411    0.189577856351    0.000397033984    0.001706285046    -0.086597409733    0.167938384553    0.000463268169    0.001480140567
            0.000715256933    0.001170636502    -0.044269993377    0.210006780449    0.000463268169    0.001480140567    -0.027544794719    0.189165349066
0.725     0.069170413300    0.136318715579    0.001086597818    0.000650527356    0.063183294353    0.141342277450    0.000945483989    0.000373503529
            0.001086597818    0.000650527356    0.096136922348    0.126027842779    0.001191223918    0.000955017604    0.092907533159    0.130659437789
            0.063183305835    0.141342283272    0.001191223946    0.000955017729    0.067888466015    0.134166774004    0.000997304798    0.000755952670
            0.000945484207    0.000373503520    0.092907545420    0.130659392260    0.000997304877    0.000755952566    0.095458980507    0.127919024024
0.750     -0.020755566079    0.004909257593    0.001834016425    -0.000844430311    -0.043012217977    0.009157516504    0.001565441106    -0.000848785979
            0.001834016410    -0.000844430344    -0.006263443052    0.039276436419    0.002206500439    -0.000713752343    -0.026580526862    0.039469511823
            -0.043012212729    0.009157507539    0.002206500559    -0.000713752297    -0.021135819950    0.005023467909    0.001966538209    -0.000628748753
            0.001565441106    -0.000848785979    -0.026580592583    0.039469445862    0.001966538198    -0.000628748788    -0.003795514940    0.040270595288
0.775     -0.085910532070    0.164853209263    -0.000487209148    -0.001807067989    -0.110130091494    0.195347292389    -0.000677088681    -0.001628710312
            -0.000487209174    -0.001807068085    -0.019656540028    0.189027770042    -0.000204951226    -0.002086763927    -0.043011669330    0.221291321419
            -0.110130154772    0.195347245236    -0.000204951272    -0.002086764023    -0.084259868840    0.162828416071    -0.000290487236    -0.001875511670
