# GHz S RI R 45
0.000     0.068297307549    0.042200227794    -0.000027358328    0.000008741959    0.024517227567    0.044063114283    -0.000037119753    0.000003296028
            -0.000027358351    0.000008741993    0.069630247499    0.042600373610    -0.000001537163    0.000001764957    0.024681540325    0.043918441912
            0.024517192950    0.044063111801    -0.000001537145    0.000001764896    0.068151821003    0.041663654703    -0.000019607590    0.000006175008
            -0.000037119781    0.000003296142    0.024681517583    0.043918440928    -0.000019607593    0.000006175012    0.069550987188    0.042074407112
0.025     0.145670899702    0.036973097762    -0.000008274279    0.000021259192    0.104069576715    0.055564671407    -0.000001066513    0.000038517940
            -0.000008274382    0.000021259160    0.148653841218    0.034537907249    -0.000014345249    0.000010124549    0.105095867384    0.053107785762
            0.104068995698    0.055565292513    -0.000014345119    0.000010124562    0.144867041019    0.036432708493    -0.000010761942    0.000014236691
            -0.000001066518    0.000038517977    0.105099936829    0.053111661346    -0.000010762007    0.000014236720    0.147971016184    0.033897475684
0.050     0.155169103244    -0.078356081879    0.000022983717    0.000002008076    0.136924432251    -0.059762737248    0.000044707945    0.000009392018
            0.000022983688    0.000002008046    0.152406922084    -0.086850878318    0.000016821568    0.000000440662    0.133050690416    -0.066952514355
            0.136923923011    -0.059763928968    0.000016821675    0.000000440799    0.153834393796    -0.077766068553    0.000018284579    0.000004092689
            0.000044707966    0.000009392049    0.133050678237    -0.066952627545    0.000018284560    0.000004092700    0.150923520555    -0.086307938281
0.075     0.046378924696    -0.081570834326    0.000002450901    -0.000048681309    0.021950412506    -0.075632366609    0.000023987517    -0.000056760640
            0.000002450884    -0.000048681312    0.035941148077    -0.083642636781    -0.000002072872    -0.000046408400    0.011569258119    -0.076956256690
            0.021949963537    -0.075631943999    -0.000002072856    -0.000046408406    0.046146771086    -0.080122742559    0.000008168363    -0.000050919064
            0.000023987549    -0.000056760709    0.011569210371    -0.076956249711    0.000008168389    -0.000050919050    0.035705424330    -0.082099874523
0.100     0.072133222771    0.000292546281    -0.000062115188    -0.000019031887    0.039593879789    0.019682181559    -0.000050673147    -0.000032422683
            -0.000062115193    -0.000019031877    0.069008425146    0.003248144442    -0.000059795034    -0.000017524405    0.036885167627    0.022218838253
            0.039593774394    0.019682323936    -0.000059795061    -0.000017524424    0.072852388121    0.000984951322    -0.000065496741    -0.000031661008
            -0.000050673233    -0.000032422625    0.036885122429    0.022218880339    -0.000065496785    -0.000031660945    0.069774335186    0.003850419557
0.125     0.133068437858    -0.063115160980    -0.000022319064    0.000033510377    0.115380993179    -0.036194320427    -0.000014842185    0.000021876575
            -0.000022319061    0.000033510360    0.129478097678    -0.071242317850    -0.000022124902    0.000028661940    0.110892145901    -0.045973091313
            0.115380920334    -0.036194452412    -0.000022124890    0.000028661956    0.133301914098    -0.063011466348    -0.000032758426    0.000031005364
            -0.000014842168    0.000021876583    0.110892163533    -0.045972996559    -0.000032758446    0.000031005372    0.129580904909    -0.071250970798
0.150     0.061478995018    -0.122494969149    0.000013965498    -0.000022382933    0.046162236310    -0.104913708958    0.000020289768    -0.000037035856
            0.000013965487    -0.000022382927    0.039635932215    -0.127844498256    0.000011795934    -0.000022262145    0.021762411290    -0.110402652546
            0.046162194565    -0.104913683625    0.000011795945    -0.000022262165    0.061457733413    -0.121708293701    0.000014105566    -0.000024487443
            0.000020289763    -0.000037035843    0.021762378526    -0.110402648812    0.000014105556    -0.000024487404    0.039409640060    -0.127049291931
0.175     0.016298553794    -0.064861255232    -0.000078000183    -0.000052180442    -0.004895437356    -0.037847433152    -0.000080237284    -0.000071220040
            -0.000078000220    -0.000052180447    -0.003319560751    -0.047320353973    -0.000069956835    -0.000055121712    -0.025310157087    -0.018887780326
            -0.004895444077    -0.037847402033    -0.000069956794    -0.000055121719    0.017518820429    -0.063701849878    -0.000083799492    -0.000067941140
            -0.000080237284    -0.000071220040    -0.025310163952    -0.018887751062    -0.000083799496    -0.000067941119    -0.002289736878    -0.046017948454
0.200     0.063537743198    -0.055601612613    -0.000099785808    0.000067075428    0.055666791896    -0.021679941055    -0.000112525648    0.000054216970
            -0.000099785800    0.000067075422    0.064266494747    -0.043280509582    -0.000098268130    0.000049106602    0.056680889906    -0.009761513395
            0.055666808843    -0.021679949894    -0.000098268130    0.000049106602    0.065671115766    -0.055847259584    -0.000121916546    0.000059257066
            -0.000112525648    0.000054216970    0.056680883974    -0.009761441784    -0.000121916538    0.000059257061    0.066328070462    -0.043443505153
0.225     0.047452504657    -0.110951857977    0.000012789703    0.000072244882    0.044276733659    -0.085857433610    0.000000233081    0.000068401511
            0.000012789698    0.000072244885    0.033518984356    -0.114046428578    -0.000000067228    0.000061375193    0.028497472185    -0.089625048613
            0.044276732267    -0.085857390447    -0.000000067227    0.000061375177    0.048513629669    -0.112300932651    -0.000002298416    0.000077833491
            0.000000233080    0.000068401507    0.028497472987    -0.089625029469    -0.000002298417    0.000077833457    0.034368577369    -0.115426666958
0.250     -0.012661447918    -0.102519688024    -0.000014478465    -0.000029353754    -0.018724012583    -0.071861150115    -0.000024818254    -0.000034401523
            -0.000014478468    -0.000029353747    -0.043455953729    -0.079097353505    -0.000018783783    -0.000033164330    -0.051447764597    -0.046570803731
            -0.018724001741    -0.071861108505    -0.000018783792    -0.000033164332    -0.012308850047    -0.102939514978    -0.000023865899    -0.000033880655
            -0.000024818248    -0.000034401503    -0.051447754191    -0.046570777975    -0.000023865878    -0.000033880637    -0.043494738386    -0.079295010224
0.275     -0.014484986201    -0.061357880421    -0.000125771729    0.000046072394    -0.003646205211    -0.026171179535    -0.000145906847    0.000041138935
            -0.000125771712    0.000046072412    -0.013095575211    -0.018443593679    -0.000132237761    0.000028061402    -0.001572633123    0.018463757257
            -0.003646196608    -0.026171164579    -0.000132237746    0.000028061375    -0.012627747722    -0.061709547008    -0.000153701438    0.000040812867
            -0.000145906892    0.000041138921    -0.001572621930    0.018463778282    -0.000153701428    0.000040812864    -0.011333849897    -0.018274842332
0.300     0.003258180453    -0.070072402533    -0.000017051231    0.000166485304    0.018176582764    -0.052109775760    -0.000042541034    0.000176926516
            -0.000017051233    0.000166485294    0.018136928478    -0.058139642045    -0.000043906855    0.000155499217    0.033937237995    -0.040307405331
            0.018176584254    -0.052109774182    -0.000043906855    0.000155499217    0.005200330627    -0.072699193870    -0.000047543601    0.000185828243
            -0.000042541032    0.000176926506    0.033937253829    -0.040307384156    -0.000047543604    0.000185828253    0.020129578137    -0.060625065157
0.325     -0.025793151184    -0.089791866277    0.000084105370    0.000049442237    -0.023191930614    -0.067786417371    0.000071294843    0.000069074870
            0.000084105391    0.000049442165    -0.041947086495    -0.076986073645    0.000064419928    0.000058113076    -0.039060722236    -0.054846819334
            -0.023191944534    -0.067786458056    0.000064419973    0.000058113044    -0.026268622337    -0.092811681420    0.000075211424    0.000072792220
            0.000071294870    0.000069074790    -0.039060705993    -0.054846796526    0.000075211447    0.000072792196    -0.042770985135    -0.079874234090
0.350     -0.063867255014    -0.062402724345    -0.000048971703    -0.000006986310    -0.042564326671    -0.030496117051    -0.000058405644    0.000003308546
            -0.000048971785    -0.000006986313    -0.066265565922    -0.010868575496    -0.000058813106    -0.000007397851    -0.044596573397    0.022430432135
            -0.042564322606    -0.030496114139    -0.000058813123    -0.000007397864    -0.064565418540    -0.063401427724    -0.000062509150    0.000001338402
            -0.000058405737    0.000003308541    -0.044596491367    0.022430488403    -0.000062509139    0.000001338402    -0.067173614870    -0.011267850241
0.375     -0.050846542808    -0.026472418693    -0.000060208965    0.000170277573    -0.015284620416    -0.021521842293    -0.000083563528    0.000187103863
            -0.000060208975    0.000170277601    -0.009801127594    0.006216812958    -0.000087028763    0.000171364749    0.027520239305    0.012337849060
            -0.015284576736    -0.021521820573    -0.000087028767    0.000171364758    -0.049825437203    -0.028253382627    -0.000089739902    0.000198059541
            -0.000083563491    0.000187103868    0.027520239951    0.012337847620    -0.000089739902    0.000198059541    -0.008456784674    0.004900536786
0.400     -0.036872018903    -0.042868433434    0.000151173056    0.000151163247    -0.028594714253    -0.048312870186    0.000138115458    0.000190377439
            0.000151173223    0.000151163250    -0.017183582718    -0.046174203375    0.000130170725    0.000177097577    -0.005932772415    -0.052206437382
            -0.028594714253    -0.048312870186    0.000130170640    0.000177097590    -0.037424687447    -0.046736092059    0.000148961857    0.000202522535
            0.000138115448    0.000190377410    -0.005932681780    -0.052206419502    0.000148961858    0.000202522522    -0.017758323797    -0.049977244307
0.425     -0.078887565736    -0.043818346307    0.000101699637    -0.000046707174    -0.068766586726    -0.022437840672    0.000112304690    -0.000016788312
            0.000101699625    -0.000046707201    -0.080727889627    -0.018878464526    0.000103305458    -0.000025406430    -0.068090092733    -0.000429290086
            -0.068766583874    -0.022437839741    0.000103305468    -0.000025406431    -0.081851227602    -0.045963954117    0.000122772419    -0.000019459156
            0.000112304670    -0.000016788305    -0.068090093808    -0.000429278208    0.000122772417    -0.000019459231    -0.083923480982    -0.020633899859
0.450     -0.087458242557    0.012802836029    -0.000061559230    0.000057844551    -0.046821713982    0.015854351222    -0.000064247951    0.000071663968
            -0.000061559220    0.000057844562    -0.048407089088    0.050251353939    -0.000068594615    0.000069491700    -0.006927926356    0.052879476887
            -0.046821615700    0.015854345269    -0.000068594621    0.000069491706    -0.088980478067    0.012702603115    -0.000064004299    0.000077490782
            -0.000064248029    0.000071664004    -0.006927923587    0.052879477249    -0.000064004292    0.000077490801    -0.049753765685    0.050627360585
0.475     -0.044319334445    0.015999321383    0.000128372042    0.000205002644    -0.027376511348    -0.016461507238    0.000117005699    0.000244083766
            0.000128372119    0.000205002584    0.004415497148    0.006243942653    0.000123244533    0.000237473334    0.025106572689    -0.025699365898
            -0.027376510189    -0.016461513047    0.000123244546    0.000237473350    -0.044775508149    0.014234701543    0.000136345485    0.000260544482
            0.000117005918    0.000244084060    0.025106614848    -0.025699384825    0.000136345553    0.000260544435    0.004251136077    0.004539899673
0.500     -0.073232149936    -0.011076641839    0.000250994154    -0.000046601140    -0.086821600171    -0.016746063670    0.000275490291    -0.000001237339
            0.000250994164    -0.000046601142    -0.065864534816    -0.024380198281    0.000275087290    -0.000017462962    -0.074612733211    -0.034558305412
            -0.086821600171    -0.016746063670    0.000275087289    -0.000017462963    -0.076011425221    -0.013345584964    0.000308320542    -0.000007855551
            0.000275490291    -0.000001237341    -0.074612733211    -0.034558305412    0.000308320532    -0.000007855550    -0.068764632615    -0.026518442037
0.525     -0.101469032919    0.049356358852    0.000002037124    -0.000113619319    -0.083264902080    0.061819125609    0.000029771713    -0.000105037072
            0.000002037150    -0.000113619299    -0.087136406666    0.066609126549    0.000024962718    -0.000106802200    -0.068641212946    0.072212476321
            -0.083264821789    0.061819065998    0.000024962759    -0.000106802272    -0.104734968117    0.049847862463    0.000044343540    -0.000119016123
            0.000029771672    -0.000105036969    -0.068641180565    0.072212442256    0.000044343254    -0.000119016304    -0.090403370504    0.067327890078
0.550     -0.036735613164    0.077694433361    0.000016241559    0.000141132251    -0.014033958254    0.047790663718    0.000011621513    0.000157546688
            0.000016241553    0.000141132262    0.005623867114    0.074701256336    0.000032387634    0.000158236344    0.028789929218    0.043822894526
            -0.014033956846    0.047790658920    0.000032387651    0.000158236330    -0.037635348000    0.078928714715    0.000034058415    0.000161895430
            0.000011621503    0.000157546699    0.028789932494    0.043822891177    0.000034058391    0.000161895445    0.004642319239    0.076020243923
0.575     -0.044547059747    0.022569246831    0.000311672480    0.000001738788    -0.069895492182    -0.009084562970    0.000332824840    0.000048265794
            0.000311672470    0.000001738780    -0.028987205945    -0.009362076063    0.000355179661    0.000017210705    -0.047986586469    -0.043957231955
            -0.069895496148    -0.009084563486    0.000355179651    0.000017210692    -0.045202765230    0.021989465627    0.000382086209    0.000033278304
            0.000332824841    0.000048265784    -0.047986546477    -0.043957318545    0.000382086218    0.000033278318    -0.029743745291    -0.009873254130
0.600     -0.100064226817    0.077632177384    0.000085206003    -0.000257586776    -0.122247757457    0.091212673940    0.000134460224    -0.000249665356
            0.000085205995    -0.000257586768    -0.106126172700    0.069800617947    0.000129578089    -0.000274117286    -0.126446116940    0.073394756555
            -0.122247701243    0.091212598783    0.000129578081    -0.000274117268    -0.102292247004    0.077607972807    0.000163711728    -0.000294003622
            0.000134460214    -0.000249665339    -0.126446116940    0.073394756555    0.000163711733    -0.000294003631    -0.108518357864    0.069847310041
0.625     -0.023882046508    0.140575750738    -0.000102312691    -0.000034206564    -0.010841882752    0.142072174952    -0.000093628393    -0.000049041496
            -0.000102312938    -0.000034206487    -0.013460485167    0.144124193462    -0.000076199059    -0.000051633653    -0.004969033902    0.138887578916
            -0.010841857785    0.142072076567    -0.000076199099    -0.000051633971    -0.025186965578    0.142498113514    -0.000079294466    -0.000075908017
            -0.000093628292    -0.000049041235    -0.004969031120    0.138887569009    -0.000079295081    -0.000075907969    -0.015266329472    0.145944113196
0.650     0.020714174441    0.056429004743    0.000197677552    0.000088731671    0.007354623827    0.029287920179    0.000198080988    0.000116905333
            0.000197677598    0.000088731592    0.032603318597    0.041773682534    0.000240090801    0.000075278402    0.020504058826    0.013075116293
            0.007354606787    0.029287917241    0.000240090822    0.000075278367    0.021799452442    0.057937367391    0.000241067482    0.000087987747
            0.000198081075    0.000116905305    0.020504052220    0.013075108054    0.000241067482    0.000087987776    0.032952369051    0.043751607796
0.675     -0.076129963101    0.076929920793    0.000155015599    -0.000319935780    -0.120877651192    0.081380415035    0.000203076630    -0.000306360996
            0.000155015589    -0.000319935774    -0.087938291275    0.063647444477    0.000198862127    -0.000367818942    -0.126657934201    0.058533812581
            -0.120877663009    0.081380361672    0.000198862129    -0.000367818930    -0.075712337273    0.076437804534    0.000237564412    -0.000377302881
            0.000203076625    -0.000306361000    -0.126657934201    0.058533812581    0.000237564431    -0.000377302881    -0.087384855774    0.063424429107
0.700     -0.016556216735    0.185069500699    -0.000174276257    -0.000184139599    -0.028910924111    0.216593643400    -0.000153966133    -0.000216991049
            -0.000174276257    -0.000184139599    -0.026470115246    0.189193776252    -0.000160225020    -0.000238248075    -0.044269993377    0.210006780449
            -0.028910924111    0.216593643400    -0.000160225020    -0.000238248075    -0.016989705712    0.185048877354    -0.000157869495    -0.000281339805
            -0.000153966133    -0.000216991049    -0.044269993377    0.210006780449    -0.000157869495    -0.000281339805    -0.027544794719    0.189165349066
0.725     0.098390524222    0.116282642136    -0.000059703401    0.000086079739    0.102032669598    0.123455387128    -0.000081815469    0.000082200636
            -0.000059703317    0.000086079810    0.096136922348    0.126027842779    -0.000045224017    0.000044274030    0.092907533159    0.130659437789
            0.102032684868    0.123455348562    -0.000045223973    0.000044274064    0.099147447284    0.117530148942    -0.000072765271    0.000038044937
            -0.000081815304    0.000082200843    0.092907545420    0.130659392260    -0.000072765241    0.000038044970    0.095458980507    0.127919024024
0.750     -0.008422806520    0.030718964458    0.000212046251    -0.000189509181    -0.029994426601    0.034871934995    0.000230809266    -0.000164905926
            0.000212046255    -0.000189509191    -0.006263443052    0.039276436419    0.000231349080    -0.000256793386    -0.026580526862    0.039469511823
            -0.029994477248    0.034871858456    0.000231349087    -0.000256793393    -0.005416385773    0.030228282344    0.000250234310    -0.000244556040
            0.000230809274    -0.000164905932    -0.026580592583    0.039469445862    0.000250234306    -0.000244556044    -0.003795514940    0.040270595288
0.775     -0.025065542099    0.182987646502    -0.000220638586    -0.000266870827    -0.039603568919    0.218924410870    -0.000198259325    -0.000296433836
            -0.000220638539    -0.000266870866    -0.019656540028    0.189027770042    -0.000239406648    -0.000342576685    -0.043011669330    0.221291321419
            -0.039603530709    0.218924417782    -0.000239406714    -0.000342576651    -0.026497689879    0.179420834154    -0.000224931750    -0.000387217555
