# GHz S RI R 45
0.000     0.068154493149    0.042342132465    -0.000028928988    -0.000036539017    0.024532808109    0.044146746656    -0.000055899490    -0.000028483638
            -0.000028928833    -0.000036539056    0.069630247499    0.042600373610    -0.000018832010    -0.000034947128    0.024681540325    0.043918441912
            0.024532807020    0.044146739253    -0.000018830092    -0.000034947762    0.068210059293    0.041709046437    -0.000067390694    -0.000024457781
            -0.000055899346    -0.000028483676    0.024681517583    0.043918440928    -0.000067390779    -0.000024457758    0.069550987188    0.042074407112
0.025     0.146186979512    0.036297613170    -0.000173323754    -0.000032886046    0.104631939421    0.054780954739    -0.000184252883    -0.000019443957
            -0.000173323411    -0.000032888175    0.148653841218    0.034537907249    -0.000176625878    -0.000039980193    0.105095867384    0.053107785762
            0.104637340925    0.054782754270    -0.000176625463    -0.000039977993    0.145272987181    0.035636743368    -0.000173940363    -0.000033784464
            -0.000184252365    -0.000019443154    0.105099936829    0.053111661346    -0.000173940442    -0.000033783377    0.147971016184    0.033897475684
0.050     0.153882375290    -0.080031563550    -0.000239165706    0.000121569658    0.135854257595    -0.061919207582    -0.000251377353    0.000142154882
            -0.000239165606    0.000121569502    0.152406922084    -0.086850878318    -0.000243757663    0.000133830674    0.133050690416    -0.066952514355
            0.135854683661    -0.061920756293    -0.000243757884    0.000133830353    0.152495248990    -0.079500728141    -0.000281220781    0.000133417436
            -0.000251377527    0.000142154574    0.133050678237    -0.066952627545    -0.000281219371    0.000133419894    0.150923520555    -0.086307938281
0.075     0.044406184541    -0.080821940801    -0.000115690464    0.000547391412    0.019775884740    -0.075763087269    -0.000104376097    0.000586940066
            -0.000115690478    0.000547391480    0.035941148077    -0.083642636781    -0.000097119426    0.000539936316    0.011569258119    -0.076956256690
            0.019775453591    -0.075763183271    -0.000097119668    0.000539936577    0.044163653850    -0.079582222376    -0.000126005285    0.000610126766
            -0.000104376223    0.000586940774    0.011569210371    -0.076956249711    -0.000126005148    0.000610126642    0.035705424330    -0.082099874523
0.100     0.073176376549    0.000387966056    0.000695269126    0.000365406263    0.040224073739    0.018906023911    0.000751314879    0.000377374619
            0.000695269135    0.000365406268    0.069008425146    0.003248144442    0.000681929274    0.000358535280    0.036885167627    0.022218838253
            0.040223976580    0.018906051958    0.000681929265    0.000358535533    0.073619377743    0.000749512038    0.000757384464    0.000434676262
            0.000751315018    0.000377374722    0.036885122429    0.022218880339    0.000757384438    0.000434676247    0.069774335186    0.003850419557
0.125     0.131849820172    -0.066473783231    0.000594974271    -0.000402695745    0.113433162951    -0.040968476042    0.000635966547    -0.000451820160
            0.000594974273    -0.000402695670    0.129478097678    -0.071242317850    0.000604173149    -0.000408900792    0.110892145901    -0.045973091313
            0.113433152445    -0.040968564007    0.000604173234    -0.000408900666    0.131633981525    -0.066430308689    0.000724247701    -0.000443665699
            0.000635966604    -0.000451820184    0.110892163533    -0.045972996559    0.000724247674    -0.000443665839    0.129580904909    -0.071250970798
0.150     0.056350724060    -0.122550032902    0.000230397524    -0.000782304985    0.039191239269    -0.106306461050    0.000212114989    -0.000846692381
            0.000230397508    -0.000782304979    0.039635932215    -0.127844498256    0.000194804301    -0.000792177048    0.021762411290    -0.110402652546
            0.039191233703    -0.106306463102    0.000194804483    -0.000792177013    0.056148739564    -0.121724187598    0.000239772471    -0.000929848878
            0.000212115180    -0.000846693333    0.021762378526    -0.110402648812    0.000239772371    -0.000929848893    0.039409640060    -0.127049291931
0.175     0.015513424451    -0.061340877965    -0.000825927474    -0.000905409094    -0.007771148575    -0.034693214856    -0.000896563012    -0.000933609922
            -0.000825927474    -0.000905409094    -0.003319560751    -0.047320353973    -0.000821681640    -0.000862378630    -0.025310157087    -0.018887780326
            -0.007771056720    -0.034693259001    -0.000821681640    -0.000862378630    0.016446962752    -0.060487023200    -0.000932633246    -0.000997194777
            -0.000896563012    -0.000933609922    -0.025310163952    -0.018887751062    -0.000932633420    -0.000997194615    -0.002289736878    -0.046017948454
0.200     0.064760465092    -0.057818781248    -0.001257842975    0.000503022355    0.055050007056    -0.024654355114    -0.001329569843    0.000558768362
            -0.001257842975    0.000503022355    0.064266494747    -0.043280509582    -0.001242446351    0.000499590967    0.056680889906    -0.009761513395
            0.055049931889    -0.024654407964    -0.001242446351    0.000499590967    0.066079938553    -0.058124667633    -0.001436550872    0.000535345842
            -0.001329569940    0.000558768130    0.056680883974    -0.009761441784    -0.001436550872    0.000535345842    0.066328070462    -0.043443505153
0.225     0.041372826404    -0.113616768084    -0.000261960840    0.001196107920    0.034516093286    -0.089437895206    -0.000242289514    0.001287526245
            -0.000261960840    0.001196107920    0.033518984356    -0.114046428578    -0.000236322412    0.001215915042    0.028497472185    -0.089625048613
            0.034516095207    -0.089437895537    -0.000236322818    0.001215914861    0.041866850773    -0.114384802570    -0.000309904810    0.001406888685
            -0.000242289702    0.001287526006    0.028497472987    -0.089625029469    -0.000309904340    0.001406888891    0.034368577369    -0.115426666958
0.250     -0.018513524497    -0.096671467170    0.000784751741    0.001170204407    -0.028964991193    -0.064276617804    0.000861825629    0.001201513466
            0.000784751721    0.001170204421    -0.043455953729    -0.079097353505    0.000818537962    0.001114593008    -0.051447764597    -0.046570803731
            -0.028964991604    -0.064276618715    0.000818537962    0.001114593008    -0.018106542450    -0.096746971345    0.000936698611    0.001294938038
            0.000861825713    0.001201513406    -0.051447754191    -0.046570777975    0.000936698679    0.001294937989    -0.043494738386    -0.079295010224
0.275     -0.011534393869    -0.057169612282    0.001796593710    -0.000135959241    -0.002982245776    -0.019121562079    0.001880936177    -0.000170671946
            0.001796593779    -0.000135959662    -0.013095575211    -0.018443593679    0.001746524410    -0.000160089431    -0.001572633123    0.018463757257
            -0.002982242747    -0.019121564576    0.001746524349    -0.000160089011    -0.010051902721    -0.057626076269    0.001987899432    -0.000154608625
            0.001880936111    -0.000170671566    -0.001572621930    0.018463778282    0.001987899431    -0.000154608636    -0.011333849897    -0.018274842332
0.300     0.001824899396    -0.074256438351    0.000671511361    -0.001749924369    0.014229544784    -0.054909379879    0.000684876117    -0.001863974025
            0.000671511325    -0.001749924276    0.018136928478    -0.058139642045    0.000651600126    -0.001747905599    0.033937237995    -0.040307405331
            0.014229545742    -0.054909379630    0.000651600126    -0.001747905599    0.002974177665    -0.076246630680    0.000791136981    -0.001969291360
            0.000684876018    -0.001863973955    0.033937253829    -0.040307384156    0.000791136409    -0.001969292021    0.020129578137    -0.060625065157
0.325     -0.035815683504    -0.086388911927    -0.000989509169    -0.001475306637    -0.038029276208    -0.060907785325    -0.001084862054    -0.001527959010
            -0.000989509169    -0.001475306637    -0.041947086495    -0.076986073645    -0.001042217836    -0.001441295345    -0.039060722236    -0.054846819334
            -0.038029276208    -0.060907785325    -0.001042217836    -0.001441295345    -0.036128600815    -0.088274232122    -0.001155099127    -0.001679700990
            -0.001084862054    -0.001527959010    -0.039060705993    -0.054846796526    -0.001155099127    -0.001679700990    -0.042770985135    -0.079874234090
0.350     -0.064200283348    -0.049650052123    -0.001988113130    -0.000202864058    -0.045169676005    -0.010618433450    -0.002069780663    -0.000175310529
            -0.001988113130    -0.000202864058    -0.066265565922    -0.010868575496    -0.001942829408    -0.000129443459    -0.044596573397    0.022430432135
            -0.045169676979    -0.010618433679    -0.001942829163    -0.000129444124    -0.064190320420    -0.050511876058    -0.002208285586    -0.000181710886
            -0.002069780663    -0.000175310529    -0.044596491367    0.022430488403    -0.002208285386    -0.000181710870    -0.067173614870    -0.011267850241
0.375     -0.043032058468    -0.025303620379    -0.001397075018    0.001950584316    -0.005783011007    -0.014494989008    -0.001455600621    0.002049969799
            -0.001397075193    0.001950584560    -0.009801127594    0.006216812958    -0.001347199591    0.001926569931    0.027520239305    0.012337849060
            -0.005783013167    -0.014494987070    -0.001347199591    0.001926569931    -0.042276946317    -0.027213395045    -0.001562793048    0.002132492798
            -0.001455600863    0.002049969382    0.027520239951    0.012337847620    -0.001562793048    0.002132492798    -0.008456784674    0.004900536786
0.400     -0.043167293280    -0.046515661505    0.001166536033    0.002169202284    -0.034509276296    -0.048248822550    0.001258030087    0.002282615283
            0.001166535995    0.002169202305    -0.017183582718    -0.046174203375    0.001202514816    0.002155466195    -0.005932772415    -0.052206437382
            -0.034509275715    -0.048248821737    0.001202514816    0.002155466195    -0.043919529989    -0.049341478746    0.001272387619    0.002465727869
            0.001258030087    0.002282615283    -0.005932681780    -0.052206419502    0.001272387619    0.002465727869    -0.017758323797    -0.049977244307
0.425     -0.086446503600    -0.029527974018    0.002293445847    0.000260638884    -0.076710253073    -0.001205583231    0.002407102181    0.000224876754
            0.002293446084    0.000260638570    -0.080727889627    -0.018878464526    0.002297163820    0.000166514765    -0.068090092733    -0.000429290086
            -0.076710253073    -0.001205583231    0.002297163916    0.000166514820    -0.088126066261    -0.030936337980    0.002591432477    0.000274730004
            0.002407102185    0.000224876707    -0.068090093808    -0.000429278208    0.002591432479    0.000274729986    -0.083923480982    -0.020633899859
0.450     -0.073938952517    0.026529636327    0.001870442140    -0.001785669240    -0.028481716461    0.038375593214    0.001932110921    -0.001862530892
            0.001870442140    -0.001785669240    -0.048407089088    0.050251353939    0.001772371851    -0.001789565785    -0.006927926356    0.052879476887
            -0.028481717057    0.038375594017    0.001772371851    -0.001789565785    -0.074511281461    0.025502370863    0.002042354356    -0.001960706508
            0.001932110689    -0.001862531709    -0.006927923587    0.052879477249    0.002042354249    -0.001960706475    -0.049753765685    0.050627360585
0.475     -0.035230666044    0.007836930234    -0.000854744194    -0.003007981841    -0.009599285336    -0.020607703132    -0.000887640132    -0.003164426223
            -0.000854744222    -0.003007981937    0.004415497148    0.006243942653    -0.000869782502    -0.002974865558    0.025106572689    -0.025699365898
            -0.009599285336    -0.020607703132    -0.000869781842    -0.002974865230    -0.036235371852    0.005662619632    -0.000856531864    -0.003330300100
            -0.000887640078    -0.003164426030    0.025106614848    -0.025699384825    -0.000856531839    -0.003330300003    0.004251136077    0.004539899673
0.500     -0.084166523679    -0.008274387172    -0.003011679730    -0.000399644716    -0.092099555891    -0.012862339781    -0.003195324791    -0.000404642499
            -0.003011679730    -0.000399644716    -0.065864534816    -0.024380198281    -0.003063768982    -0.000339423752    -0.074612733211    -0.034558305412
            -0.092099551929    -0.012862339227    -0.003063768982    -0.000339423752    -0.086532933541    -0.009599555163    -0.003376905448    -0.000533895343
            -0.003195325556    -0.000404642029    -0.074612733211    -0.034558305412    -0.003376905343    -0.000533894722    -0.068764632615    -0.026518442037
0.525     -0.094071532694    0.070893184436    -0.001887336657    0.001872253800    -0.070681709910    0.087266422857    -0.001944032397    0.001989586070
            -0.001887336657    0.001872253800    -0.087136406666    0.066609126549    -0.001788663527    0.001960672697    -0.068641212946    0.072212476321
            -0.070681703616    0.087266415086    -0.001788663594    0.001960672771    -0.095614188622    0.070776502925    -0.002108038133    0.002103855333
            -0.001944032397    0.001989586070    -0.068641180565    0.072212442256    -0.002108037837    0.002103855771    -0.090403370504    0.067327890078
0.550     -0.009905294304    0.076088581729    0.000153303465    0.003207008536    0.024032978035    0.049713438138    0.000152717419    0.003332479347
            0.000153303404    0.003207008439    0.005623867114    0.074701256336    0.000215582241    0.003135742699    0.028789929218    0.043822894526
            0.024032978035    0.049713438138    0.000215582090    0.003135742910    -0.010930501468    0.075239421430    0.000120905523    0.003484958611
            0.000152718189    0.003332479612    0.028789932494    0.043822891177    0.000120907007    0.003484959260    0.004642319239    0.076020243923
0.575     -0.046252312407    0.006345656031    0.003701953206    0.001223204451    -0.058484048047    -0.030660320064    0.003885260776    0.001323404896
            0.003701953163    0.001223204580    -0.028987205945    -0.009362076063    0.003738925794    0.001204390273    -0.047986586469    -0.043957231955
            -0.058484048047    -0.030660320064    0.003738925794    0.001204390273    -0.048237003446    0.005681883760    0.004018035874    0.001505458303
            0.003885260776    0.001323404896    -0.047986546477    -0.043957318545    0.004018035994    0.001505458268    -0.029743745291    -0.009873254130
0.600     -0.106531630047    0.090687744097    0.002119674950    -0.002514709204    -0.122687911415    0.096438286823    0.002256326536    -0.002682545554
            0.002119675255    -0.002514709209    -0.106126172700    0.069800617947    0.002099023735    -0.002665144170    -0.126446116940    0.073394756555
            -0.122687911415    0.096438286823    0.002099023735    -0.002665144170    -0.107927365037    0.091286996320    0.002487986061    -0.002763406681
            0.002256326367    -0.002682544782    -0.126446116940    0.073394756555    0.002487985994    -0.002763406607    -0.108518357864    0.069847310041
0.625     0.001866131597    0.151511498083    -0.000163904791    -0.002755574680    0.019324380460    0.149923361682    -0.000219259304    -0.002885248985
            -0.000163904839    -0.002755574677    -0.013460485167    0.144124193462    -0.000329949624    -0.002726288672    -0.004969033902    0.138887578916
            0.019324377843    0.149923362019    -0.000329949338    -0.002726288303    0.001485369100    0.151488858051    -0.000189066677    -0.003064120813
            -0.000219259304    -0.002885248985    -0.004969031120    0.138887569009    -0.000189066725    -0.003064120710    -0.015266329472    0.145944113196
0.650     0.041017278041    0.029775474620    -0.003142569439    -0.002338295985    0.038689244708    -0.002582385655    -0.003249555570    -0.002444056846
            -0.003142569439    -0.002338295985    0.032603318597    0.041773682534    -0.003153493290    -0.002266200087    0.020504058826    0.013075116293
            0.038689244712    -0.002582385588    -0.003153492489    -0.002266200345    0.039889880925    0.029472197244    -0.003326507185    -0.002623592246
            -0.003249555570    -0.002444056846    0.020504052220    0.013075108054    -0.003326507106    -0.002623592184    0.032952369051    0.043751607796
0.675     -0.104040161851    0.063027105442    -0.003216570256    0.002827815995    -0.128650709126    0.054850559638    -0.003437058440    0.002924468911
            -0.003216570406    0.002827816127    -0.087938291275    0.063647444477    -0.003260340212    0.002916464218    -0.126657934201    0.058533812581
            -0.128650699928    0.054850555716    -0.003260339914    0.002916463951    -0.090069535099    0.073174662799    -0.003705956797    0.002897924016
            -0.003437058265    0.002924467728    -0.126657934201    0.058533812581    -0.003705956370    0.002897924724    -0.087384855774    0.063424429107
0.700     -0.011512273608    0.198750815606    0.000747298255    0.002979771116    -0.028182394891    0.215327110253    0.000796219084    0.003207578804
            0.000747298255    0.002979771116    -0.026470115246    0.189193776252    0.000950646840    0.003072014378    -0.044269993377    0.210006780449
            -0.028182394891    0.215327110253    0.000950646473    0.003072013759    -0.010841782069    0.198893503764    0.000733691350    0.003424031248
            0.000796219084    0.003207578804    -0.044269993377    0.210006780449    0.000733691547    0.003424031001    -0.027544794719    0.189165349066
0.725     0.126051788422    0.104684685256    0.002066172349    0.001916825551    0.125978555616    0.106564692790    0.002206933923    0.001960323033
            0.002066172236    0.001916825379    0.096136922348    0.126027842779    0.002158229115    0.001755807756    0.092907533159    0.130659437789
            0.125978553756    0.106564694988    0.002158229101    0.001755807932    0.126139045909    0.103637908814    0.002270961615    0.002107846015
            0.002206934312    0.001960322896    0.092907545420    0.130659392260    0.002270962092    0.002107845794    0.095458980507    0.127919024024
0.750     -0.014614857921    -0.005958173490    0.004283949221    -0.001340396851    -0.032273980875    -0.011973631653    0.004446697751    -0.001347673320
            0.004283949244    -0.001340396776    -0.006263443052    0.039276436419    0.004292758653    -0.001437812204    -0.026580526862    0.039469511823
            -0.032273976187    -0.011973629914    0.004292758747    -0.001437812236    -0.014999834388    -0.005969086297    0.004685831994    -0.001257263280
            0.004446697847    -0.001347673349    -0.026580592583    0.039469445862    0.004685832091    -0.001257263306    -0.003795514940    0.040270595288
0.775     -0.043472955192    0.185694817203    -0.000489717951    -0.003923321173    -0.065838721896    0.201268699055    -0.000425660825    -0.004144541714
            -0.000489717951    -0.003923321173    -0.019656540028    0.189027770042    -0.000644117922    -0.004094320906    -0.043011669330    0.221291321419
            -0.065838721896    0.201268699055    -0.000644117994    -0.004094320895    -0.042659365493    0.185459565648    -0.000283166803    -0.004381173227
