# GHz S RI R 45
0.000     0.068157580634    0.042335871771    -0.000008749387    0.000034206681    0.024532786686    0.044146668182    -0.000015745754    0.000020055160
            -0.000008749638    0.000034206789    0.069630247499    0.042600373610    -0.000008921297    0.000025432770    0.024681540325    0.043918441912
            0.024532785597    0.044146660779    -0.000008921138    0.000025432672    0.068214683845    0.041709461586    -0.000012345662    0.000020696938
            -0.000015745742    0.000020055166    0.024681517583    0.043918440928    -0.000012345626    0.000020696919    0.069550987188    0.042074407112
0.025     0.146187511783    0.036297959322    0.000029879441    -0.000007559158    0.104631871670    0.054780933228    0.000023677293    0.000023610208
            0.000029879399    -0.000007558838    0.148653841218    0.034537907249    0.000022138024    0.000009945042    0.105095867384    0.053107785762
            0.104637282032    0.054782737398    0.000022137969    0.000009944802    0.145273013493    0.035636929923    0.000031751466    0.000021644224
            0.000023677273    0.000023610086    0.105099936829    0.053111661346    0.000031751496    0.000021644132    0.147971016184    0.033897475684
0.050     0.153883621278    -0.080032375355    -0.000021857725    -0.000006157248    0.135853896060    -0.061919108666    0.000012762510    -0.000004007370
            -0.000021857701    -0.000006157266    0.152406922084    -0.086850878318    -0.000000855137    -0.000003868220    0.133050690416    -0.066952514355
            0.135854331225    -0.061920661522    -0.000000855138    -0.000003868304    0.152497116767    -0.079501082428    0.000008957653    -0.000005221368
            0.000012762452    -0.000004007306    0.133050678237    -0.066952627545    0.000008957604    -0.000005221335    0.150923520555    -0.086307938281
0.075     0.044402343076    -0.080823732977    -0.000016196832    0.000058724837    0.019775362985    -0.075762738744    -0.000016007846    0.000048236720
            -0.000016196854    0.000058724836    0.035941148077    -0.083642636781    -0.000018974806    0.000050149815    0.011569258119    -0.076956256690
            0.019774933161    -0.075762834398    -0.000018974813    0.000050149913    0.044168333731    -0.079583832769    -0.000016848612    0.000066983464
            -0.000016007866    0.000048236722    0.011569210371    -0.076956249711    -0.000016848591    0.000066983477    0.035705424330    -0.082099874523
0.100     0.073173886188    0.000395498849    0.000060137343    0.000063983655    0.040223464460    0.018906337528    0.000077984526    0.000081447960
            0.000060137357    0.000063983648    0.069008425146    0.003248144442    0.000064176828    0.000080268360    0.036885167627    0.022218838253
            0.040223367301    0.018906365574    0.000064176828    0.000080268386    0.073626359869    0.000745002651    0.000104564305    0.000098454635
            0.000077984543    0.000081447972    0.036885122429    0.022218880339    0.000104564340    0.000098454582    0.069774335186    0.003850419557
0.125     0.131854992372    -0.066474497494    0.000068436381    0.000006415300    0.113431388966    -0.040968412739    0.000102991424    -0.000016548149
            0.000068436396    0.000006415254    0.129478097678    -0.071242317850    0.000094118687    0.000001798864    0.110892145901    -0.045973091313
            0.113431369770    -0.040968495326    0.000094118694    0.000001798861    0.131641653052    -0.066435549499    0.000126144588    -0.000028000271
            0.000102991452    -0.000016548165    0.110892163533    -0.045972996559    0.000126144601    -0.000028000258    0.129580904909    -0.071250970798
0.150     0.056338821287    -0.122561954810    0.000025388172    0.000012155432    0.039188464027    -0.106304404023    0.000008307431    -0.000016375001
            0.000025388180    0.000012155440    0.039635932215    -0.127844498256    0.000020412304    -0.000008285639    0.021762411290    -0.110402652546
            0.039188458461    -0.106304406075    0.000020412296    -0.000008285638    0.056161110235    -0.121734141014    0.000005027225    -0.000016606627
            0.000008307426    -0.000016375018    0.021762378526    -0.110402648812    0.000005027216    -0.000016606622    0.039409640060    -0.127049291931
0.175     0.015493582870    -0.061323399559    0.000075363058    0.000080467153    -0.007772331216    -0.034690319292    0.000068914266    0.000107820398
            0.000075363073    0.000080467152    -0.003319560751    -0.047320353973    0.000064300487    0.000099919473    -0.025310157087    -0.018887780326
            -0.007772239371    -0.034690363440    0.000064300476    0.000099919468    0.016462946143    -0.060502765988    0.000090451313    0.000138272311
            0.000068914263    0.000107820388    -0.025310163952    -0.018887751062    0.000090451298    0.000138272309    -0.002289736878    -0.046017948454
0.200     0.064779368314    -0.057800811402    0.000178413741    -0.000007646186    0.055047611897    -0.024653873009    0.000224271257    -0.000011301110
            0.000178413740    -0.000007646197    0.064266494747    -0.043280509582    0.000213515040    0.000005352148    0.056680889906    -0.009761513395
            0.055047536730    -0.024653925855    0.000213515049    0.000005352169    0.066096012234    -0.058146629104    0.000284262986    -0.000017288792
            0.000224271257    -0.000011301115    0.056680883974    -0.009761441784    0.000284262976    -0.000017288784    0.066328070462    -0.043443505153
0.225     0.041379331795    -0.113640653897    0.000091946303    -0.000115577521    0.034509505534    -0.089433729595    0.000090429798    -0.000161221928
            0.000091946372    -0.000115577555    0.033518984356    -0.114046428578    0.000108792869    -0.000148139269    0.028497472185    -0.089625048613
            0.034509509375    -0.089433730256    0.000108792877    -0.000148139263    0.041887081867    -0.114408172133    0.000110326583    -0.000205541163
            0.000090429803    -0.000161221937    0.028497472987    -0.089625029469    0.000110326513    -0.000205541144    0.034368577369    -0.115426666958
0.250     -0.018549543776    -0.096665098787    0.000013938807    -0.000019843614    -0.028967425731    -0.064267795386    -0.000016831568    -0.000005033210
            0.000013938768    -0.000019843673    -0.043455953729    -0.079097353505    -0.000009605281    -0.000020799830    -0.051447764597    -0.046570803731
            -0.028967425731    -0.064267795386    -0.000009605275    -0.000020799827    -0.018077249295    -0.096783253918    -0.000024175546    -0.000004381233
            -0.000016831578    -0.000005033210    -0.051447754191    -0.046570777975    -0.000024175547    -0.000004381251    -0.043494738386    -0.079295010224
0.275     -0.011519365427    -0.057124798024    0.000175894427    0.000005091451    -0.002981668399    -0.019117949907    0.000218668887    0.000034416561
            0.000175894406    0.000005091465    -0.013095575211    -0.018443593679    0.000201645014    0.000037772946    -0.001572633123    0.018463757257
            -0.002981665217    -0.019117951415    0.000201645005    0.000037772944    -0.010030751701    -0.057679105980    0.000273073197    0.000048048937
            0.000218668886    0.000034416566    -0.001572621930    0.018463778282    0.000273073176    0.000048048945    -0.011333849897    -0.018274842332
0.300     0.001863891565    -0.074280860842    0.000166546418    -0.000225481053    0.014220687125    -0.054905900112    0.000208354594    -0.000276438501
            0.000166546408    -0.000225481073    0.018136928478    -0.058139642045    0.000218349644    -0.000257208215    0.033937237995    -0.040307405331
            0.014220686874    -0.054905899144    0.000218349642    -0.000257208203    0.002988840905    -0.076296777193    0.000267882604    -0.000343289802
            0.000208354594    -0.000276438501    0.033937253829    -0.040307384156    0.000267882616    -0.000343289793    0.020129578137    -0.060625065157
0.325     -0.035858732518    -0.086414082321    -0.000072721211    -0.000202073815    -0.038035855032    -0.060891089855    -0.000107096683    -0.000235683509
            -0.000072721218    -0.000202073834    -0.041947086495    -0.076986073645    -0.000090582552    -0.000248322505    -0.039060722236    -0.054846819334
            -0.038035854503    -0.060891089007    -0.000090582545    -0.000248322486    -0.036100457879    -0.088333509762    -0.000131969312    -0.000302281939
            -0.000107096728    -0.000235683499    -0.039060705993    -0.054846796526    -0.000131969316    -0.000302281948    -0.042770985135    -0.079874234090
0.350     -0.064215934569    -0.049585827382    0.000004023017    0.000004064768    -0.045163194732    -0.010606587646    0.000007213041    0.000038334455
            0.000004023026    0.000004064789    -0.066265565922    -0.010868575496    -0.000009463089    0.000027923113    -0.044596573397    0.022430432135
            -0.045163195705    -0.010606587874    -0.000009463028    0.000027923159    -0.064171222956    -0.050599773578    -0.000001316938    0.000048325504
            0.000007213041    0.000038334450    -0.044596491367    0.022430488403    -0.000001316889    0.000048325532    -0.067173614870    -0.011267850241
0.375     -0.042961385933    -0.025298171657    0.000186040038    -0.000194859659    -0.005787232945    -0.014494111463    0.000252581157    -0.000221248489
            0.000186040052    -0.000194859673    -0.009801127594    0.006216812958    0.000246672834    -0.000199925374    0.027520239305    0.012337849060
            -0.005787235475    -0.014494110453    0.000246672847    -0.000199925406    -0.042282694790    -0.027299802177    0.000318815648    -0.000257358957
            0.000252581099    -0.000221248509    0.027520239951    0.012337847620    0.000318815655    -0.000257358981    -0.008456784674    0.004900536786
0.400     -0.043186095611    -0.046578311882    -0.000117093403    -0.000370078071    -0.034522719465    -0.048228719868    -0.000126871318    -0.000455124455
            -0.000117093412    -0.000370078100    -0.017183582718    -0.046174203375    -0.000106185685    -0.000452945439    -0.005932772415    -0.052206437382
            -0.034522718301    -0.048228718242    -0.000106185681    -0.000452945420    -0.043914124252    -0.049421208499    -0.000132367344    -0.000572487051
            -0.000126871321    -0.000455124464    -0.005932681780    -0.052206419502    -0.000132367341    -0.000572487041    -0.017758323797    -0.049977244307
0.425     -0.086504491145    -0.029476332143    -0.000256234536    -0.000046962290    -0.076699379211    -0.001179891370    -0.000309326721    -0.000051198889
            -0.000256234546    -0.000046962291    -0.080727889627    -0.018878464526    -0.000314624153    -0.000067915005    -0.068090092733    -0.000429290086
            -0.076699378212    -0.001179891355    -0.000314624143    -0.000067915002    -0.088120127726    -0.031050424932    -0.000392227405    -0.000087678172
            -0.000309326731    -0.000051198891    -0.068090093808    -0.000429278208    -0.000392227400    -0.000087678243    -0.083923480982    -0.020633899859
0.450     -0.073865685845    0.026586133044    0.000068710654    -0.000009478445    -0.028472513189    0.038376795244    0.000100765371    0.000004855761
            0.000068710673    -0.000009478452    -0.048407089088    0.050251353939    0.000084191919    0.000018843326    -0.006927926356    0.052879476887
            -0.028472514380    0.038376796850    0.000084191915    0.000018843331    -0.074547181735    0.025379193872    0.000104258322    0.000022834866
            0.000100765361    0.000004855762    -0.006927923587    0.052879477249    0.000104258301    0.000022834869    -0.049753765685    0.050627360585
0.475     -0.035194632716    0.007758264510    -0.000064113393    -0.000392244516    -0.009615923279    -0.020594183977    -0.000038309517    -0.000478135273
            -0.000064113358    -0.000392244472    0.004415497148    0.006243942653    -0.000021241507    -0.000459482383    0.025106572689    -0.025699365898
            -0.009615923279    -0.020594183977    -0.000021241514    -0.000459482363    -0.036275438407    0.005567134921    -0.000010125749    -0.000569043227
            -0.000038309493    -0.000478135285    0.025106614848    -0.025699384825    -0.000010125749    -0.000569043237    0.004251136077    0.004539899673
0.500     -0.084249327016    -0.008271496814    -0.000469946065    -0.000121679750    -0.092091486300    -0.012822329924    -0.000554437247    -0.000183664832
            -0.000469946036    -0.000121679743    -0.065864534816    -0.024380198281    -0.000540899247    -0.000197789236    -0.074612733211    -0.034558305412
            -0.092091482339    -0.012822329373    -0.000540899200    -0.000197789219    -0.086554615857    -0.009719531837    -0.000660150148    -0.000279006485
            -0.000554437275    -0.000183664841    -0.074612733211    -0.034558305412    -0.000660150139    -0.000279006481    -0.068764632615    -0.026518442037
0.525     -0.094038213878    0.070988275284    -0.000166413866    0.000212871349    -0.070654894832    0.087274947502    -0.000214185297    0.000249162880
            -0.000166413872    0.000212871357    -0.087136406666    0.066609126549    -0.000229020628    0.000248249777    -0.068641212946    0.072212476321
            -0.070654910064    0.087274935171    -0.000229020628    0.000248249777    -0.095682011093    0.070630464915    -0.000312074167    0.000288292086
            -0.000214185304    0.000249162888    -0.068641180565    0.072212442256    -0.000312074174    0.000288292092    -0.090403370504    0.067327890078
0.550     -0.009811108979    0.076037844559    0.000059921491    -0.000165496825    0.024025400150    0.049713786631    0.000091944380    -0.000185577516
            0.000059921490    -0.000165496804    0.005623867114    0.074701256336    0.000098018690    -0.000162224478    0.028789929218    0.043822894526
            0.024025400150    0.049713786631    0.000098018766    -0.000162224526    -0.011027565470    0.075133535298    0.000112371087    -0.000176408404
            0.000091944403    -0.000185577515    0.028789932494    0.043822891177    0.000112371117    -0.000176408432    0.004642319239    0.076020243923
0.575     -0.046321403390    0.006285350660    -0.000510098685    -0.000200610460    -0.058487664209    -0.030616396747    -0.000571005333    -0.000289657340
            -0.000510098685    -0.000200610460    -0.028987205945    -0.009362076063    -0.000542684658    -0.000293251401    -0.047986586469    -0.043957231955
            -0.058487664209    -0.030616396747    -0.000542684658    -0.000293251401    -0.048301501315    0.005581489789    -0.000626498526    -0.000389868148
            -0.000571005333    -0.000289657340    -0.047986546477    -0.043957318545    -0.000626498518    -0.000389868143    -0.029743745291    -0.009873254130
0.600     -0.106558038791    0.090778117698    -0.000364338635    0.000380868340    -0.122646833159    0.096461004931    -0.000481280679    0.000405785591
            -0.000364338603    0.000380868439    -0.106126172700    0.069800617947    -0.000483556355    0.000387359569    -0.126446116940    0.073394756555
            -0.122646833159    0.096461004931    -0.000483556324    0.000387359544    -0.108021747840    0.091143738255    -0.000642029915    0.000416402901
            -0.000481280695    0.000405785604    -0.126446116940    0.073394756555    -0.000642029979    0.000416402784    -0.108518357864    0.069847310041
0.625     0.001976347693    0.151524831736    0.000102782096    0.000214889664    0.019336213284    0.149914455380    0.000091907634    0.000278781982
            0.000102782088    0.000214889667    -0.013460485167    0.144124193462    0.000086199373    0.000291377009    -0.004969033902    0.138887578916
            0.019336208051    0.149914456055    0.000086199370    0.000291377000    0.001339733107    0.151382991825    0.000045562703    0.000384322771
            0.000091907618    0.000278781998    -0.004969031120    0.138887569009    0.000045562691    0.000384322783    -0.015266329472    0.145944113196
0.650     0.041005527983    0.029669484675    -0.000225647294    -0.000233139711    0.038676062743    -0.002554947275    -0.000224269588    -0.000275721609
            -0.000225647247    -0.000233139743    0.032603318597    0.041773682534    -0.000197745080    -0.000269002616    0.020504058826    0.013075116293
            0.038676062747    -0.002554947208    -0.000197745074    -0.000269002608    0.039771574386    0.029406889155    -0.000203705585    -0.000290718761
            -0.000224269550    -0.000275721562    0.020504052220    0.013075108054    -0.000203705551    -0.000290718712    0.032952369051    0.043751607796
0.675     -0.104113118160    0.063075201986    -0.000481356237    0.000444827314    -0.128608813515    0.054891224878    -0.000603303177    0.000437294862
            -0.000481356215    0.000444827294    -0.087938291275    0.063647444477    -0.000587657669    0.000404182737    -0.126657934201    0.058533812581
            -0.128608823095    0.054891202432    -0.000587657623    0.000404182856    -0.090178237088    0.073066236917    -0.000728504039    0.000403291469
            -0.000603303185    0.000437294867    -0.126657934201    0.058533812581    -0.000728504083    0.000403291328    -0.087384855774    0.063424429107
0.700     -0.011441130868    0.198813360192    0.000122789722    0.000474187858    -0.028149282032    0.215315073432    0.000057805191    0.000583370818
            0.000122789716    0.000474187870    -0.026470115246    0.189193776252    0.000043526519    0.000574094053    -0.044269993377    0.210006780449
            -0.028149282032    0.215315073432    0.000043526509    0.000574094054    -0.011014628597    0.198802972445    -0.000055520182    0.000711958525
            0.000057805149    0.000583370812    -0.044269993377    0.210006780449    -0.000055520197    0.000711958554    -0.027544794719    0.189165349066
0.725     0.126113212699    0.104596785771    0.000183564145    0.000001841293    0.125973022635    0.106568601280    0.000219886019    0.000059033863
            0.000183564185    0.000001841315    0.096136922348    0.126027842779    0.000230157464    0.000069320636    0.092907533159    0.130659437789
            0.125973020775    0.106568603479    0.000230157460    0.000069320617    0.125978604738    0.103606352590    0.000260198098    0.000173857530
            0.000219885999    0.000059033746    0.092907545420    0.130659392260    0.000260198088    0.000173857418    0.095458980507    0.127919024024
0.750     -0.014705574275    -0.005978598900    -0.000447487577    0.000162906034    -0.032252722712    -0.011927016063    -0.000486780899    0.000136009576
            -0.000447487595    0.000162906130    -0.006263443052    0.039276436419    -0.000466448553    0.000113693756    -0.026580526862    0.039469511823
            -0.032252715003    -0.011927019611    -0.000466448515    0.000113693660    -0.015117173978    -0.006012477247    -0.000493356035    0.000109557079
            -0.000486780866    0.000136009658    -0.026580592583    0.039469445862    -0.000493356044    0.000109557081    -0.003795514940    0.040270595288
0.775     -0.043456740900    0.185770030439    0.000161819027    0.000627752931    -0.065786385149    0.201262992660    0.000074810790    0.000721144135
            0.000161819013    0.000627752966    -0.019656540028    0.189027770042    0.000061871998    0.000694603934    -0.043011669330    0.221291321419
            -0.065786385149    0.201262992660    0.000061872024    0.000694603951    -0.042827331172    0.185393796019    -0.000035628778    0.000801760571
