# GHz S RI R 45
0.000     0.068313559249    0.042197301529    0.892983386331    -0.301389032457    0.024517232737    0.044063087375    -0.014163511639    -0.005729536804
            0.892983386331    -0.301389032457    0.069630247499    0.042600373610    -0.014184910098    -0.005722299746    0.024681540325    0.043918441912
            0.024517197635    0.044063084019    -0.014184941273    -0.005722289292    0.068150234048    0.041666501611    0.892973200552    -0.301175701733
            -0.014163544741    -0.005729524306    0.024681517583    0.043918440928    0.892973200552    -0.301175701733    0.069550987188    0.042074407112
0.025     0.145671000632    0.036973513076    0.487585487352    -0.784383392033    0.104069547155    0.055564620612    -0.027335890110    0.008479828425
            0.487586825847    -0.784382583551    0.148653841218    0.034537907249    -0.027331842729    0.008473558206    0.105095867384    0.053107785762
            0.104068965168    0.055565243534    -0.027335268896    0.008474076543    0.144866643085    0.036432691754    0.487777280065    -0.784288668114
            -0.027337120810    0.008479624402    0.105099936829    0.053111661346    0.487777283191    -0.784288642618    0.147971016184    0.033897475684
0.050     0.155169322726    -0.078356046563    -0.373563375312    -0.830183630458    0.136924184419    -0.059762555107    -0.003369403574    0.029194783803
            -0.373562989586    -0.830182773244    0.152406922084    -0.086850878318    -0.003375043230    0.029213113877    0.133050690416    -0.066952514355
            0.136923685389    -0.059763748435    -0.003375054946    0.029212173317    0.153836165840    -0.077767594746    -0.373497171344    -0.830359090289
            -0.003369810490    0.029193795629    0.133050678237    -0.066952627545    -0.373497163140    -0.830359072050    0.150923520555    -0.086307938281
0.075     0.046380609678    -0.081571084134    -0.907224874437    -0.145144337560    0.021950812329    -0.075631978799    0.005270332992    0.025068297568
            -0.907224874437    -0.145144337560    0.035941148077    -0.083642636781    0.005281293788    0.025072400348    0.011569258119    -0.076956256690
            0.021950363359    -0.075631556192    0.005280907257    0.025072457238    0.046144302657    -0.080125431270    -0.907225203589    -0.145225750522
            0.005269938176    0.025068308019    0.011569210371    -0.076956249711    -0.907225203589    -0.145225750522    0.035705424330    -0.082099874523
0.100     0.072134624376    0.000290916138    -0.604329292322    0.685633572659    0.039594398223    0.019681343053    0.041494335781    0.028433917426
            -0.604329285710    0.685633565157    0.069008425146    0.003248144442    0.041505369226    0.028435805391    0.036885167627    0.022218838253
            0.039594291935    0.019681484986    0.041505160992    0.028435939477    0.072852502778    0.000990362564    -0.604402676684    0.685397713710
            0.041494127232    0.028434050166    0.036885122429    0.022218880339    -0.604402676684    0.685397713710    0.069774335186    0.003850419557
0.125     0.133067945623    -0.063118182166    0.236318305670    0.864001075406    0.115379065210    -0.036194385843    0.053598974489    -0.032566761793
            0.236318293229    0.864001089176    0.129478097678    -0.071242317850    0.053614735821    -0.032582907525    0.110892145901    -0.045973091313
            0.115378992365    -0.036194517825    0.053614820815    -0.032582738785    0.133311347444    -0.063016173121    0.235915463443    0.864017822647
            0.053599022791    -0.032566670742    0.110892163533    -0.045972996559    0.235915460809    0.864017813000    0.129580904909    -0.071250970798
0.150     0.061485236673    -0.122491780381    0.845367446224    0.284962151313    0.046162511894    -0.104911260624    0.005739757607    -0.062999526581
            0.845367446224    0.284962151313    0.039635932215    -0.127844498256    0.005733366471    -0.063027561470    0.021762411290    -0.110402652546
            0.046162472346    -0.104911245250    0.005733432279    -0.063027565525    0.061453876731    -0.121722070738    0.845228892258    0.285380920477
            0.005739734052    -0.062999535756    0.021762378526    -0.110402648812    0.845228892258    0.285380920477    0.039409640060    -0.127049291931
0.175     0.016307638289    -0.064869260287    0.702898680780    -0.554874086877    -0.004892621752    -0.037848174346    -0.050912827535    -0.057453673076
            0.702898680780    -0.554874086877    -0.003319560751    -0.047320353973    -0.050952483644    -0.057459176464    -0.025310157087    -0.018887780326
            -0.004892628475    -0.037848143228    -0.050952508345    -0.057459163916    0.017507861913    -0.063694354863    0.703129880077    -0.554536112365
            -0.050912824140    -0.057453689446    -0.025310163952    -0.018887751062    0.703129880077    -0.554536112365    -0.002289736878    -0.046017948454
0.200     0.063538538457    -0.055607691826    -0.084250197191    -0.882762163985    0.055664944555    -0.021683493654    -0.094821535044    0.014647681856
            -0.084250198141    -0.882762173939    0.064266494747    -0.043280509582    -0.094834656411    0.014692519189    0.056680889906    -0.009761513395
            0.055664961502    -0.021683502493    -0.094834659776    0.014692536660    0.065693266316    -0.055839672204    -0.083758159606    -0.882641074523
            -0.094821536848    0.014647716023    0.056680883974    -0.009761441784    -0.083758175011    -0.882641073061    0.066328070462    -0.043443505153
0.225     0.047460518222    -0.110954151378    -0.772436767724    -0.411880617334    0.044272412323    -0.085853920492    -0.040082509869    0.097106240070
            -0.772436758900    -0.411880612629    0.033518984356    -0.114046428578    -0.040053215564    0.097121820600    0.028497472185    -0.089625048613
            0.044272412429    -0.085853876556    -0.040053185475    0.097121843826    0.048525465436    -0.112334566774    -0.771930295223    -0.412388147605
            -0.040082479788    0.097106263305    0.028497472987    -0.089625029469    -0.771930295223    -0.412388147605    0.034368577369    -0.115426666958
0.250     -0.012650710985    -0.102532076762    -0.767707731870    0.414015699631    -0.018718921658    -0.071856825930    0.059621868424    0.095492079160
            -0.767707731870    0.414015699631    -0.043455953729    -0.079097353505    0.059637894851    0.095496502035    -0.051447764597    -0.046570803731
            -0.018718910566    -0.071856783351    0.059637928482    0.095496492822    -0.012339495594    -0.102948093000    -0.768019336661    0.413242947527
            0.059621902053    0.095492069953    -0.051447754191    -0.046570777975    -0.768019336661    0.413242947527    -0.043494738386    -0.079295010224
0.275     -0.014483021419    -0.061371927425    -0.072845611505    0.866438302915    -0.003642813856    -0.026178282092    0.126968255974    0.008261508664
            -0.072845626627    0.866438301643    -0.013095575211    -0.018443593679    0.127008894395    0.008234307922    -0.001572633123    0.018463757257
            -0.003642805392    -0.026178268125    0.127008896019    0.008234282873    -0.012611987269    -0.061681035033    -0.073638397035    0.866342310256
            0.126968268145    0.008261475630    -0.001572621930    0.018463778282    -0.073638397035    0.866342310256    -0.011333849897    -0.018274842332
0.300     0.003263930616    -0.070079495901    0.678880529793    0.529578806272    0.018166679448    -0.052111430895    0.085022395476    -0.114236747686
            0.678880520550    0.529578818121    0.018136928478    -0.058139642045    0.084980457876    -0.114305794091    0.033937237995    -0.040307405331
            0.018166680029    -0.052111429633    0.084980437907    -0.114305821398    0.005241664493    -0.072738343355    0.678269228208    0.530100251440
            0.085022373534    -0.114236776483    0.033937253829    -0.040307384156    0.678269228208    0.530100251440    0.020129578137    -0.060625065157
0.325     -0.025778932198    -0.089809170768    0.807435567795    -0.271378785279    -0.023191145808    -0.067774313639    -0.054069483423    -0.142938234550
            0.807435572531    -0.271378771187    -0.041947086495    -0.076986073645    -0.054126111655    -0.142894216735    -0.039060722236    -0.054846819334
            -0.023191171558    -0.067774350275    -0.054126165077    -0.142894207193    -0.026307643249    -0.092858501179    0.807518920304    -0.270373808494
            -0.054069511908    -0.142938234466    -0.039060705993    -0.054846796526    0.807518920304    -0.270373808494    -0.042770985135    -0.079874234090
0.350     -0.063865076573    -0.062429885344    0.217978937547    -0.817593088022    -0.042551536490    -0.030500318379    -0.157882381099    -0.037502659200
            0.217978937547    -0.817593088022    -0.066265565922    -0.010868575496    -0.157866681719    -0.037485540821    -0.044596573397    0.022430432135
            -0.042551533239    -0.030500316048    -0.157866691449    -0.037485543131    -0.064585561924    -0.063363288736    0.219083142137    -0.817159548002
            -0.157882397374    -0.037502633956    -0.044596491367    0.022430488403    0.219083142137    -0.817159548002    -0.067173614870    -0.011267850241
0.375     -0.050849738531    -0.026487778645    -0.560583853910    -0.626987950315    -0.015293484324    -0.021534609925    -0.130103931009    0.118178546191
            -0.560583853910    -0.626987950315    -0.009801127594    0.006216812958    -0.130115576418    0.118219176405    0.027520239305    0.012337849060
            -0.015293436876    -0.021534590881    -0.130115563186    0.118219205839    -0.049761340607    -0.028267341957    -0.559742932667    -0.627748952079
            -0.130103917785    0.118178575622    0.027520239951    0.012337847620    -0.559742932667    -0.627748952079    -0.008456784674    0.004900536786
0.400     -0.036859564063    -0.042887145751    -0.822932401195    0.124071202019    -0.028606787087    -0.048298798153    0.030855041757    0.187956364339
            -0.822932401195    0.124071202019    -0.017183582718    -0.046174203375    0.030953705387    0.187973930141    -0.005932772415    -0.052206437382
            -0.028606787087    -0.048298798153    0.030953736539    0.187973935146    -0.037443364350    -0.046824403737    -0.822965049633    0.123029514803
            0.030855076181    0.187956368822    -0.005932681780    -0.052206419502    -0.822965049633    0.123029514803    -0.017758323797    -0.049977244307
0.425     -0.078884383764    -0.043858114376    -0.346547281319    0.745289087785    -0.068748232145    -0.022428917736    0.183986191626    0.078699693101
            -0.346547277102    0.745289078718    -0.080727889627    -0.018878464526    0.183990179749    0.078597884093    -0.068090092733    -0.000429290086
            -0.068748229293    -0.022428916805    0.183990199919    0.078597862332    -0.081920506473    -0.045947826993    -0.347536936440    0.744478996255
            0.183986211809    0.078699671344    -0.068090093808    -0.000429278208    -0.347536936440    0.744478996255    -0.083923480982    -0.020633899859
0.450     -0.087475020839    0.012774401144    0.425894078774    0.696012148133    -0.046818286861    0.015832663529    0.175282552050    -0.112650547017
            0.425894066626    0.696012155566    -0.048407089088    0.050251353939    0.175231519737    -0.112650803912    -0.006927926356    0.052879476887
            -0.046818187630    0.015832657289    0.175231512420    -0.112650833787    -0.088928980647    0.012734467183    0.424504639761    0.696657262153
            0.175282544733    -0.112650576897    -0.006927923587    0.052879477249    0.424504639761    0.696657262153    -0.049753765685    0.050627360585
0.475     -0.044319363185    0.015983254782    0.810062203341    0.024172150352    -0.027401652231    -0.016458677010    0.005773989984    -0.223958801352
            0.810062203130    0.024172157421    0.004415497148    0.006243942653    0.005745542605    -0.223977108741    0.025106572689    -0.025699365898
            -0.027401651930    -0.016458683338    0.005745503770    -0.223977119740    -0.044748545940    0.014134187480    0.810042440874    0.025588539326
            0.005773951153    -0.223958812357    0.025106614848    -0.025699384825    0.810042451137    0.025588531159    0.004251136077    0.004539899673
0.500     -0.073227151057    -0.011120416177    0.456430081150    -0.653164863942    -0.086811392130    -0.016719784736    -0.199604360802    -0.131086436265
            0.456430081150    -0.653164863942    -0.065864534816    -0.024380198281    -0.199680643337    -0.131016550676    -0.074612733211    -0.034558305412
            -0.086811392130    -0.016719784736    -0.199680643337    -0.131016550676    -0.076111171314    -0.013382474721    0.457359209213    -0.652269793578
            -0.199604360802    -0.131086436265    -0.074612733211    -0.034558305412    0.457359209213    -0.652269793578    -0.068764632615    -0.026518442037
0.525     -0.101497851722    0.049312470201    -0.283050533429    -0.732831898101    -0.083242417101    0.061801214895    -0.220952079128    0.099294332120
            -0.283050533429    -0.732831898101    -0.087136406666    0.066609126549    -0.220865972619    0.099378167353    -0.068641212946    0.072212476321
            -0.083242336810    0.061801155285    -0.220865963500    0.099378163250    -0.104738560520    0.049913532710    -0.281416492272    -0.733009485163
            -0.220952062710    0.099294417445    -0.068641180565    0.072212442256    -0.281416492272    -0.733009485163    -0.090403370504    0.067327890078
0.550     -0.036758529879    0.077680406440    -0.766663619165    -0.169193000989    -0.014059392272    0.047772826115    -0.049084344515    0.246182012108
            -0.766663619165    -0.169193000989    0.005623867114    0.074701256336    -0.049021350539    0.246133314091    0.028789929218    0.043822894526
            -0.014059390861    0.047772821319    -0.049021270482    0.246133360625    -0.037567332701    0.078865458119    -0.766048840939    -0.171019959614
            -0.049084387482    0.246182003541    0.028789932494    0.043822891177    -0.766048840939    -0.171019959614    0.004642319239    0.076020243923
0.575     -0.044544328669    0.022536402895    -0.547781114418    0.546732366866    -0.069908028628    -0.009051267857    0.196820196287    0.191505129058
            -0.547781107340    0.546732359802    -0.028987205945    -0.009362076063    0.196850512603    0.191454302914    -0.047986586469    -0.043957231955
            -0.069908033587    -0.009051268499    0.196850580890    0.191454275730    -0.045290416085    0.021895637128    -0.549027006429    0.545486469292
            0.196820223508    0.191505115421    -0.047986546477    -0.043957318545    -0.549027013523    0.545486476341    -0.029743745291    -0.009873254130
0.600     -0.100096794396    0.077576485677    0.143941026058    0.735952798501    -0.122212019326    0.091214733916    0.270482959118    -0.076703966557
            0.143940998449    0.735952793712    -0.106126172700    0.069800617947    0.270443978512    -0.076807587343    -0.126446116940    0.073394756555
            -0.122211979041    0.091214637424    0.270443989944    -0.076807656900    -0.102365894759    0.077667479960    0.142290490145    0.736029091925
            0.270482981536    -0.076704034120    -0.126446116940    0.073394756555    0.142290504889    0.736029099259    -0.108518357864    0.069847310041
0.625     -0.023929739793    0.140559697272    0.684562186817    0.300343143098    -0.010850683610    0.142038537313    0.087041265336    -0.259238151967
            0.684562181575    0.300343155046    -0.013460485167    0.144124193462    0.086916505504    -0.259198826781    -0.004969033902    0.138887578916
            -0.010850658640    0.142038438929    0.086916484720    -0.259198854846    -0.025120932134    0.142506296615    0.683374110086    0.302007378810
            0.087041244554    -0.259238180042    -0.004969031120    0.138887569009    0.683374110086    0.302007378810    -0.015266329472    0.145944113196
0.650     0.020702978703    0.056417690423    0.627864859139    -0.418659606697    0.007319911406    0.029306577128    -0.166672807758    -0.242376926248
            0.627864858126    -0.418659590191    0.032603318597    0.041773682534    -0.166679234551    -0.242294416846    0.020504058826    0.013075116293
            0.007319894365    0.029306574169    -0.166679341798    -0.242294391619    0.021766446182    0.057818689425    0.629056692055    -0.416545265346
            -0.166672872726    -0.242376930118    0.020504052220    0.013075108054    0.629056685852    -0.416545292825    0.032952369051    0.043751607796
0.675     -0.076153443062    0.076876051916    -0.017104124750    -0.722452567574    -0.120847724570    0.081410423421    -0.319735205917    0.028943119493
            -0.017104112140    -0.722452567873    -0.087938291275    0.063647444477    -0.319698424353    0.029095904772    -0.126657934201    0.058533812581
            -0.120847730485    0.081410396742    -0.319698439193    0.029095962383    -0.075832281471    0.076456155378    -0.014922613769    -0.722644560398
            -0.319735230743    0.028943178002    -0.126657934201    0.058533812581    -0.014922613976    -0.722644570395    -0.087384855774    0.063424429107
0.700     -0.016621684243    0.185047517726    -0.575842650611    -0.394665131379    -0.028894337710    0.216559850483    -0.127850372376    0.277416889425
            -0.575842650611    -0.394665131379    -0.026470115246    0.189193776252    -0.127684630979    0.277386796665    -0.044269993377    0.210006780449
            -0.028894337710    0.216559850483    -0.127684630979    0.277386796665    -0.016973624490    0.185112542985    -0.574735671796    -0.396282566467
            -0.127850372376    0.277416889425    -0.044269993377    0.210006780449    -0.574735671796    -0.396282566467    -0.027544794719    0.189165349066
0.725     0.098359038843    0.116289564862    -0.671071391517    0.253691729581    0.101996084629    0.123448297264    0.133269525398    0.262509361237
            -0.671071372809    0.253691722509    0.096136922348    0.126027842779    0.133224215322    0.262360561988    0.092907533159    0.130659437789
            0.101996099899    0.123448258703    0.133224215322    0.262360561988    0.099178078199    0.117450605696    -0.671618723187    0.251414354735
            0.133269724468    0.262509776059    0.092907545420    0.130659392260    -0.671618704457    0.251414347723    0.095458980507    0.127919024024
0.750     -0.008434711121    0.030690157416    -0.124496138876    0.706372414394    -0.029992813644    0.034916345102    0.334343283914    0.050809179809
            -0.124496138876    0.706372414394    -0.006263443052    0.039276436419    0.334331163582    0.050790825192    -0.026580526862    0.039469511823
            -0.029992864388    0.034916268556    0.334331171784    0.050790837781    -0.005538773442    0.030189739297    -0.127436988293    0.705890307911
            0.334343292027    0.050809192983    -0.026580592583    0.039469445862    -0.127436988293    0.705890307911    -0.003795514940    0.040270595288
0.775     -0.025130674296    0.182955527267    0.476780658881    0.460446946858    -0.039565378143    0.218909376401    0.197292047404    -0.285923890418
            0.476780635615    0.460446956554    -0.019656540028    0.189027770042    0.197309684635    -0.286336348836    -0.043011669330    0.221291321419
            -0.039565378143    0.218909376401    0.197309678961    -0.286336340602    -0.026539190842    0.179497915517    0.475751861676    0.462481916681
