!$
! Info: Touchstone file created by Circ.  Input file=Intel_C2M_200G_6p5in_202208016_staggered.circ
!$
# Hz S RI R 50
0	0.01995787	7.128064e-24	-9.232598e-05	1.130667e-20	0.0003372466	6.188441e-22	-8.801612e-05	1.077887e-20
	-9.232608e-05	1.130668e-20	0.01940348	3.863957e-24	-9.947503e-05	1.218218e-20	0.0001133486	2.896311e-22
	0.0003373145	6.192785e-22	-9.947511e-05	1.218219e-20	0.0199591	7.283388e-24	-9.235142e-05	1.130979e-20
	-8.80161e-05	1.077886e-20	0.0001134061	2.897576e-22	-9.235133e-05	1.130978e-20	0.01940143	3.659383e-24
1e+07	0.0241137	-0.002475945	-0.0005347075	-6.357584e-05	0.001272035	0.006261915	-5.483755e-05	-0.0001079066
	-0.0005347075	-6.357584e-05	0.02376343	-0.002909073	-0.0007597154	8.290477e-05	0.001672337	0.006239417
	0.001272035	0.006261915	-0.0007597154	8.290477e-05	0.02382136	-0.00236688	-0.0003940698	-7.955747e-05
	-5.483755e-05	-0.0001079066	0.001672337	0.006239417	-0.0003940698	-7.955747e-05	0.02361925	-0.002880127
2e+07	0.0264735	-0.008960177	-0.0004866939	-0.0003426775	0.00310089	0.01194743	-7.985801e-05	-0.0001773293
	-0.0004866938	-0.0003426775	0.02654525	-0.009810807	-0.0007145766	-0.0001591438	0.003921367	0.01163413
	0.003100976	0.01194733	-0.0007145766	-0.0001591437	0.02632735	-0.008670281	-0.0003839821	-0.0002612408
	-7.9858e-05	-0.0001773293	0.003921376	0.01163412	-0.0003839822	-0.0002612408	0.02643931	-0.009700233
3e+07	0.02591815	-0.01700945	-0.0004855954	-0.0004764716	0.005894499	0.01708691	-0.0001203957	-0.0002402876
	-0.0004855954	-0.0004764716	0.02714161	-0.01834233	-0.0006903953	-0.0002488553	0.007268897	0.01648321
	0.005894475	0.01708688	-0.0006903953	-0.0002488553	0.02590336	-0.01665792	-0.0004109603	-0.0003701495
	-0.0001203957	-0.0002402876	0.007268875	0.01648324	-0.0004109604	-0.0003701495	0.02706802	-0.01817968
4e+07	0.02314656	-0.02488436	-0.0005179073	-0.0005708658	0.009469619	0.02161279	-0.0001877055	-0.0002884759
	-0.0005179073	-0.0005708658	0.02570278	-0.02728527	-0.0006825573	-0.0003129642	0.01162337	0.02042857
	0.00946962	0.02161279	-0.0006825573	-0.0003129642	0.02324568	-0.02451232	-0.0004637548	-0.0004476397
	-0.0001877055	-0.0002884759	0.01162337	0.02042859	-0.0004637549	-0.0004476397	0.02566923	-0.0270859
5e+07	0.01846816	-0.03205738	-0.0005740596	-0.0006383274	0.01371956	0.02538037	-0.000264834	-0.0003238713
	-0.0005740596	-0.0006383274	0.02249273	-0.0360058	-0.0006886791	-0.0003692264	0.01675726	0.02332104
	0.01371956	0.02538038	-0.0006886791	-0.0003692264	0.0186674	-0.03169257	-0.0005354388	-0.0005011164
	-0.000264834	-0.0003238713	0.01675727	0.02332105	-0.0005354388	-0.0005011164	0.02250128	-0.03578109
6e+07	0.01218388	-0.03805584	-0.0006471783	-0.0006821672	0.01848067	0.02829279	-0.0003494449	-0.0003457518
	-0.0006471783	-0.0006821672	0.01772783	-0.04412682	-0.0007096022	-0.0004235626	0.02243967	0.02502316
	0.01848067	0.02829279	-0.0007096022	-0.0004235626	0.01246889	-0.03771954	-0.0006204077	-0.0005322338
	-0.0003494449	-0.0003457518	0.02243969	0.02502314	-0.0006204076	-0.0005322338	0.0177793	-0.04388667
7e+07	0.004674738	-0.04252722	-0.0007731049	-0.0006696732	0.02357735	0.03029032	-0.0004387321	-0.0003527605
	-0.0007731049	-0.0006696731	0.01162907	-0.05134294	-0.0007467315	-0.0004767728	0.028412	0.02544688
	0.02357735	0.03029032	-0.0007467315	-0.0004767728	0.005029159	-0.04223631	-0.0007136555	-0.0005414739
	-0.0004387322	-0.0003527606	0.028412	0.02544688	-0.0007136555	-0.0005414739	0.01172313	-0.0510971
8e+07	-0.003642918	-0.04524042	-0.0009419364	-0.0005838797	0.02882839	0.03134967	-0.0005300321	-0.0003444649
	-0.0009419364	-0.0005838797	0.004457162	-0.05741492	-0.0008019399	-0.0005273461	0.03440485	0.02455845
	0.02882839	0.03134967	-0.0008019399	-0.0005273461	-0.003237604	-0.04500812	-0.0008104142	-0.0005291253
	-0.0005300321	-0.0003444649	0.03440485	0.02455845	-0.0008104143	-0.0005291253	0.004592183	-0.05717285
9e+07	-0.01233759	-0.04606441	-0.001089178	-0.0004651873	0.03405648	0.03148449	-0.0006222203	-0.0003209096
	-0.001089178	-0.0004651873	-0.00349561	-0.06217585	-0.0008774787	-0.0005721946	0.04014982	0.02237781
	0.03405648	0.03148449	-0.0008774787	-0.0005721946	-0.01190219	-0.04589975	-0.0009166767	-0.0004822363
	-0.0006222203	-0.0003209096	0.04014982	0.02237782	-0.0009166767	-0.0004822363	-0.003323527	-0.06194674
1e+08	-0.02093708	-0.04493576	-0.001198548	-0.0003102643	0.03909878	0.03074109	-0.000711579	-0.0002816555
	-0.001198548	-0.0003102643	-0.01188585	-0.0655013	-0.0009711345	-0.0006052087	0.04539218	0.01897499
	0.03909878	0.03074109	-0.0009711345	-0.0006052087	-0.02050082	-0.04484805	-0.001032492	-0.0003751927
	-0.000711579	-0.0002816555	0.04539218	0.01897499	-0.001032492	-0.0003751927	-0.01168323	-0.06529388
1.1e+08	-0.0289895	-0.04215266	-0.001259756	-0.0001850539	0.043789	0.02918182	-0.0007984279	-0.0002319362
	-0.001259756	-0.0001850539	-0.02042665	-0.06766223	-0.001093819	-0.0006143411	0.04988968	0.0144457
	0.043789	0.02918182	-0.001093819	-0.0006143411	-0.0285838	-0.04209067	-0.001118791	-0.0002750697
	-0.0007984279	-0.0002319362	0.04988967	0.0144457	-0.001118791	-0.0002750697	-0.02016621	-0.06752819
1.2e+08	-0.03635857	-0.03770728	-0.001327364	-5.928861e-05	0.04799076	0.02693128	-0.0008855533	-0.0001676231
	-0.001327364	-5.928861e-05	-0.02908826	-0.06847379	-0.001240079	-0.0006037281	0.0533973	0.009005177
	0.04799076	0.02693128	-0.001240079	-0.0006037281	-0.03597043	-0.03766883	-0.001204106	-0.000166807
	-0.0008855533	-0.0001676231	0.0533973	0.009005175	-0.001204106	-0.000166807	-0.02883439	-0.06839448
1.3e+08	-0.04264195	-0.03174318	-0.00138837	7.636752e-05	0.05160781	0.02411612	-0.0009734094	-8.893976e-05
	-0.00138837	7.636752e-05	-0.0375561	-0.06796145	-0.001403652	-0.0005651267	0.05576423	0.002854582
	0.05160781	0.02411612	-0.001403652	-0.0005651267	-0.04227304	-0.0317275	-0.001280816	-4.621917e-05
	-0.0009734094	-8.893976e-05	0.05576423	0.00285458	-0.001280816	-4.621917e-05	-0.03732275	-0.06791067
1.4e+08	-0.047527	-0.02450657	-0.001438791	0.0002229029	0.05456857	0.02087536	-0.00105341	6.9002e-06
	-0.001438791	0.0002229029	-0.04559714	-0.06622713	-0.001578376	-0.000492637	0.05687152	-0.003776186
	0.05456856	0.02087536	-0.001578376	-0.000492637	-0.04718155	-0.02450937	-0.001346276	8.635411e-05
	-0.00105341	6.9002e-06	0.05687152	-0.003776187	-0.001346276	8.635408e-05	-0.04538098	-0.06619401
1.5e+08	-0.05076819	-0.01630383	-0.001475806	0.0003801442	0.0568307	0.01735453	-0.001122995	0.0001191197
	-0.001475806	0.0003801442	-0.05301922	-0.06340878	-0.001756809	-0.000381887	0.0566424	-0.0106386
	0.0568307	0.01735453	-0.001756809	-0.000381887	-0.05045014	-0.01631829	-0.001398594	0.0002300775
	-0.001122995	0.0001191197	0.0566424	-0.0106386	-0.001398594	0.0002300775	-0.05281738	-0.06339301
1.6e+08	-0.05219178	-0.00748344	-0.001497047	0.0005471801	0.05838083	0.01370065	-0.001179592	0.0002465224
	-0.001497047	0.0005471801	-0.05966938	-0.05967093	-0.001930428	-0.0002304269	0.0550464	-0.017474
	0.05838083	0.01370065	-0.001930428	-0.0002304269	-0.05190345	-0.007500812	-0.001436234	0.0003838356
	-0.001179592	0.0002465224	0.0550464	-0.017474	-0.001436234	0.0003838355	-0.05948342	-0.05967661
1.7e+08	-0.05169993	0.001580847	-0.001500397	0.0007226919	0.05923312	0.01005619	-0.001220691	0.0003875925
	-0.001500397	0.0007226919	-0.06543478	-0.05519713	-0.002090137	-3.792346e-05	0.05210052	-0.02402235
	0.05923312	0.01005619	-0.002090137	-3.792346e-05	-0.05144128	0.001569914	-0.001457792	0.000546376
	-0.001220691	0.0003875925	0.05210052	-0.02402234	-0.001457792	0.000546376	-0.06527091	-0.05522805
1.8e+08	-0.04927156	0.01050586	-0.001483974	0.0009049121	0.05942787	0.006555238	-0.001243918	0.000540401
	-0.001483974	0.0009049121	-0.07024433	-0.05018131	-0.002226737	0.0001939137	0.04786871	-0.03003046
	0.05942787	0.006555238	-0.002226737	0.0001939137	-0.0490406	0.01051059	-0.00146207	0.0007163076
	-0.001243918	0.000540401	0.04786871	-0.03003046	-0.00146207	0.0007163076	-0.07011185	-0.05023879
1.9e+08	-0.04496194	0.01891319	-0.001446066	0.001091748	0.05902884	0.003319584	-0.001247133	0.0007026534
	-0.001446066	0.001091748	-0.07406832	-0.04482005	-0.00233139	0.0004615601	0.04246028	-0.03526025
	0.05902884	0.003319585	-0.00233139	0.0004615601	-0.0447547	0.01894238	-0.001447825	0.0008921008
	-0.001247133	0.0007026534	0.04246028	-0.03526025	-0.001447825	0.0008921008	-0.07397802	-0.04490185
2e+08	-0.03889815	0.02644421	-0.001384707	0.001279438	0.05811979	0.0004545137	-0.001228521	0.0008716615
	-0.001384707	0.001279438	-0.07691758	-0.03930328	-0.002381323	0.0007952417	0.03602618	-0.03949614
	0.05811979	0.0004545138	-0.002381323	0.0007952417	-0.03870893	0.02650632	-0.001414107	0.001070544
	-0.001228521	0.0008716615	0.03602618	-0.03949614	-0.001414107	0.001070544	-0.07687961	-0.03940445
2.1e+08	-0.03127508	0.03277342	-0.00129958	0.001466389	0.05680261	-0.00195354	-0.001186525	0.001044392
	-0.00129958	0.001466389	-0.07883892	-0.03380726	-0.002378549	0.001146442	0.02875484	-0.04255194
	0.05680261	-0.00195354	-0.002378549	0.001146442	-0.03109574	0.03287507	-0.001360122	0.001251532
	-0.001186525	0.001044392	0.02875484	-0.04255194	-0.001360122	0.001251532	-0.07886295	-0.03391932
2.2e+08	-0.02234529	0.03761952	-0.001189877	0.001649603	0.05519227	-0.003839887	-0.001120067	0.001217519
	-0.001189877	0.001649603	-0.07991235	-0.02848724	-0.002319378	0.001505493	0.02086658	-0.0442769
	0.05519227	-0.003839887	-0.002319378	0.001505493	-0.0221668	0.03776613	-0.001284776	0.001433161
	-0.001120067	0.001217519	0.02086658	-0.0442769	-0.001284776	0.001433161	-0.08000569	-0.02859912
2.3e+08	-0.01241124	0.04075578	-0.001055252	0.001825783	0.05341373	-0.005163607	-0.001028604	0.001387485
	-0.001055252	0.001825783	-0.08024391	-0.02347153	-0.002202405	0.001861945	0.01260722	-0.04456131
	0.05341373	-0.005163607	-0.002202405	0.001861945	-0.01222296	0.04095104	-0.001187107	0.001613259
	-0.001028604	0.001387485	0.01260722	-0.04456131	-0.001187107	0.001613259	-0.08041152	-0.02357085
2.4e+08	-0.001812376	0.04201926	-0.0008957245	0.001991537	0.05159772	-0.005908901	-0.0009121416	0.001550591
	-0.0008957245	0.001991537	-0.0799591	-0.01885712	-0.002028426	0.002205361	0.00424111	-0.04334027
	0.05159772	-0.005908901	-0.002028426	0.002205361	-0.001603008	0.04226481	-0.001066245	0.001789367
	-0.0009121416	0.001550591	0.00424111	-0.04334027	-0.001066245	0.001789367	-0.08020351	-0.01892993
2.5e+08	0.009087213	0.04131575	-0.0007119424	0.002143277	0.04987575	-0.006086313	-0.0007712151	0.001703117
	-0.0007119424	0.002143277	-0.07919522	-0.01470645	-0.001800378	0.002525753	-0.003957229	-0.04059692
	0.04987575	-0.006086313	-0.001800378	0.002525753	0.009329982	0.04161073	-0.000921589	0.001958743
	-0.0007712151	0.001703117	-0.003957229	-0.04059692	-0.000921589	0.001958743	-0.07951607	-0.01473876
2.6e+08	0.01991285	0.03862374	-0.0005050417	0.002277399	0.04837541	-0.005732806	-0.0006070586	0.001841403
	-0.0005050417	0.002277399	-0.07809315	-0.01104678	-0.00152318	0.002814151	-0.01171173	-0.03636455
	0.04837541	-0.005732806	-0.00152318	0.002814151	0.02020088	0.03896475	-0.000752787	0.002118338
	-0.0006070586	0.001841403	-0.01171173	-0.03636455	-0.000752787	0.002118338	-0.07848763	-0.01102421
2.7e+08	0.03029399	0.03399451	-0.0002767502	0.002390375	0.04721531	-0.004910578	-0.0004213546	0.001961975
	-0.0002767502	0.002390375	-0.07678919	-0.007870469	-0.001203437	0.003062953	-0.01875334	-0.03072593
	0.04721531	-0.004910578	-0.001203437	0.003062953	0.03063934	0.03437617	-0.0005598644	0.002264835
	-0.0004213546	0.001961975	-0.01875334	-0.03072593	-0.0005598644	0.002264835	-0.07725183	-0.007779124
2.8e+08	0.03987853	0.02755078	-2.938546e-05	0.002478857	0.04650005	-0.003706209	-0.0002164542	0.002061615
	-2.938546e-05	0.002478857	-0.0754067	-0.005136968	-0.0008487766	0.003266298	-0.02482963	-0.0238125
	0.04650005	-0.003706209	-0.0008487766	0.003266298	0.04029225	0.02796525	-0.0003433617	0.002394683
	-0.0002164542	0.002061615	-0.02482963	-0.0238125	-0.0003433617	0.002394683	-0.07592939	-0.004964143
2.9e+08	0.04834616	0.01948161	0.0002341301	0.002539753	0.04631505	-0.002226989	4.854932e-06	0.002137519
	0.0002341301	0.002539753	-0.07404905	-0.002777913	-0.0004675579	0.003420188	-0.02971356	-0.01580101
	0.04631505	-0.002226989	-0.0004675579	0.003420188	0.04883814	0.01991833	-0.0001042928	0.00250418
	4.854932e-06	0.002137519	-0.02971356	-0.01580101	-0.0001042928	0.00250418	-0.07462153	-0.002511776
3e+08	0.05542215	0.01003337	0.0005103714	0.002570377	0.04672245	-0.000597643	0.0002393811	0.002187346
	0.0005103714	0.002570377	-0.07279319	-0.0007025253	-6.834807e-05	0.003522503	-0.03321135	-0.006908254
	0.04672245	-0.000597643	-6.834807e-05	0.003522503	0.05600033	0.01047977	0.0001556489	0.00258955
	0.0002393811	0.002187346	-0.03321135	-0.006908254	0.0001556489	0.00258955	-0.07340322	-0.0003330328
3.1e+08	0.06088746	-0.0004996149	0.0007954318	0.002568578	0.0477578	0.001045535	0.0004836762	0.002209244
	0.0007954318	0.002568578	-0.07168514	0.001194835	0.0003406884	0.003572843	-0.03517032	0.002615223
	0.0477578	0.001045535	0.0003406884	0.003572843	0.06155703	-5.780435e-05	0.0004340182	0.002647119
	0.0004836762	0.002209244	-0.03517032	0.002615223	0.0004340182	0.002647119	-0.07231856	0.001676321
3.2e+08	0.06458642	-0.01178787	0.001085051	0.002532764	0.04942722	0.002559399	0.0007339657	0.002201946
	0.001085051	0.002532764	-0.07073692	0.003026949	0.0007519269	0.003572372	-0.03548455	0.01249326
	0.04942722	0.002559399	0.0007519269	0.003572372	0.06535077	-0.01136629	0.0007277605	0.002673396
	0.0007339657	0.002201946	-0.03548455	0.01249326	0.0007277605	0.002673396	-0.07137757	0.003626048
3.3e+08	0.06643346	-0.0234812	0.001374687	0.002462029	0.05170615	0.003801084	0.0009864776	0.002164723
	0.001374687	0.002462029	-0.06992581	0.004904005	0.001158952	0.003523339	-0.0340987	0.02243294
	0.05170615	0.003801084	0.001158952	0.003523339	0.06729258	-0.02309596	0.001033109	0.002665274
	0.0009864776	0.002164723	-0.0340987	0.02243294	0.001033109	0.002665274	-0.07055631	0.005624245
3.4e+08	0.06641478	-0.0352225	0.001659661	0.002356209	0.05454064	0.004634562	0.001237428	0.002097438
	0.001659661	0.002356209	-0.06919535	0.006925021	0.001556294	0.003428818	-0.03101115	0.0321348
	0.05454064	0.004634562	0.001556294	0.003428818	0.06736585	-0.03489018	0.00134568	0.002620185
	0.001237428	0.002097438	-0.03101115	0.0321348	0.00134568	0.002620185	-0.06979767	0.00776661
3.5e+08	0.06458793	-0.04666388	0.001935273	0.00221587	0.05784837	0.004936289	0.001483078	0.002000435
	0.001935273	0.00221587	-0.06845955	0.009169235	0.001939776	0.003292243	-0.02627347	0.04130219
	0.05784837	0.004936289	0.001939776	0.003292243	0.06562438	-0.04640044	0.001660481	0.002536229
	0.001483078	0.002000435	-0.02627347	0.04130219	0.001660481	0.002536229	-0.06901503	0.01012988
3.6e+08	0.06107725	-0.0574802	0.002197042	0.002042332	0.06152236	0.004602002	0.001719894	0.001874577
	0.002197042	0.002042332	-0.06760804	0.011689	0.002306375	0.003116904	-0.01998961	0.04965146
	0.06152236	0.004602002	0.002306375	0.003116904	0.06219003	-0.0573002	0.001972172	0.002412319
	0.001719894	0.001874577	-0.01998961	0.04965146	0.001972172	0.002412319	-0.06809821	0.01276263
3.7e+08	0.05606743	-0.06738207	0.002440794	0.001837508	0.06543588	0.003550977	0.001944631	0.001721048
	0.002440794	0.001837508	-0.06651385	0.01450316	0.002653879	0.002905815	-0.01231188	0.0569213
	0.06543588	0.003550977	0.002653879	0.002905815	0.05724474	-0.06729883	0.002275236	0.002248153
	0.001944631	0.001721048	-0.01231188	0.0569213	0.002275236	0.002248153	-0.06692097	0.01568057
3.8e+08	0.04979447	-0.07612691	0.00266273	0.001603973	0.06944744	0.001729531	0.00215421	0.001541466
	0.00266273	0.001603973	-0.06504169	0.01759397	0.002980609	0.002661496	-0.003435807	0.06288022
	0.06944744	0.001729531	0.002980609	0.002661496	0.05102184	-0.07615143	0.002563978	0.002044423
	0.00215421	0.001541466	-0.003435807	0.06288022	0.002563978	0.002044423	-0.06534907	0.01886298
3.9e+08	0.04253353	-0.08352788	0.0028596	0.001344733	0.0734075	-0.000886387	0.002345909	0.001337642
	0.0028596	0.001344733	-0.06305668	0.02090425	0.003285232	0.002385782	0.00640531	0.06733418
	0.0734075	-0.000886387	0.003285232	0.002385782	0.04379504	-0.08366791	0.002832895	0.001802697
	0.002345909	0.001337642	0.00640531	0.06733418	0.002832895	0.001802697	-0.06325023	0.02224914
4e+08	0.03458767	-0.08945933	0.003028721	0.001063118	0.07716442	-0.004290733	0.002517265	0.00111162
	0.003028721	0.001063118	-0.06043554	0.02433835	0.003566358	0.002079792	0.01694899	0.07013163
	0.07716442	-0.004290733	0.003566358	0.002079792	0.03586565	-0.08972013	0.003076762	0.001525328
	0.002517265	0.00111162	0.01694899	0.07013163	0.003076762	0.001525328	-0.0605033	0.02574147
4.1e+08	0.02627359	-0.09386083	0.003167995	0.0007626233	0.0805712	-0.008447508	0.00266611	0.0008655929
	0.003167995	0.0007626233	-0.05707571	0.02776524	0.003822159	0.001744407	0.02791054	0.07116754
	0.0805712	-0.008447508	0.003822159	0.001744407	0.02754974	-0.09424427	0.003290736	0.0012156
	0.00266611	0.0008655929	0.02791054	0.07116754	0.003290736	0.0012156	-0.05700844	0.02920634
4.2e+08	0.0179089	-0.09673709	0.00327589	0.0004468411	0.08349051	-0.01329387	0.00279054	0.0006018948
	0.00327589	0.0004468411	-0.05290246	0.03102174	0.004050343	0.001379949	0.03899172	0.07038646
	0.08349051	-0.01329387	0.004050343	0.001379949	0.01916515	-0.09724129	0.00347059	0.0008773138
	0.00279054	0.0006018948	0.03899172	0.07038646	0.00347059	0.0008773138	-0.05269447	0.03247879
4.3e+08	0.009799166	-0.09815607	0.003351385	0.0001192662	0.08580042	-0.01874156	0.002888857	0.0003227666
	0.003351385	0.0001192662	-0.04787833	0.03392088	0.004247803	0.0009870924	0.04988919	0.06778283
	0.08580042	-0.01874156	0.004247803	0.0009870924	0.01101746	-0.09877616	0.003612721	0.0005147747
	0.002888857	0.0003227666	0.04988919	0.06778283	0.003612721	0.0005147747	-0.04752754	0.03537104
4.4e+08	0.00222567	-0.09824459	0.003393871	-0.0002167242	0.0873979	-0.02468205	0.002959541	3.06814e-05
	0.003393871	-0.0002167242	-0.04200781	0.03625976	0.004410766	0.0005666286	0.0603022	0.06340137
	0.0873979	-0.02468205	0.004410766	0.0005666286	0.003389824	-0.09897232	0.003714173	0.0001328867
	0.002959541	3.06814e-05	0.0603022	0.06340137	0.003714173	0.0001328867	-0.04151588	0.03767917
4.5e+08	-0.00456486	-0.09718177	0.003403098	-0.0005579782	0.08820274	-0.03099022	0.003001245	-0.0002718477
	0.003403098	-0.0005579782	-0.03534169	0.03782739	0.004534797	0.0001200504	0.06994101	0.05733583
	0.08820274	-0.03099022	0.004534797	0.0001200504	-0.003469347	-0.098006	0.003772771	-0.0002633062
	0.003001245	-0.0002718477	0.06994101	0.05733583	0.003772771	-0.0002633062	-0.03471424	0.03919249
4.6e+08	-0.01036973	-0.09519103	0.00337901	-0.0009014625	0.08815908	-0.03752951	0.003012725	-0.0005823323
	0.00337901	-0.0009014625	-0.02797897	0.03841623	0.004614978	-0.0003499468	0.07853408	0.0497262
	0.08815908	-0.03752951	0.004614978	-0.0003499468	-0.009354964	-0.09609806	0.003786969	-0.000668744
	0.003012725	-0.0005823323	0.07853408	0.0497262	0.003786969	-0.000668744	-0.02722552	0.03970471
4.7e+08	-0.01503728	-0.09252952	0.003321685	-0.001244507	0.08723704	-0.04415624	0.00299286	-0.0008980814
	0.003321685	-0.001244507	-0.0200677	0.03783367	0.004646232	-0.0008396194	0.08583567	0.0407554
	0.08723704	-0.04415624	0.004646232	-0.0008396194	-0.01411228	-0.09350397	0.003755987	-0.001078055
	0.00299286	-0.0008980814	0.08583567	0.0407554	0.003755987	-0.001078055	-0.0192013	0.0390235
4.8e+08	-0.01847207	-0.08947879	0.003231259	-0.001584508	0.08543286	-0.05072495	0.002940602	-0.001216365
	0.003231259	-0.001584508	-0.01180053	0.03590972	0.004623648	-0.001344058	0.09163151	0.03064513
	0.08543286	-0.05072495	0.004623648	-0.001344058	-0.01764272	-0.09050354	0.003679606	-0.001486126
	0.002940602	-0.001216365	0.09163151	0.03064513	0.003679606	-0.001486126	-0.01083866	0.03698169
4.9e+08	-0.02063894	-0.08633197	0.003107867	-0.001918867	0.08276862	-0.05709273	0.002855044	-0.001534239
	0.003107867	-0.001918867	-0.003413356	0.03250851	0.00454289	-0.001856674	0.09574592	0.01965025
