!$
! Info: Touchstone file created by Circ.  Input file=Intel_C2M_200G_6p5in_202208016_staggered.circ
!$
# Hz S RI R 50
0	0.01939038	3.686688e-24	7.061149e-05	9.921211e-23	0.0001137324	2.913348e-22	7.054573e-05	9.904634e-23
	7.061149e-05	9.921211e-23	0.01940348	3.863957e-24	7.05945e-05	9.914472e-23	0.0001133486	2.896311e-22
	0.00011379	2.914615e-22	7.059449e-05	9.914606e-23	0.01938523	3.52184e-24	7.055895e-05	9.898171e-23
	7.054572e-05	9.904767e-23	0.0001134061	2.897576e-22	7.055895e-05	9.898171e-23	0.01940143	3.659383e-24
1e+07	0.02401176	-0.002682386	1.376334e-05	7.453721e-06	0.001414109	0.006165438	2.535554e-06	1.870563e-05
	1.376334e-05	7.453721e-06	0.02376343	-0.002909073	4.38342e-05	7.398895e-06	0.001672337	0.006239417
	0.001414109	0.006165438	4.38342e-05	7.398895e-06	0.0243155	-0.002685621	1.818939e-05	2.225828e-05
	2.535554e-06	1.870563e-05	0.001672337	0.006239417	1.818939e-05	2.225828e-05	0.02361925	-0.002880127
2e+07	0.02698408	-0.009553202	6.181207e-06	2.103153e-05	0.00369025	0.01158551	3.475598e-06	6.348504e-06
	6.181207e-06	2.103153e-05	0.02654525	-0.009810807	3.021376e-05	2.188329e-05	0.003921367	0.01163413
	0.003690259	0.0115855	3.021377e-05	2.188329e-05	0.02717561	-0.009641789	1.361015e-05	1.905268e-05
	3.475598e-06	6.348504e-06	0.003921376	0.01163412	1.361015e-05	1.905268e-05	0.02643931	-0.009700233
3e+07	0.02772805	-0.01812785	2.067068e-05	2.537926e-05	0.007055806	0.01641403	4.992579e-06	3.657385e-06
	2.067068e-05	2.537926e-05	0.02714161	-0.01834233	2.254323e-05	3.318659e-05	0.007268897	0.01648321
	0.007055784	0.01641407	2.254323e-05	3.318659e-05	0.02783829	-0.01819082	1.120227e-05	1.988994e-05
	4.992581e-06	3.657385e-06	0.007268875	0.01648324	1.120228e-05	1.988994e-05	0.02706802	-0.01817968
4e+07	0.02640778	-0.0271516	3.256895e-05	2.408759e-05	0.01142304	0.02033086	6.728767e-06	3.147281e-06
	3.256895e-05	2.408759e-05	0.02570278	-0.02728527	1.748968e-05	3.979183e-05	0.01162337	0.02042857
	0.01142304	0.02033088	1.748968e-05	3.979183e-05	0.02646828	-0.02716364	9.840529e-06	2.090627e-05
	6.728768e-06	3.14728e-06	0.01162337	0.02042859	9.84053e-06	2.090627e-05	0.02566923	-0.0270859
5e+07	0.02329002	-0.03597895	4.196376e-05	1.93463e-05	0.01656611	0.02319308	8.78001e-06	3.567848e-06
	4.196376e-05	1.93463e-05	0.02249273	-0.0360058	3.048151e-05	3.577488e-05	0.01675726	0.02332104
	0.01656612	0.02319308	3.048151e-05	3.577488e-05	0.02332366	-0.03592904	1.467132e-05	1.865034e-05
	8.78001e-06	3.567848e-06	0.01675727	0.02332105	1.467132e-05	1.865034e-05	0.02250128	-0.03578109
6e+07	0.01859147	-0.04422559	4.9031e-05	1.251912e-05	0.0222557	0.02486602	1.058197e-05	3.360493e-06
	4.903099e-05	1.251912e-05	0.01772783	-0.04412682	4.057159e-05	2.89474e-05	0.02243967	0.02502316
	0.02225571	0.024866	4.057159e-05	2.89474e-05	0.01861852	-0.04410999	1.880133e-05	1.549605e-05
	1.058197e-05	3.360493e-06	0.02243969	0.02502314	1.880133e-05	1.549605e-05	0.0177793	-0.04388667
7e+07	0.01253267	-0.05158058	5.379264e-05	4.335034e-06	0.02823479	0.02526309	1.213514e-05	2.72238e-06
	5.379264e-05	4.335034e-06	0.01162907	-0.05134294	4.77366e-05	2.016788e-05	0.028412	0.02544688
	0.02823479	0.02526309	4.77366e-05	2.016788e-05	0.0125712	-0.05140124	2.190561e-05	1.175517e-05
	1.213514e-05	2.72238e-06	0.028412	0.02544688	2.190561e-05	1.175517e-05	0.01172313	-0.0510971
8e+07	0.005373288	-0.05780034	5.625442e-05	-4.702799e-06	0.03423567	0.02435119	1.343565e-05	1.760358e-06
	5.625442e-05	-4.702799e-06	0.004457162	-0.05741492	5.192976e-05	1.004963e-05	0.03440485	0.02455845
	0.03423567	0.02435119	5.192976e-05	1.004963e-05	0.005439129	-0.05756295	2.396998e-05	7.585435e-06
	1.343565e-05	1.760358e-06	0.03440485	0.02455845	2.396998e-05	7.585435e-06	0.004592183	-0.05717285
9e+07	-0.00259701	-0.06271498	5.632847e-05	-1.423051e-05	0.03999176	0.0221506	1.446216e-05	5.792311e-07
	5.632847e-05	-1.423051e-05	-0.00349561	-0.06217585	5.306549e-05	-7.889355e-07	0.04014982	0.02237781
	0.03999176	0.0221506	5.306549e-05	-7.889358e-07	-0.002490042	-0.06242735	2.492714e-05	3.154758e-06
	1.446216e-05	5.792308e-07	0.04014982	0.02237782	2.492714e-05	3.154757e-06	-0.003323527	-0.06194674
1e+08	-0.01104891	-0.06620501	5.30619e-05	-2.450027e-05	0.04524947	0.01873147	1.510126e-05	-7.593649e-07
	5.30619e-05	-2.450027e-05	-0.01188585	-0.0655013	4.999954e-05	-1.261087e-05	0.04539218	0.01897499
	0.04524947	0.01873147	4.999954e-05	-1.261087e-05	-0.01088341	-0.06587206	2.434994e-05	-1.610892e-06
	1.510126e-05	-7.593648e-07	0.04539218	0.01897499	2.434994e-05	-1.610892e-06	-0.01168323	-0.06529388
1.1e+08	-0.01970287	-0.06846015	4.624625e-05	-2.946718e-05	0.04977259	0.01419021	1.574536e-05	-1.595587e-06
	4.624625e-05	-2.946718e-05	-0.02042665	-0.06766223	4.249772e-05	-1.803117e-05	0.04988968	0.0144457
	0.04977259	0.01419021	4.249773e-05	-1.803117e-05	-0.01942269	-0.06817392	2.229806e-05	-4.152874e-06
	1.574536e-05	-1.595587e-06	0.04988967	0.0144457	2.229806e-05	-4.152873e-06	-0.02016621	-0.06752819
1.2e+08	-0.02845461	-0.06933673	4.132808e-05	-3.261414e-05	0.05331649	0.008734905	1.70922e-05	-2.409877e-06
	4.132808e-05	-3.261414e-05	-0.02908826	-0.06847379	3.710518e-05	-2.102365e-05	0.0533973	0.009005177
	0.05331649	0.008734902	3.710518e-05	-2.102365e-05	-0.02813839	-0.06909766	2.099085e-05	-6.031923e-06
	1.70922e-05	-2.409877e-06	0.0533973	0.009005175	2.099085e-05	-6.031923e-06	-0.02883439	-0.06839448
1.3e+08	-0.03700382	-0.06887575	3.877272e-05	-3.427854e-05	0.05572936	0.002564619	1.834888e-05	-3.780911e-06
	3.877272e-05	-3.427854e-05	-0.0375561	-0.06796145	3.252841e-05	-2.308505e-05	0.05576423	0.002854582
	0.05572936	0.002564618	3.252841e-05	-2.308505e-05	-0.03667328	-0.06866726	1.991642e-05	-7.710816e-06
	1.834888e-05	-3.780911e-06	0.05576423	0.00285458	1.991642e-05	-7.710816e-06	-0.03732275	-0.06791067
1.4e+08	-0.04512051	-0.06718326	3.833074e-05	-3.520071e-05	0.0568914	-0.004093096	1.941996e-05	-5.694093e-06
	3.833074e-05	-3.520071e-05	-0.04559714	-0.06622713	2.845917e-05	-2.4633e-05	0.05687152	-0.003776186
	0.0568914	-0.004093097	2.845917e-05	-2.4633e-05	-0.04477915	-0.06700085	1.894057e-05	-9.317083e-06
	1.941996e-05	-5.694093e-06	0.05687152	-0.003776187	1.894057e-05	-9.317083e-06	-0.04538098	-0.06619401
1.5e+08	-0.05261391	-0.0643993	3.754573e-05	-3.668432e-05	0.05672458	-0.01099196	2.024925e-05	-8.000162e-06
	3.754573e-05	-3.668432e-05	-0.05301922	-0.06340878	2.477339e-05	-2.576037e-05	0.0566424	-0.0106386
	0.05672458	-0.01099196	2.477339e-05	-2.576037e-05	-0.05226539	-0.06424689	1.797742e-05	-1.093311e-05
	2.024925e-05	-8.000162e-06	0.0566424	-0.0106386	1.797742e-05	-1.093311e-05	-0.05281738	-0.06339301
1.6e+08	-0.05933193	-0.06068955	3.63725e-05	-3.863772e-05	0.05519672	-0.01787538	2.0755e-05	-1.068331e-05
	3.63725e-05	-3.863772e-05	-0.05966938	-0.05967093	2.137143e-05	-2.661741e-05	0.0550464	-0.017474
	0.05519671	-0.01787538	2.137143e-05	-2.661741e-05	-0.058984	-0.06057377	1.69502e-05	-1.260075e-05
	2.0755e-05	-1.068331e-05	0.0550464	-0.017474	1.69502e-05	-1.260075e-05	-0.05948342	-0.05967661
1.7e+08	-0.06516217	-0.05623827	3.467635e-05	-4.104537e-05	0.05232257	-0.02448505	2.083362e-05	-1.372242e-05
	3.467635e-05	-4.104537e-05	-0.06543478	-0.05519713	1.923732e-05	-2.713519e-05	0.05210052	-0.02402235
	0.05232257	-0.02448505	1.923732e-05	-2.713519e-05	-0.06482685	-0.05616401	1.605552e-05	-1.43419e-05
	2.083362e-05	-1.372242e-05	0.05210052	-0.02402234	1.605552e-05	-1.43419e-05	-0.06527091	-0.05522805
1.8e+08	-0.07003374	-0.05123983	3.238222e-05	-4.376827e-05	0.04816346	-0.03056907	2.038584e-05	-1.706289e-05
	3.238222e-05	-4.376827e-05	-0.07024433	-0.05018131	1.758565e-05	-2.765984e-05	0.04786871	-0.03003046
	0.04816346	-0.03056907	1.758565e-05	-2.765984e-05	-0.06972567	-0.05120829	1.522803e-05	-1.616246e-05
	2.038584e-05	-1.706289e-05	0.04786871	-0.03003046	1.522803e-05	-1.616246e-05	-0.07011185	-0.05023879
1.9e+08	-0.07391691	-0.04589111	2.94599e-05	-4.665248e-05	0.04282575	-0.03589014	1.935485e-05	-2.060379e-05
	2.94599e-05	-4.665248e-05	-0.07406832	-0.04482005	1.558667e-05	-2.829085e-05	0.04246028	-0.03526025
	0.04282575	-0.03589014	1.558667e-05	-2.829085e-05	-0.07365157	-0.0458989	1.39735e-05	-1.806149e-05
	1.935485e-05	-2.060379e-05	0.04246028	-0.03526025	1.39735e-05	-1.806149e-05	-0.07397802	-0.04490185
2e+08	-0.07682228	-0.04038237	2.584812e-05	-4.957694e-05	0.03645718	-0.04023289	1.766866e-05	-2.425368e-05
	2.584812e-05	-4.957694e-05	-0.07691758	-0.03930328	1.32247e-05	-2.894869e-05	0.03602618	-0.03949614
	0.03645718	-0.04023289	1.32247e-05	-2.894869e-05	-0.07661379	-0.04042249	1.227115e-05	-1.996477e-05
	1.766866e-05	-2.425368e-05	0.03602618	-0.03949614	1.227115e-05	-1.996477e-05	-0.07687961	-0.03940445
2.1e+08	-0.07879634	-0.03489013	2.149499e-05	-5.241038e-05	0.02924284	-0.04341064	1.526823e-05	-2.790137e-05
	2.149499e-05	-5.241038e-05	-0.07883892	-0.03380726	1.048057e-05	-2.956919e-05	0.02875484	-0.04255194
	0.02924284	-0.04341064	1.048057e-05	-2.956919e-05	-0.07865752	-0.03495156	1.010865e-05	-2.179339e-05
	1.526823e-05	-2.790137e-05	0.02875484	-0.04255194	1.010865e-05	-2.179339e-05	-0.07886295	-0.03391932
2.2e+08	-0.07991868	-0.02957017	1.6371e-05	-5.500147e-05	0.02139975	-0.04527149	1.211284e-05	-3.141909e-05
	1.6371e-05	-5.500147e-05	-0.07991235	-0.02848724	7.346389e-06	-3.007503e-05	0.02086658	-0.0442769
	0.02139975	-0.04527149	7.346389e-06	-3.007503e-05	-0.07985913	-0.02963881	7.483816e-06	-2.346637e-05
	1.211284e-05	-3.141909e-05	0.02086658	-0.0442769	7.483816e-06	-2.346637e-05	-0.08000569	-0.02859912
2.3e+08	-0.08029492	-0.02455137	1.047197e-05	-5.718646e-05	0.01317056	-0.04570384	8.182225e-06	-3.466519e-05
	1.047197e-05	-5.718646e-05	-0.08024391	-0.02347153	3.820176e-06	-3.038648e-05	0.01260722	-0.04456131
	0.01317056	-0.04570384	3.820176e-06	-3.038648e-05	-0.08032099	-0.02461165	4.406058e-06	-2.490054e-05
	8.182225e-06	-3.466519e-05	0.01260722	-0.04456131	4.406058e-06	-2.490054e-05	-0.08041152	-0.02357085
2.4e+08	-0.08005019	-0.01993151	3.823786e-06	-5.879333e-05	0.004816712	-0.04464021	3.484325e-06	-3.748729e-05
	3.823786e-06	-5.879333e-05	-0.0799591	-0.01885712	-8.725133e-08	-3.042093e-05	0.00424111	-0.04334027
	0.004816712	-0.04464021	-8.725133e-08	-3.042093e-05	-0.08016502	-0.01996631	8.954526e-07	-2.601307e-05
	3.484325e-06	-3.748729e-05	0.00424111	-0.04334027	8.954526e-07	-2.601307e-05	-0.08020351	-0.01892993
2.5e+08	-0.0793216	-0.01577401	-3.514367e-06	-5.964805e-05	-0.003389701	-0.04206049	-1.944851e-06	-3.972809e-05
	-3.514367e-06	-5.964805e-05	-0.07919522	-0.01470645	-4.355178e-06	-3.009425e-05	-0.003957229	-0.04059692
	-0.003389701	-0.04206048	-4.355178e-06	-3.009425e-05	-0.07952464	-0.01576632	-3.014565e-06	-2.672139e-05
	-1.944851e-06	-3.972809e-05	-0.003957229	-0.04059692	-3.014565e-06	-2.672139e-05	-0.07951607	-0.01473876
2.6e+08	-0.07825004	-0.01210718	-1.144793e-05	-5.958077e-05	-0.01117439	-0.03799415	-8.038143e-06	-4.123075e-05
	-1.144793e-05	-5.958077e-05	-0.07809315	-0.01104678	-8.949551e-06	-2.932199e-05	-0.01171173	-0.03636455
	-0.01117439	-0.03799415	-8.949551e-06	-2.932199e-05	-0.07853765	-0.01203999	-7.279252e-06	-2.694528e-05
	-8.038143e-06	-4.123075e-05	-0.01171173	-0.03636455	-7.279252e-06	-2.694528e-05	-0.07848763	-0.01102421
2.7e+08	-0.07697213	-0.008924561	-1.984789e-05	-5.843349e-05	-0.01826938	-0.03251965	-1.469762e-05	-4.18451e-05
	-1.984789e-05	-5.843349e-05	-0.07678919	-0.007870469	-1.382334e-05	-2.80199e-05	-0.01875334	-0.03072593
	-0.01826938	-0.03251965	-1.382334e-05	-2.80199e-05	-0.07733746	-0.008781768	-1.184209e-05	-2.660736e-05
	-1.469762e-05	-4.18451e-05	-0.01875334	-0.03072593	-1.184209e-05	-2.660736e-05	-0.07725183	-0.007779124
2.8e+08	-0.07561184	-0.006186703	-2.854912e-05	-5.606767e-05	-0.02442247	-0.02576382	-2.179312e-05	-4.143399e-05
	-2.854912e-05	-5.606767e-05	-0.0754067	-0.005136968	-1.89153e-05	-2.610578e-05	-0.02482963	-0.0238125
	-0.02442247	-0.02576382	-1.89153e-05	-2.610578e-05	-0.07604504	-0.005954004	-1.663178e-05	-2.563538e-05
	-2.179312e-05	-4.143399e-05	-0.02482963	-0.0238125	-1.663178e-05	-2.563538e-05	-0.07592939	-0.004964143
2.9e+08	-0.07427359	-0.003826243	-3.735636e-05	-5.237095e-05	-0.02940584	-0.01789867	-2.916518e-05	-3.988029e-05
	-3.735636e-05	-5.237095e-05	-0.07404905	-0.002777913	-2.414652e-05	-2.350231e-05	-0.02971356	-0.01580101
	-0.02940584	-0.01789867	-2.414652e-05	-2.350231e-05	-0.07476247	-0.003490766	-2.15646e-05	-2.39633e-05
	-2.916518e-05	-3.988029e-05	-0.02971356	-0.01580101	-2.15646e-05	-2.39633e-05	-0.07462153	-0.002511776
3e+08	-0.07303561	-0.001753147	-4.604978e-05	-4.726246e-05	-0.03302399	-0.009136332	-3.662893e-05	-3.709128e-05
	-4.604978e-05	-4.726246e-05	-0.07279319	-0.0007025253	-2.942104e-05	-2.014019e-05	-0.03321135	-0.006908254
	-0.03302399	-0.009136332	-2.942104e-05	-2.014019e-05	-0.07356594	-0.001304439	-2.654285e-05	-2.153362e-05
	-3.662893e-05	-3.709128e-05	-0.03321135	-0.006908254	-2.654285e-05	-2.153362e-05	-0.07340322	-0.0003330328
3.1e+08	-0.07194553	0.0001378708	-5.438538e-05	-4.070241e-05	-0.03512153	0.0002770222	-4.397793e-05	-3.300543e-05
	-5.438538e-05	-4.070241e-05	-0.07168514	0.001194835	-3.462758e-05	-1.595827e-05	-0.03517032	0.002615223
	-0.03512153	0.0002770222	-3.462758e-05	-1.595827e-05	-0.07250131	0.0007082644	-3.145432e-05	-1.830087e-05
	-4.397793e-05	-3.300543e-05	-0.03517032	0.002615223	-3.145432e-05	-1.830087e-05	-0.07231856	0.001676321
3.2e+08	-0.07101716	0.001959647	-6.210906e-05	-3.268989e-05	-0.03558888	0.01006905	-5.098874e-05	-2.759644e-05
	-6.210906e-05	-3.268989e-05	-0.07073692	0.003026949	-3.963486e-05	-1.091317e-05	-0.03548455	0.01249326
	-0.03558888	0.01006905	-3.963486e-05	-1.091317e-05	-0.07158063	0.002656667	-3.617478e-05	-1.423218e-05
	-5.098874e-05	-2.759644e-05	-0.03548455	0.01249326	-3.617478e-05	-1.423218e-05	-0.07137757	0.003626048
3.3e+08	-0.07022965	0.003822993	-6.895887e-05	-2.327089e-05	-0.03436625	0.01995003	-5.742896e-05	-2.087489e-05
	-6.895887e-05	-2.327089e-05	-0.06992581	0.004904005	-4.429802e-05	-4.977047e-06	-0.0340987	0.02243294
	-0.03436625	0.01995003	-4.429802e-05	-4.977047e-06	-0.07078223	0.004649102	-4.056632e-05	-9.314268e-06
	-5.742896e-05	-2.087489e-05	-0.0340987	0.02243294	-4.056632e-05	-9.314268e-06	-0.07055631	0.005624245
3.4e+08	-0.06952823	0.005828119	-7.467537e-05	-1.253629e-05	-0.03144692	0.02962271	-6.306127e-05	-1.289471e-05
	-7.467537e-05	-1.253629e-05	-0.06919535	0.006925021	-4.845658e-05	1.853711e-06	-0.03101115	0.0321348
	-0.03144692	0.02962271	-4.845658e-05	1.853711e-06	-0.07005121	0.006782185	-4.448177e-05	-3.553124e-06
	-6.306127e-05	-1.289471e-05	-0.03101115	0.0321348	-4.448177e-05	-3.553124e-06	-0.06979767	0.00776661
3.5e+08	-0.06882842	0.008056004	-7.900912e-05	-6.262044e-07	-0.02687694	0.03879173	-6.765359e-05	-3.745378e-06
	-7.900912e-05	-6.262044e-07	-0.06845955	0.009169235	-5.193961e-05	9.553312e-06	-0.02627347	0.04130219
	-0.02687694	0.03879173	-5.193961e-05	9.553312e-06	-0.06930293	0.009134274	-4.776629e-05	3.019922e-06
	-6.765359e-05	-3.745378e-06	-0.02627347	0.04130219	-4.776629e-05	3.019922e-06	-0.06901503	0.01012988
3.6e+08	-0.06802088	0.01056127	-8.172733e-05	1.22808e-05	-0.02075446	0.04717358	-7.098211e-05	6.438166e-06
	-8.172733e-05	1.22808e-05	-0.06760804	0.011689	-5.457058e-05	1.80695e-05	-0.01998961	0.04965146
	-0.02075446	0.04717358	-5.457058e-05	1.80695e-05	-0.0684288	0.01175619	-5.026162e-05	1.034485e-05
	-7.098211e-05	6.438166e-06	-0.01998961	0.04965146	-5.026162e-05	1.034485e-05	-0.06809821	0.01276263
3.7e+08	-0.06697912	0.01336538	-8.262444e-05	2.595726e-05	-0.01322596	0.05450604	-7.284039e-05	1.74819e-05
	-8.262444e-05	2.595726e-05	-0.06651385	0.01450316	-5.617225e-05	2.730906e-05	-0.01231188	0.0569213
	-0.01322596	0.05450604	-5.617225e-05	2.730906e-05	-0.06730366	0.01466649	-5.181125e-05	1.833602e-05
	-7.284039e-05	1.74819e-05	-0.01231188	0.0569213	-5.181125e-05	1.833602e-05	-0.06692097	0.01568057
3.8e+08	-0.06556763	0.01645349	-8.152261e-05	4.014427e-05	-0.004481376	0.06055553	-7.304567e-05	2.91745e-05
	-8.152261e-05	4.014427e-05	-0.06504169	0.01759397	-5.657386e-05	3.714779e-05	-0.003435807	0.06288022
	-0.004481376	0.06055553	-5.657386e-05	3.714779e-05	-0.06579345	0.01784767	-5.226643e-05	2.687153e-05
	-7.304567e-05	2.91745e-05	-0.003435807	0.06288022	-5.226643e-05	2.687153e-05	-0.06534907	0.01886298
3.9e+08	-0.06365056	0.01977136	-7.828355e-05	5.454547e-05	0.005251197	0.065125	-7.144221e-05	4.127363e-05
	-7.828355e-05	5.454547e-05	-0.06305668	0.02090425	-5.561821e-05	4.742347e-05	0.00640531	0.06733418
	0.005251197	0.065125	-5.561821e-05	4.742347e-05	-0.06376536	0.02124241	-5.149009e-05	3.580391e-05
	-7.144221e-05	4.127363e-05	0.00640531	0.06733418	-5.149009e-05	3.580391e-05	-0.06325023	0.02224914
4e+08	-0.06110291	0.02322622	-7.281162e-05	6.88344e-05	0.01571389	0.06805884	-6.791265e-05	5.349929e-05
	-7.281162e-05	6.88344e-05	-0.06043554	0.02433835	-5.317e-05	5.793619e-05	0.01694899	0.07013163
	0.01571389	0.06805884	-5.317e-05	5.793619e-05	-0.06109674	0.02475658	-4.936739e-05	4.494995e-05
	-6.791265e-05	5.349929e-05	0.01694899	0.07013163	-4.936739e-05	4.494995e-05	-0.0605033	0.02574147
4.1e+08	-0.05781956	0.02668956	-6.505685e-05	8.266554e-05	0.02662585	0.06924718	-6.237481e-05	6.555056e-05
	-6.505685e-05	8.266554e-05	-0.05707571	0.02776524	-4.912291e-05	6.845432e-05	0.02791054	0.07116754
	0.02662585	0.06924718	-4.912291e-05	6.845432e-05	-0.05768535	0.02825972	-4.580657e-05	5.41046e-05
	-6.237481e-05	6.555056e-05	0.02791054	0.07116754	-4.580657e-05	5.41046e-05	-0.05700844	0.02920634
4.2e+08	-0.05372257	0.03000026	-5.502156e-05	9.567233e-05	0.03769186	0.06862913	-5.479775e-05	7.710077e-05
	-5.502156e-05	9.567233e-05	-0.05290246	0.03102174	-4.340879e-05	7.872092e-05	0.03899172	0.07038646
	0.03769186	0.06862913	-4.340879e-05	7.872092e-05	-0.05345675	0.03158963	-4.074918e-05	6.303532e-05
	-5.479775e-05	7.710077e-05	0.03899172	0.07038646	-4.074918e-05	6.303532e-05	-0.05269447	0.03247879
4.3e+08	-0.04877069	0.0329728	-4.276424e-05	0.0001074782	0.04861058	0.06619313	-4.519803e-05	8.780901e-05
	-4.276424e-05	0.0001074782	-0.04787833	0.03392088	-3.599924e-05	8.845162e-05	0.04988919	0.06778283
	0.04861058	0.06619313	-3.599924e-05	8.845162e-05	-0.04837303	0.03456069	-3.41743e-05	7.149263e-05
	-4.519803e-05	8.780901e-05	0.04988919	0.06778283	-3.41743e-05	7.149263e-05	-0.04752754	0.03537104
4.4e+08	-0.04296415	0.03540486	-2.840539e-05	0.0001177043	0.05908224	0.0619776	-3.364369e-05	9.732799e-05
	-2.840539e-05	0.0001177043	-0.04200781	0.03625976	-2.691628e-05	9.73511e-05	0.0603022	0.06340137
	0.05908224	0.0619776	-2.691628e-05	9.73511e-05	-0.04243776	0.03697027	-2.610286e-05	7.921278e-05
	-3.364369e-05	9.732799e-05	0.0603022	0.06340137	-2.610286e-05	7.921278e-05	-0.04151588	0.03767917
4.5e+08	-0.03634915	0.03708525	-1.212387e-05	0.0001259753	0.068817	0.05606978	-2.026699e-05	0.0001053056
	-1.212387e-05	0.0001259753	-0.03534169	0.03782739	-1.623504e-05	0.0001051173	0.06994101	0.05733583
	0.068817	0.05606978	-1.623504e-05	0.0001051173	-0.0357005	0.03860805	-1.659675e-05	8.592839e-05
	-2.026699e-05	0.0001053056	0.06994101	0.05733583	-1.659675e-05	8.592839e-05	-0.03471424	0.03919249
4.6e+08	-0.02902001	0.0378053	5.834358e-06	0.0001319302	0.07754208	0.04860322	-5.259598e-06	0.000111399
	5.834358e-06	0.0001319302	-0.02797897	0.03841623	-4.078234e-06	0.0001114506	0.07853408	0.0497262
	0.07754208	0.04860322	-4.078234e-06	0.0001114506	-0.02825867	0.03926709	-5.769966e-06	9.137233e-05
	-5.259598e-06	0.000111399	0.07853408	0.0497262	-5.769966e-06	9.137233e-05	-0.02722552	0.03970471
4.7e+08	-0.0211201	0.03737018	2.515909e-05	0.0001352338	0.08500943	0.03975457	1.11285e-05	0.0001152866
	2.515909e-05	0.0001352338	-0.0200677	0.03783367	9.369214e-06	0.0001160598	0.08583567	0.0407554
	0.08500943	0.03975457	9.369214e-06	0.0001160598	-0.02025825	0.03875319	6.215408e-06	9.528561e-05
	1.11285e-05	0.0001152866	0.08583567	0.0407554	6.215408e-06	9.528561e-05	-0.0192013	0.0390235
4.8e+08	-0.01283768	0.03560682	4.54698e-05	0.0001355872	0.09100141	0.02973969	2.857572e-05	0.000116674
	4.54698e-05	0.0001355872	-0.01180053	0.03590972	2.387293e-05	0.0001186783	0.09163151	0.03064513
