!$
! Info: Touchstone file created by Circ.  Input file=Intel_C2M_200G_6p5in_202208016_staggered.circ
!$
# Hz S RI R 50
0	0.01939044	3.520375e-24	7.033267e-05	9.903598e-23	0.0001137547	2.914383e-22	7.032553e-05	9.887492e-23
	7.033267e-05	9.903598e-23	0.01940348	3.863957e-24	7.03372e-05	9.911891e-23	0.0001133486	2.896311e-22
	0.0001138122	2.91565e-22	7.033719e-05	9.912024e-23	0.01938529	3.677144e-24	7.032797e-05	9.894903e-23
	7.032552e-05	9.887626e-23	0.0001134061	2.897576e-22	7.032797e-05	9.894903e-23	0.01940143	3.659383e-24
1e+07	0.0235941	-0.00288909	3.681965e-06	2.210332e-05	0.001666089	0.006179521	1.090248e-05	2.166045e-05
	3.681967e-06	2.210334e-05	0.02376343	-0.002909073	2.169258e-06	6.018978e-06	0.001672337	0.006239417
	0.001666089	0.006179521	2.169258e-06	6.018978e-06	0.02374567	-0.002848473	3.577278e-06	2.109202e-05
	1.090248e-05	2.166045e-05	0.001672337	0.006239417	3.577278e-06	2.109202e-05	0.02361925	-0.002880127
2e+07	0.02641052	-0.00970938	4.258647e-06	1.231668e-05	0.003905672	0.01151729	6.928075e-06	1.504842e-05
	4.258659e-06	1.231672e-05	0.02654525	-0.009810807	1.313509e-05	1.282306e-05	0.003921367	0.01163413
	0.003905682	0.01151728	1.313509e-05	1.282306e-05	0.0265512	-0.009691022	3.074912e-06	1.080471e-05
	6.928075e-06	1.504842e-05	0.003921376	0.01163412	3.074911e-06	1.080471e-05	0.02643931	-0.009700233
3e+07	0.02705119	-0.01819207	6.904924e-06	9.195092e-06	0.00724032	0.01631412	4.511876e-06	1.419633e-05
	6.904925e-06	9.195092e-06	0.02714161	-0.01834233	2.411994e-05	1.430637e-05	0.007268897	0.01648321
	0.007240297	0.01631415	2.411994e-05	1.430637e-05	0.02718049	-0.01816165	4.918867e-06	7.786451e-06
	4.511876e-06	1.419633e-05	0.007268875	0.01648324	4.918867e-06	7.786451e-06	0.02706802	-0.01817968
4e+07	0.0256675	-0.02710013	8.847299e-06	6.601365e-06	0.01157985	0.02021251	8.004263e-06	1.191293e-05
	8.847299e-06	6.601364e-06	0.02570278	-0.02728527	3.245401e-05	1.121747e-05	0.01162337	0.02042857
	0.01157985	0.02021253	3.245401e-05	1.121747e-05	0.02579519	-0.02705519	6.248888e-06	5.529564e-06
	8.004263e-06	1.191293e-05	0.01162337	0.02042859	6.248888e-06	5.529564e-06	0.02566923	-0.0270859
5e+07	0.02252158	-0.03579946	1.012824e-05	4.056294e-06	0.01669826	0.02306388	1.079912e-05	9.222075e-06
	1.012824e-05	4.056294e-06	0.02249273	-0.0360058	3.842084e-05	5.698277e-06	0.01675726	0.02332104
	0.01669826	0.02306388	3.842084e-05	5.698277e-06	0.02265165	-0.03574026	7.086692e-06	3.455517e-06
	1.079912e-05	9.222075e-06	0.01675727	0.02332105	7.086692e-06	3.455517e-06	0.02250128	-0.03578109
6e+07	0.01782721	-0.04391377	1.076724e-05	1.514111e-06	0.0223664	0.02473098	1.275583e-05	6.231787e-06
	1.076724e-05	1.514111e-06	0.01772783	-0.04412682	4.216574e-05	-1.222766e-06	0.02243967	0.02502316
	0.02236642	0.02473097	4.216574e-05	-1.222766e-06	0.01796288	-0.0438418	7.446642e-06	1.471745e-06
	1.275583e-05	6.231787e-06	0.02243969	0.02502314	7.446642e-06	1.471745e-06	0.0177793	-0.04388667
7e+07	0.01180253	-0.05113833	1.078643e-05	-9.669353e-07	0.02832754	0.02512558	1.389513e-05	3.05647e-06
	1.078643e-05	-9.669351e-07	0.01162907	-0.05134294	4.376189e-05	-8.902781e-06	0.028412	0.02544688
	0.02832754	0.02512557	4.376189e-05	-8.902781e-06	0.01194623	-0.05105658	7.342986e-06	-4.031933e-07
	1.389513e-05	3.05647e-06	0.028412	0.02544688	7.342986e-06	-4.031937e-07	0.01172313	-0.0510971
8e+07	0.004705081	-0.05723408	1.021191e-05	-3.302174e-06	0.03431405	0.02421316	1.423086e-05	-1.888445e-07
	1.021191e-05	-3.302174e-06	0.004457162	-0.05741492	4.326354e-05	-1.687707e-05	0.03440485	0.02455845
	0.03431405	0.02421316	4.326354e-05	-1.687707e-05	0.004858362	-0.05714646	6.798436e-06	-2.112992e-06
	1.423086e-05	-1.888445e-07	0.03440485	0.02455845	6.798436e-06	-2.112992e-06	0.004592183	-0.05717285
9e+07	-0.003176304	-0.06203378	9.062202e-06	-5.40929e-06	0.04005913	0.02201251	1.374976e-05	-3.416896e-06
	9.062202e-06	-5.40929e-06	-0.00349561	-0.06217585	4.065743e-05	-2.484029e-05	0.04014982	0.02237781
	0.04005914	0.02201252	4.065743e-05	-2.484029e-05	-0.003013271	-0.06194462	5.835705e-06	-3.593439e-06
	1.374976e-05	-3.416896e-06	0.04014982	0.02237782	5.835705e-06	-3.59344e-06	-0.003323527	-0.06194674
1e+08	-0.01150205	-0.06541212	7.178178e-06	-7.281656e-06	0.04530952	0.01859213	1.21533e-05	-6.736967e-06
	7.178178e-06	-7.281656e-06	-0.01188585	-0.0655013	3.514952e-05	-3.307123e-05	0.04539218	0.01897499
	0.04530952	0.01859212	3.514952e-05	-3.307123e-05	-0.01133012	-0.06532537	4.358323e-06	-4.810704e-06
	1.21533e-05	-6.736967e-06	0.04539218	0.01897499	4.358323e-06	-4.810704e-06	-0.01168323	-0.06529388
1.1e+08	-0.01998587	-0.06763527	4.801895e-06	-7.6884e-06	0.04982412	0.01404483	9.325633e-06	-8.132661e-06
	4.801895e-06	-7.6884e-06	-0.02042665	-0.06766223	2.636761e-05	-3.609917e-05	0.04988968	0.0144457
	0.04982412	0.01404483	2.636761e-05	-3.609917e-05	-0.01977043	-0.06760554	2.651482e-06	-4.954009e-06
	9.325633e-06	-8.132661e-06	0.04988967	0.0144457	2.651482e-06	-4.954009e-06	-0.02016621	-0.06752819
1.2e+08	-0.0285983	-0.06851891	2.976915e-06	-7.613276e-06	0.05335741	0.008584051	7.152534e-06	-8.693927e-06
	2.976915e-06	-7.613275e-06	-0.02908826	-0.06847379	2.071169e-05	-3.608599e-05	0.0533973	0.009005177
	0.05335741	0.008584049	2.071169e-05	-3.608599e-05	-0.02840353	-0.06852832	1.359656e-06	-4.79537e-06
	7.152534e-06	-8.693927e-06	0.0533973	0.009005175	1.359656e-06	-4.79537e-06	-0.02883439	-0.06839448
1.3e+08	-0.03702718	-0.06808687	1.429692e-06	-7.373546e-06	0.05575851	0.002408902	5.301203e-06	-8.820348e-06
	1.429692e-06	-7.373546e-06	-0.0375561	-0.06796145	1.846794e-05	-3.396185e-05	0.05576423	0.002854582
	0.05575851	0.002408901	1.846794e-05	-3.396185e-05	-0.03686572	-0.06810874	2.739904e-07	-4.567385e-06
	5.301203e-06	-8.820348e-06	0.05576423	0.00285458	2.739904e-07	-4.567385e-06	-0.03732275	-0.06791067
1.4e+08	-0.04504085	-0.06643887	1.859021e-07	-6.856259e-06	0.05690777	-0.004252861	3.720798e-06	-8.653292e-06
	1.859022e-07	-6.856259e-06	-0.04559714	-0.06622713	1.623502e-05	-3.199138e-05	0.05687152	-0.003776186
	0.05690776	-0.004252862	1.623502e-05	-3.199138e-05	-0.0449078	-0.06646174	-6.298992e-07	-4.152683e-06
	3.720798e-06	-8.653292e-06	0.05687152	-0.003776187	-6.298991e-07	-4.152683e-06	-0.04538098	-0.06619401
1.5e+08	-0.05244789	-0.06371046	-1.900439e-07	-5.964446e-06	0.05672724	-0.01115467	2.36717e-06	-8.314395e-06
	-1.900438e-07	-5.964446e-06	-0.05301922	-0.06340878	1.40886e-05	-3.009153e-05	0.0566424	-0.0106386
	0.05672724	-0.01115467	1.40886e-05	-3.009153e-05	-0.05233871	-0.06373355	-1.351985e-06	-3.599177e-06
	2.36717e-06	-8.314395e-06	0.0566424	-0.0106386	-1.351985e-06	-3.599177e-06	-0.05281738	-0.06339301
1.6e+08	-0.0590956	-0.06006375	-4.818246e-07	-5.093383e-06	0.05518485	-0.01803967	1.425962e-06	-7.794665e-06
	-4.818246e-07	-5.093383e-06	-0.05966938	-0.05967093	1.207778e-05	-2.820213e-05	0.0550464	-0.017474
	0.05518484	-0.01803967	1.207778e-05	-2.820213e-05	-0.05901017	-0.06009082	-1.491934e-06	-2.867182e-06
	1.425962e-06	-7.794665e-06	0.0550464	-0.017474	-1.491934e-06	-2.867182e-06	-0.05948342	-0.05967661
1.7e+08	-0.06487091	-0.05567989	-7.027006e-07	-4.265043e-06	0.05229556	-0.02464923	1.127913e-06	-7.115668e-06
	-7.027005e-07	-4.265043e-06	-0.06543478	-0.05519713	1.024622e-05	-2.628212e-05	0.05210052	-0.02402235
	0.05229556	-0.02464923	1.024622e-05	-2.628212e-05	-0.06481374	-0.05571457	-1.572051e-06	-2.179914e-06
	1.127913e-06	-7.115668e-06	0.05210052	-0.02402234	-1.57205e-06	-2.179914e-06	-0.06527091	-0.05522805
1.8e+08	-0.06970201	-0.05075057	-8.241429e-07	-3.450628e-06	0.04812097	-0.03073125	8.775992e-07	-6.463287e-06
	-8.241428e-07	-3.450628e-06	-0.07024433	-0.05018131	8.623722e-06	-2.433317e-05	0.04786871	-0.03003046
	0.04812097	-0.03073125	8.623722e-06	-2.433317e-05	-0.0696807	-0.05079419	-1.567993e-06	-1.508103e-06
	8.775992e-07	-6.463287e-06	0.04786871	-0.03003046	-1.567993e-06	-1.508103e-06	-0.07011185	-0.05023879
1.9e+08	-0.07355807	-0.04547038	-8.424963e-07	-2.661896e-06	0.04276778	-0.03604822	6.792159e-07	-5.83639e-06
	-8.424963e-07	-2.661896e-06	-0.07406832	-0.04482005	7.229661e-06	-2.236748e-05	0.04246028	-0.03526025
	0.04276778	-0.03604822	7.229661e-06	-2.236748e-05	-0.07358176	-0.04552084	-1.475757e-06	-8.625865e-07
	6.792159e-07	-5.83639e-06	0.04246028	-0.03526025	-1.475757e-06	-8.625865e-07	-0.07397802	-0.04490185
2e+08	-0.07644829	-0.04002792	-7.567343e-07	-1.912606e-06	0.03638413	-0.04038468	5.357332e-07	-5.236281e-06
	-7.567343e-07	-1.912606e-06	-0.07691758	-0.03930328	6.073281e-06	-2.040193e-05	0.03602618	-0.03949614
	0.03638413	-0.04038468	6.073281e-06	-2.040193e-05	-0.07652574	-0.0400799	-1.297158e-06	-2.554497e-07
	5.357332e-07	-5.236281e-06	0.03602618	-0.03949614	-1.297158e-06	-2.554497e-07	-0.07687961	-0.03940445
2.1e+08	-0.07841798	-0.03459778	-5.712953e-07	-1.217291e-06	0.02915556	-0.04355393	4.472498e-07	-4.665949e-06
	-5.712953e-07	-1.217291e-06	-0.07883892	-0.03380726	5.157047e-06	-1.846216e-05	0.02875484	-0.04255194
	0.02915556	-0.04355393	5.157047e-06	-1.846216e-05	-0.078557	-0.03464335	-1.03586e-06	2.998758e-07
	4.472498e-07	-4.665949e-06	0.02875484	-0.04255194	-1.03586e-06	2.998758e-07	-0.07886295	-0.03391932
2.2e+08	-0.0795452	-0.02933429	-2.93785e-07	-5.899865e-07	0.02129955	-0.04540415	4.124465e-07	-4.129169e-06
	-2.93785e-07	-5.899865e-07	-0.07991235	-0.02848724	4.477949e-06	-1.657252e-05	0.02086658	-0.0442769
	0.02129954	-0.04540415	4.477949e-06	-1.657252e-05	-0.07975129	-0.02936326	-6.990749e-07	7.910499e-07
	4.124465e-07	-4.129169e-06	0.02086658	-0.0442769	-6.990749e-07	7.910499e-07	-0.08000569	-0.02859912
2.3e+08	-0.07993391	-0.0243653	6.520615e-08	-4.348002e-08	0.01305913	-0.04582398	4.287422e-07	-3.630073e-06
	6.520615e-08	-4.348002e-08	-0.08024391	-0.02347153	4.027985e-06	-1.47578e-05	0.01260722	-0.04456131
	0.01305913	-0.04582398	4.027985e-06	-1.47578e-05	-0.08021035	-0.02436649	-2.96588e-07	1.206938e-06
	4.287423e-07	-3.630073e-06	0.01260722	-0.04456131	-2.96588e-07	1.206938e-06	-0.08041152	-0.02357085
2.4e+08	-0.07970753	-0.01978781	4.92611e-07	4.112503e-07	0.004696184	-0.04474624	4.925275e-07	-3.17288e-06
	4.92611e-07	4.112503e-07	-0.0799591	-0.01885712	3.794763e-06	-1.304218e-05	0.00424111	-0.04334027
	0.004696183	-0.04474624	3.794763e-06	-1.304218e-05	-0.08005541	-0.01974886	1.596462e-07	1.538071e-06
	4.925275e-07	-3.17288e-06	0.00424111	-0.04334027	1.596462e-07	1.538071e-06	-0.08020351	-0.01892993
2.5e+08	-0.07900143	-0.01566474	9.733605e-07	7.654978e-07	-0.003516911	-0.04215122	5.992328e-07	-2.761671e-06
	9.733605e-07	7.654978e-07	-0.07919522	-0.01470645	3.761843e-06	-1.144864e-05	-0.003957229	-0.04059692
	-0.003516911	-0.04215122	3.761843e-06	-1.144864e-05	-0.07941926	-0.01557358	6.559393e-07	1.777045e-06
	5.992328e-07	-2.761671e-06	-0.003957229	-0.04059692	6.559393e-07	1.777045e-06	-0.07951607	-0.01473876
2.6e+08	-0.07795471	-0.01202432	1.490966e-06	1.013179e-06	-0.01130566	-0.03806885	7.434709e-07	-2.400221e-06
	1.490966e-06	1.013179e-06	-0.07809315	-0.01104678	3.909241e-06	-9.998175e-06	-0.01171173	-0.03636455
	-0.01130566	-0.03806885	3.909241e-06	-9.998175e-06	-0.07843903	-0.01186875	1.177332e-06	1.918842e-06
	7.434709e-07	-2.400221e-06	-0.01171173	-0.03636455	1.177332e-06	1.918842e-06	-0.07848763	-0.01102421
2.7e+08	-0.07670234	-0.008860203	2.028048e-06	1.150958e-06	-0.01840199	-0.0325781	9.190945e-07	-2.091853e-06
	2.028048e-06	1.150958e-06	-0.07678919	-0.007870469	4.213724e-06	-8.709199e-06	-0.01875334	-0.03072593
	-0.01840199	-0.0325781	4.213724e-06	-8.709199e-06	-0.0772475	-0.008628673	1.708081e-06	1.960958e-06
	9.190945e-07	-2.091853e-06	-0.01875334	-0.03072593	1.708081e-06	1.960958e-06	-0.07725183	-0.007779124
2.8e+08	-0.07536669	-0.00613344	2.566905e-06	1.17839e-06	-0.02455369	-0.02580632	1.119268e-06	-1.839318e-06
	2.566905e-06	1.17839e-06	-0.0754067	-0.005136968	4.649291e-06	-7.597168e-06	-0.02482963	-0.0238125
	-0.02455369	-0.02580632	4.649291e-06	-7.597168e-06	-0.07596503	-0.005815663	2.232159e-06	1.903516e-06
	1.119268e-06	-1.839318e-06	-0.02482963	-0.0238125	2.232159e-06	1.903516e-06	-0.07592939	-0.004964143
2.9e+08	-0.07405072	-0.00377742	3.090033e-06	1.09787e-06	-0.02953311	-0.01792599	1.336544e-06	-1.644626e-06
	3.090033e-06	1.09787e-06	-0.07404905	-0.002777913	5.187625e-06	-6.673961e-06	-0.02971356	-0.01580101
	-0.02953311	-0.01792599	5.187625e-06	-6.673961e-06	-0.07469302	-0.003363834	2.733723e-06	1.74926e-06
	1.336544e-06	-1.644626e-06	-0.02971356	-0.01580101	2.733723e-06	1.74926e-06	-0.07462153	-0.002511776
3e+08	-0.07283148	-0.001703083	3.58059e-06	9.144768e-07	-0.03314488	-0.009149715	1.562937e-06	-1.508927e-06
	3.58059e-06	9.144768e-07	-0.07279319	-0.0007025253	5.798636e-06	-5.947497e-06	-0.03321135	-0.006908254
	-0.03314488	-0.009149715	5.798636e-06	-5.947497e-06	-0.07350711	-0.001185689	3.197547e-06	1.503433e-06
	1.562937e-06	-1.508927e-06	-0.03321135	-0.006908254	3.197547e-06	1.503433e-06	-0.07340322	-0.0003330328
3.1e+08	-0.07175562	0.0001936459	4.022863e-06	6.358341e-07	-0.03523398	0.0002759455	1.79005e-06	-1.43234e-06
	4.022863e-06	6.358341e-07	-0.07168514	0.001194835	6.451086e-06	-5.421421e-06	-0.03517032	0.002615223
	-0.03523398	0.0002759455	6.451086e-06	-5.421421e-06	-0.07245264	0.0008218465	3.60946e-06	1.173652e-06
	1.79005e-06	-1.43234e-06	-0.03517032	0.002615223	3.60946e-06	1.173652e-06	-0.07231856	0.001676321
3.2e+08	-0.07083628	0.002024248	4.402574e-06	2.718124e-07	-0.03569119	0.01007836	2.009202e-06	-1.41382e-06
	4.402574e-06	2.718124e-07	-0.07073692	0.003026949	7.113232e-06	-5.094741e-06	-0.03548455	0.01249326
	-0.03569119	0.01007836	7.113232e-06	-5.094741e-06	-0.07154113	0.002767814	3.956695e-06	7.69676e-07
	2.009202e-06	-1.41382e-06	-0.03548455	0.01249326	3.956695e-06	7.69676e-07	-0.07137757	0.003626048
3.3e+08	-0.07005222	0.003898128	4.707188e-06	-1.657465e-07	-0.03445711	0.01996756	2.211624e-06	-1.451034e-06
	4.707188e-06	-1.657465e-07	-0.06992581	0.004904005	7.753592e-06	-4.961852e-06	-0.0340987	0.02243294
	-0.03445711	0.01996756	7.753592e-06	-4.961852e-06	-0.07075045	0.004760163	4.228164e-06	3.031245e-07
	2.211624e-06	-1.451034e-06	-0.0340987	0.02243294	4.228164e-06	3.031245e-07	-0.07055631	0.005624245
3.4e+08	-0.0693487	0.005914067	4.926189e-06	-6.63299e-07	-0.03152546	0.02964618	2.388705e-06	-1.54024e-06
	4.926189e-06	-6.63299e-07	-0.06919535	0.006925021	8.341727e-06	-5.0123e-06	-0.03101115	0.0321348
	-0.03152546	0.02964618	8.341727e-06	-5.0123e-06	-0.07002532	0.006895098	4.41478e-06	-2.128089e-07
	2.388705e-06	-1.54024e-06	-0.03101115	0.0321348	4.41478e-06	-2.128089e-07	-0.06979767	0.00776661
3.5e+08	-0.06864144	0.00815168	5.051215e-06	-1.205958e-06	-0.02694271	0.03881882	2.532248e-06	-1.676265e-06
	5.051215e-06	-1.205958e-06	-0.06845955	0.009169235	8.849037e-06	-5.231091e-06	-0.02627347	0.04130219
	-0.02694271	0.03881882	8.849037e-06	-5.231091e-06	-0.06928086	0.009250474	4.509599e-06	-7.636779e-07
	2.532248e-06	-1.676265e-06	-0.02627347	0.04130219	4.509599e-06	-7.636779e-07	-0.06901503	0.01012988
3.6e+08	-0.0678217	0.01066431	5.076253e-06	-1.777758e-06	-0.02080742	0.04720198	2.634792e-06	-1.852494e-06
	5.076253e-06	-1.777758e-06	-0.06760804	0.011689	9.249544e-06	-5.598881e-06	-0.01998961	0.04965146
	-0.02080742	0.04720198	9.249544e-06	-5.598881e-06	-0.06840827	0.01187661	4.508041e-06	-1.334125e-06
	2.634792e-06	-1.852494e-06	-0.01998961	0.04965146	4.508041e-06	-1.334125e-06	-0.06809821	0.01276263
3.7e+08	-0.0667638	0.01347239	4.997729e-06	-2.362031e-06	-0.01326644	0.05453355	2.689907e-06	-2.060977e-06
	4.997729e-06	-2.362031e-06	-0.06651385	0.01450316	9.52062e-06	-6.092439e-06	-0.01231188	0.0569213
	-0.01326644	0.05453355	9.52062e-06	-6.092439e-06	-0.06728229	0.01479146	4.407951e-06	-1.908268e-06
	2.689907e-06	-2.060977e-06	-0.01231188	0.0569213	4.407951e-06	-1.908268e-06	-0.06692097	0.01568057
3.8e+08	-0.0653332	0.01656022	4.814597e-06	-2.941689e-06	-0.004510107	0.06058011	2.692494e-06	-2.292584e-06
	4.814597e-06	-2.941689e-06	-0.06504169	0.01759397	9.643612e-06	-6.685191e-06	-0.003435807	0.06288022
	-0.004510107	0.06058011	9.643612e-06	-6.685191e-06	-0.06576892	0.01797699	4.209665e-06	-2.470025e-06
	2.692494e-06	-2.292584e-06	-0.003435807	0.06288022	4.209665e-06	-2.470025e-06	-0.06534907	0.01886298
3.9e+08	-0.06339522	0.01987298	4.52845e-06	-3.499563e-06	0.00523324	0.06514478	2.639072e-06	-2.537229e-06
	4.52845e-06	-3.499563e-06	-0.06305668	0.02090425	9.604394e-06	-7.347842e-06	0.00640531	0.06733418
	0.00523324	0.06514478	9.604394e-06	-7.347842e-06	-0.06373544	0.02137534	3.916073e-06	-3.003503e-06
	2.639072e-06	-2.537229e-06	0.00640531	0.06733418	3.916073e-06	-3.003503e-06	-0.06325023	0.02224914
4e+08	-0.06082607	0.02331757	4.143504e-06	-4.018802e-06	0.01570545	0.06807221	2.527979e-06	-2.784215e-06
	4.143504e-06	-4.018802e-06	-0.06043554	0.02433835	9.393804e-06	-8.049237e-06	0.01694899	0.07013163
	0.01570545	0.06807221	9.393804e-06	-8.049237e-06	-0.06105949	0.02489186	3.532531e-06	-3.493404e-06
	2.527979e-06	-2.784215e-06	0.01694899	0.07013163	3.532531e-06	-3.493404e-06	-0.0605033	0.02574147
4.1e+08	-0.05752185	0.02676545	3.666633e-06	-4.48325e-06	0.02662548	0.06925284	2.359541e-06	-3.022597e-06
	3.666633e-06	-4.48325e-06	-0.05707571	0.02776524	9.007944e-06	-8.757202e-06	0.02791054	0.07116754
	0.02662548	0.06925284	9.007944e-06	-8.757202e-06	-0.05763915	0.02839566	3.066813e-06	-3.925387e-06
	2.359541e-06	-3.022597e-06	0.02791054	0.07116754	3.066813e-06	-3.925387e-06	-0.05700844	0.02920634
4.2e+08	-0.05340583	0.03005573	3.107313e-06	-4.877873e-06	0.03769788	0.06862603	2.13611e-06	-3.241551e-06
	3.107313e-06	-4.877873e-06	-0.05290246	0.03102174	8.448241e-06	-9.439245e-06	0.03899172	0.07038646
	0.03769788	0.06862603	8.448241e-06	-9.439245e-06	-0.05340044	0.03172418	2.528964e-06	-4.286463e-06
	2.13611e-06	-3.241551e-06	0.03899172	0.07038646	2.528964e-06	-4.286463e-06	-0.05269447	0.03247879
4.3e+08	-0.04843786	0.03300336	2.477446e-06	-5.189196e-06	0.04862126	0.06618054	1.86204e-06	-3.430854e-06
	2.477446e-06	-5.189196e-06	-0.04787833	0.03392088	7.721495e-06	-1.006369e-05	0.04988919	0.06778283
	0.04862126	0.06618054	7.721495e-06	-1.006369e-05	-0.04830595	0.03469153	1.931046e-06	-4.565382e-06
	1.86204e-06	-3.430854e-06	0.04988919	0.06778283	1.931046e-06	-4.565382e-06	-0.04752754	0.03537104
4.4e+08	-0.04261915	0.03540668	1.791196e-06	-5.405742e-06	0.05909575	0.06195512	1.543551e-06	-3.581247e-06
	1.791196e-06	-5.405742e-06	-0.04200781	0.03625976	6.839673e-06	-1.060038e-05	0.0603022	0.06340137
	0.05909575	0.06195512	6.839673e-06	-1.060038e-05	-0.0423598	0.03709492	1.286922e-06	-4.752943e-06
	1.543551e-06	-3.581247e-06	0.0603022	0.06340137	1.286922e-06	-4.752943e-06	-0.04151588	0.03767917
4.5e+08	-0.03599674	0.03705538	1.064642e-06	-5.518462e-06	0.06883152	0.05603739	1.188498e-06	-3.684816e-06
	1.064642e-06	-5.518462e-06	-0.03534169	0.03782739	5.819592e-06	-1.10215e-05	0.06994101	0.05733583
	0.06883152	0.05603739	5.819592e-06	-1.10215e-05	-0.0356121	0.03872405	6.118531e-07	-4.842345e-06
	1.188498e-06	-3.684816e-06	0.06994101	0.05733583	6.118531e-07	-4.842345e-06	-0.03471424	0.03919249
4.6e+08	-0.02866557	0.03774177	3.153602e-07	-5.521111e-06	0.07755587	0.04856118	8.060529e-07	-3.735327e-06
	3.153602e-07	-5.521111e-06	-0.02797897	0.03841623	4.68248e-06	-1.130243e-05	0.07853408	0.0497262
	0.07755587	0.04856118	4.68248e-06	-1.130243e-05	-0.02816086	0.03937203	-7.789704e-08	-4.829404e-06
	8.060529e-07	-3.735327e-06	0.07853408	0.0497262	-7.789703e-08	-4.829404e-06	-0.02722552	0.03970471
4.7e+08	-0.02076945	0.03727218	-4.3809e-07	-5.410595e-06	0.08502085	0.0397035	4.063332e-07	-3.728457e-06
	-4.3809e-07	-5.410595e-06	-0.0200677	0.03783367	3.453432e-06	-1.142245e-05	0.08583567	0.0407554
	0.08502085	0.0397035	3.453432e-06	-1.142245e-05	-0.0201526	0.03884493	-7.655493e-07	-4.71275e-06
	4.063332e-07	-3.728457e-06	0.08583567	0.0407554	-7.655493e-07	-4.71275e-06	-0.0192013	0.0390235
4.8e+08	-0.01249679	0.0354747	-1.176764e-06	-5.187087e-06	0.09100898	0.02968046	-4.477699e-11	-3.661908e-06
	-1.176764e-06	-5.187087e-06	-0.01180053	0.03590972	2.160651e-06	-1.136519e-05	0.09163151	0.03064513
