!$
! Info: Touchstone file created by Circ.  Input file=Intel_C2M_200G_13p5in_202208016_staggered.circ
!$
# Hz S RI R 50
0	0.03994761	6.308733e-24	0.9598566	-1.070235e-23	0.000162335	3.746082e-22	-0.0002904874	3.557445e-20
	0.9598566	-1.069797e-23	0.04049361	1.111978e-23	-0.0002905433	3.55813e-20	0.0003807251	1.60611e-21
	0.0001623901	3.74729e-22	-0.000290676	3.559754e-20	0.03994565	5.961949e-24	0.9598568	-1.096685e-23
	-0.0002906201	3.55907e-20	0.0003807873	1.607251e-21	0.9598568	-1.097123e-23	0.04049504	1.141649e-23
1e+07	0.04950769	0.01204485	0.9362544	-0.1745465	0.00367165	0.008978688	-0.002124958	-0.0007664865
	0.9362544	-0.1745465	0.05031952	0.011521	-0.002125584	-0.0007657086	0.003359525	0.009101309
	0.00367165	0.008978688	-0.002125584	-0.0007657086	0.04907907	0.01178062	0.9367014	-0.17426
	-0.002124958	-0.0007664865	0.003359525	0.009101309	0.9367014	-0.17426	0.04986984	0.01127379
2e+07	0.06068703	0.01480312	0.8832575	-0.3346695	0.008675346	0.01558608	-0.002713819	-0.0003231673
	0.8832575	-0.3346695	0.06367876	0.01281577	-0.002714119	-0.0003199884	0.007491123	0.0162586
	0.008675351	0.01558607	-0.002714138	-0.0003200944	0.05999808	0.01460731	0.8840047	-0.3344599
	-0.002713836	-0.0003232673	0.007491215	0.01625849	0.8840047	-0.3344599	0.06293835	0.01270508
3e+07	0.06956877	0.01218292	0.8065276	-0.4797575	0.01572943	0.02002475	-0.003076965	0.0003237559
	0.8065276	-0.4797575	0.0748765	0.007164701	-0.00307488	0.0003294467	0.01344886	0.02169568
	0.01572942	0.02002479	-0.00307492	0.0003294609	0.06873037	0.01216822	0.807458	-0.479755
	-0.003076979	0.0003237558	0.01344884	0.02169565	0.807458	-0.479755	0.07400339	0.007315177
4e+07	0.076148	0.006860998	0.7078948	-0.6081501	0.02390561	0.02153367	-0.003122775	0.001098725
	0.7078948	-0.6081501	0.08373157	-0.002556561	-0.003116267	0.001105297	0.0204718	0.02498151
	0.02390562	0.02153369	-0.00311627	0.001105303	0.0752538	0.007055609	0.7089102	-0.6084109
	-0.003122772	0.001098739	0.0204718	0.02498151	0.7089102	-0.6084109	0.0828515	-0.00211084
5e+07	0.08050754	1.600651e-05	0.5902123	-0.7170179	0.03210448	0.01994769	-0.002835234	0.001844926
	0.5902123	-0.7170179	0.08954172	-0.01524757	-0.002823627	0.00184952	0.02782052	0.02591372
	0.03210448	0.01994769	-0.002823625	0.001849519	0.07963202	0.0004187689	0.59122	-0.7175649
	-0.002835231	0.001844925	0.02782053	0.02591373	0.59122	-0.7175649	0.08876654	-0.01452355
6e+07	0.08274339	-0.007574809	0.4569116	-0.8038076	0.03924197	0.01544404	-0.002271898	0.002409782
	0.4569116	-0.8038076	0.09174513	-0.0297275	-0.002256241	0.002409433	0.03471631	0.02457201
	0.03924196	0.01544403	-0.002256239	0.00240943	0.08194715	-0.006985233	0.4578228	-0.8046373
	-0.002271895	0.00240978	0.03471631	0.02457201	0.4578228	-0.8046373	0.09116343	-0.02877811
7e+07	0.08304933	-0.01531123	0.3118277	-0.8664765	0.0443534	0.008560251	-0.001553937	0.002688483
	0.3118277	-0.8664765	0.09010069	-0.04478462	-0.001536858	0.002680891	0.04046031	0.02128488
	0.0443534	0.008560249	-0.001536852	0.002680824	0.08237813	-0.01457019	0.3125588	-0.8675628
	-0.001553936	0.00268848	0.04046032	0.02128488	0.3125588	-0.8675628	0.08977143	-0.04368637
8e+07	0.0816983	-0.02277204	0.1590787	-0.903588	0.0467107	0.0001314378	-0.0008341128	0.002645845
	0.1590787	-0.903588	0.08469043	-0.05924023	-0.0008193376	0.002630301	0.04450598	0.01658725
	0.0467107	0.0001314392	-0.0008193366	0.002630304	0.08118338	-0.02192304	0.1595547	-0.9048871
	-0.0008341124	0.002645848	0.04450598	0.01658726	0.1595547	-0.9048871	0.0846415	-0.05808114
9e+07	0.07897892	-0.02969672	0.002946046	-0.9143613	0.04590723	-0.008805179	-0.0002621696	0.002320958
	0.002946046	-0.9143613	0.07591336	-0.07201578	-0.0002536448	0.002298741	0.04651806	0.0111597
	0.04590724	-0.008805183	-0.0002536371	0.002298747	0.07863906	-0.02878594	0.003097252	-0.9158077
	-0.0002621632	0.002320966	0.04651806	0.0111597	0.003097252	-0.9158077	0.07614358	-0.07088425
1e+08	0.07520406	-0.03594669	-0.1523381	-0.8986652	0.04190249	-0.01713071	4.847069e-05	0.001818803
	-0.1523381	-0.8986652	0.06450434	-0.08223149	4.714081e-05	0.001793503	0.0464066	0.005746067
	0.04190249	-0.01713071	4.714017e-05	0.001793502	0.07506365	-0.03501867	-0.152595	-0.9001714
	4.847006e-05	0.001818803	0.0464066	0.005746067	-0.152595	-0.9001714	0.06500064	-0.08121783
1.1e+08	0.07029144	-0.041685	-0.3019714	-0.8565938	0.03502507	-0.02372935	4.513456e-05	0.001266758
	-0.3019714	-0.8565938	0.05109134	-0.08940227	3.552483e-05	0.001242787	0.0443197	0.001108215
	0.03502506	-0.02372935	3.552372e-05	0.001242786	0.0702738	-0.04089757	-0.3026021	-0.8579573
	4.513343e-05	0.001266757	0.0443197	0.001108215	-0.3026021	-0.8579573	0.05172991	-0.08859861
1.2e+08	0.06434606	-0.04640246	-0.4415675	-0.790206	0.02605738	-0.02767204	-0.0002853668	0.0008323377
	-0.4415675	-0.790206	0.03677131	-0.09273408	-0.0003022374	0.0008130874	0.040711	-0.002124174
	0.02605738	-0.02767203	-0.0003022388	0.0008130868	0.06438257	-0.04570373	-0.4424858	-0.7913689
	-0.0002853682	0.0008323371	0.040711	-0.002124174	-0.4424858	-0.7913689	0.03745505	-0.09211891
1.3e+08	0.05762697	-0.05000984	-0.5674181	-0.7015552	0.01598264	-0.02836825	-0.0008513984	0.0006677629
	-0.5674181	-0.7015552	0.02283952	-0.092242	-0.0008728541	0.00065533	0.03618202	-0.003518891
	0.01598264	-0.02836825	-0.0008728554	0.0006553298	0.05769734	-0.04938504	-0.5685593	-0.7024746
	-0.0008513997	0.0006677627	0.03618202	-0.00351889	-0.5685593	-0.7024746	0.02350805	-0.09177968
1.4e+08	0.05030208	-0.0523994	-0.676069	-0.5932994	0.005945333	-0.02557214	-0.001505737	0.0008661902
	-0.676069	-0.5932994	0.01043649	-0.0882976	-0.001528562	0.0008609864	0.03144562	-0.002870819
	0.005945334	-0.02557214	-0.001528563	0.0008609866	0.05038056	-0.05184327	-0.6773672	-0.5939442
	-0.001505738	0.0008661904	0.03144562	-0.002870818	-0.6773672	-0.5939442	0.01105428	-0.08794109
1.5e+08	0.04254745	-0.05344333	-0.7645265	-0.4686407	-0.002875019	-0.01942798	-0.002073469	0.001447138
	-0.7645265	-0.4686407	0.0005076556	-0.08159249	-0.002095576	0.001448139	0.02724043	-0.0002311198
	-0.002875019	-0.01942797	-0.002095577	0.00144814	0.0426063	-0.05294094	-0.7659182	-0.4689948
	-0.00207347	0.001447138	0.02724043	-0.0002311194	-0.7659182	-0.4689948	0.00106258	-0.08129318
1.6e+08	0.03458008	-0.05300459	-0.8303612	-0.3312515	-0.009395137	-0.0104671	-0.002386469	0.002352412
	-0.8303612	-0.3312515	-0.006275701	-0.07306393	-0.0024067	0.002358386	0.02424136	0.004100101
	-0.009395136	-0.0104671	-0.002406701	0.002358386	0.03459885	-0.05252954	-0.8317853	-0.3313086
	-0.002386469	0.002352413	0.02424136	0.004100101	-0.8317853	-0.3313086	-0.005776491	-0.07277898
1.7e+08	0.02667879	-0.05095907	-0.8717995	-0.1851747	-0.01275231	0.0004398559	-0.002315606	0.003457012
	-0.8717995	-0.1851747	-0.009574638	-0.06379762	-0.002333389	0.003467105	0.02297755	0.009610311
	-0.01275231	0.0004398565	-0.002333389	0.003467105	0.0266505	-0.0504789	-0.873196	-0.1849398
	-0.002315606	0.003457013	0.02297755	0.009610311	-0.873196	-0.1849398	-0.009109643	-0.06349577
1.8e+08	0.01919248	-0.04722767	-0.8877873	-0.03470528	-0.01240798	0.01217028	-0.001794801	0.004592771
	-0.8877873	-0.03470528	-0.009409097	-0.05491604	-0.001809819	0.004606391	0.02376969	0.01563921
	-0.01240798	0.01217028	-0.00180982	0.004606392	0.01912597	-0.04671039	-0.889099	-0.03419394
	-0.001794801	0.004592772	0.02376969	0.01563921	-0.889099	-0.03419394	-0.008948718	-0.05458018
1.9e+08	0.01253548	-0.04181085	-0.878032	0.1157418	-0.00821779	0.02346778	-0.0008321165	0.0055788
	-0.878032	0.1157418	-0.006146973	-0.0474633	-0.0008439	0.005595627	0.02669333	0.0214605
	-0.00821779	0.02346778	-0.0008439001	0.005595627	0.01245298	-0.04123222	-0.879209	0.116503
	-0.0008321166	0.005578801	0.02669333	0.0214605	-0.879209	0.116503	-0.00565942	-0.04709167
2e+08	0.007166484	-0.03482478	-0.8430189	0.2617781	-0.0004584022	0.03307893	0.0004925698	0.006253666
	-0.8430189	0.2617781	-0.0004567302	-0.04230048	0.0004846344	0.006273408	0.03157317	0.02636964
	-0.0004584018	0.03307893	0.0004846344	0.006273408	0.007098239	-0.03417262	-0.8440145	0.2627559
	0.0004925698	0.006253666	0.03157317	0.02636964	-0.8440145	0.2627559	8.500576e-05	-0.04190462
2.1e+08	0.003550176	-0.02652977	-0.7839931	0.3991877	0.01019209	0.03989231	0.002043396	0.006502812
	-0.7839931	0.3991877	0.006768407	-0.04002239	0.002040489	0.006524711	0.0380096	0.0297682
	0.01019209	0.03989231	0.002040489	0.006524711	0.003529697	-0.02580606	-0.7847703	0.4003393
	0.002043396	0.006502812	0.0380096	0.0297682	-0.7847703	0.4003393	0.007383647	-0.03962442
2.2e+08	0.002107456	-0.01734377	-0.7029059	0.5240643	0.02271949	0.0430644	0.00365439	0.006275288
	-0.7029059	0.5240643	0.01451197	-0.04090513	0.003657367	0.006298164	0.04543009	0.0312313
	0.02271949	0.0430644	0.003657367	0.006298165	0.002164932	-0.0165646	-0.7034373	0.5253416
	0.00365439	0.006275288	0.04543009	0.0312313	-0.7034373	0.5253416	0.01520787	-0.04053267
2.3e+08	0.003156465	-0.007837899	-0.6023404	0.6329323	0.03587732	0.04211751	0.005158028	0.005589313
	-0.6023404	0.6329323	0.02174184	-0.0448891	0.005167675	0.005611237	0.05316069	0.0305523
	0.03587732	0.04211751	0.005167674	0.005611237	0.003314256	-0.007030378	-0.6026078	0.6342845
	0.005158028	0.005589313	0.05316069	0.0305523	-0.6026078	0.6342845	0.02251347	-0.04457045
2.4e+08	0.00685436	0.0012909	-0.4854087	0.7228541	0.04831713	0.03699746	0.006414246	0.004523278
	-0.4854087	0.7228541	0.02751718	-0.05159864	0.006430268	0.004542133	0.06050643	0.02776068
	0.04831713	0.03699746	0.006430268	0.004542133	0.007123684	0.002091486	-0.4854066	0.7242275
	0.006414246	0.004523278	0.06050643	0.02776068	-0.4854066	0.7242275	0.02834848	-0.05135792
2.5e+08	0.01314734	0.009269341	-0.3556382	0.7914965	0.05873081	0.02808572	0.007330276	0.00319786
	-0.3556382	0.7914965	0.03108063	-0.0603936	0.007351511	0.00321139	0.06682989	0.0231105
	0.05873081	0.02808572	0.007351511	0.00321139	0.01352601	0.01002493	-0.3553685	0.7928376
	0.007330276	0.003197861	0.06682989	0.0231105	-0.3553685	0.7928376	0.03194684	-0.06024662
2.6e+08	0.02173751	0.0153174	-0.2168442	0.8371797	0.06598855	0.01616486	0.00787196	0.001751078
	-0.2168442	0.8371797	0.03192542	-0.07044516	0.007896375	0.001757312	0.07162044	0.01704515
	0.06598855	0.01616486	0.007896375	0.001757312	0.02220981	0.01599102	-0.2163225	0.8384376
	0.00787196	0.001751078	0.07162044	0.01704515	-0.2163225	0.8384376	0.03279738	-0.07039723
2.7e+08	0.03207401	0.01873017	-0.07301388	0.8588956	0.0692566	0.002341226	0.008062668	0.0003114594
	-0.07301388	0.8588956	0.02983605	-0.08082726	0.008087392	0.000309838	0.07454638	0.01014299
	0.0692566	0.002341226	0.008087392	0.0003098381	0.03261169	0.01929095	-0.07226315	0.8600259
	0.008062668	0.0003114594	0.07454638	0.01014299	-0.07226315	0.8600259	0.03068444	-0.08087201
2.8e+08	0.04337257	0.01896443	0.0718088	0.8563077	0.06808479	-0.0120644	0.007971397	-0.001024046
	0.0718088	0.8563077	0.02489621	-0.0906121	0.007993429	-0.001033268	0.07548565	0.003049828
	0.06808479	-0.0120644	0.007993429	-0.001033268	0.04393749	0.01939167	0.07275829	0.8572713
	0.007971397	-0.001024046	0.07548565	0.003049828	0.07275829	0.8572713	0.02569606	-0.09073206
2.9e+08	0.05466679	0.01571959	0.2136274	0.8297303	0.06245407	-0.02564689	0.007692893	-0.002206033
	0.2136274	0.8297303	0.01746799	-0.0989604	0.007709745	-0.002220878	0.07453315	-0.003592104
	0.06245407	-0.02564689	0.007709745	-0.002220878	0.05521432	0.01600495	0.2147392	0.8304952
	0.007692893	-0.002206033	0.07453315	-0.003592104	0.2147392	0.8304952	0.01820265	-0.09912996
3e+08	0.06488679	0.009000735	0.3485848	0.7800954	0.05278089	-0.03705369	0.007323758	-0.003236289
	0.3485848	0.7800954	0.008146929	-0.1051998	0.007333929	-0.003253997	0.07198571	-0.00921406
	0.05278089	-0.03705369	0.007333929	-0.003253997	0.06537021	0.009150314	0.3498185	0.7806366
	0.007323758	-0.003236289	0.07198571	-0.00921406	0.3498185	0.7806366	0.008810551	-0.1053883
3.1e+08	0.07296065	-0.0008449923	0.4730452	0.7089191	0.03988127	-0.04511564	0.006938412	-0.004163083
	0.4730452	0.7089191	-0.002303935	-0.1088843	0.006941542	-0.004180526	0.06830712	-0.01337984
	0.03988127	-0.04511564	0.006941542	-0.004180526	0.07333513	-0.0008104905	0.4743555	0.7092195
	0.006938412	-0.004163082	0.06830712	-0.01337984	0.4743555	0.7092195	-0.001705087	-0.1090606
3.2e+08	0.0779275	-0.013127	0.583663	0.6182575	0.02489684	-0.04895961	0.006569972	-0.005065147
	0.583663	0.6182575	-0.01303191	-0.1098303	0.006567528	-0.005079455	0.06407515	-0.01583298
	0.02489684	-0.04895961	0.006567528	-0.005079455	0.07815562	-0.01317242	0.5850079	0.6183082
	0.006569972	-0.005065147	0.06407515	-0.01583298	0.5850079	0.6183082	-0.01248041	-0.1099676
3.3e+08	0.07905232	-0.02684831	0.6774586	0.5106603	0.00919194	-0.04809361	0.006199513	-0.006029065
	0.6774586	0.5106603	-0.02318002	-0.1081286	0.006194691	-0.006038124	0.05991734	-0.01652322
	0.00919194	-0.04809361	0.006194691	-0.006038124	0.07910749	-0.02692716	0.6787918	0.5104607
	0.006199513	-0.006029065	0.05991734	-0.01652322	0.6787918	0.5104607	-0.02264824	-0.1082081
3.4e+08	0.07592634	-0.04078181	0.7518805	0.3891272	-0.00576989	-0.04245923	0.005757284	-0.007122722
	0.7518805	0.3891272	-0.03196981	-0.1041314	0.005752998	-0.007126622	0.05644208	-0.01561246
	-0.00576989	-0.04245923	0.005752998	-0.007126622	0.0757971	-0.04083979	0.75316	0.3886814
	0.005757284	-0.007122722	0.05644208	-0.01561246	0.75316	0.3886814	-0.031425	-0.1041454
3.5e+08	0.06854121	-0.05358106	0.8048795	0.2570419	-0.01855908	-0.03244451	0.005133404	-0.008372341
	0.8048795	0.2570419	-0.03877919	-0.09841325	0.005132719	-0.008372643	0.05416829	-0.01345845
	-0.01855908	-0.03244451	0.005132719	-0.008372643	0.06823273	-0.05356039	0.8060583	0.256364
	0.005133404	-0.008372341	0.05416829	-0.01345845	0.8060583	0.256364	-0.03818584	-0.09836731
3.6e+08	0.05732383	-0.06391443	0.8349676	0.118109	-0.0279135	-0.01885907	0.004200888	-0.009744183
	0.8349676	0.118109	-0.04320221	-0.09171241	0.004205943	-0.009744166	0.05346495	-0.01057459
	-0.0279135	-0.01885907	0.004205943	-0.009744166	0.05685989	-0.06375951	0.8360047	0.1172184
	0.004200888	-0.009744183	0.05346495	-0.01057459	0.8360047	0.1172184	-0.04252858	-0.09162446
3.7e+08	0.04312546	-0.07061024	0.8412847	-0.02373887	-0.0328603	-0.002869364	0.00284503	-0.0111387
	0.8412847	-0.02373887	-0.0450908	-0.08485274	0.002855455	-0.01114235	0.05450574	-0.007572196
	-0.0328603	-0.002869364	0.002855455	-0.01114235	0.04254717	-0.07027346	0.8421427	-0.0248152
	0.00284503	-0.0111387	0.05450574	-0.007572196	0.8421427	-0.0248152	-0.04431308	-0.08475243
3.8e+08	0.02716012	-0.07279412	0.8236486	-0.1644426	-0.0328149	0.01409994	0.0009927164	-0.01239771
	0.8236486	-0.1644426	-0.04456893	-0.07865791	0.001006815	-0.01240891	0.05724505	-0.005088814
	-0.0328149	0.01409994	0.001006815	-0.01240891	0.0265232	-0.07224112	0.8242915	-0.1656684
	0.0009927165	-0.01239771	0.05724505	-0.005088814	0.8242915	-0.1656684	-0.04367418	-0.07858301
3.9e+08	0.01089897	-0.07000299	0.7825856	-0.2999375	-0.02764933	0.03049268	-0.001359175	-0.01332595
	0.7825856	-0.2999375	-0.04201843	-0.07386404	-0.001346475	-0.01334671	0.06142069	-0.003711243
	-0.02764933	0.03049268	-0.001346475	-0.01334671	0.01026948	-0.06921838	0.7829886	-0.3012711
	-0.001359175	-0.01332595	0.06142069	-0.003711243	0.7829886	-0.3012711	-0.04100825	-0.07385494
4e+08	-0.00407339	-0.06226003	0.7193386	-0.4262927	-0.01771794	0.04476676	-0.004131865	-0.01372227
	0.7193386	-0.4262927	-0.03803573	-0.07103881	-0.004125535	-0.01375292	0.06658335	-0.003903044
	-0.01771794	0.04476676	-0.004125535	-0.01375292	-0.00462567	-0.06124908	0.7194799	-0.427686
	-0.004131865	-0.01372227	0.06658335	-0.003903044	0.7194799	-0.427686	-0.03692529	-0.07113474
4.1e+08	-0.01622218	-0.05009746	0.6358315	-0.5398539	-0.003838098	0.05554381	-0.007163244	-0.01341739
	0.6358315	-0.5398539	-0.03336375	-0.07052135	-0.007168433	-0.01345525	0.07215102	-0.00594648
	-0.003838098	0.05554381	-0.007168433	-0.01345525	-0.01662998	-0.04888789	0.6357029	-0.5412551
	-0.007163244	-0.01341739	0.07215102	-0.00594648	0.6357029	-0.5412551	-0.03218186	-0.07075466
4.2e+08	-0.0242253	-0.03452461	0.5346193	-0.6373693	0.01277727	0.06174934	-0.0102254	-0.01230859
	0.5346193	-0.6373693	-0.02880859	-0.07238912	-0.01024605	-0.01234817	0.07747957	-0.009908993
	0.01277727	0.06174934	-0.01024605	-0.01234817	-0.02443174	-0.03316523	0.534224	-0.638723
	-0.0102254	-0.01230859	0.07747957	-0.009908993	0.534224	-0.638723	-0.02759367	-0.0727812
4.3e+08	-0.027123	-0.01694236	0.4187822	-0.716114	0.03063098	0.06272559	-0.01305717	-0.01038285
	0.4187822	-0.716114	-0.02514784	-0.07645359	-0.01309452	-0.01041759	0.08194257	-0.0156347
	0.03063098	0.06272559	-0.01309452	-0.01041759	-0.02708811	-0.01549876	0.4181347	-0.7173679
	-0.01305717	-0.01038285	0.08194257	-0.0156347	0.4181347	-0.7173679	-0.02394446	-0.07701174
4.4e+08	-0.02442961	0.0009870978	0.2918117	-0.773975	0.04808447	0.05830424	-0.01540319	-0.007726821
	0.2918117	-0.773975	-0.02304662	-0.08228862	-0.01545517	-0.007749172	0.0850057	-0.02276774
	0.04808447	0.05830424	-0.01545517	-0.007749172	-0.02413509	0.00243797	0.2909386	-0.775081
	-0.01540319	-0.007726821	0.0850057	-0.02276774	0.2909386	-0.775081	-0.0218992	-0.08300496
4.5e+08	-0.01619986	0.01749925	0.1574783	-0.8095073	0.06351927	0.04882899	-0.0170548	-0.004516018
	0.1574783	-0.8095073	-0.02298835	-0.08928456	-0.01711626	-0.004519911	0.08628887	-0.0307978
	0.06351927	0.04882899	-0.01711626	-0.004519911	-0.01565223	0.01887691	0.1564154	-0.8104255
	-0.0170548	-0.004516018	0.08628887	-0.0307978	0.1564154	-0.8104255	-0.02193651	-0.0901366
4.6e+08	-0.003042081	0.03090243	0.01968959	-0.8219579	0.07549662	0.03512337	-0.0178822	-0.0009880096
	0.01968959	-0.8219579	-0.02522941	-0.09672037	-0.01794561	-0.0009702664	0.08560572	-0.03912441
	0.07549662	0.03512337	-0.01794561	-0.0009702661	-0.002272719	0.03213124	0.01847832	-0.8226574
	-0.0178822	-0.0009880096	0.08560572	-0.03912441	0.01847832	-0.8226574	-0.02430321	-0.09767341
4.7e+08	0.01392351	0.03974972	-0.1176424	-0.811257	0.08289779	0.01840913	-0.0178523	0.002594012
	-0.1176424	-0.811257	-0.02978148	-0.1038431	-0.01790888	0.00263372	0.08297861	-0.04712751
	0.08289779	0.01840913	-0.01790888	0.00263372	0.0148608	0.0407651	-0.118954	-0.8117163
	-0.0178523	0.002594012	0.08297861	-0.04712751	-0.118954	-0.8117163	-0.02899733	-0.1048547
4.8e+08	0.03315916	0.04298742	-0.2507093	-0.7779724	0.0850281	0.0001853139	-0.01702795	0.005985322
	-0.2507093	-0.7779724	-0.03641976	-0.1099485	-0.01706966	0.006042903	0.07862852	-0.05423776
	0.0850281	0.0001853139	-0.01706966	0.006042903	0.03419205	0.04374416	-0.2520744	-0.7781852
	-0.01702795	0.005985322	0.07862852	-0.05423776	-0.2520744	-0.7781852	-0.03577902	-0.1109728
4.9e+08	0.0528426	0.04007459	-0.3759046	-0.7232738	0.08167692	-0.01791784	-0.01555023	0.008993626
	-0.3759046	-0.7232738	-0.04471628	-0.1144485	-0.0155709	0.009062728	0.0729438	-0.05999621
	0.08167692	-0.01791784	-0.0155709	0.009062728	0.05388788	0.04055046	-0.3772798	-0.7232383
	-0.01555023	0.008993626	0.0729438	-0.05999621	-0.3772798	-0.7232383	-0.04420462	-0.1154422
5e+08	0.0710371	0.03105644	-0.4899115	-0.6488591	0.07312627	-0.03429124	-0.01360538	0.01150669
	-0.4899115	-0.6488591	-0.05408976	-0.1169257	-0.01360264	0.0115783	0.06643259	-0.06409938
	0.07312627	-0.03429124	-0.01360264	0.0115783	0.07200675	0.03125463	-0.4912516	-0.648583
	-0.01360538	0.01150669	0.06643259	-0.06409938	-0.4912516	-0.648583	-0.05367844	-0.1178532
5.1e+08	0.08587413	0.01658187	-0.5897447	-0.5568959	0.06011535	-0.04749036	-0.01138753	0.0134985
	-0.5897447	-0.5568959	-0.06386649	-0.1171679	-0.0113625	0.01356362	0.05966561	-0.06642623
	0.06011535	-0.04749036	-0.0113625	0.01356362	0.08668426	0.01653223	-0.5910144	-0.5563931
	-0.01138753	0.0134985	0.05966561	-0.06642623	-0.5910144	-0.5563931	-0.06351626	-0.1180051
5.2e+08	0.09574188	-0.00213073	-0.6728132	-0.4499642	0.04376428	-0.05635809	-0.009058037	0.0150212
	-0.6728132	-0.4499642	-0.0733486	-0.1151824	-0.009015213	0.01507243	0.05321555	-0.06704588
	0.04376428	-0.05635809	-0.009015213	0.01507243	0.09631929	-0.002374762	-0.6739776	-0.4492491
