!$
! Info: Touchstone file created by Circ.  Input file=Intel_C2M_200G_13p5in_202208016_staggered.circ
!$
# Hz S RI R 50
0	0.03993511	5.844631e-24	0.0001210986	1.889095e-22	0.0001627257	3.785341e-22	0.0001210925	1.886183e-22
	0.0001210986	1.889095e-22	0.03994761	6.308733e-24	0.0001211026	1.89072e-22	0.000162335	3.746082e-22
	0.0001627809	3.786556e-22	0.0001211026	1.89074e-22	0.03993018	6.143417e-24	0.0001210945	1.887618e-22
	0.0001210925	1.886203e-22	0.0001623901	3.74729e-22	0.0001210945	1.887618e-22	0.03994565	5.961949e-24
1e+07	0.04904299	0.01174943	1.692883e-05	5.113713e-05	0.003665895	0.008926333	2.202702e-05	3.813559e-05
	1.692884e-05	5.113714e-05	0.04950769	0.01204485	2.032314e-05	9.312669e-05	0.00367165	0.008978688
	0.003665895	0.008926333	2.032314e-05	9.312669e-05	0.04948573	0.0120967	1.726318e-05	5.339174e-05
	2.202702e-05	3.813559e-05	0.00367165	0.008978688	1.726318e-05	5.339174e-05	0.04907907	0.01178062
2e+07	0.05994216	0.01455618	2.919326e-05	4.046891e-05	0.008663441	0.01548449	1.464544e-05	2.791998e-05
	2.919328e-05	4.046894e-05	0.06068703	0.01480312	9.693826e-05	9.418567e-05	0.008675346	0.01558608
	0.008663446	0.01548447	9.693826e-05	9.418567e-05	0.06067401	0.01490842	3.21127e-05	4.358483e-05
	1.464544e-05	2.791998e-05	0.008675351	0.01558607	3.211269e-05	4.358483e-05	0.05999808	0.01460731
3e+07	0.06864647	0.01209829	4.613472e-05	2.699246e-05	0.01570997	0.01987947	1.969781e-05	2.183415e-05
	4.613473e-05	2.699246e-05	0.06956877	0.01218292	0.000148925	6.459689e-05	0.01572943	0.02002475
	0.01570997	0.01987951	0.000148925	6.459689e-05	0.06957173	0.01234668	5.087616e-05	2.95233e-05
	1.969782e-05	2.183415e-05	0.01572942	0.02002479	5.087617e-05	2.952329e-05	0.06873037	0.01216822
4e+07	0.07513276	0.006985636	5.532866e-05	1.071438e-05	0.02388095	0.02135091	2.56587e-05	1.245822e-05
	5.532866e-05	1.071438e-05	0.076148	0.006860998	0.0001793817	2.113553e-05	0.02390561	0.02153367
	0.02388096	0.02135093	0.0001793817	2.113553e-05	0.07618002	0.007070386	6.132609e-05	1.211218e-05
	2.56587e-05	1.245822e-05	0.02390562	0.02153369	6.132609e-05	1.211218e-05	0.0752538	0.007055609
5e+07	0.07947513	0.0003655526	5.758418e-05	-6.084023e-06	0.03208039	0.01973241	2.764251e-05	2.910001e-06
	5.758418e-05	-6.084024e-06	0.08050754	1.600651e-05	0.0001902107	-2.747532e-05	0.03210448	0.01994769
	0.0320804	0.01973241	0.0001902107	-2.747532e-05	0.08057191	0.0002573273	6.431607e-05	-6.117512e-06
	2.764251e-05	2.91e-06	0.03210448	0.01994769	6.431607e-05	-6.117513e-06	0.07963202	0.0004187689
6e+07	0.08176094	-0.00700662	5.394394e-05	-2.140564e-05	0.03922708	0.01519842	2.621982e-05	-5.71104e-06
	5.394393e-05	-2.140564e-05	0.08274339	-0.007574809	0.0001835788	-7.497503e-05	0.03924197	0.01544404
	0.03922708	0.0151984	0.0001835788	-7.497503e-05	0.08283751	-0.007315172	6.091225e-05	-2.300983e-05
	2.621982e-05	-5.711037e-06	0.03924196	0.01544403	6.091224e-05	-2.300982e-05	0.08194715	-0.006985233
7e+07	0.08217412	-0.01454689	4.572699e-05	-3.373522e-05	0.04435778	0.008282422	2.219201e-05	-1.256207e-05
	4.572699e-05	-3.373522e-05	0.08304933	-0.01531123	0.0001621208	-0.0001165909	0.0443534	0.008560251
	0.04435777	0.00828242	0.0001621208	-0.0001165909	0.08316464	-0.01504503	5.246229e-05	-3.692983e-05
	2.219201e-05	-1.256206e-05	0.0443534	0.008560249	5.246229e-05	-3.692983e-05	0.08237813	-0.01457019
8e+07	0.08097714	-0.02184588	3.445663e-05	-4.212227e-05	0.04674406	-0.0001851449	1.647138e-05	-1.711105e-05
	3.445662e-05	-4.212227e-05	0.0816983	-0.02277204	0.0001291188	-0.0001488029	0.0467107	0.0001314378
	0.04674407	-0.0001851435	0.0001291188	-0.0001488029	0.0818217	-0.02250669	4.04857e-05	-4.680271e-05
	1.647138e-05	-1.711105e-05	0.0467107	0.0001314392	4.04857e-05	-4.680271e-05	0.08118338	-0.02192304
9e+07	0.07844931	-0.02865125	2.160586e-05	-4.615362e-05	0.04597694	-0.009171688	9.965574e-06	-1.913702e-05
	2.160586e-05	-4.615362e-05	0.07897892	-0.02969672	8.794702e-05	-0.0001693592	0.04590723	-0.008805179
	0.04597695	-0.009171691	8.794702e-05	-0.0001693592	0.07909467	-0.02943314	2.648429e-05	-5.211552e-05
	9.965572e-06	-1.913702e-05	0.04590724	-0.008805183	2.648429e-05	-5.211552e-05	0.07863906	-0.02878594
1e+08	0.07490938	-0.03482898	7.703e-06	-4.579719e-05	0.04201152	-0.01756201	3.136236e-06	-1.86117e-05
	7.703001e-06	-4.579719e-05	0.07520406	-0.03594669	3.877762e-05	-0.0001769642	0.04190249	-0.01713071
	0.04201152	-0.01756201	3.877762e-05	-0.0001769642	0.07529688	-0.03567838	1.088083e-05	-5.276071e-05
	3.136237e-06	-1.86117e-05	0.04190249	-0.01713071	1.088083e-05	-5.276071e-05	0.07506365	-0.03501867
1.1e+08	0.07022293	-0.04062571	-2.551509e-06	-3.786797e-05	0.03517035	-0.02424245	-1.308361e-06	-1.442792e-05
	-2.551508e-06	-3.786797e-05	0.07029144	-0.041685	-3.675365e-06	-0.0001560332	0.03502507	-0.02372935
	0.03517035	-0.02424245	-3.675364e-06	-0.0001560332	0.07030845	-0.04143548	-1.245293e-06	-4.466948e-05
	-1.308361e-06	-1.442792e-05	0.03502506	-0.02372935	-1.245293e-06	-4.466948e-05	0.0702738	-0.04089757
1.2e+08	0.06443627	-0.04543297	-7.647769e-06	-2.969655e-05	0.02622895	-0.02828293	-2.990703e-06	-1.039319e-05
	-7.647769e-06	-2.969655e-05	0.06434606	-0.04640246	-2.660956e-05	-0.000131058	0.02605738	-0.02767204
	0.02622895	-0.02828293	-2.660956e-05	-0.000131058	0.06429953	-0.04609397	-7.73065e-06	-3.596889e-05
	-2.990702e-06	-1.039319e-05	0.02605738	-0.02767203	-7.730649e-06	-3.596889e-05	0.06438257	-0.04570373
1.3e+08	0.0578327	-0.04914514	-8.29176e-06	-2.251078e-05	0.01616403	-0.02908964	-3.392738e-06	-6.854121e-06
	-8.29176e-06	-2.251078e-05	0.05762697	-0.05000984	-2.966309e-05	-0.0001086528	0.01598264	-0.02836825
	0.01616403	-0.02908963	-2.966309e-05	-0.0001086528	0.05755238	-0.0496217	-8.838195e-06	-2.81828e-05
	-3.392738e-06	-6.854122e-06	0.01598264	-0.02836825	-8.838196e-06	-2.81828e-05	0.05769734	-0.04938504
1.4e+08	0.05058751	-0.05164584	-5.548526e-06	-1.705372e-05	0.006114711	-0.02641078	-2.804868e-06	-3.913247e-06
	-5.548526e-06	-1.705372e-05	0.05030208	-0.0523994	-3.04541e-05	-8.772884e-05	0.005945333	-0.02557214
	0.006114712	-0.02641078	-3.04541e-05	-8.772884e-05	0.05022054	-0.0519342	-6.599762e-06	-2.200189e-05
	-2.804868e-06	-3.913247e-06	0.005945334	-0.02557214	-6.599762e-06	-2.200189e-05	0.05038056	-0.05184327
1.5e+08	0.04288178	-0.05280144	-2.589339e-06	-1.294382e-05	-0.002742609	-0.02038261	-4.204475e-07	-2.337407e-06
	-2.589339e-06	-1.294383e-05	0.04254745	-0.05344333	-2.840437e-05	-6.872289e-05	-0.002875019	-0.01942798
	-0.002742608	-0.02038261	-2.840437e-05	-6.872289e-05	0.04246923	-0.05290521	-3.823016e-06	-1.711819e-05
	-4.204476e-07	-2.337407e-06	-0.002875019	-0.01942797	-3.823017e-06	-1.711819e-05	0.0426063	-0.05294094
1.6e+08	0.03493644	-0.0524708	6.650634e-07	-1.014744e-05	-0.009324697	-0.0115271	2.030661e-06	-1.78237e-06
	6.650633e-07	-1.014744e-05	0.03458008	-0.05300459	-2.3746e-05	-5.211836e-05	-0.009395137	-0.0104671
	-0.009324697	-0.0115271	-2.3746e-05	-5.211836e-05	0.03451259	-0.05239467	-7.866596e-07	-1.355762e-05
	2.030661e-06	-1.78237e-06	-0.009395136	-0.0104671	-7.866597e-07	-1.355762e-05	0.03459885	-0.05252954
1.7e+08	0.02703292	-0.05052688	3.922633e-06	-8.669484e-06	-0.0127654	-0.0007054462	4.077975e-06	-1.96447e-06
	3.922633e-06	-8.669484e-06	0.02667879	-0.05095907	-1.695253e-05	-3.833363e-05	-0.01275231	0.0004398559
	-0.0127654	-0.0007054457	-1.695253e-05	-3.833363e-05	0.02663152	-0.05027784	2.385962e-06	-1.131818e-05
	4.077975e-06	-1.96447e-06	-0.01275231	0.0004398565	2.385962e-06	-1.131818e-05	0.0266505	-0.0504789
1.8e+08	0.01952315	-0.0468873	6.844774e-06	-8.411855e-06	-0.01251911	0.01096788	5.724623e-06	-2.80944e-06
	6.844774e-06	-8.411855e-06	0.01919248	-0.04722767	-8.660378e-06	-2.765393e-05	-0.01240798	0.01217028
	-0.0125191	0.01096788	-8.660378e-06	-2.765393e-05	0.01917782	-0.04647836	5.363467e-06	-1.033297e-05
	5.724623e-06	-2.80944e-06	-0.01240798	0.01217028	5.363467e-06	-1.033297e-05	0.01912597	-0.04671039
1.9e+08	0.01282377	-0.04154988	9.134196e-06	-9.174354e-06	-0.008431361	0.02224203	6.806086e-06	-4.157323e-06
	9.134196e-06	-9.174354e-06	0.01253548	-0.04181085	4.067036e-07	-2.019318e-05	-0.00821779	0.02346778
	-0.00843136	0.02224203	4.067036e-07	-2.019318e-05	0.01256665	-0.04100236	7.841768e-06	-1.043367e-05
	6.806086e-06	-4.157323e-06	-0.00821779	0.02346778	7.841768e-06	-1.043367e-05	0.01245298	-0.04123222
2e+08	0.00739587	-0.03462789	1.05596e-05	-1.067495e-05	-0.0007668121	0.03186536	7.211036e-06	-5.798504e-06
	1.05596e-05	-1.067495e-05	0.007166484	-0.03482478	9.503205e-06	-1.587668e-05	-0.0004584022	0.03307893
	-0.0007668117	0.03186536	9.503204e-06	-1.587668e-05	0.007253405	-0.03397204	9.573739e-06	-1.136812e-05
	7.211036e-06	-5.798504e-06	-0.0004584018	0.03307893	9.573739e-06	-1.136812e-05	0.007098239	-0.03417262
2.1e+08	0.003707039	-0.02637883	1.098918e-05	-1.257419e-05	0.009809053	0.03872384	6.899835e-06	-7.495522e-06
	1.098918e-05	-1.257419e-05	0.003550176	-0.02652977	1.792618e-05	-1.444362e-05	0.01019209	0.03989231
	0.009809054	0.03872384	1.792618e-05	-1.444362e-05	0.00369725	-0.02565238	1.04021e-05	-1.282241e-05
	6.899835e-06	-7.495522e-06	0.01019209	0.03989231	1.04021e-05	-1.282241e-05	0.003529697	-0.02580606
2.2e+08	0.002181718	-0.01721785	1.040059e-05	-1.451387e-05	0.02229353	0.0419669	5.911475e-06	-9.010848e-06
	1.040059e-05	-1.451387e-05	0.002107456	-0.01734377	2.50684e-05	-1.546932e-05	0.02271949	0.0430644
	0.02229353	0.0419669	2.50684e-05	-1.546932e-05	0.002310573	-0.01646324	1.027203e-05	-1.445626e-05
	5.911475e-06	-9.010848e-06	0.02271949	0.0430644	1.027203e-05	-1.445626e-05	0.002164932	-0.0165646
2.3e+08	0.003142435	-0.007713722	8.887307e-06	-1.61566e-05	0.03544902	0.0411059	4.358863e-06	-1.013517e-05
	8.887307e-06	-1.61566e-05	0.003156465	-0.007837899	3.047075e-05	-1.840286e-05	0.03587732	0.04211751
	0.03544902	0.0411059	3.047075e-05	-1.840286e-05	0.003402877	-0.006973306	9.235364e-06	-1.593793e-05
	4.358863e-06	-1.013517e-05	0.03587732	0.04211751	9.235364e-06	-1.593793e-05	0.003314256	-0.007030378
2.4e+08	0.006751581	0.001438241	6.632198e-06	-1.721531e-05	0.04793202	0.03607282	2.413911e-06	-1.071106e-05
	6.632198e-06	-1.721531e-05	0.00685436	0.0012909	3.382305e-05	-2.261149e-05	0.04831713	0.03699746
	0.04793202	0.03607282	3.382305e-05	-2.261149e-05	0.007124126	0.002125757	7.442516e-06	-1.697823e-05
	2.413911e-06	-1.071106e-05	0.04831713	0.03699746	7.442516e-06	-1.697823e-05	0.007123684	0.002091486
2.5e+08	0.01296129	0.009465337	3.896812e-06	-1.748348e-05	0.0584347	0.02723377	2.843238e-07	-1.064824e-05
	3.896812e-06	-1.748348e-05	0.01314734	0.009269341	3.50083e-05	-2.742913e-05	0.05873081	0.02808572
	0.0584347	0.02723377	3.50083e-05	-2.742913e-05	0.01341569	0.01006963	5.121348e-06	-1.736237e-05
	2.843238e-07	-1.064824e-05	0.05873081	0.02808572	5.121348e-06	-1.736237e-05	0.01352601	0.01002493
2.6e+08	0.02148012	0.01558678	9.870126e-07	-1.685383e-05	0.06582234	0.01535615	-1.811522e-06	-9.929045e-06
	9.870126e-07	-1.685383e-05	0.02173751	0.0153174	3.407987e-05	-3.219839e-05	0.06598855	0.01616486
	0.06582234	0.01535615	3.407987e-05	-3.219839e-05	0.02197876	0.01608795	2.54266e-06	-1.695931e-05
	-1.811522e-06	-9.929045e-06	0.06598855	0.01616486	2.54266e-06	-1.695931e-05	0.02220981	0.01599102
2.7e+08	0.03176396	0.01909533	-1.782832e-06	-1.532271e-05	0.06925135	0.001532833	-3.668711e-06	-8.603708e-06
	-1.782832e-06	-1.532271e-05	0.03207401	0.01873017	3.126286e-05	-3.632378e-05	0.0692566	0.002341226
	0.06925135	0.001532833	3.126286e-05	-3.632378e-05	0.0322655	0.01948596	-3.580632e-09	-1.57342e-05
	-3.668711e-06	-8.603708e-06	0.0692566	0.002341226	-3.580632e-09	-1.57342e-05	0.03261169	0.01929095
2.8e+08	0.04303527	0.0194436	-4.12209e-06	-1.298368e-05	0.06825744	-0.01292547	-5.114616e-06	-6.778828e-06
	-4.12209e-06	-1.298368e-05	0.04337257	0.01896443	2.692469e-05	-3.931286e-05	0.06808479	-0.0120644
	0.06825744	-0.01292547	2.692469e-05	-3.931286e-05	0.04349876	0.01972915	-2.240621e-06	-1.374484e-05
	-5.114616e-06	-6.778828e-06	0.06808479	-0.0120644	-2.240621e-06	-1.374484e-05	0.04393749	0.01939167
2.9e+08	0.05433382	0.0163246	-5.790626e-06	-1.001163e-05	0.06280414	-0.02661907	-6.02117e-06	-4.601688e-06
	-5.790626e-06	-1.001163e-05	0.05466679	0.01571959	2.153903e-05	-4.080606e-05	0.06245407	-0.02564689
	0.06280414	-0.02661907	2.153903e-05	-4.080606e-05	0.05472223	0.01652173	-3.931183e-06	-1.112843e-05
	-6.02117e-06	-4.601688e-06	0.06245407	-0.02564689	-3.931183e-06	-1.112843e-05	0.05521432	0.01600495
3e+08	0.06459468	0.00973473	-6.617488e-06	-6.640677e-06	0.05328894	-0.03819509	-6.310461e-06	-2.243856e-06
	-6.617488e-06	-6.640677e-06	0.06488679	0.009000735	1.564604e-05	-4.059701e-05	0.05278089	-0.03705369
	0.05328894	-0.03819509	1.564604e-05	-4.059701e-05	0.06487803	0.009869588	-4.896247e-06	-8.082992e-06
	-6.310461e-06	-2.243856e-06	0.05278089	-0.03705369	-4.896247e-06	-8.082992e-06	0.06537021	0.009150314
3.1e+08	0.0727486	1.007979e-05	-6.511409e-06	-3.13962e-06	0.04050902	-0.04647786	-5.955426e-06	1.136288e-07
	-6.511409e-06	-3.13962e-06	0.07296065	-0.0008449923	9.80924e-06	-3.864197e-05	0.03988127	-0.04511564
	0.04050902	-0.04647786	9.80924e-06	-3.864197e-05	0.07290536	0.000115598	-5.026707e-06	-4.845875e-06
	-5.955426e-06	1.136288e-07	0.03988127	-0.04511564	-5.026707e-06	-4.845875e-06	0.07333513	-0.0008104905
3.2e+08	0.07783402	-0.01217159	-5.463237e-06	2.124244e-07	0.02558942	-0.05058159	-4.977234e-06	2.29249e-06
	-5.463237e-06	2.124244e-07	0.0779275	-0.013127	4.572173e-06	-3.505901e-05	0.02489684	-0.04895961
	0.02558942	-0.05058159	4.572173e-06	-3.505901e-05	0.07785319	-0.0120577	-4.287701e-06	-1.67218e-06
	-4.977234e-06	2.29249e-06	0.02489684	-0.04895961	-4.287701e-06	-1.67218e-06	0.07815562	-0.01317242
3.3e+08	0.07911066	-0.02582687	-3.542218e-06	3.147672e-06	0.009882257	-0.04999634	-3.441381e-06	4.126871e-06
	-3.542218e-06	3.147672e-06	0.07905232	-0.02684831	4.159791e-07	-3.011628e-05	0.00919194	-0.04809361
	0.009882257	-0.04999634	4.159791e-07	-3.011628e-05	0.07899146	-0.02566565	-2.717641e-06	1.185337e-06
	-3.441381e-06	4.126871e-06	0.00919194	-0.04809361	-2.717641e-06	1.185337e-06	0.07910749	-0.02692716
3.4e+08	0.07615938	-0.03974107	-8.88362e-07	5.428251e-06	-0.005155155	-0.04464182	-1.453746e-06	5.471672e-06
	-8.88362e-07	5.428251e-06	0.07592634	-0.04078181	-2.279644e-06	-2.421029e-05	-0.00576989	-0.04245923
	-0.005155155	-0.04464182	-2.279644e-06	-2.421029e-05	0.07591184	-0.03949489	-4.236933e-07	3.493923e-06
	-1.453746e-06	5.471672e-06	-0.00576989	-0.04245923	-4.236933e-07	3.493923e-06	0.0757971	-0.04083979
3.5e+08	0.06895634	-0.05257693	2.297985e-06	6.861589e-06	-0.01809227	-0.03488253	8.436436e-07	6.210511e-06
	2.297985e-06	6.861589e-06	0.06854121	-0.05358106	-3.269217e-06	-1.783416e-05	-0.01855908	-0.03244451
	-0.01809227	-0.03488253	-3.269217e-06	-1.783416e-05	0.0685998	-0.05221155	2.425904e-06	5.05627e-06
	8.436436e-07	6.210511e-06	-0.01855908	-0.03244451	2.425904e-06	5.05627e-06	0.06823273	-0.05356039
3.6e+08	0.05790914	-0.06300647	5.768132e-06	7.313451e-06	-0.02765821	-0.02150523	3.277696e-06	6.264746e-06
	5.768132e-06	7.313451e-06	0.05732383	-0.06391443	-2.466591e-06	-1.153663e-05	-0.0279135	-0.01885907
	-0.02765821	-0.02150523	-2.466591e-06	-1.153663e-05	0.05747225	-0.06249367	5.610886e-06	5.724568e-06
	3.277696e-06	6.264746e-06	-0.0279135	-0.01885907	5.610886e-06	5.724568e-06	0.05685989	-0.06375951
3.7e+08	0.04384807	-0.06985443	9.239276e-06	6.719464e-06	-0.03286423	-0.005656751	5.652182e-06	5.603131e-06
	9.239276e-06	6.719464e-06	0.04312546	-0.07061024	4.181646e-08	-5.873572e-06	-0.0328603	-0.002869364
	-0.03286423	-0.005656751	4.181647e-08	-5.873572e-06	0.04336669	-0.06917425	8.871143e-06	5.413654e-06
	5.652182e-06	5.603131e-06	-0.0328603	-0.002869364	8.871143e-06	5.413654e-06	0.04254717	-0.07027346
3.8e+08	0.02796741	-0.07223504	1.241155e-05	5.095004e-06	-0.03310378	0.01125235	7.75976e-06	4.251096e-06
	1.241155e-05	5.095004e-06	0.02716012	-0.07279412	3.998286e-06	-1.354986e-06	-0.0328149	0.01409994
	-0.03310378	0.01125235	3.998286e-06	-1.354986e-06	0.02748264	-0.07137747	1.192216e-05	4.112845e-06
	7.75976e-06	4.251096e-06	-0.0328149	0.01409994	1.192216e-05	4.112845e-06	0.0265232	-0.07224112
3.9e+08	0.01172319	-0.06966654	1.498968e-05	2.542324e-06	-0.02822296	0.02767267	9.399204e-06	2.297241e-06
	1.498968e-05	2.542324e-06	0.01089897	-0.07000299	8.991498e-06	1.60837e-06	-0.02764933	0.03049268
	-0.02822296	0.02767267	8.991498e-06	1.60837e-06	0.01127852	-0.06863423	1.447554e-05	1.895542e-06
	9.399204e-06	2.297241e-06	-0.02764933	0.03049268	1.447554e-05	1.895542e-06	0.01026948	-0.06921838
4e+08	-0.003307951	-0.06214835	1.670899e-05	-7.482399e-07	-0.01854858	0.0420606	1.039685e-05	-1.065391e-07
	1.670899e-05	-7.482399e-07	-0.00407339	-0.06226003	1.449306e-05	2.752241e-06	-0.01771794	0.04476676
	-0.01854858	0.0420606	1.449306e-05	2.752241e-06	-0.00367062	-0.06095604	1.626488e-05	-1.077371e-06
	1.039685e-05	-1.065391e-07	-0.01771794	0.04476676	1.626488e-05	-1.077371e-06	-0.00462567	-0.06124908
4.1e+08	-0.01559035	-0.0501869	1.736425e-05	-4.505744e-06	-0.004871596	0.05302754	1.062942e-05	-2.753469e-06
	1.736425e-05	-4.505744e-06	-0.01622218	-0.05009746	1.990935e-05	1.993128e-06	-0.003838098	0.05554381
	-0.004871596	0.05302754	1.990935e-05	1.993128e-06	-0.01583383	-0.04886171	1.707459e-05	-4.562447e-06
	1.062942e-05	-2.753469e-06	-0.003838098	0.05554381	1.707459e-05	-4.562447e-06	-0.01662998	-0.04888789
4.2e+08	-0.02379206	-0.03476715	1.683723e-05	-8.397691e-06	0.01161777	0.05948089	1.004373e-05	-5.4003e-06
	1.683723e-05	-8.397691e-06	-0.0242253	-0.03452461	2.464378e-05	-5.570266e-07	0.01277727	0.06174934
	0.01161777	0.05948089	2.464378e-05	-5.570266e-07	-0.02388842	-0.03334694	1.676828e-05	-8.250365e-06
	1.004373e-05	-5.4003e-06	0.01277727	0.06174934	1.676828e-05	-8.250365e-06	-0.02443174	-0.03316523
4.3e+08	-0.0269357	-0.01727012	1.511755e-05	-1.205992e-05	0.02943892	0.06073796	8.668479e-06	-7.793739e-06
	1.511755e-05	-1.205992e-05	-0.027123	-0.01694236	2.816298e-05	-4.59871e-06	0.03063098	0.06272559
	0.02943892	0.06073796	2.816298e-05	-4.59871e-06	-0.02686947	-0.01579983	1.53112e-05	-1.179373e-05
	8.668479e-06	-7.793739e-06	0.03063098	0.06272559	1.53112e-05	-1.179373e-05	-0.02708811	-0.01549876
4.4e+08	-0.02451252	0.0006549907	1.23117e-05	-1.513474e-05	0.04696181	0.05660096	6.614454e-06	-9.700671e-06
	1.23117e-05	-1.513474e-05	-0.02442961	0.0009870978	3.005526e-05	-9.675707e-06	0.04808447	0.05830424
	0.04696181	0.05660096	3.005526e-05	-9.675707e-06	-0.02428231	0.002127103	1.278112e-05	-1.484335e-05
	6.614454e-06	-9.700671e-06	0.04808447	0.05830424	1.278112e-05	-1.484335e-05	-0.02413509	0.00243797
4.5e+08	-0.01655134	0.01724894	8.636479e-06	-1.731138e-05	0.0625672	0.04738194	4.062272e-06	-1.093655e-05
	8.636479e-06	-1.731138e-05	-0.01619986	0.01749925	3.007475e-05	-1.522408e-05	0.06351927	0.04882899
	0.0625672	0.04738194	3.007475e-05	-1.522408e-05	-0.0161704	0.01867651	9.364559e-06	-1.708752e-05
	4.062272e-06	-1.093655e-05	0.06351927	0.04882899	9.364559e-06	-1.708752e-05	-0.01565223	0.01887691
4.6e+08	-0.00363419	0.03081739	4.397415e-06	-1.836146e-05	0.07480568	0.03387369	1.239907e-06	-1.138618e-05
	4.397415e-06	-1.836146e-05	-0.003042081	0.03090243	2.816554e-05	-2.063269e-05	0.07549662	0.03512337
	0.07480568	0.03387369	2.816554e-05	-2.063269e-05	-0.003128803	0.0321609	5.33832e-06	-1.828723e-05
	1.239907e-06	-1.138618e-05	0.07549662	0.03512337	5.33832e-06	-1.828723e-05	-0.002272719	0.03213124
4.7e+08	0.01314326	0.03990344	-4.471248e-08	-1.816385e-05	0.08253848	0.01727117	-1.605356e-06	-1.10135e-05
	-4.471248e-08	-1.816385e-05	0.01392351	0.03974972	2.4464e-05	-2.530596e-05	0.08289779	0.01840913
	0.08253848	0.01727117	2.4464e-05	-2.530596e-05	0.01373691	0.04113231	1.039088e-06	-1.830156e-05
	-1.605356e-06	-1.10135e-05	0.08289779	0.01840913	1.039088e-06	-1.830156e-05	0.0148608	0.0407651
4.8e+08	0.03226461	0.04343688	-4.313264e-06	-1.671449e-05	0.08504298	-0.0009465009	-4.234807e-06	-9.859484e-06
	-4.313264e-06	-1.671449e-05	0.03315916	0.04298742	1.928039e-05	-2.872137e-05	0.0850281	0.0001853139
