!$
! Info: Touchstone file created by Circ.  Input file=Intel_C2M_200G_13p5in_202208016_staggered.circ
!$
# Hz S RI R 50
0	0.04049361	1.111885e-23	-0.00014216	1.740958e-20	0.0003807268	1.606104e-21	-0.0001380304	1.690384e-20
	-0.0001421601	1.740959e-20	0.03994761	6.308733e-24	-0.000149013	1.824883e-20	0.000162335	3.746082e-22
	0.000380789	1.607245e-21	-0.0001490131	1.824884e-20	0.04049486	1.141953e-23	-0.0001421848	1.741262e-20
	-0.0001380303	1.690384e-20	0.0001623901	3.74729e-22	-0.0001421847	1.741261e-20	0.03994565	5.961949e-24
1e+07	0.05141016	0.01092058	-0.001441196	0.000115326	0.002799161	0.009096376	-0.0001075322	-0.000103686
	-0.001441196	0.000115326	0.04950769	0.01204485	-0.0008074851	0.0001555321	0.00367165	0.008978688
	0.002799161	0.009096376	-0.0008074851	0.0001555321	0.05050033	0.01137896	-0.0005814656	-4.763142e-05
	-0.0001075322	-0.000103686	0.00367165	0.008978688	-0.0005814656	-4.763142e-05	0.04907907	0.01178062
2e+07	0.06376531	0.01168624	-0.001319775	-0.0001401838	0.007019826	0.01646247	-0.0001438044	-0.0001097506
	-0.001319775	-0.0001401838	0.06068703	0.01480312	-0.0008329463	-3.650136e-05	0.008675346	0.01558608
	0.007019918	0.01646236	-0.0008329463	-3.650124e-05	0.06356341	0.01263516	-0.0005839958	-9.830552e-05
	-0.0001438044	-0.0001097506	0.008675351	0.01558607	-0.0005839958	-9.830551e-05	0.05999808	0.01460731
3e+07	0.07426677	0.006221171	-0.001290057	-0.0002077434	0.01307317	0.02199905	-0.0001947103	-0.0001225194
	-0.001290057	-0.0002077434	0.06956877	0.01218292	-0.0008700834	-3.454638e-05	0.01572943	0.02002475
	0.01307315	0.02199902	-0.0008700834	-3.454636e-05	0.07459892	0.007141393	-0.0006404159	-0.0001299834
	-0.0001947103	-0.0001225193	0.01572942	0.02002479	-0.000640416	-0.0001299834	0.06873037	0.01216822
4e+07	0.08269146	-0.00306742	-0.00129705	-0.0001939158	0.02020011	0.02534296	-0.0002559154	-0.0001200885
	-0.00129705	-0.0001939158	0.076148	0.006860998	-0.0009011864	2.238055e-05	0.02390561	0.02153367
	0.02020011	0.02534296	-0.0009011864	2.238055e-05	0.08339529	-0.002366493	-0.0007082363	-0.000106379
	-0.0002559154	-0.0001200885	0.02390562	0.02153369	-0.0007082364	-0.0001063789	0.0752538	0.007055609
5e+07	0.08832921	-0.01522937	-0.001315014	-0.0001320961	0.02765465	0.02629925	-0.0003246033	-0.0001052627
	-0.001315014	-0.0001320961	0.08050754	1.600651e-05	-0.0009134102	0.0001041118	0.03210448	0.01994769
	0.02765466	0.02629926	-0.0009134102	0.0001041118	0.08924236	-0.01484017	-0.0007695672	-4.308718e-05
	-0.0003246033	-0.0001052627	0.03210448	0.01994769	-0.0007695672	-4.308714e-05	0.07963202	0.0004187689
6e+07	0.09059435	-0.02918755	-0.001327447	-3.929655e-05	0.03465057	0.0249515	-0.0003913567	-7.152216e-05
	-0.001327447	-3.929655e-05	0.08274339	-0.007574809	-0.0009050124	0.0001906027	0.03924197	0.01544404
	0.03465057	0.0249515	-0.0009050124	0.0001906027	0.09156135	-0.02913365	-0.0008124867	4.660485e-05
	-0.0003913567	-7.152217e-05	0.03924196	0.01544403	-0.0008124866	4.66048e-05	0.08194715	-0.006985233
7e+07	0.08920457	-0.04380772	-0.001329087	8.159702e-05	0.04048188	0.02163286	-0.0004532382	-2.052762e-05
	-0.001329087	8.159705e-05	0.08304933	-0.01531123	-0.0008823616	0.0002683447	0.0443534	0.008560251
	0.04048188	0.02163286	-0.0008823616	0.0002683447	0.09008807	-0.04405847	-0.0008320268	0.0001494398
	-0.0004532382	-2.05276e-05	0.0443534	0.008560249	-0.0008320268	0.0001494398	0.08237813	-0.01457019
8e+07	0.08418794	-0.05796582	-0.001311042	0.0002224801	0.04459669	0.01688403	-0.0005081915	4.653737e-05
	-0.001311042	0.0002224801	0.0816983	-0.02277204	-0.0008573205	0.0003316804	0.0467107	0.0001314378
	0.04459669	0.01688403	-0.0008573204	0.0003316804	0.08487982	-0.05844879	-0.0008294844	0.0002541209
	-0.0005081915	4.653737e-05	0.0467107	0.0001314392	-0.0008294844	0.0002541209	0.08118338	-0.02192304
9e+07	0.07588465	-0.07061696	-0.001263868	0.0003603151	0.046656	0.01139226	-0.0005544664	0.0001291156
	-0.001263868	0.0003603151	0.07897892	-0.02969672	-0.000843168	0.0003842009	0.04590723	-0.008805179
	0.046656	0.01139226	-0.000843168	0.0003842009	0.07631187	-0.0712297	-0.0008103692	0.0003570319
	-0.0005544664	0.0001291156	0.04590724	-0.008805183	-0.0008103691	0.0003570319	0.07863906	-0.02878594
1e+08	0.06499602	-0.08091537	-0.001169128	0.0004833784	0.04656704	0.005907978	-0.0005906541	0.0002272604
	-0.001169128	0.0004833784	0.07520406	-0.03594669	-0.0008514504	0.0004372976	0.04190249	-0.01713071
	0.04656704	0.005907978	-0.0008514504	0.0004372976	0.06510952	-0.08153018	-0.0007750297	0.0004607697
	-0.0005906541	0.0002272604	0.04190249	-0.01713071	-0.0007750297	0.0004607697	0.07506365	-0.03501867
1.1e+08	0.05189024	-0.08843353	-0.001054144	0.0006492455	0.04447708	0.001207527	-0.0006125637	0.0003362673
	-0.001054144	0.0006492455	0.07029144	-0.041685	-0.0008821463	0.0004848276	0.03502507	-0.02372935
	0.04447708	0.001207527	-0.0008821463	0.0004848276	0.05178903	-0.0888585	-0.0007351405	0.0005655847
	-0.0006125637	0.0003362673	0.03502506	-0.02372935	-0.0007351405	0.0005655847	0.0702738	-0.04089757
1.2e+08	0.03769514	-0.09208682	-0.0009600314	0.000811534	0.04085065	-0.002076079	-0.0006148871	0.0004619486
	-0.0009600314	0.000811534	0.06434606	-0.04640246	-0.0009279754	0.0005620728	0.02605738	-0.02767204
	0.04085065	-0.002076079	-0.0009279754	0.0005620728	0.03748844	-0.09232123	-0.0007015799	0.0006764276
	-0.0006148871	0.0004619486	0.02605738	-0.02767203	-0.00070158	0.0006764276	0.06438257	-0.04570373
1.3e+08	0.02377617	-0.09187795	-0.0008578329	0.0009754156	0.03629342	-0.003508638	-0.0005926216	0.0006027544
	-0.0008578329	0.0009754156	0.05762697	-0.05000984	-0.0009779122	0.0006831618	0.01598264	-0.02836825
	0.03629342	-0.003508638	-0.0009779122	0.0006831618	0.02353367	-0.09192704	-0.0006629056	0.0008023999
	-0.0005926216	0.0006027544	0.01598264	-0.02836825	-0.0006629056	0.0008023999	0.05769734	-0.04938504
1.4e+08	0.01130856	-0.08816144	-0.0007346955	0.001142971	0.0315233	-0.002883842	-0.0005374553	0.0007535242
	-0.0007346955	0.001142971	0.05030208	-0.0523994	-0.001011803	0.0008548462	0.005945333	-0.02557214
	0.0315233	-0.002883842	-0.001011803	0.0008548462	0.01108618	-0.08803984	-0.0006063472	0.0009488369
	-0.0005374553	0.0007535242	0.005945334	-0.02557214	-0.0006063472	0.0009488369	0.05038056	-0.05184327
1.5e+08	0.001268018	-0.08161985	-0.0005787051	0.001310708	0.02728398	-0.0002531598	-0.0004429966	0.0009062911
	-0.0005787051	0.001310708	0.04254745	-0.05344333	-0.001006188	0.001074493	-0.002875019	-0.01942798
	0.02728398	-0.0002531595	-0.001006188	0.001074493	0.00111133	-0.08135197	-0.0005160132	0.001114106
	-0.0004429966	0.0009062911	-0.002875019	-0.01942797	-0.0005160132	0.001114106	0.0426063	-0.05294094
1.6e+08	-0.005647087	-0.07318963	-0.0003800128	0.0014689	0.02425484	0.004081458	-0.0003051509	0.001049882
	-0.0003800128	0.0014689	0.03458008	-0.05300459	-0.0009384084	0.001329519	-0.009395137	-0.0104671
	0.02425484	0.004081458	-0.0009384084	0.001329519	-0.00570362	-0.07280778	-0.0003764036	0.001288049
	-0.0003051509	0.001049882	-0.009395136	-0.0104671	-0.0003764036	0.001288049	0.03459885	-0.05252954
1.7e+08	-0.009075009	-0.06396292	-0.000134602	0.00160149	0.02296845	0.009604366	-0.0001234723	0.001170902
	-0.000134602	0.00160149	0.02667879	-0.05095907	-0.0007301943	0.001612924	-0.01275231	0.0004398559
	0.02296845	0.009604367	-0.0007301943	0.001612924	-0.009008122	-0.06350494	-0.0001784901	0.001452372
	-0.0001234723	0.001170902	-0.01275231	0.0004398565	-0.0001784901	0.001452372	0.0266505	-0.0504789
1.8e+08	-0.009018177	-0.0550739	0.0001571931	0.001691767	0.02374752	0.01565142	9.742691e-05	0.001255151
	0.0001571931	0.001691767	0.01919248	-0.04722767	-0.000435254	0.001860513	-0.01240798	0.01217028
	0.02374752	0.01565142	-0.000435254	0.001860513	-0.008817359	-0.05458055	8.266486e-05	0.001583906
	9.742691e-05	0.001255151	-0.01240798	0.01217028	8.266486e-05	0.001583906	0.01912597	-0.04671039
1.9e+08	-0.005833222	-0.04758184	0.0004860612	0.001721533	0.02666809	0.02149217	0.0003478969	0.001289965
	0.0004860612	0.001721533	0.01253548	-0.04181085	-6.206809e-05	0.00204342	-0.00821779	0.02346778
	0.02666809	0.02149217	-6.206809e-05	0.00204342	-0.005500015	-0.04709345	0.0003990427	0.001657207
	0.0003478969	0.001289965	-0.00821779	0.02346778	0.0003990427	0.001657207	0.01245298	-0.04123222
2e+08	-0.0001837906	-0.04236425	0.0008348736	0.001676144	0.03155386	0.02641829	0.0006138631	0.001266162
	0.0008348736	0.001676144	0.007166484	-0.03482478	0.0003781842	0.00213439	-0.0004584022	0.03307893
	0.03155386	0.02641829	0.0003781842	0.00213439	0.0002680681	-0.04191663	0.0007518655	0.001650608
	0.0006138631	0.001266162	-0.0004584018	0.03307893	0.0007518655	0.001650608	0.007098239	-0.03417262
2.1e+08	0.007035703	-0.04003136	0.001181367	0.001548137	0.03800295	0.02982834	0.0008785757	0.001179705
	0.001181367	0.001548137	0.003550176	-0.02652977	0.0008487337	0.00211561	0.01019209	0.03989231
	0.03800295	0.02982834	0.0008487337	0.00211561	0.007583717	-0.03965358	0.001114118	0.001551138
	0.0008785757	0.001179705	0.01019209	0.03989231	0.001114118	0.001551138	0.003529697	-0.02580606
2.2e+08	0.01480265	-0.04087205	0.001501127	0.001338602	0.04543981	0.03129561	0.001124767	0.001032356
	0.001501127	0.001338602	0.002107456	-0.01734377	0.001317208	0.001980411	0.02271949	0.0430644
	0.04543981	0.03129561	0.001317208	0.001980411	0.01541676	-0.04058333	0.001454965	0.001357084
	0.001124767	0.001032356	0.02271949	0.0430644	0.001454965	0.001357084	0.002164932	-0.0165646
2.3e+08	0.02207532	-0.04483563	0.001771509	0.001057454	0.05318716	0.030613	0.001336965	0.0008314082
	0.001771509	0.001057454	0.003156465	-0.007837899	0.001751015	0.001733222	0.03587732	0.04211751
	0.05318716	0.030613	0.001751015	0.001733222	0.02272227	-0.04464412	0.001745006	0.00107883
	0.001336965	0.0008314082	0.03587732	0.04211751	0.001745006	0.00107883	0.003314256	-0.007030378
2.4e+08	0.02790155	-0.05155068	0.00197522	0.0007216249	0.06054693	0.02781076	0.001503402	0.0005883727
	0.00197522	0.0007216249	0.00685436	0.0012909	0.002121512	0.001388361	0.04831713	0.03699746
	0.06054693	0.02781076	0.002121512	0.001388361	0.02854849	-0.05145318	0.001961307	0.0007369236
	0.001503402	0.0005883727	0.04831713	0.03699746	0.001961307	0.0007369236	0.007123684	0.002091486
2.5e+08	0.03151266	-0.06037676	0.002102411	0.0003522898	0.06687923	0.02314476	0.00161714	0.000316996
	0.002102411	0.0003522898	0.01314734	0.009269341	0.002406952	0.0009675807	0.05873081	0.02808572
	0.06687923	0.02314476	0.002406952	0.0009675807	0.03213044	-0.06035941	0.002091008	0.0003582784
	0.00161714	0.000316996	0.05873081	0.02808572	0.002091008	0.0003582784	0.01352601	0.01002493
2.6e+08	0.03239218	-0.07048078	0.002151422	-2.887441e-05	0.07167194	0.0170609	0.001676227	3.128245e-05
	0.002151422	-2.887442e-05	0.02173751	0.0153174	0.00259426	0.0004968194	0.06598855	0.01616486
	0.07167194	0.0170609	0.00259426	0.0004968194	0.03295878	-0.07052132	0.00213271	-2.893636e-05
	0.001676227	3.128245e-05	0.06598855	0.01616486	0.00213271	-2.893636e-05	0.02220981	0.01599102
2.7e+08	0.03031762	-0.08092941	0.002127776	-0.0004029907	0.07459292	0.01014034	0.001682916	-0.0002566186
	0.002127776	-0.0004029907	0.03207401	0.01873017	0.002679256	2.756935e-06	0.0692566	0.002341226
	0.07459292	0.01014034	0.002679256	2.756935e-06	0.03082022	-0.08099974	0.00209548	-0.0004002858
	0.001682916	-0.0002566186	0.0692566	0.002341226	0.00209548	-0.0004002858	0.03261169	0.01929095
2.8e+08	0.02536907	-0.09078602	0.002041834	-0.0007564296	0.07552066	0.00303152	0.00164225	-0.0005374659
	0.002041834	-0.0007564296	0.04337257	0.01896443	0.002665596	-0.0004905011	0.06808479	-0.0120644
	0.07552066	0.00303152	0.002665596	-0.0004905011	0.02580536	-0.0908552	0.001995759	-0.0007389695
	0.00164225	-0.0005374659	0.06808479	-0.0120644	0.001995759	-0.0007389695	0.04393749	0.01939167
2.9e+08	0.01790868	-0.09920207	0.001905691	-0.00108182	0.07455155	-0.003621071	0.001560295	-0.0008055968
	0.001905691	-0.00108182	0.05466679	0.01571959	0.002562693	-0.0009635119	0.06245407	-0.02564689
	0.07455155	-0.003621071	0.002562693	-0.0009635119	0.01828724	-0.09924047	0.001852842	-0.001037985
	0.001560295	-0.0008055968	0.06245407	-0.02564689	0.001852842	-0.001037985	0.05521432	0.01600495
3e+08	0.008535239	-0.1054971	0.001730095	-0.001377629	0.07198458	-0.009247202	0.001442386	-0.001058536
	0.001730095	-0.001377629	0.06488679	0.009000735	0.002383074	-0.001402682	0.05278089	-0.03705369
	0.07198458	-0.009247202	0.002383074	-0.001402682	0.008874548	-0.1054791	0.001684051	-0.001299762
	0.001442386	-0.001058536	0.05278089	-0.03705369	0.001684051	-0.001299762	0.06537021	0.009150314
3.1e+08	-0.001982347	-0.1092188	0.001522029	-0.001646286	0.06828604	-0.01341003	0.001291687	-0.001295918
	0.001522029	-0.001646286	0.07296065	-0.0008449923	0.00213954	-0.001800341	0.03988127	-0.04511564
	0.06828604	-0.01341003	0.00213954	-0.001800341	-0.001655604	-0.1091261	0.001500647	-0.001533785
	0.001291687	-0.001295918	0.03988127	-0.04511564	0.001500647	-0.001533785	0.07333513	-0.0008104905
3.2e+08	-0.01278389	-0.11018	0.001283394	-0.001891424	0.06403623	-0.01585335	0.001108637	-0.001517776
	0.001283394	-0.001891424	0.0779275	-0.013127	0.001842992	-0.002153423	0.02489684	-0.04895961
	0.06403623	-0.01585335	0.001842992	-0.002153423	-0.01243798	-0.1100044	0.001305118	-0.001752615
	0.001108637	-0.001517776	0.02489684	-0.04895961	0.001305118	-0.001752615	0.07815562	-0.01317242
3.3e+08	-0.02300433	-0.108471	0.001011208	-0.002114936	0.05986504	-0.01652802	0.0008909367	-0.001722874
	0.001011208	-0.002114936	0.07905232	-0.02684831	0.001500552	-0.002461659	0.00919194	-0.04809361
	0.05986504	-0.01652802	0.001500552	-0.002461659	-0.02260457	-0.108215	0.001090865	-0.001966981
	0.0008909367	-0.001722874	0.00919194	-0.04809361	0.001090865	-0.001966981	0.07910749	-0.02692716
3.4e+08	-0.03185766	-0.1044461	0.0006964301	-0.002315804	0.0563826	-0.0155979	0.0006347768	-0.001907029
	0.0006964301	-0.002315804	0.07592634	-0.04078181	0.001115473	-0.002724713	-0.00576989	-0.04245923
	0.0563826	-0.0155979	0.001115473	-0.002724713	-0.03137173	-0.1041237	0.0008440996	-0.002181209
	0.0006347768	-0.001907029	-0.00576989	-0.04245923	0.0008440996	-0.002181209	0.0757971	-0.04083979
3.5e+08	-0.03871566	-0.09868462	0.0003355085	-0.002482756	0.05410886	-0.01342311	0.0003362696	-0.002062121
	0.0003355085	-0.002482756	0.06854121	-0.05358106	0.0006876369	-0.002940189	-0.01855908	-0.03244451
	0.05410886	-0.01342311	0.0006876369	-0.002940189	-0.03811523	-0.09832099	0.0005478818	-0.002389874
	0.0003362696	-0.002062121	-0.01855908	-0.03244451	0.0005478818	-0.002389874	0.06823273	-0.05356039
3.6e+08	-0.04316837	-0.09193128	-7.450752e-05	-0.00260139	0.05341286	-0.01051976	-5.935135e-06	-0.002175967
	-7.450752e-05	-0.00260139	0.05732383	-0.06391443	0.0002155518	-0.003101321	-0.0279135	-0.01885907
	0.05341286	-0.01051976	0.0002155518	-0.003101321	-0.04243437	-0.09155969	0.000187309	-0.002576788
	-5.935135e-06	-0.002175967	-0.0279135	-0.01885907	0.000187309	-0.002576788	0.05685989	-0.06375951
3.7e+08	-0.04506636	-0.08501718	-0.0005303809	-0.002653084	0.05446739	-0.007501652	-0.0003886008	-0.002233391
	-0.0005303809	-0.002653084	0.04312546	-0.07061024	-0.0003006209	-0.00319643	-0.0328603	-0.002869364
	0.05446739	-0.007501652	-0.0003006209	-0.00319643	-0.04419109	-0.08467723	-0.000245099	-0.002716418
	-0.0003886008	-0.002233391	-0.0328603	-0.002869364	-0.000245099	-0.002716418	0.04254717	-0.07027346
3.8e+08	-0.0445348	-0.07877318	-0.001020419	-0.002618251	0.05722505	-0.005008494	-0.0008020161	-0.002218456
	-0.001020419	-0.002618251	0.02716012	-0.07279412	-0.0008560492	-0.003209751	-0.0328149	0.01409994
	0.05722505	-0.005008494	-0.0008560492	-0.003209751	-0.043523	-0.07850652	-0.0007448014	-0.002777944
	-0.0008020161	-0.002218456	-0.0328149	0.01409994	-0.0007448014	-0.002777944	0.0265232	-0.07224112
3.9e+08	-0.04195917	-0.07394154	-0.001524136	-0.002480332	0.06142124	-0.003628306	-0.001229692	-0.002117404
	-0.001524136	-0.002480332	0.01089897	-0.07000299	-0.001438923	-0.003123793	-0.02764933	0.03049268
	0.06142124	-0.003628306	-0.001438923	-0.003123793	-0.04082958	-0.07378642	-0.00129327	-0.002731183
	-0.001229692	-0.002117404	-0.02764933	0.03049268	-0.00129327	-0.002731183	0.01026948	-0.06921838
4e+08	-0.03794142	-0.07109434	-0.002013691	-0.002229835	0.06660382	-0.003825022	-0.001649157	-0.001921801
	-0.002013691	-0.002229835	-0.00407339	-0.06226003	-0.002029257	-0.002922729	-0.01771794	0.04476676
	0.06660382	-0.003825022	-0.002029257	-0.002922729	-0.03672389	-0.07108249	-0.001858742	-0.002553031
	-0.001649157	-0.001921801	-0.01771794	0.04476676	-0.001858742	-0.002553031	-0.00462567	-0.06124908
4.1e+08	-0.0332311	-0.07057282	-0.002457245	-0.001867392	0.0721881	-0.005880136	-0.002034424	-0.001631056
	-0.002457245	-0.001867392	-0.01622218	-0.05009746	-0.002599308	-0.00259657	-0.003838098	0.05554381
	0.0721881	-0.005880136	-0.002599308	-0.00259657	-0.03196512	-0.07072499	-0.002399932	-0.002233343
	-0.002034424	-0.001631056	-0.003838098	0.05554381	-0.002399932	-0.002233343	-0.01662998	-0.04888789
4.2e+08	-0.02864112	-0.072454	-0.002823448	-0.001405099	0.07752768	-0.009859404	-0.002359392	-0.00125368
	-0.002823448	-0.001405099	-0.0242253	-0.03452461	-0.00311639	-0.002144151	0.01277727	0.06174934
	0.07752768	-0.009859404	-0.00311639	-0.002144151	-0.02737082	-0.07277747	-0.002872426	-0.001778153
	-0.002359392	-0.00125368	0.01277727	0.06174934	-0.002872426	-0.001778153	-0.02443174	-0.03316523
4.3e+08	-0.02495523	-0.07654654	-0.003086225	-0.00086554	0.08199468	-0.01560454	-0.002601593	-0.0008066392
	-0.003086225	-0.00086554	-0.027123	-0.01694236	-0.003546391	-0.001575655	0.03063098	0.06272559
	0.08199468	-0.01560454	-0.003546391	-0.001575655	-0.02372535	-0.07703395	-0.003235796	-0.001210026
	-0.002601593	-0.0008066392	0.03063098	0.06272559	-0.003235796	-0.001210026	-0.02708811	-0.01549876
4.4e+08	-0.02284324	-0.08241951	-0.003228587	-0.000278877	0.08505429	-0.0227569	-0.00274528	-0.0003135923
	-0.003228587	-0.000278877	-0.02442961	0.0009870978	-0.003858558	-0.0009123207	0.04808447	0.05830424
	0.08505429	-0.0227569	-0.003858558	-0.0009123207	-0.02169309	-0.08304962	-0.003460197	-0.000565229
	-0.00274528	-0.0003135923	0.04808447	0.05830424	-0.003460197	-0.000565229	-0.02413509	0.00243797
4.5e+08	-0.02279116	-0.08945719	-0.003244812	0.0003215505	0.08632703	-0.03080352	-0.002783409	0.0001985253
	-0.003244812	0.0003215505	-0.01619986	0.01749925	-0.004029568	-0.0001848593	0.06351927	0.04882899
	0.08632703	-0.03080352	-0.004029568	-0.0001848593	-0.02175088	-0.0901972	-0.003531108	0.0001122361
	-0.002783409	0.0001985253	0.06351927	0.04882899	-0.003531108	0.0001122361	-0.01565223	0.01887691
4.6e+08	-0.02505568	-0.09693191	-0.003140339	0.0009038666	0.08562796	-0.03914159	-0.002717854	0.0007032277
	-0.003140339	0.0009038666	-0.003042081	0.03090243	-0.004046617	0.0005697341	0.07549662	0.03512337
	0.08562796	-0.03914159	-0.004046617	0.0005697341	-0.02414281	-0.09774128	-0.003450687	0.0007776882
	-0.002717854	0.0007032277	0.07549662	0.03512337	-0.003450687	0.0007776882	-0.002272719	0.03213124
4.7e+08	-0.0296463	-0.1040846	-0.002929698	0.001441986	0.08298161	-0.04714949	-0.002558133	0.00117755
	-0.002929698	0.001441986	0.01392351	0.03974972	-0.003908882	0.001312838	0.08289779	0.01840913
	0.08298161	-0.04714949	-0.003908882	0.001312838	-0.02886369	-0.1049201	-0.003236216	0.001392215
	-0.002558133	0.00117755	0.08289779	0.01840913	-0.003236216	0.001392215	0.0148608	0.0407651
4.8e+08	-0.03633409	-0.1102059	-0.002632977	0.001917993	0.07861154	-0.05425708	-0.002318914	0.001604479
	-0.002632977	0.001917993	0.03315916	0.04298742	-0.003627011	0.002008645	0.0850281	0.0001853139
	0.07861154	-0.05425708	-0.003627011	0.002008645	-0.0356702	-0.111026	-0.002915512	0.001928307
	-0.002318914	0.001604479	0.0850281	0.0001853139	-0.002915512	0.001928307	0.03419205	0.04374416
4.9e+08	-0.04468543	-0.1147046	-0.002271742	0.002322858	0.07290863	-0.06000563	-0.002017072	0.00197374
	-0.002271742	0.002322858	0.0528426	0.04007459	-0.003221102	0.00262751	0.08167692	-0.01791784
