!$
! Info: Touchstone file created by Circ.  Input file=Intel_C2M_200G_13p5in_202208016_staggered.circ
!$
# Hz S RI R 50
0	0.03993506	6.160936e-24	0.0001213653	1.892588e-22	0.0001627043	3.783199e-22	0.000121303	1.889575e-22
	0.0001213653	1.892588e-22	0.03994761	6.308733e-24	0.0001213499	1.891353e-22	0.000162335	3.746082e-22
	0.0001627595	3.784414e-22	0.0001213499	1.891373e-22	0.03993012	5.848794e-24	0.0001213165	1.888394e-22
	0.0001213029	1.889595e-22	0.0001623901	3.74729e-22	0.0001213165	1.888393e-22	0.03994565	5.961949e-24
1e+07	0.04968087	0.01185862	0.0001194109	3.848901e-06	0.00310362	0.008903948	2.159439e-05	8.742847e-05
	0.0001194109	3.848901e-06	0.04950769	0.01204485	0.0001134804	6.701585e-05	0.00367165	0.008978688
	0.00310362	0.008903948	0.0001134804	6.701585e-05	0.05062241	0.01151064	6.614469e-05	4.39734e-05
	2.159439e-05	8.742847e-05	0.00367165	0.008978688	6.614469e-05	4.39734e-05	0.04907907	0.01178062
2e+07	0.06057791	0.01448057	9.345035e-05	1.606001e-05	0.008174793	0.01566298	8.439087e-05	8.258424e-05
	9.345035e-05	1.606001e-05	0.06068703	0.01480312	0.0001409081	3.074591e-05	0.008675346	0.01558608
	0.008174798	0.01566296	0.0001409081	3.074591e-05	0.06089999	0.01367858	6.8598e-05	8.132575e-06
	8.439087e-05	8.258424e-05	0.008675351	0.01558607	6.8598e-05	8.132575e-06	0.05999808	0.01460731
3e+07	0.06925192	0.01190696	8.312969e-05	2.522577e-05	0.01530112	0.02015772	0.0001279042	5.779166e-05
	8.312969e-05	2.522576e-05	0.06956877	0.01218292	0.000158259	6.683338e-07	0.01572943	0.02002475
	0.01530112	0.02015776	0.000158259	6.683341e-07	0.06911932	0.01112067	6.823904e-05	-9.829202e-06
	0.0001279042	5.779166e-05	0.01572942	0.02002479	6.823904e-05	-9.829205e-06	0.06873037	0.01216822
4e+07	0.07567721	0.006699194	7.316584e-05	2.569146e-05	0.02356242	0.02169477	0.0001552918	2.237405e-05
	7.316584e-05	2.569146e-05	0.076148	0.006860998	0.0001649977	-3.214524e-05	0.02390561	0.02153367
	0.02356243	0.02169479	0.0001649977	-3.214524e-05	0.07522088	0.006075106	6.400367e-05	-2.463937e-05
	0.0001552918	2.237404e-05	0.02390562	0.02153369	6.400367e-05	-2.463937e-05	0.0752538	0.007055609
5e+07	0.07993298	9.229995e-06	6.230132e-05	2.372194e-05	0.03185875	0.0201129	0.0001678419	-1.812603e-05
	6.230132e-05	2.372194e-05	0.08050754	1.600651e-05	0.0001615155	-6.95635e-05	0.03210448	0.01994769
	0.03185876	0.0201129	0.0001615155	-6.95635e-05	0.07926861	-0.0003814777	5.625549e-05	-3.827486e-05
	0.0001678419	-1.812603e-05	0.03210448	0.01994769	5.625549e-05	-3.827486e-05	0.07963202	0.0004187689
6e+07	0.08211553	-0.00740112	5.042315e-05	2.212996e-05	0.03910244	0.01558755	0.0001663358	-5.93599e-05
	5.042315e-05	2.212996e-05	0.08274339	-0.007574809	0.0001463755	-0.0001039096	0.03924197	0.01544404
	0.03910244	0.01558753	0.0001463755	-0.0001039096	0.08134805	-0.007533063	4.501895e-05	-4.851914e-05
	0.0001663358	-5.93599e-05	0.03924196	0.01544403	4.501895e-05	-4.851914e-05	0.08194715	-0.006985233
7e+07	0.08242033	-0.01494398	4.773718e-05	6.813538e-06	0.04432298	0.008653982	0.0001515194	-9.744706e-05
	4.773718e-05	6.813538e-06	0.08304933	-0.01531123	0.0001205079	-0.000131909	0.0443534	0.008560251
	0.04432298	0.00865398	0.0001205079	-0.000131909	0.08164015	-0.01482467	3.158461e-05	-5.453586e-05
	0.0001515194	-9.744706e-05	0.0443534	0.008560249	3.158461e-05	-5.453586e-05	0.08237813	-0.01457019
8e+07	0.08112263	-0.02221007	4.178686e-05	-9.452109e-06	0.04678528	0.0001461914	0.0001258683	-0.000129219
	4.178686e-05	-9.452109e-06	0.0816983	-0.02277204	8.748643e-05	-0.0001510109	0.0467107	0.0001314378
	0.04678528	0.0001461928	8.748643e-05	-0.0001510109	0.08040312	-0.0218701	1.753902e-05	-5.612886e-05
	0.0001258683	-0.000129219	0.0467107	0.0001314392	1.753902e-05	-5.612886e-05	0.08118338	-0.02192304
9e+07	0.07851386	-0.02895119	3.114784e-05	-2.090586e-05	0.04607421	-0.00889789	9.162825e-05	-0.0001524612
	3.114784e-05	-2.090586e-05	0.07897892	-0.02969672	5.037489e-05	-0.0001599004	0.04590723	-0.008805179
	0.04607421	-0.008897893	5.037488e-05	-0.0001599004	0.07791164	-0.02843569	4.308407e-06	-5.35095e-05
	9.162825e-05	-0.0001524612	0.04590724	-0.008805183	4.308407e-06	-5.35095e-05	0.07863906	-0.02878594
1e+08	0.07492295	-0.03503828	1.67641e-05	-2.659319e-05	0.04213876	-0.01735663	4.790662e-05	-0.0001658487
	1.67641e-05	-2.659319e-05	0.07520406	-0.03594669	1.007887e-05	-0.0001580018	0.04190249	-0.01713071
	0.04213876	-0.01735663	1.007887e-05	-0.0001580018	0.07449873	-0.03440068	-1.356175e-06	-4.630757e-05
	4.790662e-05	-0.0001658487	0.04190249	-0.01713071	-1.356175e-06	-4.630757e-05	0.07506365	-0.03501867
1.1e+08	0.07024133	-0.04074216	4.939737e-06	-2.238223e-05	0.03529975	-0.02409616	6.429175e-06	-0.0001537752
	4.939737e-06	-2.238223e-05	0.07029144	-0.041685	-4.932528e-06	-0.0001379283	0.03502507	-0.02372935
	0.03529975	-0.02409616	-4.932528e-06	-0.0001379283	0.06992644	-0.04017213	-2.915387e-06	-3.835157e-05
	6.429175e-06	-0.0001537752	0.03502506	-0.02372935	-2.915387e-06	-3.835157e-05	0.0702738	-0.04089757
1.2e+08	0.06448828	-0.04548214	-1.855012e-06	-1.771945e-05	0.02634726	-0.02818566	-1.840498e-05	-0.0001361386
	-1.855012e-06	-1.771945e-05	0.06434606	-0.04640246	-1.5737e-05	-0.0001185127	0.02605738	-0.02767204
	0.02634725	-0.02818566	-1.5737e-05	-0.0001185127	0.06421473	-0.04492506	-4.929512e-06	-3.179818e-05
	-1.840498e-05	-0.0001361386	0.02605738	-0.02767203	-4.929512e-06	-3.179818e-05	0.06438257	-0.04570373
1.3e+08	0.0579342	-0.04915384	-7.222133e-06	-1.313407e-05	0.01626061	-0.02902994	-2.77875e-05	-0.0001182199
	-7.222133e-06	-1.313407e-05	0.05762697	-0.05000984	-2.450144e-05	-9.931553e-05	0.01598264	-0.02836825
	0.01626061	-0.02902993	-2.450144e-05	-9.931553e-05	0.05769209	-0.04859407	-7.086781e-06	-2.574333e-05
	-2.77875e-05	-0.0001182199	0.01598264	-0.02836825	-7.086781e-06	-2.574333e-05	0.05769734	-0.04938504
1.4e+08	0.05074297	-0.05164155	-1.113358e-05	-8.361944e-06	0.006183094	-0.0263758	-3.560031e-05	-9.977397e-05
	-1.113358e-05	-8.361944e-06	0.05030208	-0.0523994	-3.072501e-05	-8.03357e-05	0.005945333	-0.02557214
	0.006183094	-0.02637579	-3.072501e-05	-8.03357e-05	0.05051948	-0.05107596	-8.389632e-06	-1.992686e-05
	-3.560031e-05	-9.977397e-05	0.005945334	-0.02557214	-8.389632e-06	-1.992686e-05	0.05038056	-0.05184327
1.5e+08	0.04308555	-0.05280913	-1.335537e-05	-3.245047e-06	-0.00270452	-0.02035917	-4.110741e-05	-8.087121e-05
	-1.335537e-05	-3.245047e-06	0.04254745	-0.05344333	-3.422324e-05	-6.177026e-05	-0.002875019	-0.01942798
	-0.002704519	-0.02035917	-3.422324e-05	-6.177026e-05	0.04286643	-0.05222842	-8.88441e-06	-1.440872e-05
	-4.110741e-05	-8.087121e-05	-0.002875019	-0.01942797	-8.88441e-06	-1.440872e-05	0.0426063	-0.05294094
1.6e+08	0.03517488	-0.05250996	-1.408134e-05	1.914237e-06	-0.009314873	-0.01150302	-4.382591e-05	-6.182405e-05
	-1.408134e-05	1.914237e-06	0.03458008	-0.05300459	-3.493086e-05	-4.391048e-05	-0.009395137	-0.0104671
	-0.009314872	-0.01150302	-3.493086e-05	-4.391048e-05	0.03495207	-0.05189711	-8.615319e-06	-9.247934e-06
	-4.382591e-05	-6.182405e-05	-0.009395136	-0.0104671	-8.615319e-06	-9.247934e-06	0.03459885	-0.05252954
1.7e+08	0.0272872	-0.05060969	-1.346313e-05	6.871134e-06	-0.01277826	-0.0006705981	-4.345117e-05	-4.311349e-05
	-1.346313e-05	6.871134e-06	0.02667879	-0.05095907	-3.307478e-05	-2.689637e-05	-0.01275231	0.0004398559
	-0.01277826	-0.0006705976	-3.307478e-05	-2.689637e-05	0.0270641	-0.04994457	-7.661804e-06	-4.452874e-06
	-4.345117e-05	-4.311349e-05	-0.01275231	0.0004398565	-7.661804e-06	-4.452874e-06	0.0266505	-0.0504789
1.8e+08	0.01977154	-0.04701795	-1.164176e-05	1.139985e-05	-0.01254643	0.01102066	-3.985645e-05	-2.534554e-05
	-1.164176e-05	1.139985e-05	0.01919248	-0.04722767	-2.852212e-05	-1.11144e-05	-0.01240798	0.01217028
	-0.01254643	0.01102066	-2.852212e-05	-1.11144e-05	0.01956359	-0.04628416	-6.084263e-06	-2.497613e-08
	-3.985645e-05	-2.534554e-05	-0.01240798	0.01217028	-6.084263e-06	-2.497613e-08	0.01912597	-0.04671039
1.9e+08	0.01304501	-0.04172411	-8.770402e-06	1.529359e-05	-0.008463408	0.02231626	-3.311327e-05	-9.197132e-06
	-8.770402e-06	1.529359e-05	0.01253548	-0.04181085	-2.126171e-05	2.706713e-06	-0.00821779	0.02346778
	-0.008463407	0.02231626	-2.126171e-05	2.706713e-06	0.01287643	-0.04091461	-3.808751e-06	3.814906e-06
	-3.311327e-05	-9.197132e-06	-0.00821779	0.02346778	-3.808751e-06	3.814906e-06	0.01245298	-0.04123222
2e+08	0.007571973	-0.03483397	-5.02062e-06	1.837498e-05	-0.0007936663	0.03196083	-2.349672e-05	4.648909e-06
	-5.02062e-06	1.837498e-05	0.007166484	-0.03482478	-1.172247e-05	1.400327e-05	-0.0004584022	0.03307893
	-0.0007936659	0.03196083	-1.172247e-05	1.400327e-05	0.00746982	-0.03395385	-9.574037e-07	6.94007e-06
	-2.349673e-05	4.648909e-06	-0.0004584018	0.03307893	-9.574037e-07	6.94007e-06	0.007098239	-0.03417262
2.1e+08	0.003825486	-0.02659922	-5.769489e-07	2.049853e-05	0.009796227	0.03883671	-1.147761e-05	1.556288e-05
	-5.769489e-07	2.049853e-05	0.003550176	-0.02652977	-4.877658e-07	2.232002e-05	0.01019209	0.03989231
	0.009796227	0.03883671	-4.877659e-07	2.232002e-05	0.003814912	-0.02566611	2.316896e-06	9.25769e-06
	-1.147761e-05	1.556288e-05	0.01019209	0.03989231	2.316896e-06	9.25769e-06	0.003529697	-0.02580606
2.2e+08	0.002237046	-0.01743149	4.365205e-06	2.154657e-05	0.02230131	0.04209049	2.297973e-06	2.302244e-05
	4.365205e-06	2.154657e-05	0.002107456	-0.01734377	1.173554e-05	2.735451e-05	0.02271949	0.0430644
	0.02230131	0.04209049	1.173554e-05	2.735451e-05	0.002335328	-0.0164738	5.847932e-06	1.071511e-05
	2.297973e-06	2.302244e-05	0.02271949	0.0430644	5.847932e-06	1.071511e-05	0.002164932	-0.0165646
2.3e+08	0.003136934	-0.007898651	9.745237e-06	2.163345e-05	0.03548094	0.04123168	1.715012e-05	2.661972e-05
	9.745237e-06	2.163345e-05	0.003156465	-0.007837899	2.428376e-05	2.895028e-05	0.03587732	0.04211751
	0.03548094	0.04123168	2.428376e-05	2.895028e-05	0.003350137	-0.006951129	9.466715e-06	1.129685e-05
	1.715012e-05	2.661972e-05	0.03587732	0.04211751	9.466715e-06	1.129685e-05	0.003314256	-0.007030378
2.4e+08	0.006695106	0.001302233	1.534486e-05	2.059012e-05	0.04798818	0.03619159	3.205835e-05	2.613543e-05
	1.534486e-05	2.059012e-05	0.00685436	0.0012909	3.624361e-05	2.714222e-05	0.04831713	0.03699746
	0.04798818	0.03619159	3.624361e-05	2.714222e-05	0.007016456	0.002202443	1.302863e-05	1.101262e-05
	3.205835e-05	2.613543e-05	0.04831713	0.03699746	1.302863e-05	1.101262e-05	0.007123684	0.002091486
2.5e+08	0.01287028	0.009394284	2.095124e-05	1.822435e-05	0.05851176	0.02733701	4.604516e-05	2.161409e-05
	2.095124e-05	1.822435e-05	0.01314734	0.009269341	4.683982e-05	2.219715e-05	0.05873081	0.02808572
	0.05851176	0.02733701	4.683982e-05	2.219715e-05	0.01327987	0.01021335	1.639531e-05	9.879742e-06
	4.604516e-05	2.161409e-05	0.05873081	0.02808572	1.639531e-05	9.879742e-06	0.01352601	0.01002493
2.6e+08	0.02137585	0.01559055	2.626769e-05	1.437301e-05	0.06591415	0.01543714	5.814319e-05	1.333057e-05
	2.626769e-05	1.437301e-05	0.02173751	0.0153174	5.539032e-05	1.454351e-05	0.06598855	0.01616486
	0.06591415	0.01543714	5.539032e-05	1.454351e-05	0.02184263	0.01630157	1.942923e-05	7.915553e-06
	5.814319e-05	1.333057e-05	0.06598855	0.01616486	1.942923e-05	7.915553e-06	0.02220981	0.01599102
2.7e+08	0.0316703	0.01917636	3.089347e-05	8.931733e-06	0.06934971	0.001587494	6.743863e-05	1.793463e-06
	3.089347e-05	8.931733e-06	0.03207401	0.01873017	6.13233e-05	4.742387e-06	0.0692566	0.002341226
	0.06934971	0.001587494	6.13233e-05	4.742387e-06	0.03215488	0.01976321	2.197642e-05	5.137997e-06
	6.743863e-05	1.793463e-06	0.0692566	0.002341226	2.197642e-05	5.137997e-06	0.03261169	0.01929095
2.8e+08	0.04297608	0.01959629	3.432606e-05	1.909806e-06	0.06835325	-0.01289811	7.312467e-05	-1.225753e-05
	3.432606e-05	1.909806e-06	0.04337257	0.01896443	6.419295e-05	-6.536731e-06	0.06808479	-0.0120644
	0.06835325	-0.01289811	6.419295e-05	-6.536731e-06	0.04343488	0.02005615	2.384899e-05	1.582156e-06
	7.312467e-05	-1.225753e-05	0.06808479	-0.0120644	2.384899e-05	1.582156e-06	0.04393749	0.01939167
2.9e+08	0.05433037	0.01653569	3.59949e-05	-6.512659e-06	0.06288858	-0.02661676	7.456221e-05	-2.786555e-05
	3.59949e-05	-6.512659e-06	0.05466679	0.01571959	6.369197e-05	-1.853293e-05	0.06245407	-0.02564689
	0.06288858	-0.02661676	6.369197e-05	-1.853293e-05	0.05471971	0.01687905	2.48211e-05	-2.674529e-06
	7.456221e-05	-2.786555e-05	0.06245407	-0.02564689	2.48211e-05	-2.674529e-06	0.05521432	0.01600495
3e+08	0.06466318	0.009984439	3.532354e-05	-1.593718e-05	0.05335441	-0.03821277	7.1343e-05	-4.388775e-05
	3.532354e-05	-1.593718e-05	0.06488679	0.009000735	5.967118e-05	-3.041115e-05	0.05278089	-0.03705369
	0.05335441	-0.03821277	5.967118e-05	-3.041115e-05	0.0649438	0.01023493	2.463853e-05	-7.479354e-06
	7.1343e-05	-4.388775e-05	0.05278089	-0.03705369	2.463853e-05	-7.479354e-06	0.06537021	0.009150314
3.1e+08	0.07289827	0.0002739688	3.182005e-05	-2.571762e-05	0.04055008	-0.04650827	6.335363e-05	-5.904396e-05
	3.182005e-05	-2.571762e-05	0.07296065	-0.0008449923	5.216143e-05	-4.128597e-05	0.03988127	-0.04511564
	0.04055008	-0.04650827	5.216143e-05	-4.128597e-05	0.07303845	0.0004664546	2.304814e-05	-1.257435e-05
	6.335363e-05	-5.904396e-05	0.03988127	-0.04511564	2.304814e-05	-1.257435e-05	0.07333513	-0.0008104905
3.2e+08	0.07806579	-0.01192011	2.518117e-05	-3.49842e-05	0.02560329	-0.05061609	5.083086e-05	-7.199108e-05
	2.518117e-05	-3.49842e-05	0.0779275	-0.013127	4.14037e-05	-5.024674e-05	0.02489684	-0.04895961
	0.02560329	-0.05061609	4.14037e-05	-5.024674e-05	0.07804539	-0.01174154	1.984318e-05	-1.758257e-05
	5.083086e-05	-7.199108e-05	0.02489684	-0.04895961	1.984318e-05	-1.758257e-05	0.07815562	-0.01317242
3.3e+08	0.07941678	-0.02561376	1.539647e-05	-4.270059e-05	0.009869065	-0.05002588	3.439826e-05	-8.142447e-05
	1.539647e-05	-4.270059e-05	0.07905232	-0.02684831	2.787215e-05	-5.64103e-05	0.00919194	-0.04809361
	0.009869066	-0.05002588	2.787215e-05	-5.64103e-05	0.07922871	-0.02539994	1.492288e-05	-2.200991e-05
	3.439826e-05	-8.142447e-05	0.00919194	-0.04809361	1.492288e-05	-2.200991e-05	0.07910749	-0.02692716
3.4e+08	0.07652392	-0.03958877	2.82403e-06	-4.777641e-05	-0.005192429	-0.04465787	1.5076e-05	-8.61966e-05
	2.82403e-06	-4.777641e-05	0.07592634	-0.04078181	1.22944e-05	-5.897807e-05	-0.00576989	-0.04245923
	-0.005192429	-0.04465787	1.22944e-05	-5.897807e-05	0.07617619	-0.03928953	8.347812e-06	-2.528107e-05
	1.5076e-05	-8.61966e-05	-0.00576989	-0.04245923	8.347812e-06	-2.528107e-05	0.0757971	-0.04083979
3.5e+08	0.06935672	-0.05250186	-1.17747e-05	-4.920795e-05	-0.01814812	-0.03487789	-5.76165e-06	-8.545145e-05
	-1.17747e-05	-4.920795e-05	0.06854121	-0.05358106	-4.355155e-06	-5.732942e-05	-0.01855908	-0.03244451
	-0.01814812	-0.03487789	-4.355155e-06	-5.732942e-05	0.06887164	-0.05206981	3.894723e-07	-2.679655e-05
	-5.76165e-06	-8.545145e-05	-0.01855908	-0.03244451	3.894723e-07	-2.679655e-05	0.06823273	-0.05356039
3.6e+08	0.05831833	-0.063017	-2.727002e-05	-4.623521e-05	-0.02772507	-0.02147474	-2.64633e-05	-7.874582e-05
	-2.727002e-05	-4.623521e-05	0.05732383	-0.06391443	-2.089272e-05	-5.109596e-05	-0.0279135	-0.01885907
	-0.02772507	-0.02147474	-2.089272e-05	-5.109596e-05	0.05773258	-0.06241226	-8.449134e-06	-2.601992e-05
	-2.64633e-05	-7.874582e-05	-0.0279135	-0.01885907	-8.449134e-06	-2.601992e-05	0.05685989	-0.06375951
3.7e+08	0.04423749	-0.0699498	-4.224715e-05	-3.848815e-05	-0.03293324	-0.005597792	-4.523884e-05	-6.614856e-05
	-4.224715e-05	-3.848815e-05	0.04312546	-0.07061024	-3.598357e-05	-4.025152e-05	-0.0328603	-0.002869364
	-0.03293324	-0.005597792	-3.598357e-05	-4.025152e-05	0.04359917	-0.06914405	-1.745398e-05	-2.257113e-05
	-4.523884e-05	-6.614856e-05	-0.0328603	-0.002869364	-1.745398e-05	-2.257113e-05	0.04254717	-0.07027346
3.8e+08	0.02831007	-0.07240529	-5.51649e-05	-2.607849e-05	-0.03316558	0.01133944	-6.033057e-05	-4.828726e-05
	-5.51649e-05	-2.607849e-05	0.02716012	-0.07279412	-4.825809e-05	-2.517474e-05	-0.0328149	0.01409994
	-0.03316558	0.01133944	-4.825809e-05	-2.517474e-05	0.02767521	-0.07138492	-2.575093e-05	-1.631771e-05
	-6.033057e-05	-4.828726e-05	-0.0328149	0.01409994	-2.575093e-05	-1.631771e-05	0.0265232	-0.07224112
3.9e+08	0.01199654	-0.06989344	-6.452985e-05	-9.642159e-06	-0.02826857	0.02778465	-7.020112e-05	-2.632672e-05
	-6.452985e-05	-9.642159e-06	0.01089897	-0.07000299	-5.644246e-05	-6.676434e-06	-0.02764933	0.03049268
	-0.02826857	0.02778465	-5.644246e-05	-6.676434e-06	0.01142453	-0.06866305	-3.24089e-05	-7.431263e-06
	-7.020112e-05	-2.632672e-05	-0.02764933	0.03049268	-3.24089e-05	-7.431263e-06	0.01026948	-0.06921838
4e+08	-0.003119478	-0.06240739	-6.908165e-05	9.699426e-06	-0.01857038	0.04219142	-7.370249e-05	-1.892281e-06
	-6.908165e-05	9.699426e-06	-0.00407339	-0.06226003	-5.95084e-05	1.402478e-05	-0.01771794	0.04476676
	-0.01857038	0.04219142	-5.95084e-05	1.402478e-05	-0.003571961	-0.06098918	-3.655244e-05	3.584642e-06
	-7.370249e-05	-1.892281e-06	-0.01771794	0.04476676	-3.655244e-05	3.584642e-06	-0.00462567	-0.06124908
4.1e+08	-0.01549373	-0.05044981	-6.79496e-05	3.044729e-05	-0.004864126	0.05316885	-7.021403e-05	2.308628e-05
	-6.79496e-05	3.044729e-05	-0.01622218	-0.05009746	-5.681607e-05	3.538904e-05	-0.003838098	0.05554381
	-0.004864126	0.05316885	-5.681607e-05	3.538904e-05	-0.0157777	-0.04888336	-3.748768e-05	1.59356e-05
	-7.021403e-05	2.308628e-05	-0.003838098	0.05554381	-3.748768e-05	1.59356e-05	-0.01662998	-0.04888789
4.2e+08	-0.02378498	-0.03500495	-6.075169e-05	5.086573e-05	0.01165709	0.05962279	-5.971858e-05	4.654292e-05
	-6.075169e-05	5.086573e-05	-0.0242253	-0.03452461	-4.822078e-05	5.569363e-05	0.01277727	0.06174934
	0.01165709	0.05962279	-4.822078e-05	5.569363e-05	-0.02386522	-0.03334426	-3.479871e-05	2.860505e-05
	-5.971858e-05	4.654292e-05	0.01277727	0.06174934	-3.479871e-05	2.860505e-05	-0.02443174	-0.03316523
4.3e+08	-0.02700693	-0.0174561	-4.764123e-05	6.915075e-05	0.02950928	0.06087003	-4.280933e-05	6.647509e-05
	-4.764123e-05	6.915075e-05	-0.027123	-0.01694236	-3.411411e-05	7.32009e-05	0.03063098	0.06272559
	0.02950928	0.06087003	-3.411411e-05	7.32009e-05	-0.02686609	-0.01576434	-2.841178e-05	4.046804e-05
	-4.280933e-05	6.647509e-05	0.03063098	0.06272559	-2.841178e-05	4.046804e-05	-0.02708811	-0.01549876
4.4e+08	-0.02464311	0.0005427359	-2.929698e-05	8.358922e-05	0.04705903	0.05671341	-2.063773e-05	8.112007e-05
	-2.929698e-05	8.358922e-05	-0.02442961	0.0009870978	-1.541399e-05	8.634192e-05	0.04808447	0.05830424
	0.04705903	0.05671341	-1.541399e-05	8.634192e-05	-0.02428391	0.00219871	-1.860872e-05	5.040923e-05
	-2.063773e-05	8.112007e-05	0.04808447	0.05830424	-1.860872e-05	5.040923e-05	-0.02413509	0.00243797
4.5e+08	-0.0167166	0.01722529	-6.865628e-06	9.269582e-05	0.06268397	0.04746668	5.176681e-06	8.909349e-05
	-6.865628e-06	9.269582e-05	-0.01619986	0.01749925	6.518575e-06	9.387375e-05	0.06351927	0.04882899
	0.06268397	0.04746668	6.518575e-06	9.387375e-05	-0.01616232	0.01878211	-5.996091e-06	5.743617e-05
	5.176681e-06	8.909349e-05	0.06351927	0.04882899	-5.996091e-06	5.743617e-05	-0.01565223	0.01887691
4.6e+08	-0.003806126	0.03088899	1.810862e-05	9.532414e-05	0.07493231	0.0339254	3.267724e-05	8.95023e-05
	1.810862e-05	9.532414e-05	-0.003042081	0.03090243	3.00131e-05	9.49946e-05	0.07549662	0.03512337
	0.07493231	0.0339254	3.00131e-05	9.49946e-05	-0.003098355	0.03229339	8.546332e-06	6.076214e-05
	3.267724e-05	8.95023e-05	0.07549662	0.03512337	8.546332e-06	6.076214e-05	-0.002272719	0.03213124
4.7e+08	0.0129933	0.04006807	4.377911e-05	9.075811e-05	0.08266397	0.01728793	5.971505e-05	8.201247e-05
	4.377911e-05	9.075811e-05	0.01392351	0.03974972	5.322619e-05	8.940365e-05	0.08289779	0.01840913
	0.08266397	0.01728793	5.322619e-05	8.940365e-05	0.0137988	0.04128068	2.394268e-05	5.986572e-05
	5.971505e-05	8.201247e-05	0.08289779	0.01840913	2.394268e-05	5.986572e-05	0.0148608	0.0407651
4.8e+08	0.03216323	0.04368381	6.809634e-05	7.878587e-05	0.08515619	-0.0009629137	8.408405e-05	6.687902e-05
	6.809634e-05	7.878587e-05	0.03315916	0.04298742	7.430045e-05	7.731736e-05	0.0850281	0.0001853139
