!$
! Info: Touchstone file created by Circ.  Input file=Intel_C2M_200G_9p5in_202208016_staggered.circ
!$
# Hz S RI R 50
0	0.02542935	9.042542e-24	-0.0001158069	1.418225e-20	0.0003590326	8.824992e-22	-0.0001115455	1.366038e-20
	-0.000115807	1.418226e-20	0.02487719	5.048757e-24	-0.0001228765	1.504803e-20	0.0001366057	3.310241e-22
	0.000359099	8.831218e-22	-0.0001228766	1.504804e-20	0.02543058	9.26601e-24	-0.0001158322	1.418535e-20
	-0.0001115455	1.366038e-20	0.0001366627	3.311475e-22	-0.0001158321	1.418534e-20	0.02487516	4.775968e-24
1e+07	0.03073324	-0.00480399	-0.0007009137	-2.458553e-05	0.001785513	0.007627604	-6.534863e-05	-0.0001110322
	-0.0007009137	-2.458553e-05	0.03030003	-0.005429805	-0.0009878898	0.0001940776	0.002359707	0.007569531
	0.001785513	0.007627604	-0.0009878898	0.0001940776	0.03034561	-0.004657469	-0.0005140651	-5.1562e-05
	-6.534863e-05	-0.0001110322	0.002359707	0.007569531	-0.0005140651	-5.1562e-05	0.03010724	-0.005397693
2e+07	0.03259888	-0.01491607	-0.0006441604	-0.0003479471	0.004615451	0.01430833	-9.47346e-05	-0.0001744617
	-0.0006441603	-0.0003479471	0.03289577	-0.01617682	-0.0009123491	-6.245253e-05	0.00581673	0.01378774
	0.004615536	0.01430822	-0.0009123491	-6.245249e-05	0.03242248	-0.01454361	-0.000501037	-0.0002472531
	-9.473459e-05	-0.0001744617	0.005816737	0.01378773	-0.000501037	-0.0002472531	0.03275699	-0.01604542
3e+07	0.02966113	-0.02649027	-0.0006470366	-0.000479144	0.008846565	0.01996248	-0.0001432644	-0.0002290806
	-0.0006470366	-0.000479144	0.03156624	-0.02876721	-0.0008527824	-0.0001294993	0.01090112	0.01882573
	0.008846541	0.01996245	-0.0008527825	-0.0001294993	0.02966688	-0.02605947	-0.0005352578	-0.0003454457
	-0.0001432644	-0.0002290806	0.01090111	0.01882577	-0.0005352578	-0.0003454457	0.03147655	-0.02858084
4e+07	0.02303889	-0.03691311	-0.0006907086	-0.0005570474	0.0141092	0.02438928	-0.0002241479	-0.000261153
	-0.0006907086	-0.0005570474	0.02671901	-0.04115359	-0.0008098824	-0.0001778633	0.01723687	0.02212411
	0.01410921	0.02438928	-0.0008098824	-0.0001778633	0.0231964	-0.03648511	-0.0005989158	-0.0003998724
	-0.0002241479	-0.000261153	0.01723688	0.02212414	-0.0005989159	-0.0003998724	0.02668485	-0.04093642
5e+07	0.01352414	-0.04516955	-0.0007605788	-0.0005978722	0.02007382	0.02737786	-0.0003143416	-0.0002743754
	-0.0007605788	-0.0005978721	0.01893819	-0.05225089	-0.0007875406	-0.000230876	0.02428058	0.02344823
	0.02007383	0.02737788	-0.0007875406	-0.000230876	0.0138047	-0.04478422	-0.0006806178	-0.0004206479
	-0.0003143416	-0.0002743754	0.02428058	0.02344824	-0.0006806178	-0.0004206479	0.01895851	-0.05202121
6e+07	0.00198063	-0.05050726	-0.0008459534	-0.0006066034	0.02634257	0.02883974	-0.0004099543	-0.0002678329
	-0.0008459534	-0.0006066034	0.008818097	-0.06136929	-0.0007937828	-0.0002926731	0.03146133	0.0226803
	0.02634256	0.02883974	-0.0007937828	-0.0002926731	0.002353469	-0.05019183	-0.0007711794	-0.0004112716
	-0.0004099543	-0.0002678329	0.03146134	0.02268028	-0.0007711793	-0.0004112716	0.00888873	-0.0611427
7e+07	-0.01060964	-0.05249056	-0.0009833337	-0.000530094	0.03251917	0.02879747	-0.0005059459	-0.0002404105
	-0.0009833338	-0.000530094	-0.00298575	-0.06801995	-0.0008351532	-0.000357793	0.03819624	0.01986318
	0.03251917	0.02879747	-0.0008351532	-0.000357793	-0.01017761	-0.05226208	-0.0008629274	-0.0003744112
	-0.0005059459	-0.0002404105	0.03819624	0.01986317	-0.0008629274	-0.0003744112	-0.002871914	-0.06781033
8e+07	-0.02324118	-0.05099424	-0.001148608	-0.0003447283	0.03823769	0.02737466	-0.0005979508	-0.0001926119
	-0.001148608	-0.0003447283	-0.01575711	-0.07191759	-0.0009158319	-0.0004157597	0.04394032	0.01519389
	0.03823769	0.02737466	-0.0009158319	-0.0004157597	-0.02278442	-0.05086068	-0.000949294	-0.0003128665
	-0.0005979508	-0.0001926119	0.04394032	0.01519389	-0.000949294	-0.0003128664	-0.01560994	-0.07173663
9e+07	-0.03495311	-0.04616653	-0.001264403	-0.0001228975	0.04318886	0.02478089	-0.0006840138	-0.0001247479
	-0.001264403	-0.0001228975	-0.02876644	-0.07297913	-0.001036846	-0.0004530128	0.0482251	0.00900374
	0.04318886	0.02478089	-0.001036846	-0.0004530128	-0.03450649	-0.04612635	-0.00103359	-0.0002084604
	-0.0006840138	-0.0001247479	0.04822511	0.009003743	-0.00103359	-0.0002084603	-0.02859902	-0.07283552
1e+08	-0.04483562	-0.03837988	-0.001306594	0.0001292918	0.04714043	0.02128668	-0.0007583914	-3.789684e-05
	-0.001306594	0.0001292918	-0.04127052	-0.07128225	-0.001188617	-0.0004547087	0.05068942	0.001727887
	0.04714043	0.02128668	-0.001188617	-0.0004547087	-0.04444135	-0.03842533	-0.001104101	-2.769093e-05
	-0.0007583914	-3.789684e-05	0.05068942	0.001727886	-0.001104101	-2.769095e-05	-0.04109879	-0.07118119
1.1e+08	-0.05225053	-0.02850217	-0.001289949	0.0003168447	0.04991327	0.01720028	-0.0008224491	6.174956e-05
	-0.001289949	0.0003168447	-0.05275359	-0.06740496	-0.001372159	-0.0003946417	0.0510729	-0.006133255
	0.04991327	0.01720028	-0.001372159	-0.0003946417	-0.05193324	-0.02855617	-0.001135798	0.0001262628
	-0.0008224491	6.174956e-05	0.05107289	-0.006133255	-0.001135798	0.0001262628	-0.05259706	-0.06740127
1.2e+08	-0.05691019	-0.01699475	-0.001276457	0.0005005307	0.05145112	0.01288463	-0.0008767319	0.0001796308
	-0.001276457	0.0005005307	-0.06292915	-0.06142003	-0.001572013	-0.0002771321	0.04929126	-0.01395381
	0.05145112	0.01288463	-0.001572013	-0.0002771321	-0.05664866	-0.01704664	-0.001161966	0.0002848355
	-0.0008767319	0.0001796308	0.04929126	-0.01395381	-0.001161966	0.0002848355	-0.06283261	-0.06145474
1.3e+08	-0.05841648	-0.004617316	-0.001246192	0.0006871315	0.05178738	0.008667436	-0.0009209145	0.0003152873
	-0.001246192	0.0006871315	-0.07132717	-0.0537387	-0.001765942	-9.53339e-05	0.0454196	-0.02118778
	0.05178738	0.008667436	-0.001765942	-9.53339e-05	-0.0582053	-0.004657098	-0.00117172	0.0004511366
	-0.0009209145	0.0003152873	0.0454196	-0.02118778	-0.00117172	0.0004511366	-0.07128624	-0.0537777
1.4e+08	-0.05664718	0.007796027	-0.001193959	0.0008758033	0.05102906	0.004851884	-0.0009416738	0.0004668211
	-0.001193959	0.0008758033	-0.07767193	-0.04485572	-0.001933483	0.0001502353	0.03966019	-0.02731623
	0.05102906	0.004851885	-0.001933483	0.0001502353	-0.05648165	0.007780727	-0.001161886	0.0006243196
	-0.0009416738	0.0004668211	0.03966019	-0.02731623	-0.001161886	0.0006243196	-0.07767774	-0.04488893
1.5e+08	-0.05170737	0.01941655	-0.001116404	0.001064194	0.04935048	0.001699248	-0.0009354341	0.0006299931
	-0.001116404	0.001064194	-0.08182653	-0.03529306	-0.002055427	0.0004526943	0.03233506	-0.03188244
	0.04935048	0.001699248	-0.002055427	0.0004526943	-0.05158058	0.01943906	-0.001129927	0.0008029629
	-0.0009354341	0.0006299931	0.03233506	-0.03188244	-0.001129927	0.0008029629	-0.08187768	-0.03531788
1.6e+08	-0.04391144	0.02947789	-0.001011225	0.001248818	0.04698085	-0.0005832033	-0.000899378	0.0007997058
	-0.001011225	0.001248818	-0.08378425	-0.02556814	-0.002115568	0.000799463	0.02386907	-0.03451922
	0.04698085	-0.0005832029	-0.002115568	0.000799463	-0.04381287	0.02955109	-0.001073492	0.0009850246
	-0.000899378	0.0007997058	0.02386907	-0.03451922	-0.001073492	0.0009850246	-0.08388537	-0.02558097
1.7e+08	-0.03375617	0.03732635	-0.0008769662	0.001425423	0.0441901	-0.001853105	-0.000831637	0.0009702625
	-0.0008769662	0.001425423	-0.08365845	-0.01616542	-0.002102284	0.001173647	0.01476676	-0.03497073
	0.0441901	-0.001853105	-0.002102284	0.001173647	-0.03367164	0.03746065	-0.0009902627	0.001167773
	-0.000831637	0.0009702625	0.01476676	-0.03497073	-0.0009902627	0.001167773	-0.08381594	-0.01615774
1.8e+08	-0.02188372	0.04246173	-0.0007131794	0.001589117	0.04127394	-0.002039301	-0.0007315088	0.001135523
	-0.0007131794	0.001589117	-0.08166726	-0.007509327	-0.002009421	0.001555918	0.005585155	-0.03310886
	0.04127394	-0.002039301	-0.002009421	0.001555918	-0.0217965	0.0426637	-0.0008782017	0.001347737
	-0.0007315088	0.001135523	0.005585155	-0.03310886	-0.0008782017	0.001347737	-0.08188568	-0.007467716
1.9e+08	-0.009037855	0.04456694	-0.0005204118	0.001734628	0.03853697	-0.0011463	-0.000599566	0.001289233
	-0.0005204118	0.001734628	-0.07811308	5.715491e-05	-0.001836303	0.001926685	-0.003096949	-0.02894391
	0.03853697	-0.001146299	-0.001836303	0.001926685	-0.008929392	0.04483924	-0.0007355811	0.001520548
	-0.000599566	0.001289233	-0.003096949	-0.02894391	-0.0007355811	0.001520548	-0.07839239	0.0001497037
2e+08	0.003988066	0.04352786	-0.0003010558	0.001854858	0.03627434	0.0007441156	-0.0004376507	0.001425321
	-0.0003010558	0.001854858	-0.0733561	0.006289729	-0.001542786	0.002294298	-0.0107121	-0.02262757
	0.03627434	0.0007441157	-0.001542786	0.002294298	0.004137103	0.04386846	-0.0005629223	0.001680142
	-0.0004376507	0.001425321	-0.0107121	-0.02262757	-0.0005629223	0.001680142	-0.07369106	0.006450588
2.1e+08	0.0164034	0.03943872	-5.775851e-05	0.001946467	0.03475399	0.003476241	-0.0002488684	0.001538033
	-5.775851e-05	0.001946467	-0.06778542	0.01104937	-0.001179798	0.002602039	-0.016738	-0.01444881
	0.03475399	0.003476241	-0.001179798	0.002602039	0.01661206	0.03984016	-0.0003586437	0.001822255
	-0.0002488684	0.001538033	-0.016738	-0.01444881	-0.0003586437	0.001822255	-0.06816471	0.01129591
2.2e+08	0.02747591	0.03259293	0.0002055695	0.002004638	0.03419699	0.006827837	-3.741427e-05	0.001622439
	0.0002055695	0.002004638	-0.06178902	0.01430466	-0.0007634487	0.00283786	-0.02073046	-0.00482145
	0.03419699	0.006827837	-0.0007634487	0.00283786	0.02776078	0.03304315	-0.0001235803	0.001940393
	-3.741427e-05	0.001622439	-0.02073045	-0.00482145	-0.0001235803	0.001940393	-0.06219573	0.01465091
2.3e+08	0.03658018	0.02346103	0.0004838828	0.002025191	0.03476119	0.01052275	0.0001916326	0.001674606
	0.0004838828	0.002025191	-0.05572448	0.01612204	-0.0003115858	0.00299487	-0.02235372	0.005736403
	0.03476119	0.01052275	-0.0003115858	0.00299487	0.03695503	0.02394375	0.000139868	0.002027744
	0.0001916326	0.001674606	-0.02235372	0.005736403	0.000139868	0.002027744	-0.05613793	0.01657742
2.4e+08	0.0432419	0.01265566	0.000771341	0.002004854	0.03652745	0.01424914	0.0004326252	0.001691711
	0.000771341	0.002004854	-0.04989445	0.01664941	0.0001583032	0.003071294	-0.02140483	0.01663051
	0.03652745	0.01424914	0.0001583032	0.003071294	0.04371611	0.01315143	0.0004276233	0.002077552
	0.0004326252	0.001691711	-0.02140483	0.01663051	0.0004276233	0.002077552	-0.05029079	0.01721801
2.5e+08	0.04716872	0.0008853779	0.001061257	0.001941496	0.03949093	0.0176807	0.0006796987	0.001672057
	0.001061257	0.001941496	-0.04452805	0.0160933	0.0006305331	0.003069609	-0.01783101	0.02722521
	0.03949093	0.0176807	0.0006305331	0.003069609	0.0477467	0.001372267	0.0007338048	0.002083705
	0.0006796987	0.001672057	-0.01783101	0.02722521	0.0007338048	0.002083705	-0.04488281	0.01677275
2.6e+08	0.04826799	-0.01109799	0.001346563	0.001834259	0.04355927	0.02050099	0.0009269175	0.001615113
	0.001346563	0.001834259	-0.03977161	0.01469158	0.001092284	0.002995392	-0.01173808	0.03688215
	0.04355927	0.02050099	0.001092284	0.002995392	0.0489484	-0.01064257	0.001050909	0.002041192
	0.0009269175	0.001615113	-0.01173808	0.03688215	0.001050909	0.002041192	-0.04006053	0.01547352
2.7e+08	0.04664994	-0.02255497	0.001620092	0.001683687	0.04855812	0.0224281	0.001168675	0.001521231
	0.001620092	0.001683687	-0.03568765	0.01268558	0.001533981	0.002855843	-0.003387104	0.04499978
	0.04855812	0.0224281	0.001533981	0.002855843	0.04742619	-0.02215282	0.0013701	0.001946625
	0.001168675	0.001521231	-0.003387104	0.04499978	0.0013701	0.001946625	-0.03588863	0.01355557
2.8e+08	0.04261476	-0.03281184	0.001874933	0.001491691	0.0542435	0.02323544	0.001399641	0.001391624
	0.001874933	0.001491691	-0.03226289	0.01029354	0.001949326	0.002658253	0.00681787	0.05105226
	0.0542435	0.02323544	0.001949326	0.002658253	0.04347472	-0.03248237	0.00168165	0.001798648
	0.001399641	0.001391624	0.00681787	0.05105226	0.00168165	0.001798648	-0.03235772	0.01123172
2.9e+08	0.03662525	-0.0413076	0.002104706	0.001261399	0.06032023	0.02276961	0.001614996	0.001228105
	0.002104706	0.001261399	-0.02942496	0.007689772	0.002334436	0.002408975	0.01835239	0.05462284
	0.06032023	0.02276961	0.002334436	0.002408975	0.03755229	-0.04106703	0.001975607	0.001598043
	0.001614996	0.001228105	0.0183524	0.05462284	0.001975607	0.001598043	-0.02939983	0.008672064
3e+08	0.02926961	-0.04763245	0.002303887	0.0009969051	0.06646454	0.02096	0.001810376	0.00103293
	0.002303887	0.0009969051	-0.0270636	0.004990323	0.002686797	0.002112732	0.03060211	0.05543008
	0.06646454	0.02096	0.002686797	0.002112732	0.03024348	-0.04749205	0.0022423	0.001347799
	0.001810376	0.00103293	0.03060211	0.05543008	0.0022423	0.001347799	-0.02691042	0.005989628
3.1e+08	0.0212149	-0.05155234	0.002467931	0.0007029945	0.07234849	0.01782337	0.001981813	0.0008086031
	0.002467931	0.0007029945	-0.02505482	0.002247358	0.003004159	0.001772368	0.04289819	0.05334652
	0.07234849	0.01782337	0.003004159	0.001772368	0.02221302	-0.0515179	0.002472946	0.001052962
	0.001981813	0.0008086031	0.04289819	0.05334652	0.002472946	0.001052962	-0.02477137	0.003234554
3.2e+08	0.01315705	-0.05302081	0.002593242	0.0003847722	0.07766279	0.01345884	0.002125601	0.0005579801
	0.002593242	0.0003847722	-0.02328448	-0.0005486263	0.003283391	0.001389485	0.05455594	0.04840671
	0.07766279	0.01345884	0.003283391	0.001389485	0.01415635	-0.05309226	0.002660124	0.0007200972
	0.002125601	0.0005579801	0.05455594	0.04840671	0.002660124	0.0007200972	-0.02287592	0.0003967817
3.3e+08	0.005771159	-0.05217723	0.002677089	4.745529e-05	0.08213704	0.008038779	0.00223827	0.0002840572
	0.002677089	4.745529e-05	-0.02166987	-0.003458478	0.003519834	0.0009648959	0.06491317	0.04080597
	0.08213704	0.008038779	0.003519834	0.0009648959	0.006749622	-0.05234839	0.002798035	0.0003569425
	0.00223827	0.0002840572	0.06491317	0.04080597	0.002798035	0.0003569425	-0.02114761	-0.002583592
3.4e+08	-0.0003352532	-0.0493324	0.002717415	-0.0003037831	0.08555706	0.001794551	0.002316494	-9.863624e-06
	0.002717415	-0.0003037831	-0.02017565	-0.006578722	0.00370687	0.0005000904	0.07336785	0.0308911
	0.08555706	0.001794551	0.00370687	0.0005000904	0.000602646	-0.04959142	0.002882623	-2.810804e-05
	0.002316494	-9.863624e-06	0.07336785	0.0308911	0.002882623	-2.810804e-05	-0.01955787	-0.005800217
3.5e+08	-0.004663139	-0.04494316	0.002712598	-0.0006638643	0.08777496	-0.005001681	0.002356967	-0.0003200698
	0.002712598	-0.0006638643	-0.01882351	-0.01002103	0.003836249	-1.935266e-06	0.07941049	0.01914207
	0.08777496	-0.005001681	0.003836249	-1.935266e-06	-0.003781406	-0.04527402	0.002911482	-0.0004263945
	0.002356967	-0.0003200698	0.07941049	0.01914207	0.002911482	-0.0004263945	-0.01813391	-0.009361278
3.6e+08	-0.006853997	-0.03957924	0.002661335	-0.001027779	0.0887158	-0.01205445	0.002356539	-0.00064233
	0.002661335	-0.001027779	-0.01769479	-0.013891	0.003898603	-0.0005357683	0.0826531	0.006148108
	0.0887158	-0.01205445	0.003898603	-0.0005357683	-0.006038949	-0.03996167	0.002883776	-0.000829456
	0.002356539	-0.00064233	0.0826531	0.006148108	0.002883776	-0.000829456	-0.01696263	-0.0133668
3.7e+08	-0.006712606	-0.03388192	0.002562414	-0.001390433	0.08837905	-0.01906426	0.002312195	-0.0009718384
	0.002562414	-0.001390433	-0.01692678	-0.01826599	0.003884573	-0.001092753	0.08285139	-0.007422996
	0.08837905	-0.01906426	0.003884573	-0.001092753	-0.005968921	-0.03429398	0.002799898	-0.001229354
	0.002312195	-0.0009718384	0.08285139	-0.007422996	0.002799898	-0.001229354	-0.01618517	-0.01788777
3.8e+08	-0.004219023	-0.02852054	0.002414844	-0.001746318	0.08683552	-0.02574492	0.002221316	-0.001302856
	0.002414844	-0.001746318	-0.01670182	-0.02317686	0.003786055	-0.001660832	0.07991941	-0.02085855
	0.08683552	-0.02574492	0.003786055	-0.001660832	-0.003545002	-0.02894034	0.002661269	-0.001618596
	0.002221316	-0.001302856	0.07991941	-0.02085855	0.002661269	-0.001618596	-0.01598642	-0.02294796
3.9e+08	0.0004696777	-0.02414778	0.002217906	-0.002089445	0.08422178	-0.03183941	0.002081841	-0.001628865
	0.002217906	-0.002089445	-0.01723264	-0.02859216	0.003597459	-0.002225038	0.07393821	-0.03343811
	0.08422178	-0.03183941	0.003597459	-0.002225038	0.001081966	-0.02455349	0.00247006	-0.001990398
	0.002081841	-0.001628865	0.07393821	-0.03343811	0.00247006	-0.001990398	-0.01657995	-0.02850703
4e+08	0.007030572	-0.02135354	0.001971404	-0.002413147	0.08073036	-0.03713397	0.001892634	-0.001942445
	0.001971404	-0.002413147	-0.01874099	-0.03440698	0.003316726	-0.002768273	0.06515398	-0.04447242
	0.08073036	-0.03713397	0.003316726	-0.002768273	0.007595167	-0.02172747	0.002228883	-0.002338578
	0.001892634	-0.001942445	0.06515398	-0.04447242	0.002228883	-0.002338578	-0.01818637	-0.03445253
4.1e+08	0.01499616	-0.02062572	0.001675962	-0.002710072	0.07659825	-0.04146959	0.001653794	-0.002235456
	0.001675962	-0.002710072	-0.0214349	-0.04043897	0.002946369	-0.003272327	0.05396911	-0.05334092
	0.07659825	-0.04146959	0.002946369	-0.003272327	0.0155318	-0.02095421	0.00194084	-0.002657329
	0.001653794	-0.002235456	0.05396911	-0.05334092	0.00194084	-0.002657329	-0.02101122	-0.04059374
4.2e+08	0.02378354	-0.02231481	0.001333438	-0.002972247	0.07209298	-0.04475214	0.001367004	-0.00249927
	0.001333438	-0.002972247	-0.02548642	-0.04642965	0.002493321	-0.003719685	0.04092364	-0.05952807
	0.07209298	-0.04475214	0.002493321	-0.003719685	0.02431244	-0.02258999	0.001609191	-0.002941278
	0.001367004	-0.00249927	0.04092364	-0.05952807	0.001609191	-0.002941278	-0.02522169	-0.04666447
4.3e+08	0.03273529	-0.02660857	0.0009471741	-0.003191363	0.06749613	-0.04695696	0.001035567	-0.00272517
	0.0009471741	-0.003191363	-0.03100543	-0.05205345	0.00196914	-0.00409466	0.02666765	-0.06265385
	0.06749613	-0.04695696	0.00196914	-0.00409466	0.03328143	-0.02682936	0.00123745	-0.003185207
	0.001035567	-0.00272517	0.02666765	-0.06265385	0.00123745	-0.003185207	-0.03092091	-0.05233287
4.4e+08	0.04116332	-0.0335168	0.000522324	-0.003359112	0.06308555	-0.04813237	0.0006648537	-0.002904738
	0.000522324	-0.003359112	-0.03801904	-0.05693336	0.001388734	-0.004385011	0.01192752	-0.06249787
	0.06308555	-0.04813237	0.001388734	-0.004385011	0.041751	-0.03368909	0.0008296976	-0.003383851
	0.0006648537	-0.002904738	0.01192752	-0.06249787	0.0008296976	-0.003383851	-0.03812817	-0.0572166
4.5e+08	0.04839678	-0.04286843	6.594803e-05	-0.003467728	0.05911767	-0.04839721	0.000262099	-0.003030448
	6.594803e-05	-0.003467728	-0.04645419	-0.06066158	0.0007693146	-0.004582743	-0.002534615	-0.05901475
	0.05911767	-0.04839721	0.0007693146	-0.004582743	0.04904831	-0.04300506	0.0003904731	-0.003532023
	0.000262099	-0.003030448	-0.002534615	-0.05901475	0.0003904731	-0.003532023	-0.04676093	-0.06090483
4.6e+08	0.05383011	-0.0543224	-0.0004128977	-0.003510473	0.0558083	-0.04793396	-0.0001638831	-0.003096156
	-0.0004128977	-0.003510473	-0.05612506	-0.06282794	0.0001290866	-0.004684467	-0.0159638	-0.05233809
	0.0558083	-0.04793396	0.0001290866	-0.004684467	0.054564	-0.05444261	-7.502922e-05	-0.003624498
	-0.0001638831	-0.003096156	-0.0159638	-0.05233809	-7.502922e-05	-0.003624498	-0.05662309	-0.062987
4.7e+08	0.05696712	-0.06739026	-0.0009036122	-0.003482266	0.0533169	-0.04697615	-0.0006028664	-0.003097532
	-0.0009036122	-0.003482266	-0.06672761	-0.06305221	-0.0005146672	-0.00469133	-0.0276559	-0.04277402
	0.0533169	-0.04697615	-0.0005146672	-0.00469133	0.05779616	-0.06751841	-0.0005603188	-0.003656262
	-0.0006028664	-0.003097532	-0.0276559	-0.04277402	-0.0005603188	-0.003656262	-0.06740089	-0.06308343
4.8e+08	0.0574541	-0.08147162	-0.001394194	-0.003380153	0.05173399	-0.04579256	-0.001043905	-0.003032356
	-0.001394194	-0.003380153	-0.07784674	-0.06101527	-0.001146914	-0.00460822	-0.03699649	-0.03078349
	0.05173399	-0.04579256	-0.001146914	-0.00460822	0.0583851	-0.08163511	-0.001057916	-0.003622713
	-0.001043905	-0.003032356	-0.03699649	-0.03078349	-0.001057916	-0.003622713	-0.07866831	-0.0608796
4.9e+08	0.05510648	-0.09589467	-0.001871816	-0.003203704	0.05107315	-0.04466693	-0.001475757	-0.002900692
	-0.001871816	-0.003203704	-0.08896688	-0.05649277	-0.001755341	-0.004442571	-0.0434959	-0.0169552
