!$
! Info: Touchstone file created by Circ.  Input file=Intel_C2M_200G_9p5in_202208016_staggered.circ
!$
# Hz S RI R 50
0	0.02486424	4.883671e-24	9.434232e-05	1.421006e-22	0.000136986	3.332664e-22	9.427763e-05	1.418802e-22
	9.434232e-05	1.421006e-22	0.02487719	5.048757e-24	9.432594e-05	1.419994e-22	0.0001366057	3.310241e-22
	0.0001370429	3.333917e-22	9.432593e-05	1.42001e-22	0.02485915	4.648606e-24	9.429112e-05	1.417824e-22
	9.427761e-05	1.418819e-22	0.0001366627	3.311475e-22	9.429112e-05	1.417824e-22	0.02487516	4.775968e-24
1e+07	0.03064824	-0.005136818	1.839726e-05	8.504279e-06	0.002016705	0.00750038	4.014584e-06	2.420761e-05
	1.839726e-05	8.504279e-06	0.03030003	-0.005429805	5.836556e-05	7.200923e-06	0.002359707	0.007569531
	0.002016705	0.00750038	5.836556e-05	7.200923e-06	0.03105218	-0.005167759	2.493522e-05	2.827953e-05
	4.014584e-06	2.420761e-05	0.002359707	0.007569531	2.493522e-05	2.827953e-05	0.03010724	-0.005397693
2e+07	0.03350645	-0.01586932	9.397079e-06	2.571826e-05	0.005518753	0.01377738	4.88005e-06	7.020485e-06
	9.397079e-06	2.571825e-05	0.03289577	-0.01617682	4.117427e-05	2.49644e-05	0.00581673	0.01378774
	0.00551876	0.01377737	4.117427e-05	2.49644e-05	0.03374679	-0.01602794	1.913737e-05	2.300796e-05
	4.88005e-06	7.020485e-06	0.005816737	0.01378773	1.913737e-05	2.300795e-05	0.03275699	-0.01604542
3e+07	0.03237124	-0.02855252	2.922674e-05	2.856997e-05	0.01063687	0.01881017	6.575622e-06	2.577965e-06
	2.922674e-05	2.856997e-05	0.03156624	-0.02876721	3.246312e-05	3.856054e-05	0.01090112	0.01882573
	0.01063685	0.01881021	3.246311e-05	3.856054e-05	0.0324982	-0.02868752	1.637496e-05	2.317528e-05
	6.575624e-06	2.577965e-06	0.01090111	0.01882577	1.637496e-05	2.317528e-05	0.03147655	-0.02858084
4e+07	0.02766608	-0.04108544	4.454806e-05	2.339081e-05	0.01700067	0.02209076	8.530977e-06	8.902181e-07
	4.454806e-05	2.339081e-05	0.02671901	-0.04115359	2.713595e-05	4.586516e-05	0.01723687	0.02212411
	0.01700068	0.02209078	2.713595e-05	4.586516e-05	0.02772401	-0.04116279	1.497935e-05	2.352462e-05
	8.530978e-06	8.902173e-07	0.01723688	0.02212414	1.497935e-05	2.352462e-05	0.02668485	-0.04093642
5e+07	0.01997767	-0.05236253	5.52261e-05	1.353435e-05	0.02406937	0.02339302	1.079481e-05	2.445774e-07
	5.52261e-05	1.353435e-05	0.01893819	-0.05225089	4.320466e-05	3.657445e-05	0.02428058	0.02344823
	0.02406937	0.02339303	4.320466e-05	3.657445e-05	0.01999988	-0.05236994	2.077343e-05	1.86153e-05
	1.079481e-05	2.445768e-07	0.02428058	0.02344824	2.077343e-05	1.86153e-05	0.01895851	-0.05202121
6e+07	0.009901074	-0.06167954	6.158154e-05	1.287139e-06	0.03127456	0.02260265	1.240423e-05	-1.228537e-06
	6.158154e-05	1.287139e-06	0.008818097	-0.06136929	5.398727e-05	2.384512e-05	0.03146133	0.0226803
	0.03127456	0.02260263	5.398727e-05	2.384512e-05	0.009915402	-0.06161678	2.498084e-05	1.256013e-05
	1.240422e-05	-1.228536e-06	0.03146134	0.02268028	2.498084e-05	1.256013e-05	0.00888873	-0.0611427
7e+07	-0.001907033	-0.0685358	6.378564e-05	-1.197052e-05	0.03803578	0.01976375	1.335914e-05	-3.182891e-06
	6.378564e-05	-1.197052e-05	-0.00298575	-0.06801995	5.955363e-05	9.315177e-06	0.03819624	0.01986318
	0.03803578	0.01976374	5.955363e-05	9.315177e-06	-0.001878762	-0.06841107	2.723289e-05	6.017125e-06
	1.335914e-05	-3.182891e-06	0.03819624	0.01986317	2.723289e-05	6.017125e-06	-0.002871914	-0.06781033
8e+07	-0.01472906	-0.0726362	6.20907e-05	-2.521713e-05	0.04381051	0.01507322	1.366785e-05	-5.394148e-06
	6.20907e-05	-2.521713e-05	-0.01575711	-0.07191759	6.007696e-05	-5.739677e-06	0.04394032	0.01519389
	0.04381051	0.01507322	6.007696e-05	-5.739677e-06	-0.01467102	-0.07246261	2.759231e-05	-6.158608e-07
	1.366785e-05	-5.394148e-06	0.04394032	0.01519389	2.759231e-05	-6.158609e-07	-0.01560994	-0.07173663
9e+07	-0.02783518	-0.07388967	5.67337e-05	-3.766425e-05	0.04813271	0.008861456	1.336247e-05	-7.643448e-06
	5.67337e-05	-3.766425e-05	-0.02876644	-0.07297913	5.593542e-05	-2.005815e-05	0.0482251	0.00900374
	0.04813272	0.008861459	5.593542e-05	-2.005815e-05	-0.02773683	-0.07368208	2.612849e-05	-6.931999e-06
	1.336247e-05	-7.643448e-06	0.04822511	0.009003743	2.612849e-05	-6.932e-06	-0.02859902	-0.07283552
1e+08	-0.04049615	-0.07237236	4.691073e-05	-4.905296e-05	0.0506429	0.001562378	1.241218e-05	-9.745072e-06
	4.691073e-05	-4.905295e-05	-0.04127052	-0.07128225	4.617554e-05	-3.32463e-05	0.05068942	0.001727887
	0.0506429	0.001562377	4.617554e-05	-3.32463e-05	-0.04034421	-0.07214234	2.250914e-05	-1.272449e-05
	1.241218e-05	-9.745072e-06	0.05068942	0.001727886	2.250914e-05	-1.272449e-05	-0.04109879	-0.07118119
1.1e+08	-0.05217533	-0.06856588	3.463687e-05	-5.261116e-05	0.05108749	-0.006328664	1.153425e-05	-1.124617e-05
	3.463687e-05	-5.261116e-05	-0.05275359	-0.06740496	3.337082e-05	-3.698498e-05	0.0510729	-0.006133255
	0.05108749	-0.006328665	3.337082e-05	-3.698498e-05	-0.05197056	-0.06842618	1.778508e-05	-1.522768e-05
	1.153425e-05	-1.124617e-05	0.05107289	-0.006133255	1.778508e-05	-1.522768e-05	-0.05259706	-0.06740127
1.2e+08	-0.0625096	-0.06261513	2.507838e-05	-5.411279e-05	0.04937594	-0.0141949	1.116193e-05	-1.284392e-05
	2.507838e-05	-5.411279e-05	-0.06292915	-0.06142003	2.387851e-05	-3.798277e-05	0.04929126	-0.01395381
	0.04937594	-0.0141949	2.387851e-05	-3.798277e-05	-0.06232267	-0.06252508	1.39775e-05	-1.689254e-05
	1.116193e-05	-1.284392e-05	0.04929126	-0.01395381	1.39775e-05	-1.689254e-05	-0.06283261	-0.06145474
1.3e+08	-0.07104911	-0.05494672	1.852888e-05	-5.421742e-05	0.04557875	-0.02149243	1.016324e-05	-1.485455e-05
	1.852888e-05	-5.421742e-05	-0.07132717	-0.0537387	1.575432e-05	-3.770265e-05	0.0454196	-0.02118778
	0.04557875	-0.02149243	1.575432e-05	-3.770265e-05	-0.07089102	-0.05487945	1.040054e-05	-1.807634e-05
	1.016324e-05	-1.485455e-05	0.0454196	-0.02118778	1.040054e-05	-1.807634e-05	-0.07128624	-0.0537777
1.4e+08	-0.07752219	-0.04606003	1.431743e-05	-5.372132e-05	0.03989323	-0.02770416	8.405032e-06	-1.707341e-05
	1.431743e-05	-5.372132e-05	-0.07767193	-0.04485572	8.508682e-06	-3.655487e-05	0.03966019	-0.02731623
	0.03989323	-0.02770416	8.508682e-06	-3.655487e-05	-0.07739656	-0.04600796	6.895053e-06	-1.885087e-05
	8.405032e-06	-1.707341e-05	0.03966019	-0.02731623	6.895053e-06	-1.885087e-05	-0.07767774	-0.04488893
1.5e+08	-0.08179343	-0.03647956	9.450787e-06	-5.315917e-05	0.03263588	-0.03237392	5.971904e-06	-1.918157e-05
	9.450787e-06	-5.315917e-05	-0.08182653	-0.03529306	2.064751e-06	-3.463916e-05	0.03233506	-0.03188244
	0.03263588	-0.03237392	2.064751e-06	-3.463916e-05	-0.08170925	-0.03643927	3.371694e-06	-1.924574e-05
	5.971904e-06	-1.918157e-05	0.03233506	-0.03188244	3.371694e-06	-1.924574e-05	-0.08187768	-0.03531788
1.6e+08	-0.0838564	-0.0267243	3.981637e-06	-5.228267e-05	0.02422578	-0.03513353	2.841971e-06	-2.100439e-05
	3.981637e-06	-5.228267e-05	-0.08378425	-0.02556814	-3.708133e-06	-3.21186e-05	0.02386907	-0.03451922
	0.02422578	-0.03513353	-3.708133e-06	-3.21186e-05	-0.0838266	-0.02668905	-2.144994e-07	-1.924088e-05
	2.841971e-06	-2.100439e-05	0.02386907	-0.03451922	-2.144994e-07	-1.924088e-05	-0.08388537	-0.02558097
1.7e+08	-0.08382407	-0.01728004	-2.142859e-06	-5.083808e-05	0.01516179	-0.03572454	-9.900528e-07	-2.234273e-05
	-2.142859e-06	-5.083808e-05	-0.08365845	-0.01616542	-7.90045e-06	-2.921339e-05	0.01476676	-0.03497073
	0.01516179	-0.03572454	-7.90045e-06	-2.921339e-05	-0.08386121	-0.01723659	-3.679924e-06	-1.881593e-05
	-9.900528e-07	-2.234273e-05	0.01476676	-0.03497073	-3.679923e-06	-1.881593e-05	-0.08381594	-0.01615774
1.8e+08	-0.08191369	-0.008572664	-8.736293e-06	-4.853452e-05	0.005995891	-0.0340146	-5.456244e-06	-2.297738e-05
	-8.736293e-06	-4.853452e-05	-0.08166726	-0.007509327	-1.13669e-05	-2.598416e-05	0.005585155	-0.03310886
	0.005995891	-0.0340146	-1.13669e-05	-2.598416e-05	-0.08202627	-0.008501869	-6.987095e-06	-1.789725e-05
	-5.456244e-06	-2.297738e-05	0.005585155	-0.03310886	-6.987095e-06	-1.789725e-05	-0.08188568	-0.007467716
1.9e+08	-0.07842658	-0.0009469326	-1.551828e-05	-4.517241e-05	-0.002697106	-0.03000821	-1.037346e-05	-2.272154e-05
	-1.551828e-05	-4.517241e-05	-0.07811308	5.715491e-05	-1.478623e-05	-2.230664e-05	-0.003096949	-0.02894391
	-0.002697106	-0.03000821	-1.478623e-05	-2.230664e-05	-0.07861647	-0.0008257589	-1.043046e-05	-1.636307e-05
	-1.037346e-05	-2.272154e-05	-0.003096949	-0.02894391	-1.043046e-05	-1.636307e-05	-0.07839239	0.0001497037
2e+08	-0.07372197	0.005350634	-2.224067e-05	-4.060068e-05	-0.01035221	-0.02385003	-1.555748e-05	-2.141721e-05
	-2.224067e-05	-4.060068e-05	-0.0733561	0.006289729	-1.803881e-05	-1.81305e-05	-0.0107121	-0.02262757
	-0.01035221	-0.02385003	-1.803881e-05	-1.81305e-05	-0.07398388	0.005545369	-1.387324e-05	-1.41563e-05
	-1.555748e-05	-2.141721e-05	-0.0107121	-0.02262757	-1.387324e-05	-1.41563e-05	-0.07369106	0.006450588
2.1e+08	-0.06818827	0.01017833	-2.861895e-05	-3.472837e-05	-0.01644762	-0.01582118	-2.077597e-05	-1.894452e-05
	-2.861895e-05	-3.472837e-05	-0.06778542	0.01104937	-2.101964e-05	-1.343257e-05	-0.016738	-0.01444881
	-0.01644762	-0.01582118	-2.101964e-05	-1.343257e-05	-0.06850928	0.01046915	-1.716807e-05	-1.124477e-05
	-2.077597e-05	-1.894452e-05	-0.016738	-0.01444881	-1.716807e-05	-1.124477e-05	-0.06816471	0.01129591
2.2e+08	-0.06221356	0.01350179	-3.432945e-05	-2.753323e-05	-0.02053744	-0.006327347	-2.575841e-05	-1.523671e-05
	-3.432945e-05	-2.753323e-05	-0.06178902	0.01430466	-2.360535e-05	-8.204748e-06	-0.02073046	-0.00482145
	-0.02053744	-0.006327346	-2.360535e-05	-8.204748e-06	-0.06257382	0.01390688	-2.016137e-05	-7.623638e-06
	-2.575841e-05	-1.523671e-05	-0.02073045	-0.00482145	-2.016137e-05	-7.623638e-06	-0.06219573	0.01465091
2.3e+08	-0.05615624	0.01538445	-3.903241e-05	-1.907416e-05	-0.02228195	0.004121118	-3.020859e-05	-1.028879e-05
	-3.903241e-05	-1.907416e-05	-0.05572448	0.01612204	-2.566606e-05	-2.458361e-06	-0.02235372	0.005736403
	-0.02228195	0.004121117	-2.566606e-05	-2.458361e-06	-0.05653124	0.01591614	-2.26942e-05	-3.316185e-06
	-3.020859e-05	-1.028879e-05	-0.02235372	0.005736403	-2.26942e-05	-3.316185e-06	-0.05613793	0.01657742
2.4e+08	-0.05032055	0.01597148	-4.239166e-05	-9.49652e-06	-0.02147194	0.01493668	-3.381831e-05	-4.168784e-06
	-4.239166e-05	-9.49652e-06	-0.04989445	0.01664941	-2.706363e-05	3.767505e-06	-0.02140483	0.01663051
	-0.02147194	0.01493668	-2.706363e-05	3.767505e-06	-0.05068225	0.01663545	-2.460598e-05	1.625252e-06
	-3.381831e-05	-4.168784e-06	-0.02140483	0.01663051	-2.460598e-05	1.625252e-06	-0.05029079	0.01721801
2.5e+08	-0.04493804	0.01546732	-4.409635e-05	9.682133e-07	-0.01804656	0.02548868	-3.628586e-05	2.98109e-06
	-4.409635e-05	9.682133e-07	-0.04452805	0.0160933	-2.765529e-05	1.040481e-05	-0.01783101	0.02722521
	-0.01804656	0.02548868	-2.765529e-05	1.040481e-05	-0.04525765	0.01626149	-2.573636e-05	7.114171e-06
	-3.628586e-05	2.98109e-06	-0.01783101	0.02722521	-2.573636e-05	7.114171e-06	-0.04488281	0.01677275
2.6e+08	-0.04015787	0.01410864	-4.388107e-05	1.200802e-05	-0.01210215	0.0351415	-3.733326e-05	1.094369e-05
	-4.388107e-05	1.200802e-05	-0.03977161	0.01469158	-2.729827e-05	1.734887e-05	-0.01173808	0.03688215
	-0.01210215	0.0351415	-2.729827e-05	1.734887e-05	-0.04040719	0.01502367	-2.593141e-05	1.302832e-05
	-3.733326e-05	1.094369e-05	-0.01173808	0.03688215	-2.593141e-05	1.302832e-05	-0.04006053	0.01547352
2.7e+08	-0.03604555	0.01213654	-4.15449e-05	2.324179e-05	-0.003889525	0.04329376	-3.672379e-05	1.943218e-05
	-4.15449e-05	2.324179e-05	-0.03568765	0.01268558	-2.585697e-05	2.445462e-05	-0.003387104	0.04499978
	-0.003889525	0.04329376	-2.585697e-05	2.445462e-05	-0.03619915	0.01315604	-2.50504e-05	1.920621e-05
	-3.672379e-05	1.943218e-05	-0.003387104	0.04499978	-2.50504e-05	1.920621e-05	-0.03588863	0.01355557
2.8e+08	-0.03259048	0.009770062	-3.696765e-05	3.423064e-05	0.006197373	0.04941698	-3.427849e-05	2.809598e-05
	-3.696765e-05	3.423064e-05	-0.03226289	0.01029354	-2.32139e-05	3.153296e-05	0.00681787	0.05105226
	0.006197373	0.04941698	-2.32139e-05	3.153296e-05	-0.03262775	0.01087152	-2.297713e-05	2.544307e-05
	-3.427849e-05	2.809598e-05	0.00681787	0.05105226	-2.297713e-05	2.544307e-05	-0.03235772	0.01123172
2.9e+08	-0.02972242	0.007185204	-3.012195e-05	4.449749e-05	0.01764347	0.05308915	-2.989201e-05	3.653301e-05
	-3.012195e-05	4.449749e-05	-0.02942496	0.007689772	-1.928438e-05	3.834835e-05	0.01835239	0.05462284
	0.01764347	0.05308915	-1.928438e-05	3.834835e-05	-0.02962808	0.008341497	-1.963157e-05	3.149475e-05
	-2.989201e-05	3.653301e-05	0.0183524	0.05462284	-1.963157e-05	3.149475e-05	-0.02939983	0.008672064
3e+08	-0.02733226	0.004500209	-2.108113e-05	5.35462e-05	0.02984223	0.05402121	-2.354424e-05	4.430422e-05
	-2.108113e-05	5.35462e-05	-0.0270636	0.004990323	-1.403219e-05	4.462482e-05	0.03060211	0.05543008
	0.02984223	0.05402121	-1.403219e-05	4.462482e-05	-0.02709783	0.005681163	-1.498362e-05	3.708206e-05
	-2.354424e-05	4.430422e-05	0.03060211	0.05543008	-1.498362e-05	3.708206e-05	-0.02691042	0.005989628
3.1e+08	-0.02529617	0.001769701	-1.003061e-05	6.087785e-05	0.04213066	0.05207619	-1.531285e-05	5.095052e-05
	-1.003061e-05	6.087785e-05	-0.02505482	0.002247358	-7.481035e-06	5.005659e-05	0.04289819	0.05334652
	0.04213066	0.05207619	-7.481035e-06	5.005659e-05	-0.02491993	0.002943394	-9.066992e-06	4.190095e-05
	-1.531285e-05	5.095052e-05	0.04289819	0.05334652	-9.066992e-06	4.190095e-05	-0.02477137	0.003234554
3.2e+08	-0.02349906	-0.001013613	2.736022e-06	6.601701e-05	0.05382736	0.04727776	-5.381788e-06	5.601236e-05
	2.736022e-06	6.601701e-05	-0.02328448	-0.0005486263	2.659157e-07	5.432041e-05	0.05455594	0.04840671
	0.05382736	0.04727776	2.659157e-07	5.432041e-05	-0.02298743	0.0001209103	-1.986836e-06	4.563824e-05
	-5.381788e-06	5.601236e-05	0.05455594	0.04840671	-1.986836e-06	4.563824e-05	-0.02287592	0.0003967817
3.3e+08	-0.02185635	-0.003908874	1.681042e-05	6.85318e-05	0.06427078	0.03980978	5.955788e-06	5.905412e-05
	1.681042e-05	6.85318e-05	-0.02166987	-0.003458478	9.024537e-06	5.709798e-05	0.06491317	0.04080597
	0.06427078	0.03980978	9.024537e-06	5.709798e-05	-0.02122251	-0.002843765	6.069532e-06	4.798916e-05
	5.955788e-06	5.905412e-05	0.06491317	0.04080597	6.069532e-06	4.798916e-05	-0.02114761	-0.002583592
3.4e+08	-0.02033015	-0.007011831	3.167634e-05	6.80602e-05	0.07285677	0.03000747	1.829261e-05	5.968987e-05
	3.167634e-05	6.80602e-05	-0.02017565	-0.006578722	1.852139e-05	5.809665e-05	0.07336785	0.0308911
	0.07285677	0.03000747	1.852139e-05	5.809665e-05	-0.01959419	-0.006042586	1.483542e-05	4.867922e-05
	1.829261e-05	5.968987e-05	0.07336785	0.0308911	1.483542e-05	4.867922e-05	-0.01955787	-0.005800217
3.5e+08	-0.01893914	-0.01043444	4.671441e-05	6.433908e-05	0.07907097	0.01833994	3.112152e-05	5.761057e-05
	4.671441e-05	6.433908e-05	-0.01882351	-0.01002103	2.839718e-05	5.707638e-05	0.07941049	0.01914207
	0.07907097	0.01833994	2.839718e-05	5.707638e-05	-0.01812654	-0.009583231	2.396662e-05	4.748625e-05
	3.112152e-05	5.761057e-05	0.07941049	0.01914207	2.396662e-05	4.748625e-05	-0.01813391	-0.009361278
3.6e+08	-0.01776168	-0.01428374	6.122423e-05	5.722701e-05	0.082518	0.005386644	4.383846e-05	5.261481e-05
	6.122423e-05	5.722701e-05	-0.01769479	-0.013891	3.822293e-05	5.387008e-05	0.0826531	0.006148108
	0.082518	0.005386644	3.822293e-05	5.387008e-05	-0.01690303	-0.01356642	3.305212e-05	4.426231e-05
	4.383846e-05	5.261481e-05	0.0826531	0.006148108	3.305212e-05	4.426231e-05	-0.01696263	-0.0133668
3.7e+08	-0.01693239	-0.01863983	7.443988e-05	4.674138e-05	0.08294394	-0.008192576	5.576966e-05	4.463679e-05
	7.443988e-05	4.674138e-05	-0.01692678	-0.01826599	4.750759e-05	4.841038e-05	0.08285139	-0.007422996
	0.08294394	-0.008192576	4.750759e-05	4.841038e-05	-0.01606137	-0.01806535	4.163491e-05	3.894954e-05
	5.576966e-05	4.463679e-05	0.08285139	-0.007422996	4.163491e-05	3.894954e-05	-0.01618517	-0.01788777
3.8e+08	-0.01663164	-0.02353739	8.55702e-05	3.307021e-05	0.0802513	-0.02169078	6.620199e-05	3.37702e-05
	8.55702e-05	3.307021e-05	-0.01670182	-0.02317686	5.573007e-05	4.074036e-05	0.07991941	-0.02085855
	0.0802513	-0.02169078	5.573007e-05	4.074036e-05	-0.0157836	-0.02310744	4.922711e-05	3.160018e-05
	6.620199e-05	3.37702e-05	0.07991941	-0.02085855	4.922711e-05	3.160018e-05	-0.01598642	-0.02294796
3.9e+08	-0.01707126	-0.02894975	9.383722e-05	1.659907e-05	0.07450825	-0.03439062	7.442232e-05	2.028104e-05
	9.383722e-05	1.659907e-05	-0.01723264	-0.02859216	6.236114e-05	3.102799e-05	0.07393821	-0.03343811
	0.07450825	-0.03439062	6.236114e-05	3.102799e-05	-0.01628146	-0.02865732	5.534166e-05	2.237756e-05
	7.442232e-05	2.028104e-05	0.07393821	-0.03343811	5.534166e-05	2.237756e-05	-0.01657995	-0.02850703
4e+08	-0.01847353	-0.03477756	9.852767e-05	-2.085894e-06	0.06594725	-0.04560287	7.976074e-05	4.625175e-06
	9.852767e-05	-2.085894e-06	-0.01874099	-0.03440698	6.689363e-05	1.957231e-05	0.06515398	-0.04447242
	0.06594725	-0.04560287	6.689363e-05	1.957231e-05	-0.0177752	-0.03460863	5.951566e-05	1.156917e-05
	7.976074e-05	4.625175e-06	0.06515398	-0.04447242	5.951566e-05	1.156917e-05	-0.01818637	-0.03445253
4.1e+08	-0.0210487	-0.04084429	9.904969e-05	-2.221214e-05	0.05495688	-0.05470373	8.164197e-05	-1.25719e-05
	9.904969e-05	-2.221214e-05	-0.0214349	-0.04043897	6.887589e-05	6.798406e-06	0.05396911	-0.05334092
	0.05495688	-0.05470373	6.887589e-05	6.798406e-06	-0.02047194	-0.04077741	6.134255e-05	-4.287421e-07
	8.164197e-05	-1.25719e-05	0.05396911	-0.05334092	6.134255e-05	-4.287421e-07	-0.02101122	-0.04059374
4.2e+08	-0.02497297	-0.04689729	9.498437e-05	-4.283915e-05	0.042064	-0.06117117	7.963692e-05	-3.052256e-05
	9.498437e-05	-4.283915e-05	-0.02548642	-0.04642965	6.794552e-05	-6.75336e-06	0.04092364	-0.05952807
	0.042064	-0.06117117	6.794552e-05	-6.75336e-06	-0.02454267	-0.04690444	6.049777e-05	-1.311243e-05
	7.963692e-05	-3.052256e-05	0.04092364	-0.05952807	6.049777e-05	-1.311243e-05	-0.02522169	-0.04666447
4.3e+08	-0.03036238	-0.05261599	8.613686e-05	-6.290479e-05	0.02790707	-0.06461536	7.350376e-05	-4.832217e-05
	8.613686e-05	-6.290479e-05	-0.03100543	-0.05205345	6.385154e-05	-2.044089e-05	0.02666765	-0.06265385
	0.02790707	-0.06461536	6.385154e-05	-2.044089e-05	-0.03009686	-0.05266419	5.67675e-05	-2.58931e-05
	7.350376e-05	-4.832217e-05	0.02666765	-0.06265385	5.67675e-05	-2.58931e-05	-0.03092091	-0.05233287
4.4e+08	-0.03725225	-0.05762713	7.257441e-05	-8.128308e-05	0.01320312	-0.06480323	6.322094e-05	-6.4999e-05
	7.257441e-05	-8.128308e-05	-0.03801904	-0.05693336	5.648981e-05	-3.355021e-05	0.01192752	-0.06249787
	0.01320312	-0.06480323	5.648981e-05	-3.355021e-05	-0.03716252	-0.05767934	5.006942e-05	-3.811868e-05
	6.322094e-05	-6.4999e-05	0.01192752	-0.06249787	5.006942e-05	-3.811868e-05	-0.03812817	-0.0572166
4.5e+08	-0.04557939	-0.06152451	5.46387e-05	-9.685443e-05	-0.00129193	-0.06167438	4.901129e-05	-7.956419e-05
	5.46387e-05	-9.685443e-05	-0.04645419	-0.06066158	4.59212e-05	-4.532555e-05	-0.002534615	-0.05901475
	-0.00129193	-0.06167438	4.59212e-05	-4.532555e-05	-0.04566806	-0.0615419	4.046788e-05	-4.91081e-05
	4.901129e-05	-7.956419e-05	-0.002534615	-0.05901475	4.046788e-05	-4.91081e-05	-0.04676093	-0.06090483
4.6e+08	-0.05516907	-0.06389696	3.294964e-05	-0.0001085776	-0.01482566	-0.05534588	3.13395e-05	-9.108318e-05
	3.294964e-05	-0.0001085776	-0.05612506	-0.06282794	3.237866e-05	-5.501014e-05	-0.0159638	-0.05233809
	-0.01482566	-0.05534588	3.237866e-05	-5.501014e-05	-0.05542995	-0.06384101	2.819064e-05	-5.817981e-05
	3.13395e-05	-9.108318e-05	-0.0159638	-0.05233809	2.819064e-05	-5.817981e-05	-0.05662309	-0.062987
4.7e+08	-0.06572878	-0.06435976	8.378443e-06	-0.0001155644	-0.02669234	-0.04610674	1.089255e-05	-9.87399e-05
	8.378443e-06	-0.0001155644	-0.06672761	-0.06305221	1.628349e-05	-6.188199e-05	-0.0276559	-0.04277402
	-0.02669234	-0.04610674	1.628349e-05	-6.188199e-05	-0.06614772	-0.06419298	1.362736e-05	-6.469204e-05
	1.089255e-05	-9.87399e-05	-0.0276559	-0.04277402	1.362736e-05	-6.469204e-05	-0.06740089	-0.06308343
4.8e+08	-0.0768543	-0.06258604	-1.799046e-05	-0.0001171394	-0.03627182	-0.03440133	-1.144375e-05	-0.0001018844
