!$
! Info: Touchstone file created by Circ.  Input file=Intel_C2M_200G_9p5in_202208016_staggered.circ
!$
# Hz S RI R 50
0	0.02487719	5.048757e-24	0.9749239	-8.575016e-24	0.0001366057	3.310241e-22	-0.000266776	3.267064e-20
	0.9749239	-8.571575e-24	0.02542935	9.043258e-24	-0.0002668321	3.267751e-20	0.0003590308	8.825049e-22
	0.0001366627	3.311475e-22	-0.0002669677	3.269411e-20	0.02487516	4.775968e-24	0.9749242	-8.757025e-24
	-0.0002669117	3.268725e-20	0.0003590972	8.831273e-22	0.9749242	-8.760471e-24	0.02543077	9.263586e-24
1e+07	0.03030003	-0.005429805	0.9592787	-0.13747	0.002359707	0.007569531	-0.001158304	-0.0002209809
	0.9592787	-0.13747	0.02996191	-0.005008104	-0.001158343	-0.0002208645	0.002122487	0.007639466
	0.002359707	0.007569531	-0.001158343	-0.0002208645	0.03010724	-0.005397693	0.9594772	-0.1374775
	-0.001158304	-0.0002209809	0.002122487	0.007639466	0.9594772	-0.1374775	0.02976823	-0.004974598
2e+07	0.03289577	-0.01617682	0.9260114	-0.2663809	0.00581673	0.01378774	-0.00116006	0.0001073152
	0.9260114	-0.2663809	0.0317574	-0.01495096	-0.001160007	0.0001074585	0.004896831	0.01420768
	0.005816737	0.01378773	-0.001160018	0.0001073493	0.03275699	-0.01604542	0.9261725	-0.266471
	-0.001160069	0.0001072122	0.004896916	0.01420757	0.9261725	-0.266471	0.03160936	-0.01481192
3e+07	0.03156624	-0.02876721	0.8773698	-0.3872733	0.01090112	0.01882573	-0.000913725	0.0002993489
	0.8773698	-0.3872733	0.02878075	-0.0264009	-0.0009137651	0.0002996928	0.009079612	0.01981935
	0.01090111	0.01882577	-0.0009138052	0.0002997018	0.03147655	-0.02858084	0.8774964	-0.3874032
	-0.0009137373	0.0002993465	0.009079588	0.01981932	0.8774964	-0.3874032	0.02868823	-0.02620879
4e+07	0.02671901	-0.04115359	0.8139222	-0.4994358	0.01723687	0.02212411	-0.0005272842	0.0002691593
	0.8139222	-0.4994358	0.02215002	-0.03669725	-0.000527362	0.0002698614	0.01429795	0.02422412
	0.01723688	0.02212414	-0.0005273651	0.0002698662	0.02668485	-0.04093642	0.8140138	-0.4995938
	-0.0005272819	0.0002691724	0.01429795	0.02422413	0.8140138	-0.4995938	0.02211095	-0.03647173
5e+07	0.01893819	-0.05225089	0.7368388	-0.601303	0.02428058	0.02344823	-0.0001329708	-3.329444e-05
	0.7368388	-0.601303	0.01265582	-0.04482705	-0.0001330305	-3.216274e-05	0.020223	0.02720319
	0.02428058	0.02344824	-0.0001330276	-3.21644e-05	0.01895851	-0.05202121	0.7368945	-0.6014825
	-0.000132968	-3.329652e-05	0.020223	0.0272032	0.7368945	-0.6014825	0.01266855	-0.04458354
6e+07	0.008818097	-0.06136929	0.6476158	-0.6913519	0.03146133	0.0226803	0.0001285974	-0.0006034018
	0.6476158	-0.6913519	0.00116058	-0.05004283	0.0001286653	-0.0006016492	0.02645778	0.02866405
	0.03146134	0.02268028	0.000128666	-0.000601651	0.00888873	-0.0611427	0.6476331	-0.6915466
	0.0001285986	-0.0006034031	0.02645778	0.02866405	0.6476331	-0.6915466	0.001220988	-0.04979431
7e+07	-0.00298575	-0.06801995	0.54797	-0.7682512	0.03819624	0.01986318	0.0001287557	-0.001375303
	0.54797	-0.7682512	-0.01135546	-0.05191398	0.0001292262	-0.001372884	0.03260671	0.02862631
	0.03819624	0.01986317	0.000129251	-0.001372948	-0.002871914	-0.06781033	0.5479456	-0.7684543
	0.0001287571	-0.001375306	0.03260671	0.02862631	0.5479456	-0.7684543	-0.01125437	-0.0516709
8e+07	-0.01575711	-0.07191759	0.43977	-0.8309145	0.04394032	0.01519389	-0.000224335	-0.002232467
	0.43977	-0.8309145	-0.02388883	-0.05031998	-0.0002231538	-0.002229403	0.03830399	0.02721093
	0.04394032	0.01519389	-0.0002231535	-0.002229401	-0.01560994	-0.07173663	0.4397024	-0.8311193
	-0.0002243353	-0.002232464	0.03830399	0.02721093	0.4397024	-0.8311193	-0.02375641	-0.05009005
9e+07	-0.02876644	-0.07297913	0.3249736	-0.8785211	0.0482251	0.00900374	-0.0009695898	-0.00302708
	0.3249736	-0.8785211	-0.03548044	-0.0454131	-0.0009673071	-0.003023463	0.0432396	0.02462488
	0.04822511	0.009003743	-0.000967302	-0.003023456	-0.02859902	-0.07283552	0.3248612	-0.8787174
	-0.0009695866	-0.003027072	0.04323961	0.02462488	0.3248612	-0.8787174	-0.03532703	-0.04519969
1e+08	-0.04127052	-0.07128225	0.2054995	-0.9105336	0.05068942	0.001727887	-0.00208894	-0.003601328
	0.2054995	-0.9105336	-0.04521453	-0.03756779	-0.00208517	-0.003597267	0.04718063	0.02113581
	0.05068942	0.001727886	-0.002085171	-0.003597268	-0.04109879	-0.07118119	0.2053453	-0.9107127
	-0.002088941	-0.003601328	0.04718063	0.02113581	0.2053453	-0.9107127	-0.04505138	-0.03737107
1.1e+08	-0.05275359	-0.06740496	0.08352931	-0.9261479	0.0510729	-0.006133255	-0.003481272	-0.00380322
	0.08352931	-0.9261479	-0.05247197	-0.02770067	-0.003473784	-0.003799783	0.04994004	0.01705001
	0.05107289	-0.006133255	-0.003473785	-0.003799784	-0.05259706	-0.06740127	0.08333418	-0.9263057
	-0.003481272	-0.003803221	0.04994004	0.01705001	0.08333418	-0.9263057	-0.05230851	-0.02749779
1.2e+08	-0.06292915	-0.06142003	-0.03852384	-0.9257443	0.04929126	-0.01395381	-0.005021423	-0.003564448
	-0.03852384	-0.9257443	-0.05700225	-0.01622966	-0.005011886	-0.003563152	0.05146316	0.01273703
	0.04929126	-0.01395381	-0.005011887	-0.003563153	-0.06283261	-0.06145474	-0.038757	-0.92587
	-0.005021424	-0.003564449	0.05146316	0.01273703	-0.038757	-0.92587	-0.05683624	-0.01602537
1.3e+08	-0.07132717	-0.0537387	-0.1587781	-0.9096247	0.0454196	-0.02118778	-0.00656295	-0.002829439
	-0.1587781	-0.9096247	-0.05839755	-0.003906273	-0.006552528	-0.002830588	0.05178442	0.008524111
	0.0454196	-0.02118778	-0.006552529	-0.002830589	-0.07128624	-0.0537777	-0.1590432	-0.9097122
	-0.00656295	-0.00282944	0.05178442	0.008524112	-0.1590432	-0.9097122	-0.0582328	-0.003699552
1.4e+08	-0.07767193	-0.04485572	-0.2753365	-0.8782692	0.03966019	-0.02731623	-0.007942944	-0.00160194
	-0.2753365	-0.8782692	-0.05653449	0.00843925	-0.007931994	-0.001605336	0.05101116	0.004714724
	0.03966019	-0.02731623	-0.007931995	-0.001605337	-0.07767774	-0.04488893	-0.2756257	-0.8783104
	-0.007942945	-0.00160194	0.05101116	0.004714724	-0.2756257	-0.8783104	-0.05637379	0.008654202
1.5e+08	-0.08182653	-0.03529306	-0.3863783	-0.8323557	0.03233506	-0.03188244	-0.009007119	5.794851e-05
	-0.3863783	-0.8323557	-0.05151822	0.01998129	-0.008996009	5.187635e-05	0.04931812	0.001570328
	0.03233506	-0.03188244	-0.008996009	5.18762e-05	-0.08187768	-0.03531788	-0.3866822	-0.8323458
	-0.00900712	5.794851e-05	0.04931812	0.001570329	-0.3866822	-0.8323458	-0.05136142	0.0202128
1.6e+08	-0.08378425	-0.02556814	-0.4901757	-0.7727537	0.02386907	-0.03451922	-0.009629704	0.002041044
	-0.4901757	-0.7727537	-0.04366343	0.02995636	-0.009619033	0.002031844	0.04693502	-0.0007016258
	0.02386907	-0.03451922	-0.009619034	0.002031844	-0.08388537	-0.02558097	-0.4904861	-0.7726893
	-0.009629704	0.002041043	0.04693502	-0.0007016253	-0.4904861	-0.7726893	-0.04350657	0.0302136
1.7e+08	-0.08365845	-0.01616542	-0.585117	-0.7005194	0.01476676	-0.03497073	-0.009728612	0.004202887
	-0.585117	-0.7005194	-0.03346727	0.03771368	-0.009719276	0.00419034	0.04413237	-0.001958772
	0.01476676	-0.03497073	-0.009719277	0.00419034	-0.08381594	-0.01615774	-0.5854232	-0.7003989
	-0.009728613	0.004202887	0.04413237	-0.001958771	-0.5854232	-0.7003989	-0.03330251	0.03800437
1.8e+08	-0.08166726	-0.007509327	-0.6697188	-0.6168862	0.005585155	-0.03310886	-0.009274411	0.006381752
	-0.6697188	-0.6168862	-0.02157196	0.04275601	-0.009267642	0.006365925	0.04120651	-0.002130166
	0.005585155	-0.03310886	-0.009267643	0.006365925	-0.08188568	-0.007467716	-0.6700097	-0.61671
	-0.009274411	0.006381753	0.04120651	-0.002130165	-0.6700097	-0.61671	-0.02138895	0.04308526
1.9e+08	-0.07811308	5.715491e-05	-0.7426434	-0.5232575	-0.003096949	-0.02894391	-0.008291895	0.008418434
	-0.7426434	-0.5232575	-0.008721114	0.04476941	-0.008288971	0.008399937	0.03846266	-0.001220727
	-0.003096949	-0.02894391	-0.008288971	0.008399937	-0.07839239	0.0001497037	-0.7429093	-0.5230308
	-0.008291895	0.008418434	0.03846266	-0.001220727	-0.7429093	-0.5230308	-0.008507384	0.04513937
2e+08	-0.0733561	0.006289729	-0.8027238	-0.4211967	-0.0107121	-0.02262757	-0.006854915	0.01017469
	-0.8027238	-0.4211967	0.004292864	0.04364331	-0.006857173	0.01015471	0.03619642	0.0006871062
	-0.0107121	-0.02262757	-0.006857174	0.01015471	-0.07369106	0.006450588	-0.8029549	-0.4209231
	-0.006854915	0.01017469	0.03619642	0.0006871064	-0.8029549	-0.4209231	0.004550367	0.0440518
2.1e+08	-0.06778542	0.01104937	-0.8489863	-0.3124122	-0.016738	-0.01444881	-0.005075014	0.01154884
	-0.8489863	-0.3124122	0.01668053	0.03947458	-0.005082942	0.01152909	0.03467605	0.003436867
	-0.016738	-0.01444881	-0.005082942	0.01152909	-0.06816471	0.01129591	-0.8491749	-0.3120997
	-0.005075014	0.01154884	0.03467605	0.003436867	-0.8491749	-0.3120997	0.01699523	0.03991601
2.2e+08	-0.06178902	0.01430466	-0.8806731	-0.1987377	-0.02073046	-0.00482145	-0.003084093	0.01248518
	-0.8806731	-0.1987377	0.02771153	0.03255949	-0.003097875	0.01246757	0.03412263	0.006805421
	-0.02073045	-0.00482145	-0.003097875	0.01246757	-0.06219573	0.01465091	-0.8808138	-0.1983947
	-0.003084093	0.01248518	0.03412263	0.006805421	-0.8808138	-0.1983947	0.02809513	0.03302472
2.3e+08	-0.05572448	0.01612204	-0.8972653	-0.08210828	-0.02235372	0.005736403	-0.001017185	0.01297688
	-0.8972653	-0.08210828	0.03676293	0.02337114	-0.001035971	0.01296347	0.0346938	0.01051575
	-0.02235372	0.005736403	-0.001035972	0.01296347	-0.05613793	0.01657742	-0.8973554	-0.08174232
	-0.001017185	0.01297688	0.0346938	0.01051575	-0.8973554	-0.08174232	0.03722533	0.02384756
2.4e+08	-0.04989445	0.01664941	-0.8985074	0.03547777	-0.02140483	0.01663051	0.001006993	0.01306193
	-0.8985074	0.03547777	0.04336354	0.0125242	0.0009843974	0.0130544	0.03646994	0.01425522
	-0.02140483	0.01663051	0.0009843974	0.0130544	-0.05029079	0.01721801	-0.8985463	0.03585755
	0.001006993	0.01306193	0.03646994	0.01425522	-0.8985463	0.03585755	0.04391127	0.0129965
2.5e+08	-0.04452805	0.0160933	-0.8844165	0.1519926	-0.01783101	0.02722521	0.002899431	0.01281186
	-0.8844165	0.1519926	0.04722455	0.0007285577	0.002874991	0.0128114	0.0394455	0.01769693
	-0.01783101	0.02722521	0.002874991	0.0128114	-0.04488281	0.01677275	-0.8844025	0.15238
	0.002899431	0.01281186	0.0394455	0.01769693	-0.8844025	0.15238	0.04786024	0.001179245
2.6e+08	-0.03977161	0.01469158	-0.8552865	0.2654269	-0.01173808	0.03688215	0.004610338	0.01231697
	-0.8552865	0.2654269	0.04825707	-0.01126352	0.004586689	0.01232402	0.04352732	0.02052405
	-0.01173808	0.03688215	0.004586689	0.01232402	-0.04006053	0.01547352	-0.8552203	0.2658138
	0.004610338	0.01231697	0.04352732	0.02052405	-0.8552203	0.2658138	0.04897875	-0.01085264
2.7e+08	-0.03568765	0.01268558	-0.811686	0.3738297	-0.003387104	0.04499978	0.006131812	0.01166844
	-0.811686	0.3738297	0.04657523	-0.02271303	0.006111262	0.01168271	0.04854013	0.02245455
	-0.003387104	0.04499978	0.006111262	0.01168271	-0.03588863	0.01355557	-0.8115697	0.3742115
	0.006131812	0.01166844	0.04854013	0.02245455	-0.8115697	0.3742115	0.04737662	-0.0223596
2.8e+08	-0.03226289	0.01029354	-0.7544472	0.4753541	0.00681787	0.05105226	0.007492618	0.01094202
	-0.7544472	0.4753541	0.0424829	-0.03294754	0.007477745	0.01096215	0.05423921	0.023262
	0.00681787	0.05105226	0.007477745	0.01096215	-0.03235772	0.01123172	-0.7542817	0.4757262
	0.007492617	0.01094202	0.05423921	0.023262	-0.7542817	0.4757262	0.043353	-0.03266729
2.9e+08	-0.02942496	0.007689772	-0.6846412	0.5682936	0.01835239	0.05462284	0.008748208	0.0101846
	-0.6846412	0.5682936	0.03644611	-0.04140835	0.008740781	0.01020874	0.06032858	0.0227933
	0.0183524	0.05462284	0.008740781	0.01020874	-0.02939983	0.008672064	-0.6844275	0.5686516
	0.008748208	0.0101846	0.06032858	0.0227933	-0.6844275	0.5686516	0.03737014	-0.04121429
3e+08	-0.0270636	0.004990323	-0.6035496	0.6511151	0.03060211	0.05543008	0.009964755	0.009407502
	-0.6035496	0.6511151	0.02905566	-0.04768857	0.009965962	0.009432998	0.06648395	0.02097831
	0.03060211	0.05543008	0.009965962	0.009432998	-0.02691042	0.005989628	-0.6032871	0.6514541
	0.009964755	0.009407502	0.06648395	0.02097831	-0.6032871	0.6514541	0.03001575	-0.04758951
3.1e+08	-0.02505482	0.002247358	-0.5126341	0.7224847	0.04289819	0.05334652	0.01120374	0.008584722
	-0.5126341	0.7224847	0.02098043	-0.05155768	0.01121377	0.008608246	0.07237702	0.01783437
	0.04289819	0.05334652	0.01121377	0.008608246	-0.02477137	0.003234554	-0.5123233	0.7227976
	0.01120374	0.008584722	0.07237702	0.01783437	-0.5123233	0.7227976	0.02195667	-0.05155759
3.2e+08	-0.02328448	-0.0005486263	-0.4135036	0.7812804	0.05455594	0.04840671	0.01250636	0.007658586
	-0.4135036	0.7812804	0.0129172	-0.052973	0.01252433	0.007677119	0.07769827	0.01346115
	0.05455594	0.04840671	0.01252433	0.007677119	-0.02287592	0.0003967817	-0.4131439	0.7815636
	0.01250636	0.007658586	0.07769827	0.01346115	-0.4131439	0.7815636	0.01388948	-0.05307074
3.3e+08	-0.02166987	-0.003458478	-0.3078764	0.8266074	0.06491317	0.04080597	0.01388178	0.006550558
	-0.3078764	0.8266074	0.005540981	-0.05207784	0.01390562	0.006562004	0.08217725	0.008031526
	0.06491317	0.04080597	0.01390562	0.006562004	-0.02114761	-0.002583592	-0.3074698	0.826853
	0.01388178	0.006550558	0.08217725	0.008031526	-0.3074698	0.826853	0.006490266	-0.05226688
3.4e+08	-0.02017565	-0.006578722	-0.1975573	0.8578004	0.07336785	0.0308911	0.01530036	0.005176988
	-0.1975573	0.8578004	-0.0005418019	-0.04918669	0.01532734	0.005178981	0.0855998	0.001777348
	0.07336785	0.0308911	0.01532734	0.005178981	-0.01955787	-0.005800217	-0.197104	0.8580025
	0.01530036	0.005176988	0.0855998	0.001777348	-0.197104	0.8580025	0.0003677039	-0.04945558
3.5e+08	-0.01882351	-0.01002103	-0.08439984	0.8744285	0.07941049	0.01914207	0.01669377	0.003463564
	-0.08439984	0.8744285	-0.004834016	-0.04475971	0.01672042	0.003455271	0.08781813	-0.005028828
	0.07941049	0.01914207	0.01672042	0.003455271	-0.01813391	-0.009361278	-0.08390518	0.874575
	0.01669377	0.003463564	0.08781813	-0.005028828	-0.08390518	0.874575	-0.003977223	-0.04509354
3.6e+08	-0.01769479	-0.013891	0.02971053	0.8762892	0.0826531	0.006148108	0.01796012	0.001361309
	0.02971053	0.8762892	-0.006979881	-0.03936933	0.01798299	0.00134344	0.08875744	-0.0120912
	0.0826531	0.006148108	0.01798299	0.00134344	-0.01696263	-0.0133668	0.03024155	0.8763716
	0.01796012	0.001361309	0.08875744	-0.0120912	0.03024155	0.8763716	-0.006183978	-0.03974959
3.7e+08	-0.01692678	-0.01826599	0.1428874	0.8634105	0.08285139	-0.007422996	0.01897528	-0.001141345
	0.1428874	0.8634105	-0.006787436	-0.03365881	0.01899096	-0.00116739	0.08841735	-0.01910996
	0.08285139	-0.007422996	0.01899096	-0.00116739	-0.01618517	-0.01788777	0.1434477	0.863421
	0.01897528	-0.001141345	0.08841735	-0.01910996	0.1434477	0.863421	-0.006055339	-0.03406588
3.8e+08	-0.01670182	-0.02317686	0.2532623	0.8360504	0.07991941	-0.02085855	0.01960695	-0.004012703
	0.2532623	0.8360504	-0.004240356	-0.02829854	0.01961306	-0.004043506	0.08686883	-0.02579863
	0.07991941	-0.02085855	0.01961306	-0.004043506	-0.01598642	-0.02294796	0.2538404	0.8359791
	0.01960695	-0.004012703	0.08686883	-0.02579863	0.2538404	0.8359791	-0.003569315	-0.02871325
3.9e+08	-0.01723264	-0.02859216	0.3590058	0.7946934	0.07393821	-0.03343811	0.01973205	-0.007173877
	0.3590058	0.7946934	0.0005005151	-0.0239413	0.01972665	-0.0072066	0.08424868	-0.03189994
	0.07393821	-0.03343811	0.01972665	-0.0072066	-0.01657995	-0.02850703	0.3595901	0.7945365
	0.01973205	-0.007173877	0.08424868	-0.03189994	0.3595901	0.7945365	0.001118671	-0.02434479
4e+08	-0.01874099	-0.03440698	0.4583565	0.7400515	0.06515398	-0.04447242	0.01925127	-0.0105064
	0.4583565	0.7400515	0.007108528	-0.02117615	0.01923455	-0.0105366	0.08074966	-0.03719989
	0.06515398	-0.04447242	0.01923455	-0.0105366	-0.01818637	-0.03445253	0.4589327	0.7398022
	0.01925127	-0.0105064	0.08074966	-0.03719989	0.4589327	0.7398022	0.007687289	-0.02155373
4.1e+08	-0.0214349	-0.04043897	0.5496496	0.6730527	0.05396911	-0.05334092	0.01810353	-0.01386041
	0.5496496	0.6730527	0.01511287	-0.02048928	0.01807683	-0.01388399	0.07660909	-0.04153922
	0.05396911	-0.05334092	0.01807683	-0.01388399	-0.02101122	-0.04059374	0.5502026	0.6727101
	0.01810353	-0.01386041	0.07660909	-0.04153922	0.5502026	0.6727101	0.01566952	-0.02082998
4.2e+08	-0.02548642	-0.04642965	0.6313378	0.5948462	0.04092364	-0.05952807	0.01627516	-0.01706907
	0.6313378	0.5948462	0.0239278	-0.02222859	0.01624089	-0.01708286	0.07209488	-0.04482367
	0.04092364	-0.05952807	0.01624089	-0.01708286	-0.02522169	-0.04666447	0.6318497	0.5944125
	0.01627516	-0.01706907	0.07209488	-0.04482367	0.6318497	0.5944125	0.0244824	-0.02252678
4.3e+08	-0.03100543	-0.05205345	0.7020301	0.5067789	0.02666765	-0.06265385	0.01380162	-0.01996635
	0.7020301	0.5067789	0.03289383	-0.02657868	0.01376392	-0.01996812	0.067489	-0.04702848
	0.02666765	-0.06265385	0.01376392	-0.01996812	-0.03092091	-0.05233287	0.7024851	0.506259
	0.01380162	-0.01996635	0.067489	-0.04702848	0.7024851	0.506259	0.03346764	-0.02683482
4.4e+08	-0.03801904	-0.05693336	0.7605201	0.4103836	0.01192752	-0.06249787	0.01076646	-0.02240255
	0.7605201	0.4103836	0.04132172	-0.03354574	0.01072942	-0.02239149	0.06306977	-0.04820212
	0.01192752	-0.06249787	0.01072942	-0.02239149	-0.03812817	-0.0572166	0.7609018	0.4097865
	0.01076646	-0.02240255	0.06306977	-0.04820212	0.7609018	0.4097865	0.04193597	-0.03376642
4.5e+08	-0.04645419	-0.06066158	0.805814	0.3073562	-0.002534615	-0.05901475	0.007291623	-0.02425948
	0.805814	0.3073562	0.04854032	-0.04295486	0.007259775	-0.02423652	0.05909401	-0.04846345
	-0.002534615	-0.05901475	0.007259775	-0.02423652	-0.04676093	-0.06090483	0.8061087	0.3066938
	0.007291623	-0.02425948	0.05909401	-0.04846345	0.8061087	0.3066938	0.04921427	-0.04315273
4.6e+08	-0.05612506	-0.06282794	0.8371616	0.1995197	-0.0159638	-0.05233809	0.003524012	-0.02546064
	0.8371616	0.1995197	0.05394498	-0.05446122	0.003501707	-0.02542825	0.05577792	-0.04799533
	-0.0159638	-0.05233809	0.003501707	-0.02542825	-0.05662309	-0.062987	0.8373576	0.1988051
	0.003524012	-0.02546064	0.05577792	-0.04799533	0.8373576	0.1988051	0.05469419	-0.05465459
4.7e+08	-0.06672761	-0.06305221	0.8540799	0.08878358	-0.0276559	-0.04277402	-0.0003787978	-0.0259758
	0.8540799	0.08878358	0.05704117	-0.06757291	-0.0003889435	-0.02593781	0.05328119	-0.04703161
	-0.0276559	-0.04277402	-0.0003889435	-0.02593781	-0.06740089	-0.06308343	0.8541663	0.08803474
	-0.0003787978	-0.0259758	0.05328119	-0.04703161	0.8541663	0.08803474	0.05787597	-0.06778439
4.8e+08	-0.07784674	-0.06101527	0.856353	-0.02289367	-0.03699649	-0.03078349	-0.004267029	-0.02581985
	0.856353	-0.02289367	0.0574778	-0.08168674	-0.004263135	-0.02578094	0.05169447	-0.04584149
	-0.03699649	-0.03078349	-0.004263135	-0.02578094	-0.07866831	-0.0608796	0.8563278	-0.02365827
	-0.004267029	-0.02581985	0.05169447	-0.04584149	0.8563278	-0.02365827	0.05840313	-0.08194155
4.9e+08	-0.08896688	-0.05649277	0.8440533	-0.1335494	-0.0434959	-0.0169552	-0.008009809	-0.02504557
	0.8440533	-0.1335494	0.05507359	-0.09612871	-0.007992693	-0.02501076	0.05103141	-0.04470911
	-0.0434959	-0.0169552	-0.007992693	-0.02501076	-0.08990158	-0.05615748	0.8439132	-0.1343135
	-0.008009809	-0.02504557	0.05103141	-0.04470911	0.8439132	-0.1343135	0.05608684	-0.09645441
5e+08	-0.09949752	-0.04938605	0.8175247	-0.2412767	-0.04681314	-0.001971073	-0.01150786	-0.02373179
	0.8175247	-0.2412767	0.04982781	-0.1102062	-0.01147935	-0.02370605	0.05122703	-0.04391109
	-0.04681314	-0.001971074	-0.01147935	-0.02370605	-0.1005026	-0.04882623	0.8172708	-0.2420182
	-0.01150786	-0.02373179	0.05122703	-0.04391109	0.8172708	-0.2420182	0.05091927	-0.1106286
5.1e+08	-0.1088045	-0.03974155	0.777365	-0.3442473	-0.04677196	0.01343133	-0.01469535	-0.0219713
	0.777365	-0.3442473	0.04191671	-0.1232524	-0.01465926	-0.02195827	0.05214298	-0.04369608
	-0.04677196	0.01343133	-0.01465926	-0.02195827	-0.1098319	-0.03894323	0.7770041	-0.3449505
	-0.01469535	-0.0219713	0.05214298	-0.04369608	0.7770041	-0.3449505	0.04307046	-0.1237957
5.2e+08	-0.1162479	-0.02776836	0.7244102	-0.4407625	-0.04336648	0.02850022	-0.01754138	-0.0198552
	0.7244102	-0.4407625	0.03167978	-0.1346744	-0.01750307	-0.01985694	0.05357835	-0.04426472
	-0.04336648	0.02850022	-0.01750307	-0.01985694	-0.1172469	-0.02672804	0.7239477	-0.4414109
