# GHz S RI R 45
0.000     0.035786551000    0.000000000000    0.000015250340    -0.000000000000    0.000836452800    0.000000000000    0.000000475548    -0.000000000000
            0.000015250246    -0.000000000000    0.035202193000    0.000000000000    0.000008268286    -0.000000000000    0.000838806550    -0.000000000000
            0.000836449340    0.000000000000    0.000008268004    -0.000000000000    0.035732498000    0.000000000000    -0.000001337051    0.000000000000
            0.000000475288    -0.000000000000    0.000838803580    -0.000000000000    -0.000001337014    0.000000000000    0.035137501000    0.000000000000
0.025     0.044205288645    0.006330319207    -0.000003770137    -0.000003766498    0.005182500848    0.011785002031    0.000001635079    0.000005740345
            -0.000003770175    -0.000003766479    0.043263160291    0.005837963888    0.000000221992    0.000000799077    0.004954770062    0.011107495905
            0.005182486706    0.011785053040    0.000000221920    0.000000799395    0.044151325938    0.006341457009    0.000001951394    0.000007736107
            0.000001634842    0.000005740465    0.004954755165    0.011107547444    0.000001951421    0.000007736094    0.043214351359    0.005825970948
0.050     0.054099325258    0.001948874180    0.000002138055    0.000009436050    0.016089416920    0.018150484913    0.000010154750    0.000008774091
            0.000002138027    0.000009436092    0.052957495453    0.001451148258    0.000008870987    0.000008279131    0.015490561582    0.017179852499
            0.016089408546    0.018150500355    0.000008870826    0.000008279363    0.054087251595    0.002009685010    0.000012186118    0.000010392832
            0.000010154604    0.000008774306    0.015490553606    0.017179867770    0.000012186127    0.000010392821    0.052922677936    0.001443299343
0.075     0.061488026240    -0.010087374048    0.000015891469    0.000008496846    0.028946468920    0.015975442874    0.000020051354    0.000003613364
            0.000015891458    0.000008496894    0.060586271794    -0.010302041175    0.000020349121    0.000003921769    0.028183841661    0.015101445639
            0.028946464180    0.015975451462    0.000020349085    0.000003922042    0.061574964618    -0.010019393744    0.000023378055    0.000004103029
            0.000020051326    0.000003613616    0.028183836035    0.015101454021    0.000023378061    0.000004103014    0.060595820943    -0.010308870156
0.100     0.061768976164    -0.028205277883    0.000024968763    -0.000004134222    0.038117244887    0.005390726029    0.000025427809    -0.000008851101
            0.000024968776    -0.000004134171    0.061806247619    -0.028205071140    0.000026623286    -0.000009680211    0.037728705996    0.004781748557
            0.038117246585    0.005390728304    0.000026623377    -0.000009679952    0.061980015041    -0.028193715187    0.000029363264    -0.000010241617
            0.000025427898    -0.000008850861    0.037728707680    0.004781751179    0.000029363261    -0.000010241633    0.061892440412    -0.028232753052
0.125     0.051311065355    -0.047754984575    0.000023163495    -0.000021551660    0.038885437430    -0.010242554673    0.000022214401    -0.000024512491
            0.000023163525    -0.000021551623    0.052980737854    -0.048148040505    0.000022677120    -0.000026824733    0.039539758941    -0.010875642604
            0.038885439900    -0.010242553147    0.000022677319    -0.000026824545    0.051637472412    -0.047875122057    0.000025642294    -0.000028139281
            0.000022214587    -0.000024512321    0.039539761439    -0.010875641064    0.000025642286    -0.000028139295    0.053166890284    -0.048240402339
0.150     0.029549989738    -0.062358629540    0.000009829246    -0.000035896173    0.029100584975    -0.025280122601    0.000009399312    -0.000037735238
            0.000009829289    -0.000035896152    0.033143223173    -0.064289796510    0.000007911557    -0.000040513574    0.031258539051    -0.026756234132
            0.029100587367    -0.025280122897    0.000007911809    -0.000040513498    0.029943206886    -0.062680859915    0.000011048681    -0.000043288772
            0.000009399540    -0.000037735180    0.031258541504    -0.026756234341    0.000011048669    -0.000043288781    0.033424126851    -0.064511489303
0.175     -0.000279768237    -0.065641168805    -0.000011062786    -0.000040575067    0.010102384204    -0.033489169348    -0.000010641066    -0.000043029114
            -0.000011062740    -0.000040575066    0.004771815848    -0.070514006537    -0.000014144956    -0.000044604220    0.013639945544    -0.036993162507
            0.010102386824    -0.033489171691    -0.000014144690    -0.000044604271    0.000091676295    -0.066211965533    -0.000011795621    -0.000049498731
            -0.000010640827    -0.000043029210    0.013639947527    -0.036993163908    -0.000011795639    -0.000049498733    0.005104371029    -0.070929449553
0.200     -0.031500405716    -0.053625459971    -0.000032722897    -0.000032657341    -0.013317085005    -0.030082237619    -0.000032750217    -0.000036953085
            -0.000032722857    -0.000032657358    -0.026389837024    -0.062586367331    -0.000037118052    -0.000036010945    -0.009354424611    -0.036745033634
            -0.013317085814    -0.030082239447    -0.000037117875    -0.000036011087    -0.031265425676    -0.054444056313    -0.000037121914    -0.000042828270
            -0.000032750029    -0.000036953237    -0.009354418691    -0.036745037205    -0.000037121923    -0.000042828266    -0.026088541188    -0.063237050437
0.225     -0.055729615753    -0.026431525556    -0.000047843447    -0.000013540450    -0.034131359524    -0.013537168022    -0.000050399768    -0.000019374085
            -0.000047843418    -0.000013540487    -0.052709314177    -0.039746309992    -0.000053783362    -0.000015663161    -0.031465360111    -0.023857724226
            -0.034131360454    -0.013537168391    -0.000053783273    -0.000015663359    -0.055745481475    -0.027434214049    -0.000057568176    -0.000023014836
            -0.000050399675    -0.000019374302    -0.031465357541    -0.023857730926    -0.000057568174    -0.000023014847    -0.052549049683    -0.040625539103
0.250     -0.065410461407    0.011158820450    -0.000051288791    0.000011627273    -0.045251375942    0.013509346958    -0.000057833776    0.000006222488
            -0.000051288786    0.000011627272    -0.066766783351    -0.005431805821    -0.000058578549    0.000011696442    -0.045897298715    0.000155165716
            -0.045251375942    0.013509346958    -0.000058578565    0.000011696222    -0.065754366939    0.010097175684    -0.000066553407    0.000006128999
            -0.000057833792    0.000006222265    -0.045897299742    0.000155157708    -0.000066553429    0.000006129083    -0.066853542355    -0.006469461920
0.275     -0.056345675003    0.050744487624    -0.000041574905    0.000035820309    -0.041903201825    0.044812980274    -0.000051937049    0.000033710094
            -0.000041574918    0.000035820258    -0.063624966949    0.033301194339    -0.000049306414    0.000039069247    -0.047403878895    0.030276436945
            -0.041903208963    0.044812972230    -0.000049306528    0.000039069057    -0.057024367295    0.049786272482    -0.000060380612    0.000037747741
            -0.000051937166    0.000033709912    -0.047403879738    0.030276437483    -0.000060380624    0.000037747734    -0.064023941405    0.032234353133
0.300     -0.029243962318    0.082647079367    -0.000021118333    0.000052641686    -0.023265821547    0.072366769932    -0.000033186383    0.000056286495
            -0.000021118344    0.000052641686    -0.042486489133    0.067537045375    -0.000027699029    0.000059539692    -0.033970098310    0.059300830791
            -0.023265821853    0.072366770884    -0.000027699215    0.000059539575    -0.030176851781    0.081951318233    -0.000039378530    0.000064088210
            -0.000033186561    0.000056286392    -0.033970098807    0.059300831659    -0.000039378469    0.000064088286    -0.043189330527    0.066603240975
0.325     0.010352300801    0.098679258350    0.000005016188    0.000058047774    0.007264057813    0.088759043094    -0.000005257884    0.000068380904
            0.000005016148    0.000058047752    -0.007105235767    0.088886549115    0.000001494581    0.000068150001    -0.007471578160    0.079820685836
            0.007264054796    0.088759044344    0.000001494339    0.000068149964    0.009324886994    0.098354297627    -0.000007560414    0.000078654896
            -0.000005258086    0.000068380887    -0.007471579646    0.079820686701    -0.000007560338    0.000078654938    -0.008016616201    0.088238168469
0.350     0.053535447834    0.094325889408    0.000030944503    0.000051058649    0.043052277408    0.089154338028    0.000026230879    0.000066855749
            0.000030944417    0.000051058642    0.035079353103    0.091678302576    0.000032130391    0.000062865152    0.026790189136    0.086179001573
            0.043052277843    0.089154338928    0.000032130203    0.000062865228    0.052621181697    0.094392258072    0.000028718142    0.000077649636
            0.000026230691    0.000066855913    0.026790186424    0.086179003463    0.000028718140    0.000077649642    0.034131643991    0.091412508849
0.375     0.090229187393    0.069773774611    0.000051373974    0.000033271186    0.075880678960    0.072382925136    0.000055033264    0.000051260342
            0.000051373978    0.000033271192    0.074710288514    0.074328792363    0.000058097467    0.000044432890    0.061371172558    0.075817366039
            0.075880684933    0.072382933363    0.000058097297    0.000044433039    0.089636799170    0.070145842606    0.000062250087    0.000060365390
            0.000055033142    0.000051260488    0.061371172493    0.075817368665    0.000062250088    0.000060365400    0.073943172612    0.074450999764
0.400     0.111406609400    0.029864100985    0.000062396843    0.000008027558    0.097718624731    0.041205580069    0.000075251462    0.000023618257
            0.000062396860    0.000008027551    0.102582733647    0.039731876717    0.000074250897    0.000015831066    0.088316566968    0.049873222904
            0.097718633226    0.041205585660    0.000074250843    0.000015831223    0.111294301065    0.030353920506    0.000086158804    0.000029009694
            0.000075251421    0.000023618437    0.088316566098    0.049873224445    0.000086158809    0.000029009700    0.102210225505    0.040137436508
0.425     0.110985881005    -0.016774438760    0.000061639556    -0.000020243366    0.102365346730    0.001944835886    0.000081991704    -0.000011807976
            0.000061639540    -0.000020243283    0.111580391895    -0.005248016240    0.000076855463    -0.000018226715    0.100797256575    0.013068108342
            0.102365345936    0.001944877693    0.000076855489    -0.000018226540    0.111413307516    -0.016429733164    0.000094723726    -0.000011570083
            0.000081991742    -0.000011807801    0.100797256393    0.013068109750    0.000094723744    -0.000011570120    0.111758957171    -0.004769170242
0.450     0.087344752223    -0.059206726078    0.000048425520    -0.000046422772    0.086986796911    -0.036432612580    0.000072138981    -0.000048697683
            0.000048425576    -0.000046422702    0.098267751459    -0.050968960804    0.000064074881    -0.000051643468    0.094627320042    -0.026988535547
            0.086986800314    -0.036432612221    0.000064074956    -0.000051643229    0.088236211787    -0.059295204326    0.000084292085    -0.000054154485
            0.000072139093    -0.000048697555    0.094627322437    -0.026988534444    0.000084292098    -0.000054154483    0.099044784833    -0.050702121232
0.475     0.044285688786    -0.086331240338    0.000024170217    -0.000065051180    0.053372507715    -0.063964569555    0.000045468473    -0.000079159851
            0.000024170271    -0.000065051117    0.063955187058    -0.086806704753    0.000036712668    -0.000077434294    0.069494240748    -0.061114591859
            0.053372507715    -0.063964569555    0.000036712813    -0.000077434212    0.045418230826    -0.087095789584    0.000054508511    -0.000089749244
            0.000045468625    -0.000079159786    0.069494244818    -0.061114593288    0.000054508497    -0.000089749276    0.065232652761    -0.087055222732
0.500     -0.008982542066    -0.089664342309    -0.000007122610    -0.000071253143    0.008419106955    -0.072191995355    0.000005800397    -0.000095147467
            -0.000007122507    -0.000071253094    0.014989238146    -0.103461436634    -0.000001018609    -0.000088947763    0.029631033863    -0.080517800708
            0.008419108563    -0.072191998187    -0.000001018361    -0.000088947705    -0.007953254149    -0.091223785085    0.000009568255    -0.000109171872
            0.000005800542    -0.000095147475    0.029631033863    -0.080517800708    0.000009568190    -0.000109171938    0.016516186682    -0.104469993940
0.525     -0.059513361734    -0.066204884742    -0.000038935864    -0.000062316192    -0.036957296035    -0.057012993280    -0.000038757999    -0.000090940825
            -0.000038935770    -0.000062316163    -0.038146906443    -0.095439812279    -0.000041483539    -0.000081904737    -0.016582889553    -0.079148880529
            -0.036957297667    -0.057012995797    -0.000041483358    -0.000081904806    -0.058979316448    -0.068490650900    -0.000041512644    -0.000105784064
            -0.000038757874    -0.000090940883    -0.016582889963    -0.079148882486    -0.000041512663    -0.000105784056    -0.036737405569    -0.097314914843
0.550     -0.094077089499    -0.020141075110    -0.000063678839    -0.000039283329    -0.070765478795    -0.020675658497    -0.000077520974    -0.000065786495
            -0.000063678799    -0.000039283319    -0.083120104833    -0.062992003472    -0.000075229764    -0.000056481948    -0.058403580802    -0.055774768399
            -0.070765478795    -0.020675658497    -0.000075229633    -0.000056482117    -0.094369145758    -0.022882173272    -0.000086728951    -0.000078410340
            -0.000077520855    -0.000065786604    -0.058403576130    -0.055774783427    -0.000086728935    -0.000078410298    -0.082229839802    -0.065645850493
0.575     -0.103331756988    0.037903771990    -0.000075224206    -0.000007257684    -0.083803774262    0.028483781626    -0.000100695036    -0.000024900497
            -0.000075224140    -0.000007257704    -0.109009915165    -0.012542566612    -0.000093989567    -0.000017952421    -0.085604818421    -0.014762963822
            -0.083803774262    0.028483781626    -0.000093989570    -0.000017952558    -0.104613396995    0.035126961719    -0.000114860267    -0.000032543409
            -0.000100694962    -0.000024900628    -0.085604818421    -0.014762963822    -0.000114860258    -0.000032543406    -0.108968388897    -0.015690140863
0.600     -0.084760990595    0.094127597241    -0.000071144655    0.000026274556    -0.072582060008    0.078719916398    -0.000102796935    0.000022220639
            -0.000071144687    0.000026274582    -0.109416633526    0.044858479405    -0.000093508362    0.000024958784    -0.091429843170    0.034969788486
            -0.072582060008    0.078719916398    -0.000093508374    0.000024958647    -0.086968311760    0.091775827053    -0.000119285974    0.000021366443
            -0.000102796985    0.000022220499    -0.091429852076    0.034969773600    -0.000119285974    0.000021366443    -0.110384800301    0.041642284430
0.625     -0.042967370613    0.135764798655    -0.000053156406    0.000054141683    -0.039869806645    0.118590403522    -0.000083963868    0.000065212887
            -0.000053156397    0.000054141655    -0.084122158928    0.096585258415    -0.000074497728    0.000063099376    -0.074342390143    0.082503627240
            -0.039869806645    0.118590403522    -0.000074497784    0.000063099223    -0.045820136547    0.134218939582    -0.000099606467    0.000071589218
            -0.000083963979    0.000065212809    -0.074342396837    0.082503634669    -0.000099606520    0.000071589229    -0.086041201510    0.093764641480
0.650     0.012375497548    0.154293531830    -0.000025718729    0.000071509074    0.006884848935    0.139854546679    -0.000048804249    0.000095836034
            -0.000025718799    0.000071509032    -0.038770481390    0.131721458386    -0.000041462049    0.000089431482    -0.038032254971    0.117806224046
            0.006884848935    0.139854546679    -0.000041462165    0.000089431446    0.009304438490    0.153762793825    -0.000060574109    0.000108474835
            -0.000048804377    0.000095836037    -0.038032258044    0.117806233562    -0.000060574071    0.000108474901    -0.041370111618    0.129689159858
0.675     0.069471093387    0.146696793192    0.000005897886    0.000076300225    0.057961843348    0.138678141570    -0.000004174212    0.000109167375
            0.000005897842    0.000076300202    0.016984959928    0.143389934884    -0.000000686157    0.000099962869    0.009980862338    0.133862406125
            0.057961840928    0.138678142582    -0.000000686493    0.000099963233    0.066660829245    0.147177461614    -0.000009745946    0.000125954568
            -0.000004174326    0.000109167411    0.009980831860    0.133862438481    -0.000009745918    0.000125954580    0.014129157815    0.142380603067
0.700     0.116941392333    0.115173963252    0.000036869969    0.000068446657    0.103408318717    0.115560453811    0.000042548030    0.000103298181
            0.000036869857    0.000068446617    0.071874846345    0.129706729422    0.000041285038    0.000093355128    0.060241942524    0.127674588401
            0.103408318717    0.115560453811    0.000041284852    0.000093355134    0.114827404338    0.116451410464    0.000044464054    0.000121374813
            0.000042547883    0.000103298219    0.060241942334    0.127674599548    0.000044464173    0.000121374887    0.069256060728    0.129746554223
0.725     0.145523355357    0.066158773424    0.000063019061    0.000048990560    0.134392084027    0.074765312504    0.000084133199    0.000078601866
            0.000063019055    0.000048990601    0.115173230411    0.093609026126    0.000078191810    0.000070204270    0.103102469514    0.100347439709
            0.134392092766    0.074765317365    0.000078191704    0.000070204359    0.144417272587    0.067842145657    0.000093629901    0.000094794871
            0.000084132840    0.000078602001    0.103102476680    0.100347446683    0.000093629864    0.000094794850    0.113261638046    0.094505630359
0.750     0.149209070072    0.009261866563    0.000080401487    0.000019768546    0.144244720280    0.023801016843    0.000113495365    0.000037515892
            0.000080401456    0.000019768604    0.138365321297    0.042085008207    0.000103974919    0.000032785191    0.130143023521    0.056751379951
            0.144244720321    0.023801016591    0.000103974907    0.000032785295    0.149231265315    0.010842341190    0.000129412110    0.000048746806
            0.000113495514    0.000037515889    0.130143023521    0.056751379951    0.000129412100    0.000048746802    0.137518441398    0.043449430832
0.775     0.126261665575    -0.043844808463    0.000085043232    -0.000016080615    0.129637303809    -0.027177777513    0.000123851078    -0.000014912414
            0.000085043178    -0.000016080591    0.136423497299    -0.014901983774    0.000112833500    -0.000014473794    0.135422788566    0.004937526707
            0.129637291349    -0.027177739470    0.000112833621    -0.000014473874    0.127293141775    -0.042910346043    0.000143800771    -0.000011174600
            0.000123851156    -0.000014912441    0.135422788566    0.004937526707    0.000143800780    -0.000011174613    0.136806633981    -0.013600478278
