# GHz S RI R 45
0.000     0.035786551000    0.000000000000    -0.000004377627    0.000000000000    0.000836452800    0.000000000000    0.000000045653    -0.000000000000
            -0.000004377540    0.000000000000    0.035477545000    0.000000000000    -0.000007658723    0.000000000000    0.000871691690    -0.000000000000
            0.000836449340    0.000000000000    -0.000007658376    0.000000000000    0.035732498000    0.000000000000    0.000015317757    -0.000000000000
            0.000000045649    -0.000000000000    0.000871691690    -0.000000000000    0.000015317778    -0.000000000000    0.035317965000    0.000000000000
0.025     0.044205288645    0.006330319207    -0.000003404823    -0.000004817474    0.005182500848    0.011785002031    -0.000003573112    -0.000008196348
            -0.000003404745    -0.000004817517    0.043187916924    0.005315728733    -0.000002890199    -0.000004404340    0.004627022725    0.010646349245
            0.005182486706    0.011785053040    -0.000002890086    -0.000004404390    0.044151325938    0.006341457009    -0.000014290030    -0.000019324088
            -0.000003573112    -0.000008196349    0.004627011381    0.010646398880    -0.000014290038    -0.000019324085    0.043151297723    0.005306385921
0.050     0.054099325258    0.001948874180    -0.000012834946    -0.000008865902    0.016089416920    0.018150484913    -0.000015273442    -0.000010365159
            -0.000012834896    -0.000008865967    0.052075961430    0.000841690488    -0.000013802664    -0.000011882709    0.014339160721    0.016712412125
            0.016089408546    0.018150500355    -0.000013802609    -0.000011882779    0.054087251595    0.002009685010    -0.000029700460    -0.000006595164
            -0.000015273444    -0.000010365157    0.014339153476    0.016712424929    -0.000029700458    -0.000006595169    0.052063575254    0.000829950854
0.075     0.061488026240    -0.010087374048    -0.000024615272    -0.000001722623    0.028946468920    0.015975442874    -0.000027592824    -0.000001867466
            -0.000024615255    -0.000001722704    0.058717604702    -0.010380648278    -0.000029646221    -0.000004313830    0.026072284874    0.015290644682
            0.028946464180    0.015975451462    -0.000029646202    -0.000004313917    0.061574964618    -0.010019393744    -0.000035811524    0.000009176970
            -0.000027592823    -0.000001867461    0.026072279413    0.015290650040    -0.000035811523    0.000009176970    0.058758934575    -0.010408013320
0.100     0.061768976164    -0.028205277883    -0.000029716390    0.000014733299    0.038117244887    0.005390726029    -0.000032889853    0.000015950526
            -0.000029716408    0.000014733218    0.059174604496    -0.027058429784    -0.000037563431    0.000015958149    0.034951523757    0.006321472101
            0.038117246585    0.005390728304    -0.000037563450    0.000015958064    0.061980015041    -0.028193715187    -0.000034177032    0.000028209306
            -0.000032889853    0.000015950519    0.034951523757    0.006321472101    -0.000034177036    0.000028209299    0.059292847191    -0.027132977057
0.125     0.051311065355    -0.047754984575    -0.000022819669    0.000034263593    0.038885437430    -0.010242554673    -0.000025711946    0.000037110688
            -0.000022819721    0.000034263528    0.050217362214    -0.045264990119    -0.000030338069    0.000040951724    0.036795958295    -0.007515953558
            0.038885439900    -0.010242553147    -0.000030338120    0.000040951659    0.051637472412    -0.047875122057    -0.000022211645    0.000047427817
            -0.000025711945    0.000037110686    0.036795958295    -0.007515953558    -0.000022211645    0.000047427817    0.050418911267    -0.045434646167
0.150     0.029549989738    -0.062358629540    -0.000003368528    0.000048628279    0.029100584975    -0.025280122601    -0.000005095365    0.000053201036
            -0.000003368610    0.000048628240    0.031139603218    -0.059557217376    -0.000006917583    0.000060145458    0.029482708757    -0.021535416273
            0.029100587367    -0.025280122897    -0.000006917661    0.000060145418    0.029943206886    -0.062680859915    0.000000892774    0.000060857077
            -0.000005095365    0.000053201036    0.029482708757    -0.021535416273    0.000000892769    0.000060857078    0.031403260396    -0.059878467716
0.175     -0.000279768237    -0.065641168805    0.000024094680    0.000050404667    0.010102384204    -0.033489169348    0.000024646389    0.000056224219
            0.000024094590    0.000050404665    0.004436082123    -0.064313611405    0.000027245481    0.000063949345    0.013752429153    -0.030391776539
            0.010102386824    -0.033489171691    0.000027245394    0.000063949343    0.000091676295    -0.066211965533    0.000032021489    0.000061825894
            0.000024646393    0.000056224218    0.013752429153    -0.030391776539    0.000032021487    0.000061825896    0.004705926705    -0.064834019348
0.200     -0.031500405716    -0.053625459971    0.000051155843    0.000035907867    -0.013317085005    -0.030082237619    0.000054856578    0.000041716547
            0.000051155761    0.000035907906    -0.024397975363    -0.055769392448    0.000061766659    0.000047391427    -0.006728065661    -0.029721168076
            -0.013317085814    -0.030082239447    0.000061766580    0.000047391461    -0.031265425676    -0.054444056313    0.000063724471    0.000045647055
            0.000054856581    0.000041716543    -0.006728065661    -0.029721168076    0.000063724472    0.000045647056    -0.024207513183    -0.056506342385
0.225     -0.055729615753    -0.026431525556    0.000068196929    0.000006967090    -0.034131359524    -0.013537168022    0.000075130813    0.000010915875
            0.000068196873    0.000006967157    -0.048209223420    -0.033468761406    0.000084584942    0.000012300375    -0.026229719718    -0.017659271090
            -0.034131360454    -0.013537168391    0.000084584887    0.000012300445    -0.055745481475    -0.027434214049    0.000086048079    0.000012490360
            0.000075130811    0.000010915872    -0.026229719718    -0.017659271090    0.000086048078    0.000012490358    -0.048196145690    -0.034390987207
0.250     -0.065410461407    0.011158820450    0.000067996088    -0.000029155464    -0.045251375942    0.013509346958    0.000077081583    -0.000028936541
            0.000067996064    -0.000029155381    -0.060180772547    -0.000880604960    0.000086368473    -0.000032712331    -0.038604310823    0.004288452679
            -0.045251375942    0.013509346958    0.000086368450    -0.000032712248    -0.065754366939    0.010097175684    0.000089786762    -0.000031386236
            0.000077081579    -0.000028936544    -0.038604310823    0.004288452679    0.000089786785    -0.000031386318    -0.060425723170    -0.001901266771
0.275     -0.056345675003    0.050744487624    0.000048531484    -0.000062072223    -0.041903201825    0.044812980274    0.000057592757    -0.000066722110
            0.000048531498    -0.000062072139    -0.055948847173    0.035220310713    0.000063976228    -0.000074908670    -0.039203950485    0.031447513107
            -0.041903208963    0.044812972230    0.000063976242    -0.000074908586    -0.057024367295    0.049786272482    0.000070331615    -0.000075001062
            0.000057592752    -0.000066722111    -0.039203950485    0.031447513107    0.000070331603    -0.000075001101    -0.056483296855    0.034231785190
0.300     -0.029243962318    0.082647079367    0.000013814417    -0.000081928618    -0.023265821547    0.072366769932    0.000020142105    -0.000091230613
            0.000013814420    -0.000081928615    -0.035099852284    0.066465287793    0.000021704515    -0.000101785022    -0.026391786622    0.057232314999
            -0.023265821853    0.072366770884    0.000021704570    -0.000101784959    -0.030176851781    0.081951318233    0.000029728059    -0.000106000052
            0.000020142102    -0.000091230614    -0.026391786622    0.057232314999    0.000029728059    -0.000106000052    -0.035883047265    0.065653950866
0.325     0.010352300801    0.098679258350    -0.000027657018    -0.000082516658    0.007264057813    0.088759043094    -0.000026446955    -0.000094732181
            -0.000027656940    -0.000082516618    -0.001470912236    0.085152307754    -0.000030304013    -0.000104951322    -0.002085337173    0.074991186321
            0.007264054796    0.088759044344    -0.000030303984    -0.000104951289    0.009324886994    0.098354297627    -0.000023747514    -0.000114651849
            -0.000026446955    -0.000094732181    -0.002085337173    0.074991186321    -0.000023747514    -0.000114651849    -0.002385754625    0.084636660619
0.350     0.053535447834    0.094325889408    -0.000065701843    -0.000062740098    0.043052277408    0.089154338028    -0.000070840327    -0.000074970104
            -0.000065701840    -0.000062740096    0.037747457942    0.086273276294    -0.000079319964    -0.000082244218    0.028736928025    0.079776661378
            0.043052277843    0.089154338928    -0.000079319964    -0.000082244218    0.052621181697    0.094392258072    -0.000077941905    -0.000096457351
            -0.000070840320    -0.000074970096    0.028736928025    0.079776661378    -0.000077941987    -0.000096457350    0.036876003221    0.086106952451
0.375     0.090229187393    0.069773774611    -0.000091023860    -0.000026290621    0.075880678960    0.072382925136    -0.000102104042    -0.000035226085
            -0.000091023815    -0.000026290643    0.073726146771    0.068736835578    -0.000113265224    -0.000037673539    0.059252620673    0.069531173981
            0.075880684933    0.072382933363    -0.000113265138    -0.000037673576    0.089636799170    0.070145842606    -0.000119852206    -0.000053084787
            -0.000102104042    -0.000035226085    0.059252620673    0.069531173981    -0.000119852196    -0.000053084808    0.073095351856    0.068881977284
0.400     0.111406609400    0.029864100985    -0.000096934382    0.000019496777    0.097718624731    0.041205580069    -0.000111871858    0.000016690099
            -0.000096934326    0.000019496712    0.097959041842    0.035658400255    -0.000123135045    0.000019804119    0.082299635261    0.045575674249
            0.097718633226    0.041205585660    -0.000123134986    0.000019804044    0.111294301065    0.030353920506    -0.000138205395    0.000007977803
            -0.000111871858    0.000016690099    0.082299635261    0.045575674249    -0.000138205395    0.000007977803    0.097742255282    0.035978363957
0.425     0.110985881005    -0.016774438760    -0.000080353802    0.000064876093    0.102365346730    0.001944835886    -0.000095768916    0.000069765997
            -0.000080353782    0.000064876007    0.104075039062    -0.006185353634    -0.000104518526    0.000077881278    0.091865146562    0.012463548891
            0.102365345936    0.001944877693    -0.000104518526    0.000077881278    0.111413307516    -0.016429733164    -0.000125705248    0.000074427306
            -0.000095768916    0.000069765997    0.091865146562    0.012463548891    -0.000125705248    0.000074427306    0.104373948959    -0.005911291479
0.450     0.087344752223    -0.059206726078    -0.000042728408    0.000099015254    0.086986796911    -0.036432612580    -0.000054663433    0.000111341324
            -0.000042728411    0.000099015166    0.089310430724    -0.047544301682    -0.000058848848    0.000122750150    0.084463014166    -0.022698235764
            0.086986800314    -0.036432612221    -0.000058848843    0.000122750141    0.088236211787    -0.059295204326    -0.000081152652    0.000130747297
            -0.000054663433    0.000111341324    0.084463014166    -0.022698235764    -0.000081152652    0.000130747297    0.090114136712    -0.047584743464
0.475     0.044285688786    -0.086331240338    0.000009156268    0.000111949121    0.053372507715    -0.063964569555    0.000004278804    0.000129419597
            0.000009156241    0.000111949083    0.055466170446    -0.078454925253    0.000005679662    0.000141663179    0.060245941734    -0.051505110210
            0.053372507715    -0.063964569555    0.000005679665    0.000141663179    0.045418230826    -0.087095789584    -0.000011315897    0.000161111866
            0.000004278804    0.000129419597    0.060245941734    -0.051505110210    -0.000011315897    0.000161111866    0.056628231336    -0.079068917949
0.500     -0.008982542066    -0.089664342309    0.000063324310    0.000097623556    0.008419106955    -0.072191995355    0.000067633069    0.000116214087
            0.000063324312    0.000097623554    0.009089608250    -0.090483178699    0.000074401814    0.000126651972    0.023568400729    -0.066127531699
            0.008419108563    -0.072191998187    0.000074401812    0.000126651973    -0.007953254149    -0.091223785085    0.000068631906    0.000153908018
            0.000067633069    0.000116214087    0.023568400729    -0.066127531699    0.000068631906    0.000153908018    0.010334188266    -0.091848870289
0.525     -0.059513361734    -0.066204884742    0.000105037309    0.000057162733    -0.036957296035    -0.057012993280    0.000118339928    0.000072027511
            0.000105037295    0.000057162718    -0.039530204216    -0.079091883423    0.000129090822    0.000078420784    -0.017502403638    -0.061526737429
            -0.036957297667    -0.057012995797    0.000129090816    0.000078420775    -0.058979316448    -0.068490650900    0.000137909767    0.000106852809
            0.000118339938    0.000072027495    -0.017502403638    -0.061526737429    0.000137909763    0.000106852830    -0.038560719505    -0.081239789063
0.550     -0.094077089499    -0.020141075110    0.000121728121    0.000000155525    -0.070765478795    -0.020675658497    0.000141248908    0.000007022096
            0.000121728121    0.000000155524    -0.078714384448    -0.045382908231    0.000153752047    0.000007992620    -0.053011776685    -0.037317252760
            -0.070765478795    -0.020675658497    0.000153752007    0.000007992609    -0.094369145758    -0.022882173272    0.000176548561    0.000029798797
            0.000141248908    0.000007022096    -0.053011776685    -0.037317252760    0.000176548585    0.000029798835    -0.078375712679    -0.048157871094
0.575     -0.103331756988    0.037903771990    0.000108181702    -0.000058019337    -0.083803774262    0.028483781626    0.000129198646    -0.000061454282
            0.000108181702    -0.000058019337    -0.098604033270    0.003724165058    0.000140842729    -0.000066156743    -0.073919259283    0.001702865776
            -0.083803774262    0.028483781626    0.000140842729    -0.000066156743    -0.104613396995    0.035126961719    0.000172911056    -0.000057596033
            0.000129198647    -0.000061454280    -0.073919259283    0.001702865776    0.000172911056    -0.000057596033    -0.099148923627    0.000647518404
0.600     -0.084760990595    0.094127597241    0.000068568670    -0.000101992281    -0.072582060008    0.078719916398    0.000085795944    -0.000115294524
            0.000068568599    -0.000101992257    -0.094044123924    0.057257965902    0.000094106323    -0.000124733779    -0.074799834489    0.046811821149
            -0.072582060008    0.078719916398    0.000094106321    -0.000124733781    -0.086968311760    0.091775827053    0.000127873583    -0.000132832827
            0.000085795872    -0.000115294503    -0.074799834489    0.046811821149    0.000127873585    -0.000132832825    -0.095542627089    0.054304421603
0.625     -0.042967370613    0.135764798655    0.000013981945    -0.000121777285    -0.039869806645    0.118590403522    0.000023093833    -0.000141946800
            0.000013981945    -0.000121777285    -0.065904661149    0.103286499371    0.000026251978    -0.000154160054    -0.055234905139    0.087932136401
            -0.039869806645    0.118590403522    0.000026251978    -0.000154160054    -0.045820136547    0.134218939582    0.000053324904    -0.000178156454
            0.000023093833    -0.000141946800    -0.055234905139    0.087932136401    0.000053324904    -0.000178156454    -0.068214350076    0.100876556815
0.650     0.012375497548    0.154293531830    -0.000042379146    -0.000114730739    0.006884848935    0.139854546679    -0.000043664010    -0.000137148751
            -0.000042379146    -0.000114730739    -0.020453986732    0.132027000385    -0.000046413482    -0.000149536293    -0.019498906370    0.116316893609
            0.006884848935    0.139854546679    -0.000046413482    -0.000149536293    0.009304438490    0.153762793825    -0.000033116516    -0.000184694104
            -0.000043664010    -0.000137148751    -0.019498906370    0.116316893609    -0.000033116516    -0.000184694104    -0.023248330662    0.130473439572
0.675     0.069471093387    0.146696793192    -0.000089113784    -0.000084151917    0.057961843348    0.138678141570    -0.000100676174    -0.000103796224
            -0.000089113784    -0.000084151917    0.032622963227    0.137867319261    -0.000108831328    -0.000113674256    0.024962654604    0.126341498441
            0.057961840928    0.138678142582    -0.000108831328    -0.000113674256    0.066660829245    0.147177461614    -0.000113427870    -0.000152392978
            -0.000100676178    -0.000103796192    0.024962654604    0.126341498441    -0.000113427858    -0.000152392962    0.029783255428    0.137305397376
0.700     0.116941392333    0.115173963252    -0.000118140068    -0.000036737912    0.103408318717    0.115560453811    -0.000137692198    -0.000049245967
            -0.000118140068    -0.000036737912    0.082559014668    0.120031447961    -0.000149586909    -0.000054433622    0.069352886335    0.116184825690
            0.103408318717    0.115560453811    -0.000149586909    -0.000054433622    0.114827404338    0.116451410464    -0.000172268736    -0.000087886414
            -0.000137692198    -0.000049245967    0.069352886335    0.116184825690    -0.000172268736    -0.000087886414    0.080136450563    0.120388382684
0.725     0.145523355357    0.066158773424    -0.000124483294    0.000019181809    0.134392084027    0.074765312504    -0.000148109756    0.000016770451
            -0.000124482899    0.000019181681    0.119496514906    0.082236955783    -0.000161270404    0.000017472754    0.105068487413    0.087725444525
            0.134392092766    0.074765317365    -0.000161270394    0.000017472753    0.144417272587    0.067842145657    -0.000198081974    -0.000002496045
            -0.000148109743    0.000016770475    0.105068487413    0.087725444525    -0.000198081974    -0.000002496045    0.117888703323    0.083240827315
0.750     0.149209070072    0.009261866563    -0.000105886203    0.000074113816    0.144244720280    0.023801016843    -0.000128690591    0.000082873006
            -0.000105886170    0.000074113793    0.135985833599    0.031865866759    -0.000140373924    0.000089432530    0.124916244835    0.046140981312
            0.144244720321    0.023801016591    -0.000140373924    0.000089432530    0.149231265315    0.010842341190    -0.000183746970    0.000088707460
            -0.000128690551    0.000082873013    0.124916244835    0.046140981312    -0.000183746970    0.000088707460    0.135446205407    0.033083917655
0.775     0.126261665575    -0.043844808463    -0.000063357123    0.000117331172    0.129637303809    -0.027177777513    -0.000080210900    0.000136110456
            -0.000063357123    0.000117331172    0.128143096692    -0.021111147608    -0.000087987534    0.000147287535    0.124209417297    -0.000663608237
            0.129637291349    -0.027177739470    -0.000087987524    0.000147287518    0.127293141775    -0.042910346043    -0.000128061814    0.000167521713
