# GHz S RI R 45
0.000     0.035786551000    0.000000000000    0.000006539584    -0.000000000000    0.000836452800    0.000000000000    0.000000735122    -0.000000000000
            0.000006539622    -0.000000000000    0.034850644000    0.000000000000    0.000003400730    -0.000000000000    0.000794833560    -0.000000000000
            0.000836449340    0.000000000000    0.000003400678    -0.000000000000    0.035732498000    0.000000000000    0.000003129976    -0.000000000000
            0.000000735128    -0.000000000000    0.000794754490    -0.000000000000    0.000003129939    -0.000000000000    0.034797854000    0.000000000000
0.025     0.044205288645    0.006330319207    -0.000001962120    -0.000001764035    0.005182500848    0.011785002031    0.000000099951    0.000001801461
            -0.000001962091    -0.000001764059    0.042892192098    0.005759837132    0.000001777737    0.000000853654    0.004875919239    0.010852119327
            0.005182486706    0.011785053040    0.000001777691    0.000000853682    0.044151325938    0.006341457009    0.000004757972    0.000001350475
            0.000000099913    0.000001801479    0.004875833983    0.010852203677    0.000004757952    0.000001350486    0.042825872085    0.005732790150
0.050     0.054099325258    0.001948874180    0.000000336428    0.000003992041    0.016089416920    0.018150484913    0.000003196854    0.000003807402
            0.000000336452    0.000003992005    0.052605769441    0.001396941484    0.000004569907    0.000002920541    0.015300113206    0.016754454111
            0.016089408546    0.018150500355    0.000004569873    0.000002920586    0.054087251595    0.002009685010    0.000007409702    0.000000507567
            0.000003196832    0.000003807432    0.015300055772    0.016754526873    0.000007409686    0.000000507592    0.052544629534    0.001380413284
0.075     0.061488026240    -0.010087374048    0.000006041111    0.000004107075    0.028946468920    0.015975442874    0.000007482618    0.000002223496
            0.000006041116    0.000004107033    0.060409256244    -0.010272104859    0.000008779174    0.000000844775    0.027936373768    0.014650605497
            0.028946464180    0.015975451462    0.000008779164    0.000000844828    0.061574964618    -0.010019393744    0.000009678514    -0.000002671784
            0.000007482612    0.000002223533    0.027936349719    0.014650683651    0.000009678512    -0.000002671750    0.060395137449    -0.010277530406
0.100     0.061768976164    -0.028205277883    0.000010188313    -0.000000636999    0.038117244887    0.005390726029    0.000010116542    -0.000002562633
            0.000010188300    -0.000000637029    0.062042876144    -0.028147440478    0.000010851420    -0.000004613594    0.037610471603    0.004376615429
            0.038117246585    0.005390728304    0.000010851435    -0.000004613536    0.061980015041    -0.028193715187    0.000010027939    -0.000007784541
            0.000010116552    -0.000002562598    0.037610484495    0.004376694971    0.000010027952    -0.000007784511    0.062119347510    -0.028162587488
0.125     0.051311065355    -0.047754984575    0.000010173629    -0.000007684014    0.038885437430    -0.010242554673    0.000009331147    -0.000008893724
            0.000010173600    -0.000007684037    0.053858841797    -0.048302522875    0.000008933496    -0.000011323515    0.039794499724    -0.011325300584
            0.038885439900    -0.010242553147    0.000008933532    -0.000011323475    0.051637472412    -0.047875122057    0.000007253564    -0.000013498206
            0.000009331170    -0.000008893701    0.039794542574    -0.011325237698    0.000007253584    -0.000013498194    0.054062316580    -0.048376167932
0.150     0.029549989738    -0.062358629540    0.000005453668    -0.000013991355    0.029100584975    -0.025280122601    0.000004618495    -0.000014473579
            0.000005453632    -0.000013991361    0.034757548430    -0.065080769706    0.000002805111    -0.000016586861    0.032066420423    -0.027532243683
            0.029100587367    -0.025280122897    0.000002805165    -0.000016586839    0.029943206886    -0.062680859915    0.000001110336    -0.000017851949
            0.000004618525    -0.000014473568    0.032066480084    -0.027532206433    0.000001110359    -0.000017851948    0.035095549552    -0.065285333642
0.175     -0.000279768237    -0.065641168805    -0.000002719896    -0.000016820740    0.010102384204    -0.033489169348    -0.000003157969    -0.000017044904
            -0.000002719931    -0.000016820730    0.006945481772    -0.072460411611    -0.000006185235    -0.000018021448    0.014984068049    -0.038520386747
            0.010102386824    -0.033489171691    -0.000006185183    -0.000018021451    0.000091676295    -0.066211965533    -0.000007510359    -0.000018918356
            -0.000003157936    -0.000017044908    0.014984142840    -0.038520378040    -0.000007510337    -0.000018918367    0.007384333706    -0.072877054189
0.200     -0.031500405716    -0.053625459971    -0.000011845152    -0.000014670660    -0.013317085005    -0.030082237619    -0.000011988228    -0.000015138917
            -0.000011845172    -0.000014670638    -0.024171881101    -0.066124066164    -0.000015547680    -0.000014370366    -0.007785121390    -0.039451756139
            -0.013317085814    -0.030082239447    -0.000015547629    -0.000014370395    -0.031265425676    -0.054444056313    -0.000016641367    -0.000015416993
            -0.000011988203    -0.000015138934    -0.007785047584    -0.039451780896    -0.000016641354    -0.000015417013    -0.023712972524    -0.066817199248
0.225     -0.055729615753    -0.026431525556    -0.000018967787    -0.000007672404    -0.034131359524    -0.013537168022    -0.000019267856    -0.000008590391
            -0.000018967801    -0.000007672363    -0.051249194714    -0.045006784716    -0.000022399284    -0.000005932611    -0.030272646069    -0.027972969883
            -0.034131360454    -0.013537168391    -0.000022399253    -0.000005932657    -0.055745481475    -0.027434214049    -0.000023749136    -0.000007283535
            -0.000019267842    -0.000008590417    -0.030272592840    -0.027973018647    -0.000023749136    -0.000007283558    -0.050888384805    -0.045994947481
0.250     -0.065410461407    0.011158820450    -0.000021722160    0.000002445994    -0.045251375942    0.013509346958    -0.000022643603    0.000001299686
            -0.000021722152    0.000002446024    -0.066951101142    -0.012060603688    -0.000024428090    0.000005437996    -0.045827456490    -0.005209866189
            -0.045251375942    0.013509346958    -0.000024428084    0.000005437936    -0.065754366939    0.010097175684    -0.000026473290    0.000004101797
            -0.000022643602    0.000001299658    -0.045827429344    -0.005209927917    -0.000026473299    0.000004101775    -0.066815085248    -0.013296177962
0.275     -0.056345675003    0.050744487624    -0.000019057202    0.000012954485    -0.041903201825    0.044812980274    -0.000020788482    0.000012127584
            -0.000019057181    0.000012954510    -0.066113421203    0.026177062867    -0.000020648608    0.000016892657    -0.049083261872    0.024278490794
            -0.041903208963    0.044812972230    -0.000020648624    0.000016892610    -0.057024367295    0.049786272482    -0.000023470222    0.000016223914
            -0.000020788495    0.000012127557    -0.049083266192    0.024278407630    -0.000023470241    0.000016223897    -0.066299033270    0.024809732610
0.300     -0.029243962318    0.082647079367    -0.000011530493    0.000021083374    -0.023265821547    0.072366769932    -0.000013828356    0.000021171777
            -0.000011530459    0.000021083392    -0.047409824007    0.061133682970    -0.000011717757    0.000025527641    -0.037628188691    0.053628582785
            -0.023265821853    0.072366770884    -0.000011717812    0.000025527571    -0.030176851781    0.081951318233    -0.000014877785    0.000026165432
            -0.000013828381    0.000021171758    -0.037628230661    0.053628503251    -0.000014877807    0.000026165437    -0.047947355965    0.059797333350
0.325     0.010352300801    0.098679258350    -0.000000963402    0.000024832047    0.007264057813    0.088759043094    -0.000003204033    0.000026201808
            -0.000000963372    0.000024832044    -0.013913590658    0.084422814093    0.000000382412    0.000029238036    -0.012780940400    0.075502553834
            0.007264054796    0.088759044344    0.000000382372    0.000029238021    0.009324886994    0.098354297627    -0.000002249239    0.000031481911
            -0.000003204063    0.000026201798    -0.012781007185    0.075502499931    -0.000002249250    0.000031481925    -0.014746197847    0.083288085971
0.350     0.053535447834    0.094325889408    0.000010254171    0.000023410891    0.043052277408    0.089154338028    0.000008863278    0.000025996742
            0.000010254203    0.000023410874    0.027546250553    0.090002313511    0.000013045927    0.000027190065    0.020686451114    0.083998538440
            0.043052277843    0.089154338928    0.000013045929    0.000027190075    0.052621181697    0.094392258072    0.000011953092    0.000030761829
            0.000008863245    0.000025996748    0.020686368007    0.083998516681    0.000011953003    0.000030761838    0.026560148520    0.089201483683
0.375     0.090229187393    0.069773774611    0.000019805923    0.000017170530    0.075880678960    0.072382925136    0.000019958551    0.000020438385
            0.000019805918    0.000017170514    0.067968869975    0.075645354371    0.000023729409    0.000019783811    0.055675215258    0.076073136915
            0.075880684933    0.072382933363    0.000023729373    0.000019783830    0.089636799170    0.070145842606    0.000024980399    0.000023808256
            0.000019958499    0.000020438414    0.055675174827    0.076073142960    0.000024980367    0.000023808290    0.067030832111    0.075232297397
0.400     0.111406609400    0.029864100985    0.000025861792    0.000007296653    0.097718624731    0.041205580069    0.000027893843    0.000010353636
            0.000025861779    0.000007296642    0.098166158562    0.043494797071    0.000030398792    0.000008344953    0.084318210474    0.052265010657
            0.097718633226    0.041205585660    0.000030398857    0.000008345018    0.111294301065    0.030353920506    0.000034256273    0.000011523032
            0.000027893788    0.000010353699    0.084318141439    0.052265057496    0.000034256223    0.000011523100    0.097495562608    0.043420408070
0.425     0.110985881005    -0.016774438760    0.000027209831    -0.000004484598    0.102365346730    0.001944835886    0.000030936932    -0.000002664674
            0.000027209827    -0.000004484643    0.110702734184    -0.000292270257    0.000031700582    -0.000005189578    0.099610597592    0.016693359382
            0.102365345936    0.001944877693    0.000031700573    -0.000005189539    0.111413307516    -0.016429733164    0.000037693878    -0.000004251640
            0.000030936939    -0.000002664674    0.099610545206    0.016693429962    0.000037693898    -0.000004251634    0.110486285548    -0.000184742223
0.450     0.087344752223    -0.059206726078    0.000023323352    -0.000016103936    0.086986796911    -0.036432612580    0.000028005332    -0.000016378764
            0.000023323329    -0.000016103930    0.101527368362    -0.046623068500    0.000027043591    -0.000018486104    0.096936572422    -0.023557760297
            0.086986800314    -0.036432612221    0.000027043606    -0.000018486027    0.088236211787    -0.059295204326    0.000033960346    -0.000020856841
            0.000028005346    -0.000016378685    0.096936563156    -0.023557675623    0.000033960365    -0.000020856847    0.101866986491    -0.046577897510
0.475     0.044285688786    -0.086331240338    0.000014501342    -0.000025291834    0.053372507715    -0.063964569555    0.000018974898    -0.000028054864
            0.000014501307    -0.000025291858    0.071080205710    -0.085155718065    0.000016762142    -0.000028983185    0.075296818881    -0.059661684136
            0.053372507715    -0.063964569555    0.000016762186    -0.000028983117    0.045418230826    -0.087095789584    0.000022873827    -0.000035020279
            0.000018974905    -0.000028054873    0.075296844308    -0.059661603738    0.000022873844    -0.000035020296    0.071952087581    -0.085460414242
0.500     -0.008982542066    -0.089664342309    0.000002066293    -0.000029890456    0.008419106955    -0.072191995355    0.000005045658    -0.000034865335
            0.000002066288    -0.000029890433    0.024665249198    -0.106460509338    0.000002337069    -0.000034231201    0.038012881891    -0.082856966494
            0.008419108563    -0.072191998187    0.000002337069    -0.000034231217    -0.007953254149    -0.091223785085    0.000005835780    -0.000043339490
            0.000005045659    -0.000034865345    0.038012936294    -0.082856901928    0.000005835790    -0.000043339510    0.025900842451    -0.107380168193
0.525     -0.059513361734    -0.066204884742    -0.000011582346    -0.000028435582    -0.036957296035    -0.057012993280    -0.000011111767    -0.000034674585
            -0.000011582343    -0.000028435559    -0.028245371155    -0.104352082162    -0.000013536571    -0.000032537289    -0.007508521716    -0.086616270769
            -0.036957297667    -0.057012995797    -0.000013536537    -0.000032537288    -0.058979316448    -0.068490650900    -0.000014002954    -0.000043208434
            -0.000011111686    -0.000034674584    -0.007508445525    -0.086616235216    -0.000014002963    -0.000043208462    -0.026941522518    -0.106054567872
0.550     -0.094077089499    -0.020141075110    -0.000023394620    -0.000020822483    -0.070765478795    -0.020675658497    -0.000025829176    -0.000026947584
            -0.000023394602    -0.000020822468    -0.075938373480    -0.077806726762    -0.000027395731    -0.000023709100    -0.051217652691    -0.068646867550
            -0.070765478795    -0.020675658497    -0.000027395741    -0.000023709100    -0.094369145758    -0.022882173272    -0.000032267151    -0.000033873119
            -0.000025829181    -0.000026947589    -0.051217564679    -0.068646874575    -0.000032267081    -0.000033873153    -0.074930748968    -0.080300155663
0.575     -0.103331756988    0.037903771990    -0.000030594695    -0.000008607571    -0.083803774262    0.028483781626    -0.000035575389    -0.000013213472
            -0.000030594706    -0.000008607534    -0.107339915269    -0.031659574548    -0.000036018628    -0.000009426523    -0.082910241079    -0.031883436419
            -0.083803774262    0.028483781626    -0.000036018607    -0.000009426551    -0.104613396995    0.035126961719    -0.000044643104    -0.000017009754
            -0.000035575401    -0.000013213476    -0.082910201949    -0.031883454593    -0.000044643154    -0.000017009791    -0.106971731418    -0.034768823170
0.600     -0.084760990595    0.094127597241    -0.000031644707    0.000005450816    -0.072582060008    0.078719916398    -0.000038177401    0.000003401386
            -0.000031644678    0.000005450817    -0.114981066481    0.024405269218    -0.000037510188    0.000007209304    -0.094997730572    0.016069522383
            -0.072582060008    0.078719916398    -0.000037510162    0.000007209231    -0.086968311760    0.091775827053    -0.000048302530    0.000003727261
            -0.000038177414    0.000003401387    -0.094997675882    0.016069461968    -0.000048302519    0.000003727192    -0.115481195675    0.021010684884
0.625     -0.042967370613    0.135764798655    -0.000026648267    0.000018382831    -0.039869806645    0.118590403522    -0.000033396135    0.000019327957
            -0.000026648246    0.000018382858    -0.096935080745    0.078358922314    -0.000031819718    0.000022743396    -0.084474974830    0.064958829001
            -0.039869806645    0.118590403522    -0.000031819729    0.000022743404    -0.045820136547    0.134218939582    -0.000042664833    0.000023970634
            -0.000033396144    0.000019327923    -0.084474953352    0.064958742099    -0.000042664853    0.000023970606    -0.098352891628    0.075090221165
0.650     0.012375497548    0.154293531830    -0.000016976980    0.000027910067    0.006884848935    0.139854546679    -0.000022581593    0.000031649766
            -0.000016976971    0.000027910041    -0.057075297361    0.118882433820    -0.000020408450    0.000034395702    -0.053443101762    0.104529500270
            0.006884848935    0.139854546679    -0.000020408485    0.000034395637    0.009304438490    0.153762793825    -0.000029146435    0.000039925414
            -0.000022581594    0.000031649779    -0.053443106384    0.104529419288    -0.000029146449    0.000039925435    -0.059263135261    0.116135317256
0.675     0.069471093387    0.146696793192    -0.000004545544    0.000032792952    0.057961843348    0.138678141570    -0.000007877047    0.000038581206
            -0.000004545545    0.000032792926    -0.003776666378    0.137886368816    -0.000005488192    0.000040528633    -0.008219541941    0.126804411299
            0.057961840928    0.138678142582    -0.000005488216    0.000040528621    0.066660829245    0.147177461614    -0.000010341484    0.000049048995
            -0.000007877072    0.000038581192    -0.008219562132    0.126804379927    -0.000010341510    0.000049048994    -0.006420423523    0.135952270353
0.700     0.116941392333    0.115173963252    0.000008771848    0.000032629308    0.103408318717    0.115560453811    0.000008445935    0.000039318910
            0.000008771840    0.000032629290    0.052202621760    0.131897820527    0.000010646661    0.000040509897    0.042303062485    0.127460591015
            0.103408318717    0.115560453811    0.000010646666    0.000040509905    0.114827404338    0.116451410464    0.000010747719    0.000050048901
            0.000008445944    0.000039318926    0.042302993718    0.127460540084    0.000010747736    0.000050048928    0.049518966325    0.130903386761
0.725     0.145523355357    0.066158773424    0.000021321522    0.000027489599    0.134392084027    0.074765312504    0.000024218018    0.000033692866
            0.000021321501    0.000027489584    0.099910940227    0.102307874883    0.000025880806    0.000034361327    0.088424339626    0.106269458194
            0.134392092766    0.074765317365    0.000025880738    0.000034361341    0.144417272587    0.067842145657    0.000031083327    0.000042610991
            0.000024218027    0.000033692870    0.088424260445    0.106269446024    0.000031083345    0.000042611004    0.097627000783    0.102187176219
0.750     0.149209070072    0.009261866563    0.000031514856    0.000017689006    0.144244720280    0.023801016843    0.000037245266    0.000021972610
            0.000031514898    0.000017688963    0.130061662912    0.054847172173    0.000038180024    0.000022516532    0.121212563023    0.066955545954
            0.144244720321    0.023801016591    0.000038180037    0.000022516529    0.149231265315    0.010842341190    0.000047606323    0.000027224684
            0.000037245277    0.000021972609    0.121212491210    0.066955572551    0.000047606348    0.000027224688    0.128558365271    0.055346435069
0.775     0.126261665575    -0.043844808463    0.000037616222    0.000003909681    0.129637303809    -0.027177777513    0.000045145660    0.000005053176
            0.000037616200    0.000003909691    0.136488283177    -0.001406508210    0.000045421508    0.000005930363    0.133876924625    0.016656926580
            0.129637291349    -0.027177739470    0.000045421519    0.000005930356    0.127293141775    -0.042910346043    0.000057206664    0.000005345848
            0.000045145672    0.000005053170    0.133876857845    0.016656977353    0.000057206688    0.000005345838    0.136012143525    -0.000695160133
