# GHz S RI R 45
0.000     0.035786551000    0.000000000000    -0.000002362534    0.000000000000    0.000836452800    0.000000000000    -0.000007152830    0.000000000000
            -0.000002362570    0.000000000000    0.034450459000    0.000000000000    0.000034086575    0.000000000000    0.000757811060    -0.000000000000
            0.000836449340    0.000000000000    0.000034086556    0.000000000000    0.035732498000    0.000000000000    -0.000007735561    0.000000000000
            -0.000007152982    0.000000000000    0.000757806690    -0.000000000000    -0.000007735535    0.000000000000    0.034406971000    0.000000000000
0.025     0.044205288645    0.006330319207    -0.000002641286    0.000003264415    0.005182500848    0.011785002031    0.000003289874    0.000005807739
            -0.000002641316    0.000003264431    0.042527854683    0.005597711701    0.000079899942    0.000173096417    0.004809916683    0.010587470341
            0.005182486706    0.011785053040    0.000079899927    0.000173096424    0.044151325938    0.006341457009    0.000004982385    0.000007676990
            0.000003289740    0.000005807806    0.004809900890    0.010587521450    0.000004982415    0.000007676977    0.042441556007    0.005483786453
0.050     0.054099325258    0.001948874180    0.000000587268    0.000007152095    0.016089416920    0.018150484913    0.000006526816    0.000000710692
            0.000000587244    0.000007152130    0.052326204346    0.001162273197    0.000201187280    0.000316434925    0.015183999295    0.016298052421
            0.016089408546    0.018150500355    0.000201187269    0.000316434944    0.054087251595    0.002009685010    0.000009072675    0.000002847541
            0.000006526721    0.000000710822    0.015183989619    0.016298068270    0.000009072695    0.000002847522    0.052185150889    0.000988118857
0.075     0.061488026240    -0.010087374048    0.000005130119    0.000008249993    0.028946468920    0.015975442874    0.000005842719    -0.000003011083
            0.000005130120    0.000008250033    0.060393974471    -0.010578761120    0.000371343793    0.000388907603    0.027843675347    0.014091580438
            0.028946464180    0.015975451462    0.000371343787    0.000388907623    0.061574964618    -0.010019393744    0.000008795445    -0.000000217704
            0.000005842692    -0.000003010930    0.027843670429    0.014091590157    0.000008795457    -0.000000217732    0.060205792428    -0.010775755204
0.100     0.061768976164    -0.028205277883    0.000009481271    0.000007210484    0.038117244887    0.005390726029    0.000003829452    -0.000005285495
            0.000009481284    0.000007210515    0.062509106629    -0.028639247456    0.000555637999    0.000381379095    0.037705837989    0.003734776601
            0.038117246585    0.005390728304    0.000555638007    0.000381379100    0.061980015041    -0.028193715187    0.000007626135    -0.000001399624
            0.000003829496    -0.000005285342    0.037705839692    0.003734779694    0.000007626134    -0.000001399655    0.062306520857    -0.028830538874
0.125     0.051311065355    -0.047754984575    0.000013274995    0.000004448458    0.038885437430    -0.010242554673    0.000001518085    -0.000006307878
            0.000013275024    0.000004448482    0.054970655315    -0.049251133750    0.000720934068    0.000297899665    0.040271902517    -0.012166467202
            0.038885439900    -0.010242553147    0.000720934077    0.000297899669    0.051637472412    -0.047875122057    0.000007183769    -0.000001463812
            0.000001518183    -0.000006307771    0.040271905281    -0.012166464969    0.000007183752    -0.000001463846    0.054809522898    -0.049435169568
0.150     0.029549989738    -0.062358629540    0.000015960785    -0.000000220274    0.029100584975    -0.025280122601    -0.000000656431    -0.000006605648
            0.000015960816    -0.000000220267    0.036560446139    -0.066892709066    0.000839432859    0.000153394943    0.033050149432    -0.028844867889
            0.029100587367    -0.025280122897    0.000839432876    0.000153394961    0.029943206886    -0.062680859915    0.000007776329    -0.000001888576
            -0.000000656300    -0.000006605596    0.033050152952    -0.028844866897    0.000007776307    -0.000001888597    0.036473978904    -0.067105082442
0.175     -0.000279768237    -0.065641168805    0.000016170996    -0.000006537929    0.010102384204    -0.033489169348    -0.000002906124    -0.000006589486
            0.000016171029    -0.000006537939    0.009217587364    -0.075604877203    0.000890434774    -0.000027797555    0.016417925720    -0.040686705710
            0.010102386824    -0.033489171691    0.000890434784    -0.000027797554    0.000091676295    -0.066211965533    0.000008271046    -0.000003724610
            -0.000002905975    -0.000006589500    0.016417928599    -0.040686706705    0.000008271012    -0.000003724622    0.009223438805    -0.075903837421
0.200     -0.031500405716    -0.053625459971    0.000012558153    -0.000012806528    -0.013317085005    -0.030082237619    -0.000005682494    -0.000005956060
            0.000012558176    -0.000012806550    -0.021952612330    -0.070965703957    0.000864590602    -0.000214322877    -0.006218941897    -0.042843461588
            -0.013317085814    -0.030082239447    0.000864590611    -0.000214322879    -0.031265425676    -0.054444056313    0.000007032341    -0.000006411548
            -0.000005682367    -0.000005956133    -0.006218939941    -0.042843463893    0.000007032310    -0.000006411546    -0.021877307233    -0.071420377462
0.225     -0.055729615753    -0.026431525556    0.000005443800    -0.000016199893    -0.034131359524    -0.013537168022    -0.000008790937    -0.000003790012
            0.000005443814    -0.000016199928    -0.049847845116    -0.051612428480    0.000766990214    -0.000373159288    -0.029151154346    -0.032770678117
            -0.034131360454    -0.013537168391    0.000766990226    -0.000373159310    -0.055745481475    -0.027434214049    0.000003535550    -0.000008014141
            -0.000008790864    -0.000003790136    -0.029151155675    -0.032770679611    0.000003535518    -0.000008014125    -0.049771810261    -0.052272692111
0.250     -0.065410461407    0.011158820450    -0.000002532157    -0.000014658536    -0.045251375942    0.013509346958    -0.000010935679    0.000000477345
            -0.000002532161    -0.000014658565    -0.067188346577    -0.020039867606    0.000616979200    -0.000476914408    -0.045853965146    -0.011228079082
            -0.045251375942    0.013509346958    0.000616979208    -0.000476914431    -0.065754366939    0.010097175684    -0.000000744120    -0.000006775677
            -0.000010935661    0.000000477203    -0.045853965129    -0.011228087560    -0.000000744145    -0.000006775645    -0.067208707350    -0.020909261925
0.275     -0.056345675003    0.050744487624    -0.000007753945    -0.000008757921    -0.041903201825    0.044812980274    -0.000010460003    0.000006057675
            -0.000007753964    -0.000008757949    -0.068573268110    0.017698377256    0.000443528639    -0.000510201012    -0.050838418429    0.017660076341
            -0.041903208963    0.044812972230    0.000443528637    -0.000510201027    -0.057024367295    0.049786272482    -0.000003337117    -0.000002784418
            -0.000010460047    0.000006057549    -0.050838419374    0.017660076669    -0.000003337125    -0.000002784379    -0.068784243216    0.016676131259
0.300     -0.029243962318    0.082647079367    -0.000008188873    -0.000001607258    -0.023265821547    0.072366769932    -0.000006732288    0.000010883297
            -0.000008188901    -0.000001607271    -0.052152184189    0.053339554900    0.000277858844    -0.000472070440    -0.041301169237    0.047354178505
            -0.023265821853    0.072366770884    0.000277858827    -0.000472070450    -0.030176851781    0.081951318233    -0.000002737613    0.000001875901
            -0.000006732386    0.000010883200    -0.041301170552    0.047354180012    -0.000002737605    0.000001875943    -0.052610037274    0.052274034563
0.325     0.010352300801    0.098679258350    -0.000004824809    0.000003367517    0.007264057813    0.088759043094    -0.000000907646    0.000012951451
            -0.000004824842    0.000003367518    -0.020334100277    0.078470513543    0.000146801046    -0.000373916144    -0.018012920091    0.070571260533
            0.007264054796    0.088759044344    0.000146801033    -0.000373916149    0.009324886994    0.098354297627    0.000000361057    0.000004816089
            -0.000000907768    0.000012951408    -0.018012920585    0.070571262471    0.000000361083    0.000004816124    -0.021029661233    0.077498015710
0.350     0.053535447834    0.094325889408    -0.000000646783    0.000004945086    0.043052277408    0.089154338028    0.000004774690    0.000011736463
            -0.000000646815    0.000004945097    0.020631052588    0.086652895969    0.000069327369    -0.000235101398    0.014767115537    0.081149688908
            0.043052277843    0.089154338928    0.000069327354    -0.000235101392    0.052621181697    0.094392258072    0.000003786749    0.000005224081
            0.000004774562    0.000011736475    0.014767112884    0.081149690407    0.000003786787    0.000005224103    0.019782244138    0.085898022203
0.375     0.090229187393    0.069773774611    0.000001975904    0.000004692111    0.075880678960    0.072382925136    0.000008583847    0.000008456613
            0.000001975888    0.000004692133    0.062049609569    0.075008590472    0.000055932505    -0.000079144326    0.050255179432    0.075555433356
            0.075880684933    0.072382933363    0.000055932489    -0.000079144317    0.089636799170    0.070145842606    0.000005877012    0.000004336916
            0.000008583739    0.000008456679    0.050255177902    0.075555436775    0.000005877052    0.000004336921    0.061195510572    0.074545184782
0.400     0.111406609400    0.029864100985    0.000003302357    0.000005167880    0.097718624731    0.041205580069    0.000010417625    0.000004925836
            0.000003302348    0.000005167913    0.094695224325    0.044956474868    0.000108781202    0.000068469547    0.080634988550    0.053749122577
            0.097718633226    0.041205585660    0.000108781193    0.000068469562    0.111294301065    0.030353920506    0.000006925933    0.000004028744
            0.000010417560    0.000004925939    0.080634988444    0.053749124539    0.000006925978    0.000004028729    0.094017493275    0.044777677074
0.425     0.110985881005    -0.016774438760    0.000005882137    0.000007184671    0.102365346730    0.001944835886    0.000011542127    0.000001961528
            0.000005882148    0.000007184687    0.110784354329    0.002012374425    0.000221002350    0.000181949192    0.098710224340    0.019299562642
            0.102365345936    0.001944877693    0.000221002351    0.000181949206    0.111413307516    -0.016429733164    0.000008848454    0.000004772439
            0.000011542155    0.000001961659    0.098710224003    0.019299564365    0.000008848485    0.000004772407    0.110455755247    0.002017020100
0.450     0.087344752223    -0.059206726078    0.000011978274    0.000008379507    0.086986796911    -0.036432612580    0.000013051133    -0.000001344306
            0.000011978292    0.000008379530    0.105676227634    -0.045200505108    0.000375358441    0.000238194501    0.099467376604    -0.021172594624
            0.086986800314    -0.036432612221    0.000375358445    0.000238194513    0.088236211787    -0.059295204326    0.000013154166    0.000004712596
            0.000013051171    -0.000001344200    0.099467386754    -0.021172594970    0.000013154180    0.000004712550    0.105812930695    -0.045199382673
0.475     0.044285688786    -0.086331240338    0.000020592293    0.000004634281    0.053372507715    -0.063964569555    0.000014257089    -0.000006696272
            0.000020592314    0.000004634286    0.079027384663    -0.086578118300    0.000544318775    0.000222014748    0.081305005521    -0.059169105882
            0.053372507715    -0.063964569555    0.000544318781    0.000222014761    0.045418230826    -0.087095789584    0.000018822328    0.000000901149
            0.000014257171    -0.000006696192    0.081305006554    -0.059169104463    0.000018822322    0.000000901099    0.079646955428    -0.086822211066
0.500     -0.008982542066    -0.089664342309    0.000026767332    -0.000006219078    0.008419106955    -0.072191995355    0.000012527701    -0.000014434939
            0.000026767358    -0.000006219082    0.035206477866    -0.112597266586    0.000693962430    0.000132178627    0.046733164634    -0.086010606369
            0.008419108563    -0.072191998187    0.000693962447    0.000132178643    -0.007953254149    -0.091223785085    0.000022027098    -0.000007873009
            0.000012527809    -0.000014434899    0.046733164157    -0.086010605491    0.000022027074    -0.000007873058    0.036202833364    -0.113330736441
0.525     -0.059513361734    -0.066204884742    0.000024610096    -0.000021222820    -0.036957296035    -0.057012993280    0.000005298806    -0.000021963292
            0.000024610112    -0.000021222832    -0.017270864938    -0.116501459724    0.000792399712    -0.000015332219    0.002228383569    -0.094823003602
            -0.036957297667    -0.057012995797    0.000792399722    -0.000015332222    -0.058979316448    -0.068490650900    0.000018616953    -0.000018931232
            0.000005298913    -0.000021963299    0.002228422889    -0.094822985673    0.000018616907    -0.000018931260    -0.016124102608    -0.117905828718
0.550     -0.094077089499    -0.020141075110    0.000012233085    -0.000032990338    -0.070765478795    -0.020675658497    -0.000007047187    -0.000024656382
            0.000012233103    -0.000032990356    -0.067371399769    -0.096134672206    0.000819700850    -0.000190441073    -0.042926938141    -0.082402563838
            -0.070765478795    -0.020675658497    0.000819700859    -0.000190441075    -0.094369145758    -0.022882173272    0.000007773915    -0.000026567465
            -0.000007047101    -0.000024656440    -0.042926939527    -0.082402566499    0.000007773869    -0.000026567477    -0.066382522586    -0.098268786032
0.575     -0.103331756988    0.037903771990    -0.000005706187    -0.000034624354    -0.083803774262    0.028483781626    -0.000020200390    -0.000019185100
            -0.000005706186    -0.000034624376    -0.104032314252    -0.054802248181    0.000773738091    -0.000358352969    -0.078731369461    -0.050313529526
            -0.083803774262    0.028483781626    0.000773738109    -0.000358352977    -0.104613396995    0.035126961719    -0.000006431376    -0.000025922609
            -0.000020200339    -0.000019185179    -0.078731371989    -0.050313531141    -0.000006431425    -0.000025922596    -0.103521814108    -0.057567733799
0.600     -0.084760990595    0.094127597241    -0.000020709200    -0.000024901159    -0.072582060008    0.078719916398    -0.000028287036    -0.000006458756
            -0.000020709288    -0.000024901211    -0.118887450280    -0.000734634365    0.000668371751    -0.000490077134    -0.096953159499    -0.004757422701
            -0.072582060008    0.078719916398    0.000668371750    -0.000490077152    -0.086968311760    0.091775827053    -0.000017430022    -0.000016698557
            -0.000028287022    -0.000006458846    -0.096953162495    -0.004757422848    -0.000017430063    -0.000016698526    -0.119105805762    -0.003881639908
0.625     -0.042967370613    0.135764798655    -0.000026266288    -0.000009114384    -0.039869806645    0.118590403522    -0.000027778350    0.000008608129
            -0.000026266304    -0.000009114395    -0.108357524933    0.054828859265    0.000526102501    -0.000568192886    -0.093191465326    0.044881979176
            -0.039869806645    0.118590403522    0.000526102498    -0.000568192903    -0.045820136547    0.134218939582    -0.000020614454    -0.000003382552
            -0.000027778381    0.000008608048    -0.093191465326    0.044881979176    -0.000020614478    -0.000003382500    -0.109415842411    0.051652426217
0.650     0.012375497548    0.154293531830    -0.000021838342    0.000004953638    0.006884848935    0.139854546679    -0.000019569822    0.000020299779
            -0.000021838360    0.000004953630    -0.074447836768    0.100336811407    0.000370872077    -0.000586411621    -0.067873263598    0.088314385283
            0.006884848935    0.139854546679    0.000370872067    -0.000586411627    0.009304438490    0.153762793825    -0.000016044435    0.000008073001
            -0.000019569878    0.000020299718    -0.067873279012    0.088314373436    -0.000016044433    0.000008073053    -0.076282195660    0.097506061151
0.675     0.069471093387    0.146696793192    -0.000012178087    0.000012232330    0.057961843348    0.138678141570    -0.000007820353    0.000025476200
            -0.000012178099    0.000012232339    -0.024084032525    0.126530291161    0.000224650465    -0.000546283598    -0.025946866747    0.116667027487
            0.057961840928    0.138678142582    0.000224650456    -0.000546283601    0.066660829245    0.147177461614    -0.000007538676    0.000014104131
            -0.000007820431    0.000025476167    -0.025946866747    0.116667027487    -0.000007538648    0.000014104179    -0.026462959433    0.124360217233
0.700     0.116941392333    0.115173963252    -0.000003258901    0.000012876613    0.103408318717    0.115560453811    0.000003082117    0.000024687691
            -0.000003258904    0.000012876626    0.032607502435    0.128272707130    0.000107204718    -0.000454977931    0.024384990809    0.124239146679
            0.103408318717    0.115560453811    0.000107204710    -0.000454977933    0.114827404338    0.116451410464    0.000000563798    0.000015056862
            0.000003082068    0.000024687707    0.024384990566    0.124239156918    0.000000563887    0.000015056913    0.030038318527    0.126948254957
0.725     0.145523355357    0.066158773424    0.000001882713    0.000010924309    0.134392084027    0.074765312504    0.000011051131    0.000020762112
            0.000001882710    0.000010924360    0.084463076341    0.105310468813    0.000036182794    -0.000325386266    0.073399919626    0.109390288978
            0.134392092766    0.074765317365    0.000036182765    -0.000325386260    0.144417272587    0.067842145657    0.000006321670    0.000013809011
            0.000011051093    0.000020762142    0.073399923288    0.109390298563    0.000006321730    0.000013809023    0.082113862887    0.104845136341
0.750     0.149209070072    0.009261866563    0.000004773280    0.000010489626    0.144244720280    0.023801016843    0.000016836482    0.000016187421
            0.000004773282    0.000010489639    0.121375200758    0.062092366049    0.000025322502    -0.000177261940    0.111628581589    0.074683380394
            0.144244720321    0.023801016591    0.000025322511    -0.000177261938    0.149231265315    0.010842341190    0.000010941987    0.000012856757
            0.000016836462    0.000016187464    0.111628589900    0.074683385955    0.000010942088    0.000012856722    0.119633734824    0.062317450860
0.775     0.126261665575    -0.043844808463    0.000009691270    0.000012069136    0.129637303809    -0.027177777513    0.000022431651    0.000011086747
            0.000009691280    0.000012069142    0.136031125961    0.006872699841    0.000080438524    -0.000037016935    0.131450858256    0.026411015207
            0.129637291349    -0.027177739470    0.000080438536    -0.000037016939    0.127293141775    -0.042910346043    0.000017047866    0.000011935166
            0.000022431624    0.000011086820    0.131450858256    0.026411015207    0.000017047907    0.000011935128    0.135186877614    0.007457581012
