# GHz S RI R 45
0.000     0.035786551000    0.000000000000    0.000000264141    -0.000000000000    0.000836452800    0.000000000000    -0.000000387310    0.000000000000
            0.000000264192    -0.000000000000    0.035350424000    0.000000000000    -0.000001604369    0.000000000000    0.000834035450    -0.000000000000
            0.000836449340    0.000000000000    -0.000001604390    0.000000000000    0.035732498000    0.000000000000    0.000000148371    -0.000000000000
            -0.000000387474    0.000000000000    0.000834005830    -0.000000000000    0.000000148032    -0.000000000000    0.035314758000    0.000000000000
0.025     0.044205288645    0.006330319207    0.000001242939    0.000011226171    0.005182500848    0.011785002031    0.000006426270    0.000014636086
            0.000001243060    0.000011226111    0.043642651716    0.006036647971    0.000006008117    0.000016141781    0.005029342130    0.011391793735
            0.005182486706    0.011785053040    0.000006008146    0.000016141769    0.044151325938    0.006341457009    0.000009856191    0.000018357834
            0.000006426200    0.000014636121    0.005029303024    0.011391856910    0.000009856157    0.000018357852    0.043565406343    0.005954333256
0.050     0.054099325258    0.001948874180    0.000016942307    0.000019102794    0.016089416920    0.018150484913    0.000025823983    0.000019587999
            0.000016942373    0.000019102702    0.053429680121    0.001652154216    0.000025435571    0.000021819659    0.015719553478    0.017608443858
            0.016089408546    0.018150500355    0.000025435599    0.000021819626    0.054087251595    0.002009685010    0.000033591219    0.000023626750
            0.000025823934    0.000019588065    0.015719527868    0.017608480126    0.000033591197    0.000023626790    0.053339221947    0.001519643263
0.075     0.061488026240    -0.010087374048    0.000036857926    0.000011708457    0.028946468920    0.015975442874    0.000047881962    0.000007622894
            0.000036857943    0.000011708347    0.060999243939    -0.010210877726    0.000047250528    0.000011131019    0.028497607257    0.015508090768
            0.028946464180    0.015975451462    0.000047250538    0.000011130981    0.061574964618    -0.010019393744    0.000060134514    0.000008722896
            0.000047881947    0.000007622976    0.028497595680    0.015508122503    0.000060134515    0.000008722942    0.060909398902    -0.010393073771
0.100     0.061768976164    -0.028205277883    0.000049816342    -0.000010463857    0.038117244887    0.005390726029    0.000060833533    -0.000020604564
            0.000049816307    -0.000010463963    0.061907847764    -0.028215143005    0.000060285697    -0.000015456272    0.037916818112    0.005083889037
            0.038117246585    0.005390728304    0.000060285686    -0.000015456318    0.061980015041    -0.028193715187    0.000075674929    -0.000025720097
            0.000060833556    -0.000020604480    0.037916822927    0.005083913329    0.000075674949    -0.000025720067    0.061832437180    -0.028455935731
0.125     0.051311065355    -0.047754984575    0.000047181245    -0.000040952894    0.038885437430    -0.010242554673    0.000055043995    -0.000057607207
            0.000047181166    -0.000040952974    0.052508049632    -0.048049537122    0.000055116213    -0.000050795870    0.039330601207    -0.010580994709
            0.038885439900    -0.010242553147    0.000055116189    -0.000050795901    0.051637472412    -0.047875122057    0.000068566598    -0.000070928877
            0.000055044052    -0.000057607141    0.039330617882    -0.010580971222    0.000068566629    -0.000070928863    0.052453144204    -0.048371866832
0.150     0.029549989738    -0.062358629540    0.000025112342    -0.000069311262    0.029100584975    -0.025280122601    0.000026367689    -0.000091100105
            0.000025112233    -0.000069311299    0.031975037110    -0.063679697653    0.000027524329    -0.000082976950    0.030452414805    -0.026159959452
            0.029100587367    -0.025280122897    0.000027524299    -0.000082976965    0.029943206886    -0.062680859915    0.000033580334    -0.000112165520
            0.000026367695    -0.000091100107    0.030452435940    -0.026159947125    0.000033580367    -0.000112165531    0.031932117191    -0.064113489500
0.175     -0.000279768237    -0.065641168805    -0.000013666313    -0.000083834479    0.010102384204    -0.033489169348    -0.000021712436    -0.000107455652
            -0.000013666424    -0.000083834465    0.003054082983    -0.068876991519    -0.000019284263    -0.000098620207    0.012256764619    -0.035633237365
            0.010102386824    -0.033489171691    -0.000019284314    -0.000098620197    0.000091676295    -0.066211965533    -0.000025404127    -0.000132898357
            -0.000021712380    -0.000107455664    0.012256788960    -0.035633235337    -0.000025404107    -0.000132898381    0.002989437934    -0.069451821085
0.200     -0.031500405716    -0.053625459971    -0.000059793302    -0.000075536306    -0.013317085005    -0.030082237619    -0.000077967897    -0.000096266359
            -0.000059793384    -0.000075536247    -0.028166240218    -0.059484269862    -0.000074459722    -0.000087349705    -0.010975120646    -0.034162643049
            -0.013317085814    -0.030082239447    -0.000074459722    -0.000087349705    -0.031265425676    -0.054444056313    -0.000095106971    -0.000120213159
            -0.000077967897    -0.000096266359    -0.010975096796    -0.034162650711    -0.000095106866    -0.000120213242    -0.028309999343    -0.060210056956
0.225     -0.055729615753    -0.026431525556    -0.000099427431    -0.000041875553    -0.034131359524    -0.013537168022    -0.000126013937    -0.000054677468
            -0.000099427484    -0.000041875453    -0.053765218477    -0.035048583494    -0.000121953674    -0.000046120816    -0.032676834632    -0.019816751595
            -0.034131360454    -0.013537168391    -0.000121953735    -0.000046120742    -0.055745481475    -0.027434214049    -0.000155824833    -0.000070059160
            -0.000126013890    -0.000054677526    -0.032676811353    -0.019816776482    -0.000155824805    -0.000070059246    -0.054056002714    -0.035899017361
0.250     -0.065410461407    0.011158820450    -0.000118824446    0.000011292691    -0.045251375942    0.013509346958    -0.000149538361    0.000010337100
            -0.000118824446    0.000011292795    -0.066247346505    0.000504833237    -0.000145621419    0.000018449458    -0.045912082730    0.005472522613
            -0.045251375942    0.013509346958    -0.000145621419    0.000018449458    -0.065754366939    0.010097175684    -0.000187483408    0.000009870575
            -0.000149538338    0.000010336993    -0.045912070701    0.005472496798    -0.000187483430    0.000009870543    -0.066739743762    -0.000400927065
0.275     -0.056345675003    0.050744487624    -0.000109352899    0.000071022255    -0.041903201825    0.044812980274    -0.000138143500    0.000083445399
            -0.000109352853    0.000071022361    -0.060918967204    0.039612534276    -0.000135008605    0.000091416151    -0.045577369243    0.036209479048
            -0.041903208963    0.044812972230    -0.000135008597    0.000091416181    -0.057024367295    0.049786272482    -0.000176599530    0.000101562400
            -0.000138143526    0.000083445317    -0.045577370082    0.036209466739    -0.000176599574    0.000101562343    -0.061626561296    0.038754321723
0.300     -0.029243962318    0.082647079367    -0.000070671037    0.000121599359    -0.023265821547    0.072366769932    -0.000091105278    0.000145844401
            -0.000070670962    0.000121599425    -0.037519588681    0.073045295430    -0.000089130140    0.000154256479    -0.030085175003    0.064846683882
            -0.023265821853    0.072366770884    -0.000089130140    0.000154256479    -0.030176851781    0.081951318233    -0.000121011260    0.000182135278
            -0.000091105343    0.000145844336    -0.030085174582    0.064846682975    -0.000121011355    0.000182135214    -0.038396616929    0.072345559700
0.325     0.010352300801    0.098679258350    -0.000010479948    0.000149531305    0.007264057813    0.088759043094    -0.000017283019    0.000181069923
            -0.000010479855    0.000149531331    -0.000470277434    0.092447581866    -0.000016500566    0.000190597322    -0.001889804960    0.083923825289
            0.007264054796    0.088759044344    -0.000016500528    0.000190597346    0.009324886994    0.098354297627    -0.000030311180    0.000230670771
            -0.000017283069    0.000181069908    -0.001889802008    0.083923824356    -0.000030311204    0.000230670798    -0.001409478517    0.091990006560
0.350     0.053535447834    0.094325889408    0.000058339845    0.000146975518    0.043052277408    0.089154338028    0.000068009562    0.000179118945
            0.000058339937    0.000146975503    0.042215338507    0.092545694659    0.000067880166    0.000190333782    0.033169074917    0.088052312338
            0.043052277843    0.089154338928    0.000067880166    0.000190333782    0.052621181697    0.094392258072    0.000077346885    0.000233428402
            0.000068009473    0.000179118947    0.033169077285    0.088052309309    0.000077346878    0.000233428435    0.041364973807    0.092354232313
0.375     0.090229187393    0.069773774611    0.000121162015    0.000112687453    0.075880678960    0.072382925136    0.000146964782    0.000137831220
            0.000121162091    0.000112687401    0.080871612679    0.072404349179    0.000146396820    0.000151100772    0.067303732885    0.075181263100
            0.075880684933    0.072382933363    0.000146396856    0.000151100751    0.089636799170    0.070145842606    0.000179768013    0.000186130274
            0.000146964702    0.000137831261    0.067303690678    0.075181274042    0.000179768028    0.000186130302    0.080271506952    0.072423066387
0.400     0.111406609400    0.029864100985    0.000164229237    0.000051513485    0.097718624731    0.041205580069    0.000202437133    0.000062553759
            0.000164229272    0.000051513405    0.106321941421    0.035653001454    0.000201973364    0.000078013202    0.092479725360    0.047069952966
            0.097718633226    0.041205585660    0.000201973420    0.000078013142    0.111294301065    0.030353920506    0.000254714643    0.000094164955
            0.000202437082    0.000062553825    0.092479717269    0.047069946816    0.000254714666    0.000094164979    0.106103250790    0.035743322976
0.425     0.110985881005    -0.016774438760    0.000176370246    -0.000026328813    0.102365346730    0.001944835886    0.000220193155    -0.000034573707
            0.000176370243    -0.000026328901    0.111806253377    -0.010165065822    0.000220367071    -0.000016988000    0.102063156568    0.009069957037
            0.102365345936    0.001944877693    0.000220367081    -0.000016988002    0.111413307516    -0.016429733164    0.000283141692    -0.000027942333
            0.000220193137    -0.000034573625    0.102063146750    0.009069954549    0.000283141732    -0.000027942328    0.112029340424    -0.010207995742
0.450     0.087344752223    -0.059206726078    0.000150886947    -0.000105817856    0.086986796911    -0.036432612580    0.000191348373    -0.000135265730
            0.000150886898    -0.000105818014    0.094539713901    -0.054897770423    0.000192649876    -0.000115795523    0.092342440292    -0.030661051627
            0.086986800314    -0.036432612221    0.000192649878    -0.000115795520    0.088236211787    -0.059295204326    0.000252658160    -0.000157374014
            0.000191348393    -0.000135265649    0.092342444150    -0.030660967018    0.000252658199    -0.000157374026    0.095160922624    -0.055309900740
0.475     0.044285688786    -0.086331240338    0.000088242445    -0.000168470971    0.053372507715    -0.063964569555    0.000115717564    -0.000216748281
            0.000088242376    -0.000168471018    0.056735684751    -0.087699885094    0.000118544703    -0.000195827305    0.063764461661    -0.062591491505
            0.053372507715    -0.063964569555    0.000118544711    -0.000195827311    0.045418230826    -0.087095789584    0.000161863968    -0.000265316998
            0.000115717568    -0.000216748290    0.063764457714    -0.062591489816    0.000161863987    -0.000265317009    0.057591177416    -0.088694368631
0.500     -0.008982542066    -0.089664342309    -0.000001224652    -0.000196069145    0.008419106955    -0.072191995355    0.000005150547    -0.000256215896
            -0.000001224734    -0.000196069165    0.005795729503    -0.099499867326    0.000009704851    -0.000234469721    0.021550334485    -0.077964686847
            0.008419108563    -0.072191998187    0.000009704834    -0.000234469702    -0.007953254149    -0.091223785085    0.000024404863    -0.000322562881
            0.000005150535    -0.000256215926    0.021550334485    -0.077964686847    0.000024404879    -0.000322562940    0.006613333428    -0.101204040970
0.525     -0.059513361734    -0.066204884742    -0.000097214006    -0.000177016802    -0.036957296035    -0.057012993280    -0.000116178949    -0.000238433513
            -0.000097213996    -0.000177016784    -0.046836570702    -0.085627990976    -0.000110039982    -0.000216569199    -0.024921641149    -0.071342297427
            -0.036957297667    -0.057012995797    -0.000110039973    -0.000216569181    -0.058979316448    -0.068490650900    -0.000130626716    -0.000308703612
            -0.000116178953    -0.000238433522    -0.024921564381    -0.071342277636    -0.000130626735    -0.000308703658    -0.046388589810    -0.088025642327
0.550     -0.094077089499    -0.020141075110    -0.000174549909    -0.000112581516    -0.070765478795    -0.020675658497    -0.000217534939    -0.000163340361
            -0.000174549901    -0.000112581511    -0.088360994308    -0.047719406245    -0.000210337341    -0.000141905897    -0.064296593708    -0.042700747784
            -0.070765478795    -0.020675658497    -0.000210337349    -0.000141905902    -0.094369145758    -0.022882173272    -0.000265278323    -0.000221356791
            -0.000217534971    -0.000163340385    -0.064296591209    -0.042700746124    -0.000265278316    -0.000221356863    -0.088592327285    -0.050623056251
0.575     -0.103331756988    0.037903771990    -0.000212379209    -0.000018208740    -0.083803774262    0.028483781626    -0.000272364951    -0.000048126315
            -0.000212379209    -0.000018208740    -0.108247841781    0.006211847246    -0.000264846958    -0.000027271306    -0.086518418384    0.002090229398
            -0.083803774262    0.028483781626    -0.000264846938    -0.000027271304    -0.104613396995    0.035126961719    -0.000345250510    -0.000079239794
            -0.000272364971    -0.000048126318    -0.086518413385    0.002090229277    -0.000345250535    -0.000079239863    -0.109353736441    0.003136221929
0.600     -0.084760990595    0.094127597241    -0.000202073206    0.000082267709    -0.072582060008    0.078719916398    -0.000267974691    0.000078970539
            -0.000202073174    0.000082267737    -0.101386741953    0.063919070301    -0.000260770802    0.000099534048    -0.085874668277    0.052885565863
            -0.072582060008    0.078719916398    -0.000260771052    0.000099534822    -0.086968311760    0.091775827053    -0.000351684563    0.000084218377
            -0.000267974720    0.000078970547    -0.085874627134    0.052885499181    -0.000351684661    0.000084218400    -0.103380049577    0.061076729183
0.625     -0.042967370613    0.135764798655    -0.000148699858    0.000165899703    -0.039869806645    0.118590403522    -0.000208077524    0.000189327747
            -0.000148699831    0.000165899673    -0.069344664920    0.112472209398    -0.000201476547    0.000210117914    -0.062406873923    0.098310113084
            -0.039869806645    0.118590403522    -0.000201476524    0.000210117963    -0.045820136547    0.134218939582    -0.000285323939    0.000232902199
            -0.000208077546    0.000189327767    -0.062406870725    0.098310032202    -0.000285323985    0.000232902237    -0.072040918148    0.110238362363
0.650     0.012375497548    0.154293531830    -0.000066278733    0.000217313927    0.006884848935    0.139854546679    -0.000108029794    0.000262192141
            -0.000066278739    0.000217313946    -0.019418107917    0.141642902278    -0.000101979536    0.000283657742    -0.021342988995    0.128779564882
            0.006884848935    0.139854546679    -0.000101979143    0.000283658361    0.009304438490    0.153762793825    -0.000162307963    0.000338142435
            -0.000108029805    0.000262192168    -0.021342984500    0.128779565627    -0.000162308007    0.000338142525    -0.022474493265    0.140270559797
0.675     0.069471093387    0.146696793192    0.000028583189    0.000229958857    0.057961843348    0.138678141570    0.000012277640    0.000286955776
            0.000028583180    0.000229958848    0.037711129103    0.145924060666    0.000017965524    0.000309308344    0.028754837517    0.138373564749
            0.057961840928    0.138678142582    0.000017965530    0.000309308344    0.066660829245    0.147177461614    -0.000006614117    0.000382674995
            0.000012277309    0.000286955540    0.028754807263    0.138373540396    -0.000006614117    0.000382675005    0.034720545404    0.145487195916
0.700     0.116941392333    0.115173963252    0.000120577836    0.000203692374    0.103408318717    0.115560453811    0.000133170683    0.000261088502
            0.000120577836    0.000203692374    0.090530781147    0.125017894318    0.000138584533    0.000284356607    0.078040642788    0.125435642961
            0.103408318717    0.115560453811    0.000138584533    0.000284356607    0.114827404338    0.116451410464    0.000155674406    0.000359666492
            0.000133170696    0.000261088540    0.078040642788    0.125435642961    0.000155674436    0.000359666512    0.088028490920    0.125395561385
0.725     0.145523355357    0.066158773424    0.000196283686    0.000142089186    0.134392084027    0.074765312504    0.000236356760    0.000187444413
            0.000196283673    0.000142089171    0.128741754055    0.083296730318    0.000241393008    0.000211687728    0.117036782281    0.092354135802
            0.134392092766    0.074765317365    0.000241393030    0.000211687733    0.144417272587    0.067842145657    0.000298628981    0.000270581748
            0.000236356824    0.000187444429    0.117036783893    0.092354133759    0.000298629035    0.000270581778    0.127067864185    0.084191209607
0.750     0.149209070072    0.009261866563    0.000243069925    0.000051764032    0.144244720280    0.023801016843    0.000304151705    0.000073626715
            0.000243069841    0.000051764041    0.144721792972    0.028856019585    0.000308649792    0.000099155290    0.137906759154    0.045093941664
            0.144244720321    0.023801016591    0.000308649831    0.000099155297    0.149231265315    0.010842341190    0.000396785923    0.000124794145
            0.000304151660    0.000073626732    0.137906692742    0.045093983891    0.000396785933    0.000124794148    0.144065438153    0.029836665617
0.775     0.126261665575    -0.043844808463    0.000248818778    -0.000055960042    0.129637303809    -0.027177777513    0.000319606144    -0.000066049035
            0.000248818748    -0.000055960040    0.134654528336    -0.027602541876    0.000323651107    -0.000038650299    0.135631328838    -0.007414311166
            0.129637291349    -0.027177739470    0.000323651106    -0.000038650311    0.127293141775    -0.042910346043    0.000426409210    -0.000058420977
            0.000319606150    -0.000066049054    0.135631318866    -0.007414310383    0.000426409247    -0.000058420999    0.135002951141    -0.027032917497
