# GHz S RI R 45
0.000     0.035786551000    0.000000000000    0.000000529391    -0.000000000000    0.000836452800    0.000000000000    -0.000003095098    0.000000000000
            0.000000529529    -0.000000000000    0.036078663000    0.000000000000    -0.000014504183    0.000000000000    0.000841175860    0.000000000000
            0.000836449340    0.000000000000    -0.000014504096    0.000000000000    0.035732498000    0.000000000000    -0.000004960814    0.000000000000
            -0.000003095049    0.000000000000    0.000841254010    0.000000000000    -0.000004960956    0.000000000000    0.036055453000    0.000000000000
0.025     0.044205288645    0.006330319207    -0.000013838364    -0.000024434949    0.005182500848    0.011785002031    -0.000016300506    -0.000027064744
            -0.000013838233    -0.000024434987    0.041998523496    0.005651436089    -0.000010755196    -0.000012758275    0.003381822584    0.011767050731
            0.005182486706    0.011785053040    -0.000010755150    -0.000012758289    0.044151325938    0.006341457009    -0.000015868359    -0.000024517150
            -0.000016300464    -0.000027064749    0.003381779097    0.011766876984    -0.000015868505    -0.000024517104    0.041949384535    0.005703825168
0.050     0.054099325258    0.001948874180    -0.000034099783    -0.000034570897    0.016089416920    0.018150484913    -0.000039313006    -0.000041365654
            -0.000034099693    -0.000034570950    0.046235358662    0.004042657011    -0.000024067976    -0.000031158301    0.010029650319    0.020826751607
            0.016089408546    0.018150500355    -0.000024067939    -0.000031158320    0.054087251595    0.002009685010    -0.000037048367    -0.000039065118
            -0.000039313021    -0.000041365641    0.010029758501    0.020826731697    -0.000037048543    -0.000039065016    0.046216295202    0.004170344150
0.075     0.061488026240    -0.010087374048    -0.000058457623    -0.000035420656    0.028946468920    0.015975442874    -0.000069022795    -0.000043883880
            -0.000058457518    -0.000035420760    0.047537941927    -0.000002642497    -0.000049318853    -0.000037148688    0.018508458874    0.025497468081
            0.028946464180    0.015975451462    -0.000049318812    -0.000037148724    0.061574964618    -0.010019393744    -0.000065804304    -0.000042036630
            -0.000069022761    -0.000043883909    0.018508542751    0.025497455387    -0.000065804451    -0.000042036481    0.047590706764    0.000177560253
0.100     0.061768976164    -0.028205277883    -0.000084184927    -0.000025375169    0.038117244887    0.005390726029    -0.000100978830    -0.000032649161
            -0.000084184879    -0.000025375251    0.044890468454    -0.004958850044    -0.000077557392    -0.000029347605    0.026065682703    0.025758858851
            0.038117246585    0.005390728304    -0.000077557394    -0.000029347590    0.061980015041    -0.028193715187    -0.000097052652    -0.000031134545
            -0.000100978778    -0.000032649223    0.026065757984    0.025758842425    -0.000097052750    -0.000031134371    0.045034135904    -0.004768436185
0.125     0.051311065355    -0.047754984575    -0.000107694718    -0.000004050965    0.038885437430    -0.010242554673    -0.000130421563    -0.000007177442
            -0.000107694682    -0.000004051114    0.037809896948    -0.008406673847    -0.000103152904    -0.000008046578    0.030448031532    0.023121099257
            0.038885439900    -0.010242553147    -0.000103152869    -0.000008046647    0.051637472412    -0.047875122057    -0.000125541901    -0.000005861664
            -0.000130421529    -0.000007177508    0.030448107681    0.023121080000    -0.000125541926    -0.000005861556    0.038039544485    -0.008254952630
0.150     0.029549989738    -0.062358629540    -0.000125357189    0.000028313462    0.029100584975    -0.025280122601    -0.000152627517    0.000032077287
            -0.000125357194    0.000028313349    0.027231525973    -0.007717399698    -0.000121414534    0.000025389876    0.030642670588    0.020104869378
            0.029100587367    -0.025280122897    -0.000121414523    0.000025389785    0.029943206886    -0.062680859915    -0.000146219234    0.000032877387
            -0.000152627507    0.000032077285    0.030642744892    0.020104845450    -0.000146219230    0.000032877493    0.027520932972    -0.007644580983
0.175     -0.000279768237    -0.065641168805    -0.000132705012    0.000070896279    0.010102384204    -0.033489169348    -0.000162092658    0.000083781635
            -0.000132705035    0.000070896172    0.015618530419    -0.000948471786    -0.000127641847    0.000068621880    0.027234311025    0.019410945636
            0.010102386824    -0.033489171691    -0.000127641868    0.000068621777    0.000091676295    -0.066211965533    -0.000153765449    0.000083038832
            -0.000162092649    0.000083781631    0.027234384460    0.019410918412    -0.000153765423    0.000083038922    0.015919901027    -0.000980292764
0.200     -0.031500405716    -0.053625459971    -0.000124335584    0.000120754947    -0.013317085005    -0.030082237619    -0.000152518234    0.000144113342
            -0.000124335654    0.000120754846    0.006347906415    0.012332673135    -0.000117247533    0.000117569539    0.022295934318    0.022997733559
            -0.013317085814    -0.030082239447    -0.000117247526    0.000117569532    -0.031265425676    -0.054444056313    -0.000142679390    0.000140375312
            -0.000152518255    0.000144113261    0.022296004890    0.022997702745    -0.000142679310    0.000140375478    0.006602060826    0.012198439506
0.225     -0.055729615753    -0.026431525556    -0.000095417464    0.000171386577    -0.034131359524    -0.013537168022    -0.000118477958    0.000205296884
            -0.000095417540    0.000171386500    0.002803841026    0.030632661324    -0.000086763938    0.000165336384    0.018745883068    0.031316905588
            -0.034131360454    -0.013537168391    -0.000086763972    0.000165336309    -0.055745481475    -0.027434214049    -0.000108571431    0.000197371469
            -0.000118478014    0.000205296817    0.018745951193    0.031316871802    -0.000108571352    0.000197371570    0.002957065597    0.030431336971
0.250     -0.065410461407    0.011158820450    -0.000044691359    0.000212993223    -0.045251375942    0.013509346958    -0.000058652514    0.000255997315
            -0.000044691427    0.000212993178    0.007263255694    0.050727216130    -0.000036146811    0.000202786405    0.019338955608    0.043055673126
            -0.045251375942    0.013509346958    -0.000036146875    0.000202786353    -0.065754366939    0.010097175684    -0.000050802774    0.000243666493
            -0.000058652543    0.000255997237    0.019339021875    0.043055635687    -0.000050802647    0.000243666519    0.007285653457    0.050521074531
0.275     -0.056345675003    0.050744487624    0.000023329790    0.000235245699    -0.041903201825    0.044812980274    0.000021825301    0.000284358273
            0.000023329691    0.000235245699    0.020034082701    0.068469496397    0.000029561549    0.000220771208    0.025670124685    0.055519971741
            -0.041903208963    0.044812972230    0.000029561518    0.000220771152    -0.057024367295    0.049786272482    0.000025586348    0.000268645774
            0.000021825273    0.000284358235    0.025670192615    0.055519930418    0.000025586409    0.000268645768    0.019933088638    0.068332317843
0.300     -0.029243962318    0.082647079367    0.000098788233    0.000231390564    -0.023265821547    0.072366769932    0.000111871300    0.000282473207
            0.000098788153    0.000231390577    0.039198873221    0.080029926640    0.000100843374    0.000213692989    0.037607097843    0.065539066110
            -0.023265821853    0.072366770884    0.000100843403    0.000213692953    -0.030176851781    0.081951318233    0.000110345036    0.000265305953
            0.000111871300    0.000282473207    0.037607161699    0.065539023704    0.000110345036    0.000265305953    0.039022542194    0.080024324192
0.325     0.010352300801    0.098679258350    0.000169816244    0.000200848743    0.007264057813    0.088759043094    0.000198053256    0.000249231396
            0.000169816244    0.000200848743    0.061114358972    0.083033428664    0.000166607956    0.000181579259    0.053346324798    0.070477171734
            0.007264054796    0.088759044344    0.000166607927    0.000181579272    0.009324886994    0.098354297627    0.000191171872    0.000232726293
            0.000198053256    0.000249231370    0.053346385674    0.070477126909    0.000191171869    0.000232726256    0.060940034315    0.083190003373
0.350     0.053535447834    0.094325889408    0.000226706422    0.000148917497    0.043052277408    0.089154338028    0.000269138388    0.000190037551
            0.000226706422    0.000148917497    0.081430331073    0.077233787366    0.000217939275    0.000129755590    0.069991092412    0.068996782890
            0.043052277843    0.089154338928    0.000217939275    0.000129755590    0.052621181697    0.094392258072    0.000257711575    0.000175840008
            0.000269138388    0.000190037551    0.069991151807    0.068996735459    0.000257711572    0.000175840013    0.081344955339    0.077538781529
0.375     0.090229187393    0.069773774611    0.000264517070    0.000083853694    0.075880678960    0.072382925136    0.000318929549    0.000113695605
            0.000264517085    0.000083853714    0.096231864795    0.064523848045    0.000250303542    0.000066216128    0.084345809005    0.061369288212
            0.075880684933    0.072382933363    0.000250303517    0.000066216103    0.089636799170    0.070145842606    0.000304084814    0.000102705823
            0.000318929540    0.000113695601    0.084345874447    0.061369232262    0.000304084809    0.000102705803    0.096307903921    0.064917711711
0.400     0.111406609400    0.029864100985    0.000283216565    0.000013363151    0.097718624731    0.041205580069    0.000346459685    0.000028661617
            0.000283215932    0.000013363833    0.102985164187    0.048448121457    0.000263752021    -0.000001519888    0.093709700867    0.049410766492
            0.097718633226    0.041205585660    0.000263752011    -0.000001519890    0.111294301065    0.030353920506    0.000329127248    0.000021210478
            0.000346459661    0.000028661541    0.093709700005    0.049410768127    0.000329127208    0.000021210477    0.103257820502    0.048837181818
0.425     0.110985881005    -0.016774438760    0.000285588245    -0.000058001085    0.102365346730    0.001944835886    0.000353783984    -0.000059707234
            0.000285588245    -0.000058001085    0.101129627823    0.033379708088    0.000261052967    -0.000068755474    0.096537334965    0.036103644242
            0.102365345936    0.001944877693    0.000261052967    -0.000068755474    0.111413307516    -0.016429733164    0.000334488154    -0.000063415091
            0.000353783984    -0.000059707233    0.096537394571    0.036103570506    0.000334488155    -0.000063415086    0.101581092698    0.033657133941
0.450     0.087344752223    -0.059206726078    0.000274099571    -0.000129466010    0.086986796911    -0.036432612580    0.000342720190    -0.000149753629
            0.000274099612    -0.000129465994    0.092302711026    0.023550096092    0.000244937223    -0.000134312777    0.092945223839    0.024978098790
            0.086986800314    -0.036432612221    0.000244937188    -0.000134312757    0.088236211787    -0.059295204326    0.000321766461    -0.000149214893
            0.000342720156    -0.000149753607    0.092945286539    0.024978023454    0.000321766420    -0.000149214908    0.092857670380    0.023625480210
0.475     0.044285688786    -0.086331240338    0.000247860545    -0.000202217179    0.053372507715    -0.063964569555    0.000311779679    -0.000241570863
            0.000247860568    -0.000202217213    0.080140995034    0.021989448372    0.000215278526    -0.000198997988    0.084923723683    0.019215824938
            0.053372507715    -0.063964569555    0.000215278483    -0.000198997990    0.045418230826    -0.087095789584    0.000289720810    -0.000235826490
            0.000311779668    -0.000241570845    0.084923781509    0.019215746095    0.000289720794    -0.000235826494    0.080678780358    0.021819910670
0.500     -0.008982542066    -0.089664342309    0.000201711035    -0.000275413893    0.008419106955    -0.072191995355    0.000255392847    -0.000332879716
            0.000201711030    -0.000275413897    0.069566917293    0.029549833148    0.000168128501    -0.000262078957    0.076062685674    0.020615265915
            0.008419108563    -0.072191998187    0.000168128501    -0.000262078957    -0.007953254149    -0.091223785085    0.000233516033    -0.000320779551
            0.000255392847    -0.000332879716    0.076062739701    0.020615185079    0.000233516033    -0.000320779551    0.069950442520    0.029163259007
0.525     -0.059513361734    -0.066204884742    0.000129076737    -0.000341973806    -0.036957296035    -0.057012993280    0.000167032903    -0.000414811666
            0.000129076746    -0.000341973813    0.065491766698    0.044317310260    0.000098178232    -0.000317401169    0.070600121763    0.028732798667
            -0.036957297667    -0.057012995797    0.000098178452    -0.000317400745    -0.058979316448    -0.068490650900    0.000147560540    -0.000395638098
            0.000167032903    -0.000414811666    0.070600169409    0.028732716081    0.000147560543    -0.000395638086    0.065610394504    0.043816830037
0.550     -0.094077089499    -0.020141075110    0.000028270990    -0.000387990789    -0.070765478795    -0.020675658497    0.000045801850    -0.000471550809
            0.000028271009    -0.000387990858    0.071215863733    0.061874142909    0.000004434531    -0.000352784430    0.071985566283    0.040747032096
            -0.070765478795    -0.020675658497    0.000004434512    -0.000352784360    -0.094369145758    -0.022882173272    0.000031568317    -0.000445700690
            0.000045801840    -0.000471550790    0.071985609739    0.040746947204    0.000031567706    -0.000445701335    0.071026948588    0.061415856638
0.575     -0.103331756988    0.037903771990    -0.000092211345    -0.000397989614    -0.083803774262    0.028483781626    -0.000098178708    -0.000486023775
            -0.000092211345    -0.000397989614    0.087161839349    0.076568164399    -0.000104956889    -0.000354786200    0.081554597823    0.052302522876
            -0.083803774262    0.028483781626    -0.000104956889    -0.000354786200    -0.104613396995    0.035126961719    -0.000104503152    -0.000455346432
            -0.000098178706    -0.000486023765    0.081554638842    0.052302436688    -0.000104503540    -0.000455346661    0.086713438120    0.076315744674
0.600     -0.084760990595    0.094127597241    -0.000214471728    -0.000363276741    -0.072582060008    0.078719916398    -0.000244778999    -0.000448716221
            -0.000214471743    -0.000363276767    0.110655481323    0.083371984615    -0.000213510815    -0.000316323272    0.098054519296    0.059042783736
            -0.072582060008    0.078719916398    -0.000213510793    -0.000316323239    -0.086968311760    0.091775827053    -0.000241534363    -0.000416242738
            -0.000244779004    -0.000448716230    0.098054556071    0.059042703277    -0.000241534368    -0.000416242747    0.110078260600    0.083445201472
0.625     -0.042967370613    0.135764798655    -0.000318204191    -0.000286808231    -0.039869806645    0.118590403522    -0.000371363044    -0.000362748186
            -0.000318203738    -0.000286808226    0.136863208763    0.079448948613    -0.000302907560    -0.000241010283    0.118201260251    0.058014549742
            -0.039869806645    0.118590403522    -0.000302907537    -0.000241010265    -0.045820136547    0.134218939582    -0.000358385770    -0.000331948459
            -0.000371363008    -0.000362748151    0.118201273550    0.058014499950    -0.000358386164    -0.000331948475    0.136335349291    0.079885189248
0.650     0.012375497548    0.154293531830    -0.000388587360    -0.000181470837    0.006884848935    0.139854546679    -0.000461201004    -0.000241991588
            -0.000388587397    -0.000181470854    0.160365046568    0.064788523178    -0.000360228234    -0.000141364424    0.137856520823    0.048357242604
            0.006884848935    0.139854546679    -0.000360228230    -0.000141364351    0.009304438490    0.153762793825    -0.000439738831    -0.000215943883
            -0.000461200969    -0.000241991570    0.137856543458    0.048357147864    -0.000439738795    -0.000215943865    0.160063784596    0.065532045369
0.675     0.069471093387    0.146696793192    -0.000420047366    -0.000064112876    0.057961843348    0.138678141570    -0.000507462950    -0.000104664228
            -0.000420047366    -0.000064112876    0.176581915824    0.041889695489    -0.000381233017    -0.000033174157    0.153134503013    0.031212278470
            0.057961840928    0.138678142582    -0.000381233023    -0.000033174090    0.066660829245    0.147177461614    -0.000479679423    -0.000085504297
            -0.000507462921    -0.000104664222    0.153134512274    0.031212233034    -0.000479679414    -0.000085504296    0.176639469595    0.042802295123
0.700     0.116941392333    0.115173963252    -0.000415475478    0.000050172332    0.103408318717    0.115560453811    -0.000512357012    0.000032778677
            -0.000415475508    0.000050172335    0.182685779830    0.014922732018    -0.000369431492    0.000069754788    0.161150557653    0.009243137022
            0.103408318717    0.115560453811    -0.000369431465    0.000069754716    0.114827404338    0.116451410464    -0.000480695118    0.000044000132
            -0.000512356972    0.000032778675    0.161150567394    0.009243141813    -0.000480695086    0.000044000045    0.183155882871    0.015814471269
0.725     0.145523355357    0.066158773424    -0.000382978974    0.000151399107    0.134392084027    0.074765312504    -0.000483565900    0.000159189100
            -0.000382978983    0.000151399110    0.177969114671    -0.011204821239    -0.000332957808    0.000158560355    0.160413647311    -0.013921929224
            0.134392092766    0.074765317365    -0.000332957790    0.000158560346    0.144417272587    0.067842145657    -0.000450235748    0.000162296993
            -0.000483565900    0.000159189100    0.160413663470    -0.013921974349    -0.000450235748    0.000162296993    0.178808958837    -0.010538423874
0.750     0.149209070072    0.009261866563    -0.000332259531    0.000235819567    0.144244720280    0.023801016843    -0.000430362248    0.000269742103
            -0.000332259223    0.000235818826    0.163915528804    -0.031712112599    -0.000281219985    0.000230239830    0.151108632212    -0.034224470481
            0.144244720321    0.023801016591    -0.000281219513    0.000230239033    0.149231265315    0.010842341190    -0.000397080771    0.000265031378
            -0.000430362197    0.000269742071    0.151108641760    -0.034224564140    -0.000397081114    0.000265032108    0.164982936332    -0.031441835178
0.775     0.126261665575    -0.043844808463    -0.000270949773    0.000305394011    0.129637303809    -0.027177777513    -0.000359855758    0.000365123918
            -0.000270949786    0.000305394026    0.144071265369    -0.042781538395    -0.000221574633    0.000287093223    0.135300157368    -0.047841414628
            0.129637291349    -0.027177739470    -0.000221574621    0.000287093207    0.127293141775    -0.042910346043    -0.000327891075    0.000352925447
            -0.000359855716    0.000365123876    0.135300165855    -0.047841510613    -0.000327891244    0.000352926246    0.145142241410    -0.042998502412
