# GHz S RI R 45
0.000     0.035786551000    0.000000000000    0.000001441587    -0.000000000000    0.000836452800    0.000000000000    -0.000003010593    0.000000000000
            0.000001441483    -0.000000000000    0.036392108000    0.000000000000    -0.000003073428    0.000000000000    0.000897145310    0.000000000000
            0.000836449340    0.000000000000    -0.000003073470    0.000000000000    0.035732498000    0.000000000000    0.000027628473    -0.000000000000
            -0.000003010613    0.000000000000    0.000897258370    0.000000000000    0.000027628583    -0.000000000000    0.036410783000    0.000000000000
0.025     0.044205288645    0.006330319207    0.000000773983    -0.000006064317    0.005182500848    0.011785002031    -0.000000693367    -0.000005684739
            0.000000773880    -0.000006064287    0.042529251234    0.005789943499    0.000001347969    -0.000003186375    0.003545968483    0.011973469153
            0.005182486706    0.011785053040    0.000001347934    -0.000003186383    0.044151325938    0.006341457009    -0.000015454686    -0.000028630911
            -0.000000693394    -0.000005684736    0.003545961034    0.011973295104    -0.000015454584    -0.000028630938    0.042420907760    0.005717442718
0.050     0.054099325258    0.001948874180    -0.000004498631    -0.000011543380    0.016089416920    0.018150484913    -0.000006265173    -0.000014132314
            -0.000004498723    -0.000011543325    0.047087155074    0.004056717912    -0.000002562397    -0.000010959717    0.010523924475    0.021057186897
            0.016089408546    0.018150500355    -0.000002562421    -0.000010959709    0.054087251595    0.002009685010    -0.000032301564    -0.000012779456
            -0.000006265199    -0.000014132304    0.010524067919    0.021057163277    -0.000032301471    -0.000012779511    0.046880297739    0.003968640318
0.075     0.061488026240    -0.010087374048    -0.000012381753    -0.000013667812    0.028946468920    0.015975442874    -0.000016891417    -0.000017613253
            -0.000012381822    -0.000013667740    0.048644458535    -0.000436955295    -0.000010936245    -0.000014420782    0.019331467489    0.025424922099
            0.028946464180    0.015975451462    -0.000010936270    -0.000014420767    0.061574964618    -0.010019393744    -0.000035967293    -0.000001269594
            -0.000016891436    -0.000017613242    0.019331585857    0.025424903705    -0.000035967218    -0.000001269667    0.048331250145    -0.000456291154
0.100     0.061768976164    -0.028205277883    -0.000021219517    -0.000011972305    0.038117244887    0.005390726029    -0.000029106762    -0.000015402412
            -0.000021219567    -0.000011972211    0.045934776886    -0.006080960134    -0.000020681514    -0.000013226558    0.026966238331    0.025117131586
            0.038117246585    0.005390728304    -0.000020681536    -0.000013226536    0.061980015041    -0.028193715187    -0.000036772615    0.000007608536
            -0.000029106778    -0.000015402401    0.026966349897    0.025117107173    -0.000036772564    0.000007608439    0.045566747857    -0.005957814710
0.125     0.051311065355    -0.047754984575    -0.000029693370    -0.000006435309    0.038885437430    -0.010242554673    -0.000040656970    -0.000007512514
            -0.000029693391    -0.000006435211    0.038320258762    -0.010207065248    -0.000029984620    -0.000007547786    0.031011678544    0.021856607119
            0.038885439900    -0.010242553147    -0.000029984636    -0.000007547762    0.051637472412    -0.047875122057    -0.000036940433    0.000015508599
            -0.000040656986    -0.000007512488    0.031011786551    0.021856577116    -0.000036940407    0.000015508497    0.037989716093    -0.009914165098
0.150     0.029549989738    -0.062358629540    -0.000036599898    0.000002990828    0.029100584975    -0.025280122601    -0.000049573768    0.000005803721
            -0.000036599895    0.000002990931    0.026771875199    -0.009859378387    -0.000037393415    0.000002436671    0.030454180981    0.018454805596
            0.029100587367    -0.025280122897    -0.000037393422    0.000002436698    0.029943206886    -0.062680859915    -0.000036738828    0.000024079440
            -0.000049573778    0.000005803801    0.030454291182    0.018454768457    -0.000036738830    0.000024079341    0.026579493405    -0.009432075621
0.175     -0.000279768237    -0.065641168805    -0.000040339689    0.000016126256    0.010102384204    -0.033489169348    -0.000053642024    0.000023789413
            -0.000040339659    0.000016126350    0.013999982389    -0.002828348375    -0.000041176220    0.000016261641    0.026068810033    0.017871178179
            0.010102386824    -0.033489171691    -0.000041176227    0.000016261644    0.000091676295    -0.066211965533    -0.000035231665    0.000034552905
            -0.000053642034    0.000023789406    0.026068912636    0.017871138162    -0.000035231696    0.000034552803    0.014009741278    -0.002362540561
0.200     -0.031500405716    -0.053625459971    -0.000038914933    0.000032022137    -0.013317085005    -0.030082237619    -0.000050567056    0.000044732666
            -0.000038914879    0.000032022217    0.003780166388    0.011399421700    -0.000039378250    0.000032710336    0.020267527885    0.022169991365
            -0.013317085814    -0.030082239447    -0.000039378224    0.000032710419    -0.031265425676    -0.054444056313    -0.000030398277    0.000047005329
            -0.000050567024    0.000044732747    0.020267631210    0.022169944328    -0.000030398330    0.000047005247    0.003987747696    0.011778994090
0.225     -0.055729615753    -0.026431525556    -0.000030589349    0.000048337250    -0.034131359524    -0.013537168022    -0.000038653307    0.000065458296
            -0.000030589273    0.000048337316    -0.000093463878    0.031145352763    -0.000030436430    0.000049237867    0.016337855626    0.031677675280
            -0.034131360454    -0.013537168391    -0.000030436384    0.000049237946    -0.055745481475    -0.027434214049    -0.000020185976    0.000059917996
            -0.000038653297    0.000065458331    0.016337951732    0.031677626838    -0.000020186012    0.000059917965    0.000230827908    0.031331675729
0.250     -0.065410461407    0.011158820450    -0.000015024986    0.000061587319    -0.045251375942    0.013509346958    -0.000017947841    0.000081789768
            -0.000015024905    0.000061587359    0.004900364705    0.052762221544    -0.000014248817    0.000062315749    0.017277579182    0.044737733571
            -0.045251375942    0.013509346958    -0.000014248830    0.000062315757    -0.065754366939    0.010097175684    -0.000003839514    0.000070189499
            -0.000017947780    0.000081789831    0.017277667837    0.044737684325    -0.000003839603    0.000070189449    0.005204533357    0.052710831010
0.275     -0.056345675003    0.050744487624    0.000005952800    0.000068275020    -0.041903201825    0.044812980274    0.000009120044    0.000089763424
            0.000005952890    0.000068275042    0.019022492555    0.071587203754    0.000007156950    0.000068531109    0.024679004369    0.058212143373
            -0.041903208963    0.044812972230    0.000007156972    0.000068531137    -0.057024367295    0.049786272482    0.000017329593    0.000074570799
            0.000009120033    0.000089763436    0.024679095034    0.058212088644    0.000017329500    0.000074570777    0.019159290768    0.071341100769
0.300     -0.029243962318    0.082647079367    0.000028755540    0.000066431385    -0.023265821547    0.072366769932    0.000038297344    0.000087249142
            0.000028755630    0.000066431384    0.040011880275    0.083378236750    0.000030103342    0.000066082264    0.038148113468    0.068555869249
            -0.023265821853    0.072366770884    0.000030103417    0.000066082295    -0.030176851781    0.081951318233    0.000040140118    0.000071066492
            0.000038297337    0.000087249159    0.038148198607    0.068555813863    0.000040140028    0.000071066492    0.039878002027    0.083061224737
0.325     0.010352300801    0.098679258350    0.000049397030    0.000056384123    0.007264057813    0.088759043094    0.000064984348    0.000074634087
            0.000049397119    0.000056384098    0.063705426185    0.085600773769    0.000050617742    0.000055449786    0.055453857400    0.072961509806
            0.007264054796    0.088759044344    0.000050617742    0.000055449807    0.009324886994    0.098354297627    0.000061034114    0.000059822165
            0.000064984393    0.000074634100    0.055453945140    0.072961448144    0.000061034026    0.000059822187    0.063279104778    0.085381427227
0.350     0.053535447834    0.094325889408    0.000065012668    0.000040372039    0.043052277408    0.089154338028    0.000085833156    0.000054363703
            0.000065012747    0.000040371994    0.085224571529    0.078145550386    0.000065918161    0.000038959794    0.073244740114    0.070166358470
            0.043052277843    0.089154338928    0.000065918164    0.000038959817    0.052621181697    0.094392258072    0.000077352824    0.000042725240
            0.000085833166    0.000054363724    0.073244831709    0.070166291768    0.000077352740    0.000042725287    0.084580139599    0.078186212946
0.375     0.090229187393    0.069773774611    0.000074580707    0.000021327130    0.075880678960    0.072382925136    0.000099427174    0.000029629221
            0.000074580773    0.000021327066    0.100262280802    0.063287554012    0.000075059408    0.000019558821    0.087962853693    0.060731633275
            0.075880684933    0.072382933363    0.000075059494    0.000019558787    0.089636799170    0.070145842606    0.000088129208    0.000022234188
            0.000099427190    0.000029629239    0.087962927389    0.060731561736    0.000088129142    0.000022234252    0.099554602645    0.063694515709
0.400     0.111406609400    0.029864100985    0.000078741249    0.000001601279    0.097718624731    0.041205580069    0.000106067648    0.000003069414
            0.000078741299    0.000001601199    0.106115487939    0.045105119665    0.000078713354    -0.000000430452    0.096715518612    0.046912040739
            0.097718633226    0.041205585660    0.000078713434    -0.000000430508    0.111294301065    0.030353920506    0.000093736446    0.000000266156
            0.000106067667    0.000003069430    0.096715593903    0.046911977171    0.000093736400    0.000000266233    0.105542870686    0.045892288111
0.425     0.110985881005    -0.016774438760    0.000078867462    -0.000017831446    0.102365346730    0.001944835886    0.000106779958    -0.000023985931
            0.000078867488    -0.000017831531    0.102324633376    0.028552310333    0.000078222354    -0.000020043692    0.097990204828    0.032200795579
            0.102365345936    0.001944877693    0.000078222414    -0.000020043764    0.111413307516    -0.016429733164    0.000095037549    -0.000022516967
            0.000106780001    -0.000023985968    0.097990269806    0.032200725975    0.000095037524    -0.000022516880    0.102076599387    0.029626508526
0.450     0.087344752223    -0.059206726078    0.000075855947    -0.000037436923    0.086986796911    -0.036432612580    0.000102133703    -0.000051505491
            0.000075855948    -0.000037437012    0.090919755296    0.018368137227    0.000074427806    -0.000039686858    0.092201487273    0.020609087245
            0.086986800314    -0.036432612221    0.000074427827    -0.000039686858    0.088236211787    -0.059295204326    0.000092227455    -0.000046527329
            0.000102133740    -0.000051505574    0.092201548918    0.020609013163    0.000092227455    -0.000046527240    0.091121046869    0.019541907596
0.475     0.044285688786    -0.086331240338    0.000069028033    -0.000058247816    0.053372507715    -0.063964569555    0.000091239525    -0.000079809766
            0.000069028010    -0.000058247903    0.076196206406    0.017861785996    0.000066653400    -0.000060242049    0.081902632399    0.015621436794
            0.053372507715    -0.063964569555    0.000066653419    -0.000060242058    0.045418230826    -0.087095789584    0.000083971114    -0.000072341951
            0.000091239545    -0.000079809773    0.081902689031    0.015621358707    0.000083971136    -0.000072341864    0.076859401423    0.018894749665
0.500     -0.008982542066    -0.089664342309    0.000055938437    -0.000080190993    0.008419106955    -0.072191995355    0.000071737193    -0.000107943210
            0.000055938389    -0.000080191068    0.063869728229    0.027766743584    0.000052597052    -0.000081464517    0.071404126329    0.018987039190
            0.008419108563    -0.072191998187    0.000052597069    -0.000081464532    -0.007953254149    -0.091223785085    0.000067509430    -0.000099036048
            0.000071737185    -0.000107943312    0.071404177552    0.018986959406    0.000067509477    -0.000099035980    0.064873663516    0.028433172255
0.525     -0.059513361734    -0.066204884742    0.000033780538    -0.000100462295    -0.036957296035    -0.057012993280    0.000041335361    -0.000132229756
            0.000033780478    -0.000100462357    0.059510981013    0.045573948630    0.000029746316    -0.000100491526    0.065574010246    0.029766259984
            -0.036957297667    -0.057012995797    0.000029746308    -0.000100491580    -0.058979316448    -0.068490650900    0.000040247500    -0.000122890862
            0.000041335327    -0.000132229851    0.065574081180    0.029766137589    0.000040247558    -0.000122890801    0.060622055399    0.045739106055
0.550     -0.094077089499    -0.020141075110    0.000002064573    -0.000113623185    -0.070765478795    -0.020675658497    0.000000460193    -0.000146657798
            0.000002064507    -0.000113623226    0.066630727380    0.065935387123    -0.000002068753    -0.000112053345    0.068098606568    0.044310412756
            -0.070765478795    -0.020675658497    -0.000002068678    -0.000112053426    -0.094369145758    -0.022882173272    0.000002394043    -0.000137838561
            0.000000460203    -0.000146657818    0.068098647682    0.044310331235    0.000002394112    -0.000137838520    0.067568994994    0.065609793506
0.575     -0.103331756988    0.037903771990    -0.000035515509    -0.000114134227    -0.083803774262    0.028483781626    -0.000046120078    -0.000145614436
            -0.000035515580    -0.000114134247    0.085264104701    0.082294684943    -0.000038993818    -0.000110980264    0.080004950631    0.057436732123
            -0.083803774262    0.028483781626    -0.000038993890    -0.000110980345    -0.104613396995    0.035126961719    -0.000041537168    -0.000138222587
            -0.000046120059    -0.000145614463    0.080005003502    0.057436615609    -0.000041537153    -0.000138222623    0.085793517089    0.081640016671
0.600     -0.084760990595    0.094127597241    -0.000072033266    -0.000099697350    -0.072582060008    0.078719916398    -0.000090569236    -0.000127211107
            -0.000072033330    -0.000099697366    0.111907117677    0.089123738291    -0.000074207031    -0.000095375076    0.099319878620    0.064310512188
            -0.072582060008    0.078719916398    -0.000074207126    -0.000095375130    -0.086968311760    0.091775827053    -0.000083997904    -0.000122031731
            -0.000090569247    -0.000127211123    0.099319899457    0.064310424811    -0.000083997916    -0.000122031748    0.111910890017    0.088403082598
0.625     -0.042967370613    0.135764798655    -0.000100521022    -0.000072578275    -0.039869806645    0.118590403522    -0.000125388100    -0.000094378846
            -0.000100521064    -0.000072578251    0.140810925516    0.083637305138    -0.000101052959    -0.000067757459    0.121948938629    0.061989463872
            -0.039869806645    0.118590403522    -0.000101052972    -0.000067757493    -0.045820136547    0.134218939582    -0.000117763687    -0.000091925314
            -0.000125388107    -0.000094378886    0.121948968664    0.061989382718    -0.000117763711    -0.000091925332    0.140324775305    0.083134119461
0.650     0.012375497548    0.154293531830    -0.000116818837    -0.000038199862    0.006884848935    0.139854546679    -0.000146261521    -0.000053195180
            -0.000116818760    -0.000038199904    0.165868701726    0.066308215440    -0.000115744795    -0.000033577863    0.143132619504    0.050007163219
            0.006884848935    0.139854546679    -0.000115744799    -0.000033577886    0.009304438490    0.153762793825    -0.000138658159    -0.000053591581
            -0.000146261522    -0.000053195238    0.143132657746    0.050007084079    -0.000138658177    -0.000053591588    0.165063273212    0.066248533178
0.675     0.069471093387    0.146696793192    -0.000120358349    -0.000002574024    0.057961843348    0.138678141570    -0.000152695795    -0.000010134174
            -0.000120358329    -0.000002574024    0.182166208930    0.040318664854    -0.000118013878    0.000001318180    0.158657121429    0.030081769803
            0.057961840928    0.138678142582    -0.000118013899    0.000001318159    0.066660829245    0.147177461614    -0.000146151973    -0.000013069582
            -0.000152695815    -0.000010134175    0.158657157506    0.030081633211    -0.000146151990    -0.000013069610    0.181299068579    0.040816950333
0.700     0.116941392333    0.115173963252    -0.000113314604    0.000029621863    0.103408318717    0.115560453811    -0.000146976816    0.000029894864
            -0.000113314520    0.000029621946    0.186864028865    0.010540970995    -0.000110179622    0.000032533282    0.165579188409    0.005486753090
            0.103408318717    0.115560453811    -0.000110179651    0.000032533290    0.114827404338    0.116451410464    -0.000142311946    0.000025107214
            -0.000146976835    0.000029894868    0.165579201516    0.005486659499    -0.000142311955    0.000025107216    0.186217428887    0.011576377835
0.725     0.145523355357    0.066158773424    -0.000099206371    0.000055875306    0.134392084027    0.074765312504    -0.000132601250    0.000064286151
            -0.000099206354    0.000055875296    0.179502776543    -0.017484327890    -0.000095719996    0.000057848158    0.162572585499    -0.019567673865
            0.134392092766    0.074765317365    -0.000095720013    0.000057848168    0.144417272587    0.067842145657    -0.000130274111    0.000058604252
            -0.000132601259    0.000064286155    0.162572619192    -0.019567812348    -0.000130274130    0.000058604261    0.179321207613    -0.016065629640
0.750     0.149209070072    0.009261866563    -0.000081634941    0.000075953941    0.144244720280    0.023801016843    -0.000112947868    0.000092686002
            -0.000081634919    0.000075953920    0.162048301278    -0.038453967317    -0.000078020651    0.000077222748    0.150213168897    -0.040504959833
            0.144244720321    0.023801016591    -0.000078020672    0.000077222769    0.149231265315    0.010842341190    -0.000112958356    0.000087156347
            -0.000112947906    0.000092686034    0.150213200187    -0.040505151072    -0.000112958403    0.000087156351    0.162482361390    -0.036911016075
0.775     0.126261665575    -0.043844808463    -0.000063051523    0.000091580912    0.129637303809    -0.027177777513    -0.000090100774    0.000116463857
            -0.000063051589    0.000091581315    0.138777517072    -0.048221545955    -0.000059235087    0.000092364871    0.131217255408    -0.053136077529
            0.129637291349    -0.027177739470    -0.000059235114    0.000092364878    0.127293141775    -0.042910346043    -0.000091969253    0.000111993254
            -0.000090100792    0.000116463881    0.131217269293    -0.053136176452    -0.000091969187    0.000111992855    0.139835327039    -0.046870006016
