# GHz S RI R 45
0.000     0.035786551000    0.000000000000    0.000001036459    0.000000000000    0.000836452800    0.000000000000    -0.000041545521    0.000000000000
            0.000001036657    0.000000000000    0.035705955000    0.000000000000    0.000012441847    0.000000000000    0.000784800410    0.000000000000
            0.000836449340    0.000000000000    0.000012443805    0.000000000000    0.035732498000    0.000000000000    -0.000006191477    0.000000000000
            -0.000041545380    0.000000000000    0.000784800360    0.000000000000    -0.000006191461    0.000000000000    0.035697805000    0.000000000000
0.025     0.044205288645    0.006330319207    -0.000025760949    -0.000059172456    0.005182500848    0.011785002031    -0.000063613455    -0.000045529495
            -0.000025760954    -0.000059172440    0.041560320707    0.005704749987    -0.000030607611    -0.000069128591    0.003219945904    0.011620825751
            0.005182486706    0.011785053040    -0.000030607626    -0.000069128593    0.044151325938    0.006341457009    -0.000026463221    -0.000061645268
            -0.000063613442    -0.000045529486    0.003219820756    0.011620657042    -0.000026463215    -0.000061645256    0.041490594999    0.005732463155
0.050     0.054099325258    0.001948874180    -0.000076646190    -0.000092198162    0.016089416920    0.018150484913    -0.000119247092    -0.000077380801
            -0.000076646190    -0.000092198162    0.045719746373    0.004226420599    -0.000085163904    -0.000095282935    0.009590678769    0.020696190869
            0.016089408546    0.018150500355    -0.000085163927    -0.000095282928    0.054087251595    0.002009685010    -0.000082033153    -0.000102981637
            -0.000119247101    -0.000077380806    0.009590708868    0.020696179125    -0.000082033153    -0.000102981637    0.045633269813    0.004313202920
0.075     0.061488026240    -0.010087374048    -0.000141905231    -0.000097800349    0.028946468920    0.015975442874    -0.000186588238    -0.000068557760
            -0.000141905222    -0.000097800344    0.046987305515    0.000433371447    -0.000148637618    -0.000099494633    0.017792891030    0.025656489907
            0.028946464180    0.015975451462    -0.000148637618    -0.000099494633    0.061574964618    -0.010019393744    -0.000155910739    -0.000109684115
            -0.000186588165    -0.000068557844    0.017792897217    0.025656489267    -0.000155910739    -0.000109684115    0.046908322429    0.000603465880
0.100     0.061768976164    -0.028205277883    -0.000210228513    -0.000073004410    0.038117244887    0.005390726029    -0.000244989032    -0.000026636520
            -0.000210228513    -0.000073004410    0.044463667119    -0.004188160799    -0.000216988162    -0.000076900960    0.025285365374    0.026443828445
            0.038117246585    0.005390728304    -0.000216988208    -0.000076900891    0.061980015041    -0.028193715187    -0.000230619092    -0.000081490563
            -0.000244988973    -0.000026636600    0.025285365374    0.026443828445    -0.000230619139    -0.000081490489    0.044432965031    -0.003928768778
0.125     0.051311065355    -0.047754984575    -0.000271347642    -0.000018996891    0.038885437430    -0.010242554673    -0.000286288186    0.000036365570
            -0.000271347652    -0.000018996892    0.037728134609    -0.007349168462    -0.000282023241    -0.000025249537    0.029965709018    0.024392644244
            0.038885439900    -0.010242553147    -0.000282023251    -0.000025249538    0.051637472412    -0.047875122057    -0.000295192681    -0.000023609756
            -0.000286288186    0.000036365570    0.029965709018    0.024392644244    -0.000295192677    -0.000023609808    0.037791354972    -0.007023362461
0.150     0.029549989738    -0.062358629540    -0.000316745888    0.000061852568    0.029100584975    -0.025280122601    -0.000310995493    0.000113060408
            -0.000316745897    0.000061852627    0.027689857788    -0.006573839917    -0.000334300998    0.000056342049    0.030835010448    0.021770528885
            0.029100587367    -0.025280122897    -0.000334300998    0.000056342049    0.029943206886    -0.062680859915    -0.000343869145    0.000059508145
            -0.000310995504    0.000113060289    0.030835010448    0.021770528885    -0.000343869154    0.000059508146    0.027880226732    -0.006227702006
0.175     -0.000279768237    -0.065641168805    -0.000337092006    0.000166742481    0.010102384204    -0.033489169348    -0.000319420828    0.000203968239
            -0.000337092006    0.000166742481    0.016662255736    -0.000050412908    -0.000361810823    0.000166974210    0.028324575622    0.021045129826
            0.010102386824    -0.033489171691    -0.000361810823    0.000166974210    0.000091676295    -0.066211965533    -0.000370645961    0.000166628476
            -0.000319420828    0.000203968239    0.028324575622    0.021045129826    -0.000370645970    0.000166628480    0.016983244753    0.000246737807
0.200     -0.031500405716    -0.053625459971    -0.000320805695    0.000289517570    -0.013317085005    -0.030082237619    -0.000304243026    0.000312403641
            -0.000320805695    0.000289517570    0.007801389107    0.012640847373    -0.000349597398    0.000300095981    0.024219724289    0.024065591247
            -0.013317085814    -0.030082239447    -0.000349597398    0.000300095981    -0.031265425676    -0.054444056313    -0.000364613333    0.000296234717
            -0.000304243040    0.000312403655    0.024219724289    0.024065591247    -0.000364613400    0.000296234666    0.008212443147    0.012820517129
0.225     -0.055729615753    -0.026431525556    -0.000256322534    0.000416671753    -0.034131359524    -0.013537168022    -0.000249891790    0.000434773896
            -0.000256322545    0.000416671770    0.004282876630    0.030143123709    -0.000283627680    0.000439839444    0.021113414733    0.031369940334
            -0.034131360454    -0.013537168391    -0.000283627680    0.000439839444    -0.055745481475    -0.027434214049    -0.000310284005    0.000439315773
            -0.000249892165    0.000434773495    0.021113415281    0.031369939965    -0.000310284010    0.000439315781    0.004705071446    0.030165869055
0.250     -0.065410461407    0.011158820450    -0.000138504714    0.000526474824    -0.045251375942    0.013509346958    -0.000140806129    0.000553605685
            -0.000138504714    0.000526474824    0.008287348489    0.049489775165    -0.000158282593    0.000561014101    0.021528857660    0.041924021683
            -0.045251375942    0.013509346958    -0.000158282593    0.000561014101    -0.065754366939    0.010097175684    -0.000195102791    0.000574760551
            -0.000140806129    0.000553605685    0.021528857660    0.041924021683    -0.000195102791    0.000574760551    0.008623496746    0.049366413555
0.275     -0.056345675003    0.050744487624    0.000025228709    0.000593910407    -0.041903201825    0.044812980274    0.000026553976    0.000639181442
            0.000025228709    0.000593910407    0.020201390400    0.066820298926    0.000017419067    0.000635682385    0.027028195162    0.053414712034
            -0.041903208963    0.044812972230    0.000017419067    0.000635682385    -0.057024367295    0.049786272482    -0.000019459615    0.000672222999
            0.000026553977    0.000639181452    0.027028195162    0.053414712034    -0.000019459627    0.000672222999    0.020368835630    0.066617766341
0.300     -0.029243962318    0.082647079367    0.000214066464    0.000599936493    -0.023265821547    0.072366769932    0.000236267317    0.000660735092
            0.000214066464    0.000599936493    0.038349231837    0.078502973486    0.000219760236    0.000643481294    0.037671367458    0.063017158593
            -0.023265821853    0.072366770884    0.000219760247    0.000643481290    -0.030176851781    0.081951318233    0.000198102778    0.000702949356
            0.000236267317    0.000660735092    0.037671367458    0.063017158593    0.000198102778    0.000702949356    0.038310383492    0.078329865610
0.325     0.010352300801    0.098679258350    0.000400066858    0.000538826428    0.007264057813    0.088759043094    0.000455689975    0.000599857187
            0.000400066858    0.000538826428    0.059406151976    0.082191389732    0.000418016668    0.000579341090    0.052009992345    0.068286577550
            0.007264054796    0.088759044344    0.000418016668    0.000579341090    0.009324886994    0.098354297627    0.000424975127    0.000651438790
            0.000455689975    0.000599857187    0.052009992345    0.068286577550    0.000424975127    0.000651438790    0.059186813430    0.082168578328
0.350     0.053535447834    0.094325889408    0.000557773573    0.000419262556    0.043052277408    0.089154338028    0.000646773515    0.000458455059
            0.000557773625    0.000419262519    0.079307710767    0.077491982559    0.000585163730    0.000453954858    0.067554817686    0.067865246096
            0.043052277843    0.089154338928    0.000585163738    0.000453954815    0.052621181697    0.094392258072    0.000625625219    0.000521266968
            0.000646773506    0.000458455037    0.067554817686    0.067865246096    0.000625625219    0.000521266968    0.078997570684    0.077717135230
0.375     0.090229187393    0.069773774611    0.000671282773    0.000258841359    0.075880678960    0.072382925136    0.000778887292    0.000257203975
            0.000671282773    0.000258841332    0.094311845190    0.066024606835    0.000705525570    0.000287111515    0.081461718480    0.061802110216
            0.075880684933    0.072382933363    0.000705525593    0.000287111510    0.089636799170    0.070145842606    0.000772862499    0.000332065128
            0.000778887292    0.000257203975    0.081461718480    0.061802110216    0.000772862493    0.000332065141    0.094045553340    0.066540702519
0.400     0.111406609400    0.029864100985    0.000735901630    0.000076255312    0.097718624731    0.041205580069    0.000837433103    0.000026971159
            0.000735901630    0.000076255310    0.101905804327    0.051007276034    0.000776033991    0.000098646413    0.091240908083    0.051536424670
            0.097718633226    0.041205585660    0.000776033992    0.000098646412    0.111294301065    0.030353920506    0.000854330178    0.000110864850
            0.000837433103    0.000026971156    0.091240908083    0.051536424670    0.000854330178    0.000110864851    0.101831827376    0.051784214689
0.425     0.110985881005    -0.016774438760    0.000754470456    -0.000115010701    0.102365346730    0.001944835886    0.000825062598    -0.000202446251
            0.000754470465    -0.000115010706    0.101393021463    0.036499857851    0.000801462804    -0.000098661967    0.095356994466    0.039590684790
            0.102365345936    0.001944877693    0.000801462803    -0.000098661971    0.111413307516    -0.016429733164    0.000871967755    -0.000117880469
            0.000825062598    -0.000202446251    0.095356994466    0.039590684790    0.000871967746    -0.000117880459    0.101634804879    0.037432569421
0.450     0.087344752223    -0.059206726078    0.000731063345    -0.000308880431    0.086986796911    -0.036432612580    0.000756201255    -0.000411647706
            0.000731063345    -0.000308880431    0.094126085594    0.026499010903    0.000786624077    -0.000301110741    0.093694701280    0.029048771672
            0.086986800314    -0.036432612221    0.000786624077    -0.000301110741    0.088236211787    -0.059295204326    0.000835925273    -0.000339461281
            0.000756201255    -0.000411647706    0.093694701280    0.029048771672    0.000835925279    -0.000339461267    0.094744447359    0.027425003097
0.475     0.044285688786    -0.086331240338    0.000664528931    -0.000503820131    0.053372507715    -0.063964569555    0.000646630327    -0.000595155428
            0.000664528910    -0.000503820572    0.083336647610    0.023954252974    0.000728771481    -0.000510000710    0.087775183391    0.022792229652
            0.053372507715    -0.063964569555    0.000728771488    -0.000510000734    0.045418230826    -0.087095789584    0.000754955317    -0.000550195685
            0.000646630327    -0.000595155428    0.087775183391    0.022792229652    0.000754955317    -0.000550195685    0.084303261381    0.024690256098
0.500     -0.008982542066    -0.089664342309    0.000545879085    -0.000695352979    0.008419106955    -0.072191995355    0.000503223691    -0.000756576629
            0.000545879073    -0.000695352988    0.073503961443    0.029870933927    0.000614969683    -0.000722193382    0.080569882928    0.022609411366
            0.008419108563    -0.072191998187    0.000614969683    -0.000722193382    -0.007953254149    -0.091223785085    0.000628274320    -0.000751169048
            0.000503223691    -0.000756576629    0.080569882928    0.022609411366    0.000628274320    -0.000751169048    0.074695164065    0.030263025889
0.525     -0.059513361734    -0.066204884742    0.000362945219    -0.000867352936    -0.036957296035    -0.057012993280    0.000320481220    -0.000896614220
            0.000362945219    -0.000867352936    0.069212413787    0.042750084301    0.000428222762    -0.000919799280    0.075745413497    0.028419600810
            -0.036957297667    -0.057012995797    0.000428222762    -0.000919799280    -0.058979316448    -0.068490650900    0.000444885290    -0.000936349156
            0.000320481223    -0.000896614229    0.075745413497    0.028419600810    0.000444885290    -0.000936349156    0.070433977985    0.042724415035
0.550     -0.094077089499    -0.020141075110    0.000112614592    -0.000989589662    -0.070765478795    -0.020675658497    0.000088725184    -0.001002061487
            0.000112614592    -0.000989589662    0.073726116349    0.058753353349    0.000162181707    -0.001067527633    0.076470018859    0.038064187592
            -0.070765478795    -0.020675658497    0.000162181707    -0.001067527633    -0.094369145758    -0.022882173272    0.000194107547    -0.001083520481
            0.000088725175    -0.001002061588    0.076470018859    0.038064187592    0.000194107566    -0.001083520478    0.074764617091    0.058347948560
0.575     -0.103331756988    0.037903771990    -0.000187294757    -0.001027060937    -0.083803774262    0.028483781626    -0.000190711178    -0.001045732352
            -0.000187294757    -0.001027060937    0.087794310764    0.072747426550    -0.000164933191    -0.001123702434    0.084233968674    0.047910170294
            -0.083803774262    0.028483781626    -0.000164933191    -0.001123702434    -0.104613396995    0.035126961719    -0.000118620153    -0.001157383092
            -0.000190711178    -0.001045732352    0.084233968674    0.047910170294    -0.000118620153    -0.001157383092    0.088482413964    0.072109430342
0.600     -0.084760990595    0.094127597241    -0.000497468003    -0.000957458327    -0.072582060008    0.078719916398    -0.000495723240    -0.000999583200
            -0.000497468003    -0.000957458327    0.109317432137    0.079935294607    -0.000509380414    -0.001060487272    0.098314675515    0.054100270510
            -0.072582060008    0.078719916398    -0.000509380414    -0.001060487272    -0.086968311760    0.091775827053    -0.000463576497    -0.001125615755
            -0.000495723240    -0.000999583200    0.098314675515    0.054100270510    -0.000463576497    -0.001125615755    0.109586185487    0.079279881768
0.625     -0.042967370613    0.135764798655    -0.000770504805    -0.000783570888    -0.039869806645    0.118590403522    -0.000787477426    -0.000850569174
            -0.000770504805    -0.000783570888    0.134043812728    0.077342674954    -0.000816881673    -0.000878553252    0.116110025564    0.053802258755
            -0.039869806645    0.118590403522    -0.000816881673    -0.000878553252    -0.045820136547    0.134218939582    -0.000793950548    -0.000975826559
            -0.000787477426    -0.000850569174    0.116110025564    0.053802258755    -0.000793950548    -0.000975826559    0.133943751364    0.076891492999
0.650     0.012375497548    0.154293531830    -0.000968796212    -0.000532002344    0.006884848935    0.139854546679    -0.001024197889    -0.000607928141
            -0.000968796212    -0.000532002344    0.156935921455    0.064555252412    -0.001043066239    -0.000606507424    0.134083871724    0.045927757918
            0.006884848935    0.139854546679    -0.001043066239    -0.000606507424    0.009304438490    0.153762793825    -0.001062577568    -0.000721733660
            -0.001024197889    -0.000607928141    0.134083871724    0.045927757918    -0.001062577568    -0.000721733660    0.156620579091    0.064476382861
0.675     0.069471093387    0.146696793192    -0.001074906069    -0.000240876548    0.057961843348    0.138678141570    -0.001174133004    -0.000299238230
            -0.001074906069    -0.000240876548    0.173526742137    0.043579985874    -0.001166139976    -0.000287582191    0.148745442633    0.031169982050
            0.057961840928    0.138678142582    -0.001166139976    -0.000287582191    0.066660829245    0.147177461614    -0.001236291930    -0.000396573872
            -0.001174133004    -0.000299238230    0.148745433389    0.031169977403    -0.001236291930    -0.000396573872    0.173213894989    0.043946533154
0.700     0.116941392333    0.115173963252    -0.001091366703    0.000053772361    0.103408318717    0.115560453811    -0.001222034066    0.000038823065
            -0.001091366703    0.000053772361    0.180876292184    0.018145786471    -0.001187878689    0.000035971119    0.157370478336    0.011647035383
            0.103408318717    0.115560453811    -0.001187878689    0.000035971119    0.114827404338    0.116451410464    -0.001301842840    -0.000041259589
            -0.001222034066    0.000038823065    0.157370478336    0.011647035383    -0.001301842840    -0.000041259589    0.180794606556    0.018919406926
0.725     0.145523355357    0.066158773424    -0.001033489543    0.000326590905    0.134392084027    0.074765312504    -0.001169311343    0.000369594278
            -0.001033489543    0.000326590905    0.178018707740    -0.007174941235    -0.001126247312    0.000333739870    0.158400415788    -0.009577700034
            0.134392092766    0.074765317365    -0.001126247312    0.000333739870    0.144417272587    0.067842145657    -0.001264151797    0.000306288301
            -0.001169311343    0.000369594278    0.158400415788    -0.009577700034    -0.001264151797    0.000306288301    0.178358572058    -0.006139545954
0.750     0.149209070072    0.009261866563    -0.000920783167    0.000565597122    0.144244720280    0.023801016843    -0.001030878061    0.000663508169
            -0.000920783167    0.000565597122    0.166081063480    -0.027822855748    -0.001005468254    0.000591575342    0.151717705350    -0.028969910105
            0.144244720321    0.023801016591    -0.001005468254    0.000591575342    0.149231265315    0.010842341190    -0.001140967155    0.000618270937
            -0.001030878061    0.000663508169    0.151717705350    -0.028969910105    -0.001140967155    0.000618270937    0.166948180612    -0.026750271197
0.775     0.126261665575    -0.043844808463    -0.000769016339    0.000770458393    0.129637303809    -0.027177777513    -0.000829319914    0.000902969280
            -0.000769016339    0.000770458393    0.148161123145    -0.040069113958    -0.000845787781    0.000810551020    0.138833811983    -0.043094834033
            0.129637291349    -0.027177739470    -0.000845787781    0.000810551020    0.127293141775    -0.042910346043    -0.000955187337    0.000880750387
            -0.000829319982    0.000902969354    0.138833811983    -0.043094834033    -0.000955187337    0.000880750387    0.149543051554    -0.039221306973
