# GHz S RI R 45
0.000     0.035786551000    0.000000000000    -0.000023316186    0.000000000000    0.000836452800    0.000000000000    -0.000029213317    0.000000000000
            -0.000023315584    0.000000000000    0.036169034000    0.000000000000    -0.000019013966    0.000000000000    0.000683209260    0.000000000000
            0.000836449340    0.000000000000    -0.000019013644    0.000000000000    0.035732498000    0.000000000000    -0.000028342137    0.000000000000
            -0.000029212933    0.000000000000    0.000683183800    0.000000000000    -0.000028342489    0.000000000000    0.036120481000    0.000000000000
0.025     0.044205288645    0.006330319207    -0.000043547122    -0.000053920400    0.005182500848    0.011785002031    -0.000048454213    -0.000061707601
            -0.000043546747    -0.000053920494    0.042377160907    0.006374850671    -0.000054609605    -0.000056193129    0.003365246459    0.012833473312
            0.005182486706    0.011785053040    -0.000054608951    -0.000056193319    0.044151325938    0.006341457009    -0.000060567283    -0.000060197101
            -0.000048453807    -0.000061707704    0.003365095460    0.012833300976    -0.000060567625    -0.000060196998    0.042304373403    0.006364717676
0.050     0.054099325258    0.001948874180    -0.000093327062    -0.000089053642    0.016089416920    0.018150484913    -0.000105872948    -0.000106608904
            -0.000093326635    -0.000089053888    0.047011494895    0.005162108530    -0.000104683720    -0.000077100896    0.010653896935    0.022733526957
            0.016089408546    0.018150500355    -0.000104683139    -0.000077101229    0.054087251595    0.002009685010    -0.000115731191    -0.000089390457
            -0.000105872540    -0.000106609126    0.010653901107    0.022733517272    -0.000115731528    -0.000089390265    0.046890842682    0.005199366236
0.075     0.061488026240    -0.010087374048    -0.000161834228    -0.000093716119    0.028946468920    0.015975442874    -0.000188169159    -0.000114721321
            -0.000161833952    -0.000093716374    0.048568139812    0.001181473145    -0.000164423262    -0.000073057284    0.019861113792    0.027734297219
            0.028946464180    0.015975451462    -0.000164422844    -0.000073057682    0.061574964618    -0.010019393744    -0.000186226232    -0.000088161986
            -0.000188168853    -0.000114721630    0.019861093062    0.027734300994    -0.000186226521    -0.000088161726    0.048427817930    0.001313515473
0.100     0.061768976164    -0.028205277883    -0.000234291747    -0.000064936013    0.038117244887    0.005390726029    -0.000276313352    -0.000081891075
            -0.000234291510    -0.000064936344    0.045770713501    -0.003818238334    -0.000225225848    -0.000041096133    0.027855452316    0.027944118890
            0.038117246585    0.005390728304    -0.000225225558    -0.000041096608    0.061980015041    -0.028193715187    -0.000259400383    -0.000052844444
            -0.000276313142    -0.000081891433    0.027855427531    0.027944125240    -0.000259400595    -0.000052844157    0.045671458156    -0.003567538795
0.125     0.051311065355    -0.047754984575    -0.000299017272    -0.000003239510    0.038885437430    -0.010242554673    -0.000355368539    -0.000008442553
            -0.000299017158    -0.000003239875    0.038089409103    -0.006991429404    -0.000277542559    0.000018702068    0.032177095452    0.025231649069
            0.038885439900    -0.010242553147    -0.000277542379    0.000018701472    0.051637472412    -0.047875122057    -0.000322995756    0.000016668376
            -0.000355368398    -0.000008442984    0.032177072105    0.025231656155    -0.000322995912    0.000016668836    0.038103913812    -0.006644854074
0.150     0.029549989738    -0.062358629540    -0.000345670711    0.000089420662    0.029100584975    -0.025280122601    -0.000411965612    0.000102866555
            -0.000345670692    0.000089420657    0.026702016181    -0.005372869120    -0.000312397881    0.000104310654    0.031900752277    0.022553589074
            0.029100587367    -0.025280122897    -0.000312397908    0.000104310603    0.029943206886    -0.062680859915    -0.000365460515    0.000117724197
            -0.000411965583    0.000102865555    0.031900725435    0.022553599324    -0.000365460545    0.000117724137    0.026894622686    -0.005000303373
0.175     -0.000279768237    -0.065641168805    -0.000361725685    0.000209967705    0.010102384204    -0.033489169348    -0.000430776293    0.000247148518
            -0.000361725839    0.000209966782    0.014591683848    0.003189731381    -0.000319039492    0.000212606884    0.027997222001    0.022927864117
            0.010102386824    -0.033489171691    -0.000319039602    0.000212606394    0.000091676295    -0.066211965533    -0.000373549869    0.000245652559
            -0.000430776378    0.000247148067    0.027997201459    0.022927873418    -0.000373549885    0.000245652570    0.014972739180    0.003478386323
0.200     -0.031500405716    -0.053625459971    -0.000331984714    0.000349450379    -0.013317085005    -0.030082237619    -0.000394490044    0.000412545936
            -0.000331985144    0.000349449488    0.005758232464    0.018944696606    -0.000284695104    0.000335097596    0.023111745868    0.028315814944
            -0.013317085814    -0.030082239447    -0.000284695488    0.000335096744    -0.031265425676    -0.054444056313    -0.000332642900    0.000389353550
            -0.000394490051    0.000412545943    0.023111722306    0.028315826431    -0.000332642487    0.000389354442    0.006265681779    0.019039585438
0.225     -0.055729615753    -0.026431525556    -0.000243031632    0.000488190291    -0.034131359524    -0.013537168022    -0.000288787151    0.000575462847
            -0.000243031628    0.000488190282    0.004035139457    0.039795651643    -0.000198510631    0.000454189637    0.020672793579    0.038770652585
            -0.034131360454    -0.013537168391    -0.000198510943    0.000454189271    -0.055745481475    -0.027434214049    -0.000231203563    0.000527671516
            -0.000288787793    0.000575462122    0.020672774632    0.038770662688    -0.000231203579    0.000527671552    0.004542130838    0.039633525551
0.250     -0.065410461407    0.011158820450    -0.000092701311    0.000596998366    -0.045251375942    0.013509346958    -0.000112446065    0.000702516745
            -0.000092701313    0.000596998375    0.011708870197    0.061666352219    -0.000059776455    0.000544403412    0.023614577501    0.052280647795
            -0.045251375942    0.013509346958    -0.000059776455    0.000544403412    -0.065754366939    0.010097175684    -0.000069613216    0.000631418338
            -0.000112446806    0.000702516191    0.023614562812    0.052280656624    -0.000069613217    0.000631418348    0.012061010397    0.061266600492
0.275     -0.056345675003    0.050744487624    0.000103317313    0.000646028008    -0.041903201825    0.044812980274    0.000116001321    0.000760352429
            0.000103317312    0.000646027998    0.028548111376    0.079646785106    0.000116784889    0.000580383477    0.033231206629    0.065432363214
            -0.041903208963    0.044812972230    0.000116784019    0.000580383131    -0.057024367295    0.049786272482    0.000134579137    0.000672292128
            0.000116000847    0.000760352258    0.033231184694    0.065432376597    0.000134579553    0.000672292320    0.028616253808    0.079118996751
0.300     -0.029243962318    0.082647079367    0.000313777058    0.000617804312    -0.023265821547    0.072366769932    0.000361218955    0.000729701276
            0.000313777044    0.000617804285    0.051704476854    0.089575110308    0.000303398786    0.000548035262    0.048696838055    0.074629131960
            -0.023265821853    0.072366770884    0.000303397850    0.000548035175    -0.030176851781    0.081951318233    0.000349759608    0.000634980657
            0.000361218930    0.000729701289    0.048696824484    0.074629139622    0.000349760537    0.000634980796    0.051435744102    0.089091864516
0.325     0.010352300801    0.098679258350    0.000502971148    0.000514529294    0.007264057813    0.088759043094    0.000583260431    0.000612975612
            0.000502970684    0.000514529342    0.076548567246    0.089329512098    0.000469227449    0.000450385893    0.067380556122    0.077274000415
            0.007264054796    0.088759044344    0.000469226529    0.000450385985    0.009324886994    0.098354297627    0.000541298797    0.000523180870
            0.000583259527    0.000612975712    0.067380514484    0.077274023454    0.000541298788    0.000523180879    0.075991185383    0.089075937592
0.350     0.053535447834    0.094325889408    0.000643943283    0.000356000614    0.043052277408    0.089154338028    0.000751884130    0.000431786774
            0.000643943263    0.000356000588    0.098031262885    0.079413139399    0.000591540404    0.000305210493    0.085708266979    0.072502292607
            0.043052277843    0.089154338928    0.000591539540    0.000305210858    0.052621181697    0.094392258072    0.000683765863    0.000356764494
            0.000751883299    0.000431787117    0.085708269510    0.072502289616    0.000683765856    0.000356764551    0.097329939407    0.079531099867
0.375     0.090229187393    0.069773774611    0.000725919565    0.000169651592    0.075880678960    0.072382925136    0.000854406946    0.000216018208
            0.000725918798    0.000169652108    0.112019320713    0.062723060350    0.000661609305    0.000136161598    0.100132751190    0.061335024771
            0.075880684933    0.072382933363    0.000661608543    0.000136162128    0.089636799170    0.070145842606    0.000767145099    0.000161923029
            0.000854406960    0.000216018196    0.100132711655    0.061335051025    0.000767145087    0.000161923040    0.111381813684    0.063264322421
0.400     0.111406609400    0.029864100985    0.000754016575    -0.000020875995    0.097718624731    0.041205580069    0.000895205768    -0.000008516776
            0.000754016554    -0.000020876034    0.116283116332    0.043801208635    0.000683851665    -0.000036775878    0.108001942517    0.046435935435
            0.097718633226    0.041205585660    0.000683851674    -0.000036775905    0.111294301065    0.030353920506    0.000795726364    -0.000039252061
            0.000895205768    -0.000008516775    0.108001942517    0.046435935435    0.000795726403    -0.000039252068    0.115928167956    0.044703265330
0.425     0.110985881005    -0.016774438760    0.000741851074    -0.000204042355    0.102365346730    0.001944835886    0.000887509355    -0.000228795025
            0.000741850841    -0.000204041957    0.111032462916    0.027791357599    0.000669309464    -0.000203851369    0.108236225137    0.031565335058
            0.102365345936    0.001944877693    0.000669309053    -0.000203850554    0.111413307516    -0.016429733164    0.000780761359    -0.000235716965
            0.000887508951    -0.000228794227    0.108236225137    0.031565335058    0.000780761598    -0.000235717349    0.111129317718    0.028879438427
0.450     0.087344752223    -0.059206726078    0.000700537786    -0.000382381787    0.086986796911    -0.036432612580    0.000841636320    -0.000446263953
            0.000700537705    -0.000382381790    0.099040332010    0.019267574879    0.000626525178    -0.000366629502    0.101824607698    0.020767278622
            0.086986800314    -0.036432612221    0.000626525038    -0.000366628612    0.088236211787    -0.059295204326    0.000730598951    -0.000428288089
            0.000841636320    -0.000446263953    0.101824607698    0.020767278622    0.000730598942    -0.000428288084    0.099651255308    0.020287827240
0.475     0.044285688786    -0.086331240338    0.000627735424    -0.000565799013    0.053372507715    -0.063964569555    0.000753741939    -0.000669238250
            0.000627735438    -0.000565798550    0.085245299109    0.020966402906    0.000552828497    -0.000532064894    0.091919909191    0.017221602556
            0.053372507715    -0.063964569555    0.000552828495    -0.000532064464    0.045418230826    -0.087095789584    0.000641636294    -0.000622864305
            0.000753742023    -0.000669237854    0.091919910174    0.017221602740    0.000641636322    -0.000622865224    0.086287819247    0.021650196423
0.500     -0.008982542066    -0.089664342309    0.000504251134    -0.000756668085    0.008419106955    -0.072191995355    0.000603023247    -0.000897068311
            0.000504251334    -0.000756667182    0.075663380934    0.032670829265    0.000432153381    -0.000700022481    0.083239477165    0.021990118870
            0.008419108563    -0.072191998187    0.000432153640    -0.000700021616    -0.007953254149    -0.091223785085    0.000496647559    -0.000817082753
            0.000603023231    -0.000897068321    0.083239477165    0.021990118870    0.000496647568    -0.000817082736    0.076911395783    0.032819242095
0.525     -0.059513361734    -0.066204884742    0.000305069715    -0.000934267125    -0.036957296035    -0.057012993280    0.000364124893    -0.001104344453
            0.000305069692    -0.000934267111    0.075558435101    0.050761596402    0.000244911483    -0.000850761535    0.080582176352    0.033201501729
            -0.036957297667    -0.057012995797    0.000244911935    -0.000850760760    -0.058979316448    -0.068490650900    0.000275878017    -0.000987525839
            0.000364125519    -0.001104343825    0.080582176352    0.033201501729    0.000275877841    -0.000987526408    0.076697646372    0.050324446465
0.550     -0.094077089499    -0.020141075110    0.000022698970    -0.001053488887    -0.070765478795    -0.020675658497    0.000031825939    -0.001240598741
            0.000022698970    -0.001053488887    0.087446085420    0.069056948091    -0.000012194690    -0.000944931675    0.086948746306    0.046403782549
            -0.070765478795    -0.020675658497    -0.000012194706    -0.000944931675    -0.094369145758    -0.022882173272    -0.000021932921    -0.001090587675
            0.000031825895    -0.001240598742    0.086948750500    0.046403778938    -0.000021933542    -0.001090588262    0.088172482656    0.068165744247
0.575     -0.103331756988    0.037903771990    -0.000314937779    -0.001065177281    -0.083803774262    0.028483781626    -0.000360754889    -0.001252577619
            -0.000314937750    -0.001065177185    0.109957615361    0.080892967885    -0.000311991302    -0.000941838626    0.102253407341    0.056166813306
            -0.083803774262    0.028483781626    -0.000311990873    -0.000941838431    -0.104613396995    0.035126961719    -0.000365076211    -0.001082444177
            -0.000360754259    -0.001252577073    0.102253370031    0.056166902000    -0.000365076243    -0.001082444271    0.110080947732    0.079828028794
0.600     -0.084760990595    0.094127597241    -0.000649997155    -0.000945105264    -0.072582060008    0.078719916398    -0.000748867576    -0.001114938127
            -0.000649997155    -0.000945105264    0.138341154119    0.081491765993    -0.000603162570    -0.000824003678    0.123459332599    0.058126906419
            -0.072582060008    0.078719916398    -0.000603161725    -0.000824003429    -0.086968311760    0.091775827053    -0.000696307998    -0.000945161846
            -0.000748867576    -0.001114938127    0.123459330653    0.058126887076    -0.000696308684    -0.000945162086    0.137847839784    0.080593455135
0.625     -0.042967370613    0.135764798655    -0.000920373176    -0.000707828471    -0.039869806645    0.118590403522    -0.001063903015    -0.000844592013
            -0.000920373176    -0.000707828471    0.166244219248    0.069378293578    -0.000833248870    -0.000607444240    0.145883110275    0.050307999200
            -0.039869806645    0.118590403522    -0.000833248870    -0.000607444240    -0.045820136547    0.134218939582    -0.000957776176    -0.000697362644
            -0.001063898878    -0.000844591756    0.145883110275    0.050307999200    -0.000957777106    -0.000697363065    0.165296336060    0.068942991565
0.650     0.012375497548    0.154293531830    -0.001084909855    -0.000397691731    0.006884848935    0.139854546679    -0.001260413558    -0.000490680436
            -0.001084908431    -0.000397692712    0.187740233856    0.046393333049    -0.000969684379    -0.000332126316    0.164779286199    0.033301010643
            0.006884848935    0.139854546679    -0.000969684379    -0.000332126316    0.009304438490    0.153762793825    -0.001113687269    -0.000383694410
            -0.001260414031    -0.000490680873    0.164779277560    0.033301002911    -0.001113687486    -0.000383694702    0.186623126475    0.046597629612
0.675     0.069471093387    0.146696793192    -0.001133037037    -0.000068320801    0.057961843348    0.138678141570    -0.001326482462    -0.000112265226
            -0.001133037037    -0.000068320801    0.198696375539    0.016758762096    -0.001006324155    -0.000043564888    0.176408802820    0.009673311782
            0.057961840928    0.138678142582    -0.001006323748    -0.000043565046    0.066660829245    0.147177461614    -0.001157417285    -0.000054726766
            -0.001326478518    -0.000112266758    0.176408790337    0.009673356803    -0.001157417385    -0.000054726771    0.197744932085    0.017619522933
0.700     0.116941392333    0.115173963252    -0.001080466822    0.000234977827    0.103408318717    0.115560453811    -0.001278800622    0.000240914897
            -0.001080466822    0.000234977827    0.197378096904    -0.014107529779    -0.000958055052    0.000221570888    0.178563892663    -0.016766586075
            0.103408318717    0.115560453811    -0.000958054360    0.000221570376    0.114827404338    0.116451410464    -0.001105555439    0.000248962975
            -0.001278800622    0.000240914897    0.178563860827    -0.016766497255    -0.001105555439    0.000248962975    0.196899545378    -0.012733287535
0.725     0.145523355357    0.066158773424    -0.000958567320    0.000485058172    0.134392084027    0.074765312504    -0.001150788031    0.000539201014
            -0.000958567320    0.000485058172    0.184529090722    -0.040617802454    -0.000851014526    0.000442325453    0.170787519013    -0.041583670920
            0.134392092766    0.074765317365    -0.000851014508    0.000442325443    0.144417272587    0.067842145657    -0.000986829986    0.000504447977
            -0.001150788031    0.000539201014    0.170787499744    -0.041583580976    -0.000986829986    0.000504447977    0.184734774575    -0.039009668964
0.750     0.149209070072    0.009261866563    -0.000802707590    0.000676894176    0.144244720280    0.023801016843    -0.000979388774    0.000776765654
            -0.000802707590    0.000676894176    0.163282073159    -0.057905355743    -0.000713145021    0.000615275148    0.154614872436    -0.060309741084
            0.144244720321    0.023801016591    -0.000713144906    0.000615275266    0.149231265315    0.010842341190    -0.000831313572    0.000708138511
            -0.000979388774    0.000776765654    0.154614865696    -0.060309648290    -0.000831313572    0.000708138511    0.164230580512    -0.056425623734
0.775     0.126261665575    -0.043844808463    -0.000639054883    0.000826600349    0.129637303809    -0.027177777513    -0.000790883846    0.000969569100
            -0.000639054883    0.000826600349    0.138905892006    -0.062772747289    -0.000564293680    0.000752907702    0.133732009567    -0.069304973356
            0.129637291349    -0.027177739470    -0.000564293680    0.000752907702    0.127293141775    -0.042910346043    -0.000659473214    0.000873174129
            -0.000790883846    0.000969569100    0.133732001076    -0.069304924542    -0.000659473214    0.000873174129    0.140464806523    -0.061790550123
