# GHz S RI R 45
0.000     0.035786551000    0.000000000000    0.963778230000    -0.000000000000    0.000836452800    0.000000000000    -0.001000089900    0.000000000000
            0.963778230000    -0.000000000000    0.035585674000    0.000000000000    -0.001001437100    0.000000000000    0.000624528960    0.000000000000
            0.000836449340    0.000000000000    -0.001001411200    0.000000000000    0.035732498000    0.000000000000    0.963798440000    -0.000000000000
            -0.001000063000    0.000000000000    0.000624528610    0.000000000000    0.963798440000    -0.000000000000    0.035560253000    0.000000000000
0.025     0.044205288645    0.006330319207    0.923475838043    -0.259383033157    0.005182500848    0.011785002031    -0.001577189966    -0.001815991445
            0.923475828415    -0.259383030453    0.041689065506    0.006427708663    -0.001573634873    -0.001813143524    0.003285604465    0.012582929727
            0.005182486706    0.011785053040    -0.001573610553    -0.001813212033    0.044151325938    0.006341457009    0.923638665207    -0.259041135195
            -0.001577265441    -0.001816062981    0.003285480345    0.012582761632    0.923638665207    -0.259041135195    0.041595542863    0.006452159986
0.050     0.054099325258    0.001948874180    0.818395103235    -0.493393423978    0.016089416920    0.018150484913    -0.003299084180    -0.003057031046
            0.818395103235    -0.493393423978    0.046024325580    0.005482686661    -0.003291874938    -0.003056071987    0.010020978660    0.022391030329
            0.016089408546    0.018150500355    -0.003291852744    -0.003056093101    0.054087251595    0.002009685010    0.818829989790    -0.492840181484
            -0.003299062618    -0.003057053874    0.010021008769    0.022391017950    0.818829989790    -0.492840181484    0.045903717274    0.005593784538
0.075     0.061488026240    -0.010087374048    0.656495825788    -0.690456547807    0.028946468920    0.015975442874    -0.005527771616    -0.003230137865
            0.656495825788    -0.690456547807    0.047397989172    0.002197006072    -0.005516651351    -0.003232452093    0.018624942253    0.027936528636
            0.028946464180    0.015975451462    -0.005516630086    -0.003232471968    0.061574964618    -0.010019393744    0.657300110812    -0.689819615227
            -0.005527751179    -0.003230156983    0.018624948238    0.027936527049    0.657300110812    -0.689819615227    0.047291159596    0.002423702005
0.100     0.061768976164    -0.028205277883    0.449234458369    -0.837162251796    0.038117244887    0.005390726029    -0.007794977398    -0.002483673276
            0.449234458369    -0.837162251796    0.044914122635    -0.001830679736    -0.007779884163    -0.002493521049    0.026484351137    0.029211742316
            0.038117246585    0.005390728304    -0.007779868507    -0.002493545978    0.061980015041    -0.028193715187    0.450465392411    -0.836606036417
            -0.007794963965    -0.002483698968    0.026484350465    0.029211741576    0.450465392411    -0.836606036417    0.044876965584    -0.001483289493
0.125     0.051311065355    -0.047754984575    0.211393473303    -0.923694649475    0.038885437430    -0.010242554673    -0.010009079854    -0.000959762664
            0.211393473303    -0.923694649475    0.038241219702    -0.004157852675    -0.009994094974    -0.000982523699    0.031466428442    0.027664866373
            0.038885439900    -0.010242553147    -0.009994087255    -0.000982551119    0.051637472412    -0.047875122057    0.213048345844    -0.923409557638
            -0.010009072532    -0.000959786643    0.031466427691    0.027664865713    0.213048345844    -0.923409557638    0.038332478611    -0.003720916084
0.150     0.029549989738    -0.062358629540    -0.040209475330    -0.944199982262    0.029100584975    -0.025280122601    -0.012177595816    0.001495356674
            -0.040209475330    -0.944199982262    0.028449807744    -0.002311857255    -0.012172171328    0.001457108446    0.032637143056    0.025683636042
            0.029100587367    -0.025280122897    -0.012172168676    0.001457080115    0.029943206886    -0.062680859915    -0.038207321038    -0.944376155163
            -0.012177594246    0.001495328434    0.032637140699    0.025683634187    -0.038207321038    -0.944376155163    0.028718901844    -0.001848656279
0.175     -0.000279768237    -0.065641168805    -0.287693542632    -0.897308615839    0.010102384204    -0.033489169348    -0.013983094415    0.005300748826
            -0.287693542632    -0.897308615839    0.018075851665    0.005484620849    -0.013998811281    0.005252114032    0.030585092670    0.025791592685
            0.010102386824    -0.033489171691    -0.013998816683    0.005252085400    0.000091676295    -0.066211965533    -0.285494456603    -0.898111521269
            -0.013983099917    0.005300720208    0.030585099151    0.025791588102    -0.285494459633    -0.898111530799    0.018529782648    0.005880449796
0.200     -0.031500405716    -0.053625459971    -0.513109291871    -0.786443917726    -0.013317085005    -0.030082237619    -0.014549685357    0.010696410095
            -0.513109291871    -0.786443917726    0.010460866415    0.019445175955    -0.014593585630    0.010650910977    0.027287152672    0.029768558159
            -0.013317085814    -0.030082239447    -0.014593598321    0.010650885106    -0.031265425676    -0.054444056313    -0.510929513442    -0.787987931045
            -0.014549697324    0.010696383686    0.027287149761    0.029768558113    -0.510929513442    -0.787987931045    0.011049899119    0.019679917874
0.225     -0.055729615753    -0.026431525556    -0.699850213756    -0.620039969332    -0.034131359524    -0.013537168022    -0.012673288450    0.017201991200
            -0.699850213756    -0.620039969332    0.008825328767    0.037878773758    -0.012742069788    0.017176575428    0.025467914700    0.037945113412
            -0.034131360454    -0.013537168391    -0.012742086602    0.017176554239    -0.055745481475    -0.027434214049    -0.697954504340    -0.622355579401
            -0.012673305907    0.017201970887    0.025467910831    0.037945114805    -0.697954504340    -0.622355579401    0.009448282714    0.037893800353
0.250     -0.065410461407    0.011158820450    -0.834386006482    -0.411130983276    -0.045251375942    0.013509346958    -0.007493455328    0.023404257925
            -0.834386006482    -0.411130983276    0.015178032644    0.057465110395    -0.007572859103    0.023410673864    0.027628918554    0.049001472934
            -0.045251375942    0.013509346958    -0.007572873600    0.023410662869    -0.065754366939    0.010097175684    -0.833048923678    -0.414149947214
            -0.007493469838    0.023404246979    0.027628915989    0.049001474381    -0.833048923678    -0.414149947214    0.015708131613    0.057264293722
0.275     -0.056345675003    0.050744487624    -0.907779306937    -0.176060330658    -0.041903201825    0.044812980274    0.000802856291    0.027354257491
            -0.907779306937    -0.176060330658    0.029523015184    0.074118078285    0.000731510614    0.027392329266    0.035124929919    0.060378946674
            -0.041903208963    0.044812972230    0.000731488860    0.027392320844    -0.057024367295    0.049786272482    -0.907248350097    -0.179620099971
            0.000802830158    0.027354246252    0.035124930973    0.060378946061    -0.907248350097    -0.179620099971    0.029846400444    0.073776497674
0.300     -0.029243962318    0.082647079367    -0.916460855847    0.067430135881    -0.023265821547    0.072366769932    0.010756249717    0.027444596496
            -0.916460855847    0.067430135881    0.049701283487    0.084232371760    0.010706004335    0.027502157283    0.047681962327    0.069165003570
            -0.023265821853    0.072366770884    0.010705976696    0.027502153019    -0.030176851781    0.081951318233    -0.916917401380    0.063577116679
            0.010756222460    0.027444593216    0.047681959273    0.069165006890    -0.916917401380    0.063577116679    0.049757343891    0.083880435506
0.325     0.010352300801    0.098679258350    -0.861970119945    0.302140734816    0.007264057813    0.088759043094    0.020126941507    0.023234294279
            -0.861970119945    0.302140734816    0.071975445259    0.085764169262    0.020097979352    0.023294613669    0.063512438286    0.073032090449
            0.007264054796    0.088759044344    0.020097951825    0.023294616288    0.009324886994    0.098354297627    -0.863513473255    0.298286865212
            0.020126918397    0.023234297099    0.063512437049    0.073032094175    -0.863513473255    0.298286865212    0.071779069825    0.085552625174
0.350     0.053535447834    0.094325889408    -0.749985994667    0.512789892920    0.043052277408    0.089154338028    0.026856412286    0.015713453617
            -0.749985994667    0.512789892920    0.092089935209    0.078813174122    0.026836404326    0.015766860237    0.079902431057    0.070907987864
            0.043052277843    0.089154338928    0.026836386549    0.015766866805    0.052621181697    0.094392258072    -0.752624778961    0.509246570670
            0.026856394798    0.015713459744    0.079902429819    0.070907989258    -0.752624778961    0.509246570670    0.091734685352    0.078870416166
0.375     0.090229187393    0.069773774611    -0.589141640863    0.686594431254    0.075880678960    0.072382925136    0.029951769764    0.006833017661
            -0.589141640863    0.686594431254    0.106396750766    0.065532134216    0.029924977600    0.006884807891    0.093959653214    0.063204122759
            0.075880684933    0.072382933363    0.029924955612    0.006884823180    0.089636799170    0.070145842606    -0.592805396903    0.683665328046
            0.029951746708    0.006833033299    0.093959652111    0.063204124399    -0.592805396903    0.683665328046    0.106034151051    0.065926579883
0.400     0.111406609400    0.029864100985    -0.390166086384    0.813299910020    0.097718624731    0.041205580069    0.029833240309    -0.001435736043
            -0.390166086384    0.813299910020    0.112744222699    0.049563913140    0.029793693536    -0.001365831654    0.103335193380    0.051707054742
            0.097718633226    0.041205585660    0.029793681145    -0.001365818059    0.111294301065    0.030353920506    -0.394710569067    0.811271952861
            0.029833222273    -0.001435715552    0.103335193380    0.051707054742    -0.394710569067    0.811271952861    0.112548230596    0.050280486856
0.425     0.110985881005    -0.016774438760    -0.165506200661    0.885050306743    0.102365346730    0.001944835886    0.027956919262    -0.008042215044
            -0.165506200661    0.885050306743    0.110981320558    0.035172174796    0.027918532232    -0.007930795479    0.106798899148    0.039190289544
            0.102365345936    0.001944877693    0.027918520592    -0.007930770582    0.111413307516    -0.016429733164    -0.170714337114    0.884184710113
            0.027956909618    -0.008042194308    0.106798899148    0.039190289544    -0.170714339009    0.884184719932    0.111104466834    0.036107601876
0.450     0.087344752223    -0.059206726078    0.070691903009    0.896543722622    0.086986796911    -0.036432612580    0.025880609180    -0.013319945501
            0.070691903009    0.896543722622    0.103082356485    0.026262834701    0.025877613945    -0.013156607658    0.104666863744    0.028817438211
            0.086986800314    -0.036432612221    0.025877607315    -0.013156580982    0.088236211787    -0.059295204326    0.065114142121    0.897061014436
            0.025880603596    -0.013319919202    0.104666863744    0.028817438211    0.065114142121    0.897061014436    0.103611549927    0.027242980330
0.475     0.044285688786    -0.086331240338    0.302607890020    0.845688143143    0.053372507715    -0.063964569555    0.024193884106    -0.018665583439
            0.302607890020    0.845688143143    0.092831791307    0.025361537748    0.024268058473    -0.018467577944    0.098930907000    0.023300470610
            0.053372507715    -0.063964569555    0.024268058473    -0.018467577944    0.045418230826    -0.087095789584    0.297037631276    0.847745876344
            0.024193884106    -0.018665583439    0.098930907000    0.023300470610    0.297037631276    0.847745876344    0.093755460099    0.026181254686
0.500     -0.008982542066    -0.089664342309    0.513322506398    0.734715516592    0.008419106955    -0.072191995355    0.021930459945    -0.025467107454
            0.513322506398    0.734715516592    0.085009715849    0.032743466549    0.022109421043    -0.025282020044    0.092923753493    0.023968879064
            0.008419108563    -0.072191998187    0.022109421484    -0.025282019658    -0.007953254149    -0.091223785085    0.508211658853    0.738359502878
            0.021930483560    -0.025467019815    0.092923750170    0.023968879937    0.508211658853    0.738359502878    0.086207685880    0.033222325783
0.525     -0.059513361734    -0.066204884742    0.686349493759    0.571178684123    -0.036957296035    -0.057012993280    0.016974074936    -0.033794430378
            0.686349493759    0.571178684123    0.084053637863    0.046022314706    0.017250064977    -0.033685623282    0.090361188644    0.030067224335
            -0.036957297667    -0.057012995797    0.017250085917    -0.033685584471    -0.058979316448    -0.068490650900    0.682187824935    0.576304975537
            0.016974096745    -0.033794391448    0.090361185697    0.030067226858    0.682187824935    0.576304975537    0.085321599014    0.046064036856
0.550     -0.094077089499    -0.020141075110    0.808020434415    0.368015897756    -0.070765478795    -0.020675658497    0.007445441779    -0.041743720081
            0.808020434415    0.368015897756    0.092546754417    0.060615574044    0.007769942226    -0.041762400691    0.094017925401    0.038780832247
            -0.070765478795    -0.020675658497    0.007769942954    -0.041762400556    -0.094369145758    -0.022882173272    0.805266136120    0.374345280283
            0.007445441779    -0.041743720081    0.094017925401    0.038780832247    0.805266136120    0.374345280283    0.093653313376    0.060245226698
0.575     -0.103331756988    0.037903771990    0.869796345436    0.142064144332    -0.083803774262    0.028483781626    -0.006738535226    -0.046082912184
            0.869796345436    0.142064144332    0.110168085787    0.071132147265    -0.006438914843    -0.046242103433    0.104616831384    0.046149313724
            -0.083803774262    0.028483781626    -0.006438914843    -0.046242103433    -0.104613396995    0.035126961719    0.868806700198    0.149161367584
            -0.006738535226    -0.046082912184    0.104616831384    0.046149313724    0.868806700198    0.149161367584    0.110927161439    0.070495305177
0.600     -0.084760990595    0.094127597241    0.869375700789    -0.088621896877    -0.072582060008    0.078719916398    -0.023259161162    -0.043947178959
            0.869375701098    -0.088621893842    0.133736967483    0.073180505542    -0.023052030998    -0.044213785312    0.120589510898    0.048501850984
            -0.072582060008    0.078719916398    -0.023051947855    -0.044213757612    -0.086968311760    0.091775827053    0.870341045227    -0.081289873693
            -0.023259161162    -0.043947178959    0.120589516790    0.048501863134    0.870341045227    -0.081289873693    0.134065085820    0.072498598015
0.625     -0.042967370613    0.135764798655    0.810060834827    -0.307430868741    -0.039869806645    0.118590403522    -0.038232757772    -0.034474972817
            0.810060840193    -0.307430854603    0.158312517476    0.064731147496    -0.038151530116    -0.034784505642    0.138741852089    0.043634294674
            -0.039869806645    0.118590403522    -0.038151480707    -0.034784509369    -0.045820136547    0.134218939582    0.812991326208    -0.300423382792
            -0.038232757772    -0.034474972817    0.138741851328    0.043634297095    0.812991326208    -0.300423382792    0.158251441207    0.064234499670
0.650     0.012375497548    0.154293531830    0.698997238001    -0.500783651312    0.006884848935    0.139854546679    -0.047932336881    -0.019365444330
            0.698997238001    -0.500783651312    0.178774217655    0.046511413860    -0.047966072424    -0.019651081499    0.155380047370    0.031267680847
            0.006884848935    0.139854546679    -0.047966073349    -0.019651081878    0.009304438490    0.153762793825    0.703749596519    -0.494616015068
            -0.047932336881    -0.019365444330    0.155380047370    0.031267680847    0.703749596519    -0.494616015068    0.178473629710    0.046377633865
0.675     0.069471093387    0.146696793192    0.545352043640    -0.658351223680    0.057961843348    0.138678141570    -0.050347611997    -0.002156811357
            0.545352043640    -0.658351223680    0.191132023584    0.021522398109    -0.050451186066    -0.002377381947    0.167253155935    0.012831318081
            0.057961840928    0.138678142582    -0.050451107492    -0.002377413544    0.066660829245    0.147177461614    0.551665457484    -0.653466730618
            -0.050347612996    -0.002156811399    0.167253155464    0.012831324211    0.551665457484    -0.653466730618    0.190808153594    0.021832742135
0.700     0.116941392333    0.115173963252    0.359148734407    -0.772489451418    0.103408318717    0.115560453811    -0.045879175028    0.013234267821
            0.359148734407    -0.772489451418    0.193296973828    -0.005875508311    -0.045998329805    0.013080118362    0.172146555025    -0.009033854746
            0.103408318717    0.115560453811    -0.045998329805    0.013080118362    0.114827404338    0.116451410464    0.366683688509    -0.769247172742
            -0.045879175028    0.013234267821    0.172146555025    -0.009033854746    0.366683688509    -0.769247172742    0.193178983916    -0.005152280906
0.725     0.145523355357    0.066158773424    0.150932706667    -0.837479439670    0.134392084027    0.074765312504    -0.037011768679    0.024007419069
            0.150932706667    -0.837479439670    0.185320605989    -0.030911253300    -0.037111517008    0.023885666163    0.169157615262    -0.030988769986
            0.134392092766    0.074765317365    -0.037111490028    0.023885630478    0.144417272587    0.067842145657    0.159286455536    -0.836167654890
            -0.037011768679    0.024007419069    0.169157625098    -0.030988771788    0.159286455536    -0.836167654890    0.185599655429    -0.029914300429
0.750     0.149209070072    0.009261866563    -0.067980107862    -0.849124223861    0.144244720280    0.023801016843    -0.027205413573    0.029480778915
            -0.067980107862    -0.849124223861    0.169355077895    -0.049268833860    -0.027288860615    0.029344180789    0.158914146065    -0.049488857278
            0.144244720321    0.023801016591    -0.027288825940    0.029344102423    0.149231265315    0.010842341190    -0.059266132901    -0.849957941761
            -0.027205413573    0.029480778915    0.158914156476    -0.049488857478    -0.059266132901    -0.849957941761    0.170137908691    -0.048216971838
0.775     0.126261665575    -0.043844808463    -0.284954669088    -0.804923335561    0.129637303809    -0.027177777513    -0.019367751705    0.031258604113
            -0.284954669088    -0.804923335561    0.149387826532    -0.057902230034    -0.019477424824    0.031076923632    0.143695636330    -0.061413496825
            0.129637291349    -0.027177739470    -0.019477425355    0.031076924479    0.127293141775    -0.042910346043    -0.276411689799    -0.808036517528
            -0.019367752758    0.031258605813    0.143695636330    -0.061413496825    -0.276411689799    -0.808036517528    0.150662501867    -0.057050856796
