# GHz S RI R 45
0.000     0.035786551000    0.000000000000    -0.000025585116    0.000000000000    0.000836452800    0.000000000000    -0.000024999604    0.000000000000
            -0.000025585023    0.000000000000    0.036289087000    0.000000000000    -0.000003134802    0.000000000000    0.000578174090    0.000000000000
            0.000836449340    0.000000000000    -0.000003134776    0.000000000000    0.035732498000    0.000000000000    -0.000004760618    0.000000000000
            -0.000024999413    0.000000000000    0.000578149040    0.000000000000    -0.000004760701    0.000000000000    0.036223221000    0.000000000000
0.025     0.044205288645    0.006330319207    -0.000009987330    -0.000009979071    0.005182500848    0.011785002031    -0.000014993269    -0.000015848060
            -0.000009987289    -0.000009979089    0.042809802269    0.006698141966    -0.000007440609    -0.000018925605    0.003470564668    0.013149634827
            0.005182486706    0.011785053040    -0.000007440582    -0.000018925613    0.044151325938    0.006341457009    -0.000010741991    -0.000021151429
            -0.000014993175    -0.000015848088    0.003470413542    0.013149466831    -0.000010742071    -0.000021151404    0.042697211958    0.006682143606
0.050     0.054099325258    0.001948874180    -0.000022301752    -0.000040548981    0.016089416920    0.018150484913    -0.000033077367    -0.000045133589
            -0.000022301703    -0.000040549010    0.047860443778    0.005365327069    -0.000024374373    -0.000034004871    0.011144917921    0.023054111255
            0.016089408546    0.018150500355    -0.000024374349    -0.000034004887    0.054087251595    0.002009685010    -0.000029481784    -0.000037180128
            -0.000033077274    -0.000045133643    0.011144921715    0.023054101646    -0.000029481851    -0.000037180092    0.047701080592    0.005384464922
0.075     0.061488026240    -0.010087374048    -0.000056674931    -0.000052250743    0.028946468920    0.015975442874    -0.000070904905    -0.000054717238
            -0.000056674891    -0.000052250779    0.049660581530    0.000931233968    -0.000049157207    -0.000038423826    0.020668478946    0.027733673720
            0.028946464180    0.015975451462    -0.000049157186    -0.000038423850    0.061574964618    -0.010019393744    -0.000056825028    -0.000041637903
            -0.000070904839    -0.000054717306    0.020668458563    0.027733677686    -0.000056825084    -0.000041637853    0.049483772718    0.001041220175
0.100     0.061768976164    -0.028205277883    -0.000095907046    -0.000043856575    0.038117244887    0.005390726029    -0.000113082046    -0.000042880515
            -0.000095907046    -0.000043856575    0.046734798594    -0.004688156950    -0.000076415301    -0.000030740321    0.028692202024    0.027396189138
            0.038117246585    0.005390728304    -0.000076415300    -0.000030740321    0.061980015041    -0.028193715187    -0.000086922563    -0.000032739240
            -0.000113081997    -0.000042880586    0.028692175874    0.027396194804    -0.000086922615    -0.000032739155    0.046610421454    -0.004463665487
0.125     0.051311065355    -0.047754984575    -0.000131549825    -0.000016505977    0.038885437430    -0.010242554673    -0.000150659086    -0.000010599559
            -0.000131549809    -0.000016506022    0.038474539334    -0.008371241807    -0.000101900220    -0.000010807722    0.032630639821    0.024141329991
            0.038885439900    -0.010242553147    -0.000101900204    -0.000010807774    0.051637472412    -0.047875122057    -0.000115002989    -0.000010185168
            -0.000150659047    -0.000010599688    0.032630611868    0.024141337510    -0.000115003016    -0.000010185090    0.038485268762    -0.008062713951
0.150     0.029549989738    -0.062358629540    -0.000157190502    0.000027622624    0.029100584975    -0.025280122601    -0.000176556036    0.000039565326
            -0.000157190496    0.000027622539    0.026175476256    -0.006850157926    -0.000121646004    0.000021182498    0.031601720619    0.021210527592
            0.029100587367    -0.025280122897    -0.000121646004    0.000021182498    0.029943206886    -0.062680859915    -0.000136519316    0.000025740343
            -0.000176556029    0.000039565130    0.031601693547    0.021210537423    -0.000136519322    0.000025740418    0.026389479462    -0.006543048443
0.175     -0.000279768237    -0.065641168805    -0.000166404523    0.000085159800    0.010102384204    -0.033489169348    -0.000183855694    0.000103637907
            -0.000166404534    0.000085159733    0.013114962052    0.002216232070    -0.000130661574    0.000064357013    0.026802542522    0.021846019995
            0.010102386824    -0.033489171691    -0.000130661574    0.000064357013    0.000091676295    -0.066211965533    -0.000145929367    0.000073879771
            -0.000183855713    0.000103637791    0.026802524870    0.021846027407    -0.000145929355    0.000073879861    0.013538081139    0.002393197785
0.200     -0.031500405716    -0.053625459971    -0.000152865645    0.000150430995    -0.013317085005    -0.030082237619    -0.000166014752    0.000175094156
            -0.000152865702    0.000150430893    0.003687309223    0.019057230015    -0.000122907301    0.000115451955    0.021229237608    0.028059000260
            -0.013317085814    -0.030082239447    -0.000122907339    0.000115451870    -0.031265425676    -0.054444056313    -0.000136745451    0.000130436729
            -0.000166014833    0.000175093997    0.021229211950    0.028059012148    -0.000136745427    0.000130436798    0.004242175495    0.018976938205
0.225     -0.055729615753    -0.026431525556    -0.000111882696    0.000213627940    -0.034131359524    -0.013537168022    -0.000118457253    0.000243204659
            -0.000111882724    0.000213627902    0.002066697498    0.041300451986    -0.000093177636    0.000167023423    0.018651741356    0.039714726908
            -0.034131360454    -0.013537168391    -0.000093177685    0.000167023373    -0.055745481475    -0.027434214049    -0.000103527687    0.000187250701
            -0.000118457278    0.000243204602    0.018651716828    0.039714739532    -0.000103527641    0.000187250773    0.002602472550    0.040890673971
0.250     -0.065410461407    0.011158820450    -0.000043875939    0.000261893326    -0.045251375942    0.013509346958    -0.000042124775    0.000294268876
            -0.000043875937    0.000261893316    0.010659990432    0.064407723252    -0.000040628445    0.000208111216    0.022176399702    0.054418589721
            -0.045251375942    0.013509346958    -0.000040628445    0.000208111216    -0.065754366939    0.010097175684    -0.000045527747    0.000232548594
            -0.000042124770    0.000294268877    0.022176375190    0.054418602949    -0.000045527674    0.000232548649    0.010994036349    0.063690719630
0.275     -0.056345675003    0.050744487624    0.000043305061    0.000282798177    -0.041903201825    0.044812980274    0.000054297298    0.000315282113
            0.000043305065    0.000282798166    0.029049540291    0.082998376291    0.000028859141    0.000227720708    0.033003473054    0.068328231067
            -0.041903208963    0.044812972230    0.000028859133    0.000227720709    -0.057024367295    0.049786272482    0.000030943714    0.000254619680
            0.000054297298    0.000315282113    0.033003457986    0.068328239456    0.000030943758    0.000254619705    0.029028448872    0.082099584268
0.300     -0.029243962318    0.082647079367    0.000135806576    0.000269628552    -0.023265821547    0.072366769932    0.000155970245    0.000299362607
            0.000135806581    0.000269628549    0.053950668799    0.092626235830    0.000103822310    0.000219630264    0.049977475788    0.077547380250
            -0.023265821853    0.072366770884    0.000103822310    0.000219630264    -0.030176851781    0.081951318233    0.000113742962    0.000246770286
            0.000155970254    0.000299362625    0.049977477953    0.077547377665    0.000113742932    0.000246770322    0.053506139347    0.091742535315
0.325     0.010352300801    0.098679258350    0.000218369533    0.000223961687    0.007264057813    0.088759043094    0.000246719142    0.000248307687
            0.000218369533    0.000223961687    0.080210179031    0.091175349030    0.000171486439    0.000184872124    0.070030426190    0.079411995964
            0.007264054796    0.088759044344    0.000171486439    0.000184872124    0.009324886994    0.098354297627    0.000189338333    0.000209863101
            0.000246719142    0.000248307687    0.070030383540    0.079412020242    0.000189338333    0.000209863101    0.079386684232    0.090519750722
0.350     0.053535447834    0.094325889408    0.000279781023    0.000154539709    0.043052277408    0.089154338028    0.000314649996    0.000171344744
            0.000279781023    0.000154539709    0.102339416117    0.079428360390    0.000222546642    0.000130611180    0.089185815936    0.073223614921
            0.043052277843    0.089154338928    0.000222546642    0.000130611180    0.052621181697    0.094392258072    0.000247726461    0.000151148198
            0.000314649996    0.000171344744    0.089185817214    0.073223613365    0.000247726461    0.000151148198    0.101288377544    0.079167738553
0.375     0.090229187393    0.069773774611    0.000315619209    0.000073042183    0.075880678960    0.072382925136    0.000354916005    0.000080724474
            0.000315619209    0.000073042183    0.115960736289    0.060741935495    0.000253569261    0.000066344579    0.103623688343    0.060341790459
            0.075880684933    0.072382933363    0.000253569261    0.000066344579    0.089636799170    0.070145842606    0.000284893044    0.000080347118
            0.000354916007    0.000080724468    0.103623689396    0.060341788650    0.000284893044    0.000080347118    0.114904865542    0.060947310919
0.400     0.111406609400    0.029864100985    0.000328033842    -0.000010612050    0.097718624731    0.041205580069    0.000369421925    -0.000013104501
            0.000328033842    -0.000010612050    0.118842601460    0.040192078070    0.000266526569    -0.000000179946    0.110599526127    0.043871935251
            0.097718633226    0.041205585660    0.000266526569    -0.000000179948    0.111294301065    0.030353920506    0.000302304380    0.000005493471
            0.000369421925    -0.000013104501    0.110599526127    0.043871935251    0.000302304380    0.000005493472    0.118020429536    0.040811710226
0.425     0.110985881005    -0.016774438760    0.000322540107    -0.000091550697    0.102365346730    0.001944835886    0.000363482055    -0.000104803059
            0.000322540097    -0.000091550694    0.111453163400    0.023430780339    0.000265892751    -0.000065665409    0.109162418857    0.028049019337
            0.102365345936    0.001944877693    0.000265892764    -0.000065665398    0.111413307516    -0.016429733164    0.000303929272    -0.000069770536
            0.000363482053    -0.000104803066    0.109162388226    0.028049058180    0.000303929271    -0.000069770541    0.111054729517    0.024291476876
0.450     0.087344752223    -0.059206726078    0.000303455023    -0.000170700126    0.086986796911    -0.036432612580    0.000341173043    -0.000194784928
            0.000303454976    -0.000170700148    0.097085750680    0.015396990722    0.000254631438    -0.000131597239    0.100688626666    0.017320347274
            0.086986800314    -0.036432612221    0.000254631471    -0.000131597262    0.088236211787    -0.059295204326    0.000292194095    -0.000146427487
            0.000341172843    -0.000194784048    0.100688626605    0.017320347625    0.000292194097    -0.000146427482    0.097190389031    0.016236921662
0.475     0.044285688786    -0.086331240338    0.000269352118    -0.000251742581    0.053372507715    -0.063964569555    0.000300837938    -0.000286031018
            0.000269352132    -0.000251742127    0.081402403956    0.018888432888    0.000230445550    -0.000201374421    0.088956900171    0.015031160423
            0.053372507715    -0.063964569555    0.000230445543    -0.000201374415    0.045418230826    -0.087095789584    0.000264313277    -0.000227095461
            0.000300837938    -0.000286031018    0.088956900171    0.015031160423    0.000264313277    -0.000227095461    0.081936342391    0.019425021019
0.500     -0.008982542066    -0.089664342309    0.000211895445    -0.000334709860    0.008419106955    -0.072191995355    0.000234112698    -0.000377604772
            0.000211895445    -0.000334709860    0.071152510663    0.033295941633    0.000185115923    -0.000274586759    0.079386188928    0.021994854978
            0.008419108563    -0.072191998187    0.000185115923    -0.000274586759    -0.007953254149    -0.091223785085    0.000211832096    -0.000310257587
            0.000234112670    -0.000377604801    0.079386193167    0.021994854661    0.000211832123    -0.000310257557    0.071888082105    0.033316864476
0.525     -0.059513361734    -0.066204884742    0.000121061417    -0.000409509017    -0.036957296035    -0.057012993280    0.000131391273    -0.000458298056
            0.000121061417    -0.000409509017    0.072014672072    0.054166848491    0.000109441630    -0.000341565314    0.077237053848    0.035649716231
            -0.036957297667    -0.057012995797    0.000109441624    -0.000341565315    -0.058979316448    -0.068490650900    0.000125820473    -0.000384950677
            0.000131391483    -0.000458297673    0.077237031214    0.035649758112    0.000125820479    -0.000384950675    0.072628901904    0.053615245791
0.550     -0.094077089499    -0.020141075110    -0.000004669793    -0.000456170808    -0.070765478795    -0.020675658497    -0.000007868199    -0.000507187852
            -0.000004669825    -0.000456170778    0.086318164842    0.074336762707    0.000002347751    -0.000384049644    0.085440404612    0.050662002128
            -0.070765478795    -0.020675658497    0.000002347744    -0.000384049694    -0.094369145758    -0.022882173272    0.000006088184    -0.000431760398
            -0.000007868199    -0.000507187852    0.085440404612    0.050662002128    0.000006088184    -0.000431760398    0.086499207752    0.073346247774
0.575     -0.103331756988    0.037903771990    -0.000151326562    -0.000454429048    -0.083803774262    0.028483781626    -0.000168312261    -0.000503572620
            -0.000151326558    -0.000454429039    0.111930780138    0.086465413349    -0.000123274891    -0.000384089910    0.103300596833    0.060952653618
            -0.083803774262    0.028483781626    -0.000123274519    -0.000384089672    -0.104613396995    0.035126961719    -0.000133123203    -0.000432078854
            -0.000168312261    -0.000503572620    0.103300583105    0.060952696561    -0.000133123200    -0.000432078844    0.111486559585    0.085322098366
0.600     -0.084760990595    0.094127597241    -0.000293140458    -0.000396015204    -0.072582060008    0.078719916398    -0.000322755515    -0.000439413753
            -0.000293140458    -0.000396015204    0.143119021228    0.085697743518    -0.000244424300    -0.000334917946    0.126946141879    0.062025271051
            -0.072582060008    0.078719916398    -0.000244424358    -0.000334917903    -0.086968311760    0.091775827053    -0.000267353890    -0.000379145511
            -0.000322755515    -0.000439413753    0.126946145126    0.062025264404    -0.000267353890    -0.000379145511    0.142039056218    0.084744712179
0.625     -0.042967370613    0.135764798655    -0.000404218695    -0.000289362178    -0.039869806645    0.118590403522    -0.000444226378    -0.000323913951
            -0.000404218695    -0.000289362178    0.172748497130    0.071019022750    -0.000338679683    -0.000244603496    0.151010247383    0.052242020037
            -0.039869806645    0.118590403522    -0.000338679683    -0.000244603496    -0.045820136547    0.134218939582    -0.000372988149    -0.000281601203
            -0.000444225990    -0.000323913906    0.151010247383    0.052242020037    -0.000372988165    -0.000281601215    0.171198098147    0.070550372609
0.650     0.012375497548    0.154293531830    -0.000468758914    -0.000154535411    0.006884848935    0.139854546679    -0.000516355255    -0.000178131527
            -0.000468758868    -0.000154535487    0.194517703922    0.044988172895    -0.000393062499    -0.000130963447    0.170395840862    0.032756212309
            0.006884848935    0.139854546679    -0.000393062499    -0.000130963447    0.009304438490    0.153762793825    -0.000436299498    -0.000158114883
            -0.000516355312    -0.000178131546    0.170395840862    0.032756212309    -0.000436299498    -0.000158114969    0.192780042873    0.045174354612
0.675     0.069471093387    0.146696793192    -0.000484068751    -0.000014218338    0.057961843348    0.138678141570    -0.000536342087    -0.000025644796
            -0.000484068751    -0.000014218338    0.204297598191    0.012544805682    -0.000406118728    -0.000013328371    0.181309608869    0.006707837506
            0.057961840928    0.138678142582    -0.000406118728    -0.000013328371    0.066660829245    0.147177461614    -0.000455503655    -0.000028852375
            -0.000536342087    -0.000025644796    0.181309608869    0.006707837506    -0.000455503655    -0.000028852375    0.202699727679    0.013398999640
0.700     0.116941392333    0.115173963252    -0.000457977023    0.000113338873    0.103408318717    0.115560453811    -0.000512136717    0.000114669467
            -0.000457977062    0.000113338798    0.200620822212    -0.020293704371    -0.000385059502    0.000093432901    0.181688955188    -0.021591757769
            0.103408318717    0.115560453811    -0.000385059502    0.000093432901    0.114827404338    0.116451410464    -0.000437712076    0.000090661748
            -0.000512136767    0.000114669384    0.181688944240    -0.021591765151    -0.000437712066    0.000090661746    0.199457393897    -0.018913487468
0.725     0.145523355357    0.066158773424    -0.000404140557    0.000217904338    0.134392084027    0.074765312504    -0.000457497612    0.000232227801
            -0.000404140539    0.000217904329    0.184683795628    -0.047480764466    -0.000341370366    0.000181520466    0.171373893615    -0.047270856628
            0.134392092766    0.074765317365    -0.000341370406    0.000181520412    0.144417272587    0.067842145657    -0.000394329005    0.000192157085
            -0.000457497336    0.000232227461    0.171373885886    -0.047270809436    -0.000394329014    0.000192157090    0.184153275228    -0.045845508148
0.750     0.149209070072    0.009261866563    -0.000337120548    0.000298545443    0.144244720280    0.023801016843    -0.000386883276    0.000325839406
            -0.000337120548    0.000298545443    0.160252960398    -0.063855671466    -0.000286662282    0.000250752342    0.152389659204    -0.065507738485
            0.144244720321    0.023801016591    -0.000286662282    0.000250752342    0.149231265315    0.010842341190    -0.000336753430    0.000275016603
            -0.000386883276    0.000325839406    0.152389636095    -0.065507640317    -0.000336753430    0.000275016603    0.160402431769    -0.062312667207
0.775     0.126261665575    -0.043844808463    -0.000266841595    0.000362890448    0.129637303809    -0.027177777513    -0.000309892393    0.000402713518
            -0.000266841595    0.000362890448    0.133419194841    -0.066202220290    -0.000228303086    0.000307569812    0.129150732522    -0.072519661538
            0.129637291349    -0.027177739470    -0.000228303086    0.000307569812    0.127293141775    -0.042910346043    -0.000272003535    0.000345064567
            -0.000309892387    0.000402713510    0.129150732522    -0.072519661538    -0.000272003535    0.000345064567    0.134108416943    -0.065098220378
