# GHz S RI R 45
0.000     0.088177951685    0.050982748137    -0.000024512221    0.000010983946    0.042108936104    0.056283656603    -0.000036253993    0.000003648859
            -0.000024512235    0.000010983983    0.090224102503    0.051242629061    -0.000001003830    0.000001662680    0.042343252407    0.056012246185
            0.042108898534    0.056283653488    -0.000001003833    0.000001662603    0.087884487846    0.050204899044    -0.000017667682    0.000007255174
            -0.000036253981    0.000003649012    0.042343229675    0.056012244566    -0.000017667659    0.000007255172    0.090002077312    0.050477659552
0.025     0.171363828702    0.006032030764    0.000002901604    0.000020072011    0.137031546450    0.030096556426    0.000009767600    0.000041992136
            0.000002901576    0.000020072019    0.174322065475    0.001824207706    -0.000002927323    0.000012780860    0.137465258365    0.026669689775
            0.137031394263    0.030096643338    -0.000002927269    0.000012780810    0.170113232500    0.005609977272    -0.000002203787    0.000015667951
            0.000009767633    0.000041992179    0.137474017517    0.026669748442    -0.000002203845    0.000015668014    0.173113440026    0.001272931484
0.050     0.077406480208    -0.087727549860    0.000018187235    -0.000027563887    0.062065973331    -0.083035960724    0.000042120704    -0.000022451892
            0.000018187235    -0.000027563902    0.071397475590    -0.092942652123    0.000013663452    -0.000030692268    0.056050928951    -0.086663488899
            0.062064845618    -0.083036791146    0.000013663525    -0.000030692245    0.076568971998    -0.086556991330    0.000021345873    -0.000025083237
            0.000042120788    -0.000022451934    0.056050697456    -0.086663698168    0.000021345856    -0.000025083203    0.070499501580    -0.091647144476
0.075     0.088317634396    0.021524188394    -0.000038021838    -0.000011295339    0.063368920400    0.016549485994    -0.000021320135    -0.000015763036
            -0.000038021838    -0.000011295332    0.087676061205    0.020747730922    -0.000041188166    -0.000011183483    0.062292539344    0.014213123455
            0.063368736521    0.016549481685    -0.000041188183    -0.000011183496    0.088370693937    0.022344725876    -0.000039284623    -0.000022272563
            -0.000021320140    -0.000015763041    0.062292540486    0.014213208358    -0.000039284613    -0.000022272566    0.087864787347    0.021571105715
0.100     0.142337604881    -0.074682135398    0.000015435767    0.000004563499    0.127437317374    -0.058223839023    0.000033688166    -0.000000936130
            0.000015435757    0.000004563490    0.135977668779    -0.086741582947    0.000011485802    0.000003798666    0.119786164119    -0.071335913441
            0.127437307262    -0.058223837092    0.000011485835    0.000003798679    0.141525509632    -0.074188650496    0.000011261876    0.000005373664
            0.000033688267    -0.000000936131    0.119786166733    -0.071335889508    0.000011261950    0.000005373644    0.135022970892    -0.086297734734
0.125     0.040811881842    -0.050497807894    -0.000031391491    -0.000070032484    0.014198485934    -0.039772352242    -0.000017066437    -0.000085582516
            -0.000031391485    -0.000070032471    0.025038787067    -0.047903642083    -0.000029152913    -0.000065394733    -0.002197608416    -0.036688074778
            0.014198445793    -0.039772320915    -0.000029152920    -0.000065394779    0.041112962653    -0.049015585418    -0.000027167181    -0.000081261964
            -0.000017066443    -0.000085582543    -0.002197811108    -0.036688025570    -0.000027167194    -0.000081261957    0.025245317907    -0.046357161452
0.150     0.121470440402    -0.026350251337    -0.000062548176    0.000029132544    0.101611219857    -0.001075359045    -0.000057356561    0.000016039224
            -0.000062548177    0.000029132531    0.120687281154    -0.029866525954    -0.000057676574    0.000021277474    0.100682516144    -0.006142421215
            0.101611100129    -0.001075332751    -0.000057676570    0.000021277461    0.122378234152    -0.026116436264    -0.000074605062    0.000019722387
            -0.000057356561    0.000016039223    0.100682497242    -0.006142402601    -0.000074605077    0.000019722405    0.121540953927    -0.029693431474
0.175     0.072389557825    -0.102749912462    0.000013671147    -0.000026244725    0.055578318555    -0.086027166583    0.000019868875    -0.000039648380
            0.000013671154    -0.000026244758    0.048524589617    -0.110729854286    0.000010730986    -0.000028156910    0.028814178502    -0.094652514156
            0.055578311284    -0.086027135564    0.000010730978    -0.000028156887    0.072365799547    -0.102196212840    0.000011175079    -0.000030497743
            0.000019868863    -0.000039648374    0.028814150233    -0.094652492448    0.000011175068    -0.000030497724    0.048281758526    -0.110182331484
0.200     0.050505275299    -0.038290214675    -0.000114371052    -0.000032510553    0.030763815542    -0.011007882885    -0.000116728764    -0.000051183059
            -0.000114371047    -0.000032510573    0.037301894816    -0.020145154647    -0.000104387907    -0.000042268222    0.016962816554    0.008143971972
            0.030763745564    -0.011007935978    -0.000104387807    -0.000042268203    0.052002370337    -0.037149020496    -0.000126116474    -0.000052329977
            -0.000116728754    -0.000051183030    0.016962796504    0.008143999869    -0.000126116511    -0.000052330018    0.038663944460    -0.018828821558
0.225     0.089387080369    -0.082199860782    -0.000027288696    0.000072991632    0.080657920591    -0.059813852926    -0.000035274037    0.000063503485
            -0.000027288692    0.000072991622    0.081487287656    -0.088874060931    -0.000034561350    0.000055968335    0.071410568174    -0.067375241325
            0.080657935931    -0.059813849028    -0.000034561325    0.000055968360    0.090960523421    -0.082923784043    -0.000045717655    0.000070597064
            -0.000035274035    0.000063503481    0.071410562695    -0.067375226732    -0.000045717654    0.000070597008    0.082980244465    -0.089625497380
0.250     0.027750679635    -0.091120549485    -0.000034445638    -0.000056162461    0.013301319079    -0.063337927985    -0.000039054335    -0.000067858221
            -0.000034445642    -0.000056162466    -0.007781404882    -0.074167472598    -0.000034757873    -0.000062971883    -0.025031867240    -0.045155059504
            0.013301311347    -0.063337885670    -0.000034757876    -0.000062971889    0.028178306044    -0.090934124902    -0.000042841473    -0.000069391746
            -0.000039054326    -0.000067858206    -0.025031871851    -0.045155030651    -0.000042841461    -0.000069391726    -0.007732969555    -0.073798345941
0.275     0.047921127758    -0.062922137583    -0.000131653181    0.000078415754    0.052727315667    -0.032012479445    -0.000148712869    0.000067482498
            -0.000131653164    0.000078415744    0.048868625524    -0.045540997031    -0.000138112214    0.000053203912    0.053009132007    -0.005205796841
            0.052727313824    -0.032012463212    -0.000138112205    0.000053203881    0.050286261277    -0.063338225590    -0.000162635384    0.000067622623
            -0.000148712890    0.000067482476    0.053009119970    -0.005205694308    -0.000162635384    0.000067622623    0.052837309220    -0.049522619954
0.300     0.042341831725    -0.098920987875    0.000030818670    0.000059768729    0.036798281049    -0.077195512212    0.000015849439    0.000062691204
            0.000030818660    0.000059768722    0.018491384088    -0.098416390373    0.000010908557    0.000051228017    0.011139191559    -0.077062538176
            0.036798282023    -0.077195507317    0.000010908549    0.000051228010    0.043300299699    -0.101168967291    0.000011103111    0.000066511963
            0.000015849435    0.000062691208    0.011139191588    -0.077062509881    0.000011103120    0.000066511989    0.019198956716    -0.100622586821
0.325     0.002698493501    -0.078604567021    -0.000117987959    -0.000016265276    0.009300927832    -0.037653433674    -0.000131221373    -0.000021504174
            -0.000117988031    -0.000016265265    -0.014892546914    -0.031059559716    -0.000126133332    -0.000031816334    -0.009629380582    0.011304654484
            0.009300931296    -0.037653430758    -0.000126133278    -0.000031816344    0.003446143725    -0.078897342097    -0.000143638299    -0.000027592602
            -0.000131221446    -0.000021504163    -0.009629374497    0.011304683313    -0.000143638324    -0.000027592581    -0.014444313242    -0.030715638316
0.350     0.026060240122    -0.068187819664    -0.000045948770    0.000177120955    0.041921227797    -0.053073379121    -0.000073874586    0.000183867183
            -0.000045948715    0.000177121001    0.039243076897    -0.054040820543    -0.000077499497    0.000163377862    0.055440444651    -0.038023989827
            0.041921228723    -0.053073378389    -0.000077499501    0.000163377871    0.028468570387    -0.070591969412    -0.000087481307    0.000192706978
            -0.000073874497    0.000183867241    0.055440475135    -0.038023901180    -0.000087481307    0.000192706978    0.041748629062    -0.056192873294
0.375     -0.000509104867    -0.096888954459    0.000035335262    -0.000001075638    -0.002933994412    -0.065492013538    0.000024890453    0.000014513876
            0.000035335268    -0.000001075666    -0.027819962954    -0.070286028078    0.000016308780    0.000001569133    -0.030269016054    -0.038524017602
            -0.002933973885    -0.065491964407    0.000016308772    0.000001569125    -0.001083896621    -0.099673940799    0.000020312005    0.000013223353
            0.000024890444    0.000014513881    -0.030269015436    -0.038524016816    0.000020312020    0.000013223362    -0.028792085704    -0.072745804827
0.400     -0.020402789872    -0.057204503723    -0.000145783068    0.000113988634    0.013294853667    -0.030800003652    -0.000167804581    0.000117146063
            -0.000145783072    0.000113988760    0.000144185661    -0.006433323536    -0.000173642402    0.000103581858    0.033371522669    0.021922893306
            0.013294857685    -0.030800004096    -0.000173642351    0.000103581827    -0.019461268543    -0.058228608032    -0.000188289642    0.000122392766
            -0.000167804552    0.000117146086    0.033371579141    0.021922971261    -0.000188289633    0.000122392761    0.001169132328    -0.006796617247
0.425     0.001769074435    -0.075457909299    0.000101002882    0.000163235837    0.006061331828    -0.078665911008    0.000077994538    0.000195310849
            0.000101002904    0.000163235835    0.020192138004    -0.072766972755    0.000068091304    0.000178333747    0.003305199546    -0.064889995653
            0.006061333124    -0.078665909905    0.000068091299    0.000178333770    0.002270262618    -0.079498853464    0.000075528742    0.000209955013
            0.000077994541    0.000195310816    0.003305197332    -0.064889996767    0.000075528818    0.000209955028    0.019481715789    -0.076313705563
0.450     -0.048830631693    -0.072852348801    -0.000042953361    -0.000022224900    -0.029903397038    -0.038253061285    -0.000044048761    -0.000005019244
            -0.000042953367    -0.000022224884    -0.051716014657    -0.022474378766    -0.000060164067    -0.000014806152    -0.032736577785    0.011426945403
            -0.029903329389    -0.038252988508    -0.000060164084    -0.000014806145    -0.050797127216    -0.074929423053    -0.000055034099    -0.000005469241
            -0.000044048817    -0.000005019290    -0.032736577785    0.011426945403    -0.000055034111    -0.000005469232    -0.053797426751    -0.023926094465
0.475     -0.019762021410    -0.041855839424    -0.000020024099    0.000254765302    0.022268495250    -0.049516141931    -0.000048992591    0.000278118649
            -0.000020023978    0.000254765302    0.025726842198    -0.018711791819    -0.000053940386    0.000273226415    0.066730314842    -0.023325285339
            0.022268497345    -0.049516144278    -0.000053940393    0.000273226454    -0.019463755906    -0.044054108035    -0.000059460976    0.000302122957
            -0.000048992595    0.000278118984    0.066730355098    -0.023325264122    -0.000059460867    0.000302122958    0.026625648964    -0.020306987783
0.500     -0.046275429218    -0.080353723922    0.000171849733    0.000023251956    -0.048104358139    -0.076308416661    0.000174423283    0.000069223203
            0.000171849743    0.000023251958    -0.044671955684    -0.068852244365    0.000161461712    0.000053153789    -0.042242307411    -0.065942531209
            -0.048104358139    -0.076308416661    0.000161461702    0.000053153786    -0.048283044616    -0.084219738304    0.000184319114    0.000077002567
            0.000174423284    0.000069223200    -0.042242307411    -0.065942531209    0.000184319114    0.000077002567    -0.046652671858    -0.072362454091
0.525     -0.060197130137    -0.018603285337    -0.000106377980    0.000093310168    -0.017954147190    -0.002242983821    -0.000115020389    0.000097632908
            -0.000106377925    0.000093310186    -0.027607328001    0.022994277922    -0.000129220383    0.000105755753    0.014108552070    0.037719588527
            -0.017954055063    -0.002242946852    -0.000129220411    0.000105755625    -0.062551450855    -0.019500657289    -0.000125369854    0.000116516353
            -0.000115020357    0.000097633054    0.014108602430    0.037719602788    -0.000125370172    0.000116516364    -0.029753233178    0.022606097345
0.550     -0.029774984131    -0.060025818640    0.000219216363    0.000216100684    -0.013340830947    -0.091330663403    0.000204641675    0.000268083727
            0.000219216363    0.000216100684    0.005877341931    -0.064616625530    0.000212727568    0.000258520909    0.026751068680    -0.093584532869
            -0.013340830947    -0.091330663403    0.000212727566    0.000258520897    -0.030528544770    -0.062419776429    0.000224068596    0.000294999359
            0.000204641675    0.000268083727    0.026751065963    -0.093584535725    0.000224068603    0.000294999379    0.005317727229    -0.066664697380
0.575     -0.099848433076    -0.024753362163    0.000069166990    -0.000093026990    -0.098958197566    -0.010654021638    0.000096903173    -0.000062016121
            0.000069166993    -0.000093026987    -0.091856338835    -0.008146203051    0.000077549711    -0.000067990420    -0.084567147325    0.000255403518
            -0.098958187624    -0.010654020567    0.000077549704    -0.000067990399    -0.103347875744    -0.026850274691    0.000108899503    -0.000062987051
            0.000096903167    -0.000062016110    -0.084567051326    0.000255403228    0.000108899506    -0.000062987065    -0.094966710553    -0.009918297519
0.600     -0.025020880681    -0.001651257517    0.000024639527    0.000259795796    0.013465436152    -0.019791606073    0.000010747379    0.000284088890
            0.000024639545    0.000259795794    0.018076334926    0.009108726093    0.000025790445    0.000298201333    0.056109663054    -0.008567175776
            0.013465530136    -0.019791613490    0.000025790460    0.000298201331    -0.027150482579    -0.001365540608    0.000022468767    0.000313004806
            0.000010747404    0.000284088889    0.056109667864    -0.008567184026    0.000022468752    0.000313004817    0.015976784086    0.009553914094
0.625     -0.100637792686    -0.049623215186    0.000307814314    -0.000044610911    -0.115561385888    -0.079184522602    0.000332854625    0.000013188948
            0.000307814480    -0.000044610953    -0.085340112774    -0.065767277281    0.000338757131    -0.000012085397    -0.081117740807    -0.099406534903
            -0.115561292254    -0.079184517721    0.000338757185    -0.000012085018    -0.102426045088    -0.051208528467    0.000376045968    0.000016169227
            0.000332854559    0.000013188586    -0.081117706108    -0.099406563219    0.000376046532    0.000016169156    -0.086623341614    -0.067261354684
0.650     -0.077918224693    0.061720453879    -0.000066382248    -0.000015820065    -0.067355272796    0.069057045580    -0.000042778237    -0.000009972636
            -0.000066382223    -0.000015819974    -0.060744889972    0.071910862140    -0.000047857486    0.000005289967    -0.049998023034    0.072144931251
            -0.067355260228    0.069057032694    -0.000047857478    0.000005290008    -0.081598451671    0.061624419760    -0.000029479044    -0.000008513104
            -0.000042778280    -0.000009972544    -0.049998009303    0.072144938334    -0.000029479064    -0.000008513120    -0.064308279488    0.071583547510
0.675     -0.044578647670    -0.041717901681    0.000321979406    0.000168359646    -0.031435871603    -0.080851203836    0.000320905813    0.000225086339
            0.000321979412    0.000168359635    -0.013886285535    -0.053082703459    0.000362113386    0.000206306612    -0.000506968002    -0.089568564264
            -0.031435830356    -0.080851223092    0.000362113377    0.000206306607    -0.045617015960    -0.040947573858    0.000369761566    0.000237379034
            0.000320905816    0.000225086316    -0.000506975835    -0.089568567220    0.000369761558    0.000237379047    -0.015169214748    -0.051724567860
0.700     -0.148482479276    0.050870734724    0.000119003474    -0.000220737480    -0.175011085778    0.041486088978    0.000170682418    -0.000195901042
            0.000119003474    -0.000220737480    -0.143761093050    0.041736231126    0.000161542858    -0.000219108008    -0.163721150266    0.024028397577
            -0.175011085778    0.041486088978    0.000161542858    -0.000219108008    -0.150355258813    0.050004179981    0.000210674986    -0.000223399634
            0.000170682418    -0.000195901042    -0.163721150266    0.024028397577    0.000210674979    -0.000223399627    -0.145231254685    0.040802070554
0.725     0.001095270231    0.064938260061    0.000009218520    0.000160862414    0.008024954305    0.062302108568    0.000011133892    0.000165910304
            0.000009218540    0.000160862423    0.011471653180    0.068946879686    0.000048917371    0.000176370403    0.015971347590    0.058788664036
            0.008024952579    0.062302103749    0.000048917391    0.000176370439    -0.001566800890    0.066601508049    0.000044670821    0.000167516203
            0.000011133896    0.000165910323    0.015971349118    0.058788661549    0.000044670817    0.000167516152    0.008114803681    0.070091951211
0.750     -0.137011086240    -0.015774940407    0.000337511010    -0.000192860150    -0.155227270912    -0.043152011970    0.000374879649    -0.000148131916
            0.000337511010    -0.000192860150    -0.126217954901    -0.023599547797    0.000399390183    -0.000205915706    -0.138434995986    -0.053741321129
            -0.155227200144    -0.043152079855    0.000399390195    -0.000205915704    -0.136542568632    -0.014928617431    0.000440534714    -0.000181481883
            0.000374879658    -0.000148131920    -0.138434939880    -0.053741382756    0.000440534714    -0.000181481883    -0.125846509340    -0.022063468031
0.775     -0.079694038218    0.158636976019    -0.000071595841    -0.000149777322    -0.106741177368    0.166174015610    -0.000033401435    -0.000162232876
            -0.000071595797    -0.000149777431    -0.082268484480    0.157175561978    -0.000033570417    -0.000168570905    -0.108284239533    0.152189632064
            -0.106741171963    0.166174007196    -0.000033570486    -0.000168570789    -0.081200763114    0.158294003614    -0.000005520683    -0.000202876669
