# GHz S RI R 45
0.000     0.089226805144    0.053366142270    -0.000032254286    -0.000029323611    0.042028875278    0.056007646733    -0.000053747992    -0.000019338547
            -0.000032254160    -0.000029323599    0.090224102503    0.051242629061    -0.000022039183    -0.000029061600    0.042343252407    0.056012246185
            0.042028874300    0.056007647467    -0.000022037405    -0.000029062490    0.089133429201    0.052507652852    -0.000067902933    -0.000012090953
            -0.000053747846    -0.000019338601    0.042343229675    0.056012244566    -0.000067903015    -0.000012090906    0.090002077312    0.050477659552
0.025     0.177210241384    -0.000314240830    -0.000152635458    0.000005059786    0.137535088403    0.022799298018    -0.000157983443    0.000016429118
            -0.000152636555    0.000005058382    0.174322065475    0.001824207706    -0.000157665752    0.000001834148    0.137465258365    0.026669689775
            0.137541074290    0.022801038889    -0.000157664112    0.000001835010    0.175868896498    -0.000743950781    -0.000152645445    0.000006305640
            -0.000157982006    0.000016429498    0.137474017517    0.026669748442    -0.000152644963    0.000006306421    0.173113440026    0.001272931484
0.050     0.069209981644    -0.096960383000    -0.000203231873    0.000299797654    0.051979231080    -0.088204436138    -0.000206678663    0.000322467306
            -0.000203231927    0.000299797509    0.071397475590    -0.092942652123    -0.000193745730    0.000301445236    0.056050928951    -0.086663488899
            0.051978570614    -0.088206032495    -0.000193748609    0.000301443932    0.068509487069    -0.095849693353    -0.000227188761    0.000324345787
            -0.000206682362    0.000322466634    0.056050697456    -0.086663698168    -0.000227188108    0.000324344975    0.070499501580    -0.091647144476
0.075     0.093820849474    0.014510269902    0.000497785013    0.000263432631    0.064531487671    0.008714540510    0.000538397283    0.000275211717
            0.000497785035    0.000263432632    0.087676061205    0.020747730922    0.000492241396    0.000258685165    0.062292539344    0.014213123455
            0.064531339410    0.008714547439    0.000492241510    0.000258685334    0.093792266324    0.014958654957    0.000537022217    0.000317817321
            0.000538397984    0.000275211992    0.062292540486    0.014213208358    0.000537022298    0.000317817204    0.087864787347    0.021571105715
0.100     0.129182059104    -0.103998640109    0.000403616853    -0.000325885770    0.110551349204    -0.082765399675    0.000428449626    -0.000363694891
            0.000403616929    -0.000325885692    0.135977668779    -0.086741582947    0.000399880334    -0.000335588658    0.119786164119    -0.071335913441
            0.110551218654    -0.082765624109    0.000399880565    -0.000335588459    0.128372519630    -0.103346864751    0.000486734690    -0.000374613951
            0.000428450532    -0.000363695493    0.119786166733    -0.071335889508    0.000486734615    -0.000374614016    0.135022970892    -0.086297734734
0.125     0.024141536751    -0.051742816369    -0.000306643326    -0.000870562562    -0.000895395923    -0.037468986894    -0.000342765028    -0.000920108411
            -0.000306643120    -0.000870562465    0.025038787067    -0.047903642083    -0.000312652199    -0.000845266754    -0.002197608416    -0.036688074778
            -0.000895513694    -0.037469397198    -0.000312651982    -0.000845267527    0.024678706150    -0.050757229384    -0.000337690561    -0.000973283215
            -0.000342764913    -0.000920108593    -0.002197811108    -0.036688025570    -0.000337690763    -0.000973283250    0.025245317907    -0.046357161452
0.150     0.118069763330    -0.058854975279    -0.000874275636    0.000344405721    0.095900000541    -0.030197011942    -0.000936681184    0.000382497402
            -0.000874275617    0.000344405714    0.120687281154    -0.029866525954    -0.000866961290    0.000342315553    0.100682516144    -0.006142421215
            0.095900000541    -0.030197011942    -0.000866961294    0.000342315380    0.118414922002    -0.058902059587    -0.001016123006    0.000350508967
            -0.000936682084    0.000382497579    0.100682497242    -0.006142402601    -0.001016122945    0.000350509144    0.121540953927    -0.029693431474
0.175     0.025074486720    -0.120112587773    -0.000177654067    0.000963501217    0.011162326955    -0.096334686187    -0.000158647293    0.001032022401
            -0.000177654065    0.000963501207    0.048524589617    -0.110729854286    -0.000146876885    0.000958477055    0.028814178502    -0.094652514156
            0.011162324237    -0.096334677442    -0.000146876999    0.000958477018    0.025259440411    -0.119468775620    -0.000186897140    0.001115181180
            -0.000158647369    0.001032022895    0.028814150233    -0.094652492448    -0.000186897043    0.001115181196    0.048281758526    -0.110182331484
0.200     0.040605885882    -0.040598890135    0.001337101391    0.000422784905    0.023459463907    -0.011466628502    0.001424375460    0.000428770126
            0.001337101376    0.000422784952    0.037301894816    -0.020145154647    0.001311672596    0.000399338978    0.016962816554    0.008143971972
            0.023459384759    -0.011466681123    0.001311673483    0.000399339498    0.041904796539    -0.040427839651    0.001483865920    0.000491307338
            0.001424375445    0.000428770176    0.016962796504    0.008143999869    0.001483865920    0.000491307338    0.038663944460    -0.018828821558
0.225     0.042931422939    -0.119870920081    0.000557700921    -0.001089937350    0.035425621501    -0.090373240110    0.000571791602    -0.001181583610
            0.000557700940    -0.001089937340    0.081487287656    -0.088874060931    0.000542038604    -0.001096787388    0.071410568174    -0.067375241325
            0.035425637886    -0.090373240132    0.000542039082    -0.001096787151    0.043639057699    -0.120547536340    0.000670662244    -0.001251029979
            0.000571791866    -0.001181583261    0.071410562695    -0.067375226732    0.000670661858    -0.001251030412    0.082980244465    -0.089625497380
0.250     -0.024588337860    -0.070721137942    -0.000870156006    -0.001205164301    -0.030462325112    -0.040390685761    -0.000943964798    -0.001246908043
            -0.000870156006    -0.001205164301    -0.007781404882    -0.074167472598    -0.000885159789    -0.001156565767    -0.025031867240    -0.045155059504
            -0.030462325112    -0.040390685761    -0.000885159728    -0.001156565688    -0.023846552573    -0.070800179696    -0.000995717505    -0.001340972864
            -0.000943964798    -0.001246908043    -0.025031871851    -0.045155030651    -0.000995717739    -0.001340972691    -0.007732969555    -0.073798345941
0.275     0.021746060125    -0.081576337138    -0.001456342436    0.000925108924    0.029159310563    -0.052137662889    -0.001528165764    0.000994225486
            -0.001456342359    0.000925109232    0.048868625524    -0.045540997031    -0.001425419577    0.000925092677    0.053009132007    -0.005205796841
            0.029159310208    -0.052137666525    -0.001425419816    0.000925092125    0.023031689577    -0.082619872106    -0.001652479274    0.000999186335
            -0.001528165770    0.000994225111    0.053009119970    -0.005205694308    -0.001652479360    0.000999186386    0.052837309220    -0.049522619954
0.300     -0.041538490807    -0.092710562989    0.000383070897    0.001518584678    -0.038343766090    -0.066159054913    0.000447852715    0.001598070573
            0.000383070871    0.001518584685    0.018491384088    -0.098416390373    0.000422457458    0.001503919408    0.011139191559    -0.077062538176
            -0.038343766090    -0.066159054913    0.000422457458    0.001503919408    -0.041361885139    -0.094246813711    0.000436837491    0.001742619852
            0.000447852743    0.001598070461    0.011139191588    -0.077062509881    0.000436838318    0.001742620057    0.019198956716    -0.100622586821
0.325     -0.024952570008    -0.044131549829    0.001997493039    0.000166999003    -0.008166341373    -0.010299535990    0.002087695683    0.000148219258
            0.001997492939    0.000166999002    -0.014892546914    -0.031059559716    0.001953016603    0.000120957671    -0.009629380582    0.011304654484
            -0.008166341373    -0.010299535990    0.001953016603    0.000120957668    -0.024288740890    -0.045062688379    0.002203307526    0.000188655796
            0.002087695683    0.000148219254    -0.009629374497    0.011304683313    0.002203307527    0.000188655792    -0.014444313242    -0.030715638316
0.350     -0.039499869395    -0.076372606627    0.000376014865    -0.002002696827    -0.021827819195    -0.062011328635    0.000373488030    -0.002127806191
            0.000376014881    -0.002002696722    0.039243076897    -0.054040820543    0.000349659396    -0.001992799370    0.055440444651    -0.038023989827
            -0.021827819195    -0.062011328635    0.000349659918    -0.001992798873    -0.039005911859    -0.078774472578    0.000479745761    -0.002237654933
            0.000373488030    -0.002127806191    0.055440475135    -0.038023901180    0.000479745602    -0.002237654762    0.041748629062    -0.056192873294
0.375     -0.065203755151    -0.029816193676    -0.001679421560    -0.001098785928    -0.053408465631    -0.001300256815    -0.001780538072    -0.001110231979
            -0.001679422002    -0.001098785800    -0.027819962954    -0.070286028078    -0.001697438925    -0.001033039656    -0.030269016054    -0.038524017602
            -0.053408465631    -0.001300256815    -0.001697438925    -0.001033039656    -0.066058999772    -0.031431091138    -0.001887498117    -0.001229407840
            -0.001780537709    -0.001110232184    -0.030269015436    -0.038524016816    -0.001887498117    -0.001229407840    -0.028792085704    -0.072745804827
0.400     -0.042707986064    -0.035149409696    -0.001759601843    0.001721006403    -0.007269314602    -0.023000941087    -0.001833822938    0.001809364364
            -0.001759601843    0.001721006403    0.000144185661    -0.006433323536    -0.001698859214    0.001715190184    0.033371522669    0.021922893306
            -0.007269314602    -0.023000941087    -0.001698859214    0.001715190184    -0.042486862581    -0.036785678311    -0.001967853839    0.001851679016
            -0.001833822938    0.001809364364    0.033371579141    0.021922971261    -0.001967853839    0.001851679016    0.001169132328    -0.006796617247
0.425     -0.080759671180    -0.019388964886    0.001315201936    0.001906539872    -0.075814689799    -0.018363173420    0.001431059433    0.001986777247
            0.001315202316    0.001906539853    0.020192138004    -0.072766972755    0.001360342257    0.001881488129    0.003305199546    -0.064889995653
            -0.075814645196    -0.018363204642    0.001360342283    0.001881488233    -0.082029100847    -0.021994485648    0.001431302803    0.002173411253
            0.001431059561    0.001986777278    0.003305197332    -0.064889996767    0.001431302748    0.002173411170    0.019481715789    -0.076313705563
0.450     -0.056854636702    0.011460714835    0.002424884057    -0.000514170575    -0.028074563960    0.031296260404    0.002510975888    -0.000564660241
            0.002424884057    -0.000514170575    -0.051716014657    -0.022474378766    0.002371628356    -0.000583383415    -0.032736577785    0.011426945403
            -0.028074563960    0.031296260404    0.002371628356    -0.000583383415    -0.058180786228    0.010583689025    0.002677608980    -0.000551707321
            0.002510976140    -0.000564660942    -0.032736577785    0.011426945403    0.002677608765    -0.000551707374    -0.053797426751    -0.023926094465
0.475     -0.071599423343    -0.004844789756    -0.000226667235    -0.002897240006    -0.041800215792    -0.027894177960    -0.000233279225    -0.003040561357
            -0.000226667091    -0.002897240117    0.025726842198    -0.018711791819    -0.000250097486    -0.002866101476    0.066730314842    -0.023325285339
            -0.041800161847    -0.027894152506    -0.000250096834    -0.002866100930    -0.072437590521    -0.006822776093    -0.000132934389    -0.003182040246
            -0.000233278891    -0.003040561182    0.066730355098    -0.023325264122    -0.000132934547    -0.003182040039    0.026625648964    -0.020306987783
0.500     -0.078022147581    0.041532774572    -0.002555113201    -0.000392090893    -0.078205161032    0.045445528150    -0.002697218781    -0.000375263307
            -0.002555113201    -0.000392090893    -0.044671955684    -0.068852244365    -0.002591876800    -0.000326382838    -0.042242307411    -0.065942531209
            -0.078205159303    0.045445527145    -0.002591876800    -0.000326382838    -0.080396306602    0.040423052139    -0.002857069165    -0.000515205660
            -0.002697219441    -0.000375262919    -0.042242307411    -0.065942531209    -0.002857068968    -0.000515205624    -0.046652671858    -0.072362454091
0.525     -0.042366347159    0.034003366526    -0.001571349300    0.002614435661    -0.003511415018    0.027371359091    -0.001618996531    0.002710419827
            -0.001571349300    0.002614435661    -0.027607328001    0.022994277922    -0.001478110909    0.002606044817    0.014108552070    0.037719588527
            -0.003511417534    0.027371359776    -0.001478110909    0.002606044817    -0.043382958583    0.033608409710    -0.001765166274    0.002801997367
            -0.001618996531    0.002710419827    0.014108602430    0.037719602788    -0.001765166274    0.002801997367    -0.029753233178    0.022606097345
0.550     -0.079918335185    0.041813762624    0.002715957941    0.001843696758    -0.084985085141    0.009542472474    0.002849263393    0.001957265039
            0.002715957941    0.001843696758    0.005877341931    -0.064616625530    0.002742819747    0.001839221232    0.026751068680    -0.093584532869
            -0.084985085141    0.009542472474    0.002742819816    0.001839221487    -0.081789413465    0.040584783299    0.002879823678    0.002177246976
            0.002849264098    0.001957264718    0.026751065963    -0.093584535725    0.002879825160    0.002177246674    0.005317727229    -0.066664697380
0.575     -0.040547413037    0.089896716218    0.002269402384    -0.001637329223    -0.035084151197    0.102250381000    0.002354844008    -0.001746554929
            0.002269402412    -0.001637329184    -0.091856338835    -0.008146203051    0.002229916126    -0.001747135054    -0.084567147325    0.000255403518
            -0.035084151197    0.102250381000    0.002229916048    -0.001747134992    -0.042194568307    0.090321778914    0.002574006276    -0.001772374425
            0.002354844038    -0.001746554888    -0.084567051326    0.000255403228    0.002574006307    -0.001772374380    -0.094966710553    -0.009918297519
0.600     -0.031273248719    0.043093641836    -0.001158517961    -0.003492156565    -0.013332742517    0.009331536334    -0.001176968208    -0.003629676038
            -0.001158518024    -0.003492156755    0.018076334926    0.009108726093    -0.001194092606    -0.003444532156    0.056109663054    -0.008567175776
            -0.013332742527    0.009331539808    -0.001194092606    -0.003444532156    -0.032042889986    0.042649040154    -0.001096405365    -0.003811658125
            -0.001176967420    -0.003629675767    0.056109667864    -0.008567184026    -0.001096405365    -0.003811658125    0.015976784086    0.009553914094
0.625     -0.062776017163    0.105905395949    -0.003229538086    0.001067054695    -0.095556867111    0.096640441380    -0.003422210080    0.001093039287
            -0.003229538177    0.001067054100    -0.085340112774    -0.065767277281    -0.003306670363    0.001119347802    -0.081117740807    -0.099406534903
            -0.095556860080    0.096640434269    -0.003306670274    0.001119347128    -0.064389383912    0.106157663979    -0.003651615990    0.000954401317
            -0.003422210080    0.001093039287    -0.081117706108    -0.099406563219    -0.003651615990    0.000954401317    -0.086623341614    -0.067261354684
0.650     0.023778242648    0.101894814098    -0.000616812850    0.002988983523    0.036047872271    0.107152278795    -0.000608620029    0.003121963409
            -0.000616812850    0.002988983523    -0.060744889972    0.071910862140    -0.000484606908    0.003029139489    -0.049998023034    0.072144931251
            0.036047872271    0.107152278795    -0.000484607183    0.003029138837    0.023650286422    0.102311362705    -0.000744995731    0.003275966731
            -0.000608620029    0.003121963409    -0.049998009303    0.072144938334    -0.000744995687    0.003275966536    -0.064308279488    0.071583547510
0.675     -0.047799395175    0.061308214161    0.003982832637    0.001193105612    -0.066041881621    0.030431777346    0.004140153097    0.001302616411
            0.003982832745    0.001193105948    -0.013886285535    -0.053082703459    0.004025864143    0.001185741513    -0.000506968002    -0.089568564264
            -0.066041873585    0.030431787617    0.004025863814    0.001185741569    -0.048103261169    0.061351340045    0.004214655530    0.001555218603
            0.004140152193    0.001302616285    -0.000506975835    -0.089568567220    0.004214655665    0.001555218236    -0.015169214748    -0.051724567860
0.700     0.008383580130    0.162580911382    0.001179839490    -0.002930509818    -0.020467568725    0.183183116942    0.001287165209    -0.003111552037
            0.001179839490    -0.002930509818    -0.143761093050    0.041736231126    0.001165574578    -0.003106581279    -0.163721150266    0.024028397577
            -0.020467568725    0.183183116942    0.001165574441    -0.003106580583    0.008439118231    0.163204166628    0.001536505584    -0.003212332540
            0.001287165209    -0.003111552037    -0.163721150266    0.024028397577    0.001536505273    -0.003212332467    -0.145231254685    0.040802070554
0.725     0.059195239683    0.052676691668    -0.001910490964    -0.003094732846    0.066848380994    0.047575015305    -0.001994878947    -0.003194464536
            -0.001910490911    -0.003094732761    0.011471653180    0.068946879686    -0.002017068405    -0.003031978787    0.015971347590    0.058788664036
            0.066848380148    0.047575018218    -0.002017068405    -0.003031978787    0.059605866237    0.051877360129    -0.001960627733    -0.003402077478
            -0.001994878894    -0.003194464452    0.015971349118    0.058788661549    -0.001960627683    -0.003402077391    0.008114803681    0.070091951211
0.750     -0.038446980099    0.134936010119    -0.003305050624    0.002720944953    -0.077227753818    0.132800423196    -0.003513636114    0.002755660618
            -0.003305050624    0.002720944953    -0.126217954901    -0.023599547797    -0.003411545696    0.002817677673    -0.138434995986    -0.053741321129
            -0.077227748791    0.132800414551    -0.003411545696    0.002817677673    -0.038548714662    0.134893814923    -0.003816047357    0.002657827392
            -0.003513636114    0.002755660618    -0.138434939880    -0.053741382756    -0.003816047439    0.002657827449    -0.125846509340    -0.022063468031
0.775     0.118176723260    0.140426325352    0.000941401282    0.002658571173    0.112390525667    0.174398077292    0.001005780165    0.002858388527
            0.000941401282    0.002658571173    -0.082268484480    0.157175561978    0.001144337951    0.002762372510    -0.108284239533    0.152189632064
            0.112390525667    0.174398077292    0.001144337951    0.002762372510    0.119437579712    0.139469745599    0.000929801656    0.003076205394
