# GHz S RI R 45
0.000     0.090611982716    0.053482051028    -0.000030790092    0.000000620891    0.042340547533    0.055423532041    -0.000021324501    -0.000000806171
            -0.000030789856    0.000000620763    0.090224102503    0.051242629061    -0.000067518735    0.000011771848    0.042343252407    0.056012246185
            0.042340488174    0.055423460356    -0.000067518798    0.000011772211    0.090393958120    0.052605010629    -0.000012258307    -0.000010588552
            -0.000021324218    -0.000000806197    0.042343229675    0.056012244566    -0.000012264697    -0.000010585650    0.090002077312    0.050477659552
0.025     0.178800990287    -0.002996053579    -0.000047947115    0.000014337241    0.137354248876    0.020625650124    -0.000047570613    0.000011876393
            -0.000047947879    0.000014336822    0.174322065475    0.001824207706    -0.000065059483    0.000035368626    0.137465258365    0.026669689775
            0.137353087926    0.020626849267    -0.000065058822    0.000035369163    0.177463835401    -0.003381551480    -0.000083529313    0.000010001404
            -0.000047569270    0.000011875591    0.137474017517    0.026669748442    -0.000083528495    0.000010002134    0.173113440026    0.001272931484
0.050     0.065978511246    -0.100103793438    -0.000092435100    0.000119777411    0.048362820494    -0.090240075545    -0.000067491677    0.000108635583
            -0.000092435614    0.000119777343    0.071397475590    -0.092942652123    -0.000099771982    0.000172064063    0.056050928951    -0.086663488899
            0.048362127352    -0.090241649647    -0.000099772388    0.000172064209    0.065250640376    -0.099095989157    -0.000083806583    0.000164033475
            -0.000067492238    0.000108635599    0.056050697456    -0.086663698168    -0.000083805599    0.000164034022    0.070499501580    -0.091647144476
0.075     0.092337463956    0.012127807372    0.000209013044    0.000095630995    0.062643311457    0.006012985466    0.000178753394    0.000077353542
            0.000209012950    0.000095631248    0.087676061205    0.020747730922    0.000286800206    0.000121691623    0.062292539344    0.014213123455
            0.062643163253    0.006012907243    0.000286800340    0.000121691615    0.092255054346    0.012551687352    0.000247067341    0.000111116124
            0.000178753460    0.000077353767    0.062292540486    0.014213208358    0.000247067381    0.000111116132    0.087864787347    0.021571105715
0.100     0.124059529315    -0.109674335949    0.000160166559    -0.000109543127    0.105012183661    -0.088851549661    0.000137106742    -0.000113101399
            0.000160166736    -0.000109542887    0.135977668779    -0.086741582947    0.000221958551    -0.000181009399    0.119786164119    -0.071335913441
            0.105012105524    -0.088851719418    0.000221958675    -0.000181009326    0.123093380401    -0.109191967903    0.000198896668    -0.000171407149
            0.000137106979    -0.000113101301    0.119786166733    -0.071335889508    0.000198896636    -0.000171407170    0.135022970892    -0.086297734734
0.125     0.015160714957    -0.049688738192    -0.000138101662    -0.000385842174    -0.010779370881    -0.034412546935    -0.000132717984    -0.000306801875
            -0.000138101537    -0.000385842251    0.025038787067    -0.047903642083    -0.000204506355    -0.000489370807    -0.002197608416    -0.036688074778
            -0.010779451734    -0.034412468165    -0.000204506327    -0.000489370981    0.015319083700    -0.048668149037    -0.000177603458    -0.000409301496
            -0.000132717756    -0.000306802082    -0.002197811108    -0.036688025570    -0.000177603545    -0.000409301502    0.025245317907    -0.046357161452
0.150     0.115653058755    -0.059019769082    -0.000333565610    0.000158991524    0.093996529651    -0.029880428388    -0.000286060346    0.000140395293
            -0.000333565594    0.000158991302    0.120687281154    -0.029866525954    -0.000460609090    0.000208535629    0.100682516144    -0.006142421215
            0.093996535710    -0.029880435733    -0.000460609090    0.000208535532    0.115838308206    -0.059014674233    -0.000408277426    0.000167948370
            -0.000286060350    0.000140395171    0.100682497242    -0.006142402601    -0.000408277408    0.000167948362    0.121540953927    -0.029693431474
0.175     0.013500168504    -0.120200790426    -0.000116247266    0.000403519564    -0.001960809956    -0.096287147914    -0.000059129693    0.000348536422
            -0.000116247480    0.000403519513    0.048524589617    -0.110729854286    -0.000111760562    0.000547174912    0.028814178502    -0.094652514156
            -0.001960815120    -0.096287153810    -0.000111760657    0.000547174892    0.013215484520    -0.119619756591    -0.000081518366    0.000479578176
            -0.000059129939    0.000348536360    0.028814150233    -0.094652492448    -0.000081518356    0.000479578168    0.048281758526    -0.110182331484
0.200     0.035103597683    -0.028717618474    0.000597756558    0.000150548151    0.017763454483    0.003240791172    0.000494741448    0.000100814200
            0.000597756471    0.000150548373    0.037301894816    -0.020145154647    0.000761671248    0.000192111829    0.016962816554    0.008143971972
            0.017763446409    0.003240796426    0.000761671204    0.000192111959    0.035954586506    -0.028076719975    0.000642994622    0.000171588121
            0.000494741385    0.000100814358    0.016962796504    0.008143999869    0.000642994643    0.000171588042    0.038663944460    -0.018828821558
0.225     0.042153585648    -0.117514398649    0.000216399649    -0.000425248931    0.036655069831    -0.086777208960    0.000164685252    -0.000384388292
            0.000216399761    -0.000425248785    0.081487287656    -0.088874060931    0.000294188972    -0.000580820927    0.071410568174    -0.067375241325
            0.036655088939    -0.086777258423    0.000294188995    -0.000580820972    0.042699976888    -0.118016357199    0.000266881926    -0.000515309125
            0.000164685403    -0.000384388162    0.071410562695    -0.067375226732    0.000266881931    -0.000515309134    0.082980244465    -0.089625497380
0.250     -0.034917028744    -0.058634782159    -0.000382579974    -0.000553229166    -0.041491168764    -0.026614906596    -0.000350860423    -0.000421313988
            -0.000382579679    -0.000553229358    -0.007781404882    -0.074167472598    -0.000500456318    -0.000684712418    -0.025031867240    -0.045155059504
            -0.041491180142    -0.026614903674    -0.000500456324    -0.000684712426    -0.034909057970    -0.058197778491    -0.000436282549    -0.000578358675
            -0.000350860244    -0.000421314072    -0.025031871851    -0.045155030651    -0.000436282549    -0.000578358675    -0.007732969555    -0.073798345941
0.275     0.027824217779    -0.070192920643    -0.000587012486    0.000438982315    0.040392958488    -0.029152622209    -0.000474616368    0.000389092853
            -0.000587012516    0.000438981858    0.048868625524    -0.045540997031    -0.000768765102    0.000523230498    0.053009132007    -0.005205796841
            0.040392959204    -0.029152619508    -0.000768765606    0.000523230645    0.028822400238    -0.072427710573    -0.000676219671    0.000446934508
            -0.000474616490    0.000389092814    0.053009119970    -0.005205694308    -0.000676219671    0.000446934508    0.052837309220    -0.049522619954
0.300     -0.038569484269    -0.090355532270    0.000140893686    0.000630883429    -0.032743303786    -0.064354066541    0.000174099747    0.000521813555
            0.000140893633    0.000630883400    0.018491384088    -0.098416390373    0.000187523708    0.000824256667    0.011139191559    -0.077062538176
            -0.032743350041    -0.064354157450    0.000187523694    0.000824256671    -0.038630846814    -0.091532277729    0.000176402489    0.000722979478
            0.000174099750    0.000521813565    0.011139191588    -0.077062509881    0.000176402504    0.000722979485    0.019198956716    -0.100622586821
0.325     -0.020088989715    -0.022965173573    0.000904759756    0.000037232397    -0.002567459480    0.012001030783    0.000740761529    -0.000016805676
            0.000904759814    0.000037232439    -0.014892546914    -0.031059559716    0.001109160628    0.000082393498    -0.009629380582    0.011304654484
            -0.002567462621    0.012001035224    0.001109160629    0.000082393487    -0.019643951411    -0.022507877907    0.000952232901    0.000071256432
            0.000740761579    -0.000016805685    -0.009629374497    0.011304683313    0.000952232882    0.000071256415    -0.014444313242    -0.030715638316
0.350     -0.012540920129    -0.071758648585    0.000096481489    -0.000850554638    0.010045058383    -0.056952308386    0.000037798814    -0.000731335572
            0.000096481673    -0.000850554799    0.039243076897    -0.054040820543    0.000194688080    -0.001077028331    0.055440444651    -0.038023989827
            0.010045055796    -0.056952316965    0.000194688098    -0.001077028430    -0.011344071490    -0.073351599943    0.000174869524    -0.000945579371
            0.000037799361    -0.000731335013    0.055440475135    -0.038023901180    0.000174869508    -0.000945579282    0.041748629062    -0.056192873294
0.375     -0.059033039455    -0.032223867683    -0.000730827979    -0.000475632321    -0.044353616086    -0.007420459312    -0.000640235548    -0.000333691254
            -0.000730827905    -0.000475632454    -0.027819962954    -0.070286028078    -0.000897866005    -0.000612726788    -0.030269016054    -0.038524017602
            -0.044353630880    -0.007420461787    -0.000897865709    -0.000612727045    -0.059984810023    -0.033037909789    -0.000786034233    -0.000520669053
            -0.000640235480    -0.000333691361    -0.030269015436    -0.038524016816    -0.000786034158    -0.000520669003    -0.028792085704    -0.072745804827
0.400     -0.015410485752    -0.021539733744    -0.000732693605    0.000818394001    0.021635639068    -0.009648822536    -0.000573194832    0.000715841688
            -0.000732693605    0.000818394001    0.000144185661    -0.006433323536    -0.000970353946    0.000925239878    0.033371522669    0.021922893306
            0.021635640007    -0.009648817975    -0.000970353946    0.000925239878    -0.014220683077    -0.021698404581    -0.000845584578    0.000801679557
            -0.000573194864    0.000715841727    0.033371579141    0.021922971261    -0.000845584578    0.000801679557    0.001169132328    -0.006796617247
0.425     -0.045384475646    -0.051127074510    0.000598992332    0.000782990045    -0.050215613819    -0.033830642553    0.000578816032    0.000619746660
            0.000598991895    0.000782990153    0.020192138004    -0.072766972755    0.000706417246    0.001031957493    0.003305199546    -0.064889995653
            -0.050215616307    -0.033830644229    0.000706417647    0.001031957460    -0.046102183031    -0.052973086678    0.000624176101    0.000904756287
            0.000578816062    0.000619746714    0.003305197332    -0.064889996767    0.000624176045    0.000904756205    0.019481715789    -0.076313705563
0.450     -0.051766930291    0.004837149730    0.001063210738    -0.000264063793    -0.023735175632    0.019117376756    0.000857669046    -0.000290492214
            0.001063210512    -0.000264063047    -0.051716014657    -0.022474378766    0.001302533635    -0.000242391047    -0.032736577785    0.011426945403
            -0.023735176968    0.019117384662    0.001302533734    -0.000242391065    -0.052459243296    0.005049818293    0.001124589822    -0.000219205105
            0.000857668942    -0.000290491429    -0.032736577785    0.011426945403    0.001124589931    -0.000219205066    -0.053797426751    -0.023926094465
0.475     -0.028286573545    -0.023811694441    -0.000194464821    -0.001272929929    0.000590024121    -0.046085888202    -0.000229636276    -0.001082111608
            -0.000194464813    -0.001272930031    0.025726842198    -0.018711791819    -0.000063900279    -0.001574901984    0.066730314842    -0.023325285339
            0.000590072471    -0.046085894583    -0.000063900279    -0.001574901984    -0.027172900067    -0.025282805789    -0.000060198842    -0.001383525558
            -0.000229636276    -0.001082111608    0.066730355098    -0.023325264122    -0.000060198862    -0.001383525457    0.026625648964    -0.020306987783
0.500     -0.075211515355    -0.006493418565    -0.001117846771    -0.000101270938    -0.074183903789    -0.009373790056    -0.000971225976    0.000015909344
            -0.001117846771    -0.000101270938    -0.044671955684    -0.068852244365    -0.001385217313    -0.000235154739    -0.042242307411    -0.065942531209
            -0.074183906766    -0.009373790432    -0.001385216697    -0.000235155380    -0.076569490656    -0.007790823201    -0.001217010767    -0.000178862888
            -0.000971226066    0.000015909345    -0.042242307411    -0.065942531209    -0.001217010699    -0.000178862661    -0.046652671858    -0.072362454091
0.525     -0.036989751746    0.024904371891    -0.000630559440    0.001209697011    -0.003702960453    0.013738605486    -0.000443734859    0.001050585183
            -0.000630559486    0.001209697100    -0.027607328001    0.022994277922    -0.000865954129    0.001358928147    0.014108552070    0.037719588527
            -0.003702956698    0.013738610640    -0.000865954549    0.001358927761    -0.036515424460    0.025060208504    -0.000761595941    0.001182295718
            -0.000443734859    0.001050585183    0.014108602430    0.037719602788    -0.000761595789    0.001182295935    -0.029753233178    0.022606097345
0.550     -0.058678046081    -0.013997893260    0.001268608709    0.000734623003    -0.064850362245    -0.047423915300    0.001166870706    0.000565858505
            0.001268607985    0.000734623057    0.005877341931    -0.064616625530    0.001427275976    0.001085857662    0.026751068680    -0.093584532869
            -0.064850362245    -0.047423915300    0.001427275950    0.001085857367    -0.058708957496    -0.015921133340    0.001279088672    0.000942863243
            0.001166870776    0.000565858590    0.026751065963    -0.093584535725    0.001279088592    0.000942863184    0.005317727229    -0.066664697380
0.575     -0.078146384163    0.051314228973    0.000952856837    -0.000808597974    -0.076270438910    0.055873360797    0.000725117613    -0.000789664789
            0.000952856970    -0.000808597972    -0.091856338835    -0.008146203051    0.001234281294    -0.000877033175    -0.084567147325    0.000255403518
            -0.076270432457    0.055873356069    0.001234281309    -0.000877033154    -0.078956628177    0.051090652493    0.001045173333    -0.000793381033
            0.000725117481    -0.000789664368    -0.084567051326    0.000255403228    0.001045173416    -0.000793380923    -0.094966710553    -0.009918297519
0.600     -0.024618600856    0.025274277571    -0.000623769005    -0.001524519912    -0.014961344358    -0.007549028684    -0.000619541515    -0.001278324182
            -0.000623769043    -0.001524520004    0.018076334926    0.009108726093    -0.000504845684    -0.001869630925    0.056109663054    -0.008567175776
            -0.014961340362    -0.007549029944    -0.000504845684    -0.001869630925    -0.023841981459    0.024321982824    -0.000449870094    -0.001638488335
            -0.000619541559    -0.001278324272    0.056109667864    -0.008567184026    -0.000449870094    -0.001638488335    0.015976784086    0.009553914094
0.625     -0.095958245095    0.039076338955    -0.001439235118    0.000580448769    -0.123902437176    0.043714721081    -0.001240761491    0.000665845139
            -0.001439235312    0.000580448555    -0.085340112774    -0.065767277281    -0.001814571392    0.000480051196    -0.081117740807    -0.099406534903
            -0.123902446607    0.043714724408    -0.001814571489    0.000480051221    -0.096434728906    0.037769661531    -0.001597876678    0.000482487056
            -0.001240761079    0.000665844639    -0.081117706108    -0.099406563219    -0.001597876678    0.000482487056    -0.086623341614    -0.067261354684
0.650     -0.028093716136    0.100993693255    -0.000129471766    0.001374760583    -0.024059543416    0.104791767826    0.000034991517    0.001162337119
            -0.000129472094    0.001374759950    -0.060744889972    0.071910862140    -0.000319858176    0.001586834358    -0.049998023034    0.072144931251
            -0.024059527364    0.104791781771    -0.000319858196    0.001586834456    -0.027955783569    0.100367361516    -0.000235470578    0.001355669131
            0.000034991158    0.001162337330    -0.049998009303    0.072144938334    -0.000235470555    0.001355669135    -0.064308279488    0.071583547510
0.675     -0.052811262186    0.027917707534    0.001857258876    0.000419460972    -0.079490411777    0.002861685815    0.001675123866    0.000259254404
            0.001857258630    0.000419461155    -0.013886285535    -0.053082703459    0.002052799550    0.000777714176    -0.000506968002    -0.089568564264
            -0.079490408779    0.002861685707    0.002052799295    0.000777714284    -0.052659965712    0.026539119619    0.001841947555    0.000667898818
            0.001675123931    0.000259254635    -0.000506975835    -0.089568567220    0.001841947436    0.000667898557    -0.015169214748    -0.051724567860
0.700     -0.067373222456    0.137435017093    0.000430907614    -0.001452661916    -0.097189796110    0.160924830977    0.000194602703    -0.001373312016
            0.000430907595    -0.001452661295    -0.143761093050    0.041736231126    0.000735107446    -0.001629698670    -0.163721150266    0.024028397577
            -0.097189801280    0.160924839537    0.000735107515    -0.001629698748    -0.067291554249    0.136040221474    0.000552389929    -0.001469177074
            0.000194603100    -0.001373312060    -0.163721150266    0.024028397577    0.000552389868    -0.001469176990    -0.145231254685    0.040802070554
0.725     0.031705280123    0.082831852499    -0.001021474057    -0.001277728230    0.030927460197    0.082571829215    -0.000959078546    -0.000993598332
            -0.001021474057    -0.001277728230    0.011471653180    0.068946879686    -0.000972355830    -0.001593452943    0.015971347590    0.058788664036
            0.030927470636    0.082571826373    -0.000972355604    -0.001593453199    0.031486274811    0.081346581108    -0.000834625134    -0.001353327793
            -0.000959078615    -0.000993598404    0.015971349118    0.058788661549    -0.000834625082    -0.001353327708    0.008114803681    0.070091951211
0.750     -0.076784848501    0.105250146774    -0.001441834203    0.001404419681    -0.114992713301    0.114382680499    -0.001201418470    0.001422158465
            -0.001441834203    0.001404419681    -0.126217954901    -0.023599547797    -0.001854938106    0.001320704414    -0.138434995986    -0.053741321129
            -0.114992713301    0.114382680499    -0.001854938187    0.001320704472    -0.076498616246    0.103952429730    -0.001616127852    0.001249061220
            -0.001201418470    0.001422158465    -0.138434939880    -0.053741382756    -0.001616127694    0.001249061098    -0.125846509340    -0.022063468031
0.775     0.048577599663    0.175238442845    0.000671027759    0.001227269334    0.044825058139    0.214092688783    0.000793966264    0.000962230116
            0.000671027743    0.001227269457    -0.082268484480    0.157175561978    0.000553540343    0.001497498184    -0.108284239533    0.152189632064
            0.044825031621    0.214092673901    0.000553540343    0.001497498184    0.048327405449    0.172777980579    0.000565761478    0.001221320057
