# GHz S RI R 45
0.000     0.090528563267    0.053283940557    -0.000124637887    0.000009036774    0.042295343569    0.055332985574    -0.000122841143    0.000023635620
            -0.000124637624    0.000009036668    0.090224102503    0.051242629061    -0.000126919560    -0.000018115470    0.042343252407    0.056012246185
            0.042295386003    0.055332932999    -0.000126917501    -0.000018116668    0.090265427311    0.052524627351    -0.000103749498    -0.000003996407
            -0.000122840497    0.000023635274    0.042343229675    0.056012244566    -0.000103749504    -0.000003996244    0.090002077312    0.050477659552
0.025     0.178574639396    -0.001722845107    -0.000324549001    0.000046297141    0.137063237583    0.021645641473    -0.000221412701    0.000039083749
            -0.000324544997    0.000046296743    0.174322065475    0.001824207706    -0.000475065837    0.000034716351    0.137465258365    0.026669689775
            0.137073389017    0.021645403149    -0.000475057222    0.000034717472    0.177311439217    -0.002094544306    -0.000339708194    0.000032107392
            -0.000221405557    0.000039083603    0.137474017517    0.026669748442    -0.000339708214    0.000032108890    0.173113440026    0.001272931484
0.050     0.067641712266    -0.100005376695    -0.000538459010    0.000729677777    0.049741101703    -0.089554291010    -0.000440014595    0.000547747835
            -0.000538460270    0.000729678152    0.071397475590    -0.092942652123    -0.000686379869    0.000998424954    0.056050928951    -0.086663488899
            0.049740129670    -0.089554842338    -0.000686382732    0.000998426505    0.066899253034    -0.098723519069    -0.000543972394    0.000745598345
            -0.000440016939    0.000547748402    0.056050697456    -0.086663698168    -0.000543972093    0.000745598479    0.070499501580    -0.091647144476
0.075     0.091386208606    0.012813157082    0.001255065041    0.000656783197    0.061704779273    0.006925156325    0.000971743155    0.000509345185
            0.001255064958    0.000656783572    0.087676061205    0.020747730922    0.001636723279    0.000904058960    0.062292539344    0.014213123455
            0.061704674657    0.006925048401    0.001636723401    0.000904059773    0.091666701360    0.013630634470    0.001264243925    0.000667625397
            0.000971743713    0.000509345629    0.062292540486    0.014213208358    0.001264245082    0.000667625133    0.087864787347    0.021571105715
0.100     0.126989551210    -0.107163903406    0.000995798143    -0.000777467657    0.107592881469    -0.085736572073    0.000776850511    -0.000581846308
            0.000995797310    -0.000777466448    0.135977668779    -0.086741582947    0.001392321175    -0.001056398660    0.119786164119    -0.071335913441
            0.107593481596    -0.085737311265    0.001392322127    -0.001056397736    0.126132042967    -0.106513079625    0.001022236096    -0.000790468083
            0.000776850667    -0.000581844731    0.119786166733    -0.071335889508    0.001022236156    -0.000790469640    0.135022970892    -0.086297734734
0.125     0.016593549802    -0.051453268379    -0.000752395830    -0.002267171632    -0.008702227392    -0.035081035596    -0.000606219913    -0.001796815601
            -0.000752395466    -0.002267171858    0.025038787067    -0.047903642083    -0.000954170227    -0.002954980762    -0.002197608416    -0.036688074778
            -0.008702241256    -0.035080934278    -0.000954169441    -0.002954981856    0.017269829637    -0.049935308671    -0.000768510022    -0.002283283394
            -0.000606219855    -0.001796816464    -0.002197811108    -0.036688025570    -0.000768509688    -0.002283283718    0.025245317907    -0.046357161452
0.150     0.116703203567    -0.055541048566    -0.002211760914    0.000943365408    0.095500014376    -0.025999801800    -0.001703034536    0.000775744975
            -0.002211760914    0.000943365408    0.120687281154    -0.029866525954    -0.002977216976    0.001072560269    0.100682516144    -0.006142421215
            0.095499983624    -0.025999861460    -0.002977216787    0.001072559613    0.117437162907    -0.055661945044    -0.002232146203    0.000934091834
            -0.001703034400    0.000775745272    0.100682497242    -0.006142402601    -0.002232145948    0.000934092185    0.121540953927    -0.029693431474
0.175     0.019593204256    -0.121327922297    -0.000515245722    0.002382204043    0.004952695943    -0.096020107361    -0.000400384184    0.001880123926
            -0.000515245785    0.002382204336    0.048524589617    -0.110729854286    -0.000739121188    0.003190389535    0.028814178502    -0.094652514156
            0.004952694682    -0.096020050350    -0.000739121768    0.003190389504    0.019640894874    -0.120380197023    -0.000500861785    0.002415559352
            -0.000400384736    0.001880123297    0.028814150233    -0.094652492448    -0.000500861343    0.002415559341    0.048281758526    -0.110182331484
0.200     0.034895434890    -0.029621091306    0.003502945607    0.001111704296    0.019216660663    0.002681670372    0.002816844584    0.000795210823
            0.003502945012    0.001111704847    0.037301894816    -0.020145154647    0.004457603615    0.001630860302    0.016962816554    0.008143971972
            0.019216708687    0.002681630128    0.004457602983    0.001630860864    0.036798527877    -0.029185000279    0.003529818936    0.001117167877
            0.002816844101    0.000795211430    0.016962796504    0.008143999869    0.003529818917    0.001117167938    0.038663944460    -0.018828821558
0.225     0.048788546484    -0.115458664957    0.001297384146    -0.002819783819    0.044364087259    -0.083959066848    0.000939073186    -0.002229918607
            0.001297384577    -0.002819783071    0.081487287656    -0.088874060931    0.001988739731    -0.003618870137    0.071410568174    -0.067375241325
            0.044364025757    -0.083959071070    0.001988740441    -0.003618869633    0.049490770445    -0.116319571681    0.001331459039    -0.002837751960
            0.000939073926    -0.002229917862    0.071410562695    -0.067375226732    0.001331459110    -0.002837751596    0.082980244465    -0.089625497380
0.250     -0.030875592132    -0.064736037645    -0.002143235804    -0.003097223290    -0.034964337955    -0.032429342523    -0.001777682398    -0.002428892315
            -0.002143235377    -0.003097223828    -0.007781404882    -0.074167472598    -0.002650086123    -0.004182720574    -0.025031867240    -0.045155059504
            -0.034964295431    -0.032429303082    -0.002650086283    -0.004182720827    -0.029978378767    -0.064307447286    -0.002168713951    -0.003142626660
            -0.001777682141    -0.002428893742    -0.025031871851    -0.045155030651    -0.002168715048    -0.003142625903    -0.007732969555    -0.073798345941
0.275     0.029705786693    -0.068838433242    -0.003792204647    0.002491725400    0.043651731918    -0.029064411385    -0.002906993834    0.002137010399
            -0.003792204397    0.002491725235    0.048868625524    -0.045540997031    -0.005110095242    0.002841528286    0.053009132007    -0.005205796841
            0.043651718350    -0.029064460631    -0.005110095154    0.002841528237    0.030941978240    -0.073623592409    -0.003817993695    0.002499028496
            -0.002906993753    0.002137010340    0.053009119970    -0.005205694308    -0.003817994114    0.002499028770    0.052837309220    -0.049522619954
0.300     -0.029807617481    -0.095790621098    0.001100921711    0.003766609047    -0.021853834176    -0.069867650195    0.000987251705    0.002921748127
            0.001100920575    0.003766609066    0.018491384088    -0.098416390373    0.001066497709    0.005114601345    0.011139191559    -0.077062538176
            -0.021853872206    -0.069867600580    0.001066489435    0.005114599188    -0.029919648779    -0.097097451748    0.001093792653    0.003819859178
            0.000987250672    0.002921748265    0.011139191588    -0.077062509881    0.001093793201    0.003819857565    0.019198956716    -0.100622586821
0.325     -0.020624595431    -0.030340150932    0.005140455179    0.000508043013    -0.000969454128    0.002131898687    0.004159994870    0.000206979621
            0.005140455597    0.000508042846    -0.014892546914    -0.031059559716    0.006584530787    0.001108961448    -0.009629380582    0.011304654484
            -0.000969398833    0.002131881757    0.006584531015    0.001108961297    -0.019674322916    -0.030962495473    0.005197300972    0.000537567826
            0.004159995180    0.000206979440    -0.009629374497    0.011304683313    0.005197300857    0.000537567960    -0.014444313242    -0.030715638316
0.350     -0.007212511668    -0.074008717246    0.000851051896    -0.005369574999    0.015837540257    -0.060642506455    0.000381749216    -0.004323945820
            0.000851051849    -0.005369574702    0.039243076897    -0.054040820543    0.001788856353    -0.006816110160    0.055440444651    -0.038023989827
            0.015837484066    -0.060642529398    0.001788856158    -0.006816109902    -0.006973678700    -0.076347218004    0.000886531793    -0.005450295239
            0.000381749283    -0.004323945714    0.055440475135    -0.038023901180    0.000886532300    -0.005450294751    0.041748629062    -0.056192873294
0.375     -0.055740201819    -0.045159662085    -0.004291711907    -0.002636310300    -0.038937547090    -0.022891100051    -0.003517040224    -0.001916132999
            -0.004291711702    -0.002636311206    -0.027819962954    -0.070286028078    -0.005341842645    -0.003932802512    -0.030269016054    -0.038524017602
            -0.038937520515    -0.022891038705    -0.005341842200    -0.003932803622    -0.056698361761    -0.046257464546    -0.004334397019    -0.002679983629
            -0.003517040153    -0.001916133756    -0.030269015436    -0.038524016816    -0.004334396679    -0.002679983418    -0.028792085704    -0.072745804827
0.400     -0.019418972231    -0.027376662717    -0.004727618604    0.004446848487    0.016693625744    -0.019148839335    -0.003589621623    0.003866765885
            -0.004727618750    0.004446848624    0.000144185661    -0.006433323536    -0.006562319895    0.005105263137    0.033371522669    0.021922893306
            0.016693625098    -0.019148837245    -0.006562319974    0.005105263198    -0.019387373750    -0.028671665804    -0.004846351767    0.004484959383
            -0.003589621691    0.003866765959    0.033371579141    0.021922971261    -0.004846351620    0.004484959247    0.001169132328    -0.006796617247
0.425     -0.041356009012    -0.059604377818    0.003731290211    0.004958119194    -0.045716058279    -0.041733159430    0.003286887575    0.003707476704
            0.003731289823    0.004958118859    0.020192138004    -0.072766972755    0.004138704662    0.007005706153    0.003305199546    -0.064889995653
            -0.045716113060    -0.041733121670    0.004138700375    0.007005705317    -0.043409361382    -0.060613727213    0.003827408624    0.005066243479
            0.003286887180    0.003707476520    0.003305197332    -0.064889996767    0.003827408969    0.005066242466    0.019481715789    -0.076313705563
0.450     -0.059102545291    -0.009540376806    0.006107639181    -0.001396252498    -0.032074251378    0.000537453936    0.004831132801    -0.001427680236
            0.006107639742    -0.001396252289    -0.051716014657    -0.022474378766    0.008059503603    -0.001058766434    -0.032736577785    0.011426945403
            -0.032074181200    0.000537463959    0.008059504022    -0.001058766317    -0.060670639071    -0.009870645338    0.006173145302    -0.001385916265
            0.004831133235    -0.001427680180    -0.032736577785    0.011426945403    0.006173144985    -0.001385916307    -0.053797426751    -0.023926094465
0.475     -0.033973379636    -0.026594065630    -0.000482289955    -0.007930470652    -0.009131095264    -0.050679063689    -0.000969207144    -0.006448486573
            -0.000482290377    -0.007930470726    0.025726842198    -0.018711791819    0.000560362259    -0.010062772724    0.066730314842    -0.023325285339
            -0.009131140574    -0.050679112427    0.000560361908    -0.010062772744    -0.034773851112    -0.027502044642    -0.000440826993    -0.008124026885
            -0.000969207482    -0.006448486522    0.066730355098    -0.023325264122    -0.000440826710    -0.008124026901    0.026625648964    -0.020306987783
0.500     -0.078134133666    -0.020169605062    -0.007055410033    -0.000585915913    -0.078948153785    -0.024493433045    -0.005657700270    0.000096360235
            -0.007055409435    -0.000585915863    -0.044671955684    -0.068852244365    -0.008968456830    -0.001920951524    -0.042242307411    -0.065942531209
            -0.078948146052    -0.024493370225    -0.008968457864    -0.001920953382    -0.080229613332    -0.020664433370    -0.007205858262    -0.000525239217
            -0.005657699787    0.000096359239    -0.042242307411    -0.065942531209    -0.007205865112    -0.000525234659    -0.046652671858    -0.072362454091
0.525     -0.054577717379    0.018815664881    -0.004031930491    0.006765132276    -0.026419847520    0.005190278330    -0.002847548530    0.005788438873
            -0.004031930644    0.006765132534    -0.027607328001    0.022994277922    -0.005989070398    0.008003233440    0.014108552070    0.037719588527
            -0.026419806535    0.005190222388    -0.005989071297    0.008003234641    -0.056024259141    0.019671837119    -0.004165505534    0.006815796688
            -0.002847548707    0.005788439232    0.014108602430    0.037719602788    -0.004165504250    0.006815799934    -0.029753233178    0.022606097345
0.550     -0.063038958955    -0.014170653988    0.007746008164    0.005279403878    -0.073956354770    -0.045914107284    0.006857966808    0.003626497441
            0.007746008412    0.005279404047    0.005877341931    -0.064616625530    0.008718972236    0.007887138161    0.026751068680    -0.093584532869
            -0.073956416193    -0.045914091768    0.008718972512    0.007887137856    -0.063894259695    -0.013927638647    0.007972213299    0.005435713512
            0.006857966719    0.003626497394    0.026751065963    -0.093584535725    0.007972213204    0.005435713651    0.005317727229    -0.066664697380
0.575     -0.092825593586    0.039983008838    0.005698577618    -0.005067352178    -0.094818794736    0.044685667231    0.004083682982    -0.004485150219
            0.005698577673    -0.005067351514    -0.091856338835    -0.008146203051    0.008149698243    -0.005478466660    -0.084567147325    0.000255403518
            -0.094818735156    0.044685699826    0.008149698185    -0.005478466208    -0.094480940444    0.040730725575    0.005683975358    -0.005226852265
            0.004083683239    -0.004485149714    -0.084567051326    0.000255403228    0.005683975175    -0.005226852463    -0.094966710553    -0.009918297519
0.600     -0.041920831444    0.035226729260    -0.002973933481    -0.009417603917    -0.038407727257    0.004955345531    -0.003170788824    -0.007613791143
            -0.002973933601    -0.009417604299    0.018076334926    0.009108726093    -0.002241216409    -0.012054065183    0.056109663054    -0.008567175776
            -0.038407749917    0.004955287119    -0.002241216592    -0.012054066166    -0.042203390128    0.037206442490    -0.002949933324    -0.009586711226
            -0.003170788977    -0.007613791512    0.056109667864    -0.008567184026    -0.002949933030    -0.009586710271    0.015976784086    0.009553914094
0.625     -0.098978206177    0.037206300913    -0.009449375926    0.003508010688    -0.130364965374    0.045558902438    -0.007391527171    0.003956205966
            -0.009449375926    0.003508010688    -0.085340112774    -0.065767277281    -0.012330704596    0.002434062826    -0.081117740807    -0.099406534903
            -0.130364976303    0.045558931789    -0.012330706558    0.002434063214    -0.098932177849    0.037413726016    -0.009795594261    0.003697111853
            -0.007391527348    0.003956206061    -0.081117706108    -0.099406563219    -0.009795593326    0.003697111500    -0.086623341614    -0.067261354684
0.650     -0.051582964840    0.104218760952    -0.000739865159    0.008102092007    -0.050914189088    0.111809202919    0.000030767061    0.006469975146
            -0.000739866035    0.008102092228    -0.060744889972    0.071910862140    -0.002330618239    0.010079781550    -0.049998023034    0.072144931251
            -0.050914133482    0.111809184288    -0.002330619998    0.010079781144    -0.052423007260    0.106055588076    -0.000613358324    0.008111209007
            0.000030766159    0.006469975450    -0.049998009303    0.072144938334    -0.000613357892    0.008111208939    -0.064308279488    0.071583547510
0.675     -0.054085035462    0.046310800536    0.011451599822    0.003614873645    -0.084321823064    0.028351790474    0.010010307403    0.001960998935
            0.011451600838    0.003614873746    -0.013886285535    -0.053082703459    0.013038178830    0.006312194700    -0.000506968002    -0.089568564264
            -0.084321900258    0.028351783668    0.013038179840    0.006312194908    -0.052360103201    0.047651044672    0.011650552273    0.003732583883
            0.010010307506    0.001960998410    -0.000506975835    -0.089568567220    0.011650551386    0.003732583375    -0.015169214748    -0.051724567860
0.700     -0.075122002426    0.135211344368    0.002695512043    -0.009426046800    -0.105073936395    0.165752725669    0.000895277808    -0.007993925612
            0.002695512701    -0.009426047236    -0.143761093050    0.041736231126    0.005358194849    -0.010809024350    -0.163721150266    0.024028397577
            -0.105073936395    0.165752725669    0.005358194849    -0.010809024350    -0.074847936498    0.135007133951    0.002562438352    -0.009736374234
            0.000895278282    -0.007993926062    -0.163721150266    0.024028397577    0.002562438182    -0.009736374279    -0.145231254685    0.040802070554
0.725     0.016922656267    0.106692188546    -0.005690421574    -0.007719583448    0.016447507920    0.112783407293    -0.005151961067    -0.005908913446
            -0.005690421633    -0.007719583528    0.011471653180    0.068946879686    -0.005684263045    -0.010387459308    0.015971347590    0.058788664036
            0.016447512908    0.112783386354    -0.005684257979    -0.010387458660    0.017723410383    0.108857435617    -0.005694552211    -0.007650395159
            -0.005151961264    -0.005908913672    0.015971349118    0.058788661549    -0.005694553069    -0.007650393523    0.008114803681    0.070091951211
0.750     -0.064484568781    0.113433146493    -0.009865239147    0.008514803023    -0.101565757069    0.130154934441    -0.007361019941    0.008517521803
            -0.009865234605    0.008514799102    -0.126217954901    -0.023599547797    -0.013211415724    0.007917661945    -0.138434995986    -0.053741321129
            -0.101565793981    0.130154981743    -0.013211414866    0.007917661431    -0.061764085572    0.112595181674    -0.010066492065    0.008720982264
            -0.007361021428    0.008517520518    -0.138434939880    -0.053741382756    -0.010066492065    0.008720982264    -0.125846509340    -0.022063468031
0.775     0.036268254863    0.181205781964    0.004474483427    0.007484839128    0.037652095487    0.227070351430    0.004564183496    0.005220292022
            0.004474482932    0.007484839190    -0.082268484480    0.157175561978    0.003606850714    0.010092062849    -0.108284239533    0.152189632064
            0.037652152606    0.227070352095    0.003606850714    0.010092062849    0.036082781198    0.180875808139    0.004782087875    0.007419924378
