# GHz S RI R 45
0.000     0.088096817923    0.051109825732    0.000002175044    0.000041619359    0.042176906332    0.056378492753    -0.000009901759    0.000022741372
            0.000002174835    0.000041619499    0.090224102503    0.051242629061    -0.000001287930    0.000029783114    0.042343252407    0.056012246185
            0.042176905947    0.056378494290    -0.000001287803    0.000029783001    0.088005538196    0.050255702527    -0.000006605195    0.000023227717
            -0.000009901747    0.000022741378    0.042343229675    0.056012244566    -0.000006605164    0.000023227686    0.090002077312    0.050477659552
0.025     0.171628968673    0.004993995281    0.000022049760    -0.000027405908    0.137409426285    0.028957374117    0.000022934696    0.000010846372
            0.000022049883    -0.000027405661    0.174322065475    0.001824207706    0.000020294136    -0.000005077875    0.137465258365    0.026669689775
            0.137415360147    0.028959428668    0.000020293878    -0.000005077965    0.170303605037    0.004487971084    0.000027071962    0.000006632269
            0.000022934584    0.000010846341    0.137474017517    0.026669748442    0.000027071885    0.000006632216    0.173113440026    0.001272931484
0.050     0.075719879237    -0.088027654707    -0.000038456422    0.000025509162    0.060543335559    -0.083908796553    -0.000020260594    0.000018432251
            -0.000038456427    0.000025509108    0.071397475590    -0.092942652123    -0.000028676001    0.000018367846    0.056050928951    -0.086663488899
            0.060542833987    -0.083910453235    -0.000028676126    0.000018367890    0.074883889574    -0.086984972723    -0.000025607572    0.000029804025
            -0.000020260427    0.000018432539    0.056050697456    -0.086663698168    -0.000025607548    0.000029804103    0.070499501580    -0.091647144476
0.075     0.089270674754    0.021468198225    0.000031919311    0.000047255822    0.064472066110    0.015873632188    0.000048174301    0.000067342004
            0.000031919306    0.000047255834    0.087676061205    0.020747730922    0.000034599250    0.000062598031    0.062292539344    0.014213123455
            0.064471917136    0.015873609830    0.000034599333    0.000062598043    0.089176620258    0.021915598123    0.000067380679    0.000080308937
            0.000048174390    0.000067342024    0.062292540486    0.014213208358    0.000067380684    0.000080308906    0.087864787347    0.021571105715
0.100     0.140045120813    -0.077431704164    0.000008342786    0.000016982945    0.125024765152    -0.062251945206    0.000035656220    -0.000006661845
            0.000008342765    0.000016982945    0.135977668779    -0.086741582947    0.000027945243    0.000007012869    0.119786164119    -0.071335913441
            0.125024675751    -0.062252192061    0.000027945220    0.000007012845    0.139071539733    -0.076984868268    0.000038225520    -0.000011282181
            0.000035656244    -0.000006661867    0.119786166733    -0.071335889508    0.000038225457    -0.000011282161    0.135022970892    -0.086297734734
0.125     0.039320467951    -0.048652159031    0.000018770223    0.000092335544    0.011875567836    -0.039148294021    0.000007494898    0.000100747331
            0.000018770258    0.000092335505    0.025038787067    -0.047903642083    0.000006147339    0.000096388494    -0.002197608416    -0.036688074778
            0.011875555665    -0.039148726162    0.000006147301    0.000096388508    0.039538303493    -0.047533013950    0.000012981617    0.000131135104
            0.000007494885    0.000100747392    -0.002197811108    -0.036688025570    0.000012981622    0.000131135104    0.025245317907    -0.046357161452
0.150     0.122012834734    -0.029636631410    0.000105443310    0.000034465488    0.101442505348    -0.006008955459    0.000146083253    0.000029624834
            0.000105443317    0.000034465468    0.120687281154    -0.029866525954    0.000131528739    0.000044520987    0.100682516144    -0.006142421215
            0.101442505400    -0.006008954574    0.000131528726    0.000044520995    0.122329270103    -0.029630827093    0.000186298825    0.000031564245
            0.000146083265    0.000029624826    0.100682497242    -0.006142402601    0.000186298831    0.000031564266    0.121540953927    -0.029693431474
0.175     0.066693835828    -0.103317650663    0.000014831006    0.000015981678    0.047692902126    -0.088452917475    -0.000005991928    -0.000009463651
            0.000014830996    0.000015981688    0.048524589617    -0.110729854286    0.000008091481    -0.000002998200    0.028814178502    -0.094652514156
            0.047692897380    -0.088452908673    0.000008091482    -0.000002998198    0.066476942312    -0.102679747987    -0.000011805775    -0.000009555963
            -0.000005991923    -0.000009463662    0.028814150233    -0.094652492448    -0.000011805768    -0.000009555978    0.048281758526    -0.110182331484
0.200     0.051683121383    -0.036526967109    0.000128272931    0.000103171990    0.030069141195    -0.010093253581    0.000146155244    0.000137212925
            0.000128272943    0.000103171992    0.037301894816    -0.020145154647    0.000132007528    0.000134387853    0.016962816554    0.008143971972
            0.030069087899    -0.010093333793    0.000132007514    0.000134387867    0.052753854409    -0.035845328986    0.000185081865    0.000174556468
            0.000146155324    0.000137212972    0.016962796504    0.008143999869    0.000185081851    0.000174556468    0.038663944460    -0.018828821558
0.225     0.085620496641    -0.087189322092    0.000139493228    -0.000059467167    0.074081303528    -0.067242566664    0.000164210978    -0.000097112864
            0.000139493283    -0.000059467142    0.081487287656    -0.088874060931    0.000171996685    -0.000076208272    0.071410568174    -0.067375241325
            0.074081317974    -0.067242565627    0.000171996740    -0.000076208297    0.086355293433    -0.087657132845    0.000207953689    -0.000125862255
            0.000164210983    -0.000097112875    0.071410562695    -0.067375226732    0.000207953600    -0.000125862305    0.082980244465    -0.089625497380
0.250     0.022007376241    -0.086634280739    0.000037385934    0.000046928409    0.003100585625    -0.058918601399    0.000009663396    0.000065890271
            0.000037385904    0.000046928354    -0.007781404882    -0.074167472598    0.000015420662    0.000051845114    -0.025031867240    -0.045155059504
            0.003100585677    -0.058918602398    0.000015420667    0.000051845115    0.022427330000    -0.086291787594    0.000007315055    0.000081244280
            0.000009663385    0.000065890274    -0.025031871851    -0.045155030651    0.000007315061    0.000081244264    -0.007732969555    -0.073798345941
0.275     0.049782231609    -0.064669948642    0.000243401613    -0.000007338664    0.052624459500    -0.033986352926    0.000300868182    0.000002551401
            0.000243401594    -0.000007338643    0.048868625524    -0.045540997031    0.000288312088    0.000017869011    0.053009132007    -0.005205796841
            0.052624460241    -0.033986357309    0.000288312088    0.000017869014    0.051299017275    -0.065059557999    0.000378923551    0.000011471674
            0.000300868192    0.000002551402    0.053009119970    -0.005205694308    0.000378923540    0.000011471687    0.052837309220    -0.049522619954
0.300     0.032486533917    -0.100939844559    0.000056848583    -0.000150163313    0.021464132729    -0.079781246149    0.000045485160    -0.000189418735
            0.000056848561    -0.000150163311    0.018491384088    -0.098416390373    0.000065927317    -0.000189236779    0.011139191559    -0.077062538176
            0.021464134122    -0.079781245774    0.000065927321    -0.000189236767    0.032981385766    -0.102235233607    0.000062431174    -0.000244321717
            0.000045485160    -0.000189418735    0.011139191588    -0.077062509881    0.000062431003    -0.000244321740    0.019198956716    -0.100622586821
0.325     0.001707994783    -0.070417429096    0.000138455563    0.000068975823    0.003387358179    -0.025912708916    0.000153809433    0.000114883099
            0.000138455548    0.000068975831    -0.014892546914    -0.031059559716    0.000137424404    0.000106218554    -0.009629380582    0.011304654484
            0.003387357856    -0.025912709966    0.000137424439    0.000106218557    0.002584224261    -0.070743588592    0.000177946446    0.000145750930
            0.000153809431    0.000114883101    -0.009629374497    0.011304683313    0.000177946433    0.000145750929    -0.014444313242    -0.030715638316
0.350     0.024597669578    -0.074238732811    0.000228872138    -0.000234285143    0.037346174286    -0.057585816718    0.000287986131    -0.000277337107
            0.000228872143    -0.000234285166    0.039243076897    -0.054040820543    0.000294683386    -0.000257746372    0.055440444651    -0.038023989827
            0.037346173742    -0.057585815879    0.000294683364    -0.000257746443    0.026002871127    -0.076162474674    0.000374403270    -0.000331994699
            0.000287986116    -0.000277337093    0.055440475135    -0.038023901180    0.000374403250    -0.000331994751    0.041748629062    -0.056192873294
0.375     -0.013088743247    -0.089590200465    -0.000055423249    -0.000095855621    -0.022265982617    -0.054669730496    -0.000084674769    -0.000104995950
            -0.000055423266    -0.000095855612    -0.027819962954    -0.070286028078    -0.000079942885    -0.000122685537    -0.030269016054    -0.038524017602
            -0.022265982617    -0.054669730496    -0.000079942901    -0.000122685515    -0.013255437927    -0.091259085498    -0.000106678478    -0.000150870003
            -0.000084674782    -0.000104996003    -0.030269015436    -0.038524016816    -0.000106678478    -0.000150870003    -0.028792085704    -0.072745804827
0.400     -0.013991325985    -0.050726366296    0.000282198765    -0.000073627964    0.017011847712    -0.017297470181    0.000350042028    -0.000054333362
            0.000282198681    -0.000073628010    0.000144185661    -0.006433323536    0.000331728383    -0.000041758451    0.033371522669    0.021922893306
            0.017011846105    -0.017297470359    0.000331728361    -0.000041758463    -0.013011241003    -0.052090607702    0.000418961146    -0.000041822373
            0.000350042031    -0.000054333343    0.033371579141    0.021922971261    0.000418961137    -0.000041822368    0.001169132328    -0.006796617247
0.425     -0.008275000871    -0.080781615222    -0.000015810050    -0.000369795647    -0.006034193502    -0.079265797084    -0.000000465532    -0.000448504158
            -0.000015810037    -0.000369795648    0.020192138004    -0.072766972755    0.000017358278    -0.000445129036    0.003305199546    -0.064889995653
            -0.006034147638    -0.079265779515    0.000017358277    -0.000445129026    -0.008223602974    -0.083690393908    0.000036789426    -0.000561506455
            -0.000000465532    -0.000448504168    0.003305197332    -0.064889996767    0.000036789445    -0.000561506443    0.019481715789    -0.076313705563
0.450     -0.054287689207    -0.053767135622    -0.000004622737    0.000029049249    -0.039866678621    -0.010987199130    -0.000015728459    0.000050689246
            -0.000004622727    0.000029049263    -0.051716014657    -0.022474378766    -0.000032504176    0.000040467667    -0.032736577785    0.011426945403
            -0.039866677668    -0.010987206354    -0.000032504185    0.000040467664    -0.054897939141    -0.055358938043    -0.000049033403    0.000042566635
            -0.000015728457    0.000050689237    -0.032736577785    0.011426945403    -0.000049033412    0.000042566628    -0.053797426751    -0.023926094465
0.475     -0.011750691797    -0.045133688571    0.000208512579    -0.000386346503    0.032735352195    -0.043434438700    0.000287529524    -0.000436141277
            0.000208512587    -0.000386346453    0.025726842198    -0.018711791819    0.000288259898    -0.000411759288    0.066730314842    -0.023325285339
            0.032735369345    -0.043434379443    0.000288259887    -0.000411759272    -0.011673991898    -0.047634956018    0.000376366109    -0.000489464599
            0.000287529552    -0.000436141270    0.066730355098    -0.023325264122    0.000376366100    -0.000489464605    0.026625648964    -0.020306987783
0.500     -0.064009807898    -0.073395988264    -0.000287580885    -0.000215046647    -0.065720910131    -0.063984326023    -0.000330057912    -0.000283472411
            -0.000287580839    -0.000215046691    -0.044671955684    -0.068852244365    -0.000321489359    -0.000295468082    -0.042242307411    -0.065942531209
            -0.065720908698    -0.063984324628    -0.000321489285    -0.000295468014    -0.065483622977    -0.075819487809    -0.000376796691    -0.000401247441
            -0.000330057934    -0.000283472430    -0.042242307411    -0.065942531209    -0.000376796691    -0.000401247441    -0.046652671858    -0.072362454091
0.525     -0.047332840090    0.002057558143    0.000178867375    -0.000086350577    -0.004796498788    0.029428963713    0.000214378991    -0.000069762962
            0.000178867380    -0.000086350568    -0.027607328001    0.022994277922    0.000196072068    -0.000059704133    0.014108552070    0.037719588527
            -0.004796503250    0.029428961973    0.000196072087    -0.000059704139    -0.048206017749    0.000337901605    0.000215280162    -0.000049899345
            0.000214378994    -0.000069762951    0.014108602430    0.037719602788    0.000215280120    -0.000049899348    -0.029753233178    0.022606097345
0.550     -0.030443728908    -0.070694064724    -0.000212122378    -0.000519026490    -0.006111456405    -0.093698950533    -0.000186456288    -0.000631137741
            -0.000212122374    -0.000519026480    0.005877341931    -0.064616625530    -0.000166427595    -0.000616749882    0.026751068680    -0.093584532869
            -0.006111456405    -0.093698950533    -0.000166427477    -0.000616749872    -0.031942849978    -0.073171934450    -0.000143182689    -0.000760665942
            -0.000186456288    -0.000631137741    0.026751065963    -0.093584535725    -0.000143182823    -0.000760665927    0.005317727229    -0.066664697380
0.575     -0.108950212271    0.000138261042    -0.000244990000    0.000086437705    -0.104151707703    0.018494542178    -0.000312646686    0.000068452433
            -0.000244990000    0.000086437705    -0.091856338835    -0.008146203051    -0.000321576048    0.000059051810    -0.084567147325    0.000255403518
            -0.104151707703    0.018494542178    -0.000321576048    0.000059051810    -0.110796805644    -0.001236039105    -0.000418515476    0.000012006367
            -0.000312646686    0.000068452433    -0.084567051326    0.000255403228    -0.000418515476    0.000012006367    -0.094966710553    -0.009918297519
0.600     0.001552424306    0.002369872478    0.000126104455    -0.000411171518    0.047002938900    -0.004682563179    0.000182367611    -0.000442670039
            0.000126104506    -0.000411171534    0.018076334926    0.009108726093    0.000182782208    -0.000414620246    0.056109663054    -0.008567175776
            0.047002936348    -0.004682558534    0.000182782335    -0.000414620299    -0.000033579870    0.000577588249    0.000223396883    -0.000455173079
            0.000182367630    -0.000442670042    0.056109667864    -0.008567184026    0.000223396869    -0.000455173030    0.015976784086    0.009553914094
0.625     -0.113748528364    -0.052675678733    -0.000558566652    -0.000155010913    -0.114604959477    -0.078131051881    -0.000624298093    -0.000264234798
            -0.000558566643    -0.000155010910    -0.085340112774    -0.065767277281    -0.000603278517    -0.000271414746    -0.081117740807    -0.099406534903
            -0.114604959477    -0.078131051881    -0.000603278517    -0.000271414746    -0.116089360366    -0.053838871721    -0.000685536229    -0.000412999481
            -0.000624298102    -0.000264234802    -0.081117706108    -0.099406563219    -0.000685536229    -0.000412999481    -0.086623341614    -0.067261354684
0.650     -0.063046747734    0.090954808644    0.000031307921    0.000118320758    -0.047008875281    0.100013326754    -0.000012679044    0.000144404093
            0.000031307917    0.000118320790    -0.060744889972    0.071910862140    -0.000026324711    0.000153363423    -0.049998023034    0.072144931251
            -0.047008875281    0.100013326754    -0.000026324708    0.000153363393    -0.064607708222    0.090017122624    -0.000111386196    0.000166725978
            -0.000012679103    0.000144404097    -0.049998009303    0.072144938334    -0.000111386242    0.000166725984    -0.064308279488    0.071583547510
0.675     -0.021882477780    -0.062875156193    -0.000420697302    -0.000475202366    0.000352338666    -0.090858187836    -0.000409017420    -0.000563311866
            -0.000420697282    -0.000475202344    -0.013886285535    -0.053082703459    -0.000384101377    -0.000543272973    -0.000506968002    -0.089568564264
            0.000352343404    -0.090858182818    -0.000384101394    -0.000543272998    -0.024424599995    -0.063335973730    -0.000384902919    -0.000641834313
            -0.000409017426    -0.000563311874    -0.000506975835    -0.089568567220    -0.000384902914    -0.000641834304    -0.015169214748    -0.051724567860
0.700     -0.159212824436    0.064072199035    -0.000402683143    0.000285278821    -0.170523450873    0.047859187230    -0.000526483198    0.000248083223
            -0.000402683143    0.000285278821    -0.143761093050    0.041736231126    -0.000522872104    0.000231875800    -0.163721150266    0.024028397577
            -0.170523450873    0.047859187230    -0.000522872095    0.000231875796    -0.160917794749    0.064072887397    -0.000679762641    0.000167715419
            -0.000526483189    0.000248083219    -0.163721150266    0.024028397577    -0.000679762670    0.000167715426    -0.145231254685    0.040802070554
0.725     0.035805037089    0.076136694957    0.000085669184    -0.000199580364    0.047768176015    0.071871229808    0.000085091813    -0.000176204446
            0.000085669183    -0.000199580343    0.011471653180    0.068946879686    0.000089783571    -0.000153667630    0.015971347590    0.058788664036
            0.047768173506    0.071871231475    0.000089783563    -0.000153667646    0.034257727525    0.075234713774    0.000046895060    -0.000121741771
            0.000085091808    -0.000176204426    0.015971349118    0.058788661549    0.000046895040    -0.000121741726    0.008114803681    0.070091951211
0.750     -0.136483178272    -0.038826547740    -0.000717819989    0.000083960600    -0.136119664676    -0.067584632123    -0.000790870746    -0.000015629024
            -0.000717820014    0.000083960730    -0.126217954901    -0.023599547797    -0.000761531358    -0.000025154820    -0.138434995986    -0.053741321129
            -0.136119652881    -0.067584655880    -0.000761531323    -0.000025154952    -0.138440438190    -0.038591204436    -0.000847634267    -0.000129326725
            -0.000790870736    -0.000015629024    -0.138434939880    -0.053741382756    -0.000847634257    -0.000129326723    -0.125846509340    -0.022063468031
0.775     -0.075911224065    0.177804268102    -0.000044733029    0.000339806893    -0.093099782982    0.168623810597    -0.000155095678    0.000385980598
            -0.000044733021    0.000339806924    -0.082268484480    0.157175561978    -0.000163351543    0.000381688537    -0.108284239533    0.152189632064
            -0.093099782982    0.168623810597    -0.000163351539    0.000381688527    -0.076479633215    0.177790474309    -0.000322179102    0.000417105711
