# GHz S RI R 45
0.000     0.089322375809    0.053229645611    0.833907579894    -0.418294985663    0.041961007823    0.055913421532    -0.020859005712    -0.003305238458
            0.833907579894    -0.418294985663    0.090224102503    0.051242629061    -0.020878666737    -0.003295426504    0.042343252407    0.056012246185
            0.041960971348    0.055913417648    -0.020878696283    -0.003295412494    0.089015621780    0.052461791560    0.833931406519    -0.417998131976
            -0.020859036251    -0.003305224637    0.042343229675    0.056012244566    0.833931406519    -0.417998131976    0.090002077312    0.050477659552
0.025     0.176987942809    0.000737652179    0.221265022897    -0.883991560408    0.137213980727    0.023947940751    -0.022512704913    0.023699074499
            0.221265059876    -0.883992035652    0.174322065475    0.001824207706    -0.022517679595    0.023696839252    0.137465258365    0.026669689775
            0.137213825424    0.023948016306    -0.022520472455    0.023699016287    0.175726575297    0.000390868155    0.221491402679    -0.883985989278
            -0.022513538220    0.023700059408    0.137474017517    0.026669748442    0.221491329872    -0.883985502374    0.173113440026    0.001272931484
0.050     0.070938392917    -0.096842610532    -0.791586006308    -0.456369969124    0.053574204793    -0.087487445285    0.004460236763    0.020809155647
            -0.791586014972    -0.456369974119    0.071397475590    -0.092942652123    0.004475746247    0.020815960872    0.056050928951    -0.086663488899
            0.053573012245    -0.087488175549    0.004474658194    0.020814893731    0.070242120678    -0.095588092318    -0.791558274838    -0.456422090602
            0.004459154127    0.020808185994    0.056050697456    -0.086663698168    -0.791558266175    -0.456422085607    0.070499501580    -0.091647144476
0.075     0.092837170520    0.014687477547    -0.629936893902    0.653092744592    0.063535734126    0.009528195130    0.042865420352    0.025541840229
            -0.629936893902    0.653092744592    0.087676061205    0.020747730922    0.042869405348    0.025547477461    0.062292539344    0.014213123455
            0.063535554857    0.009528224031    0.042869156896    0.025548085795    0.093023008607    0.015497135010    -0.630020333744    0.652813631347
            0.042865132496    0.025542503042    0.062292540486    0.014213208358    -0.630020333744    0.652813631347    0.087864787347    0.021571105715
0.100     0.132006705211    -0.101707452308    0.445231095247    0.766837418387    0.113682792509    -0.079279209734    0.034742584979    -0.046572629571
            0.445231095247    0.766837418387    0.135977668779    -0.086741582947    0.034759003738    -0.046593522534    0.119786164119    -0.071335913441
            0.113682784307    -0.079279204014    0.034759098643    -0.046593179755    0.131359123717    -0.101025651119    0.444906640862    0.767040966887
            0.034742679570    -0.046572288278    0.119786166733    -0.071335889508    0.444906654249    0.767040959122    0.135022970892    -0.086297734734
0.125     0.025091993639    -0.053999038012    0.865086591301    -0.229722435806    0.001184341976    -0.038667317636    -0.023578626574    -0.064704324930
            0.865086595310    -0.229722420708    0.025038787067    -0.047903642083    -0.023606241631    -0.064714300261    -0.002197608416    -0.036688074778
            0.001184307591    -0.038667275669    -0.023605987677    -0.064714410992    0.025812973615    -0.052647326171    0.865091695250    -0.229389725700
            -0.023578433918    -0.064704463251    -0.002197811108    -0.036688025570    0.865091695250    -0.229389725700    0.025245317907    -0.046357161452
0.150     0.118463359003    -0.055423232678    -0.002275317689    -0.878250912629    0.097440592925    -0.025493958362    -0.092576139723    0.014145007851
            -0.002275317689    -0.878250912629    0.120687281154    -0.029866525954    -0.092589006234    0.014159476062    0.100682516144    -0.006142421215
            0.097440483952    -0.025493900778    -0.092589011176    0.014159509893    0.119452036625    -0.055409610989    -0.001742642521    -0.878052030718
            -0.092576238084    0.014145039415    0.100682497242    -0.006142402601    -0.001742642521    -0.878052030718    0.121540953927    -0.029693431474
0.175     0.030728231105    -0.121660365880    -0.838886118258    -0.239925872764    0.019401676962    -0.096748762559    -0.014233320418    0.095247548365
            -0.838886118258    -0.239925872764    0.048524589617    -0.110729854286    -0.014226145591    0.095279295683    0.028814178502    -0.094652514156
            0.019401682097    -0.096748726853    -0.014226115325    0.095279309302    0.031073110931    -0.121118386060    -0.838639748700    -0.240526293511
            -0.014233290163    0.095247561986    0.028814150233    -0.094652492448    -0.838639748700    -0.240526293511    0.048281758526    -0.110182331484
0.200     0.038604766325    -0.041658580149    -0.446572727140    0.748989156098    0.023624828209    -0.012498351395    0.103614443617    0.057277857775
            -0.446572727140    0.748989156098    0.037301894816    -0.020145154647    0.103645832678    0.057261167281    0.016962816554    0.008143971972
            0.023624744818    -0.012498374300    0.103645852424    0.057261152218    0.040508454064    -0.041202380891    -0.447010814675    0.748555264527
            0.103614459612    0.057277828841    0.016962796504    0.008143999869    -0.447010814675    0.748555264527    0.038663944460    -0.018828821558
0.225     0.048778708147    -0.116982833589    0.591878009960    0.618687014805    0.044623764768    -0.086459389195    0.087172476220    -0.099322530812
            0.591877999161    0.618687025136    0.081487287656    -0.088874060931    0.087172388353    -0.099343083828    0.071410568174    -0.067375241325
            0.044623781293    -0.086459395295    0.087172509724    -0.099342977326    0.050137957666    -0.118217935333    0.591088611598    0.619078095496
            0.087172458547    -0.099322559628    0.071410562695    -0.067375226732    0.591088611598    0.619078095496    0.082980244465    -0.089625497380
0.250     -0.022044229728    -0.077574397546    0.754163906683    -0.402240397095    -0.023817631556    -0.049078507907    -0.071581699336    -0.123198152472
            0.754163913704    -0.402240383932    -0.007781404882    -0.074167472598    -0.071606142135    -0.123214228134    -0.025031867240    -0.045155059504
            -0.023817621785    -0.049078465965    -0.071606168664    -0.123214224282    -0.021328910510    -0.077747801692    0.754526700404    -0.401334567194
            -0.071581720838    -0.123198139978    -0.025031871851    -0.045155030651    0.754526709233    -0.401334571890    -0.007732969555    -0.073798345941
0.275     0.021350273190    -0.078723907172    -0.190992468182    -0.823813613092    0.030447592478    -0.050269232249    -0.157174119593    0.040879750068
            -0.190992468182    -0.823813613092    0.048868625524    -0.045540997031    -0.157422878517    0.040979653183    0.053009132007    -0.005205796841
            0.030447599221    -0.050269217643    -0.157422881043    0.040979683178    0.023373707904    -0.080215170858    -0.189940439430    -0.823792902309
            -0.157174122136    0.040879780017    0.053009119970    -0.005205694308    -0.189940439430    -0.823792902309    0.052837309220    -0.049522619954
0.300     -0.032380919764    -0.097136762345    -0.834436826426    -0.037785458968    -0.024395765526    -0.072755548929    -0.000800611560    0.174070908867
            -0.834436819831    -0.037785604604    0.018491384088    -0.098416390373    -0.000769856757    0.174089597783    0.011139191559    -0.077062538176
            -0.024395763936    -0.072755544188    -0.000769823378    0.174089607931    -0.032324873780    -0.099669722683    -0.834087049922    -0.038951423184
            -0.000800578187    0.174070919020    0.011139191588    -0.077062509881    -0.834087049922    -0.038951423184    0.019198956716    -0.100622586821
0.325     -0.029291568773    -0.050523697482    -0.255593412894    0.790902930418    -0.010418056326    -0.022574081665    0.181318884517    0.056571975444
            -0.255593412894    0.790902930418    -0.014892546914    -0.031059559716    0.181328694562    0.056572362113    -0.009629380582    0.011304654484
            -0.010418051967    -0.022574082575    0.181328713982    0.056572333443    -0.028654092524    -0.051336484129    -0.256754778815    0.790416956950
            0.181318903937    0.056571946776    -0.009629374497    0.011304683313    -0.256754778815    0.790416956950    -0.014444313242    -0.030715638316
0.350     -0.033948801084    -0.073322492513    0.685484380625    0.449153478688    -0.015162256174    -0.061897840726    0.109483186231    -0.174653206838
            0.685484372785    0.449153490652    0.039243076897    -0.054040820543    0.109495202453    -0.174720699980    0.055440444651    -0.038023989827
            -0.015162255698    -0.061897838784    0.109495175008    -0.174720717179    -0.032983893663    -0.076708259762    0.684624722606    0.450052675742
            0.109483164108    -0.174653232508    0.055440475135    -0.038023901180    0.684624722104    0.450052658300    0.041748629062    -0.056192873294
0.375     -0.061893048808    -0.043253177810    0.611581554946    -0.533966254922    -0.047000566975    -0.021581183095    -0.145611814021    -0.161378866964
            0.611581556733    -0.533966237671    -0.027819962954    -0.070286028078    -0.145660516386    -0.161342912267    -0.030269016054    -0.038524017602
            -0.047000519719    -0.021581161396    -0.145660523087    -0.161342919689    -0.063743971731    -0.045373275687    0.612353142589    -0.532674721037
            -0.145611848886    -0.161378848974    -0.030269015436    -0.038524016816    0.612353133292    -0.532674731724    -0.028792085704    -0.072745804827
0.400     -0.050486207166    -0.034928788071    -0.350560332929    -0.723113205602    -0.018239295699    -0.029848210830    -0.210074069508    0.103365340613
            -0.350560337291    -0.723113214600    0.000144185661    -0.006433323536    -0.210114245938    0.103356732788    0.033371522669    0.021922893306
            -0.018239290489    -0.029848214013    -0.210114236872    0.103356773874    -0.050031284788    -0.036327207186    -0.349151723745    -0.723696647402
            -0.210074060440    0.103365381692    0.033371579141    0.021922971261    -0.349151719400    -0.723696638395    0.001169132328    -0.006796617247
0.425     -0.071400037062    -0.024089394063    -0.780091094712    0.141415689417    -0.068334341687    -0.027163010132    0.048859808938    0.242141494930
            -0.780091094712    0.141415689417    0.020192138004    -0.072766972755    0.049022364266    0.242209472153    0.003305199546    -0.064889995653
            -0.068334339828    -0.027163009393    0.049022391614    0.242209476821    -0.073203204224    -0.027726981275    -0.780112436900    0.139901976731
            0.048859836273    0.242141499616    0.003305197332    -0.064889996767    -0.780112436900    0.139901976731    0.019481715789    -0.076313705563
0.450     -0.067324065914    -0.003060500134    -0.071414371953    0.781357689103    -0.041564486139    0.007762102300    0.258771350666    0.021342207069
            -0.071414385591    0.781357687856    -0.051716014657    -0.022474378766    0.258742096343    0.021269403756    -0.032736577785    0.011426945403
            -0.041564390416    0.007762091931    0.258742098570    0.021269376661    -0.069806972060    -0.003211451304    -0.073188918049    0.780936405971
            0.258771362867    0.021342180792    -0.032736577785    0.011426945403    -0.073188918049    0.780936405971    -0.053797426751    -0.023926094465
0.475     -0.073567766381    0.001496669615    0.723471726610    0.270748597910    -0.052934086576    -0.024852863219    0.093928368484    -0.259583020022
            0.723471721884    0.270748610537    0.025726842198    -0.018711791819    0.093975240978    -0.259627961482    0.066730314842    -0.023325285339
            -0.052934081333    -0.024852872033    0.093975208130    -0.259627984007    -0.074102210393    -0.000480464986    0.722786391253    0.272342957282
            0.093928340173    -0.259583040901    0.066730355098    -0.023325264122    0.722786396006    0.272342944667    0.026625648964    -0.020306987783
0.500     -0.075047317135    0.025221702496    0.450713644762    -0.613848472351    -0.078927675340    0.026227502475    -0.234369822922    -0.164342570061
            0.450713644762    -0.613848472351    -0.044671955684    -0.068852244365    -0.234528663959    -0.164255586374    -0.042242307411    -0.065942531209
            -0.078927675340    0.026227502475    -0.234528663959    -0.164255586374    -0.078849354055    0.023826702424    0.451931340977    -0.612532114229
            -0.234369822922    -0.164342570061    -0.042242307411    -0.065942531209    0.451931340977    -0.612532114229    -0.046652671858    -0.072362454091
0.525     -0.064034594601    0.033094904179    -0.468249209113    -0.591560838349    -0.034996073830    0.020690033763    -0.234142118473    0.188160918876
            -0.468249202907    -0.591560830508    -0.027607328001    0.022994277922    -0.234051455795    0.188157049117    0.014108552070    0.037719588527
            -0.034995995664    0.020689979308    -0.234051455795    0.188157049117    -0.065139187048    0.034289937750    -0.466459430389    -0.592716518265
            -0.234142101222    0.188160972270    0.014108602430    0.037719602788    -0.466459424205    -0.592716510406    -0.029753233178    0.022606097345
0.550     -0.073037661952    0.046355222553    -0.680091135638    0.287828825229    -0.088572507626    0.017506263395    0.129366652304    0.287866164460
            -0.680091135638    0.287828825229    0.005877341931    -0.064616625530    0.129450980961    0.287956634853    0.026751068680    -0.093584532869
            -0.088572506645    0.017506263201    0.129451053571    0.287956635103    -0.074553533729    0.044658400011    -0.680746139649    0.286031692072
            0.129366652304    0.287866164460    0.026751065963    -0.093584535725    -0.680746148868    0.286031695945    0.005317727229    -0.066664697380
0.575     -0.055605160855    0.072506006667    0.087801514491    0.724403890236    -0.055477247022    0.085676841540    0.317996530257    -0.048269417769
            0.087801501848    0.724403891769    -0.091856338835    -0.008146203051    0.317933437799    -0.048475830577    -0.084567147325    0.000255403518
            -0.055477241586    0.085676833146    0.317933457473    -0.048475900577    -0.058522016969    0.074064006349    0.085631791198    0.724256874388
            0.317996535257    -0.048269451460    -0.084567051326    0.000255403228    0.085631817653    0.724256881330    -0.094966710553    -0.009918297519
0.600     -0.046826353452    0.062795858661    0.714452524219    0.101506123031    -0.041978232008    0.031547372778    0.044556630650    -0.337148482811
            0.714452510598    0.101506147810    0.018076334926    0.009108726093    0.044537855507    -0.337080516687    0.056109663054    -0.008567175776
            -0.041978193986    0.031547286882    0.044537794722    -0.337080554979    -0.046130901016    0.063679173027    0.714014821223    0.103890931659
            0.044556569853    -0.337148521107    0.056109667864    -0.008567184026    0.714014834746    0.103890908175    0.015976784086    0.009553914094
0.625     -0.054853868791    0.097914514909    0.283347154590    -0.639300447590    -0.095479351732    0.099750811591    -0.326384149778    -0.126741119098
            0.283347165748    -0.639300442644    -0.085340112774    -0.065767277281    -0.326503058732    -0.126640944673    -0.081117740807    -0.099406534903
            -0.095479324319    0.099750713246    -0.326503077379    -0.126640951906    -0.056578169299    0.097668770692    0.285228894593    -0.638297860267
            -0.326384159100    -0.126741122718    -0.081117706108    -0.099406563219    0.285228872312    -0.638297870224    -0.086623341614    -0.067261354684
0.650     -0.006442750771    0.102940219858    -0.533768269343    -0.450293148038    0.001694212828    0.112617006833    -0.217891325605    0.277904488876
            -0.533768261699    -0.450293141590    -0.060744889972    0.071910862140    -0.217662347118    0.277878533458    -0.049998023034    0.072144931251
            0.001694206781    0.112616996923    -0.217662323285    0.277878602937    -0.006523908834    0.105486954861    -0.531822005493    -0.452001755837
            -0.217891295612    0.277904550514    -0.049998009303    0.072144938334    -0.531822020733    -0.452001768789    -0.064308279488    0.071583547510
0.675     -0.036043571408    0.090048484641    -0.554956271169    0.396044804402    -0.066396470482    0.065441124534    0.227824736624    0.303036856740
            -0.554956340292    0.396044707544    -0.013886285535    -0.053082703459    0.227847915050    0.303035907249    -0.000506968002    -0.089568564264
            -0.066396484805    0.065441070114    0.227847953515    0.303035903351    -0.034891646150    0.089298328898    -0.556516843981    0.393944027710
            0.227824807541    0.303036840956    -0.000506975835    -0.089568567220    -0.556516843981    0.393944027710    -0.015169214748    -0.051724567860
0.700     0.001758193862    0.148314469112    0.207526749945    0.625124843221    -0.024173093795    0.183964363069    0.343613598648    -0.148511685511
            0.207526749945    0.625124843221    -0.143761093050    0.041736231126    0.343472313981    -0.148705106366    -0.163721150266    0.024028397577
            -0.024173093795    0.183964363069    0.343472313981    -0.148705106366    0.001039146666    0.148882343604    0.205219737349    0.625725338000
            0.343613598648    -0.148511685511    -0.163721150266    0.024028397577    0.205219737349    0.625725338000    -0.145231254685    0.040802070554
0.725     0.038159280465    0.082888560080    0.668386136649    -0.035107578234    0.046256693514    0.083984657640    -0.031012470537    -0.384859981111
            0.668386127521    -0.035107561378    0.011471653180    0.068946879686    -0.030979374117    -0.384620726180    0.015971347590    0.058788664036
            0.046256691083    0.083984656695    -0.030979374117    -0.384620726180    0.040540532041    0.083753482714    0.668310521135    -0.032139086580
            -0.031012504926    -0.384859988373    0.015971349118    0.058788661549    0.668310521191    -0.032139085413    0.008114803681    0.070091951211
0.750     -0.014527929469    0.139451378403    0.125765837539    -0.619169370634    -0.053454202396    0.154771948598    -0.407171157047    -0.053401381423
            0.125765837539    -0.619169370634    -0.126217954901    -0.023599547797    -0.407235544569    -0.053322636303    -0.138434995986    -0.053741321129
            -0.053454236835    0.154771873226    -0.407235544569    -0.053322636303    -0.013536445605    0.137390418652    0.128547044434    -0.618893602394
            -0.407171157047    -0.053401381423    -0.138434939880    -0.053741382756    0.128547044434    -0.618893602394    -0.125846509340    -0.022063468031
0.775     0.097715654838    0.138244948143    -0.541681889505    -0.314626923812    0.106270852947    0.183448831730    -0.154631445868    0.356320448264
            -0.541681872211    -0.314626913767    -0.082268484480    0.157175561978    -0.154353527068    0.356146483119    -0.108284239533    0.152189632064
            0.106270849745    0.183448833584    -0.154353527068    0.356146483119    0.098407085911    0.138144512137    -0.540342352258    -0.316865124033
