!$
! Info: Touchstone file created by Circ.  Input file=Intel_C2M_200G_8p0in_202208016_staggered.circ
!$
# Hz S RI R 50
0	0.02690852	3.98342e-24	8.039447e-05	1.170094e-22	0.0001231544	3.084641e-22	8.038759e-05	1.168155e-22
	8.039448e-05	1.170094e-22	0.02692136	4.349625e-24	8.039887e-05	1.171124e-22	0.0001227541	3.058835e-22
	0.000123211	3.085888e-22	8.039886e-05	1.171138e-22	0.02690345	4.168503e-24	8.038993e-05	1.169058e-22
	8.038758e-05	1.168169e-22	0.0001228108	3.060093e-22	8.038993e-05	1.169058e-22	0.02691934	4.117015e-24
1e+07	0.03262914	0.008955592	8.701158e-06	3.420439e-05	0.002197619	0.00673217	1.3011e-05	2.633654e-05
	8.701162e-06	3.420441e-05	0.03292578	0.00915372	8.994176e-06	5.855946e-05	0.002203418	0.006787976
	0.002197619	0.00673217	8.994176e-06	5.855946e-05	0.03290227	0.009202416	8.802039e-06	3.550219e-05
	1.3011e-05	2.633654e-05	0.002203418	0.006787976	8.802039e-06	3.550219e-05	0.03266178	0.008988897
2e+07	0.03917044	0.01277906	1.532819e-05	2.871198e-05	0.004914	0.01229633	7.595896e-06	1.993231e-05
	1.53282e-05	2.871202e-05	0.03963306	0.01298018	5.392826e-05	6.705757e-05	0.004926613	0.0124057
	0.004914008	0.01229632	5.392826e-05	6.705757e-05	0.03961532	0.01307935	1.676544e-05	3.072278e-05
	7.595896e-06	1.993231e-05	0.004926622	0.01240569	1.676543e-05	3.072278e-05	0.03921991	0.01283734
3e+07	0.04471182	0.01374988	2.650993e-05	2.345367e-05	0.008912091	0.0171096	1.041288e-05	1.746542e-05
	2.650993e-05	2.345366e-05	0.04529553	0.01389316	8.795166e-05	5.877873e-05	0.008934578	0.01726863
	0.008912072	0.01710964	8.795166e-05	5.877873e-05	0.04528405	0.01404998	2.896422e-05	2.544963e-05
	1.041288e-05	1.746542e-05	0.008934559	0.01726867	2.896423e-05	2.544963e-05	0.04477989	0.01383522
4e+07	0.04935292	0.01329334	3.456312e-05	1.639582e-05	0.01400715	0.02072975	1.54498e-05	1.315514e-05
	3.456313e-05	1.639582e-05	0.05002505	0.01334908	0.0001132127	4.165327e-05	0.01404079	0.02093347
	0.01400715	0.02072977	0.0001132127	4.165327e-05	0.05003197	0.01355809	3.784331e-05	1.810564e-05
	1.54498e-05	1.315514e-05	0.01404079	0.02093349	3.784331e-05	1.810563e-05	0.04945002	0.01339621
5e+07	0.05324693	0.01198593	3.978513e-05	8.104615e-06	0.01987512	0.02297385	1.879176e-05	8.206161e-06
	3.978513e-05	8.104614e-06	0.05397931	0.01193613	0.0001306623	1.917117e-05	0.0199194	0.0232168
	0.01987513	0.02297385	0.0001306623	1.917117e-05	0.05401041	0.01219088	4.373698e-05	9.347691e-06
	1.879176e-05	8.20616e-06	0.01991941	0.02321681	4.373698e-05	9.34769e-06	0.05337715	0.01209775
6e+07	0.05647436	0.01012626	4.234841e-05	-8.016797e-07	0.0261786	0.0236986	2.048978e-05	2.962424e-06
	4.234841e-05	-8.016782e-07	0.05724119	0.009959993	0.0001407378	-6.470688e-06	0.02623101	0.02397535
	0.02617861	0.02369858	0.0001407378	-6.470687e-06	0.05730013	0.01025307	4.68314e-05	-1.645224e-07
	2.048978e-05	2.962425e-06	0.02623102	0.02397534	4.68314e-05	-1.645209e-07	0.05664044	0.01023872
7e+07	0.05911291	0.007943069	4.24125e-05	-9.772088e-06	0.03255188	0.02283999	2.065176e-05	-2.240762e-06
	4.24125e-05	-9.772087e-06	0.05988995	0.007654159	0.0001436612	-3.365657e-05	0.03260797	0.02314576
	0.03255188	0.02283998	0.0001436612	-3.365657e-05	0.05997796	0.00797704	4.729106e-05	-9.857193e-06
	2.065176e-05	-2.240762e-06	0.03260796	0.02314575	4.729106e-05	-9.857193e-06	0.05931641	0.008047077
8e+07	0.06127343	0.00560336	4.016532e-05	-1.834296e-05	0.03862452	0.02041708	1.940659e-05	-7.106623e-06
	4.016532e-05	-1.834296e-05	0.06203725	0.005188839	0.0001396351	-6.107541e-05	0.03867801	0.02074832
	0.03862452	0.02041708	0.0001396351	-6.107541e-05	0.06215297	0.005532788	4.527586e-05	-1.925805e-05
	1.940659e-05	-7.106623e-06	0.03867801	0.02074832	4.527586e-05	-1.925805e-05	0.06151471	0.005689332
9e+07	0.06309097	0.003209638	3.573027e-05	-2.617534e-05	0.04403968	0.01652987	1.686441e-05	-1.139766e-05
	3.573027e-05	-2.617534e-05	0.06381737	0.00266789	0.0001286338	-8.779138e-05	0.04408286	0.01688484
	0.04403969	0.01652988	0.0001286338	-8.779138e-05	0.06395625	0.003025065	4.088582e-05	-2.802505e-05
	1.686441e-05	-1.139767e-05	0.04408287	0.01688484	4.088582e-05	-2.802505e-05	0.06336851	0.003267734
1e+08	0.06476594	0.0008359158	2.844717e-05	-3.335485e-05	0.04847184	0.01135019	1.271647e-05	-1.505294e-05
	2.844717e-05	-3.335485e-05	0.06541899	0.0001582791	0.0001079883	-0.0001144816	0.04849605	0.01172943
	0.04847184	0.01135019	0.0001079883	-0.0001144816	0.06557356	0.000522976	3.334661e-05	-3.632017e-05
	1.271647e-05	-1.505294e-05	0.04849605	0.01172943	3.334661e-05	-3.632017e-05	0.06507713	0.0008566114
1.1e+08	0.06634307	-0.001955725	1.905165e-05	-3.473845e-05	0.05161951	0.0051135	7.803623e-06	-1.537947e-05
	1.905165e-05	-3.473845e-05	0.06687273	-0.002703202	7.773085e-05	-0.0001234759	0.05161571	0.005520531
	0.05161951	0.005113498	7.773085e-05	-0.0001234759	0.06705667	-0.002390293	2.316116e-05	-3.838465e-05
	7.803623e-06	-1.537947e-05	0.05161571	0.005520529	2.316116e-05	-3.838465e-05	0.0667	-0.002040363
1.2e+08	0.06757473	-0.004863022	1.192294e-05	-3.416154e-05	0.05325975	-0.001815438	4.266851e-06	-1.467371e-05
	1.192294e-05	-3.416154e-05	0.0680043	-0.005649248	5.642648e-05	-0.000124036	0.05321964	-0.001374631
	0.05325974	-0.00181544	5.642648e-05	-0.000124036	0.06815874	-0.005352173	1.534835e-05	-3.823021e-05
	4.266852e-06	-1.467371e-05	0.05321964	-0.001374632	1.534835e-05	-3.823021e-05	0.06791645	-0.005022454
1.3e+08	0.06860816	-0.007879971	7.673766e-06	-3.211061e-05	0.05326813	-0.00909885	1.341694e-06	-1.366159e-05
	7.673767e-06	-3.211061e-05	0.06894912	-0.008690108	4.886054e-05	-0.000117211	0.05318468	-0.00861574
	0.05326813	-0.009098851	4.886054e-05	-0.000117211	0.06906797	-0.008377113	1.101263e-05	-3.618972e-05
	1.341694e-06	-1.366159e-05	0.05318468	-0.008615741	1.101263e-05	-3.618972e-05	0.0689263	-0.008089317
1.4e+08	0.06947771	-0.01105909	5.866932e-06	-2.895872e-05	0.05159012	-0.01636909	-1.107937e-06	-1.241058e-05
	5.866932e-06	-2.895872e-05	0.06973898	-0.01188357	4.106572e-05	-0.0001109297	0.0514582	-0.0158329
	0.05159011	-0.01636909	4.106573e-05	-0.0001109297	0.0698295	-0.011542	8.940392e-06	-3.310319e-05
	-1.107936e-06	-1.241058e-05	0.0514582	-0.0158329	8.940392e-06	-3.310319e-05	0.06977526	-0.01131357
1.5e+08	0.07017183	-0.01446078	4.328501e-06	-2.619915e-05	0.04824981	-0.02325107	-1.81011e-06	-1.050147e-05
	4.328501e-06	-2.619915e-05	0.07036065	-0.01529331	3.349986e-05	-0.0001046331	0.04806687	-0.02264917
	0.04824981	-0.02325107	3.349986e-05	-0.0001046331	0.0704274	-0.01492005	7.080168e-06	-3.017974e-05
	-1.81011e-06	-1.050147e-05	0.04806686	-0.02264917	7.080169e-06	-3.017974e-05	0.07044645	-0.01476543
1.6e+08	0.07064145	-0.01813954	3.046793e-06	-2.350575e-05	0.0433516	-0.0293804	-2.027765e-06	-8.693491e-06
	3.046793e-06	-2.350575e-05	0.07076343	-0.01897602	2.637043e-05	-9.818584e-05	0.04311814	-0.028699
	0.0433516	-0.0293804	2.637043e-05	-9.818584e-05	0.07080645	-0.01857019	5.492353e-06	-2.748212e-05
	-2.027765e-06	-8.693491e-06	0.04311814	-0.028699	5.492354e-06	-2.748212e-05	0.07088324	-0.01850118
1.7e+08	0.07080553	-0.02213338	2.063262e-06	-2.087521e-05	0.03707658	-0.0344207	-2.075669e-06	-7.177132e-06
	2.063263e-06	-2.087521e-05	0.07086439	-0.02297066	1.982313e-05	-9.153799e-05	0.03679663	-0.03364548
	0.03707658	-0.0344207	1.982313e-05	-9.153799e-05	0.07088117	-0.02252958	4.184553e-06	-2.483266e-05
	-2.075669e-06	-7.177132e-06	0.03679663	-0.03364548	4.184553e-06	-2.483266e-05	0.07099867	-0.02255523
1.8e+08	0.07055747	-0.02645335	1.392135e-06	-1.833965e-05	0.02967559	-0.03807955	-1.953529e-06	-5.757242e-06
	1.392135e-06	-1.833965e-05	0.07055558	-0.02728929	1.396291e-05	-8.469531e-05	0.02935685	-0.03719663
	0.02967559	-0.03807955	1.396291e-05	-8.469531e-05	0.07054338	-0.02680715	3.178122e-06	-2.225402e-05
	-1.953529e-06	-5.757242e-06	0.02935685	-0.03719663	3.178123e-06	-2.225402e-05	0.07068291	-0.02693294
1.9e+08	0.06977388	-0.0310762	1.03157e-06	-1.593198e-05	0.0214588	-0.04012285	-1.665549e-06	-4.452289e-06
	1.03157e-06	-1.593198e-05	0.069712	-0.0319086	8.865744e-06	-7.769746e-05	0.02111269	-0.03911965
	0.0214588	-0.04012285	8.865744e-06	-7.769746e-05	0.06967006	-0.03137678	2.477439e-06	-1.977451e-05
	-1.665549e-06	-4.452289e-06	0.02111269	-0.03911965	2.477439e-06	-1.977451e-05	0.06981198	-0.03160438
2e+08	0.06832533	-0.03593786	9.692084e-07	-1.368878e-05	0.01278218	-0.04038606	-1.222102e-06	-3.282409e-06
	9.692085e-07	-1.368878e-05	0.06820293	-0.0367637	4.583935e-06	-7.060824e-05	0.01242356	-0.03925229
	0.01278218	-0.04038606	4.583935e-06	-7.060824e-05	0.0681339	-0.03617283	2.076131e-06	-1.742716e-05
	-1.222102e-06	-3.282409e-06	0.01242356	-0.03925229	2.076131e-06	-1.742716e-05	0.06825822	-0.03649978
2.1e+08	0.06608955	-0.04093106	1.180561e-06	-1.164479e-05	0.004032206	-0.03878269	-6.394406e-07	-2.267534e-06
	1.180561e-06	-1.164479e-05	0.06590518	-0.04174609	1.147911e-06	-6.350753e-05	0.003678956	-0.03751121
	0.004032206	-0.03878269	1.147911e-06	-6.350753e-05	0.0658151	-0.04108676	1.956396e-06	-1.524496e-05
	-6.394406e-07	-2.267534e-06	0.003678956	-0.03751121	1.956396e-06	-1.524496e-05	0.06590233	-0.04150617
2.2e+08	0.06296318	-0.04590637	1.633883e-06	-9.832434e-06	-0.004391067	-0.03530943	6.095254e-08	-1.426254e-06
	1.633883e-06	-9.832434e-06	0.06271513	-0.04670459	-1.431657e-06	-5.648614e-05	-0.004718813	-0.03389712
	-0.004391067	-0.03530943	-1.431657e-06	-5.648614e-05	0.06261378	-0.04596937	2.093086e-06	-1.325994e-05
	6.095255e-08	-1.426254e-06	-0.004718813	-0.03389712	2.093086e-06	-1.325994e-05	0.06264593	-0.04646983
2.3e+08	0.0588753	-0.05067692	2.289158e-06	-8.276732e-06	-0.01209195	-0.03004791	8.528366e-07	-7.746821e-07
	2.289158e-06	-8.276732e-06	0.05856228	-0.05145034	-3.170132e-06	-4.963607e-05	-0.01237265	-0.02849625
	-0.01209195	-0.03004791	-3.170132e-06	-4.963607e-05	0.05846173	-0.05063522	2.454241e-06	-1.150142e-05
	8.528366e-07	-7.746821e-07	-0.01237265	-0.02849625	2.454241e-06	-1.150142e-05	0.05842335	-0.05120099
2.4e+08	0.05379836	-0.05502629	3.104004e-06	-7.001976e-06	-0.01869623	-0.0231623	1.705686e-06	-3.249218e-07
	3.104004e-06	-7.001976e-06	0.05342033	-0.055765	-4.086499e-06	-4.30594e-05	-0.01890809	-0.02147783
	-0.01869623	-0.0231623	-4.086499e-06	-4.30594e-05	0.05333405	-0.05486928	3.000954e-06	-9.993484e-06
	1.705686e-06	-3.249218e-07	-0.01890809	-0.02147783	3.000954e-06	-9.993483e-06	0.05321334	-0.05548078
2.5e+08	0.04775727	-0.05871927	4.029668e-06	-6.023877e-06	-0.02386854	-0.01489358	2.585555e-06	-8.444099e-08
	4.029668e-06	-6.023877e-06	0.04731628	-0.05941169	-4.229258e-06	-3.685002e-05	-0.02399064	-0.01308805
	-0.02386854	-0.01489358	-4.229258e-06	-3.685002e-05	0.0472576	-0.0584393	3.689684e-06	-8.752314e-06
	2.585555e-06	-8.4441e-08	-0.02399064	-0.01308805	3.689684e-06	-8.752314e-06	0.04704744	-0.05907382
2.6e+08	0.04083529	-0.06151575	5.013956e-06	-5.349292e-06	-0.02732802	-0.005550663	3.456048e-06	-5.468501e-08
	5.013956e-06	-5.349292e-06	0.04033617	-0.06214914	-3.657866e-06	-3.110408e-05	-0.02734164	-0.003640887
	-0.02732802	-0.005550663	-3.657866e-06	-3.110408e-05	0.04031711	-0.0611075	4.474501e-06	-7.791425e-06
	3.456048e-06	-5.468501e-08	-0.02734164	-0.003640886	4.474501e-06	-7.791425e-06	0.04001598	-0.06174032
2.7e+08	0.03317662	-0.06318517	6.003232e-06	-4.976667e-06	-0.02886103	0.004502184	4.279463e-06	-2.305442e-07
	6.003232e-06	-4.976667e-06	0.03262755	-0.0637465	-2.452432e-06	-2.590678e-05	-0.02875082	0.00649473
	-0.02886103	0.004502184	-2.452432e-06	-2.590678e-05	0.03265772	-0.06264645	5.305972e-06	-7.11551e-06
	4.279463e-06	-2.305442e-07	-0.02875082	0.00649473	5.305972e-06	-7.11551e-06	0.03227025	-0.06325219
2.8e+08	0.02498578	-0.06352228	6.943967e-06	-4.89539e-06	-0.02833254	0.01485998	5.01825e-06	-5.99681e-07
	6.943967e-06	-4.89539e-06	0.02439862	-0.06399906	-7.089046e-07	-2.133027e-05	-0.02808767	0.01690994
	-0.02833254	0.01485998	-7.089046e-07	-2.133027e-05	0.02448414	-0.0628543	6.133483e-06	-6.720539e-06
	5.01825e-06	-5.99681e-07	-0.02808767	0.01690994	6.133483e-06	-6.720539e-06	0.02402141	-0.06340837
2.9e+08	0.01652161	-0.06236267	7.784373e-06	-5.085437e-06	-0.02569353	0.02509398	5.636682e-06	-1.142269e-06
	7.784373e-06	-5.085437e-06	0.01591195	-0.06274417	1.464236e-06	-1.743109e-05	-0.02530862	0.02717309
	-0.02569353	0.02509398	1.464236e-06	-1.743109e-05	0.01605513	-0.06156936	6.906931e-06	-6.593694e-06
	5.636682e-06	-1.142269e-06	-0.02530862	0.02717309	6.906931e-06	-6.593694e-06	0.01553452	-0.06204966
3e+08	0.008088742	-0.05959671	8.47615e-06	-5.517499e-06	-0.02098429	0.03476983	6.10255e-06	-1.831173e-06
	8.47615e-06	-5.517499e-06	0.007475587	-0.059875	3.94881e-06	-1.424762e-05	-0.02046012	0.03684813
	-0.02098429	0.03476983	3.94881e-06	-1.424762e-05	0.007674352	-0.0586851	7.578331e-06	-6.713164e-06
	6.10255e-06	-1.831173e-06	-0.02046012	0.03684813	7.578331e-06	-6.713164e-06	0.007119053	-0.05907355
3.1e+08	2.4683e-05	-0.05518134	8.97656e-06	-6.1534e-06	-0.01433509	0.04346663	6.389052e-06	-2.632578e-06
	8.97656e-06	-6.1534e-06	-0.0005701476	-0.05535231	6.620714e-06	-1.179808e-05	-0.01367901	0.04551389
	-0.01433509	0.04346663	6.620714e-06	-1.179808e-05	-0.0003215401	-0.054161	8.103891e-06	-7.048396e-06
	6.389052e-06	-2.632578e-06	-0.01367901	0.04551389	8.103891e-06	-7.048396e-06	-0.0008834902	-0.05444505
3.2e+08	-0.007315071	-0.04914857	9.250249e-06	-6.946995e-06	-0.00596175	0.0507954	6.476388e-06	-3.507116e-06
	9.250249e-06	-6.946995e-06	-0.007867795	-0.04921278	9.353462e-06	-1.007904e-05	-0.00518773	0.05278253
	-0.00596175	0.0507954	9.353462e-06	-1.007904e-05	-0.007578999	-0.04803259	8.44567e-06	-7.560602e-06
	6.476388e-06	-3.507116e-06	-0.00518773	0.05278253	8.44567e-06	-7.560602e-06	-0.008116051	-0.04820639
3.3e+08	-0.01357511	-0.04161093	9.271032e-06	-7.845466e-06	0.003842322	0.05641615	6.353095e-06	-4.411438e-06
	9.271032e-06	-7.845466e-06	-0.01406117	-0.0415743	1.202271e-05	-9.065006e-06	0.00471379	0.05831667
	0.003842322	0.05641615	1.202271e-05	-9.065006e-06	-0.01374453	-0.04041452	8.573504e-06	-8.203895e-06
	6.353095e-06	-4.411438e-06	0.00471379	0.05831667	8.573504e-06	-8.203895e-06	-0.01422323	-0.04047988
3.4e+08	-0.0184184	-0.0327624	9.023552e-06	-8.791234e-06	0.0147174	0.06005423	6.017125e-06	-5.300234e-06
	9.023552e-06	-8.791234e-06	-0.01881373	-0.03263638	1.451089e-05	-8.708757e-06	0.01565999	0.06184567
	0.0147174	0.06005423	1.451089e-05	-8.708757e-06	-0.01848429	-0.03150298	8.466793e-06	-8.92682e-06
	6.017125e-06	-5.300234e-06	0.01565999	0.06184567	8.466793e-06	-8.92682e-06	-0.01887107	-0.03146975
3.5e+08	-0.02154567	-0.0228743	8.504329e-06	-9.724238e-06	0.02625219	0.06151208	5.476144e-06	-6.128399e-06
	8.504329e-06	-9.724238e-06	-0.021828	-0.02267595	1.671114e-05	-8.942847e-06	0.02723447	0.06317722
	0.02625219	0.06151208	1.671114e-05	-8.942847e-06	-0.02150156	-0.02157083	8.115652e-06	-9.674402e-06
	5.476144e-06	-6.128399e-06	0.02723447	0.06317722	8.115652e-06	-9.674403e-06	-0.02176466	-0.02145704
3.6e+08	-0.02271284	-0.01228748	7.722439e-06	-1.058454e-05	0.03800072	0.06067952	4.74745e-06	-6.853396e-06
	7.722439e-06	-1.058454e-05	-0.022863	-0.01203906	1.85316e-05	-9.681882e-06	0.03898727	0.06220754
	0.03800072	0.06067952	1.85316e-05	-9.681882e-06	-0.02255621	-0.01096029	7.521854e-06	-1.03905e-05
	4.74745e-06	-6.853396e-06	0.03898727	0.06220754	7.521854e-06	-1.03905e-05	-0.02266754	-0.01079169
3.7e+08	-0.02174782	-0.001400056	6.699363e-06	-1.131514e-05	0.04950159	0.05753895	3.857078e-06	-7.437478e-06
	6.699363e-06	-1.131514e-05	-0.02175096	-0.001128399	1.98987e-05	-1.082579e-05	0.05045434	0.05892628
	0.04950159	0.05753895	1.98987e-05	-1.082579e-05	-0.02147987	-6.976024e-05	6.698897e-06	-1.10205e-05
	3.857078e-06	-7.437478e-06	0.05045434	0.05892628	6.698897e-06	-1.10205e-05	-0.02141679	0.0001209044
3.8e+08	-0.01856277	0.009348499	5.468241e-06	-1.186469e-05	0.06029691	0.05216647	2.838458e-06	-7.849567e-06
	5.468241e-06	-1.186469e-05	-0.01840937	0.009612883	2.075966e-05	-1.226376e-05	0.06117659	0.05341737
	0.06029691	0.05216647	2.075966e-05	-1.226376e-05	-0.01818823	0.01066153	5.671546e-06	-1.15138e-05
	2.838458e-06	-7.849567e-06	0.06117659	0.05341737	5.671546e-06	-1.15138e-05	-0.01793511	0.0108358
3.9e+08	-0.0131641	0.01949511	4.072428e-06	-1.21901e-05	0.06995195	0.04473011	1.730628e-06	-8.066813e-06
	4.072428e-06	-1.21901e-05	-0.01285076	0.01971909	2.10844e-05	-1.387842e-05	0.07071969	0.04585698
	0.06995195	0.04473011	2.10844e-05	-1.387842e-05	-0.01269223	0.02077199	4.474826e-06	-1.182643e-05
	1.730628e-06	-8.066813e-06	0.07071969	0.04585698	4.474826e-06	-1.182643e-05	-0.01224181	0.0208871
4e+08	-0.005657905	0.02857534	2.563336e-06	-1.225864e-05	0.07807347	0.03548187	5.76005e-07	-8.075483e-06
	2.563336e-06	-1.225864e-05	-0.005188003	0.02872441	2.086607e-05	-1.555078e-05	0.07869251	0.03650521
	0.07807347	0.03548187	2.086607e-05	-1.555078e-05	-0.00510067	0.02979919	3.15205e-06	-1.192309e-05
	5.76005e-07	-8.075483e-06	0.07869251	0.03650521	3.15205e-06	-1.192309e-05	-0.00445498	0.02980984
4.1e+08	0.003749937	0.03614507	9.979255e-07	-1.204949e-05	0.0843257	0.02474805	-5.818103e-07	-7.871347e-06
	9.979255e-07	-1.204949e-05	0.004365906	0.03618463	2.012089e-05	-1.716482e-05	0.08476309	0.02569614
	0.0843257	0.02474805	2.012089e-05	-1.716482e-05	0.004377414	0.0373012	1.752812e-06	-1.177883e-05
	-5.818104e-07	-7.871348e-06	0.08476309	0.02569614	1.752812e-06	-1.177883e-05	0.005206301	0.03716155
4.2e+08	0.01475727	0.04180032	-5.642473e-07	-1.155452e-05	0.08844464	0.01291558	-1.700254e-06	-7.459378e-06
	-5.642473e-07	-1.155452e-05	0.01550154	0.04169714	1.888682e-05	-1.861159e-05	0.08867283	0.01382371
	0.08844464	0.01291558	1.888682e-05	-1.861159e-05	0.01543736	0.04287738	3.30335e-07	-1.137991e-05
	-1.700254e-06	-7.459378e-06	0.08867283	0.01382371	3.30335e-07	-1.137991e-05	0.01642708	0.04254306
4.3e+08	0.02697532	0.04520052	-2.063951e-06	-1.077835e-05	0.09024767	0.0004155371	-2.739813e-06	-6.852948e-06
	-2.063951e-06	-1.077835e-05	0.02782288	0.04492412	1.722136e-05	-1.979367e-05	0.09024607	0.001324994
	0.09024767	0.0004155371	1.722136e-05	-1.979367e-05	0.02768904	0.04619067	-1.061183e-06	-1.072427e-05
	-2.739813e-06	-6.852948e-06	0.09024607	0.001324994	-1.061183e-06	-1.072427e-05	0.028807	0.04562107
4.4e+08	0.03994205	0.04608592	-3.445036e-06	-9.737766e-06	0.08964059	-0.01229361	-3.665576e-06	-6.072619e-06
	-3.445036e-06	-9.737766e-06	0.04086103	0.04561009	1.519874e-05	-2.062823e-05	0.08939686	-0.01133701
	0.08964059	-0.01229361	1.519874e-05	-2.062823e-05	0.04066916	0.04698469	-2.369044e-06	-9.821034e-06
	-3.665576e-06	-6.072619e-06	0.08939686	-0.01133701	-2.369044e-06	-9.821034e-06	0.04187309	0.04614519
4.5e+08	0.05313824	0.04429313	-4.656952e-06	-8.460265e-06	0.08662076	-0.02474492	-4.448446e-06	-5.144606e-06
	-4.656952e-06	-8.460265e-06	0.05409042	0.04359744	1.290666e-05	-2.104961e-05	0.08613174	-0.02369244
	0.08662076	-0.02474492	1.290666e-05	-2.104961e-05	0.05385836	0.04509973	-3.544427e-06	-8.689624e-06
	-4.448446e-06	-5.144606e-06	0.08613174	-0.02369244	-3.544427e-06	-8.689624e-06	0.0550973	0.04396389
4.6e+08	0.06600911	0.03976765	-5.6567e-06	-6.98231e-06	0.08127569	-0.03648077	-5.065841e-06	-4.099158e-06
	-5.6567e-06	-6.98231e-06	0.06695086	0.03883896	1.044234e-05	-2.101143e-05	0.08054817	-0.0352828
	0.08127569	-0.03648077	1.044234e-05	-2.101143e-05	0.06670281	0.04048485	-4.54429e-06	-7.358349e-06
	-5.065841e-06	-4.099158e-06	0.08054817	-0.0352828	-4.54429e-06	-7.358349e-06	0.06791857	0.0390366
4.7e+08	0.07798815	0.03257254	-6.410264e-06	-5.347207e-06	0.07377882	-0.04707069	-5.501928e-06	-2.9689e-06
	-6.410264e-06	-5.347207e-06	0.07887172	0.03140639	7.908789e-06	-2.04876e-05	0.07282963	-0.04567875
	0.07377882	-0.04707069	7.908789e-06	-2.04876e-05	0.07863598	0.03320572	-5.332728e-06	-5.862586e-06
	-5.501928e-06	-2.9689e-06	0.07282963	-0.04567875	-5.332728e-06	-5.862586e-06	0.07976519	0.03144119
4.8e+08	0.08851994	0.02288837	-6.893329e-06	-3.602675e-06	0.06438179	-0.05612616	-5.747423e-06	-1.787345e-06
	-6.893329e-06	-3.602675e-06	0.08929506	0.0214903	5.410788e-06	-1.947254e-05	0.0632376	-0.05449504
	0.06438179	-0.05612616	5.410788e-06	-1.947254e-05	0.0891043	0.02344669	-5.881926e-06	-4.243001e-06
