!$
! Info: Touchstone file created by Circ.  Input file=Intel_C2M_200G_8p0in_202208016_staggered.circ
!$
# Hz S RI R 50
0	0.02692136	4.349625e-24	0.9728801	-7.446177e-24	0.0001227541	3.058835e-22	-0.0002526545	3.094125e-20
	0.9728801	-7.443211e-24	0.02747268	7.878544e-24	-0.0002527101	3.094806e-20	0.000344639	9.795928e-22
	0.0001228108	3.060093e-22	-0.0002528453	3.096462e-20	0.02691934	4.117015e-24	0.9728804	-7.58963e-24
	-0.0002527897	3.095781e-20	0.0003447048	9.802876e-22	0.9728804	-7.592605e-24	0.02747411	8.059708e-24
1e+07	0.03292578	0.00915372	0.9604425	-0.1194161	0.002203418	0.006787976	-0.001441453	-0.0008472351
	0.9604425	-0.1194161	0.03345833	0.008837806	-0.001441885	-0.0008468361	0.002033191	0.006844904
	0.002203418	0.006787976	-0.001441885	-0.0008468361	0.03266178	0.008988897	0.9607173	-0.1192279
	-0.001441453	-0.0008472351	0.002033191	0.006844904	0.9607173	-0.1192279	0.03318155	0.008681873
2e+07	0.03963306	0.01298018	0.9342582	-0.231751	0.004926613	0.0124057	-0.001930427	-0.0009464676
	0.9342582	-0.231751	0.04176155	0.01196659	-0.001931099	-0.000944716	0.004228716	0.0127257
	0.004926622	0.01240569	-0.001931105	-0.0009448252	0.03921991	0.01283734	0.9347074	-0.2315788
	-0.001930432	-0.0009465706	0.004228807	0.01272559	0.9347074	-0.2315788	0.04130934	0.0118719
3e+07	0.04529553	0.01389316	0.8968401	-0.3379489	0.008934578	0.01726863	-0.002412571	-0.0009171912
	0.8968401	-0.3379489	0.04929868	0.01123751	-0.002412693	-0.0009135321	0.007550883	0.01795674
	0.008934559	0.01726867	-0.002412735	-0.0009135259	0.04477989	0.01383522	0.8974102	-0.337862
	-0.002412585	-0.0009171949	0.007550858	0.01795671	0.8974102	-0.337862	0.04874753	0.01127371
4e+07	0.05002505	0.01334908	0.8483375	-0.4381231	0.01404079	0.02093347	-0.00285012	-0.0007392144
	0.8483375	-0.4381231	0.05640461	0.008348553	-0.002848521	-0.0007337579	0.01174996	0.02236559
	0.01404079	0.02093349	-0.002848526	-0.000733753	0.04945002	0.01339621	0.8489879	-0.4381552
	-0.00285012	-0.0007392008	0.01174996	0.0223656	0.8489879	-0.4381552	0.05580791	0.008546466
5e+07	0.05397931	0.01193613	0.7893296	-0.5314098	0.0199194	0.0232168	-0.003208999	-0.0004365706
	0.7893296	-0.5314098	0.06288098	0.003572248	-0.003204693	-0.0004301035	0.01664761	0.02577545
	0.01991941	0.02321681	-0.003204691	-0.0004301044	0.05337715	0.01209775	0.790023	-0.5315816
	-0.003208996	-0.000436572	0.01664761	0.02577546	0.790023	-0.5315816	0.06229136	0.003942646
6e+07	0.05724119	0.009959993	0.7205982	-0.6168534	0.02623101	0.02397535	-0.00346297	-4.789843e-05
	0.7205982	-0.6168534	0.06845752	-0.002800881	-0.003455358	-4.155909e-05	0.02200509	0.02808086
	0.02623102	0.02397534	-0.003455355	-4.156033e-05	0.05664044	0.01023872	0.7212977	-0.6171762
	-0.003462967	-4.789905e-05	0.02200509	0.02808086	0.7212977	-0.6171762	0.06792409	-0.002262205
7e+07	0.05988995	0.007654159	0.6430579	-0.6935356	0.03260797	0.02314576	-0.003601261	0.0003849745
	0.6430579	-0.6935356	0.07291497	-0.01049128	-0.00359019	0.0003896939	0.02757171	0.02923378
	0.03260796	0.02314575	-0.003590156	0.0003896328	0.05931641	0.008047077	0.6437257	-0.6940134
	-0.003601258	0.0003849719	0.02757172	0.02923378	0.6437257	-0.6940134	0.07248129	-0.009800846
8e+07	0.06203725	0.005188839	0.5577286	-0.7606183	0.03867801	0.02074832	-0.003626254	0.000822468
	0.5577286	-0.7606183	0.07606908	-0.01922201	-0.003612231	0.0008240386	0.03309489	0.02924184
	0.03867801	0.02074832	-0.003612232	0.0008240412	0.06151471	0.005689332	0.5583284	-0.7612495
	-0.003626255	0.0008224706	0.03309489	0.02924184	0.5583284	-0.7612495	0.0757727	-0.01840604
9e+07	0.06381737	0.00266789	0.4657125	-0.8173691	0.04408286	0.01688484	-0.003551648	0.001230644
	0.4657124	-0.8173691	0.07777829	-0.02869954	-0.003535845	0.001227687	0.03833348	0.02816754
	0.04408287	0.01688484	-0.003535841	0.001227696	0.06336851	0.003267734	0.4662035	-0.8181448
	-0.003551647	0.001230653	0.03833348	0.02816755	0.4662035	-0.8181448	0.07765133	-0.02779126
1e+08	0.06541899	0.0001582791	0.3681072	-0.8631973	0.04849605	0.01172943	-0.003401414	0.001586306
	0.3681072	-0.8631973	0.07800989	-0.03860093	-0.003385973	0.001577689	0.04307197	0.02612064
	0.04849605	0.01172943	-0.003385973	0.001577688	0.06507713	0.0008566114	0.3684335	-0.8641096
	-0.003401414	0.001586305	0.04307197	0.02612064	0.3684335	-0.8641096	0.07809267	-0.03764042
1.1e+08	0.06687273	-0.002703202	0.266241	-0.8971711	0.05161571	0.005520531	-0.003181989	0.00187251
	0.266241	-0.8971711	0.07664239	-0.04891915	-0.003168086	0.001860154	0.0470984	0.02325543
	0.05161571	0.005520529	-0.003168087	0.001860153	0.0667	-0.002040363	0.2663678	-0.898119
	-0.00318199	0.001872509	0.0470984	0.02325543	0.2663678	-0.898119	0.07692455	-0.04800153
1.2e+08	0.0680043	-0.005649248	0.1617569	-0.9192733	0.05321964	-0.001374631	-0.002943825	0.002055347
	0.1617569	-0.9192733	0.07345071	-0.0590286	-0.002932992	0.002039379	0.05028031	0.01979002
	0.05321964	-0.001374632	-0.002932992	0.002039378	0.06791645	-0.005022454	0.1617092	-0.9202203
	-0.002943826	0.002055346	0.05028031	0.01979002	0.1617092	-0.9202203	0.0738825	-0.05819272
1.3e+08	0.06894912	-0.008690108	0.05588834	-0.9293891	0.05318468	-0.00861574	-0.002728571	0.002147346
	0.05588834	-0.9293891	0.06862697	-0.0685541	-0.002722189	0.002128909	0.05253154	0.01594189
	0.05318468	-0.008615741	-0.002722189	0.002128908	0.0689263	-0.008089317	0.05567914	-0.9303084
	-0.002728571	0.002147345	0.05253154	0.01594189	0.05567914	-0.9303084	0.06916914	-0.06782121
1.4e+08	0.06973898	-0.01188357	-0.05005432	-0.9275022	0.0514582	-0.0158329	-0.0025694	0.002168458
	-0.05005432	-0.9275022	0.06236047	-0.07718754	-0.002567755	0.002149542	0.05381506	0.0119427
	0.0514582	-0.0158329	-0.002567756	0.002149541	0.06977526	-0.01131357	-0.05041045	-0.9283683
	-0.002569401	0.002168458	0.05381506	0.0119427	-0.05041045	-0.9283683	0.06297611	-0.07656529
1.5e+08	0.07036065	-0.01529331	-0.1547606	-0.9137285	0.04806687	-0.02264917	-0.00249062	0.002147717
	-0.1547606	-0.9137285	0.05488235	-0.08467288	-0.002493228	0.002129642	0.05414748	0.008024061
	0.04806686	-0.02264917	-0.002493229	0.002129642	0.07044645	-0.01476543	-0.1552475	-0.9145218
	-0.002490621	0.002147717	0.05414748	0.008024061	-0.1552475	-0.9145218	0.05553919	-0.0841591
1.6e+08	0.07076343	-0.01897602	-0.2569377	-0.8883178	0.04311814	-0.028699	-0.002505926	0.002120204
	-0.2569377	-0.8883178	0.04646107	-0.09080935	-0.002511904	0.002103904	0.05359749	0.004406143
	0.04311814	-0.028699	-0.002511905	0.002103903	0.07088324	-0.01850118	-0.2575402	-0.8890225
	-0.002505926	0.002120203	0.0535975	0.004406143	-0.2575402	-0.8890225	0.04713199	-0.09039481
1.7e+08	0.07086439	-0.02297066	-0.3553302	-0.8516567	0.03679663	-0.03364548	-0.002617288	0.002123863
	-0.3553302	-0.8516567	0.0373931	-0.09545676	-0.002625683	0.002109853	0.0522817	0.001285255
	0.03679663	-0.03364548	-0.002625684	0.002109853	0.07099867	-0.02255523	-0.3560316	-0.8522591
	-0.002617289	0.002123863	0.0522817	0.001285256	-0.3560316	-0.8522591	0.03805737	-0.09512733
1.8e+08	0.07055558	-0.02728929	-0.4487317	-0.8042612	0.02935685	-0.03719663	-0.002814867	0.002196295
	-0.4487317	-0.8042612	0.02799221	-0.09853858	-0.002824811	0.00218459	0.05035843	-0.001175771
	0.02935685	-0.03719663	-0.002824811	0.00218459	0.07068291	-0.02693294	-0.4495143	-0.80475
	-0.002814868	0.002196295	0.05035843	-0.00117577	-0.4495143	-0.80475	0.02863476	-0.09827672
1.9e+08	0.069712	-0.0319086	-0.5359957	-0.7467722	0.02111269	-0.03911965	-0.003077207	0.002371631
	-0.5359957	-0.7467722	0.01857642	-0.1000428	-0.003088082	0.002361983	0.04801881	-0.002855668
	0.02111269	-0.03911965	-0.003088083	0.002361983	0.06981198	-0.03160438	-0.5368417	-0.7471412
	-0.003077207	0.002371631	0.04801881	-0.002855668	-0.5368417	-0.7471412	0.01918907	-0.09982981
2e+08	0.06820293	-0.0367637	-0.6160522	-0.6799506	0.01242356	-0.03925229	-0.003372987	0.002677247
	-0.6160522	-0.6799506	0.009456816	-0.1000217	-0.003384573	0.002669173	0.04547592	-0.003682052
	0.01242356	-0.03925229	-0.003384573	0.002669173	0.06825822	-0.03649978	-0.6169439	-0.6801919
	-0.003372987	0.002677247	0.04547592	-0.003682052	-0.6169439	-0.6801919	0.01003619	-0.09983823
2.1e+08	0.06590518	-0.04174609	-0.6879198	-0.6046691	0.003678956	-0.03751121	-0.003663238	0.003131389
	-0.6879198	-0.6046691	0.0009233709	-0.09858844	-0.003675351	0.003124669	0.04295423	-0.00363442
	0.003678956	-0.03751121	-0.003675351	0.003124669	0.06590233	-0.04150617	-0.6888383	-0.6047795
	-0.003663238	0.003131389	0.04295423	-0.00363442	-0.6888383	-0.6047795	0.001472715	-0.09841704
2.2e+08	0.06271513	-0.04670459	-0.7507148	-0.5219025	-0.004718813	-0.03389712	-0.00390317	0.003741517
	-0.7507148	-0.5219025	-0.006764411	-0.09591189	-0.003916102	0.003735855	0.0406762	-0.002745652
	-0.004718813	-0.03389712	-0.003916102	0.003735855	0.06264593	-0.04646983	-0.7516419	-0.5218806
	-0.003903171	0.003741517	0.0406762	-0.002745652	-0.7516419	-0.5218806	-0.006238021	-0.09573726
2.3e+08	0.05856228	-0.05145034	-0.8036619	-0.4327201	-0.01237265	-0.02849625	-0.004046248	0.004502607
	-0.8036619	-0.4327201	-0.0133892	-0.09220863	-0.004060149	0.00449817	0.0388507	-0.001100451
	-0.01237265	-0.02849625	-0.004060149	0.00449817	0.05842335	-0.05120099	-0.8045805	-0.4325657
	-0.004046248	0.004502607	0.0388507	-0.001100451	-0.8045805	-0.4325657	-0.01287482	-0.09201894
2.4e+08	0.05342033	-0.055765	-0.8461113	-0.3382721	-0.01890809	-0.02147783	-0.004046023	0.005397597
	-0.8461113	-0.3382721	-0.01878475	-0.08773379	-0.00406139	0.005394552	0.03766141	0.001169658
	-0.01890809	-0.02147783	-0.00406139	0.005394552	0.05321334	-0.05548078	-0.8470041	-0.3379892
	-0.004046023	0.005397597	0.03766141	0.001169658	-0.8470041	-0.3379892	-0.01826851	-0.08752152
2.5e+08	0.04731628	-0.05941169	-0.8775419	-0.23978	-0.02399064	-0.01308805	-0.003860386	0.00639682
	-0.8775419	-0.23978	-0.02284144	-0.08276979	-0.00387744	0.006395621	0.03725628	0.003892802
	-0.02399064	-0.01308805	-0.00387744	0.006395621	0.04704744	-0.05907382	-0.8783907	-0.2393718
	-0.003860386	0.006396819	0.03725628	0.003892802	-0.8783907	-0.2393718	-0.02230804	-0.08253143
2.6e+08	0.04033617	-0.06214914	-0.897572	-0.1385174	-0.02734164	-0.003640887	-0.003454448	0.007459586
	-0.897572	-0.1385174	-0.02551192	-0.07761288	-0.003472984	0.007461008	0.03773924	0.006866189
	-0.02734164	-0.003640886	-0.003472984	0.007461008	0.04001598	-0.06174032	-0.8983595	-0.1379925
	-0.003454448	0.007459586	0.03773924	0.006866189	-0.8983595	-0.1379925	-0.02494559	-0.07735042
2.7e+08	0.03262755	-0.0637465	-0.9059654	-0.03579879	-0.02875082	0.00649473	-0.002802747	0.008535849
	-0.9059654	-0.03579879	-0.02681124	-0.07256129	-0.002822723	0.008540713	0.03916416	0.009867654
	-0.02875082	0.00649473	-0.002822723	0.008540713	0.03227025	-0.06325219	-0.9066777	-0.03516531
	-0.002802747	0.008535849	0.03916416	0.009867654	-0.9066777	-0.03516531	-0.0261975	-0.07228094
2.8e+08	0.02439862	-0.06399906	-0.9026408	0.06703938	-0.02808767	0.01690994	-0.001892176	0.009568628
	-0.9026408	0.06703938	-0.02681661	-0.06790147	-0.001912714	0.009577797	0.04153159	0.01266692
	-0.02808767	0.01690994	-0.001912714	0.009577797	0.02402141	-0.06340837	-0.9032637	0.06777069
	-0.001892176	0.009568628	0.04153159	0.01266692	-0.9032637	0.06777069	-0.02614298	-0.06761336
2.9e+08	0.01591195	-0.06274417	-0.8876723	0.1686565	-0.02530862	0.02717309	-0.0007227881	0.01049705
	-0.8876723	0.1686565	-0.02566348	-0.06389491	-0.0007430623	0.01051138	0.04478807	0.01503916
	-0.02530862	0.02717309	-0.0007430623	0.01051138	0.01553452	-0.06204966	-0.8881929	0.1694731
	-0.0007227882	0.01049705	0.04478807	0.01503916	-0.8881929	0.1694731	-0.02492035	-0.06361292
3e+08	0.007475587	-0.059875	-0.8612891	0.2677282	-0.02046012	0.03684813	0.0006899133	0.01126003
	-0.8612891	0.2677282	-0.02353771	-0.06076701	0.0006713096	0.01128005	0.04882897	0.01677651
	-0.02046012	0.03684813	0.0006713095	0.01128005	0.007119053	-0.05907355	-0.8616953	0.2686159
	0.0006899132	0.01126003	0.04882897	0.01677651	-0.8616953	0.2686159	-0.02271939	-0.06050727
3.1e+08	-0.0005701476	-0.05535231	-0.8238769	0.3629665	-0.01367901	0.04551389	0.002316048	0.01179971
	-0.8238769	0.3629665	-0.02066747	-0.05869692	0.002300947	0.01182521	0.0535043	0.01770081
	-0.01367901	0.04551389	0.002300947	0.01182521	-0.0008834902	-0.05444505	-0.8241585	0.3639075
	0.002316048	0.01179971	0.0535043	0.01770081	-0.8241585	0.3639075	-0.01977277	-0.05847727
3.2e+08	-0.007867795	-0.04921278	-0.7759703	0.4531348	-0.00518773	0.05278253	0.004111958	0.01206503
	-0.7759703	0.4531348	-0.01731176	-0.05781015	0.004102198	0.01209552	0.05862622	0.01767208
	-0.00518773	0.05278253	0.004102198	0.01209552	-0.008116051	-0.04820639	-0.7761206	0.4541144
	0.004111958	0.01206503	0.05862622	0.01767208	-0.7761206	0.4541144	-0.01634429	-0.05764842
3.3e+08	-0.01406117	-0.0415743	-0.718245	0.537074	0.00471379	0.05831667	0.006022196	0.01201504
	-0.718245	0.537074	-0.01374804	-0.05817302	0.006019124	0.0120498	0.06397916	0.01659694
	0.00471379	0.05831667	0.006019124	0.0120498	-0.01422323	-0.04047988	-0.7182599	0.5380723
	0.006022196	0.01201504	0.06397916	0.01659694	-0.7182599	0.5380723	-0.01271562	-0.05808627
3.4e+08	-0.01881373	-0.03263638	-0.6515114	0.6137132	0.01565999	0.06184567	0.007981352	0.01162256
	-0.6515114	0.6137132	-0.01025887	-0.05979105	0.00798682	0.01165951	0.06933233	0.01443367
	0.01565999	0.06184567	0.00798682	0.01165951	-0.01887107	-0.03146975	-0.6513881	0.6147139
	0.007981352	0.01162256	0.06933233	0.01443367	-0.6513881	0.6147139	-0.009173864	-0.05979393
3.5e+08	-0.021828	-0.02267595	-0.5766951	0.6820941	0.02723447	0.06317722	0.009918914	0.01087532
	-0.5766951	0.6820941	-0.007118975	-0.06260924	0.009933893	0.01091217	0.07445116	0.01119337
	0.02723447	0.06317722	0.009933893	0.01091217	-0.02176466	-0.02145704	-0.5764346	0.6830738
	0.009918914	0.01087532	0.07445116	0.01119337	-0.5764346	0.6830738	-0.005996937	-0.06271392
3.6e+08	-0.022863	-0.01203906	-0.4948265	0.741375	0.03898727	0.06220754	0.01176225	0.009777687
	-0.4948265	0.741375	-0.004582073	-0.06651679	0.01178705	0.009812136	0.07911023	0.006940061
	0.03898727	0.06220754	0.01178705	0.009812136	-0.02266754	-0.01079169	-0.4944323	0.7423152
	0.01176225	0.009777687	0.07911023	0.006940061	-0.4944323	0.7423152	-0.003441356	-0.06673071
3.7e+08	-0.02175096	-0.001128399	-0.4070185	0.7908485	0.05045434	0.05892628	0.01344105	0.008351044
	-0.4070185	0.7908485	-0.002869809	-0.07135229	0.01347535	0.008380028	0.08310512	0.001785994
	0.05045434	0.05892628	0.01347535	0.008380028	-0.02141679	0.0001209044	-0.4064972	0.7917321
	0.01344105	0.008351044	0.08310512	0.001785994	-0.4064972	0.7917321	-0.00173049	-0.07167887
3.8e+08	-0.01840937	0.009612883	-0.3144519	0.8299487	0.06117659	0.05341737	0.01489194	0.006631434
	-0.3144519	0.8299487	-0.002162117	-0.07691311	0.01493429	0.006652876	0.08626226	-0.004114668
	0.06117659	0.05341737	0.01493429	0.006652876	-0.01793511	0.0108358	-0.3138131	0.830756
	0.01489194	0.006631434	0.08626226	-0.004114668	-0.3138131	0.830756	-0.001044532	-0.07735118
3.9e+08	-0.01285076	0.01971909	-0.2183571	0.8582525	0.07071969	0.04585698	0.01606145	0.004669927
	-0.2183571	0.8582525	-0.002590406	-0.08296637	0.01610993	0.004680577	0.08844797	-0.01057433
	0.07071969	0.04585698	0.01610993	0.004680577	-0.01224181	0.0208871	-0.2176137	0.8589708
	0.01606145	0.004669927	0.08844797	-0.01057433	-0.2176137	0.8589708	-0.001514271	-0.08350919
4e+08	-0.005188003	0.02872441	-0.1199932	0.8754873	0.07869251	0.03650521	0.0169098	0.002526345
	-0.1199932	0.8754873	-0.004232213	-0.08925914	0.0169617	0.002524972	0.08957392	-0.01738232
	0.07869251	0.03650521	0.0169617	0.002524972	-0.00445498	0.02980984	-0.1191576	0.8761011
	0.0169098	0.002526345	0.08957392	-0.01738232	-0.1191576	0.8761011	-0.003215123	-0.08989609
4.1e+08	0.004365906	0.03618463	-0.02062385	0.8815251	0.08476309	0.02569614	0.01741281	0.0002675077
	-0.02062385	0.8815251	-0.00710967	-0.09553124	0.01746477	0.0002533002	0.08960104	-0.02431573
	0.08476309	0.02569614	0.01746477	0.0002533002	0.005206301	0.03716155	-0.01971136	0.8820246
	0.01741281	0.0002675077	0.08960104	-0.02431573	-0.01971136	0.8820246	-0.006166481	-0.09624765
4.2e+08	0.01550154	0.04169714	0.07848667	0.8763841	0.08867283	0.01382371	0.0175629	-0.002037115
	0.07848667	0.8763841	-0.01119018	-0.1015273	0.01761131	-0.002064433	0.08853992	-0.03115164
	0.08867283	0.01382371	0.01761131	-0.002064433	0.01642708	0.04254306	0.07945786	0.8767609
	0.0175629	-0.002037115	0.08853992	-0.03115164	0.07945786	0.8767609	-0.01033143	-0.1023053
4.3e+08	0.02782288	0.04492412	0.1761024	0.8602197	0.09024607	0.001324994	0.0173685	-0.004321631
	0.1761024	0.8602197	-0.01638912	-0.1070073	0.01741016	-0.004360793	0.08644927	-0.03767689
	0.09024607	0.001324994	0.01741016	-0.004360793	0.028807	0.04562107	0.1771157	0.8604683
	0.0173685	-0.004321631	0.08644927	-0.03767689	0.1771157	0.8604683	-0.01562147	-0.1078271
4.4e+08	0.04086103	0.04561009	0.2710234	0.8333192	0.08939686	-0.01133701	0.01685303	-0.006525955
	0.2710234	0.8333192	-0.02257571	-0.1117571	0.01688456	-0.006575141	0.08343137	-0.04369943
	0.08939686	-0.01133701	0.01688456	-0.006575141	0.04187309	0.04614519	0.272061	0.8334371
	0.01685303	-0.006525955	0.08343137	-0.04369943	0.272061	0.8334371	-0.02190019	-0.1125979
4.5e+08	0.05409042	0.04359744	0.3620965	0.7960953	0.08613174	-0.02369244	0.01605185	-0.008600531
	0.3620965	0.7960953	-0.02957944	-0.1155967	0.01607082	-0.008656935	0.07962665	-0.04905629
	0.08613174	-0.02369244	0.01607082	-0.008656935	0.0550973	0.04396389	0.3631416	0.7960821
	0.01605185	-0.008600531	0.07962665	-0.04905629	0.3631416	0.7960821	-0.02899217	-0.1164381
4.6e+08	0.06695086	0.03883896	0.448231	0.7490761	0.08054817	-0.0352828	0.01500839	-0.0105091
	0.448231	0.7490761	-0.0371988	-0.1183876	0.01501346	-0.010569	0.07520516	-0.0536214
	0.08054817	-0.0352828	0.01501346	-0.010569	0.06791857	0.0390366	0.4492687	0.7489326
	0.01500839	-0.0105091	0.07520516	-0.0536214	0.4492687	0.7489326	-0.03669116	-0.1192104
4.7e+08	0.07887172	0.03140639	0.5284112	0.6928969	0.07282963	-0.04567875	0.01377096	-0.01222906
	0.5284112	0.6928969	-0.04521106	-0.120036	0.01376133	-0.0122888	0.07035775	-0.05730999
	0.07282963	-0.04567875	0.01376133	-0.0122888	0.07976519	0.03144119	0.5294244	0.6926261
	0.01377096	-0.01222906	0.07035775	-0.05730999	0.5294244	0.6926261	-0.04476947	-0.1208241
4.8e+08	0.08929506	0.0214903	0.6016921	0.628287	0.0632376	-0.05449504	0.01238648	-0.01375367
	0.6016921	0.628287	-0.05338069	-0.1204971	0.01236306	-0.013809	0.06528661	-0.06008214
	0.0632376	-0.05449504	0.01236306	-0.013809	0.09008093	0.02137591	0.6026689	0.627896
	0.01238648	-0.01375367	0.06528661	-0.06008214	0.6026689	0.627896	-0.05298835	-0.121238
4.9e+08	0.09770177	0.009400639	0.6672163	0.5560725	0.05210057	-0.06140508	0.01089804	-0.01508856
	0.6672163	0.5560725	-0.06147109	-0.1197756	0.01086216	-0.01513625	0.06019512	-0.06194372
	0.05210057	-0.06140508	0.01086216	-0.01513625	0.09834927	0.009156433	0.6681451	0.5555645
	0.01089804	-0.01508856	0.06019512	-0.06194372	0.6681451	0.5555645	-0.06110833	-0.1204613
5e+08	0.1036389	-0.004443279	0.7242244	0.4771521	0.03980073	-0.06615053	0.009338514	-0.01625127
	0.7242244	0.4771521	-0.06925416	-0.1179237	0.009293314	-0.01628823	0.05527784	-0.06294491
	0.03980073	-0.06615053	0.009293314	-0.01628823	0.1041203	-0.004791739	0.7250907	0.4765351
	0.009338514	-0.01625127	0.05527784	-0.06294491	0.7250907	0.4765351	-0.06889915	-0.1185518
5.1e+08	0.1067396	-0.01952621	0.7720453	0.3925002	0.02676069	-0.06854975	0.007730466	-0.0172662
	0.7720453	0.3925002	-0.07651828	-0.1150393	0.007679287	-0.01729041	0.05071132	-0.06317748
	0.02676069	-0.06854975	0.007679287	-0.01729041	0.1070326	-0.01994795	0.7728406	0.3917814
	0.007730466	-0.0172662	0.05071132	-0.06317748	0.7728406	0.3917814	-0.07614938	-0.1156126
5.2e+08	0.1067467	-0.03525445	0.8101175	0.3031552	0.01342671	-0.06850339	0.006081393	-0.01816085
	0.8101175	0.3031552	-0.08307855	-0.1112607	0.006027741	-0.01817157	0.04664587	-0.06276947
	0.01342671	-0.06850339	0.006027741	-0.01817157	0.1068344	-0.03571437	0.8108298	0.3023399
