!$
! Info: Touchstone file created by Circ.  Input file=Intel_C2M_200G_12p0in_202208016_staggered.circ
!$
# Hz S RI R 50
0	0.03642971	5.795271e-24	0.9633737	-9.837219e-24	0.0001517581	3.564468e-22	-0.0002803826	3.433696e-20
	0.9633737	-9.833223e-24	0.03697715	1.025387e-23	-0.0002804384	3.43438e-20	0.0003710919	1.436914e-21
	0.0001518137	3.565705e-22	-0.0002805717	3.436013e-20	0.03642774	5.478681e-24	0.963374	-1.00692e-23
	-0.0002805159	3.435329e-20	0.0003711551	1.437935e-21	0.963374	-1.007321e-23	0.03697858	1.051969e-23
1e+07	0.04500558	0.01146459	0.9431164	-0.1597592	0.003252011	0.008406745	-0.001943422	-0.0008053214
	0.9431164	-0.1597592	0.04574463	0.01100012	-0.001944007	-0.0008046503	0.002977377	0.00850995
	0.003252011	0.008406745	-0.001944007	-0.0008046503	0.04462204	0.01122461	0.9435161	-0.1594966
	-0.001943422	-0.0008053214	0.002977377	0.00850995	0.9435161	-0.1594966	0.04534215	0.01077485
2e+07	0.05499086	0.01480857	0.8982334	-0.3074256	0.007597442	0.01481957	-0.002524678	-0.0005283099
	0.8982334	-0.3074256	0.05777356	0.01310307	-0.002525153	-0.0005255022	0.006535675	0.01538582
	0.007597448	0.01481956	-0.002525169	-0.0005256091	0.05437617	0.01461962	0.8988999	-0.3072183
	-0.002524692	-0.0005284108	0.006535767	0.0153857	0.8988999	-0.3072183	0.0571098	0.01298905
3e+07	0.06313413	0.0134851	0.8333541	-0.4430013	0.01381934	0.01952075	-0.002961153	-5.808536e-05
	0.8333541	-0.4430013	0.06817487	0.009144791	-0.002959828	-5.281153e-05	0.01174465	0.02089689
	0.01381933	0.01952079	-0.002959869	-5.27995e-05	0.06237886	0.01344676	0.8341905	-0.4429629
	-0.002961168	-5.808642e-05	0.01174462	0.02089686	0.8341905	-0.4429629	0.06738204	0.009252757
4e+07	0.06948603	0.009791714	0.7496517	-0.5654682	0.02125191	0.02182204	-0.003170759	0.000571433
	0.7496517	-0.5654682	0.07695222	0.00160748	-0.003165749	0.0005780959	0.01802946	0.02467891
	0.02125192	0.02182206	-0.003165753	0.000578102	0.06866772	0.009931855	0.7505781	-0.5656501
	-0.003170757	0.0005714467	0.01802945	0.02467891	0.7505781	-0.5656501	0.07613364	0.001973956
5e+07	0.07415343	0.004695206	0.6491207	-0.6726329	0.02905936	0.0215046	-0.003117404	0.001251153
	0.6491207	-0.6726329	0.08354857	-0.008729384	-0.003107731	0.001256991	0.02484703	0.02650737
	0.02905937	0.02150461	-0.003107729	0.00125699	0.07333373	0.005018541	0.6500618	-0.6730593
	-0.003117401	0.001251151	0.02484703	0.02650738	0.6500618	-0.6730593	0.08279926	-0.008108973
6e+07	0.077214	-0.001202715	0.5342053	-0.7624135	0.03638912	0.01857819	-0.00281376	0.001861576
	0.5342053	-0.7624135	0.08744616	-0.02102794	-0.002799724	0.00186404	0.03159474	0.02635959
	0.03638912	0.01857817	-0.002799722	0.001864037	0.0764449	-0.000707488	0.5350882	-0.7630885
	-0.002813757	0.001861574	0.03159474	0.02635959	0.5350882	-0.7630885	0.0868459	-0.02018817
7e+07	0.07880377	-0.007439212	0.407667	-0.8330416	0.04242845	0.01331709	-0.002322252	0.002304208
	0.407667	-0.8330416	0.08833084	-0.03441853	-0.00230546	0.002300913	0.03770015	0.02439375
	0.04242844	0.01331709	-0.002305446	0.002300846	0.07812726	-0.00679519	0.4084211	-0.8339512
	-0.002322251	0.002304205	0.03770015	0.02439374	0.4084211	-0.8339512	0.08793894	-0.03341548
8e+07	0.07912038	-0.0136898	0.2725032	-0.8831409	0.04648713	0.006233528	-0.00173834	0.002519339
	0.2725032	-0.8831409	0.08609495	-0.04802701	-0.001721568	0.00250885	0.0426696	0.02092854
	0.04648713	0.00623353	-0.001721567	0.002508852	0.0785689	-0.01292775	0.2730632	-0.8842571
	-0.00173834	0.002519342	0.0426696	0.02092854	0.2730632	-0.8842571	0.08594864	-0.04693006
9e+07	0.07837796	-0.01975967	0.1318672	-0.91177	0.04806281	-0.001971102	-0.001171166	0.002494467
	0.1318672	-0.91177	0.08084685	-0.06100408	-0.00115786	0.002476759	0.04613254	0.0164125
	0.04806282	-0.001971104	-0.001157853	0.002476765	0.07797591	-0.01891394	0.1321692	-0.913048
	-0.001171161	0.002494475	0.04613254	0.0164125	0.1321692	-0.913048	0.08096182	-0.059888
1e+08	0.07682532	-0.02555149	-0.01109808	-0.9184343	0.04688568	-0.01047535	-0.0007226167	0.002267041
	-0.01109808	-0.9184343	0.07296289	-0.07258482	-0.0007167038	0.002243945	0.04787367	0.01137598
	0.04688568	-0.01047535	-0.0007167043	0.002243945	0.0766061	-0.02465425	-0.01113497	-0.9198139
	-0.0007226172	0.00226704	0.04787367	0.01137597	-0.01113497	-0.9198139	0.07334939	-0.07153167
1.1e+08	0.07435407	-0.03132996	-0.1527389	-0.9026113	0.04292754	-0.01838104	-0.0004604413	0.001895147
	-0.1527389	-0.9026113	0.06269964	-0.08234152	-0.0004616571	0.001870591	0.04782584	0.006411963
	0.04292754	-0.01838104	-0.000461658	0.00187059	0.07428192	-0.03054937	-0.1531089	-0.9039177
	-0.0004604422	0.001895146	0.04782584	0.006411963	-0.1531089	-0.9039177	0.06326652	-0.08145918
1.2e+08	0.07092302	-0.03664463	-0.289508	-0.8654237	0.0365226	-0.0248033	-0.0004580671	0.001480389
	-0.289508	-0.8654237	0.05066178	-0.08933271	-0.0004668898	0.001457281	0.04616596	0.002087298
	0.03652259	-0.02480329	-0.0004668911	0.00145728	0.07092024	-0.03594174	-0.2901466	-0.8666019
	-0.0004580684	0.001480388	0.04616596	0.002087298	-0.2901466	-0.8666019	0.0513187	-0.08862418
1.3e+08	0.06669355	-0.04143775	-0.4184172	-0.8079219	0.0282057	-0.02904701	-0.0007098688	0.001151521
	-0.4184172	-0.8079219	0.0377923	-0.09325195	-0.0007250575	0.001132538	0.0432053	-0.001129396
	0.0282057	-0.02904701	-0.0007250588	0.001132538	0.06674025	-0.04080025	-0.4192784	-0.8089305
	-0.0007098701	0.001151521	0.0432053	-0.001129396	-0.4192784	-0.8089305	0.03847702	-0.09270243
1.4e+08	0.06171376	-0.04563766	-0.5365488	-0.7315827	0.01870636	-0.03059207	-0.001159869	0.00101991
	-0.5365488	-0.7315827	0.02499171	-0.09404508	-0.001178924	0.001006658	0.03938387	-0.002885742
	0.01870636	-0.03059207	-0.001178925	0.001006658	0.06178836	-0.04506721	-0.5375846	-0.7323888
	-0.001159871	0.00101991	0.03938387	-0.002885742	-0.5375846	-0.7323888	0.02565929	-0.09362437
1.5e+08	0.0560124	-0.04913685	-0.6412141	-0.6382976	0.008887029	-0.02915335	-0.00171053	0.001165448
	-0.6412141	-0.6382976	0.01311528	-0.09190583	-0.001731307	0.001157937	0.03522847	-0.002984527
	0.008887029	-0.02915335	-0.001731308	0.001157938	0.05608751	-0.04862977	-0.6423771	-0.6388797
	-0.001710531	0.001165448	0.03522847	-0.002984527	-0.6423771	-0.6388797	0.01373895	-0.09157614
1.6e+08	0.04963092	-0.05178715	-0.7300224	-0.5303428	-0.0003314449	-0.02471437	-0.002238673	0.001623157
	-0.7300224	-0.5303428	0.002915888	-0.08725314	-0.002259617	0.001620783	0.03130033	-0.001402627
	-0.0003314445	-0.02471437	-0.002259617	0.001620783	0.04967994	-0.05132899	-0.7312671	-0.5306871
	-0.002238674	0.001623158	0.03130033	-0.001402627	-0.7312671	-0.5306871	0.003485536	-0.08697529
1.7e+08	0.04265019	-0.05340559	-0.8009488	-0.410338	-0.008051801	-0.01753625	-0.002614844	0.002376993
	-0.8009488	-0.410338	-0.005011085	-0.08069356	-0.002635035	0.002379115	0.0281387	0.001705586
	-0.0080518	-0.01753625	-0.002635036	0.002379115	0.04265398	-0.05297251	-0.8022288	-0.4104384
	-0.002614845	0.002376994	0.0281387	0.001705586	-0.8022288	-0.4104384	-0.004490659	-0.08043254
1.8e+08	0.03521277	-0.05379117	-0.8523858	-0.2811908	-0.01348273	-0.008142098	-0.002723401	0.003361779
	-0.8523858	-0.2811908	-0.0102718	-0.0729693	-0.00274239	0.0033678	0.02620713	0.00602478
	-0.01348273	-0.008142097	-0.00274239	0.0033678	0.0351638	-0.05335336	-0.8536554	-0.2810485
	-0.002723401	0.003361779	0.02620713	0.00602478	-0.8536554	-0.2810485	-0.009784592	-0.07269755
1.9e+08	0.02753847	-0.05274795	-0.8831902	-0.1460323	-0.01601391	0.002722891	-0.002479694	0.004472042
	-0.8831902	-0.1460323	-0.01270219	-0.0648945	-0.002497187	0.004481689	0.02584669	0.01111095
	-0.01601391	0.002722892	-0.002497187	0.00448169	0.02744201	-0.05227554	-0.8844073	-0.1456578
	-0.002479694	0.004472042	0.02584669	0.01111095	-0.8844073	-0.1456578	-0.01222438	-0.06459519
2e+08	0.01993085	-0.05011665	-0.8927236	-0.008140782	-0.01527646	0.01415298	-0.00184319	0.005576875
	-0.8927236	-0.008140782	-0.01237641	-0.05728692	-0.001858944	0.005590136	0.02724178	0.01643614
	-0.01527646	0.01415298	-0.001858944	0.005590136	0.01980287	-0.04958461	-0.8938465	-0.007548294
	-0.00184319	0.005576875	0.02724178	0.01643614	-0.8938465	-0.007548294	-0.01188203	-0.05695419
2.1e+08	0.01277036	-0.04580935	-0.8808754	0.1291444	-0.01118316	0.02515923	-0.0008235579	0.006538448
	-0.8808754	0.1291444	-0.009597864	-0.0508993	-0.000836678	0.006555372	0.03040353	0.0214428
	-0.01118316	0.02515923	-0.0008366781	0.006555372	0.01263563	-0.0452006	-0.8818672	0.1299316
	-0.000823558	0.006538448	0.03040353	0.0214428	-0.8818672	0.1299316	-0.009061185	-0.05053875
2.2e+08	0.00649508	-0.03984057	-0.8480667	0.2625112	-0.003943955	0.0347565	0.0005214222	0.007230566
	-0.8480667	0.2625112	-0.004866344	-0.04635719	0.0005118443	0.007251044	0.03516949	0.02559944
	-0.003943955	0.0347565	0.0005118443	0.007251044	0.006382985	-0.03914883	-0.8488955	0.2634648
	0.0005214221	0.007230566	0.03516949	0.02559944	-0.8488955	0.2634648	-0.004267283	-0.04598359
2.3e+08	0.001568804	-0.03235382	-0.7952415	0.3887642	0.00594515	0.04205237	0.002093056	0.007555945
	-0.7952415	0.3887642	0.001167692	-0.04410876	0.002088507	0.00757938	0.04122243	0.02845282
	0.00594515	0.04205237	0.002088507	0.00757938	0.001509321	-0.03158355	-0.7958807	0.3898521
	0.002093056	0.007555945	0.04122243	0.02845282	-0.7958807	0.3898521	0.001841798	-0.04374354
2.4e+08	-0.001560361	-0.02363618	-0.7238384	0.5049192	0.01773992	0.04632862	0.003767031	0.007457878
	-0.7238384	0.5049192	0.007763227	-0.04439128	0.003768588	0.007483144	0.0481243	0.02967198
	0.01773992	0.04632862	0.003768588	0.007483144	-0.001539602	-0.02280256	-0.7242692	0.5061035
	0.003767031	0.007457878	0.0481243	0.02967198	-0.7242692	0.5061035	0.008515916	-0.04405935
2.5e+08	-0.002506968	-0.01411922	-0.6357434	0.6082762	0.03050867	0.04710877	0.005409148	0.00692639
	-0.6357434	0.6082762	0.01415529	-0.0472175	0.005417675	0.006951642	0.05536076	0.02907712
	0.03050867	0.04710877	0.005417675	0.006951642	-0.002384665	-0.01324615	-0.6359513	0.6095171
	0.005409148	0.00692639	0.05536076	0.02907712	-0.6359513	0.6095171	0.01498046	-0.04694338
2.6e+08	-0.0009968492	-0.00436344	-0.5332259	0.6964918	0.04321075	0.04420479	0.006893538	0.005997458
	-0.5332259	0.6964918	0.01961994	-0.05238161	0.006909408	0.006020216	0.06239255	0.02665368
	0.04321075	0.04420479	0.006909408	0.006020216	-0.0007597368	-0.003481711	-0.5332071	0.6977465
	0.006893538	0.005997458	0.06239255	0.02665368	-0.5332071	0.6977465	0.0205028	-0.0521866
2.7e+08	0.003089532	0.004972959	-0.4188712	0.7676293	0.05478528	0.03773693	0.008118366	0.004744982
	-0.4188712	0.7676293	0.02353531	-0.05948524	0.008140731	0.004762958	0.0687073	0.02254979
	0.05478528	0.03773693	0.008140731	0.004762958	0.003444565	0.005828751	-0.4186286	0.7688582
	0.008118366	0.004744982	0.0687073	0.02254979	-0.4186286	0.7688582	0.02445424	-0.05938409
2.8e+08	0.009682757	0.01317959	-0.2955025	0.8201988	0.06424221	0.02812803	0.009016817	0.003268797
	-0.2955025	0.8201988	0.02542944	-0.0679781	0.009044091	0.003279563	0.07386669	0.01705716
	0.06424221	0.02812803	0.009044091	0.003279563	0.01014782	0.01397448	-0.2950461	0.821363
	0.009016817	0.003268797	0.07386669	0.01705716	-0.2950461	0.821363	0.02635867	-0.06797699
2.9e+08	0.01850516	0.01955199	-0.1661012	0.8531762	0.07074681	0.01607045	0.009563077	0.001678366
	-0.1661012	0.8531762	0.02501349	-0.07720953	0.009592706	0.001680608	0.07754452	0.0105807
	0.07074681	0.01607045	0.009592706	0.001680608	0.01906194	0.02025327	-0.1654478	0.8542396
	0.009563077	0.001678366	0.07754452	0.0105807	-0.1654478	0.8542396	0.02592647	-0.07730573
3e+08	0.02906941	0.02345498	-0.03372819	0.8660069	0.07369003	0.002470091	0.009771184	7.799978e-05
	-0.03372819	0.8660069	0.02219908	-0.08648683	0.009800116	7.123092e-05	0.0795533	0.003597267
	0.07369003	0.002470091	0.009800116	7.123098e-05	0.02969003	0.02403567	-0.03289981	0.8669373
	0.009771184	7.799984e-05	0.0795533	0.003597267	-0.03289981	0.8669373	0.0230715	-0.08666831
3.1e+08	0.04069738	0.02438746	0.09854672	0.8586021	0.07274033	-0.0116264	0.009688543	-0.001448603
	0.09854672	0.8586021	0.01709698	-0.09513327	0.009713394	-0.001463818	0.07985776	-0.003388269
	0.07274033	-0.0116264	0.009713394	-0.001463818	0.04134598	0.02482834	0.09952115	0.8593717
	0.009688543	-0.001448603	0.07985776	-0.003388269	0.09952115	0.8593717	0.01790979	-0.09538024
3.2e+08	0.05255881	0.02204077	0.2277061	0.8313189	0.06787123	-0.02511564	0.009384088	-0.002848501
	0.2277061	0.8313189	0.01000092	-0.1025421	0.00940217	-0.002870151	0.07857327	-0.009890441
	0.06787123	-0.02511564	0.00940217	-0.002870151	0.05319396	0.02233373	0.2287983	0.831908
	0.009384088	-0.002848501	0.07857327	-0.009890441	0.2287983	0.831908	0.01074267	-0.1028296
3.3e+08	0.06372859	0.01634647	0.3508492	0.784938	0.05936415	-0.03692439	0.008933607	-0.004104757
	0.3508492	0.784938	0.001357244	-0.1082229	0.008943478	-0.004129346	0.07595183	-0.01548533
	0.05936415	-0.03692439	0.008943478	-0.004129346	0.06430642	0.01649478	0.3520251	0.7853316
	0.008933607	-0.004104757	0.07595183	-0.01548533	0.3520251	0.7853316	0.002026193	-0.1085228
3.4e+08	0.07325823	0.00750572	0.4652337	0.7206401	0.04778829	-0.04609377	0.008404776	-0.005234358
	0.4652337	0.7206401	-0.008274681	-0.1118369	0.008405854	-0.005258829	0.07235789	-0.01984732
	0.04778829	-0.04609377	0.008405854	-0.005258829	0.07373621	0.007525289	0.4664625	0.7208287
	0.008404776	-0.005234357	0.07235789	-0.01984732	0.4664625	0.7208287	-0.007671235	-0.1121221
3.5e+08	0.08025732	-0.00400338	0.5683309	0.6399723	0.03395762	-0.0518525	0.007842673	-0.006282737
	0.5683309	0.6399723	-0.01827143	-0.1132198	0.007836091	-0.006303663	0.06823284	-0.02277762
	0.03395762	-0.0518525	0.007836091	-0.006303663	0.08059689	-0.00408492	0.5695747	0.639951
	0.007842673	-0.006282737	0.06823284	-0.02277762	0.5695747	0.639951	-0.01771607	-0.1134669
3.6e+08	0.0839761	-0.01744309	0.6578559	0.544821	0.0188714	-0.05367681	0.007259782	-0.007310351
	0.6578559	0.544821	-0.027995	-0.1123913	0.007248384	-0.007325113	0.06405485	-0.0242201
	0.0188714	-0.05367681	0.007248384	-0.007325113	0.08414688	-0.01758694	0.6590819	0.5445902
	0.007259782	-0.007310351	0.06405485	-0.0242201	0.6590819	0.5445902	-0.02746327	-0.1125832
3.7e+08	0.08388406	-0.03185857	0.7318148	0.437377	0.003640553	-0.05133135	0.006631807	-0.008377154
	0.7318148	0.437377	-0.03684526	-0.1095488	0.006618792	-0.008384744	0.06029501	-0.02426643
	0.003640553	-0.05133135	0.006618792	-0.008384744	0.08386648	-0.03201752	0.7329912	0.4369418
	0.006631807	-0.008377154	0.06029501	-0.02426643	0.7329912	0.4369418	-0.03630784	-0.1096782
3.8e+08	0.07973338	-0.04614493	0.788542	0.3201039	-0.01059273	-0.04488926	0.00589854	-0.009526218
	0.788542	0.3201039	-0.04430737	-0.1050507	0.005888174	-0.009526957	0.05737335	-0.02314776
	-0.01059273	-0.04488926	0.005888174	-0.009526957	0.07952088	-0.04626619	0.7896343	0.3194736
	0.00589854	-0.009526218	0.05737335	-0.02314776	0.7896343	0.3194736	-0.0437325	-0.1051205
3.9e+08	0.07160308	-0.05913223	0.826736	0.1956988	-0.02273855	-0.03473203	0.004975372	-0.01076728
	0.826736	0.1956988	-0.04999345	-0.09938557	0.004969869	-0.01076361	0.05561919	-0.02121406
	-0.02273855	-0.03473203	0.004969869	-0.01076361	0.07120473	-0.05916161	0.8277158	0.1948885
	0.004975372	-0.01076728	0.05561919	-0.02121406	0.8277158	0.1948885	-0.04935186	-0.09940916
4e+08	0.059916	-0.06968624	0.8455039	0.06704434	-0.03184044	-0.021526	0.003765733	-0.01206667
	0.8455039	0.06704434	-0.05367438	-0.09312993	0.003767344	-0.01206217	0.05523804	-0.01890155
	-0.03184044	-0.021526	0.003767344	-0.01206217	0.05935545	-0.0695721	0.846339	0.06607099
	0.003765733	-0.01206667	0.05523804	-0.01890155	0.846339	0.06607099	-0.05294117	-0.09313059
4.1e+08	0.04542371	-0.07681148	0.844389	-0.06285369	-0.03714807	-0.006180016	0.002182782	-0.01334258
	0.844389	-0.06285369	-0.05529858	-0.08689891	0.002191524	-0.0133414	0.05629013	-0.01669088
	-0.03714807	-0.006180016	0.002191524	-0.0133414	0.04473943	-0.07650882	0.8450529	-0.06396658
	0.002182782	-0.01334258	0.05629013	-0.01669088	0.8450529	-0.06396658	-0.05445762	-0.0869078
4.2e+08	0.02916103	-0.07974727	0.8234063	-0.1909204	-0.03817857	0.01021624	0.0001703015	-0.01446961
	0.8234063	-0.1909204	-0.0549969	-0.08129451	0.0001837504	-0.01447554	0.05868146	-0.01506172
	-0.03817857	0.01021624	0.0001837504	-0.01447554	0.02840424	-0.07922246	0.8238742	-0.1921422
	0.0001703015	-0.01446961	0.05868146	-0.01506172	0.8238742	-0.1921422	-0.05404215	-0.08134777
4.3e+08	0.01236915	-0.07805127	0.7830542	-0.3141	-0.03475901	0.02646923	-0.002280262	-0.0152913
	0.7830542	-0.3141	-0.05307001	-0.07685063	-0.002265892	-0.01530736	0.06217142	-0.01444201
	-0.03475901	0.02646923	-0.002265892	-0.01530736	0.01160011	-0.07728552	0.7833063	-0.3153969
	-0.002280262	-0.0152913	0.06217142	-0.01444201	0.7833063	-0.3153969	-0.05200783	-0.0769855
4.4e+08	-0.003604061	-0.07165424	0.72432	-0.4294341	-0.02704867	0.04136865	-0.005115444	-0.0156414
	0.72432	-0.4294341	-0.04996173	-0.07398623	-0.005105455	-0.01566803	0.06639439	-0.01516548
	-0.02704867	0.04136865	-0.005105455	-0.01566803	-0.004319842	-0.07064612	0.7243427	-0.4307667
	-0.005115444	-0.0156414	0.06639439	-0.01516548	0.7243427	-0.4307667	-0.04880971	-0.07423745
4.5e+08	-0.01741746	-0.06088402	0.6486654	-0.534148	-0.01553629	0.05378063	-0.008217365	-0.01536867
	0.6486654	-0.534148	-0.04621747	-0.07296805	-0.008217174	-0.01540418	0.07089634	-0.01743528
	-0.01553629	0.05378063	-0.008217174	-0.01540418	-0.01801485	-0.05965102	0.6484529	-0.535474
	-0.008217365	-0.01536867	0.07089634	-0.01743528	0.6484529	-0.535474	-0.04500388	-0.07336384
4.6e+08	-0.02785608	-0.0464533	0.5579894	-0.6257408	-0.001010443	0.06273803	-0.01141093	-0.01436226
	0.5579894	-0.6257408	-0.04243321	-0.07388715	-0.01142486	-0.01440287	0.07518046	-0.02130263
	-0.001010443	0.06273803	-0.01142486	-0.01440287	-0.02827626	-0.0450312	0.5575433	-0.6270167
	-0.01141093	-0.01436226	0.07518046	-0.02130263	0.5575433	-0.6270167	-0.04119438	-0.07444616
4.7e+08	-0.03394303	-0.02941177	0.4545727	-0.7020655	0.0154956	0.06752125	-0.01448066	-0.01257474
	0.4545727	-0.7020655	-0.03919979	-0.07665207	-0.01451144	-0.01261415	0.07875812	-0.02666042
	0.0154956	0.06752125	-0.01451144	-0.01261415	-0.03413739	-0.02785287	0.4539052	-0.7032461
	-0.01448066	-0.01257474	0.07875812	-0.02666042	0.4539052	-0.7032461	-0.03797657	-0.07738164
4.8e+08	-0.03502858	-0.01106529	0.3410046	-0.7613797	0.03278116	0.06771996	-0.01719781	-0.01003295
	0.3410046	-0.7613797	-0.03704783	-0.08100326	-0.01724515	-0.01006459	0.08119858	-0.03325593
	0.03278116	0.06771996	-0.01724515	-0.01006459	-0.03496535	-0.009435168	0.3401386	-0.7624274
	-0.01719781	-0.01003295	0.08119858	-0.03325593	0.3401386	-0.7624274	-0.03588222	-0.08189744
4.9e+08	-0.03085729	0.007125651	0.2201081	-0.8024042	0.04957274	0.06327144	-0.01934829	-0.006842596
	0.2201081	-0.8024042	-0.03640228	-0.08653891	-0.01940939	-0.006859254	0.08217147	-0.04071712
	0.04957274	0.06327144	-0.01940939	-0.006859254	-0.0305236	0.008754191	0.21907	-0.8032843
	-0.01934829	-0.006842596	0.08217147	-0.04071712	0.21907	-0.8032843	-0.03533264	-0.08757966
5e+08	-0.02160023	0.02366734	0.09483434	-0.8243442	0.06462538	0.05446726	-0.02076196	-0.003175336
	0.09483434	-0.8243442	-0.03754559	-0.09275658	-0.02083125	-0.003172111	0.08147795	-0.04859181
	0.06462538	0.05446726	-0.02083125	-0.003172111	-0.02100394	0.02521887	0.0936625	-0.8250278
	-0.02076196	-0.003175336	0.08147795	-0.04859181	0.0936625	-0.8250278	-0.03660332	-0.09391511
5.1e+08	-0.007849141	0.03715314	-0.03180986	-0.8268842	0.07682226	0.04193152	-0.02133483	0.0007488927
	-0.03180986	-0.8268842	-0.04059813	-0.09910163	-0.02140471	0.0007749652	0.07906637	-0.05639376
	0.07682226	0.04193152	-0.02140471	0.0007749652	-0.007019613	0.03855703	-0.03307695	-0.8273554
	-0.02133483	0.0007488927	0.07906637	-0.05639376	-0.03307695	-0.8273554	-0.03980435	-0.1003406
5.2e+08	0.009418547	0.04638235	-0.156853	-0.8101867	0.08526403	0.02656855	-0.02104075	0.004692418
	-0.156853	-0.8101867	-0.04551383	-0.1050169	-0.02110278	0.004741535	0.07503333	-0.06364955
