!$
! Info: Touchstone file created by Circ.  Input file=Intel_C2M_200G_12p0in_202208016_staggered.circ
!$
# Hz S RI R 50
0	0.03641707	5.641552e-24	0.0001104886	1.702162e-22	0.0001521299	3.59814e-22	0.0001104257	1.699417e-22
	0.0001104886	1.702162e-22	0.03642971	5.795271e-24	0.0001104729	1.70106e-22	0.0001517581	3.564468e-22
	0.0001521854	3.599363e-22	0.0001104729	1.701079e-22	0.03641209	5.360614e-24	0.0001104392	1.698363e-22
	0.0001104257	1.699436e-22	0.0001518137	3.565705e-22	0.0001104392	1.698363e-22	0.03642774	5.478681e-24
1e+07	0.04516855	0.01130482	0.0001075984	5.747988e-06	0.00273619	0.00832524	1.818995e-05	7.945349e-05
	0.0001075984	5.747988e-06	0.04500558	0.01146459	0.0001020503	6.232833e-05	0.003252011	0.008406745
	0.00273619	0.00832524	0.0001020503	6.232833e-05	0.04602701	0.01100995	5.922862e-05	4.122523e-05
	1.818995e-05	7.945349e-05	0.003252011	0.008406745	5.922862e-05	4.122523e-05	0.04462204	0.01122461
2e+07	0.05491153	0.0145188	8.416165e-05	1.836689e-05	0.007135623	0.0148646	7.376881e-05	7.741063e-05
	8.416165e-05	1.836689e-05	0.05499086	0.01480857	0.0001270839	3.293236e-05	0.007597442	0.01481957
	0.007135629	0.01486459	0.0001270839	3.293236e-05	0.05523241	0.01380945	6.21121e-05	1.022643e-05
	7.376881e-05	7.741063e-05	0.007597448	0.01481956	6.21121e-05	1.022643e-05	0.05437617	0.01461962
3e+07	0.06287197	0.01322303	7.523237e-05	2.782884e-05	0.01341344	0.01960866	0.0001135679	5.846841e-05
	7.523237e-05	2.782884e-05	0.06313413	0.0134851	0.0001443473	9.040681e-06	0.01381934	0.01952075
	0.01341343	0.0196087	0.0001443473	9.040682e-06	0.06279306	0.01251287	6.293609e-05	-4.872215e-06
	0.0001135679	5.846841e-05	0.01381933	0.01952079	6.293608e-05	-4.872217e-06	0.06237886	0.01344676
4e+07	0.06908147	0.009615463	6.689697e-05	2.893782e-05	0.02091165	0.02193161	0.0001405879	2.996179e-05
	6.689697e-05	2.893782e-05	0.06948603	0.009791714	0.0001533976	-1.793077e-05	0.02125191	0.02182204
	0.02091166	0.02193163	0.0001533976	-1.793077e-05	0.06871088	0.009032342	6.073582e-05	-1.760454e-05
	0.0001405879	2.996178e-05	0.02125192	0.02182206	6.073582e-05	-1.760454e-05	0.06866772	0.009931855
5e+07	0.07364318	0.004641993	5.785402e-05	2.727445e-05	0.02879547	0.02161911	0.000155896	-3.896167e-06
	5.785402e-05	2.727445e-05	0.07415343	0.004695206	0.0001550176	-5.055861e-05	0.02905936	0.0215046
	0.02879547	0.02161911	0.0001550176	-5.055861e-05	0.07307486	0.004251438	5.58542e-05	-3.008649e-05
	0.000155896	-3.896168e-06	0.02905937	0.02150461	5.58542e-05	-3.008649e-05	0.07333373	0.005018541
6e+07	0.07663509	-0.001106462	4.775994e-05	2.535394e-05	0.03621094	0.01867966	0.0001598225	-3.989756e-05
	4.775994e-05	2.535394e-05	0.077214	-0.001202715	0.0001467545	-8.219218e-05	0.03638912	0.01857819
	0.03621094	0.01867964	0.0001467545	-8.219218e-05	0.07595536	-0.001275585	4.778069e-05	-4.036895e-05
	0.0001598225	-3.989755e-05	0.03638912	0.01857817	4.77807e-05	-4.036895e-05	0.0764449	-0.000707488
7e+07	0.07819549	-0.007175008	4.740526e-05	1.100426e-05	0.04234223	0.01338518	0.0001524772	-7.5161e-05
	4.740526e-05	1.100426e-05	0.07880377	-0.007439212	0.0001287864	-0.0001102932	0.04242845	0.01331709
	0.04234223	0.01338518	0.0001287864	-0.0001102932	0.07748119	-0.007120396	3.73099e-05	-4.765985e-05
	0.0001524772	-7.5161e-05	0.04242844	0.01331709	3.73099e-05	-4.765985e-05	0.07812726	-0.00679519
8e+07	0.07852576	-0.01324652	4.433655e-05	-5.15601e-06	0.04649497	0.00624577	0.0001353056	-0.0001071059
	4.433655e-05	-5.15601e-06	0.07912038	-0.0136898	0.0001034732	-0.0001324892	0.04648713	0.006233528
	0.04649498	0.006245772	0.0001034732	-0.0001324892	0.07784287	-0.01298518	2.556355e-05	-5.158276e-05
	0.0001353056	-0.0001071059	0.04648713	0.00623353	2.556355e-05	-5.158276e-05	0.0785689	-0.01292775
9e+07	0.07784533	-0.01913365	3.629076e-05	-1.801383e-05	0.04816097	-0.002038608	0.000109455	-0.0001338351
	3.629076e-05	-1.801383e-05	0.07837796	-0.01975967	7.276708e-05	-0.0001473083	0.04806281	-0.001971102
	0.04816098	-0.002038609	7.276708e-05	-0.0001473083	0.07724954	-0.01869557	1.358698e-05	-5.203022e-05
	0.000109455	-0.0001338352	0.04806282	-0.001971104	1.358698e-05	-5.203022e-05	0.07797591	-0.01891394
1e+08	0.07642185	-0.02474148	2.341277e-05	-2.652404e-05	0.04706238	-0.01064731	7.298022e-05	-0.0001545322
	2.341277e-05	-2.652404e-05	0.07682532	-0.02555149	3.652619e-05	-0.0001540045	0.04688568	-0.01047535
	0.04706238	-0.01064731	3.652619e-05	-0.0001540045	0.07597917	-0.02416253	7.532887e-06	-4.73966e-05
	7.298022e-05	-0.0001545322	0.04688568	-0.01047535	7.532887e-06	-4.73966e-05	0.0766061	-0.02465425
1.1e+08	0.07414553	-0.03043766	1.115507e-05	-2.501642e-05	0.04316135	-0.01866986	3.375011e-05	-0.0001519704
	1.115507e-05	-2.501642e-05	0.07435407	-0.03132996	2.104712e-05	-0.0001399889	0.04292754	-0.01838104
	0.04316135	-0.01866986	2.104712e-05	-0.0001399889	0.07382914	-0.02991711	5.011126e-06	-4.107522e-05
	3.375011e-05	-0.0001519704	0.04292754	-0.01838104	5.011126e-06	-4.107522e-05	0.07428192	-0.03054937
1.2e+08	0.070888	-0.03572083	3.452486e-06	-2.2395e-05	0.03679865	-0.02521984	8.506468e-06	-0.0001423853
	3.452486e-06	-2.2395e-05	0.07092302	-0.03664463	8.885311e-06	-0.000126173	0.0365226	-0.0248033
	0.03679865	-0.02521984	8.885312e-06	-0.000126173	0.070616	-0.03521671	2.034441e-06	-3.609975e-05
	8.506468e-06	-0.0001423853	0.03652259	-0.02480329	2.034441e-06	-3.609975e-05	0.07092024	-0.03594174
1.3e+08	0.06682148	-0.04051965	-3.038509e-06	-1.979862e-05	0.02850471	-0.0296007	-2.428806e-06	-0.0001303335
	-3.038509e-06	-1.979862e-05	0.06669355	-0.04143775	-2.260232e-06	-0.0001123591	0.0282057	-0.02904701
	0.02850471	-0.0296007	-2.260232e-06	-0.0001123591	0.06657983	-0.04001591	-1.248367e-06	-3.166243e-05
	-2.428806e-06	-0.0001303335	0.0282057	-0.02904701	-1.248367e-06	-3.166243e-05	0.06674025	-0.04080025
1.4e+08	0.06199118	-0.04475852	-8.478927e-06	-1.687872e-05	0.01900574	-0.03128821	-1.306906e-05	-0.0001176907
	-8.478927e-06	-1.687872e-05	0.06171376	-0.04563766	-1.19289e-05	-9.831324e-05	0.01870636	-0.03059207
	0.01900574	-0.0312882	-1.19289e-05	-9.831324e-05	0.06176741	-0.04425433	-4.006828e-06	-2.723423e-05
	-1.306906e-05	-0.0001176907	0.01870636	-0.03059207	-4.006828e-06	-2.723423e-05	0.06178836	-0.04506721
1.5e+08	0.05642106	-0.04832644	-1.278625e-05	-1.320075e-05	0.009161928	-0.0299916	-2.278154e-05	-0.0001041721
	-1.278625e-05	-1.320075e-05	0.0560124	-0.04913685	-1.991806e-05	-8.400062e-05	0.008887029	-0.02915335
	0.009161928	-0.02999159	-1.991806e-05	-8.400062e-05	0.0561988	-0.04781771	-6.262034e-06	-2.281185e-05
	-2.278154e-05	-0.0001041721	0.008887029	-0.02915335	-6.262034e-06	-2.281185e-05	0.05608751	-0.04862977
1.6e+08	0.05014751	-0.05107088	-1.60608e-05	-8.947629e-06	-0.0001065256	-0.02568765	-3.107896e-05	-8.970364e-05
	-1.60608e-05	-8.947629e-06	0.04963092	-0.05178715	-2.609304e-05	-6.945958e-05	-0.0003314449	-0.02471437
	-0.0001065252	-0.02568765	-2.609304e-05	-6.945959e-05	0.04991195	-0.05054554	-8.022981e-06	-1.837934e-05
	-3.107896e-05	-8.970364e-05	-0.0003314445	-0.02471437	-8.022981e-06	-1.837934e-05	0.04967994	-0.05132899
1.7e+08	0.04324648	-0.05280387	-1.833828e-05	-4.245362e-06	-0.007901078	-0.0186302	-3.753579e-05	-7.436352e-05
	-1.833828e-05	-4.245362e-06	0.04265019	-0.05340559	-3.063913e-05	-5.469608e-05	-0.008051801	-0.01753625
	-0.007901078	-0.0186302	-3.063913e-05	-5.469608e-05	0.04299028	-0.05224289	-9.343493e-06	-1.38885e-05
	-3.753579e-05	-7.436352e-05	-0.0080518	-0.01753625	-9.343493e-06	-1.38885e-05	0.04265398	-0.05297251
1.8e+08	0.03585655	-0.05331783	-1.960428e-05	7.853177e-07	-0.01342676	-0.009335053	-4.177444e-05	-5.836926e-05
	-1.960428e-05	7.853177e-07	0.03521277	-0.05379117	-3.324759e-05	-3.972226e-05	-0.01348273	-0.008142098
	-0.01342676	-0.009335052	-3.324759e-05	-3.972226e-05	0.03558287	-0.05269981	-1.022986e-05	-9.275617e-06
	-4.177444e-05	-5.836926e-05	-0.01348273	-0.008142097	-1.022986e-05	-9.275617e-06	0.0351638	-0.05335336
1.9e+08	0.02819469	-0.05240939	-1.981816e-05	6.005243e-06	-0.01606717	0.00145892	-4.34866e-05	-4.206969e-05
	-1.981816e-05	6.005243e-06	0.02753847	-0.05274795	-3.347596e-05	-2.487785e-05	-0.01601391	0.002722891
	-0.01606717	0.00145892	-3.347596e-05	-2.487785e-05	0.02791735	-0.05171558	-1.043486e-05	-4.610537e-06
	-4.34866e-05	-4.206969e-05	-0.01601391	0.002722892	-1.043486e-05	-4.610537e-06	0.02744201	-0.05227554
2e+08	0.02056328	-0.04991089	-1.893681e-05	1.125063e-05	-0.0154453	0.01285064	-4.245975e-05	-2.59215e-05
	-1.893681e-05	1.125063e-05	0.01993085	-0.05011665	-3.125925e-05	-1.059206e-05	-0.01527646	0.01415298
	-0.0154453	0.01285064	-3.125925e-05	-1.059206e-05	0.02030376	-0.04912962	-9.901884e-06	-2.543399e-09
	-4.245975e-05	-2.59215e-05	-0.01527646	0.01415298	-9.901884e-06	-2.543399e-09	0.01980287	-0.04958461
2.1e+08	0.01334352	-0.04572573	-1.69317e-05	1.633018e-05	-0.01146414	0.02385322	-3.860287e-05	-1.046318e-05
	-1.69317e-05	1.633018e-05	0.01277036	-0.04580935	-2.663985e-05	2.665848e-06	-0.01118316	0.02515923
	-0.01146414	0.02385322	-2.663985e-05	2.665848e-06	0.01312838	-0.04485449	-8.602309e-06	4.413303e-06
	-3.860287e-05	-1.046318e-05	-0.01118316	0.02515923	-8.602309e-06	4.413303e-06	0.01263563	-0.0452006
2.2e+08	0.006976395	-0.03985969	-1.380665e-05	2.102682e-05	-0.004323192	0.03348063	-3.196827e-05	3.719309e-06
	-1.380665e-05	2.102682e-05	0.00649508	-0.03984057	-1.978875e-05	1.441336e-05	-0.003943955	0.0347565
	-0.004323192	0.03348063	-1.978875e-05	1.441336e-05	0.006832721	-0.03890695	-6.542937e-06	8.486853e-06
	-3.196827e-05	3.719309e-06	-0.003943955	0.0347565	-6.542937e-06	8.486853e-06	0.006382985	-0.03914883
2.3e+08	0.001930832	-0.03244824	-9.533638e-06	2.507175e-05	0.005491699	0.04083626	-2.266805e-05	1.607743e-05
	-9.533638e-06	2.507175e-05	0.001568804	-0.03235382	-1.091001e-05	2.424301e-05	0.00594515	0.04205237
	0.005491699	0.04083626	-1.091001e-05	2.424301e-05	0.001882156	-0.03143213	-3.773243e-06	1.206271e-05
	-2.266805e-05	1.607743e-05	0.00594515	0.04205237	-3.773243e-06	1.206271e-05	0.001509321	-0.03158355
2.4e+08	-0.001337822	-0.02377167	-4.285049e-06	2.845738e-05	0.01724515	0.04519462	-1.112908e-05	2.595203e-05
	-4.285049e-06	2.845738e-05	-0.001560361	-0.02363618	-4.841054e-07	3.16682e-05	0.01773992	0.04632862
	0.01724515	0.04519462	-4.841054e-07	3.16682e-05	-0.001274098	-0.02271871	-3.69922e-07	1.500011e-05
	-1.112908e-05	2.595203e-05	0.01773992	0.04632862	-3.69922e-07	1.500011e-05	-0.001539602	-0.02280256
2.5e+08	-0.002435134	-0.01425666	1.874533e-06	3.091375e-05	0.03001206	0.04606937	2.120322e-06	3.285346e-05
	1.874533e-06	3.091375e-05	-0.002506968	-0.01411922	1.095698e-05	3.639431e-05	0.03050867	0.04710877
	0.03001206	0.04606937	1.095698e-05	3.639431e-05	-0.002250955	-0.01319867	3.556679e-06	1.716915e-05
	2.120322e-06	3.285346e-05	0.03050867	0.04710877	3.556679e-06	1.716915e-05	-0.002384665	-0.01324615
2.6e+08	-0.001076713	-0.004461151	8.813933e-06	3.215465e-05	0.04275531	0.04326077	1.643911e-05	3.641194e-05
	8.813933e-06	3.215465e-05	-0.0009968492	-0.00436344	2.282723e-05	3.825465e-05	0.04321075	0.04420479
	0.04275531	0.04326077	2.282723e-05	3.825465e-05	-0.0007739575	-0.003432484	7.872606e-06	1.845915e-05
	1.643911e-05	3.641194e-05	0.04321075	0.04420479	7.872606e-06	1.845915e-05	-0.0007597368	-0.003481711
2.7e+08	0.002867759	0.004956569	1.632167e-05	3.190268e-05	0.05441413	0.0368764	3.1096e-05	3.639794e-05
	1.632167e-05	3.190268e-05	0.003089532	0.004972959	3.451448e-05	3.721173e-05	0.05478528	0.03773693
	0.05441413	0.0368764	3.451448e-05	3.721173e-05	0.003276526	0.005922527	1.242466e-05	1.877805e-05
	3.1096e-05	3.639794e-05	0.05478528	0.03773693	1.242466e-05	1.877805e-05	0.003444565	0.005828751
2.8e+08	0.009339517	0.01328331	2.409631e-05	2.990604e-05	0.06399487	0.0273266	4.529785e-05	3.274137e-05
	2.409631e-05	2.990604e-05	0.009682757	0.01317959	4.540891e-05	3.335541e-05	0.06424221	0.02812803
	0.06399487	0.0273266	4.540891e-05	3.335541e-05	0.009831763	0.01415768	1.703791e-05	1.805153e-05
	4.529785e-05	3.274137e-05	0.06424221	0.02812803	1.703791e-05	1.805153e-05	0.01014782	0.01397448
2.9e+08	0.01807083	0.01980919	3.174326e-05	2.596364e-05	0.0706557	0.01529233	5.822307e-05	2.55474e-05
	3.174326e-05	2.596364e-05	0.01850516	0.01955199	5.492413e-05	2.689677e-05	0.07074681	0.01607045
	0.0706557	0.01529233	5.492413e-05	2.689677e-05	0.01861606	0.02056968	2.151454e-05	1.622499e-05
	5.822307e-05	2.55474e-05	0.07074681	0.01607045	2.151454e-05	1.622499e-05	0.01906194	0.02025327
3e+08	0.02858294	0.02389122	3.8776e-05	1.995629e-05	0.07377726	0.001670211	6.905817e-05	1.510555e-05
	3.8776e-05	1.995629e-05	0.02906941	0.02345498	6.251781e-05	1.816124e-05	0.07369003	0.002470091
	0.07377726	0.001670211	6.251781e-05	1.816124e-05	0.0291449	0.02452475	2.562781e-05	1.32702e-05
	6.905817e-05	1.510555e-05	0.07369003	0.002470091	2.562781e-05	1.32702e-05	0.02969003	0.02403567
3.1e+08	0.04020449	0.02501839	4.462407e-05	1.188953e-05	0.07301513	-0.01249953	7.703691e-05	1.896514e-06
	4.462407e-05	1.188953e-05	0.04069738	0.02438746	6.770994e-05	7.577871e-06	0.07274033	-0.0116264
	0.07301513	-0.01249953	6.770994e-05	7.577871e-06	0.04074374	0.02552176	2.91187e-05	9.198541e-06
	7.703691e-05	1.896514e-06	0.07274033	-0.0116264	2.91187e-05	9.198541e-06	0.04134598	0.02482834
3.2e+08	0.05210972	0.02287033	4.866773e-05	1.927459e-06	0.06832812	-0.02611616	8.148426e-05	-1.340947e-05
	4.866773e-05	1.927459e-06	0.05255881	0.02204077	7.009622e-05	-4.32135e-06	0.06787123	-0.02511564
	0.06832812	-0.02611616	7.009622e-05	-4.32135e-06	0.05258647	0.02325194	3.169958e-05	4.076094e-06
	8.148426e-05	-1.340947e-05	0.06787123	-0.02511564	3.169958e-05	4.076094e-06	0.05319396	0.02233373
3.3e+08	0.06337534	0.01736546	5.028168e-05	-9.568533e-06	0.05998222	-0.03810503	8.186592e-05	-2.996557e-05
	5.028168e-05	-9.568533e-06	0.06372859	0.01634647	6.93703e-05	-1.691526e-05	0.05936415	-0.03692439
	0.05998222	-0.03810503	6.93703e-05	-1.691526e-05	0.06375254	0.01764394	3.306342e-05	-1.952675e-06
	8.186592e-05	-2.996557e-05	0.05936415	-0.03692439	3.306342e-05	-1.952675e-06	0.06430642	0.01649478
3.4e+08	0.07305137	0.008690872	4.890159e-05	-2.202474e-05	0.04853152	-0.04750139	7.78389e-05	-4.67684e-05
	4.890159e-05	-2.202474e-05	0.07325823	0.00750572	6.534325e-05	-2.949554e-05	0.04778829	-0.04609377
	0.04853152	-0.04750139	6.534325e-05	-2.949554e-05	0.07329797	0.008894703	3.290577e-05	-8.650759e-06
	7.78389e-05	-4.67684e-05	0.04778829	-0.04609377	3.290577e-05	-8.650759e-06	0.07373621	0.007525289
3.5e+08	0.08024217	-0.002689641	4.409988e-05	-3.465598e-05	0.03477656	-0.05352372	6.929965e-05	-6.270557e-05
	4.409988e-05	-3.465598e-05	0.08025732	-0.00400338	5.797514e-05	-4.129381e-05	0.03395762	-0.0518525
	0.03477656	-0.05352372	5.797514e-05	-4.129381e-05	0.08033458	-0.002524397	3.095446e-05	-1.567152e-05
	6.929965e-05	-6.270557e-05	0.03395762	-0.0518525	3.095446e-05	-1.567152e-05	0.08059689	-0.00408492
3.6e+08	0.08418859	-0.01605184	3.566126e-05	-4.650492e-05	0.01970622	-0.05563412	5.642858e-05	-7.660375e-05
	3.566126e-05	-4.650492e-05	0.0839761	-0.01744309	4.739169e-05	-5.150127e-05	0.0188714	-0.05367681
	0.01970622	-0.05563412	4.739169e-05	-5.150127e-05	0.08411347	-0.01588299	2.701163e-05	-2.255829e-05
	5.642858e-05	-7.660375e-05	0.0188714	-0.05367681	2.701163e-05	-2.255829e-05	0.08414688	-0.01758694
3.7e+08	0.08434634	-0.03045236	2.366168e-05	-5.649891e-05	0.004425033	-0.05358019	3.971919e-05	-8.730872e-05
	2.366168e-05	-5.649891e-05	0.08388406	-0.03185857	3.391738e-05	-5.929835e-05	0.003640553	-0.05133135
	0.004425033	-0.05358019	3.391738e-05	-5.929835e-05	0.08410159	-0.03023474	2.099435e-05	-2.876079e-05
	3.971919e-05	-8.730872e-05	0.003640553	-0.05133135	2.099435e-05	-2.876079e-05	0.08386648	-0.03201752
3.8e+08	0.08044989	-0.04479407	8.505294e-06	-6.354764e-05	-0.009926059	-0.04741615	1.998661e-05	-9.377402e-05
	8.505294e-06	-6.354764e-05	0.07973338	-0.04614493	1.808756e-05	-6.3911e-05	-0.01059273	-0.04488926
	-0.009926059	-0.04741615	1.808756e-05	-6.3911e-05	0.08004507	-0.04448235	1.298364e-05	-3.366118e-05
	1.998661e-05	-9.377402e-05	-0.01059273	-0.04488926	1.298364e-05	-3.366118e-05	0.07952088	-0.04626619
3.9e+08	0.07255748	-0.05790968	-9.049308e-06	-6.665209e-05	-0.02225305	-0.03750445	-1.656258e-06	-9.515796e-05
	-9.049308e-06	-6.665209e-05	0.07160308	-0.05913223	6.584096e-07	-6.466598e-05	-0.02273855	-0.03473203
	-0.02225305	-0.03750445	6.584096e-07	-6.466598e-05	0.07201483	-0.05746172	3.249849e-06	-3.662874e-05
	-1.656258e-06	-9.515796e-05	-0.02273855	-0.03473203	3.249849e-06	-3.662874e-05	0.07120473	-0.05916161
4e+08	0.06106977	-0.06866092	-2.791564e-05	-6.502498e-05	-0.03158974	-0.02449372	-2.38404e-05	-9.091778e-05
	-2.791564e-05	-6.502498e-05	0.059916	-0.06968624	-1.740331e-05	-6.106024e-05	-0.03184044	-0.021526
	-0.03158974	-0.02449372	-1.740331e-05	-6.106024e-05	0.06042191	-0.06804086	-7.719928e-06	-3.708358e-05
	-2.38404e-05	-9.091778e-05	-0.03184044	-0.021526	-7.719928e-06	-3.708358e-05	0.05935545	-0.0695721
4.1e+08	0.04671705	-0.07604126	-4.675248e-05	-5.820208e-05	-0.0371713	-0.009278129	-4.503955e-05	-8.088934e-05
	-4.675248e-05	-5.820208e-05	0.04542371	-0.07681148	-3.495895e-05	-5.283449e-05	-0.03714807	-0.006180016
	-0.0371713	-0.009278129	-3.495895e-05	-5.283449e-05	0.04600627	-0.07522197	-1.924143e-05	-3.457313e-05
	-4.503955e-05	-8.088934e-05	-0.03714807	-0.006180016	-1.924143e-05	-3.457313e-05	0.04473943	-0.07650882
4.2e+08	0.03051635	-0.07927184	-6.406315e-05	-4.612595e-05	-0.03849625	0.007062936	-6.367274e-05	-6.534546e-05
	-6.406315e-05	-4.612595e-05	0.02916103	-0.07974727	-5.076312e-05	-4.004056e-05	-0.03817857	0.01021624
	-0.03849625	0.007062936	-5.076312e-05	-4.004056e-05	0.02979205	-0.07823813	-3.046111e-05	-2.884697e-05
	-6.367274e-05	-6.534546e-05	-0.03817857	0.01021624	-3.046111e-05	-2.884697e-05	0.02840424	-0.07922246
4.3e+08	0.01369696	-0.07788645	-7.833429e-05	-2.91931e-05	-0.03537049	0.02334088	-7.824396e-05	-4.500443e-05
	-7.833429e-05	-2.91931e-05	0.01236915	-0.07805127	-6.354877e-05	-2.308285e-05	-0.03475901	0.02646923
	-0.03537049	0.02334088	-6.354877e-05	-2.308285e-05	0.01301201	-0.07663675	-4.042865e-05	-1.991949e-05
	-7.824396e-05	-4.500443e-05	-0.03475901	0.02646923	-4.042865e-05	-1.991949e-05	0.01160011	-0.07728552
4.4e+08	-0.002397235	-0.07178839	-8.818201e-05	-8.251345e-06	-0.02793108	0.03834436	-8.747632e-05	-2.099846e-05
	-8.818201e-05	-8.251345e-06	-0.003604061	-0.07165424	-7.21464e-05	-2.741579e-06	-0.02704867	0.04136865
	-0.02793108	0.03834436	-7.21464e-05	-2.741579e-06	-0.002989742	-0.07033573	-4.818509e-05	-8.104701e-06
	-8.747632e-05	-2.099846e-05	-0.02704867	0.04136865	-4.818509e-05	-8.104701e-06	-0.004319842	-0.07064612
4.5e+08	-0.01642015	-0.06127733	-9.248628e-05	1.545999e-05	-0.01664508	0.0509323	-9.04268e-05	5.192213e-06
	-9.248628e-05	1.545999e-05	-0.01741746	-0.06088402	-7.56028e-05	1.985358e-05	-0.01553629	0.05378063
	-0.01664508	0.0509323	-7.56028e-05	1.985358e-05	-0.01687162	-0.05964937	-5.28674e-05	5.987032e-06
	-9.04268e-05	5.192213e-06	-0.01553629	0.05378063	-5.28674e-05	5.987032e-06	-0.01801485	-0.05965102
4.6e+08	-0.02714321	-0.04704023	-9.050141e-05	4.039909e-05	-0.002281766	0.06012441	-8.65817e-05	3.185545e-05
	-9.050141e-05	4.039909e-05	-0.02785608	-0.0464533	-7.329144e-05	4.329868e-05	-0.001010443	0.06273803
	-0.002281766	0.06012441	-7.329144e-05	4.329868e-05	-0.02741399	-0.04527761	-5.380467e-05	2.14788e-05
	-8.65817e-05	3.185545e-05	-0.001010443	0.06273803	-5.380467e-05	2.14788e-05	-0.02827626	-0.0450312
4.7e+08	-0.03356836	-0.03010618	-8.192779e-05	6.484784e-05	0.01414111	0.0651828	-7.590718e-05	5.718181e-05
	-8.192779e-05	6.484784e-05	-0.03394303	-0.02941177	-6.499768e-05	6.601027e-05	0.0154956	0.06752125
	0.01414111	0.0651828	-6.499768e-05	6.601027e-05	-0.03363007	-0.02825994	-5.059783e-05	3.730246e-05
	-7.590718e-05	5.718181e-05	0.0154956	0.06752125	-5.059783e-05	3.730246e-05	-0.03413739	-0.02785287
4.8e+08	-0.03501951	-0.01176768	-6.694111e-05	8.703919e-05	0.03143302	0.06567482	-5.885693e-05	7.93892e-05
	-6.694111e-05	8.703919e-05	-0.03502858	-0.01106529	-5.096563e-05	8.637074e-05	0.03278116	0.06771996
