!$
! Info: Touchstone file created by Circ.  Input file=Intel_C2M_200G_12p0in_202208016_staggered.circ
!$
# Hz S RI R 50
0	0.03697715	1.0253e-23	-0.0001314401	1.609677e-20	0.0003710937	1.436908e-21	-0.0001272799	1.558729e-20
	-0.0001314402	1.609678e-20	0.03642971	5.795271e-24	-0.0001383433	1.694217e-20	0.0001517581	3.564468e-22
	0.0003711569	1.437928e-21	-0.0001383434	1.694218e-20	0.03697839	1.052249e-23	-0.000131465	1.609982e-20
	-0.0001272799	1.558729e-20	0.0001518137	3.565705e-22	-0.0001314649	1.609981e-20	0.03642774	5.478681e-24
1e+07	0.04674771	0.0104819	-0.001311693	7.129204e-05	0.002468788	0.008497145	-9.996704e-05	-0.0001046668
	-0.001311693	7.129204e-05	0.04500558	0.01146459	-0.0007506663	0.000115472	0.003252011	0.008406745
	0.002468788	0.008497145	-0.0007506663	0.000115472	0.04591745	0.01088474	-0.0005345238	-6.201754e-05
	-9.996704e-05	-0.0001046668	0.003252011	0.008406745	-0.0005345238	-6.201754e-05	0.04462204	0.01122461
2e+07	0.05790228	0.0120878	-0.001202825	-0.0001882389	0.006100723	0.01555755	-0.0001363037	-0.0001196481
	-0.001202825	-0.0001882389	0.05499086	0.01480857	-0.0007783896	-8.740051e-05	0.007597442	0.01481957
	0.006100815	0.01555744	-0.0007783896	-8.740042e-05	0.05769078	0.01294934	-0.0005403829	-0.0001270015
	-0.0001363037	-0.0001196481	0.007597448	0.01481956	-0.0005403829	-0.0001270014	0.05437617	0.01461962
3e+07	0.06768245	0.008259985	-0.001180206	-0.0002738306	0.01138793	0.0211576	-0.0001876249	-0.0001401206
	-0.001180206	-0.0002738306	0.06313413	0.0134851	-0.0008259495	-0.000110593	0.01381934	0.01952075
	0.01138791	0.02115757	-0.0008259495	-0.000110593	0.06794814	0.009123377	-0.0005974535	-0.0001737351
	-0.0001876249	-0.0001401206	0.01381933	0.01952079	-0.0005974536	-0.0001737351	0.06237886	0.01344676
4e+07	0.07605287	0.001074226	-0.001196205	-0.0002836838	0.01775833	0.02499507	-0.0002506609	-0.0001458872
	-0.001196205	-0.0002836838	0.06948603	0.009791714	-0.0008770448	-7.846696e-05	0.02125191	0.02182204
	0.01775833	0.02499507	-0.0008770448	-7.846696e-05	0.07666568	0.001770366	-0.0006703357	-0.0001694163
	-0.0002506609	-0.0001458872	0.02125192	0.02182206	-0.0006703358	-0.0001694163	0.06866772	0.009931855
5e+07	0.08245251	-0.008811704	-0.001227806	-0.0002467439	0.0246646	0.02685203	-0.0003219846	-0.0001393898
	-0.001227806	-0.0002467439	0.07415343	0.004695206	-0.0009178625	-1.474255e-05	0.02905936	0.0215046
	0.0246646	0.02685204	-0.0009178625	-1.474255e-05	0.08328219	-0.008372475	-0.0007432196	-0.0001260311
	-0.0003219846	-0.0001393898	0.02905937	0.02150461	-0.0007432196	-0.0001260311	0.07333373	0.005018541
6e+07	0.08635066	-0.02064303	-0.001259181	-0.0001765765	0.03149873	0.02670848	-0.0003930267	-0.0001141826
	-0.001259181	-0.0001765765	0.077214	-0.001202715	-0.0009425104	6.484892e-05	0.03638912	0.01857819
	0.03149873	0.02670848	-0.0009425104	6.484892e-05	0.08726895	-0.020496	-0.0008041366	-5.308582e-05
	-0.0003930267	-0.0001141826	0.03638912	0.01857817	-0.0008041365	-5.308584e-05	0.0764449	-0.000707488
7e+07	0.08740821	-0.03361433	-0.00128499	-7.369838e-05	0.03768289	0.02472543	-0.0004605603	-7.172533e-05
	-0.00128499	-7.369834e-05	0.07880377	-0.007439212	-0.0009512449	0.0001481567	0.04242845	0.01331709
	0.0376829	0.02472543	-0.0009512449	0.0001481567	0.08829583	-0.03375115	-0.0008458962	3.917202e-05
	-0.0004605603	-7.172531e-05	0.04242844	0.01331709	-0.0008458962	3.917199e-05	0.07812726	-0.00679519
8e+07	0.08548288	-0.04690074	-0.001294687	5.555322e-05	0.04271908	0.02122522	-0.0005222705	-1.346762e-05
	-0.001294687	5.555322e-05	0.07912038	-0.0136898	-0.0009495984	0.0002271789	0.04648713	0.006233528
	0.04271908	0.02122522	-0.0009495984	0.0002271789	0.08623764	-0.04727712	-0.000866102	0.0001406324
	-0.0005222705	-1.346762e-05	0.04648713	0.00623353	-0.000866102	0.0001406324	0.0785689	-0.01292775
9e+07	0.0806439	-0.05968899	-0.001275058	0.0001891372	0.04623321	0.01666072	-0.0005764858	5.936676e-05
	-0.001275058	0.0001891372	0.07837796	-0.01975967	-0.000946427	0.0002996706	0.04806281	-0.001971102
	0.04623321	0.01666072	-0.000946427	0.0002996706	0.08118521	-0.06023157	-0.0008668316	0.0002464297
	-0.0005764858	5.936676e-05	0.04806282	-0.001971104	-0.0008668316	0.0002464297	0.07797591	-0.01891394
1e+08	0.07325425	-0.07125363	-0.001206807	0.0003174394	0.04800691	0.01156651	-0.0006223831	0.0001457938
	-0.001206807	0.0003174394	0.07682532	-0.02555149	-0.0009519742	0.0003688635	0.04688568	-0.01047535
	0.04800691	0.01156651	-0.0009519742	0.0003688635	0.07351076	-0.0718618	-0.0008469749	0.0003565229
	-0.0006223831	0.0001457938	0.04688568	-0.01047535	-0.0008469749	0.0003565229	0.0766061	-0.02465425
1.1e+08	0.06333933	-0.08127322	-0.00112329	0.0004851555	0.04796979	0.006546671	-0.0006566492	0.0002411799
	-0.00112329	0.0004851555	0.07435407	-0.03132996	-0.0009659935	0.0004235674	0.04292754	-0.01838104
	0.04796979	0.006546671	-0.0009659935	0.0004235674	0.0633681	-0.08175289	-0.0008175642	0.0004641697
	-0.0006566492	0.0002411799	0.04292754	-0.01838104	-0.0008175642	0.0004641696	0.07428192	-0.03054937
1.2e+08	0.0514877	-0.08853513	-0.001057888	0.000643586	0.04630676	0.00217203	-0.0006774699	0.0003512916
	-0.001057888	0.000643586	0.07092302	-0.03664463	-0.0009913244	0.0004902053	0.0365226	-0.0248033
	0.04630676	0.00217203	-0.0009913245	0.0004902053	0.05138091	-0.08887161	-0.0007921005	0.0005691468
	-0.0006774699	0.0003512916	0.03652259	-0.02480329	-0.0007921005	0.0005691468	0.07092024	-0.03594174
1.3e+08	0.03870164	-0.09271711	-0.0009882469	0.0007999122	0.04333148	-0.00108668	-0.0006824272	0.0004759871
	-0.0009882469	0.0007999122	0.06669355	-0.04143775	-0.001027109	0.0005800497	0.0282057	-0.02904701
	0.04333147	-0.00108668	-0.001027109	0.0005800497	0.03851559	-0.09290125	-0.000766327	0.0006790655
	-0.0006824272	0.0004759871	0.0282057	-0.02904701	-0.000766327	0.0006790655	0.06674025	-0.04080025
1.4e+08	0.02590541	-0.09374653	-0.0009070657	0.0009586669	0.03948718	-0.00287515	-0.0006653932	0.0006136672
	-0.0009070657	0.0009586669	0.06171376	-0.04563766	-0.001064579	0.0007026041	0.01870636	-0.03059207
	0.03948718	-0.002875149	-0.001064579	0.0007026041	0.0256875	-0.09377588	-0.0007357911	0.0008012603
	-0.0006653932	0.0006136672	0.01870636	-0.03059207	-0.0007357912	0.0008012603	0.06178836	-0.04506721
1.5e+08	0.01397497	-0.09180378	-0.0008067339	0.00112184	0.03530421	-0.002995113	-0.0006209094	0.0007612624
	-0.0008067339	0.00112184	0.0560124	-0.04913685	-0.001090133	0.0008635214	0.008887029	-0.02915335
	0.03530421	-0.002995112	-0.001090133	0.0008635214	0.01376793	-0.0916841	-0.0006919747	0.0009409096
	-0.0006209094	0.0007612624	0.008887029	-0.02915335	-0.0006919747	0.0009409096	0.05608751	-0.04862977
1.6e+08	0.003682919	-0.08730019	-0.0006788027	0.001287805	0.03134735	-0.001423457	-0.0005436212	0.0009134425
	-0.0006788027	0.001287805	0.04963092	-0.05178715	-0.001087025	0.00106309	-0.0003314449	-0.02471437
	0.03134735	-0.001423457	-0.001087025	0.00106309	0.003524339	-0.08704515	-0.0006232194	0.001098926
	-0.0005436212	0.0009134425	-0.0003314445	-0.02471437	-0.0006232194	0.001098926	0.04967994	-0.05132899
1.7e+08	-0.004356845	-0.08084022	-0.0005159782	0.001449449	0.02815912	0.001684468	-0.0004291064	0.001062608
	-0.0005159782	0.001449449	0.04265019	-0.05340559	-0.0009885456	0.001321492	-0.008051801	-0.01753625
	0.02815912	0.001684468	-0.0009885456	0.001321492	-0.004434726	-0.08047068	-0.0005186359	0.001269873
	-0.0004291064	0.001062608	-0.0080518	-0.01753625	-0.0005186359	0.001269873	0.04265398	-0.05297251
1.8e+08	-0.009733948	-0.07316859	-0.0003115384	0.001598403	0.02620572	0.006011461	-0.0002751387	0.001198825
	-0.0003115384	0.001598403	0.03521277	-0.05379117	-0.0008256715	0.001582188	-0.01348273	-0.008142098
	0.02620572	0.006011461	-0.0008256715	0.001582188	-0.009706392	-0.07271171	-0.0003647411	0.001444082
	-0.0002751387	0.001198825	-0.01348273	-0.008142097	-0.0003647412	0.001444082	0.0351638	-0.05335336
1.9e+08	-0.01227074	-0.06510591	-6.30221e-05	0.001721253	0.02583011	0.01111103	-8.252451e-05	0.001310915
	-6.30221e-05	0.001721253	0.02753847	-0.05274795	-0.0005923593	0.001826658	-0.01601391	0.002722891
	0.02583011	0.01111103	-0.0005923593	0.001826658	-0.01212088	-0.06459366	-0.0001543171	0.001604711
	-8.252451e-05	0.001310915	-0.01601391	0.002722892	-0.0001543171	0.001604711	0.02744201	-0.05227554
2e+08	-0.01203141	-0.05747935	0.0002265722	0.001802744	0.02721761	0.01645241	0.000144222	0.001387447
	0.0002265722	0.001802744	0.01993085	-0.05011665	-0.0002808369	0.002034308	-0.01527646	0.01415298
	0.02721761	0.01645241	-0.0002808369	0.002034308	-0.01175226	-0.05694528	0.0001130776	0.001731447
	0.000144222	0.001387447	-0.01527646	0.01415298	0.0001130776	0.001731447	0.01980287	-0.04958461
2.1e+08	-0.009313274	-0.05105252	0.0005486694	0.001828419	0.03037927	0.02147516	0.0003968598	0.001418231
	0.0005486694	0.001828419	0.01277036	-0.04580935	9.226161e-05	0.002180748	-0.01118316	0.02515923
	0.03037927	0.02147516	9.226161e-05	0.002180748	-0.008906322	-0.05053058	0.0004298027	0.001803825
	0.0003968598	0.001418231	-0.01118316	0.02515923	0.0004298027	0.001803825	0.01263563	-0.0452006
2.2e+08	-0.004614046	-0.04646225	0.0008891124	0.001786679	0.03515166	0.02564527	0.0006638876	0.001395638
	0.0008891124	0.001786679	0.00649508	-0.03984057	0.0005116622	0.002247768	-0.003943955	0.0347565
	0.03515166	0.02564527	0.0005116622	0.002247768	-0.004090453	-0.04598348	0.0007804535	0.001804228
	0.0006638876	0.001395638	-0.003943955	0.0347565	0.0007804535	0.001804228	0.006382985	-0.03914883
2.3e+08	0.001414259	-0.04416718	0.001229685	0.001670988	0.04121582	0.02850755	0.0009315828	0.001315767
	0.001229685	0.001670988	0.001568804	-0.03235382	0.0009564851	0.002222319	0.00594515	0.04205237
	0.04121582	0.02850755	0.0009564851	0.002222319	0.002035663	-0.04375755	0.001143363	0.001721111
	0.0009315828	0.001315767	0.00594515	0.04205237	0.001143363	0.001721111	0.001509321	-0.03158355
2.4e+08	0.008026025	-0.04441323	0.001550493	0.001481073	0.04813148	0.02972987	0.001185466	0.001179036
	0.001550493	0.001481073	-0.001560361	-0.02363618	0.001402536	0.002098066	0.01773992	0.04632862
	0.04813148	0.02972987	0.001402536	0.002098066	0.008720498	-0.04409182	0.001493443	0.00155107
	0.001185466	0.001179036	0.01773992	0.04632862	0.001493443	0.00155107	-0.001539602	-0.02280256
2.5e+08	0.01444953	-0.0472193	0.00183228	0.001223318	0.05538193	0.02913214	0.001411906	0.0009901163
	0.00183228	0.001223318	-0.002506968	-0.01411922	0.001824674	0.001876064	0.03050867	0.04710877
	0.05538193	0.02913214	0.001824674	0.001876064	0.01518855	-0.0469966	0.001805626	0.001299737
	0.001411906	0.0009901163	0.03050867	0.04710877	0.001805626	0.001299737	-0.002384665	-0.01324615
2.6e+08	0.01995293	-0.0523828	0.002058984	0.0009098337	0.0624257	0.02670032	0.001599503	0.0007574485
	0.002058984	0.0009098337	-0.0009968492	-0.00436344	0.002199351	0.001564597	0.04321075	0.04420479
	0.0624257	0.02670032	0.002199351	0.001564597	0.02070698	-0.0522606	0.002058367	0.0009809831
	0.001599503	0.0007574485	0.04321075	0.04420479	0.002058367	0.0009809831	-0.0007597368	-0.003481711
2.7e+08	0.02390637	-0.05950563	0.002219566	0.000556822	0.06874859	0.02258377	0.001740198	0.0004918944
	0.002219566	0.000556822	0.003089532	0.004972959	0.002506729	0.001178112	0.05478528	0.03773693
	0.06874859	0.02258377	0.002506729	0.001178112	0.02464747	-0.0594767	0.002236518	0.0006148618
	0.001740198	0.0004918944	0.05478528	0.03773693	0.002236518	0.0006148618	0.003444565	0.005828751
2.8e+08	0.02583064	-0.06803516	0.002308972	0.0001822924	0.07391103	0.01707596	0.001829696	0.0002055637
	0.002308972	0.0001822924	0.009682757	0.01317959	0.002732356	0.0007352975	0.06424221	0.02812803
	0.07391103	0.01707596	0.002732356	0.0007352975	0.02653493	-0.06808412	0.002333067	0.0002246107
	0.001829696	0.0002055637	0.06424221	0.02812803	0.002333067	0.0002246107	0.01014782	0.01397448
2.9e+08	0.02543128	-0.07731616	0.002328047	-0.0001963048	0.07758628	0.01058379	0.001867453	-8.97767e-05
	0.002328047	-0.0001963048	0.01850516	0.01955199	0.002867916	0.0002571847	0.07074681	0.01607045
	0.07758628	0.01058379	0.002867916	0.0002571847	0.02608128	-0.07742167	0.00234948	-0.0001669246
	0.001867453	-8.97767e-05	0.07074681	0.01607045	0.00234948	-0.0001669246	0.01906194	0.02025327
3e+08	0.02261635	-0.08665004	0.002282576	-0.0005642282	0.07958706	0.003586114	0.001856026	-0.000383891
	0.002282576	-0.0005642282	0.02906941	0.02345498	0.002911281	-0.0002349932	0.07369003	0.002470091
	0.07958706	0.003586114	0.002911281	-0.0002349932	0.02320227	-0.08678635	0.002294553	-0.0005403746
	0.001856026	-0.000383891	0.07369003	0.002470091	0.002294553	-0.0005403746	0.02969003	0.02403567
3.1e+08	0.01749534	-0.09535348	0.002181578	-0.000910839	0.07987888	-0.003410406	0.001799992	-0.0006689488
	0.002181578	-0.000910839	0.04069738	0.02438746	0.002865816	-0.0007218369	0.07274033	-0.0116264
	0.07987888	-0.003410406	0.002865816	-0.0007218369	0.01801602	-0.09549324	0.002182207	-0.0008822618
	0.001799992	-0.0006689488	0.07274033	-0.0116264	0.002182207	-0.0008822618	0.04134598	0.02482834
3.2e+08	0.01036308	-0.1028134	0.002035149	-0.001230182	0.07857849	-0.009918906	0.00170483	-0.0009397051
	0.002035149	-0.001230182	0.05255881	0.02204077	0.002739235	-0.001187014	0.06787123	-0.02511564
	0.07857849	-0.009918906	0.002739235	-0.001187014	0.01082589	-0.1029305	0.00202836	-0.001186377
	0.00170483	-0.0009397051	0.06787123	-0.02511564	0.00202836	-0.001186377	0.05319396	0.02233373
3.3e+08	0.001668941	-0.1085339	0.00185243	-0.001520684	0.07593956	-0.01551458	0.001575639	-0.001193506
	0.00185243	-0.001520684	0.06372859	0.01634647	0.002541851	-0.00161849	0.05936415	-0.03692439
	0.07593956	-0.01551458	0.002541851	-0.00161849	0.002089913	-0.1086054	0.00184779	-0.001453544
	0.001575639	-0.001193506	0.05936415	-0.03692439	0.00184779	-0.001453544	0.06430642	0.01649478
3.4e+08	-0.008023089	-0.1121723	0.001638349	-0.001786382	0.07232847	-0.0198716	0.001416292	-0.001429477
	0.001638349	-0.001786382	0.07325823	0.00750572	0.002284987	-0.002008305	0.04778829	-0.04609377
	0.07232847	-0.0198716	0.002284987	-0.002008305	-0.007621926	-0.1121812	0.001651278	-0.001690201
	0.001416292	-0.001429477	0.04778829	-0.04609377	0.001651278	-0.001690201	0.07373621	0.007525289
3.5e+08	-0.01808406	-0.113562	0.001396988	-0.002026731	0.06818846	-0.02279148	0.001228568	-0.001647764
	0.001396988	-0.002026731	0.08025732	-0.00400338	0.001979303	-0.002352705	0.03395762	-0.0518525
	0.06818846	-0.02279148	0.001979303	-0.002352705	-0.01767476	-0.1134989	0.001443674	-0.001905835
	0.001228568	-0.001647764	0.03395762	-0.0518525	0.001443674	-0.001905835	0.08059689	-0.00408492
3.6e+08	-0.02787014	-0.1127225	0.001128004	-0.002243878	0.06399937	-0.02421904	0.001012213	-0.001848125
	0.001128004	-0.002243878	0.0839761	-0.01744309	0.001633237	-0.002650774	0.0188714	-0.05367681
	0.06399937	-0.02421904	0.001633237	-0.002650774	-0.02742279	-0.1125865	0.001223164	-0.002110021
	0.001012213	-0.001848125	0.0188714	-0.05367681	0.001223164	-0.002110021	0.08414688	-0.01758694
3.7e+08	-0.0367757	-0.109853	0.0008281586	-0.002437571	0.06023356	-0.02424736	0.000765175	-0.002028842
	0.0008281586	-0.002437571	0.08388406	-0.03185857	0.001252464	-0.002902993	0.003640553	-0.05133135
	0.06023356	-0.02424736	0.001252464	-0.002902993	-0.03626066	-0.1096531	0.0009818073	-0.002309218
	0.000765175	-0.002028842	0.003640553	-0.05133135	0.0009818073	-0.002309218	0.08386648	-0.03201752
3.8e+08	-0.04428142	-0.1053151	0.0004929965	-0.002603844	0.05731189	-0.02310943	0.0004847334	-0.00218569
	0.0004929965	-0.002603844	0.07973338	-0.04614493	0.0008397797	-0.003109568	-0.01059273	-0.04488926
	0.05731189	-0.02310943	0.0008397797	-0.003109568	-0.04367136	-0.1050695	0.0007077123	-0.002504034
	0.0004847334	-0.00218569	-0.01059273	-0.04488926	0.0007077123	-0.002504034	0.07952088	-0.04626619
3.9e+08	-0.04999621	-0.09960187	0.0001187325	-0.002734484	0.05556383	-0.02115713	0.0001686076	-0.002311531
	0.0001187325	-0.002734484	0.07160308	-0.05913223	0.0003956463	-0.003268915	-0.02273855	-0.03473203
	0.05556383	-0.02115713	0.0003956463	-0.003268915	-0.0492703	-0.09933656	0.0003878618	-0.002687692
	0.0001686076	-0.002311531	-0.02273855	-0.03473203	0.0003878618	-0.002687692	0.07120473	-0.05916161
4e+08	-0.05368952	-0.0932952	-0.0002955218	-0.002817381	0.05519444	-0.01882867	-0.0001833638	-0.002396376
	-0.0002955218	-0.002817381	0.059916	-0.06968624	-8.047237e-05	-0.003376372	-0.03184044	-0.021526
	0.05519444	-0.01882867	-8.047237e-05	-0.003376372	-0.05283413	-0.09304264	1.166564e-05	-0.002845696
	-0.0001833638	-0.002396376	-0.03184044	-0.021526	1.166564e-05	-0.002845696	0.05935545	-0.0695721
4.1e+08	-0.05530998	-0.08701549	-0.0007458686	-0.002837874	0.0562628	-0.01660644	-0.000567803	-0.002428243
	-0.0007458686	-0.002837874	0.04542371	-0.07681148	-0.0005879064	-0.003423808	-0.03714807	-0.006180016
	0.0562628	-0.01660644	-0.0005879064	-0.003423808	-0.05432196	-0.08681203	-0.0004253322	-0.002957221
	-0.000567803	-0.002428243	-0.03714807	-0.006180016	-0.0004253322	-0.002957221	0.04473943	-0.07650882
4.2e+08	-0.05499047	-0.08136969	-0.001222321	-0.002780922	0.05867329	-0.01497141	-0.0009766626	-0.002394664
	-0.001222321	-0.002780922	0.02916103	-0.07974727	-0.001123278	-0.003399939	-0.03817857	0.01021624
	0.05867329	-0.01497141	-0.001123278	-0.003399939	-0.05387704	-0.08125251	-0.0009189912	-0.002997831
	-0.0009766626	-0.002394664	-0.03817857	0.01021624	-0.0009189912	-0.002997831	0.02840424	-0.07922246
4.3e+08	-0.0530351	-0.07689563	-0.001708624	-0.002633703	0.06218328	-0.01435221	-0.001396945	-0.002284517
	-0.001708624	-0.002633703	0.01236915	-0.07805127	-0.001678152	-0.003291906	-0.03475901	0.02646923
	0.06218328	-0.01435221	-0.001678152	-0.003291906	-0.05181503	-0.0768991	-0.001454993	-0.002943348
	-0.001396945	-0.002284517	-0.03475901	0.02646923	-0.001454993	-0.002943348	0.01160011	-0.07728552
4.4e+08	-0.04989213	-0.07401482	-0.002183089	-0.00238828	0.06642496	-0.0150825	-0.001810942	-0.002090373
	-0.002183089	-0.00238828	-0.003604061	-0.07165424	-0.002238475	-0.00308726	-0.02704867	0.04136865
	0.06642496	-0.0150825	-0.002238475	-0.00308726	-0.04859345	-0.07416744	-0.002008986	-0.00277429
	-0.001810942	-0.002090373	-0.02704867	0.04136865	-0.002008986	-0.00277429	-0.004319842	-0.07064612
4.5e+08	-0.04611201	-0.07299499	-0.00262069	-0.002043737	0.07094229	-0.01736472	-0.002197806	-0.001810268
	-0.00262069	-0.002043737	-0.01741746	-0.06088402	-0.002784332	-0.002776679	-0.01553629	0.05378063
	0.07094229	-0.01736472	-0.002784332	-0.002776679	-0.04477064	-0.07331619	-0.002549041	-0.002479728
	-0.002197806	-0.001810268	-0.01553629	0.05378063	-0.002549041	-0.002479728	-0.01801485	-0.05965102
4.6e+08	-0.04229572	-0.07392646	-0.002995773	-0.001607409	0.07523675	-0.02124859	-0.002535727	-0.001448796
	-0.002995773	-0.001607409	-0.02785608	-0.0464533	-0.003290968	-0.002356656	-0.001010443	0.06273803
	0.07523675	-0.02124859	-0.003290968	-0.002356656	-0.04095227	-0.07442449	-0.003039256	-0.002059981
	-0.002535727	-0.001448796	-0.001010443	0.06273803	-0.003039256	-0.002059981	-0.02827626	-0.0450312
4.7e+08	-0.03903847	-0.07671549	-0.003285398	-0.00109462	0.07881863	-0.02662516	-0.002804396	-0.001017465
	-0.003285398	-0.00109462	-0.03394303	-0.02941177	-0.003731277	-0.0018312	0.0154956	0.06752125
	0.07881863	-0.02662516	-0.003731277	-0.0018312	-0.0377345	-0.07738688	-0.003444324	-0.001528095
	-0.002804396	-0.001017465	0.0154956	0.06752125	-0.003444324	-0.001528095	-0.03413739	-0.02785287
4.8e+08	-0.03687437	-0.08109893	-0.003472097	-0.000527449	0.08125683	-0.03323947	-0.002987538	-0.0005336286
	-0.003472097	-0.000527449	-0.03502858	-0.01106529	-0.004078695	-0.001212669	0.03278116	0.06771996
	0.08125683	-0.03323947	-0.004078695	-0.001212669	-0.03564894	-0.08192756	-0.00373449	-0.0009084154
	-0.002987538	-0.0005336286	0.03278116	0.06771996	-0.00373449	-0.0009084154	-0.03496535	-0.009435168
4.9e+08	-0.03623037	-0.08667047	-0.003545966	6.773338e-05	0.08222129	-0.04071736	-0.003074774	-1.879541e-05
	-0.003545966	6.773338e-05	-0.03085729	0.007125651	-0.00431009	-0.0005218132	0.04957274	0.06327144
