!$
! Info: Touchstone file created by Circ.  Input file=Intel_C2M_200G_12p0in_202208016_staggered.circ
!$
# Hz S RI R 50
0	0.03641712	5.357013e-24	0.0001102199	1.698995e-22	0.0001521514	3.600095e-22	0.0001102135	1.696341e-22
	0.0001102199	1.698995e-22	0.03642971	5.795271e-24	0.000110224	1.700461e-22	0.0001517581	3.564468e-22
	0.000152207	3.601318e-22	0.000110224	1.70048e-22	0.03641215	5.625729e-24	0.0001102156	1.697635e-22
	0.0001102135	1.69636e-22	0.0001518137	3.565705e-22	0.0001102156	1.697635e-22	0.03642774	5.478681e-24
1e+07	0.04458685	0.01119284	1.450583e-05	4.675656e-05	0.003246201	0.008353466	1.946161e-05	3.512832e-05
	1.450583e-05	4.675658e-05	0.04500558	0.01146459	1.685283e-05	8.409433e-05	0.003252011	0.008406745
	0.003246201	0.008353466	1.685283e-05	8.409433e-05	0.04498317	0.01151561	1.476544e-05	4.875954e-05
	1.946161e-05	3.512832e-05	0.003252011	0.008406745	1.476544e-05	4.875954e-05	0.04462204	0.01122461
2e+07	0.05432184	0.01456648	2.52186e-05	3.775282e-05	0.007585164	0.01471592	1.256912e-05	2.601044e-05
	2.52186e-05	3.775283e-05	0.05499086	0.01480857	8.486203e-05	8.814526e-05	0.007597442	0.01481957
	0.007585169	0.01471591	8.486203e-05	8.814526e-05	0.05497643	0.01491234	2.77176e-05	4.061376e-05
	1.256912e-05	2.601044e-05	0.007597448	0.01481956	2.77176e-05	4.061376e-05	0.05437617	0.01461962
3e+07	0.06229873	0.01337226	4.085992e-05	2.686087e-05	0.0137986	0.01937194	1.709923e-05	2.106648e-05
	4.085993e-05	2.686086e-05	0.06313413	0.0134851	0.000132674	6.541441e-05	0.01381934	0.01952075
	0.0137986	0.01937198	0.000132674	6.541441e-05	0.063133	0.01364751	4.497936e-05	2.933577e-05
	1.709923e-05	2.106648e-05	0.01381933	0.01952079	4.497937e-05	2.933577e-05	0.06237886	0.01344676
4e+07	0.06855168	0.009852125	5.024331e-05	1.329503e-05	0.02122391	0.02163415	2.305415e-05	1.318e-05
	5.024331e-05	1.329503e-05	0.06948603	0.009791714	0.0001631193	2.984518e-05	0.02125191	0.02182204
	0.02122392	0.02163417	0.0001631193	2.984518e-05	0.06951134	0.01000216	5.554456e-05	1.490685e-05
	2.305416e-05	1.318e-05	0.02125192	0.02182206	5.554456e-05	1.490685e-05	0.06866772	0.009931855
5e+07	0.07318079	0.004948334	5.394276e-05	-1.255406e-06	0.02902842	0.02128319	2.572238e-05	4.85355e-06
	5.394276e-05	-1.255408e-06	0.07415343	0.004695206	0.0001776487	-1.162265e-05	0.02905936	0.0215046
	0.02902842	0.02128319	0.0001776487	-1.162265e-05	0.07420975	0.004941993	6.002809e-05	-7.891722e-07
	2.572238e-05	4.853549e-06	0.02905937	0.02150461	6.002808e-05	-7.891734e-07	0.07333373	0.005018541
6e+07	0.07625807	-0.0007542688	5.261933e-05	-1.523256e-05	0.03636232	0.01832694	2.545217e-05	-3.049902e-06
	5.261933e-05	-1.523256e-05	0.077214	-0.001202715	0.000177621	-5.407686e-05	0.03638912	0.01857819
	0.03636232	0.01832692	0.000177621	-5.407686e-05	0.07730115	-0.0009318458	5.910602e-05	-1.607868e-05
	2.545217e-05	-3.0499e-06	0.03638912	0.01857817	5.910602e-05	-1.607868e-05	0.0764449	-0.000707488
7e+07	0.07791358	-0.006805449	4.71104e-05	-2.737731e-05	0.04241489	0.01303671	2.276789e-05	-9.815233e-06
	4.71104e-05	-2.737731e-05	0.07880377	-0.007439212	0.0001645824	-9.370082e-05	0.04242845	0.01331709
	0.04241489	0.01303671	0.0001645824	-9.370082e-05	0.07891648	-0.007155997	5.362857e-05	-2.961806e-05
	2.276789e-05	-9.815233e-06	0.04242844	0.01331709	5.362857e-05	-2.961806e-05	0.07812726	-0.00679519
8e+07	0.07833901	-0.0128902	3.841791e-05	-3.679168e-05	0.0464967	0.005920899	1.82882e-05	-1.49249e-05
	3.841791e-05	-3.679168e-05	0.07912038	-0.0136898	0.0001405016	-0.0001274924	0.04648713	0.006233528
	0.0464967	0.005920901	0.0001405016	-0.0001274924	0.07924897	-0.01340335	4.45718e-05	-4.042457e-05
	1.828819e-05	-1.49249e-05	0.04648713	0.00623353	4.45718e-05	-4.042457e-05	0.0785689	-0.01292775
9e+07	0.0777439	-0.01882058	2.751558e-05	-4.293764e-05	0.04810463	-0.002323292	1.264057e-05	-1.806848e-05
	2.751557e-05	-4.293764e-05	0.07837796	-0.01975967	0.0001073557	-0.0001532927	0.04806281	-0.001971102
	0.04810464	-0.002323293	0.0001073557	-0.0001532927	0.07850926	-0.01947441	3.290531e-05	-4.788944e-05
	1.264057e-05	-1.806848e-05	0.04806282	-0.001971104	3.290531e-05	-4.788944e-05	0.07797591	-0.01891394
1e+08	0.07638754	-0.02450123	1.445975e-05	-4.561199e-05	0.04696649	-0.0108784	6.010959e-06	-1.908504e-05
	1.445975e-05	-4.561199e-05	0.07682532	-0.02555149	6.391691e-05	-0.000169952	0.04688568	-0.01047535
	0.04696649	-0.0108784	6.391691e-05	-0.000169952	0.07694485	-0.02526566	1.854666e-05	-5.177928e-05
	6.01096e-06	-1.908504e-05	0.04688568	-0.01047535	1.854666e-05	-5.177928e-05	0.0766061	-0.02465425
1.1e+08	0.07412933	-0.03028712	3.109896e-06	-4.044884e-05	0.0430501	-0.0188497	7.883134e-07	-1.612558e-05
	3.109897e-06	-4.044884e-05	0.07435407	-0.03132996	2.100785e-05	-0.0001592109	0.04292754	-0.01838104
	0.04305009	-0.0188497	2.100785e-05	-0.0001592109	0.07442121	-0.03108551	5.526944e-06	-4.683731e-05
	7.883138e-07	-1.612558e-05	0.04292754	-0.01838104	5.526945e-06	-4.683731e-05	0.07428192	-0.03054937
1.2e+08	0.07085847	-0.03564482	-3.794008e-06	-3.413327e-05	0.03668427	-0.02535354	-1.971453e-06	-1.276661e-05
	-3.794007e-06	-3.413327e-05	0.07092302	-0.03664463	-5.194624e-06	-0.0001419467	0.0365226	-0.0248033
	0.03668427	-0.02535354	-5.194623e-06	-0.0001419467	0.07092504	-0.03636675	-2.698733e-06	-4.037144e-05
	-1.971452e-06	-1.276661e-05	0.03652259	-0.02480329	-2.698733e-06	-4.037144e-05	0.07092024	-0.03594174
1.3e+08	0.06675739	-0.04049988	-6.411977e-06	-2.784443e-05	0.02839809	-0.02969457	-3.5698e-06	-9.517204e-06
	-6.411977e-06	-2.784443e-05	0.06669355	-0.04143775	-1.210611e-05	-0.0001237464	0.0282057	-0.02904701
	0.02839809	-0.02969456	-1.210611e-05	-0.0001237464	0.06665526	-0.04109705	-5.76562e-06	-3.374071e-05
	-3.5698e-06	-9.517204e-06	0.0282057	-0.02904701	-5.76562e-06	-3.374071e-05	0.06674025	-0.04080025
1.4e+08	0.06187983	-0.04477329	-5.514732e-06	-2.226281e-05	0.01891529	-0.03135031	-4.219849e-06	-6.471175e-06
	-5.514732e-06	-2.226281e-05	0.06171376	-0.04563766	-1.761869e-05	-0.0001061608	0.01870636	-0.03059207
	0.01891528	-0.0313503	-1.761869e-05	-0.0001061608	0.06165395	-0.04523014	-5.441045e-06	-2.772166e-05
	-4.219849e-06	-6.471175e-06	0.01870636	-0.03059207	-5.441045e-06	-2.772166e-05	0.06178836	-0.04506721
1.5e+08	0.05625812	-0.04835286	-4.244206e-06	-1.761522e-05	0.009093155	-0.03003122	-2.740071e-06	-4.162902e-06
	-4.244206e-06	-1.761522e-05	0.0560124	-0.04913685	-2.094802e-05	-8.923492e-05	0.008887029	-0.02915335
	0.009093155	-0.03003121	-2.094802e-05	-8.923492e-05	0.05594032	-0.04866304	-4.504464e-06	-2.247816e-05
	-2.740071e-06	-4.162902e-06	0.008887029	-0.02915335	-4.504464e-06	-2.247816e-05	0.05608751	-0.04862977
1.6e+08	0.04993642	-0.05108752	-2.425678e-06	-1.378009e-05	-0.0001510654	-0.02571452	-8.679586e-07	-2.609193e-06
	-2.425678e-06	-1.378009e-05	0.04963092	-0.05178715	-2.198571e-05	-7.327658e-05	-0.0003314449	-0.02471437
	-0.0001510649	-0.02571452	-2.198571e-05	-7.327658e-05	0.04955186	-0.05124551	-3.088722e-06	-1.809433e-05
	-8.679586e-07	-2.609193e-06	-0.0003314445	-0.02471437	-3.088722e-06	-1.809433e-05	0.04967994	-0.05132899
1.7e+08	0.04299717	-0.05279285	-1.89989e-07	-1.08412e-05	-0.007921697	-0.0186537	9.215617e-07	-1.698106e-06
	-1.89989e-07	-1.08412e-05	0.04265019	-0.05340559	-2.081297e-05	-5.863818e-05	-0.008051801	-0.01753625
	-0.007921697	-0.0186537	-2.081297e-05	-5.863818e-05	0.04257078	-0.05279255	-1.176544e-06	-1.456587e-05
	9.215617e-07	-1.698106e-06	-0.0080518	-0.01753625	-1.176544e-06	-1.456587e-05	0.04265398	-0.05297251
1.8e+08	0.03558417	-0.05326587	2.257143e-06	-8.849192e-06	-0.01342638	-0.009363541	2.691983e-06	-1.370522e-06
	2.257143e-06	-8.849192e-06	0.03521277	-0.05379117	-1.765936e-05	-4.566062e-05	-0.01348273	-0.008142098
	-0.01342638	-0.009363541	-1.765936e-05	-4.566062e-05	0.03514311	-0.05310342	1.044566e-06	-1.19576e-05
	2.691983e-06	-1.370522e-06	-0.01348273	-0.008142097	1.044566e-06	-1.19576e-05	0.0351638	-0.05335336
1.9e+08	0.0279176	-0.05230939	4.695991e-06	-7.794752e-06	-0.01605087	0.001418793	4.306728e-06	-1.600421e-06
	4.695991e-06	-7.794753e-06	0.02753847	-0.05274795	-1.286577e-05	-3.463346e-05	-0.01601391	0.002722891
	-0.01605087	0.001418794	-1.286577e-05	-3.463346e-05	0.02749205	-0.05198562	3.364127e-06	-1.027953e-05
	4.306728e-06	-1.600421e-06	-0.01601391	0.002722892	3.364127e-06	-1.027953e-05	0.02744201	-0.05227554
2e+08	0.02030079	-0.04976244	6.905322e-06	-7.611887e-06	-0.0154197	0.01279439	5.631844e-06	-2.3227e-06
	6.905322e-06	-7.611887e-06	0.01993085	-0.05011665	-6.85592e-06	-2.576672e-05	-0.01527646	0.01415298
	-0.0154197	0.01279439	-6.85592e-06	-2.576672e-05	0.01992179	-0.04928542	5.564971e-06	-9.487203e-06
	5.631844e-06	-2.3227e-06	-0.01527646	0.01415298	5.564971e-06	-9.487203e-06	0.01980287	-0.04958461
2.1e+08	0.01311392	-0.04553489	8.685657e-06	-8.173833e-06	-0.01143664	0.02377886	6.551094e-06	-3.433527e-06
	8.685657e-06	-8.173833e-06	0.01277036	-0.04580935	-1.048537e-07	-1.916966e-05	-0.01118316	0.02515923
	-0.01143664	0.02377886	-1.048537e-07	-1.916966e-05	0.01281144	-0.04492051	7.445131e-06	-9.4773e-06
	6.551094e-06	-3.433527e-06	-0.01118316	0.02515923	7.445131e-06	-9.4773e-06	0.01263563	-0.0452006
2.2e+08	0.006794897	-0.03963825	9.875473e-06	-9.305247e-06	-0.004301234	0.03338874	6.979425e-06	-4.796786e-06
	9.875472e-06	-9.305247e-06	0.00649508	-0.03984057	6.892293e-06	-1.484107e-05	-0.003943955	0.0347565
	-0.004301234	0.03338874	6.892293e-06	-1.484107e-05	0.00659462	-0.03891081	8.834275e-06	-1.009724e-05
	6.979425e-06	-4.796786e-06	-0.003943955	0.0347565	8.834275e-06	-1.009724e-05	0.006382985	-0.03914883
2.3e+08	0.001808073	-0.03221239	1.037107e-05	-1.079277e-05	0.005501505	0.04072984	6.873654e-06	-6.255233e-06
	1.037107e-05	-1.079277e-05	0.001568804	-0.03235382	1.365974e-05	-1.266206e-05	0.00594515	0.04205237
	0.005501505	0.04072984	1.365974e-05	-1.266206e-05	0.001728492	-0.03140243	9.609067e-06	-1.115497e-05
	6.873654e-06	-6.255233e-06	0.00594515	0.04205237	9.609067e-06	-1.115497e-05	0.001509321	-0.03158355
2.4e+08	-0.001396886	-0.02354034	1.012415e-05	-1.240602e-05	0.01723763	0.0450787	6.238684e-06	-7.644928e-06
	1.012415e-05	-1.240602e-05	-0.001560361	-0.02363618	1.975293e-05	-1.242095e-05	0.01773992	0.04632862
	0.01723763	0.0450787	1.975293e-05	-1.242095e-05	-0.001345635	-0.02268295	9.705199e-06	-1.243344e-05
	6.238684e-06	-7.644928e-06	0.01773992	0.04632862	9.705199e-06	-1.243344e-05	-0.001539602	-0.02280256
2.5e+08	-0.002431745	-0.01404965	9.156442e-06	-1.391149e-05	0.02998412	0.04595039	5.12734e-06	-8.811382e-06
	9.156442e-06	-1.391149e-05	-0.002506968	-0.01411922	2.480475e-05	-1.380579e-05	0.03050867	0.04710877
	0.02998412	0.04595039	2.480475e-05	-1.380579e-05	-0.002249745	-0.01318114	9.1247e-06	-1.37115e-05
	5.12734e-06	-8.811382e-06	0.03050867	0.04710877	9.1247e-06	-1.37115e-05	-0.002384665	-0.01324615
2.6e+08	-0.001018272	-0.00429717	7.555766e-06	-1.509516e-05	0.04270622	0.0431458	3.635114e-06	-9.624492e-06
	7.555766e-06	-1.509516e-05	-0.0009968492	-0.00436344	2.852814e-05	-1.643592e-05	0.04321075	0.04420479
	0.04270622	0.0431458	2.852814e-05	-1.643592e-05	-0.0007151256	-0.003452718	7.925572e-06	-1.478109e-05
	3.635114e-06	-9.624492e-06	0.04321075	0.04420479	7.925572e-06	-1.478109e-05	-0.0007597368	-0.003481711
2.7e+08	0.002968335	0.005061655	5.465494e-06	-1.57811e-05	0.05434559	0.03677241	1.889454e-06	-9.990264e-06
	5.465494e-06	-1.57811e-05	0.003089532	0.004972959	3.074463e-05	-1.988132e-05	0.05478528	0.03773693
	0.05434559	0.03677241	3.074463e-05	-1.988132e-05	0.003373877	0.005851025	6.222932e-06	-1.546395e-05
	1.889454e-06	-9.990264e-06	0.05478528	0.03773693	6.222932e-06	-1.546395e-05	0.003444565	0.005828751
2.8e+08	0.009464862	0.01331804	3.070313e-06	-1.584575e-05	0.06391082	0.0272396	3.629452e-08	-9.857965e-06
	3.070313e-06	-1.584575e-05	0.009682757	0.01317959	3.138955e-05	-2.369444e-05	0.06424221	0.02812803
	0.06391082	0.0272396	3.138955e-05	-2.369444e-05	0.009946483	0.01402806	4.175329e-06	-1.562707e-05
	3.62945e-08	-9.857965e-06	0.06424221	0.02812803	4.175329e-06	-1.562707e-05	0.01014782	0.01397448
2.9e+08	0.01820062	0.01976764	5.78324e-07	-1.522654e-05	0.07056185	0.01522676	-1.774494e-06	-9.221935e-06
	5.78324e-07	-1.522654e-05	0.01850516	0.01955199	3.050953e-05	-2.743942e-05	0.07074681	0.01607045
	0.07056185	0.01522676	3.050953e-05	-2.743942e-05	0.018727	0.02038183	1.968118e-06	-1.519185e-05
	-1.774494e-06	-9.221935e-06	0.07074681	0.01607045	1.968118e-06	-1.519185e-05	0.01906194	0.02025327
3e+08	0.02869561	0.02377365	-1.798045e-06	-1.392414e-05	0.07368051	0.001628425	-3.402427e-06	-8.118419e-06
	-1.798045e-06	-1.392414e-05	0.02906941	0.02345498	2.825408e-05	-3.071846e-05	0.07369003	0.002470091
	0.07368051	0.001628425	2.825408e-05	-3.071846e-05	0.02923281	0.0242847	-2.038224e-07	-1.413768e-05
	-3.402427e-06	-8.118419e-06	0.07369003	0.002470091	-2.038224e-07	-1.413768e-05	0.02969003	0.02403567
3.1e+08	0.04027916	0.02483143	-3.860376e-06	-1.199914e-05	0.07292278	-0.01251742	-4.72714e-06	-6.618892e-06
	-3.860376e-06	-1.199914e-05	0.04069738	0.02438746	2.486104e-05	-3.319497e-05	0.07274033	-0.0116264
	0.07292278	-0.01251742	2.486104e-05	-3.319497e-05	0.04079291	0.02524068	-2.153213e-06	-1.25002e-05
	-4.72714e-06	-6.618892e-06	0.07274033	-0.0116264	-2.153213e-06	-1.25002e-05	0.04134598	0.02482834
3.2e+08	0.05212795	0.02262657	-5.439556e-06	-9.563268e-06	0.06824715	-0.02611242	-5.655553e-06	-4.821039e-06
	-5.439556e-06	-9.563268e-06	0.05255881	0.02204077	2.063783e-05	-3.461135e-05	0.06787123	-0.02511564
	0.06824715	-0.02611242	2.063783e-05	-3.461135e-05	0.05258587	0.02294472	-3.714728e-06	-1.03646e-05
	-5.655553e-06	-4.821039e-06	0.06787123	-0.02511564	-3.714728e-06	-1.03646e-05	0.05319396	0.02233373
3.3e+08	0.06332286	0.01708257	-6.407102e-06	-6.767484e-06	0.05991864	-0.03808386	-6.125409e-06	-2.839219e-06
	-6.407102e-06	-6.767484e-06	0.06372859	0.01634647	1.593898e-05	-3.480199e-05	0.05936415	-0.03692439
	0.05991864	-0.03808386	1.593898e-05	-3.480199e-05	0.06369657	0.01732743	-4.756437e-06	-7.855668e-06
	-6.125409e-06	-2.839219e-06	0.05936415	-0.03692439	-4.756437e-06	-7.855668e-06	0.06430642	0.01649478
3.4e+08	0.07291944	0.008390169	-6.682048e-06	-3.788185e-06	0.04848976	-0.04746865	-6.106032e-06	-7.956947e-07
	-6.682048e-06	-3.788185e-06	0.07325823	0.00750572	1.114196e-05	-3.370059e-05	0.04778829	-0.04609377
	0.04848976	-0.04746865	1.114196e-05	-3.370059e-05	0.07318655	0.008586039	-5.187184e-06	-5.126253e-06
	-6.106032e-06	-7.956946e-07	0.04778829	-0.04609377	-5.187184e-06	-5.126253e-06	0.07373621	0.007525289
3.5e+08	0.08002849	-0.002984829	-6.233357e-06	-8.132784e-07	0.03475916	-0.05348629	-5.596753e-06	1.186794e-06
	-6.233357e-06	-8.132784e-07	0.08025732	-0.00400338	6.622805e-06	-3.13413e-05	0.03395762	-0.0518525
	0.03475916	-0.05348629	6.622805e-06	-3.13413e-05	0.0801728	-0.002809478	-4.960034e-06	-2.344883e-06
	-5.596753e-06	1.186794e-06	0.03395762	-0.0518525	-4.960034e-06	-2.344883e-06	0.08059689	-0.00408492
3.6e+08	0.08389773	-0.01631816	-5.078758e-06	1.970467e-06	0.01971356	-0.05559935	-4.624621e-06	2.990714e-06
	-5.078758e-06	1.970467e-06	0.0839761	-0.01744309	2.731621e-06	-2.785504e-05	0.0188714	-0.05367681
	0.01971356	-0.05559935	2.731621e-06	-2.785504e-05	0.08391069	-0.01613157	-4.072748e-06	3.154817e-07
	-4.624621e-06	2.990714e-06	0.0188714	-0.05367681	-4.072748e-06	3.154817e-07	0.08414688	-0.01758694
3.7e+08	0.08398953	-0.03066845	-3.280897e-06	4.388344e-06	0.004455411	-0.05355519	-3.241677e-06	4.508207e-06
	-3.280897e-06	4.388344e-06	0.08388406	-0.03185857	-2.300476e-07	-2.346013e-05	0.003640553	-0.05133135
	0.004455411	-0.05355519	-2.300476e-07	-2.346013e-05	0.08387029	-0.03043775	-2.56568e-06	2.687653e-06
	-3.241677e-06	4.508207e-06	0.003640553	-0.05133135	-2.56568e-06	2.687653e-06	0.08386648	-0.03201752
3.8e+08	0.08004428	-0.0449425	-9.421159e-07	6.286164e-06	-0.009876317	-0.0474073	-1.522655e-06	5.644649e-06
	-9.42116e-07	6.286164e-06	0.07973338	-0.04614493	-2.029564e-06	-1.844819e-05	-0.01059273	-0.04488926
	-0.009876317	-0.0474073	-2.029564e-06	-1.844819e-05	0.07979942	-0.04463512	-5.183764e-07	4.618578e-06
	-1.522655e-06	5.644649e-06	-0.01059273	-0.04488926	-5.183764e-07	4.618578e-06	0.07952088	-0.04626619
3.9e+08	0.07212478	-0.05797855	1.801224e-06	7.537349e-06	-0.02218927	-0.03751685	4.369453e-07	6.322434e-06
	1.801224e-06	7.537349e-06	0.07160308	-0.05913223	-2.520788e-06	-1.316564e-05	-0.02273855	-0.03473203
	-0.02218927	-0.03751685	-2.520788e-06	-1.316564e-05	0.07176926	-0.05756418	1.954199e-06	5.976652e-06
	4.369453e-07	6.322434e-06	-0.02273855	-0.03473203	1.954199e-06	5.976652e-06	0.07120473	-0.05916161
4e+08	0.06063444	-0.06864513	4.784779e-06	8.048879e-06	-0.03151854	-0.0245308	2.523167e-06	6.485252e-06
	4.784779e-06	8.048879e-06	0.059916	-0.06968624	-1.65698e-06	-7.990205e-06	-0.03184044	-0.021526
	-0.03151854	-0.0245308	-1.65698e-06	-7.990205e-06	0.06018972	-0.06809722	4.706443e-06	6.658597e-06
	2.523167e-06	6.485252e-06	-0.03184044	-0.021526	4.706443e-06	6.658597e-06	0.05935545	-0.0695721
4.1e+08	0.04630418	-0.075943	7.822499e-06	7.766998e-06	-0.03710002	-0.009341401	4.606706e-06	6.103276e-06
	7.822499e-06	7.766998e-06	0.04542371	-0.07681148	5.014542e-07	-3.303946e-06	-0.03714807	-0.006180016
	-0.03710002	-0.009341401	5.014542e-07	-3.303946e-06	0.04579845	-0.07524002	7.567042e-06	6.596149e-06
	4.606706e-06	6.103276e-06	-0.03714807	-0.006180016	7.567042e-06	6.596149e-06	0.04473943	-0.07650882
4.2e+08	0.03014944	-0.07910056	1.07143e-05	6.682792e-06	-0.0384325	0.006974106	6.548185e-06	5.178682e-06
	1.07143e-05	6.682792e-06	0.02916103	-0.07974727	3.786574e-06	5.358438e-07	-0.03817857	0.01021624
	-0.0384325	0.006974106	3.786574e-06	5.358438e-07	0.0296164	-0.07822827	1.034595e-05	5.762997e-06
	6.548185e-06	5.178682e-06	-0.03817857	0.01021624	1.034595e-05	5.762997e-06	0.02840424	-0.07922246
4.3e+08	0.01339586	-0.07765808	1.325559e-05	4.837513e-06	-0.03532151	0.02322928	8.206066e-06	3.750626e-06
	1.325559e-05	4.837513e-06	0.01236915	-0.07805127	7.930902e-06	3.22794e-06	-0.03475901	0.02646923
	-0.03532151	0.02322928	7.930902e-06	3.22794e-06	0.01287261	-0.07661086	1.284358e-05	4.181498e-06
	8.206066e-06	3.750626e-06	-0.03475901	0.02646923	1.284358e-05	4.181498e-06	0.01160011	-0.07728552
4.4e+08	-0.002618142	-0.07152396	1.524994e-05	2.326397e-06	-0.02790318	0.03821476	9.447399e-06	1.898079e-06
	1.524994e-05	2.326397e-06	-0.003604061	-0.07165424	1.258468e-05	4.555506e-06	-0.02704867	0.04136865
	-0.02790318	0.03821476	1.258468e-05	4.555506e-06	-0.003092666	-0.07030594	1.486334e-05	1.927643e-06
	9.447399e-06	1.898079e-06	-0.02704867	0.04136865	1.486334e-05	1.927643e-06	-0.004319842	-0.07064612
4.5e+08	-0.01655319	-0.0610011	1.652442e-05	-7.012014e-07	-0.01664309	0.0507912	1.016073e-05	-2.612187e-07
	1.652442e-05	-7.012014e-07	-0.01741746	-0.06088402	1.734217e-05	4.409512e-06	-0.01553629	0.05378063
	-0.01664309	0.0507912	1.734217e-05	4.409512e-06	-0.01694148	-0.05962688	1.622723e-05	-8.674731e-07
	1.016073e-05	-2.612187e-07	-0.01553629	0.05378063	1.622723e-05	-8.674731e-07	-0.01801485	-0.05965102
4.6e+08	-0.02718796	-0.04677758	1.694662e-05	-4.046694e-06	-0.00230847	0.05997964	1.026928e-05	-2.576837e-06
	1.694662e-05	-4.046694e-06	-0.02785608	-0.0464533	2.177609e-05	2.803896e-06	-0.001010443	0.06273803
	-0.00230847	0.05997964	2.177609e-05	2.803896e-06	-0.02745737	-0.04527168	1.679328e-05	-4.021477e-06
	1.026928e-05	-2.576837e-06	-0.001010443	0.06273803	1.679328e-05	-4.021477e-06	-0.02827626	-0.0450312
4.7e+08	-0.03353168	-0.02988144	1.644095e-05	-7.473722e-06	0.01408523	0.06504282	9.742106e-06	-4.8771e-06
	1.644095e-05	-7.473722e-06	-0.03394303	-0.02941177	2.547592e-05	-1.209899e-07	0.0154956	0.06752125
	0.01408523	0.06504282	2.547592e-05	-1.209899e-07	-0.03365583	-0.02827707	1.647223e-05	-7.311229e-06
	9.742106e-06	-4.8771e-06	0.0154956	0.06752125	1.647223e-05	-7.311229e-06	-0.03413739	-0.02785287
4.8e+08	-0.03491476	-0.01160212	1.500092e-05	-1.072616e-05	0.03135003	0.06554808	8.60053e-06	-6.984841e-06
	1.500092e-05	-1.072616e-05	-0.03502858	-0.01106529	2.808622e-05	-4.108346e-06	0.03278116	0.06771996
