!$
! Info: Touchstone file created by Circ.  Input file=Intel_C2M_200G_6p0in_202208016_staggered.circ
!$
# Hz S RI R 50
0	0.02031885	3.284395e-24	6.553918e-05	9.028775e-23	0.0001088785	2.826364e-22	6.553199e-05	9.01335e-23
	6.553918e-05	9.028776e-23	0.02033186	3.614959e-24	6.554373e-05	9.036651e-23	0.0001084733	2.807351e-22
	0.000108936	2.827629e-22	6.554372e-05	9.036777e-23	0.02031371	3.427283e-24	6.553446e-05	9.020288e-23
	6.553198e-05	9.013476e-23	0.0001085307	2.808621e-22	6.553446e-05	9.020288e-23	0.02032982	3.424546e-24
1e+07	0.02465161	0.003189011	5.089082e-06	2.676318e-05	0.001644279	0.005910986	9.30949e-06	1.945268e-05
	5.089085e-06	2.67632e-05	0.02461157	0.003652531	3.749996e-06	3.033169e-05	0.001650265	0.00597058
	0.001644279	0.005910986	3.749996e-06	3.033169e-05	0.02458982	0.003705146	5.139615e-06	2.780673e-05
	9.30949e-06	1.945268e-05	0.001650265	0.00597058	5.139615e-06	2.780673e-05	0.02468017	0.003209412
2e+07	0.02870511	0.002519283	1.010595e-05	2.162958e-05	0.003674599	0.01099992	6.407016e-06	1.220989e-05
	1.010596e-05	2.162959e-05	0.02916687	0.003267594	2.095817e-05	3.209974e-05	0.003687119	0.01111757
	0.003674608	0.01099991	2.095817e-05	3.209974e-05	0.02915836	0.003372932	1.117407e-05	2.329518e-05
	6.407016e-06	1.220989e-05	0.003687128	0.01111756	1.117407e-05	2.329518e-05	0.02874836	0.002549896
3e+07	0.03149913	-3.983886e-05	1.765862e-05	1.872589e-05	0.006671526	0.01564752	4.659886e-06	1.079418e-05
	1.765862e-05	1.872589e-05	0.03233655	0.000703752	3.604654e-05	2.93984e-05	0.006694735	0.01582047
	0.006671502	0.01564756	3.604654e-05	2.93984e-05	0.03234297	0.0008662933	1.951137e-05	2.047433e-05
	4.659888e-06	1.079418e-05	0.006694711	0.01582051	1.951137e-05	2.047433e-05	0.03154753	7.011828e-07
4e+07	0.03313287	-0.003400889	2.354742e-05	1.496447e-05	0.01058441	0.01953584	5.821372e-06	8.810057e-06
	2.354743e-05	1.496447e-05	0.03426635	-0.002764188	4.768816e-05	2.308184e-05	0.01062111	0.01975993
	0.01058441	0.01953586	4.768816e-05	2.308184e-05	0.03430215	-0.002550751	2.604955e-05	1.660156e-05
	5.821373e-06	8.810056e-06	0.01062111	0.01975995	2.604955e-05	1.660155e-05	0.03318891	-0.003355733
5e+07	0.03379086	-0.007060822	2.79773e-05	1.03675e-05	0.01523325	0.02254392	7.734229e-06	6.300158e-06
	2.79773e-05	1.03675e-05	0.03515639	-0.006593052	5.627779e-05	1.439524e-05	0.01528496	0.02281419
	0.01523326	0.02254393	5.627779e-05	1.439523e-05	0.03522983	-0.006336283	3.103693e-05	1.176525e-05
	7.734229e-06	6.300157e-06	0.01528496	0.0228142	3.103693e-05	1.176525e-05	0.03385242	-0.007013776
6e+07	0.03359292	-0.01075711	3.105168e-05	5.156052e-06	0.02044235	0.02454929	8.872072e-06	3.641742e-06
	3.105168e-05	5.156052e-06	0.03513335	-0.01050135	6.198749e-05	4.144155e-06	0.02050912	0.02486032
	0.02044236	0.02454928	6.198749e-05	4.144155e-06	0.03525089	-0.01020991	3.459356e-05	6.21159e-06
	8.872071e-06	3.641742e-06	0.02050914	0.0248603	3.459356e-05	6.21159e-06	0.0336582	-0.01070939
7e+07	0.03264614	-0.0142794	3.282196e-05	-4.672885e-07	0.02601133	0.02546279	9.253503e-06	9.509257e-07
	3.282196e-05	-4.672882e-07	0.03430748	-0.01426789	6.492871e-05	-7.057078e-06	0.02609167	0.02580903
	0.02601133	0.02546278	6.492871e-05	-7.057078e-06	0.03447362	-0.01395203	3.677392e-05	1.518166e-07
	9.253503e-06	9.509259e-07	0.02609167	0.02580902	3.677392e-05	1.518163e-07	0.03271402	-0.01423203
8e+07	0.03108469	-0.01745964	3.329869e-05	-6.341542e-06	0.03172735	0.02523335	8.897324e-06	-1.641257e-06
	3.329869e-05	-6.341542e-06	0.03281326	-0.01771879	6.513043e-05	-1.876053e-05	0.03181813	0.02560956
	0.03172735	0.02523336	6.513043e-05	-1.876053e-05	0.03303029	-0.01738964	3.758334e-05	-6.25373e-06
	8.897324e-06	-1.641257e-06	0.03181813	0.02560956	3.758334e-05	-6.25373e-06	0.03115468	-0.0174136
9e+07	0.02906829	-0.02017664	3.242577e-05	-1.237988e-05	0.03737282	0.02384884	7.819356e-06	-4.01099e-06
	3.242577e-05	-1.237989e-05	0.03080621	-0.02073314	6.249059e-05	-3.069531e-05	0.03746946	0.02425048
	0.03737283	0.02384885	6.249059e-05	-3.069531e-05	0.0310733	-0.02040218	3.695051e-05	-1.293254e-05
	7.819356e-06	-4.010991e-06	0.03746946	0.02425048	3.695051e-05	-1.293254e-05	0.02913993	-0.02013321
1e+08	0.0268098	-0.02232326	2.961477e-05	-1.897331e-05	0.04273387	0.0213347	5.822079e-06	-6.105441e-06
	2.961477e-05	-1.897331e-05	0.02846782	-0.02323673	5.580774e-05	-4.347938e-05	0.04283045	0.02175846
	0.04273387	0.0213347	5.580774e-05	-4.347938e-05	0.02878099	-0.02291505	3.421774e-05	-2.037302e-05
	5.822079e-06	-6.105441e-06	0.04283045	0.02175845	3.421774e-05	-2.037302e-05	0.0268826	-0.02228436
1.1e+08	0.02448552	-0.02419895	2.397845e-05	-2.22622e-05	0.04760554	0.01773826	3.321112e-06	-6.470417e-06
	2.397845e-05	-2.22622e-05	0.02587977	-0.02532524	4.380469e-05	-4.930804e-05	0.04769524	0.01818199
	0.04760554	0.01773826	4.380469e-05	-4.930804e-05	0.02627692	-0.02506518	2.818158e-05	-2.430422e-05
	3.321112e-06	-6.470416e-06	0.04769524	0.01818199	2.818158e-05	-2.430422e-05	0.02459826	-0.02420837
1.2e+08	0.02196241	-0.02559703	1.942642e-05	-2.384786e-05	0.05175692	0.01319821	1.460456e-06	-6.267086e-06
	1.942642e-05	-2.384786e-05	0.02313698	-0.02684076	3.450465e-05	-5.19388e-05	0.05183175	0.01366144
	0.05175692	0.01319821	3.450466e-05	-5.19388e-05	0.02355052	-0.02663669	2.327897e-05	-2.633754e-05
	1.460457e-06	-6.267086e-06	0.05183174	0.01366143	2.327897e-05	-2.633754e-05	0.02205322	-0.02564047
1.3e+08	0.01944109	-0.02649788	1.661193e-05	-2.369912e-05	0.05503421	0.007850734	-8.43483e-08	-5.953552e-06
	1.661193e-05	-2.369912e-05	0.02041432	-0.02781409	3.145755e-05	-4.927715e-05	0.05508589	0.008334953
	0.05503421	0.007850732	3.145755e-05	-4.927715e-05	0.02082437	-0.02764522	2.054626e-05	-2.614241e-05
	-8.434813e-08	-5.953552e-06	0.05508588	0.008334951	2.054626e-05	-2.614241e-05	0.01949791	-0.02654838
1.4e+08	0.01704981	-0.02694972	1.508823e-05	-2.237765e-05	0.05730157	0.001861216	-1.401834e-06	-5.52771e-06
	1.508823e-05	-2.237765e-05	0.01783629	-0.02830633	2.837245e-05	-4.697451e-05	0.05732188	0.002369886
	0.05730157	0.001861215	2.837245e-05	-4.697451e-05	0.01824145	-0.02816316	1.896668e-05	-2.488859e-05
	-1.401834e-06	-5.52771e-06	0.05732188	0.002369885	1.896668e-05	-2.488859e-05	0.01708012	-0.02699426
1.5e+08	0.01488797	-0.02702569	1.379449e-05	-2.130497e-05	0.05845113	-0.004582414	-2.498098e-06	-4.892912e-06
	1.379449e-05	-2.130497e-05	0.01550124	-0.0283978	2.531449e-05	-4.476266e-05	0.05843231	-0.004043852
	0.05845113	-0.004582415	2.531449e-05	-4.476266e-05	0.01590112	-0.02828002	1.744206e-05	-2.372875e-05
	-2.498098e-06	-4.892912e-06	0.05843231	-0.004043852	1.744206e-05	-2.372875e-05	0.01490053	-0.02706302
1.6e+08	0.01302887	-0.02681645	1.254073e-05	-2.027534e-05	0.0584083	-0.01127524	-3.33947e-06	-4.172321e-06
	1.254073e-05	-2.027534e-05	0.01348211	-0.02818416	2.236111e-05	-4.255687e-05	0.0583435	-0.01069946
	0.0584083	-0.01127524	2.236111e-05	-4.255687e-05	0.013873	-0.02809536	1.606573e-05	-2.275545e-05
	-3.33947e-06	-4.172321e-06	0.0583435	-0.01069946	1.606573e-05	-2.275545e-05	0.01302877	-0.02685181
1.7e+08	0.0115195	-0.02642495	1.134474e-05	-1.92652e-05	0.0571346	-0.01800158	-3.932401e-06	-3.521773e-06
	1.134474e-05	-1.92652e-05	0.01182563	-0.0277723	1.955463e-05	-4.033028e-05	0.05701828	-0.01737952
	0.0571346	-0.01800158	1.955463e-05	-4.033028e-05	0.01219983	-0.02771558	1.473179e-05	-2.181215e-05
	-3.932401e-06	-3.521773e-06	0.05701828	-0.01737951	1.473179e-05	-2.181215e-05	0.01150678	-0.02646546
1.8e+08	0.0103788	-0.02596026	1.020493e-05	-1.827821e-05	0.05462939	-0.02454128	-4.056786e-06	-2.626576e-06
	1.020493e-05	-1.827821e-05	0.01055043	-0.02727452	1.69294e-05	-3.806039e-05	0.05445765	-0.02386233
	0.05462939	-0.02454128	1.69294e-05	-3.806039e-05	0.01089763	-0.02725044	1.343783e-05	-2.089654e-05
	-4.056786e-06	-2.626576e-06	0.05445765	-0.02386233	1.343783e-05	-2.089654e-05	0.0103493	-0.02601259
1.9e+08	0.009597895	-0.02553212	9.148237e-06	-1.728436e-05	0.05093049	-0.03067631	-4.03546e-06	-1.722397e-06
	9.148238e-06	-1.728436e-05	0.009647137	-0.02680326	1.452893e-05	-3.572488e-05	0.05070148	-0.02992871
	0.05093049	-0.03067631	1.452893e-05	-3.572488e-05	0.009955889	-0.02680872	1.221224e-05	-1.997347e-05
	-4.03546e-06	-1.722397e-06	0.05070148	-0.02992871	1.221224e-05	-1.997347e-05	0.009544183	-0.02560086
2e+08	0.009140153	-0.02524403	8.187514e-06	-1.628049e-05	0.04611305	-0.0361974	-3.911023e-06	-8.463789e-07
	8.187514e-06	-1.628049e-05	0.009078448	-0.02646424	1.237702e-05	-3.333288e-05	0.04582718	-0.03536849
	0.04611305	-0.0361974	1.237702e-05	-3.333288e-05	0.009338404	-0.02649293	1.106852e-05	-1.903575e-05
	-3.911023e-06	-8.463789e-07	0.04582718	-0.03536849	1.106852e-05	-1.903575e-05	0.009053289	-0.02533155
2.1e+08	0.008944202	-0.02518678	7.329133e-06	-1.527039e-05	0.04028765	-0.04090992	-3.683875e-06	-1.099666e-08
	7.329133e-06	-1.527039e-05	0.008782144	-0.02635019	1.048936e-05	-3.090075e-05	0.03994789	-0.03998667
	0.04028765	-0.04090992	1.048936e-05	-3.090075e-05	0.008984231	-0.02639275	1.001438e-05	-1.808355e-05
	-3.683875e-06	-1.099666e-08	0.03994789	-0.03998667	1.001438e-05	-1.808355e-05	0.00881367	-0.02529278
2.2e+08	0.008926334	-0.02543392	6.577647e-06	-1.426017e-05	0.03359745	-0.04463984	-3.357203e-06	7.708793e-07
	6.577647e-06	-1.426017e-05	0.008673551	-0.0265361	8.876493e-06	-2.844978e-05	0.03320943	-0.04360931
	0.03359745	-0.04463984	8.876493e-06	-2.844978e-05	0.008811652	-0.02658078	9.055998e-06	-1.711992e-05
	-3.357203e-06	7.708793e-07	0.03320943	-0.04360931	9.055998e-06	-1.711992e-05	0.008741602	-0.02555517
2.3e+08	0.008985949	-0.02603642	5.935331e-06	-1.325769e-05	0.02621432	-0.04723936	-2.936765e-06	1.486594e-06
	5.935331e-06	-1.325769e-05	0.008650997	-0.02707405	7.54336e-06	-2.600457e-05	0.02578639	-0.0460892
	0.02621432	-0.04723936	7.54336e-06	-2.600457e-05	0.008722144	-0.02710825	8.197667e-06	-1.614998e-05
	-2.936765e-06	1.486594e-06	0.02578639	-0.0460892	8.197667e-06	-1.614998e-05	0.00873672	-0.02616765
2.4e+08	0.009010671	-0.02701936	5.402468e-06	-1.227193e-05	0.01833434	-0.04859087	-2.430644e-06	2.124142e-06
	5.402468e-06	-1.227193e-05	0.008601057	-0.02798976	6.489852e-06	-2.359177e-05	0.01787752	-0.04730991
	0.01833434	-0.04859087	6.489852e-06	-2.359177e-05	0.008605097	-0.02800021	7.442046e-06	-1.518052e-05
	-2.430644e-06	2.124142e-06	0.01787752	-0.04730991	7.442046e-06	-1.518052e-05	0.008686857	-0.02715245
2.5e+08	0.008882237	-0.02837924	4.977409e-06	-1.131253e-05	0.0101722	-0.04861103	-1.849005e-06	2.672587e-06
	4.977409e-06	-1.131253e-05	0.008404494	-0.02928008	5.710923e-06	-2.123892e-05	0.009700053	-0.04718977
	0.0101722	-0.04861103	5.710923e-06	-2.123892e-05	0.008344641	-0.02925446	6.790089e-06	-1.42194e-05
	-1.849005e-06	2.672587e-06	0.009700053	-0.04718977	6.790089e-06	-1.42194e-05	0.008475012	-0.02850419
2.6e+08	0.008483286	-0.0300836	4.656744e-06	-1.038928e-05	0.00195534	-0.04725399	-1.203829e-06	3.122423e-06
	4.656744e-06	-1.038928e-05	0.007943107	-0.03091247	5.197029e-06	-1.897355e-05	0.001483662	-0.04568523
	0.00195534	-0.04725399	5.197029e-06	-1.897355e-05	0.007824929	-0.03083946	6.241253e-06	-1.327522e-05
	-1.203829e-06	3.122423e-06	0.001483662	-0.04568523	6.241253e-06	-1.327522e-05	0.007984778	-0.03018779
2.7e+08	0.007703638	-0.03207105	4.435427e-06	-9.511858e-06	-0.006082232	-0.04451238	-5.086064e-07	3.465803e-06
	4.435427e-06	-9.511858e-06	0.007106153	-0.03282524	4.934264e-06	-1.682236e-05	-0.006535733	-0.04279163
	-0.006082232	-0.04451238	4.934264e-06	-1.682236e-05	0.006937517	-0.03269537	5.793457e-06	-1.235694e-05
	-5.086064e-07	3.465803e-06	-0.006535733	-0.04279163	5.793457e-06	-1.235694e-05	0.0071078	-0.03213973
2.8e+08	0.006447115	-0.03425257	4.306921e-06	-8.689644e-06	-0.01370697	-0.04041885	2.21954e-07	3.696792e-06
	4.306921e-06	-8.689644e-06	0.005797133	-0.03492882	4.904813e-06	-1.481065e-05	-0.01412325	-0.03854479
	-0.01370697	-0.04041885	4.904813e-06	-1.481065e-05	0.005587791	-0.0347352	5.443186e-06	-1.147381e-05
	2.21954e-07	3.696792e-06	-0.01412325	-0.03854479	5.443186e-06	-1.147381e-05	0.005750309	-0.0342692
2.9e+08	0.004637395	-0.03651549	4.263306e-06	-7.931308e-06	-0.02069243	-0.03504548	9.722507e-07	3.811542e-06
	4.263306e-06	-7.931308e-06	0.003939831	-0.0371099	5.087254e-06	-1.296157e-05	-0.02105161	-0.03302036
	-0.02069243	-0.03504548	5.087254e-06	-1.296157e-05	0.003700206	-0.03684781	5.185542e-06	-1.06349e-05
	9.722507e-07	3.811542e-06	-0.02105161	-0.03302036	5.185542e-06	-1.06349e-05	0.003838411	-0.03646142
3e+08	0.002223529	-0.03872739	4.295385e-06	-7.244789e-06	-0.02682555	-0.02850192	1.726113e-06	3.808351e-06
	4.295385e-06	-7.244789e-06	0.001483726	-0.03923537	5.456916e-06	-1.129563e-05	-0.02710765	-0.02633171
	-0.02682555	-0.02850192	5.456916e-06	-1.129563e-05	0.001224517	-0.03890301	5.014193e-06	-9.849052e-06
	1.726113e-06	3.808351e-06	-0.02710765	-0.02633171	5.014193e-06	-9.849052e-06	0.001324325	-0.03858275
3.1e+08	-0.000815853	-0.04074193	4.392858e-06	-6.636991e-06	-0.03191366	-0.02093315	2.467132e-06	3.687808e-06
	4.392858e-06	-6.636991e-06	-0.001591681	-0.04115833	5.986386e-06	-9.830205e-06	-0.03209929	-0.0186276
	-0.03191366	-0.02093315	5.986386e-06	-9.830205e-06	-0.001860306	-0.0407559	4.921517e-06	-9.124601e-06
	2.467132e-06	3.687808e-06	-0.03209929	-0.0186276	4.921517e-06	-9.124601e-06	-0.001809762	-0.04048536
3.2e+08	-0.004469412	-0.04240466	4.544402e-06	-6.113717e-06	-0.03578989	-0.01251542	3.178986e-06	3.45277e-06
	4.544402e-06	-6.113717e-06	-0.005273831	-0.04272396	6.6459e-06	-8.579159e-06	-0.03586099	-0.01008809
	-0.03578989	-0.01251542	6.6459e-06	-8.579159e-06	-0.005541983	-0.04225455	4.898535e-06	-8.469138e-06
	3.178986e-06	3.45277e-06	-0.03586099	-0.01008809	4.898535e-06	-8.469138e-06	-0.005547696	-0.04201509
3.3e+08	-0.00869104	-0.04356096	4.737788e-06	-5.679427e-06	-0.03831791	-0.003451539	3.845716e-06	3.108327e-06
	4.737788e-06	-5.679427e-06	-0.00951507	-0.04377766	7.403914e-06	-7.552478e-06	-0.03825849	-0.0009195602
	-0.03831791	-0.003451539	7.403914e-06	-7.552478e-06	-0.00977455	-0.04324585	4.93507e-06	-7.889319e-06
	3.845716e-06	3.108327e-06	-0.03825849	-0.0009195602	4.93507e-06	-7.889319e-06	-0.00983907	-0.04301739
3.4e+08	-0.01339933	-0.04406291	4.96006e-06	-5.337133e-06	-0.03939691	0.00603477	4.452121e-06	2.661833e-06
	4.96006e-06	-5.337133e-06	-0.01423225	-0.04417197	8.227625e-06	-6.755952e-06	-0.03919381	0.008651072
	-0.03939691	0.00603477	8.227625e-06	-6.755952e-06	-0.01447669	-0.04358438	5.019799e-06	-7.390631e-06
	4.452121e-06	2.661833e-06	-0.03919381	0.008651072	5.019799e-06	-7.390631e-06	-0.01459782	-0.04334639
3.5e+08	-0.01847935	-0.04377735	5.197676e-06	-5.088225e-06	-0.03896382	0.01570496	4.983977e-06	2.122734e-06
	5.197676e-06	-5.088225e-06	-0.01930862	-0.04377467	9.083581e-06	-6.191043e-06	-0.03860722	0.0183825
	-0.03896382	0.01570496	9.083581e-06	-6.191043e-06	-0.01953384	-0.04313831	5.140404e-06	-6.977173e-06
	4.983977e-06	2.122734e-06	-0.03860722	0.0183825	5.140404e-06	-6.977173e-06	-0.01970441	-0.04287084
3.6e+08	-0.02378535	-0.04259254	5.436728e-06	-4.932299e-06	-0.03699597	0.02531223	5.428404e-06	1.50252e-06
	5.436728e-06	-4.932299e-06	-0.02459665	-0.04247551	9.938286e-06	-5.85468e-06	-0.03647998	0.02802589
	-0.03699597	0.02531223	9.938286e-06	-5.85468e-06	-0.02480048	-0.04179838	5.283752e-06	-6.65133e-06
	5.428404e-06	1.50252e-06	-0.03647998	0.02802589	5.283752e-06	-6.65133e-06	-0.02500856	-0.04148317
3.7e+08	-0.0291452	-0.04042566	5.663179e-06	-4.867042e-06	-0.03351151	0.03460907	5.774154e-06	8.14498e-07
	5.663179e-06	-4.867042e-06	-0.02992265	-0.04019377	1.075887e-05	-5.739279e-06	-0.03283458	0.03733231
	-0.03351151	0.03460907	1.075887e-05	-5.739279e-06	-0.03010533	-0.03948365	5.436149e-06	-6.413691e-06
	5.774154e-06	8.14498e-07	-0.03283458	0.03733231	5.436149e-06	-6.413691e-06	-0.03033448	-0.03910522
3.8e+08	-0.03436623	-0.03722744	5.863129e-06	-4.888129e-06	-0.02856856	0.04335325	6.011841e-06	7.361406e-08
	5.863129e-06	-4.888129e-06	-0.03509276	-0.03688276	1.15137e-05	-5.832782e-06	-0.0277337	0.04605889
	-0.02856856	0.04335325	1.15137e-05	-5.832782e-06	-0.03525651	-0.03614642	5.583607e-06	-6.262832e-06
	6.011841e-06	7.361406e-08	-0.0277337	0.04605889	5.583607e-06	-6.262832e-06	-0.03548645	-0.03569302
3.9e+08	-0.03924122	-0.03298729	6.023151e-06	-4.989136e-06	-0.02226465	0.05131495	6.134286e-06	-7.037552e-07
	6.023151e-06	-4.989136e-06	-0.03989899	-0.03253484	1.2173e-05	-6.11874e-06	-0.02127958	0.05397598
	-0.02226465	0.05131495	1.2173e-05	-6.11874e-06	-0.0400484	-0.03177864	5.712175e-06	-6.195109e-06
	6.134286e-06	-7.037552e-07	-0.02127958	0.05397598	5.712175e-06	-6.195109e-06	-0.04025575	-0.03124322
4e+08	-0.04355766	-0.02773624	6.130646e-06	-5.161536e-06	-0.01473269	0.05828278	6.136683e-06	-1.500182e-06
	6.130646e-06	-5.161536e-06	-0.0441288	-0.02718439	1.270959e-05	-6.576645e-06	-0.0136098	0.06087326
	-0.01473269	0.05828278	1.270959e-05	-6.576645e-06	-0.04427006	-0.02641228	5.808385e-06	-6.204746e-06
	6.136683e-06	-1.500182e-06	-0.0136098	0.06087326	5.808385e-06	-6.204746e-06	-0.04442934	-0.02579304
4.1e+08	-0.04710612	-0.02154798	6.174605e-06	-5.394597e-06	-0.006138177	0.06406908	6.016726e-06	-2.297383e-06
	6.174605e-06	-5.394597e-06	-0.04757321	-0.02090879	1.310125e-05	-7.182824e-06	-0.004894341	0.0665648
	-0.006138177	0.06406908	1.310125e-05	-7.182824e-06	-0.04771336	-0.02012281	5.861599e-06	-6.284078e-06
	6.016726e-06	-2.297383e-06	-0.004894341	0.0665648	5.861599e-06	-6.284078e-06	-0.04779821	-0.01942362
4.2e+08	-0.04968667	-0.01453915	6.14502e-06	-5.676009e-06	0.00332542	0.06851531	5.775103e-06	-3.076819e-06
	6.14502e-06	-5.676009e-06	-0.05003381	-0.0138281	1.332731e-05	-7.910283e-06	0.004669093	0.07089466
	0.00332542	0.06851531	1.332731e-05	-7.910283e-06	-0.05018062	-0.01302822	5.859993e-06	-6.42372e-06
	5.775103e-06	-3.076819e-06	0.004669093	0.07089466	5.859993e-06	-6.42372e-06	-0.05016482	-0.01225896
4.3e+08	-0.05112	-0.006866638	6.033986e-06	-5.991763e-06	0.01344225	0.07149535	5.415367e-06	-3.82017e-06
	6.033986e-06	-5.991763e-06	-0.05133333	-0.006102382	1.337002e-05	-8.728416e-06	0.0148609	0.07373998
	0.01344225	0.07149535	1.337002e-05	-8.728416e-06	-0.05149485	-0.005285793	5.791986e-06	-6.61159e-06
	5.415367e-06	-3.82017e-06	0.0148609	0.07373998	5.791986e-06	-6.61159e-06	-0.05135361	-0.004462567
4.4e+08	-0.05125408	0.001276197	5.836132e-06	-6.326406e-06	0.02397902	0.07291858	4.943847e-06	-4.509583e-06
	5.836132e-06	-6.326406e-06	-0.05132253	0.002071982	1.321793e-05	-9.604686e-06	0.02544449	0.07501403
	0.02397902	0.07291858	1.321793e-05	-9.604686e-06	-0.05150592	0.00291023	5.649743e-06	-6.834002e-06
	4.943847e-06	-4.509583e-06	0.02544449	0.07501403	5.649743e-06	-6.834002e-06	-0.05121722	0.003765611
4.5e+08	-0.04997089	0.009663451	5.548665e-06	-6.663565e-06	0.03469127	0.07273229	4.369683e-06	-5.128271e-06
	5.548665e-06	-6.663565e-06	-0.04988674	0.01046654	1.286457e-05	-1.050509e-05	0.03617284	0.07466854
	0.03469127	0.07273229	1.286457e-05	-1.050509e-05	-0.05009818	0.01133384	5.42777e-06	-7.075997e-06
	4.369683e-06	-5.128271e-06	0.03617284	0.07466854	5.42777e-06	-7.075996e-06	-0.04964393	0.01219429
4.6e+08	-0.04719314	0.0180443	5.171635e-06	-6.986445e-06	0.04532938	0.07092225	3.704657e-06	-5.660993e-06
	5.171635e-06	-6.986445e-06	-0.04695254	0.01882845	1.230882e-05	-1.1395e-05	0.04679436	0.07269416
	0.04532938	0.07092225	1.230882e-05	-1.1395e-05	-0.04719684	0.01973486	5.12323e-06	-7.32178e-06
	3.704657e-06	-5.660993e-06	0.04679436	0.07269416	5.12323e-06	-7.32178e-06	-0.04656394	0.02056872
4.7e+08	-0.04289038	0.026151	4.70808e-06	-7.278358e-06	0.05564495	0.06751321	2.962932e-06	-6.094533e-06
	4.70808e-06	-7.278358e-06	-0.04249384	0.02688868	1.155497e-05	-1.223998e-05	0.05705952	0.06912085
	0.05564495	0.06751321	1.155497e-05	-1.223998e-05	-0.04277282	0.02784521	4.736033e-06	-7.555171e-06
	2.962932e-06	-6.094533e-06	0.05705952	0.06912085	4.736033e-06	-7.555171e-06	-0.04195407	0.02861725
4.8e+08	-0.03707914	0.03370616	4.163868e-06	-7.523284e-06	0.06539594	0.06256785	2.160702e-06	-6.418078e-06
	4.163868e-06	-7.523284e-06	-0.03653174	0.03436917	1.061258e-05	-1.300664e-05	0.06672598	0.06401672
