!$
! Info: Touchstone file created by Circ.  Input file=Intel_C2M_200G_6p0in_202208016_staggered.circ
!$
# Hz S RI R 50
0	0.02031879	3.436056e-24	6.581753e-05	9.046149e-23	0.0001088563	2.825272e-22	6.575183e-05	9.030217e-23
	6.581753e-05	9.046149e-23	0.02033186	3.614959e-24	6.580049e-05	9.040442e-23	0.0001084733	2.807351e-22
	0.0001089137	2.826536e-22	6.580048e-05	9.040569e-23	0.02031365	3.28559e-24	6.576494e-05	9.024794e-23
	6.575181e-05	9.030344e-23	0.0001085307	2.808621e-22	6.576494e-05	9.024794e-23	0.02032982	3.424546e-24
1e+07	0.02525319	0.003482007	5.490909e-05	3.49059e-06	0.0013682	0.005837262	2.432061e-06	1.134771e-05
	5.490909e-05	3.49059e-06	0.02461157	0.003652531	6.139057e-05	2.193477e-05	0.001650265	0.00597058
	0.0013682	0.005837262	6.139057e-05	2.193477e-05	0.02545846	0.003253212	2.448816e-05	1.117382e-05
	2.432061e-06	1.134771e-05	0.001650265	0.00597058	2.448816e-05	1.117382e-05	0.02468017	0.003209412
2e+07	0.02948644	0.002761047	3.805985e-05	3.09785e-05	0.003377674	0.01098607	2.329393e-05	2.827908e-05
	3.805985e-05	3.09785e-05	0.02916687	0.003267594	5.517862e-05	3.669894e-06	0.003687119	0.01111757
	0.003377684	0.01098605	5.517862e-05	3.669894e-06	0.02937991	0.002342551	1.509794e-05	1.725908e-05
	2.329393e-05	2.827908e-05	0.003687128	0.01111756	1.509794e-05	1.725908e-05	0.02874836	0.002549896
3e+07	0.03240774	0.0001201782	3.132788e-05	4.187538e-05	0.006362451	0.01567226	3.957502e-05	3.023768e-05
	3.132788e-05	4.187538e-05	0.03233655	0.000703752	5.229314e-05	1.983477e-06	0.006694735	0.01582047
	0.006362427	0.0156723	5.229314e-05	1.983481e-06	0.03206416	-0.0002787438	9.511395e-06	2.400487e-05
	3.957503e-05	3.023768e-05	0.006694711	0.01582051	9.511394e-06	2.400487e-05	0.03154753	7.011828e-07
4e+07	0.03413045	-0.003348907	2.61481e-05	4.654455e-05	0.01027088	0.01959859	5.304288e-05	2.747588e-05
	2.61481e-05	4.654455e-05	0.03426635	-0.002764188	5.155953e-05	5.012191e-06	0.01062111	0.01975993
	0.01027088	0.01959861	5.155953e-05	5.012191e-06	0.03360781	-0.003662681	1.570557e-05	2.524804e-05
	5.304289e-05	2.747588e-05	0.01062111	0.01975995	1.570557e-05	2.524804e-05	0.03318891	-0.003355733
5e+07	0.0348438	-0.007133821	3.362554e-05	4.406625e-05	0.01492253	0.02264468	6.415937e-05	2.162537e-05
	3.362554e-05	4.406625e-05	0.03515639	-0.006593052	5.422741e-05	2.932299e-06	0.01528496	0.02281419
	0.01492253	0.02264469	5.422741e-05	2.932298e-06	0.03418624	-0.007324122	2.391259e-05	2.261926e-05
	6.415937e-05	2.162537e-05	0.01528496	0.0228142	2.391259e-05	2.261926e-05	0.03385242	-0.007013776
6e+07	0.03466986	-0.01096506	4.607768e-05	3.613548e-05	0.02014136	0.02468728	7.28458e-05	1.335134e-05
	4.607768e-05	3.613548e-05	0.03513335	-0.01050135	5.55777e-05	-5.631403e-07	0.02050912	0.02486032
	0.02014138	0.02468726	5.55777e-05	-5.631406e-07	0.03391738	-0.01100684	3.051545e-05	1.823679e-05
	7.28458e-05	1.335134e-05	0.02050914	0.0248603	3.051545e-05	1.823679e-05	0.0336582	-0.01070939
7e+07	0.03371709	-0.01462692	5.541322e-05	2.595467e-05	0.02572665	0.02563625	7.924928e-05	3.368252e-06
	5.541322e-05	2.595467e-05	0.03430748	-0.01426789	5.560288e-05	-4.707934e-06	0.02609167	0.02580903
	0.02572665	0.02563624	5.560288e-05	-4.707934e-06	0.03290776	-0.01450406	3.54811e-05	1.264149e-05
	7.924928e-05	3.368251e-06	0.02609167	0.02580902	3.54811e-05	1.264149e-05	0.03271402	-0.01423203
8e+07	0.03212023	-0.01794736	6.162283e-05	1.416558e-05	0.03146525	0.02543963	8.331759e-05	-7.9573e-06
	6.162283e-05	1.416558e-05	0.03281326	-0.01771879	5.427525e-05	-8.990405e-06	0.03181813	0.02560956
	0.03146525	0.02543964	5.427525e-05	-8.990405e-06	0.03129157	-0.01764929	3.878202e-05	6.162759e-06
	8.331759e-05	-7.9573e-06	0.03181813	0.02560956	3.878202e-05	6.162759e-06	0.03115468	-0.0174136
9e+07	0.03003796	-0.02080319	6.452778e-05	1.11847e-06	0.03713943	0.02408457	8.485298e-05	-2.05034e-05
	6.452778e-05	1.118471e-06	0.03080621	-0.02073314	5.160936e-05	-1.293117e-05	0.03746946	0.02425048
	0.03713943	0.02408458	5.160936e-05	-1.293117e-05	0.02922876	-0.0203214	4.031362e-05	-1.005448e-06
	8.485298e-05	-2.05034e-05	0.03746946	0.02425048	4.031362e-05	-1.005447e-06	0.02913993	-0.02013321
1e+08	0.02766897	-0.02309621	6.262599e-05	-1.417978e-05	0.0425371	0.02159714	8.254392e-05	-3.538729e-05
	6.262599e-05	-1.417978e-05	0.02846782	-0.02323673	4.730641e-05	-1.587812e-05	0.04283045	0.02175846
	0.0425371	0.02159714	4.730641e-05	-1.587812e-05	0.02693604	-0.02240614	3.927289e-05	-9.287977e-06
	8.254392e-05	-3.538729e-05	0.04283045	0.02175845	3.927289e-05	-9.287977e-06	0.0268826	-0.02228436
1.1e+08	0.02517234	-0.02503277	5.401615e-05	-2.203628e-05	0.04745281	0.01800951	7.352155e-05	-4.434486e-05
	5.401615e-05	-2.203628e-05	0.02587977	-0.02532524	4.353526e-05	-1.610687e-05	0.04769524	0.01818199
	0.04745281	0.01800951	4.353526e-05	-1.610687e-05	0.02465723	-0.02427679	3.460302e-05	-1.365437e-05
	7.352155e-05	-4.434486e-05	0.04769524	0.01818199	3.460302e-05	-1.365437e-05	0.02459826	-0.02420837
1.2e+08	0.02250736	-0.02644712	4.799365e-05	-2.662366e-05	0.05164152	0.01346977	6.821954e-05	-4.832921e-05
	4.799365e-05	-2.662366e-05	0.02313698	-0.02684076	4.082416e-05	-1.623801e-05	0.05183175	0.01366144
	0.05164151	0.01346977	4.082416e-05	-1.623801e-05	0.0221156	-0.02567056	3.127136e-05	-1.638387e-05
	6.821954e-05	-4.832921e-05	0.05183174	0.01366143	3.127136e-05	-1.638387e-05	0.02205322	-0.02564047
1.3e+08	0.0198611	-0.02734026	4.341489e-05	-3.051458e-05	0.05495192	0.008117369	6.750517e-05	-4.76477e-05
	4.341488e-05	-3.051458e-05	0.02041432	-0.02781409	3.862932e-05	-1.628547e-05	0.05508589	0.008334953
	0.05495192	0.008117367	3.862932e-05	-1.628547e-05	0.01956411	-0.02654541	2.839835e-05	-1.871245e-05
	6.750517e-05	-4.76477e-05	0.05508588	0.008334951	2.839835e-05	-1.871245e-05	0.01949791	-0.02654838
1.4e+08	0.01736004	-0.02776702	3.979313e-05	-3.412117e-05	0.05724849	0.002118966	6.658917e-05	-4.787374e-05
	3.979313e-05	-3.412117e-05	0.01783629	-0.02830633	3.683859e-05	-1.63382e-05	0.05732188	0.002369886
	0.05724849	0.002118965	3.683859e-05	-1.63382e-05	0.01715092	-0.02696119	2.579032e-05	-2.058587e-05
	6.658917e-05	-4.787374e-05	0.05732188	0.002369885	2.579032e-05	-2.058587e-05	0.01708012	-0.02699426
1.5e+08	0.01510307	-0.02780491	3.628721e-05	-3.729655e-05	0.05842339	-0.004336595	6.544846e-05	-4.890537e-05
	3.628721e-05	-3.729655e-05	0.01550124	-0.0283978	3.533263e-05	-1.658017e-05	0.05843231	-0.004043852
	0.05842338	-0.004336595	3.533263e-05	-1.658017e-05	0.01497685	-0.02700162	2.484609e-05	-2.106509e-05
	6.544846e-05	-4.890537e-05	0.05843231	-0.004043852	2.484609e-05	-2.106509e-05	0.01490053	-0.02706302
1.6e+08	0.01316323	-0.02754805	3.283233e-05	-4.01897e-05	0.05840207	-0.01104362	6.405201e-05	-5.054052e-05
	3.283233e-05	-4.01897e-05	0.01348211	-0.02818416	3.403928e-05	-1.699476e-05	0.0583435	-0.01069946
	0.05840207	-0.01104362	3.403928e-05	-1.699476e-05	0.01311175	-0.02676299	2.432226e-05	-2.143743e-05
	6.405201e-05	-5.054052e-05	0.0583435	-0.01069946	2.432226e-05	-2.143743e-05	0.01302877	-0.02685181
1.7e+08	0.01158715	-0.02710237	3.068108e-05	-4.214612e-05	0.05714611	-0.0177857	6.228831e-05	-5.274924e-05
	3.068108e-05	-4.214612e-05	0.01182563	-0.0277723	3.29448e-05	-1.809948e-05	0.05701828	-0.01737952
	0.05714611	-0.0177857	3.29448e-05	-1.809948e-05	0.01159791	-0.02634959	2.374015e-05	-2.21999e-05
	6.228831e-05	-5.274924e-05	0.05701828	-0.01737951	2.374015e-05	-2.21999e-05	0.01150678	-0.02646546
1.8e+08	0.01039333	-0.02657956	2.952981e-05	-4.36592e-05	0.05465494	-0.02434208	6.006408e-05	-5.542502e-05
	2.952981e-05	-4.36592e-05	0.01055043	-0.02727452	3.170898e-05	-1.973473e-05	0.05445765	-0.02386233
	0.05465494	-0.02434208	3.170898e-05	-1.973473e-05	0.01045053	-0.02586968	2.299993e-05	-2.336339e-05
	6.006408e-05	-5.542502e-05	0.05445765	-0.02386233	2.299993e-05	-2.336339e-05	0.0103493	-0.02601259
1.9e+08	0.009572165	-0.0260917	2.79697e-05	-4.55435e-05	0.05096657	-0.03049412	5.737002e-05	-5.839758e-05
	2.79697e-05	-4.55435e-05	0.009647137	-0.02680326	3.020735e-05	-2.150985e-05	0.05070148	-0.02992871
	0.05096657	-0.03049412	3.020735e-05	-2.150985e-05	0.009658023	-0.02543071	2.198964e-05	-2.471987e-05
	5.737002e-05	-5.839759e-05	0.05070148	-0.02992871	2.198964e-05	-2.471987e-05	0.009544183	-0.02560086
2e+08	0.009086126	-0.02574431	2.593034e-05	-4.772734e-05	0.0461563	-0.03603204	5.413999e-05	-6.15824e-05
	2.593034e-05	-4.772734e-05	0.009078448	-0.02646424	2.839582e-05	-2.339446e-05	0.04582718	-0.03536849
	0.0461563	-0.03603204	2.839582e-05	-2.339446e-05	0.009182982	-0.02513403	2.067463e-05	-2.622475e-05
	5.413999e-05	-6.15824e-05	0.04582718	-0.03536849	2.067463e-05	-2.622475e-05	0.009053289	-0.02533155
2.1e+08	0.008872763	-0.02563004	2.333491e-05	-5.01269e-05	0.04033501	-0.04076066	5.031124e-05	-6.488362e-05
	2.333491e-05	-5.01269e-05	0.008782144	-0.02635019	2.622467e-05	-2.534854e-05	0.03994789	-0.03998667
	0.04033501	-0.04076066	2.622467e-05	-2.534854e-05	0.008963203	-0.02506807	1.90208e-05	-2.782905e-05
	5.031124e-05	-6.488362e-05	0.03994789	-0.03998667	1.90208e-05	-2.782905e-05	0.00881367	-0.02529278
2.2e+08	0.008847113	-0.02582394	2.011513e-05	-5.264146e-05	0.03364615	-0.04450561	4.583031e-05	-6.81928e-05
	2.011513e-05	-5.264146e-05	0.008673551	-0.0265361	2.365128e-05	-2.731941e-05	0.03320943	-0.04360931
	0.03364615	-0.04450561	2.365128e-05	-2.731941e-05	0.008915687	-0.02530411	1.69966e-05	-2.947789e-05
	4.583031e-05	-6.81928e-05	0.03320943	-0.04360931	1.69966e-05	-2.947789e-05	0.008741602	-0.02555517
2.3e+08	0.00890717	-0.02637826	1.621329e-05	-5.515395e-05	0.02626194	-0.04711867	4.065497e-05	-7.138942e-05
	1.621329e-05	-5.515395e-05	0.008650997	-0.02707405	2.063626e-05	-2.924441e-05	0.02578639	-0.0460892
	0.02626194	-0.04711867	2.063626e-05	-2.924441e-05	0.008940711	-0.02589193	1.457571e-05	-3.110919e-05
	4.065497e-05	-7.138942e-05	0.02578639	-0.0460892	1.457571e-05	-3.110919e-05	0.00873672	-0.02616765
2.4e+08	0.008939053	-0.02731904	1.158771e-05	-5.753147e-05	0.01837886	-0.04848194	3.476225e-05	-7.434015e-05
	1.158771e-05	-5.753147e-05	0.008601057	-0.02798976	1.715091e-05	-3.104926e-05	0.01787752	-0.04730991
	0.01837886	-0.04848194	1.715091e-05	-3.104926e-05	0.008926551	-0.02685503	1.173789e-05	-3.265549e-05
	3.476225e-05	-7.434015e-05	0.01787752	-0.04730991	1.173789e-05	-3.265549e-05	0.008686857	-0.02715245
2.5e+08	0.008822931	-0.0286435	6.217352e-06	-5.962763e-05	0.01021199	-0.04851182	2.814896e-05	-7.690276e-05
	6.217352e-06	-5.962763e-05	0.008404494	-0.02928008	1.317609e-05	-3.265068e-05	0.009700053	-0.04718977
	0.01021199	-0.04851182	1.317609e-05	-3.265068e-05	0.008756403	-0.02818944	8.472612e-06	-3.404238e-05
	2.814896e-05	-7.690276e-05	0.009700053	-0.04718977	8.472612e-06	-3.404238e-05	0.008475012	-0.02850419
2.6e+08	0.008439825	-0.03031955	1.06178e-07	-6.128546e-05	0.001989285	-0.04716235	2.083612e-05	-7.892889e-05
	1.06178e-07	-6.128546e-05	0.007943107	-0.03091247	8.706401e-06	-3.395762e-05	0.001483662	-0.04568523
	0.001989284	-0.04716235	8.706401e-06	-3.395762e-05	0.008313668	-0.02986179	4.778628e-06	-3.519091e-05
	2.083612e-05	-7.892889e-05	0.001483662	-0.04568523	4.778628e-06	-3.519091e-05	0.007984778	-0.03018779
2.7e+08	0.007678003	-0.03228593	-6.714534e-06	-6.234257e-05	-0.00605484	-0.04442603	1.287002e-05	-8.026837e-05
	-6.714534e-06	-6.234257e-05	0.007106153	-0.03282524	3.75052e-06	-3.487286e-05	-0.006535733	-0.04279163
	-0.00605484	-0.04442603	3.75052e-06	-3.487286e-05	0.007489406	-0.03181033	6.653845e-07	-3.6018e-05
	1.287002e-05	-8.026837e-05	-0.006535733	-0.04279163	6.653845e-07	-3.6018e-05	0.0071078	-0.03213973
2.8e+08	0.006439742	-0.03445343	-1.418069e-05	-6.263575e-05	-0.01368637	-0.04033552	4.325864e-06	-8.077357e-05
	-1.418069e-05	-6.263575e-05	0.005797133	-0.03492882	-1.667196e-06	-3.529543e-05	-0.01412325	-0.03854479
	-0.01368637	-0.04033552	-1.667196e-06	-3.529543e-05	0.006188771	-0.03394604	-3.842861e-06	-3.643788e-05
	4.325864e-06	-8.077357e-05	-0.01412325	-0.03854479	-3.842861e-06	-3.643788e-05	0.005750309	-0.0342692
2.9e+08	0.004647301	-0.03670897	-2.219716e-05	-6.200742e-05	-0.02067838	-0.03496301	-4.692576e-06	-8.030548e-05
	-2.219716e-05	-6.200742e-05	0.003939831	-0.0371099	-7.502864e-06	-3.512299e-05	-0.02105161	-0.03302036
	-0.02067838	-0.03496301	-7.502864e-06	-3.512299e-05	0.004336252	-0.03615583	-8.708602e-06	-3.636413e-05
	-4.692576e-06	-8.030548e-05	-0.02105161	-0.03302036	-8.708602e-06	-3.636413e-05	0.003838411	-0.03646142
3e+08	0.002248448	-0.03891948	-3.063918e-05	-6.031121e-05	-0.02681744	-0.02841827	-1.40549e-05	-7.873772e-05
	-3.063918e-05	-6.031121e-05	0.001483726	-0.03923537	-1.369333e-05	-3.425557e-05	-0.02710765	-0.02633171
	-0.02681744	-0.02841827	-1.369333e-05	-3.425557e-05	0.001881946	-0.03830749	-1.387891e-05	-3.571165e-05
	-1.40549e-05	-7.873772e-05	-0.02710765	-0.02633171	-1.387891e-05	-3.571165e-05	0.001324325	-0.03858275
3.1e+08	-0.0007792963	-0.04093769	-3.934707e-05	-5.742045e-05	-0.03191046	-0.02084649	-2.360463e-05	-7.596354e-05
	-3.934707e-05	-5.742045e-05	-0.001591681	-0.04115833	-2.015876e-05	-3.259637e-05	-0.03209929	-0.0186276
	-0.03191046	-0.02084649	-2.015876e-05	-3.259637e-05	-0.001194543	-0.04025425	-1.92838e-05	-3.439983e-05
	-2.360463e-05	-7.596354e-05	-0.03209929	-0.0186276	-1.92838e-05	-3.439983e-05	-0.001809762	-0.04048536
3.2e+08	-0.004425473	-0.04260817	-4.813805e-05	-5.323057e-05	-0.03579025	-0.01242425	-3.31616e-05	-7.190003e-05
	-4.813805e-05	-5.323057e-05	-0.005273831	-0.04272396	-2.679569e-05	-3.005897e-05	-0.03586099	-0.01008809
	-0.03579025	-0.01242425	-2.679569e-05	-3.005897e-05	-0.004880054	-0.04184246	-2.483877e-05	-3.235375e-05
	-3.31616e-05	-7.190003e-05	-0.03586099	-0.01008809	-2.483877e-05	-3.235375e-05	-0.005547696	-0.04201509
3.3e+08	-0.008644638	-0.0437751	-5.680336e-05	-4.766789e-05	-0.0383202	-0.003354696	-4.252818e-05	-6.649188e-05
	-5.680336e-05	-4.766789e-05	-0.00951507	-0.04377766	-3.348485e-05	-2.656675e-05	-0.03825849	-0.0009195602
	-0.0383202	-0.003354696	-3.348485e-05	-2.656675e-05	-0.009127464	-0.04291742	-3.044093e-05	-2.950978e-05
	-4.252818e-05	-6.649188e-05	-0.03825849	-0.0009195602	-3.044093e-05	-2.950978e-05	-0.00983907	-0.04301739
3.4e+08	-0.01335576	-0.04428935	-6.511669e-05	-4.069198e-05	-0.03939934	0.006138078	-5.149013e-05	-5.971832e-05
	-6.511669e-05	-4.069198e-05	-0.01423225	-0.04417197	-4.008651e-05	-2.205925e-05	-0.03919381	0.008651072
	-0.03939934	0.006138078	-4.008651e-05	-2.205925e-05	-0.01385415	-0.0433324	-3.597341e-05	-2.581616e-05
	-5.149013e-05	-5.971832e-05	-0.03919381	0.008651072	-3.597341e-05	-2.581616e-05	-0.01459782	-0.04334639
3.5e+08	-0.01844408	-0.04401646	-7.28381e-05	-3.230353e-05	-0.03896447	0.01581508	-5.982844e-05	-5.158891e-05
	-7.28381e-05	-3.230353e-05	-0.01930862	-0.04377467	-4.64436e-05	-1.649754e-05	-0.03860722	0.0183825
	-0.03896447	0.01581508	-4.64436e-05	-1.649754e-05	-0.01894396	-0.04295443	-4.130458e-05	-2.123845e-05
	-5.982844e-05	-5.158891e-05	-0.03860722	0.0183825	-4.130458e-05	-2.123845e-05	-0.01970441	-0.04287084
3.6e+08	-0.02376373	-0.04284346	-7.972333e-05	-2.253771e-05	-0.03699285	0.02542913	-6.731784e-05	-4.215333e-05
	-7.972333e-05	-2.253771e-05	-0.02459665	-0.04247551	-5.238719e-05	-9.861805e-06	-0.03647998	0.02802589
	-0.03699285	0.02542913	-5.238719e-05	-9.861805e-06	-0.02424977	-0.04167352	-4.629019e-05	-1.576323e-05
	-6.731784e-05	-4.215333e-05	-0.03647998	0.02802589	-4.629019e-05	-1.576323e-05	-0.02500856	-0.04148317
3.7e+08	-0.02914224	-0.04068635	-8.55285e-05	-1.147917e-05	-0.03350271	0.03473229	-7.373729e-05	-3.149809e-05
	-8.55285e-05	-1.147917e-05	-0.02992265	-0.04019377	-5.773437e-05	-2.165369e-06	-0.03283458	0.03733231
	-0.03350271	0.03473229	-5.773437e-05	-2.165369e-06	-0.02959856	-0.03940816	-5.077887e-05	-9.396336e-06
	-7.373729e-05	-3.149809e-05	-0.03283458	0.03733231	-5.077887e-05	-9.396336e-06	-0.03033448	-0.03910522
3.8e+08	-0.03438638	-0.03749482	-9.001742e-05	7.534467e-07	-0.02855229	0.04348187	-7.887561e-05	-1.974649e-05
	-9.001742e-05	7.534467e-07	-0.03509276	-0.03688276	-6.229797e-05	6.553016e-06	-0.0277337	0.04605889
	-0.02855229	0.04348187	-6.229797e-05	6.553016e-06	-0.03479673	-0.03611046	-5.461223e-05	-2.174253e-06
	-7.887561e-05	-1.974649e-05	-0.0277337	0.04605889	-5.461223e-05	-2.174253e-06	-0.03548645	-0.03569302
3.9e+08	-0.03928815	-0.0332573	-9.296947e-05	1.399675e-05	-0.02223932	0.05144774	-8.253685e-05	-7.052846e-06
	-9.296947e-05	1.399675e-05	-0.03989899	-0.03253484	-6.588852e-05	1.622074e-05	-0.02127958	0.05397598
	-0.02223932	0.05144774	-6.588852e-05	1.622074e-05	-0.03963695	-0.03177251	-5.763184e-05	5.84501e-06
	-8.253685e-05	-7.052846e-06	-0.02127958	0.05397598	-5.763184e-05	5.84501e-06	-0.04025575	-0.03124322
4e+08	-0.04363419	-0.02800412	-9.418495e-05	2.804795e-05	-0.01469698	0.05841818	-8.454602e-05	6.387813e-06
	-9.418495e-05	2.804795e-05	-0.0441288	-0.02718439	-6.83203e-05	2.672876e-05	-0.0136098	0.06087326
	-0.01469698	0.05841818	-6.83203e-05	2.672876e-05	-0.04390666	-0.02642656	-5.968295e-05	1.456836e-05
	-8.454602e-05	6.387813e-06	-0.0136098	0.06087326	-5.968295e-05	1.456836e-05	-0.04442934	-0.02579304
4.1e+08	-0.04721397	-0.02180857	-9.349036e-05	4.267421e-05	-0.006091057	0.06420522	-8.475203e-05	2.035846e-05
	-9.349036e-05	4.267421e-05	-0.04757321	-0.02090879	-6.942035e-05	3.793614e-05	-0.004894341	0.0665648
	-0.006091057	0.06420522	-6.942035e-05	3.793614e-05	-0.04739629	-0.02014861	-6.061984e-05	2.388064e-05
	-8.475203e-05	2.035846e-05	-0.004894341	0.0665648	-6.061984e-05	2.388064e-05	-0.04779821	-0.01942362
4.2e+08	-0.04982661	-0.01478695	-9.074704e-05	5.760793e-05	0.003384586	0.06865016	-8.303746e-05	3.4609e-05
	-9.074704e-05	5.760793e-05	-0.05003381	-0.0138281	-6.903271e-05	4.966778e-05	0.004669093	0.07089466
	0.003384586	0.06865016	-6.903271e-05	4.966778e-05	-0.04990677	-0.01305746	-6.031056e-05	3.363463e-05
	-8.303746e-05	3.4609e-05	0.004669093	0.07089466	-6.031056e-05	3.363463e-05	-0.05016482	-0.01225896
4.3e+08	-0.05129172	-0.007095845	-8.585402e-05	7.255629e-05	0.01351369	0.0716267	-7.93174e-05	4.886983e-05
	-8.585402e-05	7.255629e-05	-0.05133333	-0.006102382	-6.70203e-05	6.171281e-05	0.0148609	0.07373998
	0.01351369	0.0716267	-6.70203e-05	6.171281e-05	-0.05125989	-0.005311645	-5.864387e-05	4.365828e-05
	-7.93174e-05	4.886983e-05	0.0148609	0.07373998	-5.864387e-05	4.365828e-05	-0.05135361	-0.004462567
4.4e+08	-0.05145617	0.00107137	-7.875359e-05	8.720536e-05	0.02406255	0.0730442	-7.354313e-05	6.285794e-05
	-7.875359e-05	8.720536e-05	-0.05132253	0.002071982	-6.32811e-05	7.383524e-05	0.02544449	0.07501403
	0.02406255	0.0730442	-6.32811e-05	7.383524e-05	-0.05130469	0.002893404	-5.55325e-05	5.375499e-05
	-7.354313e-05	6.285794e-05	0.02544449	0.07501403	-5.55325e-05	5.375499e-05	-0.05121722	0.003765611
4.5e+08	-0.05020082	0.009488513	-6.942845e-05	0.0001012269	0.03478631	0.07284992	-6.570975e-05	7.627157e-05
	-6.942845e-05	0.0001012269	-0.04988674	0.01046654	-5.774984e-05	8.577474e-05	0.03617284	0.07466854
	0.03478631	0.07284992	-5.774984e-05	8.577474e-05	-0.04992491	0.01133038	-5.091557e-05	6.371254e-05
	-6.570975e-05	7.627157e-05	0.03617284	0.07466854	-5.091557e-05	6.371254e-05	-0.04964393	0.01219429
4.6e+08	-0.04744739	0.01790436	-5.791068e-05	0.000114282	0.04543489	0.07102975	-5.585389e-05	8.880378e-05
	-5.791068e-05	0.000114282	-0.04695254	0.01882845	-5.039581e-05	9.725655e-05	0.04679436	0.07269416
	0.04543489	0.07102975	-5.039581e-05	9.725655e-05	-0.04704542	0.01974774	-4.476826e-05	7.330018e-05
	-5.585389e-05	8.880378e-05	0.04679436	0.07269416	-4.476826e-05	7.330018e-05	-0.04656394	0.02056872
4.7e+08	-0.04316447	0.02605057	-4.428071e-05	0.0001260303	0.05575951	0.0676086	-4.405373e-05	0.0001001511
	-4.428071e-05	0.0001260303	-0.04249384	0.02688868	-4.123682e-05	0.0001079887	0.05705952	0.06912085
	0.05575951	0.0676086	-4.123682e-05	0.0001079887	-0.04263703	0.02787607	-3.709997e-05	8.227595e-05
	-4.405373e-05	0.0001001511	0.05705952	0.06912085	-3.709997e-05	8.227595e-05	-0.04195407	0.02861725
4.8e+08	-0.03736775	0.033649	-2.867347e-05	0.0001361324	0.06551775	0.06264938	-3.043913e-05	0.000110008
