!$
! Info: Touchstone file created by Circ.  Input file=Intel_C2M_200G_6p0in_202208016_staggered.circ
!$
# Hz S RI R 50
0	0.02033186	3.614959e-24	0.9794683	-6.252243e-24	0.0001084733	2.807351e-22	-0.0002392566	2.930048e-20
	0.9794683	-6.249796e-24	0.02088588	6.717712e-24	-0.0002393122	2.930729e-20	0.0003321236	6.630273e-22
	0.0001085307	2.808621e-22	-0.0002394487	2.9324e-20	0.02032982	3.424546e-24	0.9794686	-6.351431e-24
	-0.0002393931	2.93172e-20	0.0003321913	6.634976e-22	0.9794686	-6.353891e-24	0.0208873	6.8568e-24
1e+07	0.02461157	0.003652531	0.9704812	-0.0996376	0.001650265	0.00597058	-0.001064114	-0.0006645654
	0.9704812	-0.0996376	0.02479298	0.003635651	-0.001065268	-0.0006648196	0.00152757	0.006004954
	0.001650265	0.00597058	-0.001065268	-0.0006648196	0.02468017	0.003209412	0.9704301	-0.09917372
	-0.001064114	-0.0006645654	0.00152757	0.006004954	0.9704301	-0.09917372	0.02483101	0.003181637
2e+07	0.02916687	0.003267594	0.9515122	-0.1940956	0.003687119	0.01111757	-0.001372693	-0.0008010667
	0.9515122	-0.1940956	0.02999249	0.003154464	-0.001375809	-0.000798637	0.003169036	0.01133705
	0.003687128	0.01111756	-0.001375811	-0.0007987473	0.02874836	0.002549896	0.9519949	-0.1933734
	-0.001372694	-0.0008011708	0.003169124	0.01133694	0.9519949	-0.1933734	0.02946406	0.002490629
3e+07	0.03233655	0.000703752	0.9248459	-0.28428	0.006694735	0.01582047	-0.001643718	-0.00088499
	0.9248459	-0.28428	0.03362996	1.985946e-05	-0.00164714	-0.0008780481	0.005685384	0.01624036
	0.006694711	0.01582051	-0.001647182	-0.0008780446	0.03154753	7.011828e-07	0.9257324	-0.2836075
	-0.001643731	-0.0008849947	0.00568536	0.01624033	0.9257324	-0.2836075	0.0326928	-0.0005262581
4e+07	0.03426635	-0.002764188	0.8903893	-0.3706639	0.01062111	0.01975993	-0.001881707	-0.0009212039
	0.8903892	-0.3706639	0.0362423	-0.004074851	-0.001882885	-0.0009091062	0.008914913	0.02063406
	0.01062111	0.01975995	-0.001882889	-0.0009091019	0.03318891	-0.003355733	0.8915923	-0.3701598
	-0.001881707	-0.0009211905	0.008914913	0.02063406	0.8915923	-0.3701598	0.03500592	-0.004372215
5e+07	0.03515639	-0.006593052	0.8483748	-0.4528226	0.01528496	0.02281419	-0.002089149	-0.0009272431
	0.8483748	-0.4528226	0.03789543	-0.008803228	-0.002085422	-0.0009106945	0.01278158	0.0243866
	0.01528496	0.0228142	-0.00208542	-0.0009106953	0.03385242	-0.007013776	0.8498182	-0.4525631
	-0.002089147	-0.0009272444	0.01278158	0.02438661	0.8498182	-0.4525631	0.03646647	-0.008774614
6e+07	0.03513335	-0.01050135	0.7991721	-0.5302097	0.02050912	0.02486032	-0.002271162	-0.0009230715
	0.7991721	-0.5302097	0.03859864	-0.01385921	-0.002260195	-0.0009038558	0.01715707	0.02740753
	0.02050914	0.0248603	-0.002260193	-0.0009038568	0.0336582	-0.01070939	0.8007811	-0.5302485
	-0.002271159	-0.0009230718	0.01715707	0.02740753	0.8007811	-0.5302485	0.0370828	-0.01346098
7e+07	0.03430748	-0.01426789	0.7432325	-0.6022666	0.02609167	0.02580903	-0.002439944	-0.000923623
	0.7432325	-0.6022666	0.03840932	-0.01899962	-0.002420027	-0.0009046217	0.02190208	0.02963356
	0.02609167	0.02580902	-0.002419985	-0.000904678	0.03271402	-0.01423203	0.7449305	-0.6026425
	-0.002439942	-0.0009236251	0.02190208	0.02963356	0.7449305	-0.6026425	0.03691081	-0.01821448
8e+07	0.03281326	-0.01771879	0.6810703	-0.6684562	0.03181813	0.02560956	-0.002611077	-0.0009366899
	0.6810703	-0.6684562	0.03740213	-0.0240372	-0.002581687	-0.0009215366	0.02686905	0.03102764
	0.03181813	0.02560956	-0.002581688	-0.0009215341	0.03115468	-0.0174136	0.6827784	-0.6691972
	-0.002611078	-0.0009366874	0.02686905	0.03102764	0.6827784	-0.6691972	0.03602394	-0.02287
9e+07	0.03080621	-0.02073314	0.6132525	-0.7282802	0.03746946	0.02425048	-0.002801616	-0.000962802
	0.6132525	-0.7282802	0.03566086	-0.02881667	-0.002763615	-0.0009556289	0.03190857	0.03158068
	0.03746946	0.02425048	-0.002763613	-0.0009556201	0.02913993	-0.02013321	0.6148795	-0.7294061
	-0.002801616	-0.0009627924	0.03190857	0.03158068	0.6148795	-0.7294061	0.03450828	-0.02729033
1e+08	0.02846782	-0.02323673	0.5403699	-0.7813033	0.04283045	0.02175846	-0.003029815	-0.000994785
	0.5403699	-0.7813033	0.03329291	-0.03318798	-0.002986204	-0.001000633	0.03687735	0.03130995
	0.04283045	0.02175845	-0.002986204	-0.001000633	0.0268826	-0.02228436	0.541779	-0.78285
	-0.003029815	-0.000994786	0.03687735	0.03130995	0.541779	-0.78285	0.03251099	-0.03133521
1.1e+08	0.02587977	-0.02532524	0.4630748	-0.8269908	0.04769524	0.01818199	-0.003297634	-0.001010662
	0.4630748	-0.8269908	0.03048953	-0.0371291	-0.003255119	-0.001028156	0.04162322	0.03024825
	0.04769524	0.01818199	-0.003255119	-0.001028158	0.02459826	-0.02420837	0.464106	-0.8287442
	-0.003297634	-0.001010664	0.04162322	0.03024825	0.464106	-0.8287442	0.03015598	-0.03520007
1.2e+08	0.02313698	-0.02684076	0.3821773	-0.8650751	0.05183175	0.01366144	-0.003612156	-0.001017065
	0.3821773	-0.8650751	0.02723883	-0.04056465	-0.00357323	-0.001045528	0.04601421	0.02847992
	0.05183174	0.01366143	-0.00357323	-0.001045529	0.02205322	-0.02564047	0.3828859	-0.866942
	-0.003612156	-0.001017067	0.04601421	0.02847992	0.3828859	-0.866942	0.02726607	-0.03865599
1.3e+08	0.02041432	-0.02781409	0.2983754	-0.8953188	0.05508589	0.008334953	-0.003984444	-0.0009929254
	0.2983754	-0.8953188	0.02368427	-0.04340952	-0.003952168	-0.001031317	0.04994474	0.02609741
	0.05508588	0.008334951	-0.003952168	-0.001031318	0.01949791	-0.02654838	0.2987804	-0.8972467
	-0.003984444	-0.0009929266	0.04994474	0.02609741	0.2987804	-0.8972467	0.02402064	-0.04158059
1.4e+08	0.01783629	-0.02830633	0.2124023	-0.9175321	0.05732188	0.002369886	-0.004415595	-0.0009167531
	0.2124023	-0.9175321	0.01996182	-0.04562976	-0.0043924	-0.0009625835	0.05332677	0.02320973
	0.05732188	0.002369885	-0.004392401	-0.0009625844	0.01708012	-0.02699426	0.2125181	-0.9194755
	-0.004415595	-0.000916754	0.05332677	0.02320973	0.2125181	-0.9194755	0.0205597	-0.04392157
1.5e+08	0.01550124	-0.0283978	0.1250021	-0.9315879	0.05843231	-0.004043852	-0.004899453	-0.0007666902
	0.1250021	-0.9315879	0.01620316	-0.04722265	-0.004886755	-0.0008174003	0.0560953	0.0199381
	0.05843231	-0.004043852	-0.004886755	-0.000817401	0.01490053	-0.02706302	0.1248442	-0.9335085
	-0.004899453	-0.0007666909	0.0560953	0.0199381	0.1248442	-0.9335085	0.01701758	-0.04566323
1.6e+08	0.01348211	-0.02818416	0.03692643	-0.9374212	0.0583435	-0.01069946	-0.005423205	-0.0005227599
	0.03692643	-0.9374212	0.01253191	-0.04821155	-0.005421591	-0.0005755865	0.05820985	0.01641198
	0.0583435	-0.01069946	-0.005421592	-0.000575587	0.01302877	-0.02685181	0.03650917	-0.9392864
	-0.005423205	-0.0005227603	0.05820985	0.01641198	0.03650917	-0.9392864	0.01352016	-0.04681874
1.7e+08	0.01182563	-0.0277723	-0.05107555	-0.9350354	0.05701828	-0.01737952	-0.005968324	-0.0001684975
	-0.05107555	-0.9350354	0.009060077	-0.04864249	-0.005977643	-0.0002207091	0.05965511	0.01276339
	0.05701828	-0.01737951	-0.005977643	-0.0002207094	0.01150678	-0.02646546	-0.05173519	-0.9368148
	-0.005968324	-0.0001684977	0.05965511	0.01276339	-0.05173519	-0.9368148	0.01018254	-0.04742583
1.8e+08	0.01055043	-0.02727452	-0.1382599	-0.9244975	0.05445765	-0.02386233	-0.006511846	0.0003077175
	-0.1382599	-0.9244975	0.005885598	-0.04858002	-0.006531368	0.0002584504	0.06044129	0.009122888
	0.05445765	-0.02386233	-0.006531368	0.0002584501	0.0103493	-0.02601259	-0.1391431	-0.9261633
	-0.006511846	0.0003077174	0.06044129	0.009122889	-0.1391431	-0.9261633	0.007105355	-0.04754231
1.9e+08	0.009647137	-0.02680326	-0.2238909	-0.9059368	0.05070148	-0.02992871	-0.007027695	0.0009120038
	-0.2238909	-0.9059368	0.003089287	-0.04810417	-0.007056255	0.0008676517	0.06060279	0.005615167
	0.05070148	-0.02992871	-0.007056255	0.0008676516	0.009544183	-0.02560086	-0.2249766	-0.9074668
	-0.007027695	0.0009120037	0.06060279	0.005615168	-0.2249766	-0.9074668	0.004373315	-0.04724254
2e+08	0.009078448	-0.02646424	-0.3072497	-0.8795464	0.04582718	-0.03536849	-0.007488459	0.001644038
	-0.3072497	-0.8795464	0.0007343708	-0.04730649	-0.007524647	0.001606004	0.06019604	0.002353869
	0.04582718	-0.03536849	-0.007524647	0.001606004	0.009053289	-0.02533155	-0.3085165	-0.8809175
	-0.007488459	0.001644038	0.06019604	0.00235387	-0.3085165	-0.8809175	0.002052713	-0.04661303
2.1e+08	0.008782144	-0.02635019	-0.387638	-0.8455811	0.03994789	-0.03998667	-0.007867271	0.002496982
	-0.387638	-0.8455811	-0.001136439	-0.0462865	-0.007909337	0.002466563	0.05929812	-0.000561378
	0.03994789	-0.03998667	-0.007909337	0.002466563	0.00881367	-0.02529278	-0.3890615	-0.8467754
	-0.007867271	0.002496982	0.05929812	-0.0005613779	-0.3890615	-0.8467754	0.000191245	-0.04574968
2.2e+08	0.008673551	-0.0265361	-0.4643817	-0.8043543	0.03320943	-0.04360931	-0.008138714	0.003458403
	-0.4643817	-0.8043543	-0.002499462	-0.04514797	-0.008184978	0.003436161	0.05800236	-0.003048789
	0.03320943	-0.04360931	-0.008184978	0.003436161	0.008741602	-0.02555517	-0.4659368	-0.8053567
	-0.008138714	0.003458403	0.05800236	-0.003048789	-0.4659368	-0.8053567	-0.001183802	-0.044753
2.3e+08	0.008650997	-0.02707405	-0.5368332	-0.7562381	0.02578639	-0.0460892	-0.008281055	0.004510112
	-0.5368332	-0.7562381	-0.003351535	-0.04399519	-0.008329694	0.004496546	0.05641526	-0.00504708
	0.02578639	-0.0460892	-0.008329694	0.004496545	0.00873672	-0.02616765	-0.5384952	-0.7570363
	-0.008281055	0.004510112	0.05641526	-0.00504708	-0.5384952	-0.7570363	-0.002064571	-0.04372518
2.4e+08	0.008601057	-0.02798976	-0.6043843	-0.7016613	0.01787752	-0.04730991	-0.008276451	0.005630607
	-0.6043843	-0.7016613	-0.003708874	-0.04292938	-0.008325925	0.005625453	0.05465261	-0.006517165
	0.01787752	-0.04730991	-0.008325925	0.005625453	0.008686857	-0.02715245	-0.6061262	-0.7022481
	-0.008276451	0.005630607	0.05465261	-0.006517165	-0.6061262	-0.7022481	-0.002462684	-0.04276628
2.5e+08	0.008404494	-0.02928008	-0.6664625	-0.6411088	0.009700053	-0.04718977	-0.008112227	0.006795071
	-0.6664625	-0.6411088	-0.003605469	-0.04204556	-0.008161017	0.006797863	0.05283461	-0.007443724
	0.009700053	-0.04718977	-0.008161017	0.006797863	0.008475012	-0.02850419	-0.6682575	-0.6414764
	-0.008112227	0.006795071	0.05283461	-0.007443724	-0.6682575	-0.6414764	-0.002407671	-0.04197071
2.6e+08	0.007943107	-0.03091247	-0.722541	-0.575113	0.001483662	-0.04568523	-0.007781223	0.007977273
	-0.722541	-0.575113	-0.003092215	-0.04142887	-0.007827898	0.007987498	0.05108161	-0.007835487
	0.001483662	-0.04568523	-0.007827898	0.007987498	0.007984778	-0.03018779	-0.7243608	-0.5752606
	-0.007781223	0.007977273	0.05108161	-0.007835487	-0.7243608	-0.5752606	-0.001946185	-0.04142452
2.7e+08	0.007106153	-0.03282524	-0.7721403	-0.5042558	-0.006535733	-0.04279163	-0.007281125	0.00915098
	-0.7721403	-0.5042558	-0.002233517	-0.0411528	-0.007324904	0.009167642	0.04950954	-0.007724386
	-0.006535733	-0.04279163	-0.007324904	0.009167642	0.0071078	-0.03213973	-0.7739601	-0.5041842
	-0.007281126	0.00915098	0.04950954	-0.007724386	-0.7739601	-0.5041842	-0.001138837	-0.04120207
2.8e+08	0.005797133	-0.03492882	-0.8148375	-0.4291644	-0.01412325	-0.03854479	-0.006614588	0.01029081
	-0.8148375	-0.4291644	-0.001105372	-0.04127646	-0.006654571	0.01031312	0.04822571	-0.00716504
	-0.01412325	-0.03854479	-0.006654571	0.01031312	0.005750309	-0.0342692	-0.816632	-0.4288773
	-0.006614588	0.01029081	0.04822571	-0.00716504	-0.816632	-0.4288773	-5.823913e-05	-0.0413642
2.9e+08	0.003939831	-0.0371099	-0.8502683	-0.3505052	-0.02105161	-0.03302036	-0.005787721	0.01137367
	-0.8502683	-0.3505052	0.0002074365	-0.04184273	-0.005823738	0.01140072	0.04732438	-0.006231996
	-0.02105161	-0.03302036	-0.005823738	0.01140072	0.003838411	-0.03646142	-0.8520129	-0.3500092
	-0.005787721	0.01137367	0.04732438	-0.006231996	-0.8520129	-0.3500092	0.001213805	-0.0419565
3e+08	0.001483726	-0.03923537	-0.8781308	-0.2689774	-0.02710765	-0.02633171	-0.004810532	0.01237879
	-0.8781308	-0.2689774	0.001615643	-0.04287787	-0.004842409	0.01240983	0.04688328	-0.005017602
	-0.02710765	-0.02633171	-0.004842409	0.01240983	0.001324325	-0.03858275	-0.8798019	-0.2682807
	-0.004810532	0.01237879	0.04688328	-0.005017602	-0.8798019	-0.2682807	0.002590106	-0.04300792
3.1e+08	-0.001591681	-0.04115833	-0.8981931	-0.1853078	-0.03209929	-0.0186276	-0.003694821	0.01328852
	-0.8981931	-0.1853078	0.003028003	-0.04439073	-0.003722257	0.01332279	0.04696096	-0.003627563
	-0.03209929	-0.0186276	-0.003722258	0.01332279	-0.001809762	-0.04048536	-0.8997671	-0.1844231
	-0.003694821	0.01328852	0.04696096	-0.003627563	-0.8997671	-0.1844231	0.003980585	-0.04453057
3.2e+08	-0.005273831	-0.04272396	-0.9102914	-0.1002472	-0.03586099	-0.01008809	-0.002453477	0.01408803
	-0.9102914	-0.1002472	0.004354621	-0.04637329	-0.002476482	0.01412511	0.0475938	-0.002178165
	-0.03586099	-0.01008809	-0.002476482	0.01412511	-0.005547696	-0.04201509	-0.9117504	-0.09918581
	-0.002453477	0.01408803	0.0475938	-0.002178165	-0.9117504	-0.09918581	0.005296168	-0.04651954
3.3e+08	-0.00951507	-0.04377766	-0.9143369	-0.01455567	-0.03825849	-0.0009195602	-0.001099423	0.01476506
	-0.9143369	-0.01455567	0.005510394	-0.04880139	-0.001118595	0.01480472	0.04879452	-0.0007910713
	-0.03825849	-0.0009195602	-0.001118595	0.01480472	-0.00983907	-0.04301739	-0.9156621	-0.01333462
	-0.001099423	0.01476506	0.04879452	-0.0007910714	-0.9156621	-0.01333462	0.006451805	-0.04895383
3.4e+08	-0.01423225	-0.04417197	-0.910316	0.07099596	-0.03919381	0.008651072	0.000353822	0.0153094
	-0.910316	0.07099596	0.006417736	-0.05163626	0.0003390694	0.01535141	0.05055216	0.0004112674
	-0.03919381	0.008651072	0.0003390694	0.01535141	-0.01459782	-0.04334639	-0.9114929	0.07236248
	0.000353822	0.0153094	0.05055216	0.0004112674	-0.9114929	0.07236248	0.007368901	-0.05179758
3.5e+08	-0.01930862	-0.04377467	-0.8982926	0.1556449	-0.03860722	0.0183825	0.001894209	0.01571226
	-0.8982926	0.1556449	0.007008843	-0.05482647	0.00188407	0.0157565	0.05283149	0.00130955
	-0.03860722	0.0183825	0.00188407	0.0157565	-0.01970441	-0.04287084	-0.8993042	0.1571353
	0.001894209	0.01571226	0.05283149	0.00130955	-0.8993042	0.1571353	0.007978383	-0.05500244
3.6e+08	-0.02459665	-0.04247551	-0.8784034	0.2386342	-0.03647998	0.02802589	0.003510098	0.01596534
	-0.8784034	0.2386342	0.007227849	-0.05831083	0.003504711	0.01601198	0.05557447	0.001793206
	-0.03647998	0.02802589	0.003504711	0.01601198	-0.02500856	-0.04148317	-0.8792381	0.2402295
	0.003510098	0.01596534	0.05557447	0.001793206	-0.8792381	0.2402295	0.008222554	-0.05850876
3.7e+08	-0.02992265	-0.04019377	-0.8508592	0.3192288	-0.03283458	0.03733231	0.005189952	0.01606051
	-0.8508592	0.3192288	0.007032229	-0.06202005	0.005190164	0.01610927	0.05870247	0.001764029
	-0.03283458	0.03733231	0.005190164	0.01610927	-0.03033448	-0.03910522	-0.8515079	0.3209096
	0.005189952	0.01606051	0.05870247	0.001764029	-0.8515079	0.3209096	0.008056398	-0.06224941
3.8e+08	-0.03509276	-0.03688276	-0.8159422	0.3967208	-0.0277337	0.04605889	0.006923073	0.01598858
	-0.8159422	0.3967208	0.006393666	-0.0658802	0.006929039	0.0160395	0.06211855	0.001139895
	-0.0277337	0.04605889	0.006929039	0.0160395	-0.03548645	-0.03569302	-0.8163957	0.3984638
	0.006923073	0.01598858	0.06211855	0.001139895	-0.8163957	0.3984638	0.007449129	-0.06615175
3.9e+08	-0.03989899	-0.03253484	-0.7740017	0.470433	-0.02127958	0.05397598	0.008696518	0.01574039
	-0.7740017	0.470433	0.005297834	-0.06981606	0.008709837	0.01579236	0.06571138	-0.000141884
	-0.02127958	0.05397598	0.008709837	0.01579236	-0.04025575	-0.03124322	-0.7742576	0.4722175
	0.008696518	0.01574039	0.06571138	-0.000141884	-0.7742576	0.4722175	0.006383524	-0.07014016
4e+08	-0.0441288	-0.02718439	-0.7254516	0.5397314	-0.0136098	0.06087326	0.01049704	0.01530496
	-0.7254516	0.5397314	0.003744756	-0.07375262	0.01051824	0.01535757	0.06935888	-0.002122243
	-0.0136098	0.06087326	0.01051824	0.01535757	-0.04442934	-0.02579304	-0.7255043	0.5415345
	0.01049704	0.01530496	0.06935888	-0.002122243	-0.7255043	0.5415345	0.004857049	-0.07414018
4.1e+08	-0.04757321	-0.02090879	-0.670757	0.6040308	-0.004894341	0.0665648	0.01230849	0.01467123
	-0.670757	0.6040308	0.001747837	-0.07761877	0.01233831	0.01472341	0.07293305	-0.004818351
	-0.004894341	0.0665648	0.01233831	0.01472341	-0.04779821	-0.01942362	-0.6706062	0.6058311
	0.01230849	0.01467123	0.07293305	-0.004818351	-0.6706062	0.6058311	0.002880221	-0.0780795
4.2e+08	-0.05003381	-0.0138281	-0.6104407	0.6627949	0.004669093	0.07089466	0.01411136	0.01382888
	-0.6104407	0.6627949	-0.0006679662	-0.08134899	0.01415063	0.01387882	0.07630368	-0.008224166
	0.004669093	0.07089466	0.01415063	0.01387882	-0.05016482	-0.01225896	-0.6100892	0.6645684
	0.01411136	0.01382888	0.07630368	-0.008224166	-0.6100892	0.6645684	0.0004760142	-0.08189118
4.3e+08	-0.05133333	-0.006102382	-0.5450652	0.7155453	0.0148609	0.07373998	0.01588327	0.01276759
	-0.5450652	0.7155453	-0.003466939	-0.08488534	0.01593232	0.01281386	0.07934382	-0.01230894
	0.0148609	0.07373998	0.01593232	0.01281386	-0.05135361	-0.004462567	-0.544517	0.7172706
	0.01588327	0.01276759	0.07934382	-0.01230894	-0.544517	0.7172706	-0.002322373	-0.08551567
4.4e+08	-0.05132253	0.002071982	-0.4752321	0.7618627	0.02544449	0.07501403	0.0175976	0.01148007
	-0.4752321	0.7618627	-0.006605168	-0.08817931	0.01765638	0.01152026	0.0819334	-0.01701971
	0.02544449	0.07501403	0.01765638	0.01152026	-0.05121722	0.003765611	-0.4744946	0.763518
	0.0175976	0.01148007	0.0819334	-0.01701971	-0.4744946	0.763518	-0.005471993	-0.08890213
4.5e+08	-0.04988674	0.01046654	-0.4015769	0.801387	0.03617284	0.07466854	0.0192243	0.009962039
	-0.4015769	0.801387	-0.01003239	-0.09119284	0.01929238	0.009993975	0.08396385	-0.02228227
	0.03617284	0.07466854	0.01929238	0.009993974	-0.04964393	0.01219429	-0.4006592	0.8029519
	0.0192243	0.009962039	0.08396385	-0.02228227	-0.4006592	0.8029519	-0.008923753	-0.09200995
4.6e+08	-0.04695254	0.01882845	-0.3247586	0.8338221	0.04679436	0.07269416	0.02073029	0.008213312
	-0.3247586	0.8338221	-0.01369425	-0.09389927	0.02080661	0.008235161	0.08534136	-0.02800437
	0.04679436	0.07269416	0.02080661	0.008235161	-0.04656394	0.02056872	-0.3236708	0.8352772
	0.02073029	0.008213312	0.08534136	-0.02800437	-0.3236708	0.8352772	-0.01262388	-0.09480968
4.7e+08	-0.04249384	0.02688868	-0.2454523	0.8589397	0.05705952	0.06912085	0.02208011	0.006240475
	-0.2454523	0.8589397	-0.0175347	-0.09628261	0.02216308	0.006249811	0.08599003	-0.03407801
	0.05705952	0.06912085	0.02216308	0.006249811	-0.04195407	0.02861725	-0.2442089	0.8602652
	0.02208011	0.006240475	0.08599003	-0.03407801	-0.2442089	0.8602652	-0.01651587	-0.09728282
4.8e+08	-0.03653174	0.03436917	-0.164347	0.876566	0.06672598	0.06401672	0.02323761	0.004054986
	-0.164347	0.876566	-0.02149771	-0.09833891	0.023325	0.004050481	0.08585412	-0.04038393
	0.06672598	0.06401672	0.023325	0.004050481	-0.03584066	0.03606096	-0.1629641	0.8777488
	0.02323761	0.004054986	0.08585412	-0.04038393	-0.1629641	0.8777488	-0.02054324	-0.09942248
4.9e+08	-0.02913959	0.04099168	-0.08214376	0.8865973	0.07556551	0.0574866	0.02416678	0.00167683
	-0.08214376	0.8865973	-0.0255303	-0.1000743	0.02425606	0.001656598	0.08489972	-0.0467949
	0.07556551	0.0574866	0.02425606	0.001656598	-0.02830071	0.04262145	-0.0806358	0.8876224
	0.02416678	0.00167683	0.08489972	-0.0467949	-0.0806358	0.8876224	-0.02465165	-0.1012326
5e+08	-0.02044198	0.04648954	0.0004645428	0.8889923	0.08336831	0.04966863	0.02483351	-0.0008685254
	0.0004645428	0.8889923	-0.02958386	-0.101505	0.02492185	-0.0009048855	0.0831158	-0.05318
	0.08336831	0.04966863	0.02492185	-0.0009048855	-0.01946317	0.04803159	0.00207568	0.8898461
	0.02483351	-0.0008685254	0.0831158	-0.05318	0.00207568	0.8898461	-0.0287906	-0.1027271
5.1e+08	-0.01061186	0.05061326	0.08277919	0.8837652	0.08994805	0.04073206	0.02520783	-0.003547205
	0.08277919	0.8837652	-0.0336158	-0.1026558	0.02529193	-0.003599969	0.08051403	-0.05940894
	0.08994805	0.04073206	0.02529193	-0.003599969	-0.009505785	0.05204383	0.08447532	0.8844401
	0.02520783	-0.003547206	0.08051403	-0.05940894	0.08447532	0.8844401	-0.03291532	-0.1039288
5.2e+08	0.0001302868	0.05314236	0.1641119	0.870996	0.09514754	0.03087199	0.02526441	-0.006320457
