!$
! Info: Touchstone file created by Circ.  Input file=Intel_C2M_200G_6p0in_202208016_staggered.circ
!$
# Hz S RI R 50
0	0.02088588	6.717164e-24	-8.749212e-05	1.071469e-20	0.0003321254	6.63022e-22	-8.319045e-05	1.018789e-20
	-8.749221e-05	1.071471e-20	0.02033186	3.614959e-24	-9.462763e-05	1.158854e-20	0.0001084733	2.807351e-22
	0.0003321931	6.634883e-22	-9.462771e-05	1.158855e-20	0.0208871	6.858624e-24	-8.751751e-05	1.07178e-20
	-8.319043e-05	1.018789e-20	0.0001085307	2.808621e-22	-8.751741e-05	1.071779e-20	0.02032982	3.424546e-24
1e+07	0.02562092	0.003136059	-0.0005817762	-9.606929e-05	0.001250441	0.005944841	-5.444695e-05	-0.0001019143
	-0.0005817762	-9.606929e-05	0.02461157	0.003652531	-0.0004453291	0.0001162536	0.001650265	0.00597058
	0.001250441	0.005944841	-0.0004453291	0.0001162536	0.02544201	0.003472629	-0.0004619689	-6.321847e-05
	-5.444695e-05	-0.0001019143	0.001650265	0.00597058	-0.0004619689	-6.321847e-05	0.02468017	0.003209412
2e+07	0.03006518	0.002126708	-0.0005504496	-0.0002450053	0.002877998	0.01134978	-8.17907e-05	-0.0001553751
	-0.0005504495	-0.0002450052	0.02916687	0.003267594	-0.0005282588	3.045866e-05	0.003687119	0.01111757
	0.002878086	0.01134967	-0.0005282588	3.045871e-05	0.03026295	0.00271952	-0.0004342862	-0.0002977723
	-8.17907e-05	-0.0001553751	0.003687128	0.01111756	-0.0004342862	-0.0002977723	0.02874836	0.002549896
3e+07	0.03312192	-0.001007023	-0.0005646611	-0.0003561155	0.00539026	0.01630228	-0.0001240955	-0.0002154219
	-0.000564661	-0.0003561155	0.03233655	0.000703752	-0.0006046767	-6.556512e-06	0.006694735	0.01582047
	0.005390236	0.01630225	-0.0006046767	-6.556512e-06	0.03362588	-0.0003961607	-0.000446536	-0.0004170612
	-0.0001240955	-0.0002154218	0.006694711	0.01582051	-0.0004465361	-0.0004170612	0.03154753	7.011828e-07
4e+07	0.03528058	-0.004907147	-0.0006057904	-0.0004315079	0.008625527	0.02074309	-0.0001822243	-0.0002666789
	-0.0006057904	-0.0004315079	0.03426635	-0.002764188	-0.000682635	-2.917474e-05	0.01062111	0.01975993
	0.008625527	0.0207431	-0.000682635	-2.917473e-05	0.03603045	-0.004372264	-0.0004872044	-0.0005009006
	-0.0001822243	-0.0002666789	0.01062111	0.01975995	-0.0004872045	-0.0005009006	0.03318891	-0.003355733
5e+07	0.03660181	-0.00932295	-0.000666191	-0.0004816921	0.01250741	0.02454088	-0.0002501649	-0.0003061457
	-0.000666191	-0.000481692	0.03515639	-0.006593052	-0.0007635405	-4.056502e-05	0.01528496	0.02281419
	0.01250741	0.02454089	-0.0007635405	-4.0565e-05	0.03754273	-0.008924939	-0.0005479047	-0.0005590349
	-0.0002501649	-0.0003061457	0.01528496	0.0228142	-0.0005479047	-0.0005590349	0.03385242	-0.007013776
6e+07	0.03709579	-0.01399208	-0.0007400003	-0.0005093808	0.01690711	0.02760387	-0.0003259419	-0.0003331537
	-0.0007400003	-0.0005093808	0.03513335	-0.01050135	-0.000848163	-4.19597e-05	0.02050912	0.02486032
	0.01690711	0.02760388	-0.000848163	-4.19597e-05	0.03817221	-0.01377279	-0.0006221406	-0.0005940618
	-0.0003259419	-0.0003331537	0.02050914	0.0248603	-0.0006221406	-0.0005940617	0.0336582	-0.01070939
7e+07	0.03682156	-0.0187045	-0.0008317819	-0.0005078079	0.02168464	0.02986726	-0.0004076562	-0.0003469709
	-0.0008317819	-0.0005078079	0.03430748	-0.01426789	-0.0009370967	-3.384591e-05	0.02609167	0.02580903
	0.02168464	0.02986726	-0.0009370967	-3.384591e-05	0.03797543	-0.01869147	-0.000704225	-0.0006070043
	-0.0004076562	-0.0003469709	0.02609167	0.02580902	-0.000704225	-0.0006070043	0.03271402	-0.01423203
8e+07	0.03585561	-0.02330109	-0.0009356592	-0.0004737143	0.02669169	0.03129247	-0.0004928076	-0.0003468008
	-0.0009356592	-0.0004737143	0.03281326	-0.01771879	-0.001030341	-1.648164e-05	0.03181813	0.02560956
	0.02669169	0.03129247	-0.001030341	-1.648164e-05	0.03702616	-0.02350944	-0.0008186925	-0.0005697362
	-0.0004928076	-0.0003468008	0.03181813	0.02560956	-0.0008186925	-0.0005697362	0.03115468	-0.0174136
9e+07	0.03428713	-0.02765133	-0.001032965	-0.0004166841	0.03177821	0.0318691	-0.0005793582	-0.0003326075
	-0.001032965	-0.0004166841	0.03080621	-0.02073314	-0.001131512	8.611132e-06	0.03746946	0.02425048
	0.03177821	0.0318691	-0.001131512	8.611132e-06	0.03540934	-0.02808442	-0.0009427387	-0.000484782
	-0.0005793582	-0.0003326075	0.03746946	0.02425048	-0.0009427387	-0.0004847819	0.02913993	-0.02013321
1e+08	0.03227322	-0.03162125	-0.001113443	-0.0003340645	0.03680274	0.03161312	-0.000665143	-0.0003047665
	-0.001113443	-0.0003340645	0.02846782	-0.02323673	-0.001254766	3.432975e-05	0.04283045	0.02175846
	0.03680274	0.03161312	-0.001254766	3.432975e-05	0.03325658	-0.03227821	-0.001044037	-0.0003626961
	-0.000665143	-0.0003047665	0.04283045	0.02175845	-0.001044037	-0.0003626961	0.0268826	-0.02228436
1.1e+08	0.02991853	-0.03546755	-0.00118813	-0.0002337065	0.04160426	0.0305426	-0.0007490365	-0.0002644414
	-0.00118813	-0.0002337065	0.02587977	-0.02532524	-0.001352786	3.334849e-05	0.04769524	0.01818199
	0.04160426	0.0305426	-0.001352786	3.33485e-05	0.03069871	-0.03618979	-0.001108959	-0.0002586732
	-0.0007490365	-0.0002644414	0.04769524	0.01818199	-0.001108959	-0.0002586732	0.02459826	-0.02420837
1.2e+08	0.02701459	-0.03889654	-0.001262643	-0.0001280712	0.04604082	0.02875713	-0.0008310214	-0.0002109751
	-0.001262643	-0.0001280712	0.02313698	-0.02684076	-0.001439542	6.25183e-05	0.05183175	0.01366144
	0.04604082	0.02875713	-0.001439542	6.25183e-05	0.02764107	-0.03965024	-0.001174835	-0.0001544295
	-0.0008310214	-0.0002109751	0.05183174	0.01366143	-0.001174835	-0.0001544295	0.02205322	-0.02564047
1.3e+08	0.02375769	-0.04178881	-0.001329242	-1.261271e-05	0.05000971	0.02635153	-0.0009099481	-0.0001449112
	-0.001329242	-1.261271e-05	0.02041432	-0.02781409	-0.001525465	0.0001124584	0.05508589	0.008334953
	0.05000971	0.02635153	-0.001525465	0.0001124584	0.02424671	-0.04255431	-0.001232907	-4.383346e-05
	-0.0009099482	-0.0001449112	0.05508588	0.008334951	-0.001232907	-4.383348e-05	0.01949791	-0.02654838
1.4e+08	0.0202917	-0.04409668	-0.001385537	0.0001124437	0.05342315	0.02343634	-0.0009828799	-6.602306e-05
	-0.001385537	0.0001124437	0.01783629	-0.02830633	-0.001610858	0.0001820562	0.05732188	0.002369886
	0.05342315	0.02343634	-0.001610858	0.0001820562	0.02065329	-0.04485574	-0.001281157	7.29658e-05
	-0.0009828799	-6.602306e-05	0.05732188	0.002369885	-0.001281157	7.29658e-05	0.01708012	-0.02699426
1.5e+08	0.01675098	-0.04580752	-0.001430083	0.0002462268	0.05621619	0.02013418	-0.001048317	2.508668e-05
	-0.001430083	0.0002462268	0.01550124	-0.0283978	-0.001694301	0.0002715266	0.05843231	-0.004043852
	0.05621619	0.02013418	-0.001694301	0.0002715266	0.0169944	-0.04654291	-0.001318735	0.0001951124
	-0.001048317	2.508668e-05	0.05843231	-0.004043852	-0.001318735	0.0001951124	0.01490053	-0.02706302
1.6e+08	0.01326061	-0.04693662	-0.001461869	0.0003876167	0.05834846	0.0165758	-0.001104816	0.0001276237
	-0.001461869	0.0003876167	0.01348211	-0.02818416	-0.001773415	0.00038124	0.0583435	-0.01069946
	0.05834846	0.0165758	-0.001773415	0.00038124	0.01339563	-0.04763219	-0.001345401	0.0003216271
	-0.001104816	0.0001276237	0.0583435	-0.01069946	-0.001345401	0.0003216271	0.01302877	-0.02685181
1.7e+08	0.009933874	-0.04752295	-0.001480141	0.0005355336	0.05980493	0.01289442	-0.001151001	0.0002407538
	-0.001480141	0.0005355336	0.01182563	-0.0277723	-0.001845241	0.0005113162	0.05701828	-0.01737952
	0.05980493	0.01289442	-0.001845241	0.0005113162	0.009971794	-0.04816408	-0.001361188	0.0004516903
	-0.001151001	0.0002407538	0.05701828	-0.01737951	-0.001361188	0.0004516903	0.01150678	-0.02646546
1.8e+08	0.006870308	-0.0476249	-0.001484307	0.0006888932	0.06059615	0.009221676	-0.001185528	0.0003635264
	-0.001484307	0.0006888932	0.01055043	-0.02727452	-0.001906402	0.0006615673	0.05445765	-0.02386233
	0.06059615	0.009221677	-0.001906402	0.0006615673	0.006823245	-0.04819879	-0.00136637	0.0005846942
	-0.001185528	0.0003635264	0.05445765	-0.02386233	-0.00136637	0.0005846942	0.0103493	-0.02601259
1.9e+08	0.004152625	-0.04731694	-0.001473792	0.0008467224	0.06075704	0.005683236	-0.001207116	0.0004949055
	-0.001473792	0.0008467224	0.009647137	-0.02680326	-0.001953307	0.000831124	0.05070148	-0.02992871
	0.06075704	0.005683236	-0.001953307	0.000831124	0.004034328	-0.04781281	-0.001361094	0.0007203217
	-0.001207116	0.0004949055	0.05070148	-0.02992871	-0.001361094	0.0007203217	0.009544183	-0.02560086
2e+08	0.001846492	-0.04668592	-0.001448014	0.001007552	0.06034464	0.002393605	-0.0012145	0.0006336707
	-0.001448014	0.001007552	0.009078448	-0.02646424	-0.001979847	0.001026771	0.04582718	-0.03536849
	0.06034464	0.002393605	-0.001979847	0.001026771	0.001670778	-0.0470945	-0.001345276	0.0008584656
	-0.0012145	0.0006336707	0.04582718	-0.03536849	-0.001345276	0.0008584656	0.009053289	-0.02533155
2.1e+08	-2.762869e-06	-0.04582716	-0.001406421	0.001170952	0.0594368	-0.0005469199	-0.001206475	0.0007785097
	-0.001406421	0.001170952	0.008782144	-0.02635019	-0.001983655	0.00123704	0.03994789	-0.03998667
	0.0594368	-0.0005469198	-0.001983655	0.00123704	-0.000220196	-0.04614159	-0.001318857	0.0009992488
	-0.001206475	0.0007785097	0.03994789	-0.03998667	-0.001318857	0.0009992488	0.00881367	-0.02529278
2.2e+08	-0.001368438	-0.04484094	-0.0013482	0.001335912	0.05812761	-0.003056011	-0.001181878	0.0009279289
	-0.0013482	0.001335912	0.008673551	-0.0265361	-0.00196176	0.001458902	0.03320943	-0.04360931
	0.05812761	-0.00305601	-0.00196176	0.001458902	-0.001611999	-0.04505618	-0.001281272	0.001142853
	-0.001181878	0.0009279289	0.03320943	-0.04360931	-0.001281272	0.001142853	0.008741602	-0.02555517
2.3e+08	-0.00224413	-0.04382881	-0.00127248	0.001501201	0.05652446	-0.005072	-0.001139658	0.001080239
	-0.00127248	0.001501201	0.008650997	-0.02707405	-0.001911775	0.00168866	0.02578639	-0.0460892
	0.05652446	-0.005072	-0.001911775	0.00168866	-0.002497508	-0.04394194	-0.001231627	0.001289377
	-0.001139658	0.001080239	0.02578639	-0.0460892	-0.001231627	0.001289377	0.00873672	-0.02616765
2.4e+08	-0.002642664	-0.04288986	-0.001178242	0.001665462	0.054744	-0.006555595	-0.001078877	0.001233544
	-0.001178242	0.001665462	0.008601057	-0.02798976	-0.001831905	0.001922262	0.01787752	-0.04730991
	0.054744	-0.006555595	-0.001831905	0.001922262	-0.002889229	-0.04290023	-0.001168611	0.00143873
	-0.001078877	0.001233544	0.01787752	-0.04730991	-0.001168611	0.00143873	0.008686857	-0.02715245
2.5e+08	-0.002594627	-0.04211758	-0.001064556	0.001826941	0.05290728	-0.007491423	-0.0009986963	0.001385763
	-0.001064556	0.001826941	0.008404494	-0.02928008	-0.001721022	0.002155344	0.009700053	-0.04718977
	0.05290728	-0.007491423	-0.001721022	0.002155344	-0.002817616	-0.04202664	-0.001090645	0.001590498
	-0.0009986963	0.001385763	0.009700053	-0.04718977	-0.001090645	0.001590498	0.008475012	-0.02850419
2.6e+08	-0.002147519	-0.0415963	-0.0009305125	0.001983564	0.05113548	-0.007888353	-0.0008985813	0.00153458
	-0.0009305125	0.001983564	0.007943107	-0.03091247	-0.00157878	0.002383436	0.001483662	-0.04568523
	0.05113548	-0.007888353	-0.00157878	0.002383436	-0.002330382	-0.04140826	-0.000995862	0.001743807
	-0.0008985813	0.00153458	0.001483662	-0.04568523	-0.000995862	0.001743807	0.007984778	-0.03018779
2.7e+08	-0.001362481	-0.04139916	-0.0007753892	0.002132904	0.0495453	-0.007778556	-0.0007781209	0.001677514
	-0.0007753892	0.002132904	0.007106153	-0.03282524	-0.001405635	0.00260204	-0.006535733	-0.04279163
	0.0495453	-0.007778556	-0.001405635	0.00260204	-0.001489198	-0.04112034	-0.000882272	0.00189723
	-0.0007781209	0.001677514	-0.006535733	-0.04279163	-0.000882272	0.00189723	0.0071078	-0.03213973
2.8e+08	-0.0003124585	-0.04158554	-0.0005987585	0.002272179	0.04824471	-0.007217052	-0.000637327	0.00181186
	-0.0005987585	0.002272179	0.005797133	-0.03492882	-0.0012026	0.002806893	-0.01412325	-0.03854479
	0.04824471	-0.007217052	-0.0012026	0.002806893	-0.0003678882	-0.04122451	-0.000747954	0.002048706
	-0.000637327	0.00181186	-0.01412325	-0.03854479	-0.000747954	0.002048706	0.005750309	-0.0342692
2.9e+08	0.0009205738	-0.04219894	-0.000400623	0.002398254	0.04732853	-0.006278872	-0.0004765282	0.00193482
	-0.000400623	0.002398254	0.003939831	-0.0371099	-0.0009713539	0.002994003	-0.02105161	-0.03302036
	0.04732853	-0.006278872	-0.0009713539	0.002994003	0.000950533	-0.04176698	-0.0005911032	0.002195538
	-0.0004765282	0.00193482	-0.02105161	-0.03302036	-0.0005911032	0.002195538	0.003838411	-0.03646142
3e+08	0.002249828	-0.04326675	-0.0001814588	0.002507765	0.04687496	-0.005056917	-0.0002964538	0.002043519
	-0.0001814588	0.002507765	0.001483726	-0.03923537	-0.000714126	0.003159742	-0.02710765	-0.02633171
	0.04687496	-0.005056917	-0.000714126	0.003159742	0.002377601	-0.04277711	-0.0004103406	0.002334362
	-0.0002964538	0.002043519	-0.02710765	-0.02633171	-0.0004103406	0.002334362	0.001324325	-0.03858275
3.1e+08	0.003586176	-0.04479915	5.764527e-05	0.002597229	0.04694281	-0.003657541	-9.821595e-05	0.002135044
	5.764527e-05	0.002597229	-0.001591681	-0.04115833	-0.0004334395	0.003300898	-0.03209929	-0.0186276
	0.04694281	-0.003657541	-0.0004334395	0.003300898	0.003821921	-0.04426731	-0.0002049198	0.002461262
	-9.821595e-05	0.002135044	-0.03209929	-0.0186276	-0.0002049198	0.002461262	-0.001809762	-0.04048536
3.2e+08	0.00484144	-0.04678976	0.000314973	0.002663105	0.04756869	-0.002197691	0.0001164883	0.002206544
	0.000314973	0.002663105	-0.005273831	-0.04272396	-0.000132282	0.00341474	-0.03586099	-0.01008809
	0.04756869	-0.002197691	-0.000132282	0.00341474	0.005193091	-0.04623276	2.527794e-05	0.002571841
	0.0001164883	0.002206544	-0.03586099	-0.01008809	2.527794e-05	0.002571841	-0.005547696	-0.04201509
3.3e+08	0.00593185	-0.04921616	0.0005881103	0.002701984	0.04876528	-0.0007996522	0.0003455924	0.002255305
	0.0005881103	0.002701984	-0.00951507	-0.04377766	0.0001863974	0.003498946	-0.03825849	-0.0009195602
	0.04876528	-0.0007996522	0.0001863974	0.003498946	0.006404771	-0.04865238	0.0002794886	0.002661415
	0.0003455924	0.002255305	-0.03825849	-0.0009195602	0.0002794886	0.002661415	-0.00983907	-0.04301739
3.4e+08	0.006780753	-0.05204146	0.0008739385	0.002710745	0.05052158	0.000413473	0.0005865509	0.002278871
	0.0008739385	0.002710745	-0.01423225	-0.04417197	0.0005193227	0.003551615	-0.03919381	0.008651072
	0.05052158	0.000413473	0.0005193227	0.003551615	0.007377084	-0.05149009	0.0005559924	0.002725196
	0.0005865509	0.002278871	-0.03919381	0.008651072	0.0005559924	0.002725196	-0.01459782	-0.04334639
3.5e+08	0.007320881	-0.05521608	0.001168673	0.00268668	0.05280211	0.001321827	0.0008363373	0.002275059
	0.001168673	0.00268668	-0.01930862	-0.04377467	0.0008632643	0.003571231	-0.03860722	0.0183825
	0.05280211	0.001321827	0.0008632643	0.003571231	0.008039781	-0.05469709	0.0008519891	0.002758494
	0.0008363373	0.002275059	-0.03860722	0.0183825	0.0008519891	0.002758494	-0.01970441	-0.04287084
3.6e+08	0.007496548	-0.05868059	0.001468013	0.002627689	0.05554851	0.001814328	0.001091558	0.002242138
	0.001468013	0.002627689	-0.02459665	-0.04247551	0.001215061	0.003556466	-0.03647998	0.02802589
	0.05554851	0.001814328	0.001215061	0.003556466	0.008333975	-0.05821314	0.001163714	0.002756993
	0.001091558	0.002242138	-0.03647998	0.02802589	0.001163714	0.002756993	-0.02500856	-0.04148317
3.7e+08	0.007265056	-0.06236741	0.001767229	0.002532303	0.05868172	0.001792401	0.001348572	0.002178784
	0.001767229	0.002532303	-0.02992265	-0.04019377	0.001571446	0.003506274	-0.03283458	0.03733231
	0.05868172	0.001792401	0.001571446	0.003506274	0.008213697	-0.06197038	0.001486535	0.002716886
	0.001348572	0.002178784	-0.03283458	0.03733231	0.001486535	0.002716886	-0.03033448	-0.03910522
3.8e+08	0.006597672	-0.06620405	0.00206122	0.002399913	0.06210433	0.001173569	0.001603363	0.002084282
	0.00206122	0.002399913	-0.03509276	-0.03688276	0.001929034	0.003419835	-0.0277337	0.04605889
	0.06210433	0.001173569	0.001929034	0.003419835	0.007647236	-0.0658953	0.001814854	0.002635206
	0.001603363	0.002084282	-0.0277337	0.04605889	0.001814854	0.002635206	-0.03548645	-0.03569302
3.9e+08	0.005479371	-0.07011658	0.002344783	0.002230737	0.0657045	-0.0001049619	0.001851847	0.001958446
	0.002344783	0.002230737	-0.03989899	-0.03253484	0.00228443	0.00329648	-0.02127958	0.05397598
	0.0657045	-0.0001049619	0.00228443	0.00329648	0.006616656	-0.06991127	0.002142489	0.002509954
	0.001851847	0.001958446	-0.02127958	0.05397598	0.002142489	0.002509954	-0.04025575	-0.03124322
4e+08	0.00390937	-0.07403102	0.002612734	0.002025865	0.0693596	-0.00208423	0.002089842	0.001801724
	0.002612734	0.002025865	-0.0441288	-0.02718439	0.002634119	0.003135631	-0.0136098	0.06087326
	0.0693596	-0.00208423	0.002634119	0.003135631	0.005118855	-0.07394275	0.002462808	0.002340169
	0.002089842	0.001801724	-0.0136098	0.06087326	0.002462808	0.002340169	-0.04442934	-0.02579304
4.1e+08	0.001900064	-0.07787687	0.00285936	0.001787172	0.07294113	-0.004781316	0.002313243	0.001615155
	0.00285936	0.001787172	-0.04757321	-0.02090879	0.002990223	0.002923526	-0.004894341	0.0665648
	0.07294113	-0.004781316	0.002990223	0.002923526	0.003164012	-0.07791646	0.002768753	0.002126837
	0.002313243	0.001615155	-0.004894341	0.0665648	0.002768753	0.002126837	-0.04779821	-0.01942362
4.2e+08	-0.0005245001	-0.0815892	0.003080439	0.001517583	0.07631839	-0.008190049	0.002518077	0.001400502
	0.003080439	0.001517583	-0.05003381	-0.0138281	0.003336974	0.002663847	0.004669093	0.07089466
	0.07631839	-0.008190049	0.003336974	0.002663847	0.0007747877	-0.08176418	0.003053686	0.001871058
	0.002518077	0.001400502	0.004669093	0.07089466	0.003053686	0.001871058	-0.05016482	-0.01225896
4.3e+08	-0.003329573	-0.08511044	0.00327225	0.001220568	0.07936405	-0.01227938	0.002700683	0.001159936
	0.00327225	0.001220568	-0.05133333	-0.006102382	0.003661374	0.002363524	0.0148609	0.07373998
	0.07936405	-0.01227938	0.003661374	0.002363524	-0.002015644	-0.0854251	0.0033111	0.00157523
	0.002700683	0.001159936	0.0148609	0.07373998	0.0033111	0.00157523	-0.05135361	-0.004462567
4.4e+08	-0.006472218	-0.08839209	0.003431324	0.0009001504	0.08195763	-0.016996	0.002857723	0.0008962954
	0.003431324	0.0009001504	-0.05132253	0.002071982	0.003958645	0.002023982	0.02544449	0.07501403
	0.08195763	-0.016996	0.003958645	0.002023982	-0.00516419	-0.08884716	0.003534845	0.001243384
	0.002857723	0.0008962954	0.02544449	0.07501403	0.003534845	0.001243384	-0.05121722	0.003765611
4.5e+08	-0.009903018	-0.09139599	0.003554947	0.0005607758	0.08399037	-0.02226534	0.002986323	0.0006128515
	0.003554947	0.0005607758	-0.04988674	0.01046654	0.004223915	0.001647268	0.03617284	0.07466854
	0.08399037	-0.02226534	0.004223915	0.001647268	-0.008621354	-0.09198864	0.003719633	0.0008804606
	0.002986323	0.0006128515	0.03617284	0.07466854	0.003719633	0.0008804606	-0.04964393	0.01219429
4.6e+08	-0.01356843	-0.09409508	0.003641127	0.0002072631	0.08536824	-0.02799463	0.003084124	0.0003131333
	0.003641127	0.0002072631	-0.04695254	0.01882845	0.004452244	0.00123633	0.04679436	0.07269416
	0.08536824	-0.02799463	0.004452244	0.00123633	-0.0123328	-0.09481901	0.00386108	0.0004920935
	0.003084124	0.0003131333	0.04679436	0.07269416	0.00386108	0.0004920935	-0.04656394	0.02056872
4.7e+08	-0.01741292	-0.09647292	0.003688705	-0.0001556033	0.08601535	-0.03407547	0.003149309	1.030704e-06
	0.003688705	-0.0001556033	-0.04249384	0.02688868	0.004638883	0.0007947397	0.05705952	0.06912085
	0.08601535	-0.03407547	0.004638883	0.0007947397	-0.01624135	-0.09731891	0.003955894	8.482583e-05
	0.003149309	1.030704e-06	0.05705952	0.06912085	0.003955894	8.482583e-05	-0.04195407	0.02861725
4.8e+08	-0.02138092	-0.098525	0.003697283	-0.0005229862	0.08587599	-0.04038807	0.00318063	-0.0003195156
	0.003697283	-0.0005229862	-0.03653174	0.03436917	0.004779417	0.0003266865	0.06672598	0.06401672
	0.08587599	-0.04038807	0.004779417	0.0003266865	-0.02028958	-0.09948057	0.004001931	-0.0003346345
	0.00318063	-0.0003195156	0.06672598	0.06401672	0.004001931	-0.0003346345	-0.03584066	0.03606096
4.9e+08	-0.02541972	-0.1002568	0.003667157	-0.0008901439	0.08491638	-0.0468048	0.003177426	-0.000644471
	0.003667157	-0.0008901439	-0.02913959	0.04099168	0.00486981	-0.0001625345	0.07556551	0.0574866
