# GHz S RI R 45
0.000     0.017590827063    0.001914095181    0.000001871371    0.000003742331    0.000741831498    0.001636719421    0.000002035947    0.000004376617
            0.000001871306    0.000003742330    0.017054481953    0.001908067674    0.000002253709    0.000004398710    0.000706636696    0.001635385015
            0.000741831383    0.001636719473    0.000002253641    0.000004398711    0.017542921220    0.001901710388    0.000002460957    0.000005215587
            0.000002035878    0.000004376616    0.000706636839    0.001635384953    0.000002460668    0.000005215585    0.017028723043    0.001918822827
0.025     0.023200961705    0.010301879949    0.000005049895    0.000008055743    0.003122456045    0.010371158930    0.000005691074    0.000008901632
            0.000005049893    0.000008055734    0.022511234304    0.009847482742    0.000006047961    0.000010035984    0.002990335778    0.009971889911
            0.003120161504    0.010374139535    0.000006047969    0.000010035983    0.023127283713    0.010251989275    0.000006813112    0.000010825913
            0.000005691081    0.000008901623    0.002989538430    0.009971938980    0.000006813118    0.000010825912    0.022446610073    0.009807405029
0.050     0.031433969490    0.014887917783    0.000012128942    0.000012511506    0.009732959682    0.018650471730    0.000013842506    0.000013653465
            0.000012128943    0.000012511506    0.030500970266    0.014210607667    0.000014355479    0.000015769988    0.009365474475    0.017965148858
            0.009732932341    0.018650507430    0.000014355480    0.000015769989    0.031329063820    0.014786040759    0.000016486345    0.000016716437
            0.000013842506    0.000013653465    0.009365462789    0.017965144801    0.000016486345    0.000016716437    0.030441375620    0.014131388013
0.075     0.041199323554    0.015251024518    0.000021162391    0.000012895049    0.019267879631    0.023340993284    0.000024257902    0.000013732318
            0.000021162391    0.000012895049    0.040044003114    0.014557073901    0.000024918714    0.000016774510    0.018614592925    0.022569932764
            0.019267873062    0.023340996113    0.000024918714    0.000016774511    0.041056788006    0.015131819982    0.000028837703    0.000017105646
            0.000024257903    0.000013732319    0.018614585502    0.022569934998    0.000028837703    0.000017105646    0.039995986514    0.014445081227
0.100     0.050992170058    0.010897283973    0.000030428031    0.000008726284    0.030086975586    0.023586038635    0.000034976433    0.000008575239
            0.000030428031    0.000008726284    0.049765854285    0.010386930513    0.000035772579    0.000012497759    0.029223471008    0.022942358993
            0.030086975175    0.023586039160    0.000035772579    0.000012497759    0.050819250528    0.010785629989    0.000041593964    0.000011333306
            0.000034976433    0.000008575239    0.029223471008    0.022942358993    0.000041593964    0.000011333306    0.049740967792    0.010239473518
0.125     0.058842813755    0.001888790063    0.000038023636    0.000000078471    0.040365802602    0.019159058458    0.000043822521    -0.000001759579
            0.000038023636    0.000000078471    0.057844463239    0.001631221556    0.000044727445    0.000003007792    0.039491769396    0.018814054770
            0.040365802602    0.019159058458    0.000044727445    0.000003007792    0.058660238108    0.001794537900    0.000052213556    -0.000000558601
            0.000043822521    -0.000001759579    0.039491769396    0.018814054770    0.000052213556    -0.000000558601    0.057847813903    0.001439476812
0.150     0.063130998957    -0.010856081141    0.000042206981    -0.000012197240    0.048320156263    0.010461986363    0.000048791850    -0.000016325846
            0.000042206981    -0.000012197240    0.062671679456    -0.010814626652    0.000049766123    -0.000010732031    0.047733078586    0.010478143994
            0.048320156263    0.010461986363    0.000049766123    -0.000010732031    0.062973678049    -0.010913236515    0.000058338989    -0.000017490714
            0.000048791850    -0.000016325846    0.047733078586    0.010478143994    0.000058338989    -0.000017490714    0.062724169042    -0.011056280285
0.175     0.062362305819    -0.025926449957    0.000041608639    -0.000026710788    0.052387075789    -0.001469212141    0.000048292745    -0.000033560837
            0.000041608639    -0.000026710788    0.062843819784    -0.025753988685    0.000049289853    -0.000027136110    0.052435141614    -0.001171914416
            0.052387075789    -0.001469212141    0.000049289853    -0.000027136110    0.062269894095    -0.025953362230    0.000058080747    -0.000037661212
            0.000048292745    -0.000033560837    0.052435141614    -0.001171914416    0.000058080747    -0.000037661212    0.062957012278    -0.026069617026
0.200     0.055667145068    -0.041391648961    0.000035415970    -0.000041621759    0.051445027246    -0.015083118291    0.000041357798    -0.000051379230
            0.000035415970    -0.000041621759    0.057435694526    -0.041474087115    0.000042333968    -0.000044092910    0.052464608379    -0.014755540845
            0.051445027246    -0.015083118291    0.000042333968    -0.000044092910    0.055676760350    -0.041416771873    0.000050268381    -0.000058646957
            0.000041357798    -0.000051379230    0.052464608379    -0.014755540845    0.000050268381    -0.000058646957    0.057610805052    -0.041896434631
0.225     0.042892528993    -0.055055266189    0.000023474654    -0.000054837745    0.044958125024    -0.028480093100    0.000027760881    -0.000067396349
            0.000023474654    -0.000054837745    0.046145983500    -0.055958772786    0.000028686066    -0.000059192116    0.047199406407    -0.028545160536
            0.044958125024    -0.028480093100    0.000028686066    -0.000059192116    0.043029566423    -0.055126253579    0.000034589717    -0.000077664001
            0.000027760881    -0.000067396349    0.047199406407    -0.028545160536    0.000034589717    -0.000077664001    0.046371265895    -0.056525596530
0.250     0.024690702523    -0.064711678492    0.000006395695    -0.000064243906    0.033085157526    -0.039625253300    0.000008142449    -0.000079185528
            0.000006395695    -0.000064243906    0.029406011558    -0.067123871128    0.000009011506    -0.000069987565    0.036635477794    -0.040648877970
            0.033085157526    -0.039625253300    0.000009011506    -0.000069987565    0.024961761929    -0.064889791278    0.000011739756    -0.000091864632
            0.000008142449    -0.000079185528    0.036635477794    -0.040648877970    0.000011739756    -0.000091864632    0.029654389961    -0.067872884448
0.275     0.002486661680    -0.068418619291    -0.000014454151    -0.000067952269    0.016707979591    -0.046583934316    -0.000015998030    -0.000084557889
            -0.000014454151    -0.000067952269    0.008361414303    -0.073067967592    -0.000015156815    -0.000074281237    0.021422620796    -0.049213492831
            0.016707979591    -0.046583934316    -0.000015156815    -0.000074281237    0.002872999807    -0.068771293727    -0.000016586932    -0.000098661450
            -0.000015998030    -0.000084557889    0.021422620796    -0.049213492831    -0.000016586932    -0.000098661450    0.008588870770    -0.074030282114
0.300     -0.021616248391    -0.064783418306    -0.000037016366    -0.000064605350    -0.002615451727    -0.047788030329    -0.000042367863    -0.000081902675
            -0.000037016366    -0.000064605350    -0.015193615447    -0.072326819716    -0.000041489319    -0.000070468153    0.002841657611    -0.052657324579
            -0.002615451727    -0.047788030329    -0.000041489319    -0.000070468153    -0.021162106250    -0.065373795624    -0.000047768197    -0.000096118486
            -0.000042367863    -0.000081902675    0.002841657611    -0.052657324579    -0.000047768197    -0.000096118486    -0.015046812460    -0.073521022891
0.325     -0.045054511687    -0.053185103431    -0.000058747427    -0.000053621496    -0.022797669121    -0.042267079704    -0.000068104466    -0.000070464384
            -0.000058747427    -0.000053621496    -0.038990233925    -0.064078026857    -0.000067089820    -0.000057813817    -0.017303461830    -0.049877082584
            -0.022797669121    -0.042267079704    -0.000067089820    -0.000057813817    -0.044606496775    -0.054060102595    -0.000078505744    -0.000083267993
            -0.000068104466    -0.000070464384    -0.017303461830    -0.049877082584    -0.000078505744    -0.000083267993    -0.038995637645    -0.065502655256
0.350     -0.065101806490    -0.033942801156    -0.000076943581    -0.000035404705    -0.041465493529    -0.029837953276    -0.000090128144    -0.000050585333
            -0.000076943581    -0.000035404705    -0.060523031255    -0.048308917361    -0.000088855536    -0.000036695366    -0.036874189658    -0.040431963886
            -0.041465493529    -0.029837953276    -0.000088855536    -0.000036695366    -0.064754813566    -0.035122156383    -0.000105221671    -0.000060395545
            -0.000090128144    -0.000050585333    -0.036874189658    -0.040431963886    -0.000105221671    -0.000060395545    -0.060756269876    -0.049936759238
0.375     -0.079222145630    -0.008333684744    -0.000089137975    -0.000011361458    -0.056261489572    -0.011175090601    -0.000105582408    -0.000023739734
            -0.000089137975    -0.000011361458    -0.077342625750    -0.025864702056    -0.000103919894    -0.000008627024    -0.053641380986    -0.024634301869
            -0.056261489572    -0.011175090601    -0.000103919894    -0.000008627024    -0.079080588746    -0.009801473232    -0.000124548502    -0.000029082011
            -0.000105582408    -0.000023739734    -0.053641380986    -0.024634301869    -0.000124548502    -0.000029082011    -0.077874757976    -0.027641097265
0.400     -0.085428611302    0.021512544644    -0.000093523657    0.000016238874    -0.065177960828    0.012236747464    -0.000112303414    0.000007604134
            -0.000093523657    0.000016238874    -0.087368630058    0.001594123747    -0.000110125686    0.000023880221    -0.065572201647    -0.003554534760
            -0.065177960828    0.012236747464    -0.000110125686    0.000023880221    -0.085593121016    0.019811843187    -0.000133863713    0.000007928282
            -0.000112303414    0.000007604134    -0.065572201647    -0.003554534760    -0.000133863713    0.000007928282    -0.088256191917    -0.000249646995
0.425     -0.082560765780    0.052870921105    -0.000089233789    0.000044608736    -0.066824167982    0.038289707863    -0.000109145493    0.000040347358
            -0.000089233789    0.000044608736    -0.089155648642    0.031768063112    -0.000106348320    0.000057691150    -0.071080296969    0.021095027631
            -0.066824167982    0.038289707863    -0.000106348320    0.000057691150    -0.083112580132    0.051031293990    -0.000131666262    0.000047120481
            -0.000109145493    0.000040347358    -0.071080296969    0.021095027631    -0.000131666262    0.000047120481    -0.090431904567    0.029960101079
0.450     -0.070452052596    0.082765281205    -0.000076476866    0.000070871629    -0.060613636162    0.064530759378    -0.000096157682    0.000071225455
            -0.000076476866    0.000070871629    -0.082088884226    0.061978806943    -0.000092664170    0.000089513602    -0.069233307966    0.047161019926
            -0.060613636162    0.064530759378    -0.000092664170    0.000089513602    -0.071438876739    0.080913450545    -0.000117797537    0.000084717717
            -0.000096157682    0.000071225455    -0.069233307966    0.047161019926    -0.000117797537    0.000084717717    -0.083757352393    0.060324124543
0.475     -0.049929622652    0.108337252749    -0.000056416255    0.000092478988    -0.046798416009    0.088473250212    -0.000074471986    0.000097273548
            -0.000056416255    0.000092478988    -0.066449951644    0.089475588298    -0.000070237583    0.000116365833    -0.059842141323    0.072302235517
            -0.046798416009    0.088473250212    -0.000070237583    0.000116365833    -0.051353072532    0.106627021461    -0.000093342608    0.000117203025
            -0.000074471986    0.000097273548    -0.059842141323    0.072302235517    -0.000093342608    0.000117203025    -0.068481821848    0.088100409576
0.500     -0.022688061301    0.127178476562    -0.000030928568    0.000107529380    -0.026394759704    0.107899514462    -0.000046060996    0.000116194276
            -0.000030928568    0.000107529380    -0.043384025228    0.111738983372    -0.000041071359    0.000135951717    -0.043471550819    0.094255369573
            -0.026394759704    0.107899514462    -0.000041071359    0.000135951717    -0.024486346084    0.125802517430    -0.000060391610    0.000141758543
            -0.000046060996    0.000116194276    -0.043471550819    0.094255369573    -0.000060391610    0.000141758543    -0.045709778065    0.110777727505
0.525     0.008946692772    0.137557301699    -0.000002278236    0.000114888284    -0.000964324268    0.121168522755    -0.000013373393    0.000126507780
            -0.000002278236    0.000114888284    -0.014775644926    0.126735537217    -0.000007616216    0.000146920704    -0.021352222018    0.111058698996
            -0.000964324268    0.121168522755    -0.000007616216    0.000146920704    0.006945699413    0.136962616634    -0.000021600464    0.000156583848
            -0.000013373393    0.000126507780    -0.021352222018    0.111058698996    -0.000021600464    0.000156583848    -0.017249921702    0.126324389023
0.550     0.042303895589    0.138586243858    0.000027227255    0.000114278677    0.026156294680    0.126582165049    0.000021036294    0.000127591416
            0.000027227255    0.000114278677    0.016952581087    0.133186705855    0.000026206901    0.000148257612    0.004772901223    0.121277567130
            0.026156294680    0.126582165049    0.000026206901    0.000148257612    0.038301424604    0.137721801246    0.000018613879    0.000160024645
            0.000021036294    0.000127591416    0.004772901223    0.121277567130    0.000018613879    0.000160024645    0.014596245933    0.133368740638
0.575     0.074558584003    0.130082173420    0.000055476988    0.000105925535    0.055467630183    0.123926126510    0.000054627698    0.000119453820
            0.000055476988    0.000105925535    0.049278683822    0.130657756041    0.000060597787    0.000140409560    0.032941789790    0.124068258940
            0.055467630183    0.123926126510    0.000060597787    0.000140409560    0.071369488825    0.129760774764    0.000060348972    0.000152413729
            0.000054627698    0.000119453820    0.032941789790    0.124068258940    0.000060348972    0.000152413729    0.047265731974    0.131279582188
0.600     0.102927174000    0.112632971904    0.000080622310    0.000090429900    0.082591000484    0.113459210776    0.000085078588    0.000102630252
            0.000080622310    0.000090429900    0.079754302080    0.119274636579    0.000091521770    0.000124227288    0.061074300532    0.119068566100
            0.082591000484    0.113459210776    0.000091521770    0.000124227288    0.100041768975    0.113244768417    0.000098614324    0.000134424626
            0.000085078588    0.000102630252    0.061074300532    0.119068566100    0.000098614324    0.000134424626    0.078156486547    0.120186689149
0.625     0.124881931603    0.088371103277    0.000101024582    0.000069231573    0.105725131917    0.096107332759    0.000110355440    0.000078740864
            0.000101024582    0.000069231573    0.105945977690    0.099806736774    0.000117340662    0.000100478727    0.086995932737    0.106485915544
            0.105725131917    0.096107332759    0.000117340662    0.000100478727    0.122726664949    0.089315212107    0.000131343755    0.000106879027
            0.000110355440    0.000078740864    0.086995932737    0.106485915544    0.000131343755    0.000106879027    0.104824680627    0.100922802508
0.650     0.139466236348    0.058724009451    0.000115876232    0.000043122568    0.123429074850    0.072702109888    0.000129454570    0.000048636663
            0.000115876232    0.000043122568    0.125722961295    0.073714491841    0.000136373268    0.000070551936    0.108664548671    0.087132473957
            0.123429074850    0.072702109888    0.000136373268    0.000070551936    0.137612262250    0.059904353713    0.000156375368    0.000071301495
            0.000129454570    0.000048636663    0.108664548671    0.087132473957    0.000156375368    0.000071301495    0.125153139921    0.074933552508
0.675     0.144836510683    0.025895188216    0.000123707414    0.000013479046    0.133806835449    0.044935541684    0.000140504886    0.000013828835
            0.000123707414    0.000013479046    0.137439183764    0.042986629425    0.000147204511    0.000036125079    0.124305984258    0.062333266418
            0.133806835449    0.044935541684    0.000147204511    0.000036125079    0.143417803147    0.027363509360    0.000171821574    0.000029606571
            0.000140504886    0.000013828835    0.124305984258    0.062333266418    0.000171821574    0.000029606571    0.137478551173    0.044169529310
0.700     0.140357878336    -0.007293715275    0.000123664146    -0.000017938736    0.135775386613    0.015026040750    0.000142351815    -0.000023649692
            0.000123664146    -0.000017938736    0.140033158070    0.009990978698    0.000148707488    -0.000000803828    0.132532705166    0.033859904671
            0.135775386613    0.015026040750    0.000148707488    -0.000000803828    0.139498740073    -0.005661557964    0.000176130408    -0.000015847974
            0.000142351815    -0.000023649692    0.132532705166    0.033859904671    0.000176130408    -0.000015847974    0.140701116167    0.010968385058
0.725     0.126174880171    -0.037988686145    0.000115182596    -0.000049158386    0.128843212764    -0.014555070447    0.000134186677    -0.000061488736
            0.000115182596    -0.000049158386    0.133099881540    -0.022666825875    0.000140112036    -0.000037877837    0.132436369436    0.003847299151
            0.128843212739    -0.014555070672    0.000140112036    -0.000037877837    0.125938517100    -0.036371523668    0.000168188780    -0.000062228555
            0.000134186677    -0.000061488736    0.132436369436    0.003847299151    0.000168188780    -0.000062228555    0.134365361598    -0.022080439961
0.750     0.103230487998    -0.063403614596    0.000098142895    -0.000077917004    0.113234483631    -0.041180636620    0.000115719388    -0.000097013524
            0.000098142895    -0.000077917004    0.116956579351    -0.052306596793    0.000121201355    -0.000072379415    0.123712946621    -0.025321323161
            0.113234483631    -0.041180636620    0.000121201355    -0.000072379415    0.103616624306    -0.062002284214    0.000147557673    -0.000106240714
            0.000115719388    -0.000097013524    0.123712946621    -0.025321323161    0.000147557673    -0.000106240714    0.118732028158    -0.052294937794
0.775     0.073290223986    -0.081035658648    0.000073051413    -0.000101723569    0.089978466176    -0.062268876595    0.000087390542    -0.000127253269
            0.000073051413    -0.000101723569    0.092674499486    -0.076359704378    0.000092514205    -0.000101329378    0.106741257810    -0.051167435187
            0.089978466176    -0.062268876595    0.000092514205    -0.000101329378    0.074232079091    -0.080051836395    0.000114701446    -0.000144245275
            0.000087390542    -0.000127253269    0.106741257810    -0.051167435187    0.000114701446    -0.000144245275    0.094814765885    -0.077086576636
