# GHz S RI R 45
0.000     0.017590827063    0.001914095181    -0.000000011224    0.000000504064    0.000741831498    0.001636719421    -0.000000220637    0.000000112749
            -0.000000011222    0.000000504064    0.018157735324    0.001280182399    0.000000143244    0.000000794082    0.000783615428    0.001233518007
            0.000741831383    0.001636719473    0.000000143226    0.000000794082    0.017542921220    0.001901710388    -0.000000011101    0.000000513870
            -0.000000220637    0.000000112749    0.000783615482    0.001233518091    -0.000000011101    0.000000513870    0.018174902599    0.001292155728
0.025     0.023200961705    0.010301879949    0.000000224592    0.000001128219    0.003122456045    0.010371158930    -0.000000251593    0.000000297568
            0.000000224592    0.000001128221    0.022480793712    0.009737571816    0.000000580986    0.000001744916    0.002288630862    0.010101885738
            0.003120161504    0.010374139535    0.000000580984    0.000001744905    0.023127283713    0.010251989275    0.000000233974    0.000001151106
            -0.000000251594    0.000000297568    0.002288623558    0.010100182242    0.000000233974    0.000001151105    0.022400455406    0.009702471419
0.050     0.031433969490    0.014887917783    0.000000854762    0.000002047956    0.009732959682    0.018650471730    -0.000000151045    0.000000693050
            0.000000854762    0.000002047956    0.027750978694    0.015144180320    0.000001613767    0.000003050513    0.006666514928    0.019028717517
            0.009732932341    0.018650507430    0.000001613767    0.000003050513    0.031329063820    0.014786040759    0.000000883327    0.000002080206
            -0.000000151045    0.000000693050    0.006666570746    0.019028681008    0.000000883327    0.000002080206    0.027607835611    0.015126347063
0.075     0.041199323554    0.015251024518    0.000001786128    0.000002732528    0.019267879631    0.023340993284    0.000000117447    0.000001046958
            0.000001786128    0.000002732528    0.033573140592    0.018181562921    0.000003037013    0.000003957990    0.013114233045    0.025847186160
            0.019267873062    0.023340996113    0.000003037013    0.000003957990    0.041056788006    0.015131819982    0.000001826432    0.000002755846
            0.000000117447    0.000001046958    0.013114240272    0.025847190342    0.000001826432    0.000002755846    0.033356777035    0.018207291821
0.100     0.050992170058    0.010897283973    0.000002949575    0.000003114785    0.030086975586    0.023586038635    0.000000506849    0.000001305274
            0.000002949575    0.000003114785    0.039218910807    0.018787390033    0.000004751119    0.000004404125    0.020660522304    0.030083908743
            0.030086975175    0.023586039160    0.000004751119    0.000004404125    0.050819250528    0.010785629989    0.000002980169    0.000003121654
            0.000000506849    0.000001305274    0.020660522304    0.030083908743    0.000002980169    0.000003121654    0.038931614400    0.018901892324
0.125     0.058842813755    0.001888790063    0.000004262713    0.000003148277    0.040365802602    0.019159058458    0.000000975401    0.000001450692
            0.000004262713    0.000003148277    0.043678821055    0.017197909706    0.000006634774    0.000004339253    0.028299155600    0.031648902045
            0.040365802602    0.019159058458    0.000006634774    0.000004339253    0.058660238108    0.001794537900    0.000004256808    0.000003149881
            0.000000975401    0.000001450692    0.028299155048    0.031648902539    0.000004256808    0.000003149881    0.043345243266    0.017441963021
0.150     0.063130998957    -0.010856081141    0.000005637418    0.000002805534    0.048320156263    0.010461986363    0.000001493956    0.000001470898
            0.000005637418    0.000002805534    0.046286848750    0.014111404378    0.000008567976    0.000003750435    0.035029596292    0.030770909550
            0.048320156263    0.010461986363    0.000008567976    0.000003750435    0.062973678049    -0.010913236515    0.000005576261    0.000002836045
            0.000001493956    0.000001470898    0.035029596292    0.030770909550    0.000005576261    0.000002836045    0.045948272826    0.014526789104
0.175     0.062362305819    -0.025926449957    0.000006988725    0.000002077808    0.052387075789    -0.001469212141    0.000002037005    0.000001366028
            0.000006988725    0.000002077808    0.046494787811    0.010384151567    0.000010443795    0.000002637736    0.040023118091    0.028060417264
            0.052387075789    -0.001469212141    0.000010443795    0.000002637736    0.062269894095    -0.025953362230    0.000006876457    0.000002187178
            0.000002037005    0.000001366028    0.040023118091    0.028060417264    0.000006876457    0.000002187178    0.046214140133    0.010985075326
0.200     0.055667145068    -0.041391648961    0.000008232960    0.000000968247    0.051445027246    -0.015083118291    0.000002587193    0.000001131810
            0.000008232960    0.000000968247    0.044107977831    0.007088639859    0.000012162354    0.000001011317    0.042738886511    0.024401403780
            0.051445027246    -0.015083118291    0.000012162354    0.000001011317    0.055676760350    -0.041416771873    0.000008106395    0.000001208033
            0.000002587193    0.000001131810    0.042738886511    0.024401403780    0.000008106395    0.000001208033    0.043952964284    0.007861068693
0.225     0.042892528993    -0.055055266189    0.000009286688    -0.000000508845    0.044958125024    -0.028480093100    0.000003128553    0.000000761788
            0.000009286688    -0.000000508845    0.039375136068    0.005338974276    0.000013623885    -0.000001115833    0.043005412004    0.020824931268
            0.044958125024    -0.028480093100    0.000013623885    -0.000001115833    0.043029566423    -0.055126253579    0.000009216497    -0.000000104800
            0.000003128553    0.000000761788    0.043005412004    0.020824931268    0.000009216497    -0.000000104800    0.039406723409    0.006240809808
0.250     0.024690702523    -0.064711678492    0.000010063216    -0.000002326420    0.033085157526    -0.039625253300    0.000003639193    0.000000241325
            0.000010063216    -0.000002326420    0.032981724932    0.006132922019    0.000014718055    -0.000003722695    0.041061118067    0.018375921338
            0.033085157526    -0.039625253300    0.000014718055    -0.000003722695    0.024961761929    -0.064889791278    0.000010144094    -0.000001761492
            0.000003639193    0.000000241325    0.041061118067    0.018375921338    0.000010144094    -0.000001761492    0.033242438828    0.007098514952
0.275     0.002486661680    -0.068418619291    0.000010473905    -0.000004440288    0.016707979591    -0.046583934316    0.000004086854    -0.000000444364
            0.000010473905    -0.000004440288    0.025993316467    0.010165391876    0.000015317629    -0.000006770706    0.037540722903    0.017951202664
            0.016707979591    -0.046583934316    0.000015317629    -0.000006770706    0.002872999807    -0.068771293727    0.000010804132    -0.000003768627
            0.000004086854    -0.000000444364    0.037540722903    0.017951202664    0.000010804132    -0.000003768627    0.026498146592    0.011113748571
0.300     -0.021616248391    -0.064783418306    0.000010429372    -0.000006782416    -0.002615451727    -0.047788030329    0.000004421837    -0.000001305359
            0.000010429372    -0.000006782416    0.019724396097    0.017707202502    0.000015280448    -0.000010185270    0.033408459890    0.020159686665
            -0.002615451727    -0.047788030329    0.000015280448    -0.000010185270    -0.021162106250    -0.065373795624    0.000011083306    -0.000006110827
            0.000004421837    -0.000001305359    0.033408459890    0.020159686665    0.000011083306    -0.000006110827    0.020455819883    0.018554198652
0.325     -0.045054511687    -0.053185103431    0.000009849452    -0.000009256833    -0.022797669121    -0.042267079704    0.000004581810    -0.000002334526
            0.000009849452    -0.000009256833    0.015566433137    0.028504295928    0.000014462391    -0.000013840921    0.029828655609    0.025196056524
            -0.022797669121    -0.042267079704    0.000014462391    -0.000013840921    -0.044606496775    -0.054060102595    0.000010849949    -0.000008731372
            0.000004581810    -0.000002334526    0.029828655609    0.025196056524    0.000010849949    -0.000008731372    0.016474309906    0.029176147927
0.350     -0.065101806490    -0.033942801156    0.000008672329    -0.000011736008    -0.041465493529    -0.029837953276    0.000004494996    -0.000003498408
            0.000008672329    -0.000011736008    0.014780055123    0.041778461368    0.000012740858    -0.000017549638    0.027996579443    0.032785513381
            -0.041465493529    -0.029837953276    0.000012740858    -0.000017549638    -0.064754813566    -0.035122156383    0.000009971732    -0.000011514560
            0.000004494996    -0.000003498408    0.027996579443    0.032785513381    0.000009971732    -0.000011514560    0.015787309268    0.042224575703
0.375     -0.079222145630    -0.008333684744    0.000006870629    -0.000014067027    -0.056261489572    -0.011175090601    0.000004097696    -0.000004731413
            0.000006870629    -0.000014067027    0.018291350714    0.056286284570    0.000010046205    -0.000021066889    0.028941792773    0.042187814000
            -0.056261489572    -0.011175090601    0.000010046205    -0.000021066889    -0.079080588746    -0.009801473232    0.000008347585    -0.000014283098
            0.000004097696    -0.000004731413    0.028941792773    0.042187814000    0.000008347585    -0.000014283098    0.019304918661    0.056488623001
0.400     -0.085428611302    0.021512544644    0.000004462056    -0.000016080313    -0.065177960828    0.012236747464    0.000003346617    -0.000005936025
            0.000004462056    -0.000016080313    0.026527253411    0.070483803792    0.000006389189    -0.000024108878    0.033356962090    0.052300621929
            -0.065177960828    0.012236747464    0.000006389189    -0.000024108878    -0.085593121016    0.019811843187    0.000005937305    -0.000016807042
            0.000003346617    -0.000005936025    0.033356962090    0.052300621929    0.000005937305    -0.000016807042    0.027451985890    0.070462071661
0.425     -0.082560765780    0.052870921105    0.000001517683    -0.000017609664    -0.066824167982    0.038289707863    0.000002237540    -0.000006995684
            0.000001517683    -0.000017609664    0.039323346641    0.082730793948    0.000001879100    -0.000026390070    0.041473378132    0.061812562035
            -0.066824167982    0.038289707863    0.000001879100    -0.000026390070    -0.083112580132    0.051031293990    0.000002787407    -0.000018836125
            0.000002237540    -0.000006995684    0.041473378132    0.061812562035    0.000002787407    -0.000018836125    0.040077750185    0.082539508607
0.450     -0.070452052596    0.082765281205    -0.000001841831    -0.000018510409    -0.060613636162    0.064530759378    0.000000808468    -0.000007790795
            -0.000001841831    -0.000018510409    0.055934841241    0.091530762082    -0.000003279084    -0.000027662508    0.053025884736    0.069406553818
            -0.060613636162    0.064530759378    -0.000003279084    -0.000027662508    -0.071438876739    0.080913450545    -0.000000964475    -0.000020136002
            0.000000808468    -0.000007790795    0.053025884736    0.069406553818    -0.000000964475    -0.000020136002    0.056463391663    0.091251889236
0.475     -0.049929622652    0.108337252749    -0.000005455555    -0.000018690152    -0.046798416009    0.088473250212    -0.000000857816    -0.000008233355
            -0.000005455555    -0.000018690152    0.075131016646    0.095729117265    -0.000008805408    -0.000027766249    0.067290296317    0.073937536560
            -0.046798416009    0.088473250212    -0.000008805408    -0.000027766249    -0.051353072532    0.106627021461    -0.000005100915    -0.000020542549
            -0.000000857816    -0.000008233355    0.067290296317    0.073937536560    -0.000005100915    -0.000020542549    0.075411494041    0.095457914722
0.500     -0.022688061301    0.127178476562    -0.000009124193    -0.000018106785    -0.026394759704    0.107899514462    -0.000002628369    -0.000008267462
            -0.000009124193    -0.000018106785    0.095367485769    0.094661596852    -0.000014365544    -0.000026639487    0.083196117309    0.074586001339
            -0.026394759704    0.107899514462    -0.000014365544    -0.000026639487    -0.024486346084    0.125802517430    -0.000009335415    -0.000019974443
            -0.000002628369    -0.000008267462    0.083196117309    0.074586001339    -0.000009335415    -0.000019974443    0.095408490013    0.094492812803
0.525     0.008946692772    0.137557301699    -0.000012662149    -0.000016762225    -0.000964324268    0.121168522755    -0.000004373614    -0.000007869940
            -0.000012662149    -0.000016762225    0.114976695286    0.088208535580    -0.000019666966    -0.000024327891    0.099461249888    0.070939389063
            -0.000964324268    0.121168522755    -0.000019666966    -0.000024327891    0.006945699413    0.136962616634    -0.000013399537    -0.000018443483
            -0.000004373614    -0.000007869940    0.099461249888    0.070939389063    -0.000013399537    -0.000018443483    0.114805749608    0.088236553857
0.550     0.042303895589    0.138586243858    -0.000015916190    -0.000014719122    0.026156294680    0.126582165049    -0.000005983173    -0.000007076608
            -0.000015916190    -0.000014719122    0.132365378457    0.076783774989    -0.000024177488    -0.000021044493    0.114767506423    0.063033866702
            0.026156294680    0.126582165049    -0.000024177488    -0.000021044493    0.038301424604    0.137721801246    -0.000016936898    -0.000016075781
            -0.000005983173    -0.000007076608    0.114767506423    0.063033866702    -0.000016936898    -0.000016075781    0.132042374604    0.077128817469
0.575     0.074558584003    0.130082173420    -0.000018745969    -0.000012072878    0.055467630183    0.123926126510    -0.000007360581    -0.000005957938
            -0.000018745969    -0.000012072878    0.146158488138    0.061259131814    -0.000028155865    -0.000016721020    0.127905395189    0.051277728178
            0.055467630183    0.123926126510    -0.000028155865    -0.000016721020    0.071369488825    0.129760774764    -0.000019975827    -0.000012959491
            -0.000007360581    -0.000005957938    0.127905395189    0.051277728178    -0.000019975827    -0.000012959491    0.145839116634    0.062023105606
0.600     0.102927174000    0.112632971904    -0.000021037364    -0.000008934321    0.082591000484    0.113459210776    -0.000008429767    -0.000004603199
            -0.000021037364    -0.000008934321    0.155321932152    0.042870437276    -0.000031205649    -0.000011860515    0.137812010897    0.036390399468
            0.082591000484    0.113459210776    -0.000031205649    -0.000011860515    0.100041768975    0.113244768417    -0.000022277621    -0.000009403279
            -0.000008429767    -0.000004603199    0.137812010897    0.036390399468    -0.000022277621    -0.000009403279    0.155190740922    0.044046114682
0.625     0.124881931603    0.088371103277    -0.000022786245    -0.000005526400    0.105725131917    0.096107332759    -0.000009207672    -0.000003187339
            -0.000022786245    -0.000005526400    0.159229287466    0.023096132367    -0.000033322694    -0.000006615395    0.143645720208    0.019403817458
            0.105725131917    0.096107332759    -0.000033322694    -0.000006615395    0.122726664949    0.089315212107    -0.000023838142    -0.000005590062
            -0.000009207672    -0.000003187339    0.143645720208    0.019403817458    -0.000023838142    -0.000005590062    0.159428146606    0.024609568203
0.650     0.139466236348    0.058724009451    -0.000024033961    -0.000001805558    0.123429074850    0.072702109888    -0.000009762909    -0.000001686384
            -0.000024033961    -0.000001805558    0.157704812959    0.003534240482    -0.000034543345    -0.000001179275    0.144903927627    0.001582625086
            0.123429074850    0.072702109888    -0.000034543345    -0.000001179275    0.137612262250    0.059904353713    -0.000024709473    -0.000001702101
            -0.000009762909    -0.000001686384    0.144903927628    0.001582625010    -0.000024709473    -0.000001702101    0.158341606995    0.005280150322
0.675     0.144836510683    0.025895188216    -0.000024695743    0.000002120993    0.133806835449    0.044935541684    -0.000010081936    -0.000000171297
            -0.000024695743    0.000002120993    0.151031915550    -0.014210702039    -0.000034947214    0.000004310012    0.141460834160    -0.015682237590
            0.133806835449    0.044935541684    -0.000034947214    0.000004310012    0.143417803147    0.027363509360    -0.000024996089    0.000002136588
            -0.000010081936    -0.000000171297    0.141460834160    -0.015682237590    -0.000024996089    0.000002136588    0.152183643048    -0.012366752641
0.700     0.140357878336    -0.007293715275    -0.000024778979    0.000006177437    0.135775386613    0.015026040750    -0.000010225157    0.000001327849
            -0.000024778979    0.000006177437    0.139962069997    -0.028647039683    -0.000034620774    0.000009777735    0.133618056993    -0.030965746384
            0.135775386613    0.015026040750    -0.000034620774    0.000009777735    0.139498740073    -0.005661557964    -0.000024818012    0.000005873073
            -0.000010225157    0.000001327849    0.133618056993    -0.030965746384    -0.000024818012    0.000005873073    0.141666194203    -0.026862636608
0.725     0.126174880171    -0.037988686145    -0.000024276426    0.000010320121    0.128843212764    -0.014555070447    -0.000010242470    0.000002828360
            -0.000024276426    0.000010320121    0.125688638877    -0.038519927101    -0.000033631486    0.000015209379    0.122121934896    -0.042934151243
            0.128843212739    -0.014555070672    -0.000033631486    0.000015209379    0.125938517100    -0.036371523668    -0.000024281492    0.000009528452
            -0.000010242470    0.000002828360    0.122121934896    -0.042934151243    -0.000024281492    0.000009528452    0.127933617938    -0.036966136132
0.750     0.103230487998    -0.063403614596    -0.000023154941    0.000014508645    0.113234483631    -0.041180636620    -0.000010152157    0.000004376441
            -0.000023154941    0.000014508645    0.109800857845    -0.042952336070    -0.000031993025    0.000020630238    0.108170053530    -0.050488188224
            0.113234483631    -0.041180636620    -0.000031993025    0.000020630238    0.103616624306    -0.062002284214    -0.000023437716    0.000013181996
            -0.000010152157    0.000004376441    0.108170053530    -0.050488188224    -0.000023437716    0.000013181996    0.112520449789    -0.041796811386
0.775     0.073290223986    -0.081035658648    -0.000021359998    0.000018689765    0.089978466176    -0.062268876595    -0.000009933411    0.000006030950
            -0.000021359998    0.000018689765    0.094179986425    -0.041587180793    -0.000029648414    0.000026073552    0.093342797630    -0.052938362616
            0.089978466176    -0.062268876595    -0.000029648414    0.000026073552    0.074232079091    -0.080051836395    -0.000022257461    0.000016942023
            -0.000009933411    0.000006030950    0.093342797630    -0.052938362616    -0.000022257461    0.000016942023    0.097251776814    -0.040976117002
