# GHz S RI R 45
0.000     0.017590827063    0.001914095181    0.000000479971    0.000000402165    0.000741831498    0.001636719421    0.000000228740    0.000000445388
            0.000000479971    0.000000402165    0.016136813260    0.001748184784    0.000015286497    0.000000398559    0.000604899567    0.001475075223
            0.000741831383    0.001636719473    0.000015286497    0.000000398559    0.017542921220    0.001901710388    0.000000511513    0.000000451416
            0.000000228740    0.000000445388    0.000604899785    0.001475075242    0.000000511513    0.000000451416    0.016096375872    0.001761339006
0.025     0.023200961705    0.010301879949    0.000001092440    0.000001847439    0.003122456045    0.010371158930    0.000000625356    0.000000895902
            0.000001092496    0.000001847398    0.021163927387    0.008690007346    0.000029785159    0.000100359598    0.002629900036    0.008736685490
            0.003120161504    0.010374139535    0.000029785161    0.000100359598    0.023127283713    0.010251989275    0.000001140680    0.000001968142
            0.000000625362    0.000000895904    0.002628242092    0.008735371740    0.000001140702    0.000001968175    0.021103769148    0.008659172670
0.050     0.031433969490    0.014887917783    0.000002547495    0.000003043183    0.009732959682    0.018650471730    0.000001454514    0.000001296161
            0.000002547496    0.000003043182    0.028460383856    0.012418893166    0.000073185241    0.000194047427    0.008306752764    0.015804031884
            0.009732932341    0.018650507430    0.000073185241    0.000194047427    0.031329063820    0.014786040759    0.000002628078    0.000003275873
            0.000001454515    0.000001296161    0.008306721296    0.015803987419    0.000002628078    0.000003275874    0.028411287809    0.012366972712
0.075     0.041199323554    0.015251024518    0.000004144827    0.000003356036    0.019267879631    0.023340993284    0.000002397271    0.000001207396
            0.000004144827    0.000003356036    0.037287990815    0.012644041521    0.000137951924    0.000270199442    0.016638191257    0.019987722483
            0.019267873062    0.023340996113    0.000137951928    0.000270199451    0.041056788006    0.015131819982    0.000004292122    0.000003687164
            0.000002397271    0.000001207396    0.016638184105    0.019987724533    0.000004292123    0.000003687164    0.037264919254    0.012569348048
0.100     0.050992170058    0.010897283973    0.000005520124    0.000003098584    0.030086975586    0.023586038635    0.000003243248    0.000000685834
            0.000005520124    0.000003098584    0.046541398241    0.008876593980    0.000218142509    0.000327142322    0.026403489046    0.020530841006
            0.030086975175    0.023586039160    0.000218142509    0.000327142322    0.050819250528    0.010785629989    0.000005766967    0.000003475130
            0.000003243248    0.000000685834    0.026403488687    0.020530841466    0.000005766967    0.000003475130    0.046559768597    0.008771920955
0.125     0.058842813755    0.001888790063    0.000006694781    0.000002622204    0.040365802602    0.019159058458    0.000003896441    -0.000000154183
            0.000006694781    0.000002622204    0.054655010589    0.000962445063    0.000309333108    0.000365891778    0.036207959441    0.017111426216
            0.040365802602    0.019159058458    0.000309333108    0.000365891778    0.058660238108    0.001794537900    0.000007034901    0.000002957811
            0.000003896441    -0.000000154183    0.036207963606    0.017111412722    0.000007034901    0.000002957812    0.054732109262    0.000812249010
0.150     0.063130998957    -0.010856081141    0.000007736871    0.000002033597    0.048320156263    0.010461986363    0.000004294326    -0.000001190876
            0.000007736871    0.000002033597    0.060331573416    -0.010520253285    0.000408133040    0.000382356723    0.044633794100    0.009838033215
            0.048320156263    0.010461986363    0.000408133040    0.000382356723    0.062973678049    -0.010913236515    0.000008096055    0.000002230292
            0.000004294326    -0.000001190876    0.044633794100    0.009838033215    0.000008096055    0.000002230292    0.060472653515    -0.010727684691
0.175     0.062362305819    -0.025926449957    0.000008843418    0.000001341129    0.052387075789    -0.001469212141    0.000004464127    -0.000002359630
            0.000008843418    0.000001341129    0.062210095470    -0.024701597705    0.000509653164    0.000375473761    0.050352951348    -0.000691184652
            0.052387075789    -0.001469212141    0.000509653164    0.000375473761    0.062269894095    -0.025953362230    0.000009065917    0.000001341995
            0.000004464127    -0.000002359630    0.050352951349    -0.000691184634    0.000009065917    0.000001341995    0.062425609729    -0.024988864343
0.200     0.055667145068    -0.041391648961    0.000010151951    0.000000337336    0.051445027246    -0.015083118291    0.000004427988    -0.000003680418
            0.000010151951    0.000000337336    0.059339318215    -0.040238837260    0.000608762983    0.000345034947    0.052292565472    -0.013464275689
            0.051445027246    -0.015083118291    0.000608762983    0.000345034947    0.055676760350    -0.041416771873    0.000010026176    0.000000184948
            0.000004427988    -0.000003680418    0.052292565472    -0.013464275689    0.000010026176    0.000000184948    0.059632290057    -0.040639469581
0.225     0.042892528993    -0.055055266189    0.000011582191    -0.000001321185    0.044958125024    -0.028480093100    0.000004122442    -0.000005229178
            0.000011582191    -0.000001321185    0.051243882763    -0.055506640666    0.000700178718    0.000291862259    0.049743918444    -0.027151415000
            0.044958125024    -0.028480093100    0.000700178718    0.000291862259    0.043029566423    -0.055126253579    0.000010903941    -0.000001445275
            0.000004122442    -0.000005229178    0.049743918444    -0.027151415000    0.000010903941    -0.000001445275    0.051603577034    -0.056059669416
0.250     0.024690702523    -0.064711678492    0.000012757110    -0.000003936550    0.033085157526    -0.039625253300    0.000003358656    -0.000007052264
            0.000012757110    -0.000003936550    0.038011416845    -0.068758143052    0.000778667724    0.000217988998    0.042456097534    -0.040232646780
            0.033085157526    -0.039625253300    0.000778667724    0.000217988998    0.024961761929    -0.064889791278    0.000011416828    -0.000003713899
            0.000003358656    -0.000007052264    0.042456097534    -0.040232646780    0.000011416828    -0.000003713899    0.038411806753    -0.069501467925
0.275     0.002486661680    -0.068418619291    0.000013045735    -0.000007559878    0.016707979591    -0.046583934316    0.000001844851    -0.000009059674
            0.000013045735    -0.000007559878    0.020293685480    -0.078304385793    0.000839383049    0.000126784003    0.030676491013    -0.051141653560
            0.016707979591    -0.046583934316    0.000839383049    0.000126784003    0.002872999807    -0.068771293727    0.000011112311    -0.000006590966
            0.000001844851    -0.000009059674    0.030676491013    -0.051141653560    0.000011112311    -0.000006590966    0.020693887937    -0.079270291575
0.300     -0.021616248391    -0.064783418306    0.000011743996    -0.000011830678    -0.002615451727    -0.047788030329    -0.000000711517    -0.000010947524
            0.000011743996    -0.000011830678    -0.000711450938    -0.082704285983    0.000878309568    0.000022941364    0.015156418899    -0.058432676900
            -0.002615451727    -0.047788030329    0.000878309568    0.000022941364    -0.021162106250    -0.065373795624    0.000009511637    -0.000009741218
            -0.000000711517    -0.000010947524    0.015156418899    -0.058432676900    0.000009511637    -0.000009741218    -0.000367052553    -0.083913941232
0.325     -0.045054511687    -0.053185103431    0.000008336555    -0.000015948228    -0.022797669121    -0.042267079704    -0.000004460644    -0.000012196115
            0.000008336555    -0.000015948228    -0.023364204768    -0.080924285336    0.000892740487    -0.000087739885    -0.002902515129    -0.060931620629
            -0.022797669121    -0.042267079704    0.000892740487    -0.000087739885    -0.044606496775    -0.054060102595    0.000006305097    -0.000012518243
            -0.000004460644    -0.000012196115    -0.002902515129    -0.060931620629    0.000006305097    -0.000012518243    -0.023141704112    -0.082381721524
0.350     -0.065101806490    -0.033942801156    0.000002747297    -0.000018820278    -0.041465493529    -0.029837953276    -0.000009280810    -0.000012175410
            0.000002747297    -0.000018820278    -0.045721590895    -0.072484181293    0.000881666464    -0.000198809577    -0.021949096270    -0.057882690873
            -0.041465493529    -0.029837953276    0.000881666464    -0.000198809577    -0.064754813566    -0.035122156383    0.000001527351    -0.000014093450
            -0.000009280810    -0.000012175410    -0.021949096270    -0.057882690873    0.000001527351    -0.000014093450    -0.045693557645    -0.074172690979
0.375     -0.079222145630    -0.008333684744    -0.000004552421    -0.000019360034    -0.056261489572    -0.011175090601    -0.000014744370    -0.000010335974
            -0.000004552421    -0.000019360034    -0.065726449435    -0.057529026193    0.000845932113    -0.000303800303    -0.040225576200    -0.049042281488
            -0.056261489572    -0.011175090601    0.000845932113    -0.000303800303    -0.079080588746    -0.009801473232    -0.000004389808    -0.000013690035
            -0.000014744370    -0.000010335974    -0.040225576200    -0.049042281488    -0.000004389808    -0.000013690035    -0.065964574835    -0.059407612887
0.400     -0.085428611302    0.021512544644    -0.000012684374    -0.000016866156    -0.065177960828    0.012236747464    -0.000020246315    -0.000006460485
            -0.000012684374    -0.000016866156    -0.081417627846    -0.036856505524    0.000788058546    -0.000396944408    -0.055948468670    -0.034736407481
            -0.065177960828    0.012236747464    0.000788058546    -0.000396944408    -0.085593121016    0.019811843187    -0.000010770250    -0.000010875013
            -0.000020246315    -0.000006460485    -0.055948468670    -0.034736407481    -0.000010770250    -0.000010875013    -0.081985455049    -0.038860086180
0.425     -0.082560765780    0.052870921105    -0.000020823647    -0.000011501094    -0.066824167982    0.038289707863    -0.000025312745    -0.000001030604
            -0.000020823647    -0.000011501094    -0.091133283085    -0.011856445930    0.000711711361    -0.000473955653    -0.067486508785    -0.015841033564
            -0.066824167982    0.038289707863    0.000711711361    -0.000473955653    -0.083112580132    0.051031293990    -0.000017113399    -0.000005959469
            -0.000025312745    -0.000001030604    -0.067486508785    -0.015841033564    -0.000017113399    -0.000005959469    -0.092078523913    -0.013897656474
0.450     -0.070452052596    0.082765281205    -0.000028465566    -0.000005564866    -0.060613636162    0.064530759378    -0.000029493399    0.000003770302
            -0.000028465566    -0.000005564866    -0.093694906416    0.015605948431    0.000621469194    -0.000533395999    -0.073539959311    0.006288152508
            -0.060613636162    0.064530759378    0.000621469194    -0.000533395999    -0.071438876739    0.080913450545    -0.000023259817    -0.000001248498
            -0.000029493399    0.000003770302    -0.073539959311    0.006288152508    -0.000023259817    -0.000001248498    -0.095043893875    0.013632474772
0.475     -0.049929622652    0.108337252749    -0.000030955753    -0.000003461018    -0.046798416009    0.088473250212    -0.000028504041    0.000005123099
            -0.000030955753    -0.000003461018    -0.088528999658    0.043363472022    0.000526675709    -0.000575762710    -0.073266553515    0.029943347160
            -0.046798416009    0.088473250212    0.000526675709    -0.000575762710    -0.051353072532    0.106627021461    -0.000024710483    -0.000000925557
            -0.000028504041    0.000005123099    -0.073266553515    0.029943347160    -0.000024710483    -0.000000925557    -0.090283010326    0.041577139869
0.500     -0.022688061301    0.127178476562    -0.000024243439    0.000000653556    -0.026394759704    0.107899514462    -0.000020664499    0.000008902280
            -0.000024243439    0.000000653556    -0.075740419281    0.069145405879    0.000434142847    -0.000593261881    -0.066377814217    0.053226340105
            -0.026394759704    0.107899514462    0.000434142847    -0.000593261881    -0.024486346084    0.125802517430    -0.000017678554    0.000001385254
            -0.000020664499    0.000008902280    -0.066377814217    0.053226340105    -0.000017678554    0.000001385254    -0.077869816044    0.067683229227
0.525     0.008946692772    0.137557301699    -0.000016033965    0.000006849374    -0.000964324268    0.121168522755    -0.000012640925    0.000013823837
            -0.000016033965    0.000006849374    -0.056126585263    0.090780971084    0.000341440154    -0.000587031722    -0.053169287932    0.074220224820
            -0.000964324268    0.121168522755    0.000341440154    -0.000587031722    0.006945699413    0.136962616634    -0.000009935239    0.000005928205
            -0.000012640925    0.000013823837    -0.053169287932    0.074220224820    -0.000009935239    0.000005928205    -0.058538087873    0.089805365255
0.550     0.042303895589    0.138586243858    -0.000007962852    0.000010965172    0.026156294680    0.126582165049    -0.000004998967    0.000016785842
            -0.000007962852    0.000010965172    -0.031147851704    0.106472505531    0.000252802500    -0.000561913376    -0.034508228539    0.091215463498
            0.026156294680    0.126582165049    0.000252802500    -0.000561913376    0.038301424604    0.137721801246    -0.000002968582    0.000008648545
            -0.000004998967    0.000016785842    -0.034508228539    0.091215463498    -0.000002968582    0.000008648545    -0.033611717913    0.106104101859
0.575     0.074558584003    0.130082173420    -0.000000337452    0.000012201364    0.055467630183    0.123926126510    0.000001978985    0.000017142933
            -0.000000337452    0.000012201364    -0.002625049394    0.115024459904    0.000172961310    -0.000519604735    -0.011638965231    0.102868513775
            0.055467630183    0.123926126510    0.000172961310    -0.000519604735    0.071369488825    0.129760774764    0.000003457734    0.000008982463
            0.000001978985    0.000017142933    -0.011638965231    0.102868513775    0.000003457734    0.000008982463    -0.004881432344    0.115196661593
0.600     0.102927174000    0.112632971904    0.000006827757    0.000010840732    0.082591000484    0.113459210776    0.000007842419    0.000015211183
            0.000006827757    0.000010840732    0.027473386155    0.115672453451    0.000105060478    -0.000462450749    0.013916795063    0.108155692869
            0.082591000484    0.113459210776    0.000105060478    -0.000462450749    0.100041768975    0.113244768417    0.000008534024    0.000007218823
            0.000007842419    0.000015211183    0.013916795063    0.108155692869    0.000008534024    0.000007218823    0.025546553619    0.116268254823
0.625     0.124881931603    0.088371103277    0.000011544970    0.000005535918    0.105725131917    0.096107332759    0.000012137866    0.000011740563
            0.000011544970    0.000005535918    0.056932147086    0.108161605311    0.000052095642    -0.000392902480    0.040339578790    0.106480589872
            0.105725131917    0.096107332759    0.000052095642    -0.000392902480    0.122726664949    0.089315212107    0.000011906041    0.000004106334
            0.000012137866    0.000011740563    0.040339578790    0.106480589872    0.000011906041    0.000004106334    0.055422888407    0.109115381492
0.650     0.139466236348    0.058724009451    0.000012659384    0.000000884833    0.123429074850    0.072702109888    0.000014782177    0.000007485603
            0.000012659384    0.000000884833    0.083524802604    0.092911524994    0.000016626319    -0.000314072407    0.065706157487    0.097797060540
            0.123429074850    0.072702109888    0.000016626319    -0.000314072407    0.137612262250    0.059904353713    0.000013492424    0.000000500745
            0.000014782177    0.000007485603    0.065706157487    0.097797060540    0.000013492424    0.000000500745    0.082534594299    0.094149548325
0.675     0.144836510683    0.025895188216    0.000012286362    -0.000002948381    0.133806835449    0.044935541684    0.000015875216    0.000003115520
            0.000012286362    -0.000002948381    0.105238591712    0.070944872382    0.000000656971    -0.000229668910    0.088154555263    0.082573760647
            0.133806835449    0.044935541684    0.000000656971    -0.000229668910    0.143417803147    0.027363509360    0.000013572969    -0.000002855338
            0.000015875216    0.000003115520    0.088154555263    0.082573760647    0.000013572969    -0.000002855338    0.104864131722    0.072355395697
0.700     0.140357878336    -0.007293715275    0.000010882487    -0.000005632340    0.135775386613    0.015026040750    0.000015782968    -0.000000890839
            0.000010882487    -0.000005632340    0.120419136191    0.043785139527    0.000005512579    -0.000144043004    0.106014361452    0.061758403852
            0.135775386613    0.015026040750    0.000005512579    -0.000144043004    0.139498740073    -0.005661557964    0.000012678237    -0.000005495057
            0.000015782968    -0.000000890839    0.106014361452    0.061758403852    0.000012678237    -0.000005495057    0.120731492305    0.045219683668
0.725     0.126174880171    -0.037988686145    0.000009278936    -0.000006998959    0.128843212764    -0.014555070447    0.000014956554    -0.000004356131
            0.000009278936    -0.000006998959    0.127873463743    0.013343105622    0.000031518606    -0.000062082545    0.117904349767    0.036710223659
            0.128843212739    -0.014555070672    0.000031518606    -0.000062082545    0.125938517100    -0.036371523668    0.000011411653    -0.000007307852
            0.000014956554    -0.000004356131    0.117904349767    0.036710223659    0.000011411653    -0.000007307852    0.128905408907    0.014625550664
0.750     0.103230487998    -0.063403614596    0.000008270619    -0.000007399724    0.113234483631    -0.041180636620    0.000013761103    -0.000007379460
            0.000008270619    -0.000007399724    0.126956699441    -0.018214832615    0.000077729921    0.000011058955    0.122842842654    0.009121116689
            0.113234483631    -0.041180636620    0.000077729921    0.000011058955    0.103616624306    -0.062002284214    0.000010255510    -0.000008515513
            0.000013761103    -0.000007379460    0.122842842654    0.009121116689    0.000010255510    -0.000008515513    0.128693194478    -0.017275119603
0.775     0.073290223986    -0.081035658648    0.000008287443    -0.000007592637    0.089978466176    -0.062268876595    0.000012338428    -0.000010226247
            0.000008287443    -0.000007592637    0.117620213000    -0.048611860073    0.000141753521    0.000070373411    0.120314274136    -0.019089334022
            0.089978466176    -0.062268876595    0.000141753521    0.000070373411    0.074232079091    -0.080051836395    0.000009414722    -0.000009544190
            0.000012338428    -0.000010226247    0.120314274136    -0.019089334022    0.000009414722    -0.000009544190    0.119993332780    -0.048205713968
