# GHz S RI R 45
0.000     0.017590827063    0.001914095181    -0.000005185215    -0.000010805749    0.000741831498    0.001636719421    -0.000006049151    -0.000013049046
            -0.000005184990    -0.000010805748    0.018369757342    0.001761056278    -0.000003911265    -0.000009169554    0.000853936826    0.001650868750
            0.000741831383    0.001636719473    -0.000003911529    -0.000009169555    0.017542921220    0.001901710388    -0.000004917849    -0.000010874876
            -0.000006049178    -0.000013049045    0.000853936112    0.001650868782    -0.000004917831    -0.000010874876    0.018306999620    0.001747599407
0.025     0.023200961705    0.010301879949    -0.000012086474    -0.000023478755    0.003122456045    0.010371158930    -0.000014307012    -0.000027870565
            -0.000012086482    -0.000023478749    0.022995991297    0.010778235255    -0.000009758454    -0.000019668792    0.002523139959    0.011118898563
            0.003120161504    0.010374139535    -0.000009758462    -0.000019668800    0.023127283713    0.010251989275    -0.000011526540    -0.000021898200
            -0.000014307022    -0.000027870560    0.002523706887    0.011117898277    -0.000011526521    -0.000021898193    0.022932462624    0.010731894833
0.050     0.031433969490    0.014887917783    -0.000027312848    -0.000039916153    0.009732959682    0.018650471730    -0.000032266068    -0.000047230098
            -0.000027312848    -0.000039916153    0.028744822888    0.016913899264    -0.000022522490    -0.000033350921    0.007326315598    0.020906221488
            0.009732932341    0.018650507430    -0.000022522490    -0.000033350922    0.031329063820    0.014786040759    -0.000025908852    -0.000036945941
            -0.000032266069    -0.000047230099    0.007326379147    0.020906242663    -0.000025908851    -0.000036945940    0.028617845441    0.016835491096
0.075     0.041199323554    0.015251024518    -0.000047469920    -0.000049868330    0.019267879631    0.023340993284    -0.000055973538    -0.000059044409
            -0.000047469920    -0.000049868330    0.035058744140    0.020463681189    -0.000039414331    -0.000041585872    0.014356480690    0.028392235375
            0.019267873062    0.023340996113    -0.000039414331    -0.000041585872    0.041056788006    0.015131819982    -0.000044755490    -0.000045828382
            -0.000055973539    -0.000059044410    0.014356486053    0.028392234905    -0.000044755489    -0.000045828381    0.034872012095    0.020392488685
0.100     0.050992170058    0.010897283973    -0.000070713000    -0.000052836282    0.030086975586    0.023586038635    -0.000083363658    -0.000062732199
            -0.000070713000    -0.000052836282    0.041154419993    0.021429046242    -0.000058860577    -0.000043938910    0.022548017927    0.033087851925
            0.030086975175    0.023586039160    -0.000058860577    -0.000043938910    0.050819250528    0.010785629989    -0.000066342285    -0.000048152778
            -0.000083363658    -0.000062732199    0.022548017336    0.033087853539    -0.000066342285    -0.000048152778    0.040914363473    0.021403284906
0.125     0.058842813755    0.001888790063    -0.000095138385    -0.000048552549    0.040365802602    0.019159058458    -0.000112261927    -0.000057935208
            -0.000095138385    -0.000048552549    0.045965979915    0.020144055189    -0.000079245891    -0.000040191110    0.030805298356    0.034929651162
            0.040365802602    0.019159058458    -0.000079245891    -0.000040191110    0.058660238108    0.001794537900    -0.000088896872    -0.000043710119
            -0.000112261927    -0.000057935208    0.030805298356    0.034929651162    -0.000088896872    -0.000043710119    0.045690926354    0.020196188596
0.150     0.063130998957    -0.010856081141    -0.000118997300    -0.000037341656    0.048320156263    0.010461986363    -0.000140638172    -0.000044932757
            -0.000118997300    -0.000037341656    0.048805715370    0.017357501611    -0.000099091463    -0.000030643554    0.038060435393    0.034220162534
            0.048320156263    0.010461986363    -0.000099091463    -0.000030643554    0.062973678049    -0.010913236515    -0.000110786568    -0.000032837699
            -0.000140638172    -0.000044932757    0.038060435393    0.034220162534    -0.000110786568    -0.000032837699    0.048549103338    0.017512967769
0.175     0.062362305819    -0.025926449957    -0.000141039753    -0.000019644076    0.052387075789    -0.001469212141    -0.000166982327    -0.000024174656
            -0.000141039753    -0.000019644076    0.049157088262    0.014049258956    -0.000117348438    -0.000015675031    0.043461889980    0.031663831895
            0.052387075789    -0.001469212141    -0.000117348438    -0.000015675031    0.062269894095    -0.025953362230    -0.000130861689    -0.000015972934
            -0.000166982327    -0.000024174656    0.043461889980    0.031663831895    -0.000130861689    -0.000015972934    0.048978084906    0.014304179511
0.200     0.055667145068    -0.041391648961    -0.000160271705    0.000004172901    0.051445027246    -0.015083118291    -0.000190056105    0.000003944836
            -0.000160271705    0.000004172901    0.046910816363    0.011389486352    -0.000133178979    0.000004388380    0.046497441513    0.028245721737
            0.051445027246    -0.015083118291    -0.000133178979    0.000004388380    0.055676760350    -0.041416771873    -0.000148207811    0.000006525759
            -0.000190056105    0.000003944836    0.046497441513    0.028245721737    -0.000148207811    0.000006525759    0.046865226698    0.011711671601
0.225     0.042892528993    -0.055055266189    -0.000175637214    0.000033955652    0.044958125024    -0.028480093100    -0.000208535849    0.000039249555
            -0.000175637214    0.000033955652    0.042452019132    0.010543253931    -0.000145696467    0.000029404527    0.047077531726    0.025078961546
            0.044958125024    -0.028480093100    -0.000145696467    0.000029404527    0.043029566423    -0.055126253579    -0.000161840991    0.000034512331
            -0.000208535849    0.000039249555    0.047077531726    0.025078961546    -0.000161840991    0.000034512331    0.042580914102    0.010874528324
0.250     0.024690702523    -0.064711678492    -0.000185787652    0.000069597941    0.033085157526    -0.039625253300    -0.000220767003    0.000081565651
            -0.000185787652    0.000069597941    0.036633776639    0.012494668556    -0.000153768592    0.000059258061    0.045567068554    0.023247879664
            0.033085157526    -0.039625253300    -0.000153768592    0.000059258061    0.024961761929    -0.064889791278    -0.000170490028    0.000067872833
            -0.000220767003    0.000081565651    0.045567068554    0.023247879664    -0.000170490028    0.000067872833    0.036953579414    0.012758139741
0.275     0.002486661680    -0.068418619291    -0.000188857118    0.000110738950    0.016707979591    -0.046583934316    -0.000224522080    0.000130392940
            -0.000188857118    0.000110738950    0.030691661462    0.017842347909    -0.000155830858    0.000093617338    0.042751292810    0.023623295184
            0.016707979591    -0.046583934316    -0.000155830858    0.000093617338    0.002872999807    -0.068771293727    -0.000172390898    0.000106237419
            -0.000224522080    0.000130392940    0.042751292810    0.023623295184    -0.000172390898    0.000106237419    0.031186132365    0.017953079367
0.300     -0.021616248391    -0.064783418306    -0.000182583615    0.000156317276    -0.002615451727    -0.047788030329    -0.000217160421    0.000184405288
            -0.000182583615    0.000156317276    0.026075738569    0.026677539773    -0.000149995862    0.000131553956    0.039738829954    0.026710906642
            -0.002615451727    -0.047788030329    -0.000149995862    0.000131553956    -0.021162106250    -0.065373795624    -0.000165407718    0.000148558300
            -0.000217160421    0.000184405288    0.039738829954    0.026710906642    -0.000165407718    0.000148558300    0.026693374135    0.026556052682
0.325     -0.045054511687    -0.053185103431    -0.000164621476    0.000204178367    -0.022797669121    -0.042267079704    -0.000195993194    0.000241015172
            -0.000164621476    0.000204178367    0.024237356830    0.038494547972    -0.000134325315    0.000171210353    0.037792402925    0.032525469342
            -0.022797669121    -0.042267079704    -0.000134325315    0.000171210353    -0.044606496775    -0.054060102595    -0.000147357948    0.000192721695
            -0.000195993194    0.000241015172    0.037792402925    0.032525469342    -0.000147357948    0.000192721695    0.024894056510    0.038081959789
0.350     -0.065101806490    -0.033942801156    -0.000133213186    0.000250939134    -0.041465493529    -0.029837953276    -0.000159035424    0.000296253451
            -0.000133213186    0.000250939134    0.026388234511    0.052228664786    -0.000107399441    0.000209698273    0.038123502689    0.040560540925
            -0.041465493529    -0.029837953276    -0.000107399441    0.000209698273    -0.064754813566    -0.035122156383    -0.000116655589    0.000235452725
            -0.000159035424    0.000296253451    0.038123502689    0.040560540925    -0.000116655589    0.000235452725    0.026976839275    0.051498982658
0.375     -0.079222145630    -0.008333684744    -0.000087855050    0.000292199926    -0.056261489572    -0.011175090601    -0.000105759211    0.000345008145
            -0.000087855050    0.000292199926    0.033277088820    0.066362959228    -0.000068890575    0.000243291401    0.041668755834    0.049831638977
            -0.056261489572    -0.011175090601    -0.000068890575    0.000243291401    -0.079080588746    -0.009801473232    -0.000072945521    0.000272529373
            -0.000105759211    0.000345008145    0.041668755834    0.049831638977    -0.000072945521    0.000272529373    0.033681071996    0.065332496154
0.400     -0.085428611302    0.021512544644    -0.000029842580    0.000323235321    -0.065177960828    0.012236747464    -0.000037699125    0.000381819423
            -0.000029842580    0.000323235321    0.045036830968    0.079156631282    -0.000020005912    0.000268032658    0.048920446345    0.059035405599
            -0.065177960828    0.012236747464    -0.000020005912    0.000268032658    -0.085593121016    0.019811843187    -0.000017641471    0.000299467816
            -0.000037699125    0.000381819423    0.048920446345    0.059035405599    -0.000017641471    0.000299467816    0.045147819354    0.077885413154
0.425     -0.082560765780    0.052870921105    0.000037628609    0.000339843413    -0.066824167982    0.038289707863    0.000041454457    0.000401839120
            0.000037628609    0.000339843413    0.061130574580    0.088897609234    0.000036444624    0.000280466754    0.059824709086    0.066749389289
            -0.066824167982    0.038289707863    0.000036444624    0.000280466754    -0.083112580132    0.051031293990    0.000046042517    0.000312358548
            0.000041454457    0.000401839120    0.059824709086    0.066749389289    0.000046042517    0.000312358548    0.060864818097    0.087483760015
0.450     -0.070452052596    0.082765281205    0.000109852001    0.000339256224    -0.060613636162    0.064530759378    0.000126263562    0.000401850126
            0.000109852001    0.000339256224    0.080424352850    0.094170093602    0.000096413806    0.000278406878    0.073798769170    0.071667708451
            -0.060613636162    0.064530759378    0.000096413806    0.000278406878    -0.071438876739    0.080913450545    0.000113464951    0.000308738763
            0.000126263562    0.000401850126    0.073798769170    0.071667708451    0.000113464951    0.000308738763    0.079736533100    0.092738751391
0.475     -0.049929622652    0.108337252749    0.000181377312    0.000320627117    -0.046798416009    0.088473250212    0.000210434548    0.000380839971
            0.000181377312    0.000320627117    0.101347258620    0.094046524679    0.000155317889    0.000261325661    0.089820153399    0.072780106680
            -0.046798416009    0.088473250212    0.000155317889    0.000261325661    -0.051353072532    0.106627021461    0.000179353739    0.000288051697
            0.000210434548    0.000380839971    0.089820153399    0.072780106680    0.000179353739    0.000288051697    0.100236528741    0.092734634433
0.500     -0.022688061301    0.127178476562    0.000246939788    0.000285163959    -0.026394759704    0.107899514462    0.000287873078    0.000340151260
            0.000246939788    0.000285163959    0.122119403394    0.088203226968    0.000208872471    0.000230422338    0.106593705025    0.069502822355
            -0.026394759704    0.107899514462    0.000208872471    0.000230422338    -0.024486346084    0.125802517430    0.000238786524    0.000251739299
            0.000287873078    0.000340151260    0.106593705025    0.069502822355    0.000238786524    0.000251739299    0.120630924619    0.087141105857
0.525     0.008946692772    0.137557301699    0.000302233447    0.000235715535    -0.000964324268    0.121168522755    0.000353556755    0.000283043322
            0.000302233447    0.000235715535    0.140970861988    0.076921872155    0.000254102102    0.000188325503    0.122711728416    0.061714467625
            -0.000964324268    0.121168522755    0.000254102102    0.000188325503    0.006945699413    0.136962616634    0.000288384229    0.000202936237
            0.000353556755    0.000283043322    0.122711728416    0.061714467625    0.000288384229    0.000202936237    0.139192126444    0.076219281238
0.550     0.042303895589    0.138586243858    0.000344517652    0.000176212017    0.026156294680    0.126582165049    0.000404293906    0.000214058494
            0.000344517652    0.000176212017    0.156346681579    0.061028327788    0.000284825648    0.000140896322    0.136822549736    0.049746020424
            0.026156294680    0.126582165049    0.000284825648    0.000140896322    0.038301424604    0.137721801246    0.000320742731    0.000148551395
            0.000404293906    0.000214058494    0.136822549736    0.049746020424    0.000320742731    0.000148551395    0.154396351029    0.060759533461
0.575     0.074558584003    0.130082173420    0.000372338540    0.000110944272    0.055467630183    0.123926126510    0.000438337921    0.000138095515
            0.000372338540    0.000110944272    0.167038153326    0.041770102871    0.000306671022    0.000084969666    0.147740413063    0.034317763928
            0.055467630183    0.123926126510    0.000306671022    0.000084969666    0.071369488825    0.129760774764    0.000343054242    0.000084822304
            0.000438337921    0.000138095515    0.147740413063    0.034317763928    0.000343054242    0.000084822304    0.165056404411    0.041967159862
0.600     0.102927174000    0.112632971904    0.000385796415    0.000043980899    0.082591000484    0.113459210776    0.000455813228    0.000059873636
            0.000385796415    0.000043980899    0.172281920572    0.020683172294    0.000316672675    0.000029692793    0.154550340131    0.016471475370
            0.082591000484    0.113459210776    0.000316672675    0.000029692793    0.100041768975    0.113244768417    0.000351700486    0.000022649891
            0.000455813228    0.000059873636    0.154550340131    0.016471475370    0.000351700486    0.000022649891    0.170415259479    0.021332053223
0.625     0.124881931603    0.088371103277    0.000387031347    -0.000020489189    0.105725131917    0.096107332759    0.000459192976    -0.000015776699
            0.000387031347    -0.000020489189    0.171795481810    -0.000546171121    0.000316341009    -0.000023726366    0.156661180776    -0.002517050612
            0.105725131917    0.096107332759    0.000316341009    -0.000023726366    0.122726664949    0.089315212107    0.000348709846    -0.000036635503
            0.000459192976    -0.000015776699    0.156661180775    -0.002517050667    0.000348709846    -0.000036635503    0.170182502450    0.000494195801
0.650     0.139466236348    0.058724009451    0.000378502023    -0.000081654483    0.123429074850    0.072702109888    0.000451318489    -0.000088026247
            0.000378502023    -0.000081654483    0.165802112112    -0.020212708293    0.000307704870    -0.000073574372    0.153875505248    -0.021217566709
            0.123429074850    0.072702109888    0.000307704870    -0.000073574372    0.137612262250    0.059904353713    0.000336659101    -0.000091152125
            0.000451318489    -0.000088026247    0.153875505248    -0.021217566709    0.000336659101    -0.000091152125    0.164558162962    -0.018883007832
0.675     0.144836510683    0.025895188216    0.000362136322    -0.000137977228    0.133806835449    0.044935541684    0.000434303421    -0.000155235237
            0.000362136322    -0.000137977228    0.155017817684    -0.036717057140    0.000292967177    -0.000119106047    0.146421999586    -0.038149412677
            0.133806835449    0.044935541684    0.000292967177    -0.000119106047    0.143417803147    0.027363509360    0.000318297654    -0.000140222307
            0.000434303421    -0.000155235237    0.146421999586    -0.038149412677    0.000318297654    -0.000140222307    0.154220834044    -0.035235877461
0.700     0.140357878336    -0.007293715275    0.000340505879    -0.000189554706    0.135775386613    0.015026040750    0.000410954678    -0.000217570513
            0.000340505879    -0.000189554706    0.140636741796    -0.048699945450    0.000274123731    -0.000160586393    0.135004837883    -0.051899224297
            0.135775386613    0.015026040750    0.000274123731    -0.000160586393    0.139498740073    -0.005661557964    0.000296024647    -0.000184418641
            0.000410954678    -0.000217570513    0.135004837883    -0.051899224297    0.000296024647    -0.000184418641    0.140315858081    -0.047228883694
0.725     0.126174880171    -0.037988686145    0.000315326807    -0.000237693899    0.128843212764    -0.014555070447    0.000382994274    -0.000276584834
            0.000315326807    -0.000237693899    0.124272767713    -0.055183968951    0.000252529920    -0.000199125087    0.120793793145    -0.061277844197
            0.128843212739    -0.014555070672    0.000252529920    -0.000199125087    0.125938517100    -0.036371523668    0.000271378934    -0.000225278817
            0.000382994274    -0.000276584834    0.120793792075    -0.061277846306    0.000271378934    -0.000225278817    0.124399400099    -0.053893760853
0.750     0.103230487998    -0.063403614596    0.000287014744    -0.000284425274    0.113234483631    -0.041180636620    0.000350617942    -0.000334495803
            0.000287014744    -0.000284425274    0.107866920523    -0.055728422285    0.000228507426    -0.000236392277    0.105389885199    -0.065496100534
            0.113234483631    -0.041180636620    0.000228507426    -0.000236392277    0.103616624306    -0.062002284214    0.000244577730    -0.000264960859
            0.000350617942    -0.000334495803    0.105389885199    -0.065496100534    0.000244577730    -0.000264960859    0.108351904201    -0.054776670544
0.775     0.073290223986    -0.081035658648    0.000254326448    -0.000331719880    0.089978466176    -0.062268876595    0.000312133879    -0.000393319807
            0.000254326448    -0.000331719880    0.093512563774    -0.050567519826    0.000201023985    -0.000274009914    0.090678366557    -0.064349143557
            0.089978466176    -0.062268876595    0.000201023985    -0.000274009914    0.074232079091    -0.080051836395    0.000214228044    -0.000305418316
            0.000312133879    -0.000393319807    0.090678366557    -0.064349143557    0.000214228044    -0.000305418316    0.094209723785    -0.050077986156
