# GHz S RI R 45
0.000     0.017590827063    0.001914095181    -0.000002147111    -0.000004723640    0.000741831498    0.001636719421    -0.000003084548    -0.000006858022
            -0.000002147112    -0.000004723640    0.017844902769    0.001434318164    -0.000001463071    -0.000003111872    0.000773600352    0.001399783264
            0.000741831383    0.001636719473    -0.000001463071    -0.000003111872    0.017542921220    0.001901710388    -0.000002197553    -0.000004797897
            -0.000003084542    -0.000006858022    0.000773600035    0.001399783211    -0.000002197552    -0.000004797897    0.017785718191    0.001444319050
0.025     0.023200961705    0.010301879949    -0.000005320182    -0.000010094770    0.003122456045    0.010371158930    -0.000007615697    -0.000014679958
            -0.000005320096    -0.000010094799    0.022030465445    0.009838540301    -0.000003592608    -0.000006638687    0.002236201620    0.010241064362
            0.003120161504    0.010374139535    -0.000003592670    -0.000006638668    0.023127283713    0.010251989275    -0.000005403203    -0.000010262926
            -0.000007615696    -0.000014679955    0.002238563356    0.010239459249    -0.000005403200    -0.000010262929    0.021972871804    0.009887302420
0.050     0.031433969490    0.014887917783    -0.000012022395    -0.000016701046    0.009732959682    0.018650471730    -0.000017177048    -0.000024425549
            -0.000012022395    -0.000016701046    0.027132163939    0.015452854923    -0.000008088158    -0.000010926453    0.006479726525    0.019357738614
            0.009732932341    0.018650507430    -0.000008088158    -0.000010926453    0.031329063820    0.014786040759    -0.000012173184    -0.000017032065
            -0.000017177049    -0.000024425550    0.006479856287    0.019357798522    -0.000012173184    -0.000017032064    0.027081587618    0.015551757629
0.075     0.041199323554    0.015251024518    -0.000020516608    -0.000020472275    0.019267879631    0.023340993284    -0.000029380248    -0.000030245529
            -0.000020516608    -0.000020472275    0.032735844873    0.018829500607    -0.000013766960    -0.000013275851    0.012748948057    0.026496695801
            0.019267873062    0.023340996113    -0.000013766960    -0.000013275851    0.041056788006    0.015131819982    -0.000020808979    -0.000020988379
            -0.000029380248    -0.000030245529    0.012748946988    0.026496701865    -0.000020808979    -0.000020988379    0.032702578523    0.018981427781
0.100     0.050992170058    0.010897283973    -0.000030126513    -0.000021327477    0.030086975586    0.023586038635    -0.000043377600    -0.000031976085
            -0.000030126513    -0.000021327477    0.038188324659    0.019959527143    -0.000020147666    -0.000013636319    0.020146492395    0.031212710869
            0.030086975175    0.023586039160    -0.000020147666    -0.000013636319    0.050819250528    0.010785629989    -0.000030686009    -0.000022010252
            -0.000043377600    -0.000031976085    0.020146470619    0.031212717783    -0.000030686009    -0.000022010252    0.038182417792    0.020162511094
0.125     0.058842813755    0.001888790063    -0.000040068160    -0.000019189622    0.040365802602    0.019159058458    -0.000058113480    -0.000029391230
            -0.000040068160    -0.000019189622    0.042502440360    0.019071226575    -0.000026685539    -0.000011970090    0.027749910216    0.033413460703
            0.040365802602    0.019159058458    -0.000026685539    -0.000011970090    0.058660238108    0.001794537900    -0.000041036786    -0.000019940733
            -0.000058113480    -0.000029391230    0.027749910216    0.033413460703    -0.000041036786    -0.000019940733    0.042547054367    0.019320949801
0.150     0.063130998957    -0.010856081141    -0.000049657027    -0.000014236382    0.048320156263    0.010461986363    -0.000072591950    -0.000022592544
            -0.000049657027    -0.000014236382    0.045275315592    0.016855230908    -0.000032910086    -0.000008417909    0.034633837432    0.033286874157
            0.048320156263    0.010461986363    -0.000032910086    -0.000008417909    0.062973678049    -0.010913236515    -0.000051137449    -0.000014860016
            -0.000072591950    -0.000022592544    0.034633837432    0.033286874157    -0.000051137449    -0.000014860016    0.045369025244    0.017134238771
0.175     0.062362305819    -0.025926449957    -0.000058368476    -0.000006677420    0.052387075789    -0.001469212141    -0.000085960174    -0.000011760987
            -0.000058368476    -0.000006677420    0.045954792926    0.014038686803    -0.000038466163    -0.000003136622    0.040029740248    0.031375314436
            0.052387075789    -0.001469212141    -0.000038466163    -0.000003136622    0.062269894095    -0.025953362230    -0.000060364447    -0.000006907053
            -0.000085960174    -0.000011760987    0.040029740248    0.031375314436    -0.000060364447    -0.000006907053    0.046099766092    0.014333826098
0.200     0.055667145068    -0.041391648961    -0.000065800383    0.000003280630    0.051445027246    -0.015083118291    -0.000097484518    0.000002854992
            -0.000065800383    0.000003280630    0.044356907114    0.011586748788    -0.000043081229    0.000003718232    0.043428674466    0.028470816166
            0.051445027246    -0.015083118291    -0.000043081229    0.000003718232    0.055676760350    -0.041416771873    -0.000068176340    0.000003728829
            -0.000097484518    0.000002854992    0.043428674466    0.028470816166    -0.000068176340    0.000003728829    0.044553622463    0.011884160085
0.225     0.042892528993    -0.055055266189    -0.000071554408    0.000015514749    0.044958125024    -0.028480093100    -0.000106427957    0.000021036706
            -0.000071554408    0.000015514749    0.040716774171    0.010496443463    -0.000046482930    0.000012048502    0.044654795791    0.025499692952
            0.044958125024    -0.028480093100    -0.000046482930    0.000012048502    0.043029566423    -0.055126253579    -0.000074024787    0.000016863758
            -0.000106427957    0.000021036706    0.044654795791    0.025499692952    -0.000074024787    0.000016863758    0.040961265038    0.010781425382
0.250     0.024690702523    -0.064711678492    -0.000075148976    0.000029928642    0.033085157526    -0.039625253300    -0.000111978232    0.000042510801
            -0.000075148976    0.000029928642    0.035664543667    0.011649842815    -0.000048340040    0.000021768029    0.043901801088    0.023404037836
            0.033085157526    -0.039625253300    -0.000048340040    0.000021768029    0.024961761929    -0.064889791278    -0.000077310632    0.000032263537
            -0.000111978232    0.000042510801    0.043901801088    0.023404037836    -0.000077310632    0.000032263537    0.035946544626    0.011908654618
0.275     0.002486661680    -0.068418619291    -0.000075919789    0.000046357152    0.016707979591    -0.046583934316    -0.000113157679    0.000066854772
            -0.000075919789    0.000046357152    0.030163434919    0.015647281826    -0.000048198668    0.000032730933    0.041720009185    0.022994530245
            0.016707979591    -0.046583934316    -0.000048198668    0.000032730933    0.002872999807    -0.068771293727    -0.000077328792    0.000049561355
            -0.000113157679    0.000066854772    0.041720009185    0.022994530245    -0.000077328792    0.000049561355    0.030466693082    0.015870265245
0.300     -0.021616248391    -0.064783418306    -0.000073057481    0.000064399747    -0.002615451727    -0.047788030329    -0.000108899176    0.000093314345
            -0.000073057481    0.000064399747    0.025389171525    0.022705352646    -0.000045516328    0.000044617660    0.038956419539    0.024826836256
            -0.002615451727    -0.047788030329    -0.000045516328    0.000044617660    -0.021162106250    -0.065373795624    -0.000073330573    0.000068143760
            -0.000108899176    0.000093314345    0.038956419539    0.024826836256    -0.000073330573    0.000068143760    0.025692693739    0.022889774530
0.325     -0.045054511687    -0.053185103431    -0.000065700502    0.000083272123    -0.022797669121    -0.042267079704    -0.000098162691    0.000120671169
            -0.000065700502    0.000083272123    0.022574602232    0.032571464468    -0.000039735681    0.000056835120    0.036638752737    0.029088485911
            -0.022797669121    -0.042267079704    -0.000039735681    0.000056835120    -0.044606496775    -0.054060102595    -0.000064624465    0.000087050938
            -0.000098162691    0.000120671169    0.036638752737    0.029088485911    -0.000064624465    0.000087050938    0.022855467953    0.032723464826
0.350     -0.065101806490    -0.033942801156    -0.000053170709    0.000101742773    -0.041465493529    -0.029837953276    -0.000080213008    0.000147196057
            -0.000053170709    0.000101742773    0.022826332293    0.044530848670    -0.000030464040    0.000068480892    0.035826167813    0.035550829022
            -0.041465493529    -0.029837953276    -0.000030464040    0.000068480892    -0.064754813566    -0.035122156383    -0.000050788040    0.000104968687
            -0.000080213008    0.000147196057    0.035826167813    0.035550829022    -0.000050788040    0.000104968687    0.023064124534    0.044667150672
0.375     -0.079222145630    -0.008333684744    -0.000035215028    0.000118179649    -0.056261489572    -0.011175090601    -0.000054872509    0.000170744329
            -0.000035215028    0.000118179649    0.026946353650    0.057460977794    -0.000017636908    0.000078401296    0.037434813523    0.043570386679
            -0.056261489572    -0.011175090601    -0.000017636908    0.000078401296    -0.079080588746    -0.009801473232    -0.000031845479    0.000120317451
            -0.000054872509    0.000170744329    0.037434813523    0.043570386679    -0.000031845479    0.000120317451    0.027126967067    0.057607196533
0.400     -0.085428611302    0.021512544644    -0.000012228198    0.000130779009    -0.065177960828    0.012236747464    -0.000022767660    0.000189023619
            -0.000012228198    0.000130779009    0.035290522774    0.069980756715    -0.000001668147    0.000085373262    0.042087448548    0.052180871570
            -0.065177960828    0.012236747464    -0.000001668147    0.000085373262    -0.085593121016    0.019811843187    -0.000008425326    0.000131485698
            -0.000022767660    0.000189023619    0.042087448548    0.052180871570    -0.000008425326    0.000131485698    0.035410388247    0.070169283274
0.425     -0.082560765780    0.052870921105    0.000014676603    0.000137865948    -0.066824167982    0.038289707863    0.000014627519    0.000199949418
            0.000014676603    0.000137865948    0.047689370206    0.080629366507    0.000016530781    0.000088329878    0.050000776416    0.060224087548
            -0.066824167982    0.038289707863    0.000016530781    0.000088329878    -0.083112580132    0.051031293990    0.000018240707    0.000137090587
            0.000014627519    0.000199949418    0.050000776416    0.060224087548    0.000018240707    0.000137090587    0.047757785415    0.080894712711
0.450     -0.070452052596    0.082765281205    0.000043751837    0.000138238754    -0.060613636162    0.064530759378    0.000055107492    0.000202032658
            0.000043751837    0.000138238754    0.063460542931    0.088079352276    0.000035642431    0.000086605056    0.060953627477    0.066530881074
            -0.060613636162    0.064530759378    0.000035642431    0.000086605056    -0.071438876739    0.080913450545    0.000046440633    0.000136261373
            0.000055107492    0.000202032658    0.060953627477    0.066530881074    0.000046440633    0.000136261373    0.063499725252    0.088452234593
0.475     -0.049929622652    0.108337252749    0.000072882320    0.000131351781    -0.046798416009    0.088473250212    0.000096057972    0.000194563169
            0.000072882320    0.000131351781    0.081493721336    0.091310061820    0.000054172681    0.000080029967    0.074316355665    0.070077281284
            -0.046798416009    0.088473250212    0.000054172680    0.000080029968    -0.051353072532    0.106627021461    0.000074260876    0.000128736398
            0.000096057972    0.000194563169    0.074316355665    0.070077281284    0.000074260876    0.000128736398    0.081533878365    0.091811935531
0.500     -0.022688061301    0.127178476562    0.000100000624    0.000117469303    -0.026394759704    0.107899514462    0.000134929899    0.000177785754
            0.000100000624    0.000117469303    0.100410587121    0.089741861421    0.000070790926    0.000069009302    0.089156218337    0.070123656423
            -0.026394759704    0.107899514462    0.000070790926    0.000069009302    -0.024486346084    0.125802517430    0.000100002582    0.000114950975
            0.000134929899    0.000177785754    0.089156218337    0.070123656423    0.000100002582    0.000114950975    0.100477361367    0.090377514773
0.525     0.008946692772    0.137557301699    0.000123281472    0.000097593490    -0.000964324268    0.121168522755    0.000169432245    0.000152830080
            0.000123281472    0.000097593490    0.118800807275    0.083314244340    0.000084598814    0.000054465340    0.104393160286    0.066297865737
            -0.000964324268    0.121168522755    0.000084598814    0.000054465340    0.006945699413    0.136962616634    0.000122498148    0.000096004228
            0.000169432245    0.000152830080    0.104393160286    0.066297865737    0.000122498148    0.000096004228    0.118833577977    0.084034133846
0.550     0.042303895589    0.138586243858    0.000141423037    0.000073454810    0.026156294680    0.126582165049    0.000197891880    0.000121419853
            0.000141423037    0.000073454810    0.134407798243    0.072696679720    0.000093203726    0.000038727553    0.118368644524    0.058777697277
            0.026156294680    0.126582165049    0.000093203726    0.000038727553    0.038301424604    0.137721801246    0.000138195031    0.000074582053
            0.000197891880    0.000121419853    0.118368644524    0.058777697277    0.000138195031    0.000074582053    0.135195860166    0.073171279222
0.575     0.074558584003    0.130082173420    0.000153489632    0.000046287829    0.055467630183    0.123926126510    0.000219091567    0.000085345997
            0.000153489632    0.000046287829    0.147447446064    0.057745284450    0.000098991468    0.000019859975    0.130763692763    0.047321090686
            0.055467630183    0.123926126510    0.000098991468    0.000019859975    0.071369488825    0.129760774764    0.000150855538    0.000048155615
            0.000219091567    0.000085345997    0.130763692763    0.047321090686    0.000150855538    0.000048155615    0.148244977389    0.058533383489
0.600     0.102927174000    0.112632971904    0.000159538321    0.000018130823    0.082591000484    0.113459210776    0.000232694237    0.000046659639
            0.000159538321    0.000018130823    0.156153677142    0.040490545766    0.000100813101    0.000001608354    0.140090511901    0.033173924024
            0.082591000484    0.113459210776    0.000100813101    0.000001608354    0.100041768975    0.113244768417    0.000158195334    0.000021499854
            0.000232694237    0.000046659639    0.140090511901    0.033173924024    0.000158195334    0.000021499854    0.157015589481    0.041265184068
0.625     0.124881931603    0.088371103277    0.000160215656    -0.000009353743    0.105725131917    0.096107332759    0.000239314598    0.000007437094
            0.000160215656    -0.000009353743    0.160073533027    0.022006933647    0.000099183165    -0.000015803114    0.145781298208    0.017236983000
            0.105725131917    0.096107332759    0.000099183165    -0.000015803114    0.122726664949    0.089315212107    0.000160756170    -0.000005257200
            0.000239314598    0.000007437094    0.145781298208    0.017236983000    0.000160756170    -0.000005257200    0.161136120540    0.022915183531
0.650     0.139466236348    0.058724009451    0.000156311765    -0.000035528393    0.123429074850    0.072702109888    0.000239567745    -0.000031721397
            0.000156311765    -0.000035528393    0.159080169172    0.003726484292    0.000094748351    -0.000031819070    0.147394747112    0.000392609273
            0.123429074850    0.072702109888    0.000094748351    -0.000031819070    0.137612262250    0.059904353713    0.000159027799    -0.000031404590
            0.000239567745    -0.000031721397    0.147394747113    0.000392609196    0.000159027799    -0.000031404590    0.160467742565    0.004505456226
0.675     0.144836510683    0.025895188216    0.000148673786    -0.000059559017    0.133806835449    0.044935541684    0.000233994757    -0.000069652546
            0.000148673786    -0.000059559017    0.153469072793    -0.012927074433    0.000088243140    -0.000046163486    0.144723197840    -0.016034828723
            0.133806835449    0.044935541684    0.000088243140    -0.000046163486    0.143417803147    0.027363509360    0.000153649236    -0.000056478014
            0.000233994757    -0.000069652546    0.144723197840    -0.016034828723    0.000153649236    -0.000056478014    0.155084863106    -0.012390562312
0.700     0.140357878336    -0.007293715275    0.000138399033    -0.000081271652    0.135775386613    0.015026040750    0.000223524092    -0.000105893987
            0.000138399033    -0.000081271652    0.143937497245    -0.026645826495    0.000080325997    -0.000058871370    0.138058517148    -0.030762939984
            0.135775386613    0.015026040750    0.000080325997    -0.000058871370    0.139498740073    -0.005661557964    0.000145139152    -0.000080341844
            0.000223524092    -0.000105893987    0.138058517148    -0.030762939984    0.000145139152    -0.000080341844    0.145697243947    -0.026414709962
0.725     0.126174880171    -0.037988686145    0.000126328851    -0.000100975567    0.128843212764    -0.014555070447    0.000208799084    -0.000140456462
            0.000126328851    -0.000100975567    0.131563016736    -0.036346556530    0.000071464940    -0.000070218974    0.128063566719    -0.042613002183
            0.128843212739    -0.014555070672    0.000071464940    -0.000070218974    0.125938517100    -0.036371523668    0.000133807918    -0.000103048120
            0.000208799084    -0.000140456462    0.128063566719    -0.042613002183    0.000133807918    -0.000103048120    0.133369393645    -0.036462875640
0.750     0.103230487998    -0.063403614596    0.000112887746    -0.000119325390    0.113234483631    -0.041180636620    0.000190069186    -0.000173589662
            0.000112887746    -0.000119325390    0.117756378692    -0.041291386240    0.000061850790    -0.000080649892    0.115791426746    -0.050616706291
            0.113234483631    -0.041180636620    0.000061850790    -0.000080649892    0.103616624306    -0.062002284214    0.000119691632    -0.000124741879
            0.000190069186    -0.000173589662    0.115791426746    -0.050616706291    0.000119691632    -0.000124741879    0.119498265931    -0.041766622208
0.775     0.073290223986    -0.081035658648    0.000097919623    -0.000137060239    0.089978466176    -0.062268876595    0.000167044322    -0.000205557704
            0.000097919623    -0.000137060239    0.104161831404    -0.041203671595    0.000051309110    -0.000090602368    0.102620230395    -0.054165176126
            0.089978466176    -0.062268876595    0.000051309110    -0.000090602368    0.074232079091    -0.080051836395    0.000102500868    -0.000145482482
            0.000167044322    -0.000205557704    0.102620230395    -0.054165176126    0.000102500868    -0.000145482482    0.105721491350    -0.042011877035
