# GHz S RI R 45
0.000     0.017590827063    0.001914095181    0.000000326359    0.000001130053    0.000741831498    0.001636719421    0.000000317625    0.000001122423
            0.000000326359    0.000001130053    0.018356276919    0.001422215573    0.000000352604    0.000001166015    0.000741654825    0.001398048251
            0.000741831383    0.001636719473    0.000000352604    0.000001166015    0.017542921220    0.001901710388    0.000000354359    0.000001175127
            0.000000317625    0.000001122423    0.000741654172    0.001398048258    0.000000354359    0.000001175127    0.018293803009    0.001426384529
0.025     0.023200961705    0.010301879949    0.000001031136    0.000002444028    0.003122456045    0.010371158930    0.000001009368    0.000002431308
            0.000001031133    0.000002444030    0.022843138476    0.010303601413    0.000001085528    0.000002521686    0.002435551357    0.010786223168
            0.003120161504    0.010374139535    0.000001085527    0.000002521687    0.023127283713    0.010251989275    0.000001086408    0.000002543864
            0.000001009367    0.000002431308    0.002437943338    0.010785882694    0.000001086409    0.000002543864    0.022794781263    0.010380142143
0.050     0.031433969490    0.014887917783    0.000002571737    0.000004129024    0.009732959682    0.018650471730    0.000002536110    0.000004122947
            0.000002571737    0.000004129024    0.028513747739    0.015924541967    0.000002677017    0.000004251478    0.007234194654    0.020192935451
            0.009732932341    0.018650507430    0.000002677017    0.000004251478    0.031329063820    0.014786040759    0.000002686674    0.000004301123
            0.000002536110    0.000004122947    0.007234229257    0.020192943237    0.000002686674    0.000004301123    0.028500015266    0.016074414273
0.075     0.041199323554    0.015251024518    0.000004578593    0.000005192707    0.019267879631    0.023340993284    0.000004536106    0.000005198216
            0.000004578593    0.000005192707    0.034715363903    0.018956268533    0.000004741697    0.000005340417    0.014220274267    0.027257112067
            0.019267873062    0.023340996113    0.000004741697    0.000005340417    0.041056788006    0.015131819982    0.000004771420    0.000005414126
            0.000004536106    0.000005198216    0.014220289372    0.027257114338    0.000004771420    0.000005414126    0.034762761017    0.019168475173
0.100     0.050992170058    0.010897283973    0.000006905389    0.000005590646    0.030086975586    0.023586038635    0.000006861313    0.000005610224
            0.000006905389    0.000005590646    0.040640003858    0.019374078114    0.000007131705    0.000005746442    0.022310115219    0.031483506166
            0.030086975175    0.023586039160    0.000007131705    0.000005746442    0.050819250528    0.010785629989    0.000007190608    0.000005838548
            0.000006861313    0.000005610224    0.022310115219    0.031483506166    0.000007190608    0.000005838548    0.040768251471    0.019623655101
0.125     0.058842813755    0.001888790063    0.000009380205    0.000005293160    0.040365802602    0.019159058458    0.000009340453    0.000005327460
            0.000009380205    0.000005293160    0.045140646249    0.017469601774    0.000009671060    0.000005440048    0.030382902858    0.032810644652
            0.040365802602    0.019159058458    0.000009671060    0.000005440048    0.058660238108    0.001794537900    0.000009767184    0.000005542305
            0.000009340453    0.000005327460    0.030382902286    0.032810645182    0.000009767184    0.000005542305    0.045352098958    0.017725414100
0.150     0.063130998957    -0.010856081141    0.000011846853    0.000004314701    0.048320156263    0.010461986363    0.000011817006    0.000004361914
            0.000011846853    0.000004314701    0.047631353177    0.014073150351    0.000012202769    0.000004437566    0.037340221556    0.031542755736
            0.048320156263    0.010461986363    0.000012202769    0.000004437566    0.062973678049    -0.010913236515    0.000012341906    0.000004538739
            0.000011817006    0.000004361914    0.037340252834    0.031542741954    0.000012341906    0.000004538739    0.047932829589    0.014304524484
0.175     0.062362305819    -0.025926449957    0.000014186243    0.000002683318    0.052387075789    -0.001469212141    0.000014170712    0.000002739491
            0.000014186243    0.000002683318    0.047502456132    0.010120273387    0.000014604957    0.000002767131    0.042298739094    0.028404829155
            0.052387075789    -0.001469212141    0.000014604957    0.000002767131    0.062269894095    -0.025953362230    0.000014789745    0.000002853930
            0.000014170712    0.000002739491    0.042298757311    0.028404819965    0.000014789745    0.000002853930    0.047884065753    0.010291681495
0.200     0.055667145068    -0.041391648961    0.000016299129    0.000000418242    0.051445027246    -0.015083118291    0.000016300514    0.000000477967
            0.000016299129    0.000000418242    0.044588312781    0.006805112762    0.000016777034    0.000000448621    0.044714613291    0.024413166537
            0.051445027246    -0.015083118291    0.000016777034    0.000000448621    0.055676760350    -0.041416771873    0.000017006338    0.000000506664
            0.000016300514    0.000000477967    0.044714613291    0.024413166537    0.000017006338    0.000000506664    0.045024828171    0.006884342430
0.225     0.042892528993    -0.055055266189    0.000018077016    -0.000002481593    0.044958125024    -0.028480093100    0.000018095837    -0.000002424343
            0.000018077016    -0.000002481593    0.039234404553    0.005342961889    0.000018609324    -0.000002519752    0.044471553336    0.020728998505
            0.044958125024    -0.028480093100    0.000018609324    -0.000002519752    0.043029566423    -0.055126253579    0.000018877676    -0.000002504903
            0.000018095837    -0.000002424343    0.044471553336    0.020728998505    0.000018877676    -0.000002504903    0.039687393345    0.005306959701
0.250     0.024690702523    -0.064711678492    0.000019377514    -0.000006019986    0.033085157526    -0.039625253300    0.000019411804    -0.000005970831
            0.000019377514    -0.000006019986    0.032270650847    0.006786488552    0.000019957390    -0.000006143529    0.041920220845    0.018500823710
            0.033085157526    -0.039625253300    0.000019957390    -0.000006143529    0.024961761929    -0.064889791278    0.000020254831    -0.000006184786
            0.000019411804    -0.000005970831    0.041920220845    0.018500823710    0.000020254831    -0.000006184786    0.032691715590    0.006626776123
0.275     0.002486661680    -0.068418619291    0.000020006208    -0.000010175254    0.016707979591    -0.046583934316    0.000020052103    -0.000010138557
            0.000020006208    -0.000010175254    0.024930750299    0.011822528506    0.000020622319    -0.000010402867    0.037853899875    0.018677866280
            0.016707979591    -0.046583934316    0.000020622319    -0.000010402867    0.002872999807    -0.068771293727    0.000020935366    -0.000010510547
            0.000020052103    -0.000010138557    0.037853899875    0.018677866280    0.000020935366    -0.000010510547    0.025267235793    0.011549289771
0.300     -0.021616248391    -0.064783418306    0.000019724785    -0.000014855440    -0.002615451727    -0.047788030329    0.000019777262    -0.000014833739
            0.000019724785    -0.000014855440    0.018696318902    0.020639232618    0.000020359549    -0.000015206540    0.033419198451    0.021849259506
            -0.002615451727    -0.047788030329    0.000020359549    -0.000015206540    -0.021162106250    -0.065373795624    0.000020671684    -0.000015386982
            0.000019777262    -0.000014833739    0.033419198451    0.021849259506    0.000020671684    -0.000015386982    0.018898283070    0.020283511674
0.325     -0.045054511687    -0.053185103431    0.000018283158    -0.000019861490    -0.022797669121    -0.042267079704    0.000018337080    -0.000019855156
            0.000018283158    -0.000019861490    0.015090580108    0.032826090620    0.000018910770    -0.000020353314    0.029951857166    0.028106260231
            -0.022797669121    -0.042267079704    0.000018910770    -0.000020353314    -0.044606496775    -0.054060102595    0.000019204032    -0.000020608495
            0.000018337080    -0.000019855156    0.029951857166    0.028106260231    0.000019204032    -0.000020608495    0.015119366781    0.032438842888
0.350     -0.065101806490    -0.033942801156    0.000015480521    -0.000024868520    -0.041465493529    -0.029837953276    0.000015531297    -0.000024876315
            0.000015480521    -0.000024868520    0.015437618567    0.047389702279    0.000016067104    -0.000025512688    0.028769552588    0.036994508265
            -0.041465493529    -0.029837953276    0.000016067104    -0.000025512688    -0.064754813566    -0.035122156383    0.000016323125    -0.000025839717
            0.000015531297    -0.000024876315    0.028769552588    0.036994508265    0.000016323125    -0.000025839717    0.015273355485    0.047037288443
0.375     -0.079222145630    -0.008333684744    0.000011232573    -0.000029446195    -0.056261489572    -0.011175090601    0.000011276582    -0.000029465510
            0.000011232573    -0.000029446195    0.020630348998    0.062844871645    0.000011737459    -0.000030244408    0.030939547475    0.047543731258
            -0.056261489572    -0.011175090601    0.000011737459    -0.000030244408    -0.079080588746    -0.009801473232    0.000011939048    -0.000030635980
            0.000011276582    -0.000029465510    0.030939547475    0.047543731258    0.000011939048    -0.000030635980    0.020278563477    0.062602092251
0.400     -0.085428611302    0.021512544644    0.000005627129    -0.000033116160    -0.065177960828    0.012236747464    0.000005662187    -0.000033143617
            0.000005627129    -0.000033116160    0.030959294963    0.077427226246    0.000006006950    -0.000034057396    0.037090020165    0.058414886038
            -0.065177960828    0.012236747464    0.000006006950    -0.000034057396    -0.085593121016    0.019811843187    0.000006139013    -0.000034502163
            0.000005662187    -0.000033143617    0.037090020165    0.058414886038    0.000006139013    -0.000034502163    0.030453191598    0.077366927253
0.425     -0.082560765780    0.052870921105    -0.000001059245    -0.000035438012    -0.066824167982    0.038289707863    -0.000001034191    -0.000035470328
            -0.000001059245    -0.000035438012    0.046035136634    0.089342855600    -0.000000845828    -0.000036497179    0.047289631564    0.068100340456
            -0.066824167982    0.038289707863    -0.000000845828    -0.000036497179    -0.083112580132    0.051031293990    -0.000000795516    -0.000036980590
            -0.000001034191    -0.000035470328    0.047289631564    0.068100340456    -0.000000795516    -0.000036980590    0.045434191700    0.089525224156
0.450     -0.070452052596    0.082765281205    -0.000008391364    -0.000036094550    -0.060613636162    0.064530759378    -0.000008376477    -0.000036128476
            -0.000008391364    -0.000036094550    0.064837019172    0.097042683085    -0.000008378794    -0.000037233938    0.061042036930    0.075167419474
            -0.060613636162    0.064530759378    -0.000008378794    -0.000037233938    -0.071438876739    0.080913450545    -0.000008419044    -0.000037738980
            -0.000008376477    -0.000036128476    0.061042036930    0.075167419474    -0.000008419044    -0.000037738980    0.064221930246    0.097506554793
0.475     -0.049929622652    0.108337252749    -0.000015845753    -0.000034956190    -0.046798416009    0.088473250212    -0.000015840524    -0.000034989109
            -0.000015845753    -0.000034956190    0.085855906627    0.099432696918    -0.000016059078    -0.000036129610    0.077365070233    0.078455444209
            -0.046798416009    0.088473250212    -0.000016059078    -0.000036129610    -0.051353072532    0.106627021461    -0.000016194893    -0.000036637899
            -0.000015840524    -0.000034989109    0.077365070233    0.078455444209    -0.000016194893    -0.000036637899    0.085319006029    0.100188431164
0.500     -0.022688061301    0.127178476562    -0.000022889328    -0.000032091752    -0.026394759704    0.107899514462    -0.000022892097    -0.000032121384
            -0.000022889328    -0.000032091752    0.107314306971    0.096010210464    -0.000023346647    -0.000033248847    0.094950594188    0.077225339512
            -0.026394759704    0.107899514462    -0.000023346647    -0.000033248847    -0.024486346084    0.125802517430    -0.000023578549    -0.000033741408
            -0.000022892097    -0.000032121384    0.094950594188    0.077225339512    -0.000023578549    -0.000033741408    0.106949524859    0.097035351805
0.525     0.008946692772    0.137557301699    -0.000029075091    -0.000027733902    -0.000964324268    0.121168522755    -0.000029083563    -0.000027758159
            -0.000029075091    -0.000027733902    0.127387701968    0.086887902576    -0.000029835681    -0.000028840234    0.112332054805    0.071213766748
            -0.000964324268    0.121168522755    -0.000029835681    -0.000028840234    0.006945699413    0.136962616634    -0.000030160196    -0.000029298124
            -0.000029083563    -0.000027758159    0.112332054805    0.071213766748    -0.000030160196    -0.000029298124    0.127280350970    0.088129057535
0.550     0.042303895589    0.138586243858    -0.000034105328    -0.000022237904    0.026156294680    0.126582165049    -0.000034116768    -0.000022255267
            -0.000034105328    -0.000022237904    0.144416686421    0.072748564116    -0.000034747894    -0.000023486057    0.128059094317    0.060635288817
            0.026156294680    0.126582165049    -0.000034747894    -0.000023486057    0.038301424604    0.137721801246    -0.000035157306    -0.000023891329
            -0.000034116768    -0.000022255267    0.128059094317    0.060635288817    -0.000035157306    -0.000023891329    0.144632848215    0.074123354214
0.575     0.074558584003    0.130082173420    -0.000037803088    -0.000016005400    0.055467630183    0.123926126510    -0.000037814148    -0.000016015337
            -0.000037803088    -0.000016005400    0.157052159349    0.054735063197    -0.000038693991    -0.000016949965    0.140821211841    0.046126617477
            0.055467630183    0.123926126510    -0.000038693991    -0.000016949965    0.071369488825    0.129760774764    -0.000039177909    -0.000017287032
            -0.000037814148    -0.000016015337    0.140821211841    0.046126617477    -0.000039177909    -0.000017287032    0.157633139209    0.056139657358
0.600     0.102927174000    0.112632971904    -0.000040137424    -0.000009421997    0.082591000484    0.113459210776    -0.000040143847    -0.000009425390
            -0.000040137424    -0.000009421997    0.164364709198    0.034322793110    -0.000041240137    -0.000010217407    0.149558255638    0.028681936061
            0.082591000484    0.113459210776    -0.000041240137    -0.000010217407    0.100041768975    0.113244768417    -0.000041784676    -0.000010473601
            -0.000040143847    -0.000009425390    0.149558255638    0.028681936061    -0.000041784676    -0.000010473601    0.165320001241    0.035641694803
0.625     0.124881931603    0.088371103277    -0.000041301154    -0.000002935950    0.105725131917    0.096107332759    -0.000041299656    -0.000002936886
            -0.000041301154    -0.000002935950    0.165893034956    0.013185695300    -0.000042544057    -0.000003465354    0.153523940671    0.009568921297
            0.105725131917    0.096107332759    -0.000042544057    -0.000003465354    0.122726664949    0.089315212107    -0.000043133866    -0.000003631218
            -0.000041299656    -0.000002936886    0.153523940905    0.009568917546    -0.000043133866    -0.000003631218    0.167196194636    0.014301320798
0.650     0.139466236348    0.058724009451    -0.000041551079    0.000003428752    0.123429074850    0.072702109888    -0.000041540840    0.000003426615
            -0.000041551079    0.000003428752    0.161677893848    -0.006931727852    -0.000042823713    0.000003089851    0.152359057660    -0.009748785236
            0.123429074850    0.072702109888    -0.000042823713    0.000003089851    0.137612262250    0.059904353713    -0.000043442490    0.000003019799
            -0.000041540840    0.000003426615    0.152359057660    -0.009748785236    -0.000043442490    0.000003019799    0.163264520831    -0.006126264559
0.675     0.144836510683    0.025895188216    -0.000041022636    0.000009536810    0.133806835449    0.044935541684    -0.000041003047    0.000009528168
            -0.000041022636    0.000009536810    0.152261093195    -0.024336703186    -0.000042327338    0.000009359799    0.146134341446    -0.027709212183
            0.133806835449    0.044935541684    -0.000042327338    0.000009359799    0.143417803147    0.027363509360    -0.000042959044    0.000009387701
            -0.000041003047    0.000009528168    0.146134341446    -0.027709212183    -0.000042959044    0.000009387701    0.154030029107    -0.023927524617
0.700     0.140357878336    -0.007293715275    -0.000039939063    0.000015410040    0.135775386613    0.015026040750    -0.000039912671    0.000015388694
            -0.000039939063    0.000015410040    0.138685372431    -0.037517959490    -0.000041272178    0.000015387585    0.135411345766    -0.042763688446
            0.135775386613    0.015026040750    -0.000041272178    0.000015387585    0.139498740073    -0.005661557964    -0.000041902525    0.000015512812
            -0.000039912671    0.000015388694    0.135411345766    -0.042763688446    -0.000041902525    0.000015512812    0.140504515494    -0.037558612040
0.725     0.126174880171    -0.037988686145    -0.000038427363    0.000021199999    0.128843212764    -0.014555070447    -0.000038400003    0.000021160478
            -0.000038427363    0.000021199999    0.122456301105    -0.045288398123    -0.000039788337    0.000021331217    0.121254653981    -0.053530803130
            0.128843212739    -0.014555070672    -0.000039788337    0.000021331217    0.125938517100    -0.036371523668    -0.000040404861    0.000021551155
            -0.000038400003    0.000021160478    0.121254653981    -0.053530803130    -0.000040404861    0.000021551155    0.124172854237    -0.045788938248
0.750     0.103230487998    -0.063403614596    -0.000036465928    0.000027121271    0.113234483631    -0.041180636620    -0.000036446699    0.000027060484
            -0.000036465928    0.000027121271    0.105474934124    -0.046947706268    -0.000037857129    0.000027414364    0.105220583127    -0.058976669300
            0.113234483631    -0.041180636620    -0.000037857129    0.000027414364    0.103616624306    -0.062002284214    -0.000038449642    0.000027726340
            -0.000036446699    0.000027060484    0.105220583127    -0.058976669300    -0.000038449642    0.000027726340    0.106930879587    -0.047864234547
0.775     0.073290223986    -0.081035658648    -0.000033852911    0.000033369394    0.089978466176    -0.062268876595    -0.000033853346    0.000033288653
            -0.000033852911    0.000033369394    0.089891771780    -0.042442049666    -0.000035274541    0.000033845120    0.089244334181    -0.058621513482
            0.089978466176    -0.062268876595    -0.000035274541    0.000033845120    0.074232079091    -0.080051836395    -0.000035834429    0.000034247391
            -0.000033853346    0.000033288653    0.089244334181    -0.058621513482    -0.000035834429    0.000034247391    0.090942273029    -0.043674174221
