# GHz S RI R 45
0.000     0.017590827063    0.001914095181    -0.000009110967    -0.000021121051    0.000741831498    0.001636719421    -0.000023899617    -0.000021962787
            -0.000009110761    -0.000021121051    0.017428916953    0.001290523157    -0.000007955482    -0.000019035220    0.000669566087    0.001239311035
            0.000741831383    0.001636719473    -0.000007953482    -0.000019035235    0.017542921220    0.001901710388    -0.000009430974    -0.000021649177
            -0.000023899485    -0.000021962789    0.000669565975    0.001239310982    -0.000009430947    -0.000021649177    0.017433114162    0.001303157153
0.025     0.023200961705    0.010301879949    -0.000024155905    -0.000050471687    0.003122456045    0.010371158930    -0.000041330297    -0.000052278527
            -0.000024155590    -0.000050471890    0.021512982713    0.009439841280    -0.000021348223    -0.000046188237    0.002037363572    0.009641316956
            0.003120161504    0.010374139535    -0.000021348268    -0.000046188249    0.023127283713    0.010251989275    -0.000025323501    -0.000051792974
            -0.000041330383    -0.000052278580    0.002034103765    0.009641588249    -0.000025323157    -0.000051792796    0.021449219816    0.009469867048
0.050     0.031433969490    0.014887917783    -0.000057335937    -0.000085439147    0.009732959682    0.018650471730    -0.000082477849    -0.000087040453
            -0.000057335937    -0.000085439147    0.026380229774    0.014749673186    -0.000050951309    -0.000078698845    0.005924473618    0.018252064760
            0.009732932341    0.018650507430    -0.000050951312    -0.000078698850    0.031329063820    0.014786040759    -0.000060346224    -0.000086763812
            -0.000082477856    -0.000087040460    0.005924518810    0.018252020653    -0.000060346218    -0.000086763803    0.026290062562    0.014830873942
0.075     0.041199323554    0.015251024518    -0.000100955756    -0.000105957724    0.019267879631    0.023340993284    -0.000132805055    -0.000099447431
            -0.000100955756    -0.000105957724    0.031668657916    0.017976750327    -0.000090216071    -0.000098724885    0.011677013889    0.025087544378
            0.019267873062    0.023340996113    -0.000090216062    -0.000098724839    0.041056788006    0.015131819982    -0.000105695208    -0.000105684988
            -0.000132805055    -0.000099447431    0.011677018299    0.025087540119    -0.000105695208    -0.000105684988    0.031562000198    0.018128572940
0.100     0.050992170058    0.010897283973    -0.000150808878    -0.000111004796    0.030086975586    0.023586038635    -0.000184072510    -0.000091951090
            -0.000150808878    -0.000111004796    0.036818342505    0.019121860383    -0.000135699682    -0.000105220168    0.018509231262    0.029754751153
            0.030086975175    0.023586039160    -0.000135699703    -0.000105220109    0.050819250528    0.010785629989    -0.000156133879    -0.000107769646
            -0.000184072510    -0.000091951090    0.018509231262    0.029754751153    -0.000156133879    -0.000107769646    0.036706819443    0.019363401776
0.125     0.058842813755    0.001888790063    -0.000202169792    -0.000100734266    0.040365802602    0.019159058458    -0.000231385916    -0.000068193883
            -0.000202169792    -0.000100734222    0.041001568069    0.018385539626    -0.000183696631    -0.000097577060    0.025619865031    0.032152885435
            0.040365802602    0.019159058458    -0.000183696614    -0.000097577092    0.058660238108    0.001794537900    -0.000206110202    -0.000093881959
            -0.000231385916    -0.000068193883    0.025619865031    0.032152885435    -0.000206110202    -0.000093881959    0.040904917776    0.018727192950
0.150     0.063130998957    -0.010856081141    -0.000251553305    -0.000075638524    0.048320156263    0.010461986363    -0.000270372598    -0.000031007092
            -0.000251553328    -0.000075638483    0.043712259714    0.016371928819    -0.000230794691    -0.000076167474    0.032192849166    0.032410074996
            0.048320156263    0.010461986363    -0.000230794672    -0.000076167468    0.062973678049    -0.010913236515    -0.000251734142    -0.000065769485
            -0.000270372598    -0.000031007092    0.032192849166    0.032410074996    -0.000251734142    -0.000065769485    0.043663395742    0.016832922579
0.175     0.062362305819    -0.025926449957    -0.000295954046    -0.000037090754    0.052387075789    -0.001469212141    -0.000298996480    0.000015207879
            -0.000295954156    -0.000037090768    0.044503949644    0.013749235825    -0.000274240169    -0.000041808493    0.037530978229    0.030964054147
            0.052387075789    -0.001469212141    -0.000274240159    -0.000041808491    0.062269894095    -0.025953362230    -0.000290337719    -0.000026210320
            -0.000298996480    0.000015207879    0.037530978229    0.030964054147    -0.000290337719    -0.000026210320    0.044547170543    0.014324789072
0.200     0.055667145068    -0.041391648961    -0.000333175212    0.000013370341    0.051445027246    -0.015083118291    -0.000317383954    0.000066623915
            -0.000333175312    0.000013370345    0.043198255230    0.011372904768    -0.000311814515    0.000004567793    0.041147073898    0.028477607928
            0.051445027246    -0.015083118291    -0.000311814526    0.000004567739    0.055676760350    -0.041416771873    -0.000320819989    0.000022114567
            -0.000317383944    0.000066623913    0.041147073898    0.028477607928    -0.000320819989    0.000022114567    0.043374850653    0.012038301330
0.225     0.042892528993    -0.055055266189    -0.000361373063    0.000074501497    0.044958125024    -0.028480093100    -0.000326894782    0.000120979457
            -0.000361373063    0.000074501497    0.039967197820    0.010139674198    -0.000341389413    0.000062246575    0.042830473779    0.025744564133
            0.044958125024    -0.028480093100    -0.000341389413    0.000062246575    0.043029566423    -0.055126253579    -0.000343000219    0.000077435960
            -0.000326894782    0.000120979457    0.042830473779    0.025744564133    -0.000343000219    0.000077435960    0.040308932397    0.010853840618
0.250     0.024690702523    -0.064711678492    -0.000378653295    0.000145283446    0.033085157526    -0.039625253300    -0.000329066883    0.000177801420
            -0.000378653357    0.000145283394    0.035329155423    0.010866264530    -0.000360581669    0.000130523404    0.042682431923    0.023593062199
            0.033085157526    -0.039625253300    -0.000360581651    0.000130523397    0.024961761929    -0.064889791278    -0.000356876972    0.000139056427
            -0.000329066883    0.000177801420    0.042682431923    0.023593062199    -0.000356876972    0.000139056427    0.035852358321    0.011576449305
0.275     0.002486661680    -0.068418619291    -0.000382607616    0.000224606527    0.016707979591    -0.046583934316    -0.000324404711    0.000238102263
            -0.000382607659    0.000224606552    0.030108527395    0.014139106222    -0.000366387465    0.000208386811    0.041112798619    0.022762932164
            0.016707979591    -0.046583934316    -0.000366387465    0.000208386811    0.002872999807    -0.068771293727    -0.000361710171    0.000207159404
            -0.000324404711    0.000238102263    0.041112798619    0.022762932164    -0.000361710171    0.000207159404    0.030810011604    0.014786516511
0.300     -0.021616248391    -0.064783418306    -0.000370295068    0.000310689235    -0.002615451727    -0.047788030329    -0.000311651501    0.000303440275
            -0.000370295052    0.000310689222    0.025335828762    0.020222891000    -0.000355278381    0.000293872986    0.038798523789    0.023801701609
            -0.002615451727    -0.047788030329    -0.000355278381    0.000293872986    -0.021162106250    -0.065373795624    -0.000355546863    0.000282022592
            -0.000311651509    0.000303440282    0.038798523789    0.023801701609    -0.000355546863    0.000282022592    0.026191011553    0.020750301877
0.325     -0.045054511687    -0.053185103431    -0.000338481694    0.000400428834    -0.022797669121    -0.042267079704    -0.000287528724    0.000374640801
            -0.000338481694    0.000400428834    0.022120252660    0.028977302315    -0.000323530581    0.000383511546    0.036596086181    0.026963916242
            -0.022797669121    -0.042267079704    -0.000323530581    0.000383511546    -0.044606496775    -0.054060102595    -0.000335134061    0.000363003039
            -0.000287528724    0.000374640801    0.036596086181    0.026963916242    -0.000335134061    0.000363003039    0.023083198324    0.029337032609
0.350     -0.065101806490    -0.033942801156    -0.000284527389    0.000488934718    -0.041465493529    -0.029837953276    -0.000247413392    0.000450524087
            -0.000284527389    0.000488934718    0.021493797498    0.039853707241    -0.000268121254    0.000471983750    0.035425475155    0.032161478331
            -0.041465493529    -0.029837953276    -0.000268121259    0.000471983758    -0.064754813566    -0.035122156383    -0.000296636836    0.000447568476
            -0.000247413392    0.000450524087    0.035425475155    0.032161478331    -0.000296636836    0.000447568476    0.022501995448    0.040015743837
0.375     -0.079222145630    -0.008333684744    -0.000207425391    0.000569443195    -0.056261489572    -0.011175090601    -0.000186521380    0.000527111000
            -0.000207425391    0.000569443195    0.024256771116    0.051926856475    -0.000187660824    0.000552273237    0.036128012101    0.038948470902
            -0.056261489572    -0.011175090601    -0.000187660824    0.000552273237    -0.079080588746    -0.009801473232    -0.000236846573    0.000530651255
            -0.000186521380    0.000527111000    0.036128012101    0.038948470902    -0.000236846573    0.000530651255    0.025238127545    0.051885075328
0.400     -0.085428611302    0.021512544644    -0.000109079215    0.000633637461    -0.065177960828    0.012236747464    -0.000101641038    0.000597660947
            -0.000109079215    0.000633637461    0.030848156857    0.064009841499    -0.000083428213    0.000616448328    0.039337625202    0.046580684898
            -0.065177960828    0.012236747464    -0.000083428223    0.000616448327    -0.085593121016    0.019811843187    -0.000154928157    0.000604494956
            -0.000101641038    0.000597660947    0.039337625202    0.046580684898    -0.000154928157    0.000604494956    0.031729591745    0.063784726142
0.425     -0.082560765780    0.052870921105    0.000005052022    0.000671285030    -0.066824167982    0.038289707863    0.000007435775    0.000653604645
            0.000005052045    0.000671285010    0.041260023050    0.074794932216    0.000040169389    0.000656911590    0.045373203442    0.054107482986
            -0.066824167982    0.038289707863    0.000040169389    0.000656911590    -0.083112580132    0.051031293990    -0.000053788282    0.000657963505
            0.000007435775    0.000653604645    0.045373203442    0.054107482986    -0.000053788282    0.000657963505    0.041978028260    0.074433087957
0.450     -0.070452052596    0.082765281205    0.000130230516    0.000667408972    -0.060613636162    0.064530759378    0.000136832938    0.000686101936
            0.000130230504    0.000667408974    0.055025799767    0.083034703042    0.000175503777    0.000667759884    0.054191589163    0.060515038138
            -0.060613636162    0.064530759378    0.000175503777    0.000667759884    -0.071438876739    0.080913450545    0.000063847430    0.000672529330
            0.000136832938    0.000686101936    0.054191589163    0.060515038138    0.000063847430    0.000672529330    0.055535391861    0.082603930521
0.475     -0.049929622652    0.108337252749    0.000282168893    0.000617788917    -0.046798416009    0.088473250212    0.000279029330    0.000686678795
            0.000282168878    0.000617788912    0.071267329813    0.087697653889    0.000312824724    0.000644599421    0.065387951367    0.064856600160
            -0.046798416009    0.088473250212    0.000312824731    0.000644599407    -0.051353072532    0.106627021461    0.000220424509    0.000640731150
            0.000279029330    0.000686678795    0.065387951367    0.064856600160    0.000220424509    0.000640731150    0.071548403751    0.087280328008
0.500     -0.022688061301    0.127178476562    0.000445176133    0.000562307023    -0.026394759704    0.107899514462    0.000426195593    0.000650382644
            0.000445176123    0.000562307031    0.088809494346    0.088103607818    0.000444588010    0.000586449499    0.078259916762    0.066381459537
            -0.026394759704    0.107899514462    0.000444588010    0.000586449499    -0.024486346084    0.125802517430    0.000396133912    0.000607765783
            0.000426195593    0.000650382644    0.078259916762    0.066381459537    0.000396133912    0.000607765783    0.088871080755    0.087785621317
0.525     0.008946692772    0.137557301699    0.000577806939    0.000488797436    -0.000964324268    0.121168522755    0.000567484774    0.000578006674
            0.000577806939    0.000488797436    0.106316914437    0.083989589204    0.000565016181    0.000499224386    0.091893590319    0.064609502195
            -0.000964324268    0.121168522755    0.000565016181    0.000499224386    0.006945699413    0.136962616634    0.000545789102    0.000551645601
            0.000567484774    0.000578006674    0.091893590319    0.064609502195    0.000545789102    0.000551645601    0.106196938788    0.083851386415
0.550     0.042303895589    0.138586243858    0.000681368314    0.000387403186    0.026156294680    0.126582165049    0.000692075534    0.000472405640
            0.000681368321    0.000387403174    0.122451448636    0.075531675072    0.000655457513    0.000395204893    0.105278117530    0.059379906859
            0.026156294680    0.126582165049    0.000655457513    0.000395204893    0.038301424604    0.137721801246    0.000662421968    0.000464322372
            0.000692075534    0.000472405640    0.105278117530    0.059379906859    0.000662421968    0.000464322372    0.122214446142    0.075636907033
0.575     0.074558584003    0.130082173420    0.000756623322    0.000265084918    0.055467630183    0.123926126510    0.000790773388    0.000339209667
            0.000756623346    0.000265084912    0.136000494283    0.063304239161    0.000726161032    0.000266557836    0.117400985075    0.050846139442
            0.055467630183    0.123926126510    0.000726161037    0.000266557852    0.071369488825    0.129760774764    0.000760996274    0.000340392662
            0.000790773388    0.000339209667    0.117400985075    0.050846139442    0.000760996274    0.000340392662    0.135731546597    0.063694243858
0.600     0.102927174000    0.112632971904    0.000802779332    0.000130484272    0.082591000484    0.113459210776    0.000857147797    0.000186435970
            0.000802779332    0.000130484272    0.145993007443    0.048213754841    0.000768082718    0.000132566611    0.127346614727    0.039459254773
            0.082591000484    0.113459210776    0.000768082718    0.000132566610    0.100041768975    0.113244768417    0.000828952387    0.000200249582
            0.000857147797    0.000186435970    0.127346614727    0.039459254773    0.000828952387    0.000200249582    0.145790111406    0.048902199102
0.625     0.124881931603    0.088371103277    0.000822092891    -0.000006575739    0.105725131917    0.096107332759    0.000889638815    0.000025756031
            0.000822092851    -0.000006575760    0.151768078479    0.031405832708    0.000782869945    -0.000002799425    0.134359271357    0.025917103495
            0.105725131917    0.096107332759    0.000782869945    -0.000002799426    0.122726664949    0.089315212107    0.000865360098    0.000049701971
            0.000889638815    0.000025756031    0.134359271357    0.025917103495    0.000865360098    0.000049701971    0.151732857032    0.032375681265
0.650     0.139466236348    0.058724009451    0.000817519111    -0.000143526895    0.123429074850    0.072702109888    0.000889405970    -0.000137608517
            0.000817519079    -0.000143526848    0.153028870558    0.014167186736    0.000773499875    -0.000134011280    0.137911845683    0.011119515347
            0.123429074850    0.072702109888    0.000773499874    -0.000134011281    0.137612262250    0.059904353713    0.000870867380    -0.000103157469
            0.000889405970    -0.000137608517    0.137911845683    0.011119515347    0.000870867380    -0.000103157469    0.153255695403    0.015371452553
0.675     0.144836510683    0.025895188216    0.000790584890    -0.000275002320    0.133806835449    0.044935541684    0.000857075533    -0.000294735067
            0.000790584871    -0.000275002345    0.149856325019    -0.002175133972    0.000743931277    -0.000257320160    0.137743384267    -0.003900898434
            0.133806835449    0.044935541684    0.000743931267    -0.000257320157    0.143417803147    0.027363509360    0.000848022632    -0.000251521973
            0.000857075528    -0.000294735082    0.137743384267    -0.003900898434    0.000848022632    -0.000251521973    0.150423304243    -0.000812767478
0.700     0.140357878336    -0.007293715275    0.000745246435    -0.000398187358    0.135775386613    0.015026040750    0.000797589523    -0.000439079061
            0.000745246435    -0.000398187358    0.142718345018    -0.016355526878    0.000698350795    -0.000370885305    0.133908307451    -0.018043226531
            0.135775386613    0.015026040750    0.000698350795    -0.000370885305    0.139498740073    -0.005661557964    0.000800770496    -0.000390260619
            0.000797589523    -0.000439079061    0.133908307451    -0.018043226531    0.000800770496    -0.000390260619    0.143678363360    -0.014934754108
0.725     0.126174880171    -0.037988686145    0.000684870259    -0.000512292785    0.128843212764    -0.014555070447    0.000716744953    -0.000566824654
            0.000684870259    -0.000512292785    0.132445181116    -0.027270889335    0.000640421813    -0.000474648204    0.126791773324    -0.030231725330
            0.128843212739    -0.014555070672    0.000640421813    -0.000474648204    0.125938517100    -0.036371523668    0.000733736360    -0.000516279649
            0.000716744953    -0.000566824654    0.126791772796    -0.030231727543    0.000733736360    -0.000516279649    0.133818958376    -0.025908869550
0.750     0.103230487998    -0.063403614596    0.000611731377    -0.000617877350    0.113234483631    -0.041180636620    0.000620354304    -0.000676716077
            0.000611731388    -0.000617877339    0.120194443968    -0.034087972888    0.000572581219    -0.000569994954    0.117125513680    -0.039512704421
            0.113234483631    -0.041180636620    0.000572581219    -0.000569994954    0.103616624306    -0.062002284214    0.000651413477    -0.000628622187
            0.000620354304    -0.000676716077    0.117125513680    -0.039512704421    0.000651413477    -0.000628622187    0.121965699133    -0.032906975823
0.775     0.073290223986    -0.081035658648    0.000526463345    -0.000716148503    0.089978466176    -0.062268876595    0.000513068329    -0.000769743005
            0.000526463306    -0.000716148581    0.107375091867    -0.036345125586    0.000495431633    -0.000658944537    0.105950000082    -0.045178702016
            0.089978466176    -0.062268876595    0.000495431627    -0.000658944529    0.074232079091    -0.080051836395    0.000557174527    -0.000728075197
            0.000513068329    -0.000769743005    0.105950000082    -0.045178702016    0.000557174527    -0.000728075197    0.109487495382    -0.035461849246
