# GHz S RI R 45
0.000     0.017590827063    0.001914095181    0.000000398327    0.000000518607    0.000741831498    0.001636719421    0.000000569854    0.000000792721
            0.000000398331    0.000000518607    0.016974690207    0.001418043736    0.000000592070    0.000000818203    0.000643561870    0.001223046629
            0.000741831383    0.001636719473    0.000000592334    0.000000818203    0.017542921220    0.001901710388    0.000000821916    0.000001192592
            0.000000569852    0.000000792721    0.000643561870    0.001223046629    0.000000821938    0.000001192591    0.016791951077    0.001413353095
0.025     0.023200961705    0.010301879949    0.000000920721    0.000000983748    0.003122456045    0.010371158930    0.000001346053    0.000001511271
            0.000000920719    0.000000983744    0.021922078029    0.008946926600    0.000001396244    0.000001576302    0.002623831412    0.009092577879
            0.003120161504    0.010374139535    0.000001396244    0.000001576305    0.023127283713    0.010251989275    0.000001966547    0.000002286441
            0.000001346058    0.000001511274    0.002623605275    0.009092868360    0.000001966547    0.000002286441    0.021855866832    0.008904901725
0.050     0.031433969490    0.014887917783    0.000001932344    0.000001288431    0.009732959682    0.018650471730    0.000002867260    0.000002022331
            0.000001932344    0.000001288431    0.029077886641    0.012899405481    0.000002965851    0.000002122355    0.008215997405    0.016513085421
            0.009732932341    0.018650507430    0.000002965852    0.000002122355    0.031329063820    0.014786040759    0.000004224957    0.000003110814
            0.000002867261    0.000002022331    0.008215985877    0.016513091157    0.000004224957    0.000003110814    0.029001608683    0.012842042098
0.075     0.041199323554    0.015251024518    0.000003044351    0.000001001715    0.019267879631    0.023340993284    0.000004566952    0.000001657788
            0.000003044351    0.000001001715    0.037589990801    0.013309313016    0.000004723693    0.000001767172    0.016377881406    0.021003900309
            0.019267873062    0.023340996113    0.000004723693    0.000001767172    0.041056788006    0.015131819982    0.000006780296    0.000002652775
            0.000004566952    0.000001657788    0.016377874063    0.021003902231    0.000006780296    0.000002652775    0.037511306811    0.013244244466
0.100     0.050992170058    0.010897283973    0.000004043881    0.000000135914    0.030086975586    0.023586038635    0.000006134898    0.000000422846
            0.000004043881    0.000000135914    0.046282864069    0.009734443743    0.000006350513    0.000000513545    0.025812698307    0.021822790332
            0.030086975175    0.023586039160    0.000006350513    0.000000513545    0.050819250528    0.010785629989    0.000009184839    0.000000904095
            0.000006134898    0.000000422846    0.025812699071    0.021822790977    0.000009184839    0.000000904095    0.046216079692    0.009670662391
0.125     0.058842813755    0.001888790063    0.000004689010    -0.000001243694    0.040365802602    0.019159058458    0.000007212118    -0.000001602958
            0.000004689010    -0.000001243694    0.053561083487    0.002103172200    0.000007476016    -0.000001558765    0.035065216326    0.018717511519
            0.040365802602    0.019159058458    0.000007476016    -0.000001558765    0.058660238108    0.001794537900    0.000010913338    -0.000002041745
            0.000007212118    -0.000001602958    0.035065216882    0.018717512602    0.000010913338    -0.000002041745    0.053525595524    0.002053235943
0.150     0.063130998957    -0.010856081141    0.000004782008    -0.000002969111    0.048320156263    0.010461986363    0.000007496683    -0.000004187491
            0.000004782008    -0.000002969111    0.058045383263    -0.008836877909    0.000007787699    -0.000004212623    0.042684285932    0.011894433598
            0.048320156263    0.010461986363    0.000007787699    -0.000004212623    0.062973678049    -0.010913236515    0.000011508242    -0.000005861372
            0.000007496683    -0.000004187491    0.042684287236    0.011894436370    0.000011508242    -0.000005861372    0.058070692195    -0.008881881075
0.175     0.062362305819    -0.025926449957    0.000004189550    -0.000004816111    0.052387075789    -0.001469212141    0.000006775140    -0.000007013219
            0.000004189550    -0.000004816111    0.058465522674    -0.022065515911    0.000007063247    -0.000007121787    0.047347383620    0.002080194920
            0.052387075789    -0.001469212141    0.000007063247    -0.000007121787    0.062269894095    -0.025953362230    0.000010640121    -0.000010106521
            0.000006775140    -0.000007013219    0.047347389935    0.002080210681    0.000010640121    -0.000010106521    0.058581642709    -0.022125795934
0.200     0.055667145068    -0.041391648961    0.000002867524    -0.000006516067    0.051445027246    -0.015083118291    0.000004959411    -0.000009691029
            0.000002867524    -0.000006516067    0.053973282240    -0.036101517277    0.000005209643    -0.000009885338    0.048041949451    -0.009575014375
            0.051445027246    -0.015083118291    0.000005209643    -0.000009885338    0.055676760350    -0.041416771873    0.000008153859    -0.000014218510
            0.000004959411    -0.000009691029    0.048041949451    -0.009575014375    0.000008153859    -0.000014218510    0.054204925475    -0.036210475448
0.225     0.042892528993    -0.055055266189    0.000000868896    -0.000007788605    0.044958125024    -0.028480093100    0.000002100644    -0.000011806738
            0.000000868896    -0.000007788605    0.044257297570    -0.049188584827    0.000002277778    -0.000012076197    0.044179690245    -0.021613653125
            0.044958125024    -0.028480093100    0.000002277778    -0.000012076197    0.043029566423    -0.055126253579    0.000004092332    -0.000017592387
            0.000002100644    -0.000011806738    0.044179690245    -0.021613653125    0.000004092332    -0.000017592387    0.044617892385    -0.049392431241
0.250     0.024690702523    -0.064711678492    -0.000001648038    -0.000008376298    0.033085157526    -0.039625253300    -0.000001596280    -0.000012970176
            -0.000001648038    -0.000008376298    0.029638266090    -0.059493463741    -0.000001523088    -0.000013292068    0.035688768051    -0.032419894416
            0.033085157526    -0.039625253300    -0.000001523088    -0.000013292068    0.024961761929    -0.064889791278    -0.000001278854    -0.000019647901
            -0.000001596280    -0.000012970176    0.035688768051    -0.032419894416    -0.000001278854    -0.000019647901    0.030124623681    -0.059846960970
0.275     0.002486661680    -0.068418619291    -0.000004430334    -0.000008080528    0.016707979591    -0.046583934316    -0.000005785926    -0.000012867302
            -0.000004430334    -0.000008080528    0.011058217609    -0.065320162285    -0.000005839669    -0.000013209021    0.023050506555    -0.040388285099
            0.016707979591    -0.046583934316    -0.000005839669    -0.000013209021    0.002872999807    -0.068771293727    -0.000007489139    -0.000019903666
            -0.000005785926    -0.000012867302    0.023050506555    -0.040388285099    -0.000007489139    -0.000019903666    0.011646606290    -0.065880698332
0.300     -0.021616248391    -0.064783418306    -0.000007149344    -0.000006800932    -0.002615451727    -0.047788030329    -0.000010006198    -0.000011316566
            -0.000007149344    -0.000006800932    -0.009967290704    -0.065328523437    -0.000010199539    -0.000011638534    0.007287397403    -0.044117004990
            -0.002615451727    -0.047788030329    -0.000010199539    -0.000011638534    -0.021162106250    -0.065373795624    -0.000013893857    -0.000018057489
            -0.000010006198    -0.000011316566    0.007287397403    -0.044117004990    -0.000013893857    -0.000018057489    -0.009323259943    -0.066148699379
0.325     -0.045054511687    -0.053185103431    -0.000009439849    -0.000004563529    -0.022797669121    -0.042267079704    -0.000013731007    -0.000008310740
            -0.000009439849    -0.000004563529    -0.031491072923    -0.058712713250    -0.000014064737    -0.000008569240    -0.010117936276    -0.042583880360
            -0.022797669121    -0.042267079704    -0.000014064737    -0.000008569240    -0.044606496775    -0.054060102595    -0.000019745421    -0.000014045363
            -0.000013731007    -0.000008310740    -0.010117936276    -0.042583880360    -0.000019745421    -0.000014045363    -0.030858576869    -0.059830896315
0.350     -0.065101806490    -0.033942801156    -0.000010953030    -0.000001538180    -0.041465493529    -0.029837953276    -0.000016441080    -0.000004045133
            -0.000010953030    -0.000001538180    -0.051327051167    -0.045351904906    -0.000016903308    -0.000004195380    -0.027369375231    -0.035305108016
            -0.041465493529    -0.029837953276    -0.000016903308    -0.000004195380    -0.064754813566    -0.035122156383    -0.000024286850    -0.000008083651
            -0.000016441080    -0.000004045133    -0.027369375231    -0.035305108016    -0.000024286850    -0.000008083651    -0.050789847786    -0.046784410770
0.375     -0.079222145630    -0.008333684744    -0.000011416197    0.000001974082    -0.056261489572    -0.011175090601    -0.000017705728    0.000001094021
            -0.000011416197    0.000001974082    -0.067295452948    -0.025865487389    -0.000018270800    0.000001095048    -0.042553930080    -0.022424743912
            -0.056261489572    -0.011175090601    -0.000018270800    0.000001095048    -0.079080588746    -0.009801473232    -0.000026861311    -0.000000659727
            -0.000017705728    0.000001094021    -0.042553930080    -0.022424743912    -0.000026861311    -0.000000659727    -0.066945114425    -0.027600152940
0.400     -0.085428611302    0.021512544644    -0.000010686688    0.000005578147    -0.065177960828    0.012236747464    -0.000017259946    0.000006572745
            -0.000010686688    0.000005578147    -0.077488465741    -0.001594197518    -0.000017887869    0.000006762213    -0.053877341818    -0.004734635756
            -0.065177960828    0.012236747464    -0.000017887869    0.000006762213    -0.085593121016    0.019811843187    -0.000027017300    0.000007516712
            -0.000017259946    0.000006572745    -0.053877341818    -0.004734635756    -0.000027017300    0.000007516712    -0.077414513855    -0.003586998120
0.425     -0.082560765780    0.052870921105    -0.000008781273    0.000008847316    -0.066824167982    0.038289707863    -0.000015050715    0.000011788700
            -0.000008781273    0.000008847316    -0.080505650620    0.025530984080    -0.000015687684    0.000012192955    -0.059879268104    0.016402638569
            -0.066824167982    0.038289707863    -0.000015687684    0.000012192955    -0.083112580132    0.051031293990    -0.000024578619    0.000015610730
            -0.000015050715    0.000011788700    -0.059879268104    0.016402638569    -0.000024578619    0.000015610730    -0.080783498927    0.023355102833
0.450     -0.070452052596    0.082765281205    -0.000005876221    0.000011392052    -0.060613636162    0.064530759378    -0.000011248004    0.000016161537
            -0.000005876221    0.000011392052    -0.075639529726    0.053194656502    -0.000011829027    0.000016789939    -0.059620083232    0.039205630401
            -0.060613636162    0.064530759378    -0.000011829027    0.000016789939    -0.071438876739    0.080913450545    -0.000019672975    0.000022776416
            -0.000011248004    0.000016161537    -0.059620083232    0.039205630401    -0.000019672975    0.000022776416    -0.076319626416    0.050936746218
0.475     -0.049929622652    0.108337252749    -0.000002271152    0.000012918522    -0.046798416009    0.088473250212    -0.000006207283    0.000019215240
            -0.000002271152    0.000012918522    -0.062957224515    0.078955610976    -0.000006661397    0.000020054693    -0.052778296981    0.061678296199
            -0.046798416009    0.088473250212    -0.000006661397    0.000020054693    -0.051353072532    0.106627021461    -0.000012698121    0.000028268376
            -0.000006207283    0.000019215240    -0.052778296981    0.061678296199    -0.000012698121    0.000028268376    -0.064056917452    0.076733111741
0.500     -0.022688061301    0.127178476562    0.000001663158    0.000013267573    -0.026394759704    0.107899514462    -0.000000409559    0.000020637959
            0.000001663158    0.000013267573    -0.043292412234    0.100514633037    -0.000000666553    0.000021652066    -0.039678360598    0.081835915774
            -0.026394759704    0.107899514462    -0.000000666553    0.000021652066    -0.024486346084    0.125802517430    -0.000004257873    0.000031533755
            -0.000000409559    0.000020637959    -0.039678360598    0.081835915774    -0.000004257873    0.000031533755    -0.044791831397    0.098451540149
0.525     0.008946692772    0.137557301699    0.000005540054    0.000012415740    -0.000964324268    0.121168522755    0.000005609047    0.000020295724
            0.000005540054    0.000012415740    -0.018137487207    0.115945530583    0.000005620717    0.000021434352    -0.021225358394    0.097899143571
            -0.000964324268    0.121168522755    0.000005620717    0.000021434352    0.006945699413    0.136962616634    0.000004936362    0.000032261776
            0.000005609047    0.000020295724    -0.021225358394    0.097899143571    0.000004936362    0.000032261776    -0.019980012422    0.114159665677
0.550     0.042303895589    0.138586243858    0.000009012691    0.000010458625    0.026156294680    0.126582165049    0.000011331598    0.000018224755
            0.000009012691    0.000010458625    0.010522822395    0.123874048333    0.000011490020    0.000019439772    0.001204949965    0.108459566908
            0.026156294680    0.126582165049    0.000011490020    0.000019439772    0.038301424604    0.137721801246    0.000013856533    0.000030351283
            0.000011331598    0.000018224755    0.001204949965    0.108459566908    0.000013856533    0.000030351283    0.008426165772    0.122463899833
0.575     0.074558584003    0.130082173420    0.000011785343    0.000007572043    0.055467630183    0.123926126510    0.000016279823    0.000014585551
            0.000011785343    0.000007572043    0.040410785801    0.123573746291    0.000016756204    0.000015707135    0.025912435650    0.112570367467
            0.055467630183    0.123926126510    0.000016756204    0.000015707135    0.071369488825    0.129760774764    0.000022267910    0.000025801636
            0.000016279823    0.000014585551    0.025912435650    0.112570367467    0.000022267910    0.000025801636    0.038174668838    0.122606669773
0.600     0.102927174000    0.112632971904    0.000013627307    0.000003990087    0.082591000484    0.113459210776    0.000020041522    0.000009643463
            0.000013627307    0.000003990087    0.069158649788    0.115000073304    0.000020812215    0.000010653181    0.051020761573    0.109804697132
            0.082591000484    0.113459210776    0.000020812215    0.000010653181    0.100041768975    0.113244768417    0.000029177270    0.000019079220
            0.000020041522    0.000009643463    0.051020761573    0.109804697132    0.000029177270    0.000019079220    0.066916614916    0.114503716299
0.625     0.124881931603    0.088371103277    0.000014426485    0.000000062583    0.105725131917    0.096107332759    0.000022345715    0.000003871243
            0.000014426485    0.000000062583    0.094490810621    0.098758727953    0.000023360387    0.000004591153    0.074613668731    0.100251465452
            0.105725131917    0.096107332759    0.000023360387    0.000004591153    0.122726664949    0.089315212107    0.000034075175    0.000010564247
            0.000022345715    0.000003871243    0.074613668731    0.100251465452    0.000034075175    0.000010564247    0.092387810131    0.098718428064
0.650     0.139466236348    0.058724009451    0.000014161427    -0.000004037501    0.123429074850    0.072702109888    0.000023081882    -0.000002485713
            0.000014161427    -0.000004037501    0.114389370618    0.076042250872    0.000024174220    -0.000002060968    0.094864587227    0.084503534673
            0.123429074850    0.072702109888    0.000024174220    -0.000002060968    0.137612262250    0.059904353713    0.000036526868    0.000000821909
            0.000023081882    -0.000002485713    0.094864587227    0.084503534673    0.000036526868    0.000000821909    0.112568474055    0.076401737761
0.675     0.144836510683    0.025895188216    0.000012748495    -0.000008006930    0.133806835449    0.044935541684    0.000022025209    -0.000008980422
            0.000012748495    -0.000008006930    0.127220910699    0.048539938674    0.000023121262    -0.000008841740    0.110141198567    0.063615284321
            0.133806835449    0.044935541684    0.000023121262    -0.000008841740    0.143417803147    0.027363509360    0.000036229491    -0.000009485994
            0.000022025209    -0.000008980422    0.110141198567    0.063615284321    0.000036229491    -0.000009485994    0.125810954544    0.049203064299
0.700     0.140357878336    -0.007293715275    0.000010233124    -0.000011537450    0.135775386613    0.015026040750    0.000019151383    -0.000015120825
            0.000010233124    -0.000011537450    0.131847410597    0.018330066404    0.000020172010    -0.000015252458    0.119119344723    0.039056342818
            0.135775386613    0.015026040750    0.000020172010    -0.000015252458    0.139498740073    -0.005661557964    0.000033034595    -0.000019613204
            0.000019151383    -0.000015120825    0.119119344723    0.039056342818    0.000033034595    -0.000019613204    0.130949698144    0.019164696358
0.725     0.126174880171    -0.037988686145    0.000006723772    -0.000014327552    0.128843212764    -0.014555070447    0.000014543381    -0.000020405301
            0.000006723772    -0.000014327552    0.127709171968    -0.012241270008    0.000015417014    -0.000020769413    0.120874251558    0.012643014800
            0.128843212739    -0.014555070672    0.000015417014    -0.000020769413    0.125938517100    -0.036371523668    0.000026979033    -0.000028751985
            0.000014543381    -0.000020405301    0.120874251580    0.012643014590    0.000026979033    -0.000028751985    0.127386786287    -0.011397654423
0.750     0.103230487998    -0.063403614596    0.000002411518    -0.000016082361    0.113234483631    -0.041180636620    0.000008420913    -0.000024325845
            0.000002411518    -0.000016082361    0.114896244551    -0.040707824729    0.000009093128    -0.000024868348    0.114991176969    -0.013558134324
            0.113234483631    -0.041180636620    0.000009093128    -0.000024868348    0.103616624306    -0.062002284214    0.000018326473    -0.000036073665
            0.000008420913    -0.000024325845    0.114991176969    -0.013558134324    0.000018326473    -0.000036073665    0.115163910321    -0.040037133627
0.775     0.073290223986    -0.081035658648    -0.000002411991    -0.000016538973    0.089978466176    -0.062268876595    0.000001167944    -0.000026407007
            -0.000002411991    -0.000016538973    0.094188458756    -0.064648445518    0.000001603450    -0.000027066107    0.101642920822    -0.037356439273
            0.089978466176    -0.062268876595    0.000001603450    -0.000027066107    0.074232079091    -0.080051836395    0.000007596992    -0.000040792837
            0.000001167944    -0.000026407007    0.101642920822    -0.037356439273    0.000007596992    -0.000040792837    0.095006177607    -0.064338964042
