# GHz S RI R 45
0.000     0.017590827063    0.001914095181    0.000000436168    0.000000954773    0.000741831498    0.001636719421    0.000000458946    0.000001031688
            0.000000436167    0.000000954772    0.016548702616    0.001908096756    0.000000484846    0.000001040492    0.000677173484    0.001633787986
            0.000741831383    0.001636719473    0.000000484851    0.000001040493    0.017542921220    0.001901710388    0.000000498324    0.000001128067
            0.000000458987    0.000001031688    0.000677173303    0.001633787953    0.000000498313    0.000001128067    0.016510686424    0.001916800001
0.025     0.023200961705    0.010301879949    0.000001219599    0.000001956086    0.003122456045    0.010371158930    0.000001301244    0.000002088720
            0.000001219598    0.000001956079    0.021713421871    0.009399967817    0.000001339751    0.000002179957    0.002857162399    0.009421794505
            0.003120161504    0.010374139535    0.000001339751    0.000002179962    0.023127283713    0.010251989275    0.000001413119    0.000002268087
            0.000001301245    0.000002088719    0.002855921968    0.009421591163    0.000001413122    0.000002268090    0.021648621496    0.009361914958
0.050     0.031433969490    0.014887917783    0.000002973256    0.000003033819    0.009732959682    0.018650471730    0.000003184541    0.000003233633
            0.000002973256    0.000003033819    0.029448811032    0.013580233673    0.000003246386    0.000003401070    0.008967993269    0.017009353774
            0.009732932341    0.018650507430    0.000003246386    0.000003401070    0.031329063820    0.014786040759    0.000003461298    0.000003512864
            0.000003184541    0.000003233633    0.008967989155    0.017009358204    0.000003461298    0.000003512864    0.029395737458    0.013530350343
0.075     0.041199323554    0.015251024518    0.000005234513    0.000003117334    0.019267879631    0.023340993284    0.000005616363    0.000003315422
            0.000005234513    0.000003117334    0.038792025114    0.013959656915    0.000005703673    0.000003546847    0.017902452743    0.021424543218
            0.019267873062    0.023340996113    0.000005703673    0.000003546847    0.041056788006    0.015131819982    0.000006108401    0.000003604690
            0.000005616363    0.000003315422    0.017902409945    0.021424512519    0.000006108401    0.000003604690    0.038763296277    0.013888066906
0.100     0.050992170058    0.010897283973    0.000007587048    0.000002076239    0.030086975586    0.023586038635    0.000008153871    0.000002192079
            0.000007587048    0.000002076239    0.048490443590    0.010023617623    0.000008264691    0.000002477785    0.028280832690    0.021847456953
            0.030086975175    0.023586039160    0.000008264691    0.000002477785    0.050819250528    0.010785629989    0.000008876756    0.000002389867
            0.000008153871    0.000002192079    0.028280832690    0.021847456953    0.000008876756    0.000002389867    0.048501685575    0.009926349622
0.125     0.058842813755    0.001888790063    0.000009567349    -0.000000087956    0.040365802602    0.019159058458    0.000010302314    -0.000000139373
            0.000009567349    -0.000000087956    0.056858533922    0.001632606459    0.000010432111    0.000000192704    0.038539222607    0.017964571615
            0.040365802602    0.019159058458    0.000010432111    0.000000192704    0.058660238108    0.001794537900    0.000011233102    -0.000000138622
            0.000010302314    -0.000000139373    0.038539222607    0.017964571615    0.000011233102    -0.000000138622    0.056928200051    0.001488170573
0.150     0.063130998957    -0.010856081141    0.000010744442    -0.000003182715    0.048320156263    0.010461986363    0.000011599254    -0.000003477602
            0.000010744442    -0.000003182715    0.062359921189    -0.010475621325    0.000011740914    -0.000003103537    0.047106485975    0.009961902696
            0.048320156263    0.010461986363    0.000011740914    -0.000003103537    0.062973678049    -0.010913236515    0.000012676002    -0.000003766631
            0.000011599254    -0.000003477602    0.047106485975    0.009961902696    0.000012676002    -0.000003766631    0.062505374929    -0.010674063295
0.175     0.062362305819    -0.025926449957    0.000010772648    -0.000006886880    0.052387075789    -0.001469212141    0.000011671349    -0.000007483732
            0.000010772648    -0.000006886880    0.063628384296    -0.025284791045    0.000011817521    -0.000007069024    0.052535456084    -0.001426188373
            0.052387075789    -0.001469212141    0.000011817521    -0.000007069024    0.062269894095    -0.025953362230    0.000012799593    -0.000008132600
            0.000011671349    -0.000007483732    0.052535456084    -0.001426188373    0.000012799593    -0.000008132600    0.063863209839    -0.025563700810
0.200     0.055667145068    -0.041391648961    0.000009433827    -0.000010766468    0.051445027246    -0.015083118291    0.000010280035    -0.000011697195
            0.000009433827    -0.000010766468    0.059689977542    -0.041285872893    0.000010423478    -0.000011240513    0.053691198041    -0.015008088280
            0.051445027246    -0.015083118291    0.000010423478    -0.000011240513    0.055676760350    -0.041416771873    0.000011341244    -0.000012743137
            0.000010280035    -0.000011697195    0.053691198041    -0.015008088280    0.000011341244    -0.000012743137    0.060018617381    -0.041682093167
0.225     0.042892528993    -0.055055266189    0.000006663257    -0.000014321712    0.044958125024    -0.028480093100    0.000007348640    -0.000015584933
            0.000006663257    -0.000014321712    0.050106580261    -0.056656503014    0.000007482854    -0.000015082857    0.049872047662    -0.029251009987
            0.044958125024    -0.028480093100    0.000007482854    -0.000015082857    0.043029566423    -0.055126253579    0.000008210598    -0.000017025022
            0.000007348640    -0.000015584933    0.049872047662    -0.029251009987    0.000008210598    -0.000017025022    0.050520722314    -0.057213323205
0.250     0.024690702523    -0.064711678492    0.000002574881    -0.000017038835    0.033085157526    -0.039625253300    0.000002991048    -0.000018596637
            0.000002574881    -0.000017038835    0.035088490041    -0.069459803870    0.000003110457    -0.000018043995    0.040911893366    -0.042434175762
            0.033085157526    -0.039625253300    0.000003110457    -0.000018043995    0.024961761929    -0.064889791278    0.000003521599    -0.000020384196
            0.000002991048    -0.000018596637    0.040911893366    -0.042434175762    0.000003521599    -0.000020384196    0.035563585082    -0.070221695258
0.275     0.002486661680    -0.068418619291    -0.000002539287    -0.000018447591    0.016707979591    -0.046583934316    -0.000002488782    -0.000020225727
            -0.000002539287    -0.000018447591    0.015489139916    -0.077862708813    -0.000002389124    -0.000019615283    0.027220733778    -0.052818748788
            0.016707979591    -0.046583934316    -0.000002389124    -0.000019615283    0.002872999807    -0.068771293727    -0.000002408206    -0.000022270103
            -0.000002488782    -0.000020225727    0.027220733778    -0.052818748788    -0.000002408206    -0.000022270103    0.015983403335    -0.078869324389
0.300     -0.021616248391    -0.064783418306    -0.000008221034    -0.000018188363    -0.002615451727    -0.047788030329    -0.000008608658    -0.000020080800
            -0.000008221034    -0.000018188363    -0.007230857182    -0.080357821912    -0.000008532300    -0.000019403196    0.009781293539    -0.058847022573
            -0.002615451727    -0.047788030329    -0.000008532300    -0.000019403196    -0.021162106250    -0.065373795624    -0.000009068406    -0.000022252341
            -0.000008608658    -0.000020080800    0.009781293539    -0.058847022573    -0.000009068406    -0.000022252341    -0.006776731283    -0.081637534656
0.325     -0.045054511687    -0.053185103431    -0.000013887760    -0.000016068515    -0.022797669121    -0.042267079704    -0.000014751679    -0.000017945867
            -0.000013887760    -0.000016068515    -0.031137657279    -0.075945011460    -0.000014700385    -0.000017189303    -0.009925428915    -0.059318740555
            -0.022797669121    -0.042267079704    -0.000014700385    -0.000017189303    -0.044606496775    -0.054060102595    -0.000015801684    -0.000020084766
            -0.000014751679    -0.000017945867    -0.009925428915    -0.059318740555    -0.000015801684    -0.000020084766    -0.030796504695    -0.077507958180
0.350     -0.065101806490    -0.033942801156    -0.000018898945    -0.000012113558    -0.041465493529    -0.029837953276    -0.000020235922    -0.000013834887
            -0.000018898945    -0.000012113558    -0.054003357738    -0.064293081967    -0.000020208174    -0.000012985125    -0.030056115876    -0.053561033273
            -0.041465493529    -0.029837953276    -0.000020208174    -0.000012985125    -0.064754813566    -0.035122156383    -0.000021875855    -0.000015764837
            -0.000020235922    -0.000013834887    -0.030056115876    -0.053561033273    -0.000021875855    -0.000015764837    -0.053855916222    -0.066124922700
0.375     -0.079222145630    -0.008333684744    -0.000022640703    -0.000006579605    -0.056261489572    -0.011175090601    -0.000024403323    -0.000008006365
            -0.000022640703    -0.000006579605    -0.073538711619    -0.045807426528    -0.000024393194    -0.000007047648    -0.048590403425    -0.041526635203
            -0.056261489572    -0.011175090601    -0.000024393194    -0.000007047648    -0.079080588746    -0.009801473232    -0.000026577864    -0.000009550661
            -0.000024403323    -0.000008006365    -0.048590403425    -0.041526635203    -0.000026577864    -0.000009550661    -0.073665378111    -0.047865657711
0.400     -0.085428611302    0.021512544644    -0.000024620395    0.000000064246    -0.065177960828    0.012236747464    -0.000026719026    -0.000000945842
            -0.000024620395    0.000000064246    -0.087652407186    -0.021636878494    -0.000026715512    0.000000137067    -0.063561293188    -0.023837831933
            -0.065177960828    0.012236747464    -0.000026715512    0.000000137067    -0.085593121016    0.019811843187    -0.000029318895    -0.000001945575
            -0.000026719026    -0.000000945842    -0.063561293188    -0.023837831933    -0.000029318895    -0.000001945575    -0.088123126569    -0.023849746381
0.425     -0.082560765780    0.052870921105    -0.000024539210    0.000007198437    -0.066824167982    0.038289707863    -0.000026848231    0.000006698879
            -0.000024539210    0.000007198437    -0.094686914771    0.006430119504    -0.000026836608    0.000007916667    -0.073269251613    -0.001732085112
            -0.066824167982    0.038289707863    -0.000026836608    0.000007916667    -0.083112580132    0.051031293990    -0.000029717445    0.000006367624
            -0.000026848231    0.000006698879    -0.073269251613    -0.001732085112    -0.000029717445    0.000006367624    -0.095551227885    0.004161363739
0.450     -0.070452052596    0.082765281205    -0.000022337662    0.000014133324    -0.060613636162    0.064530759378    -0.000024705292    0.000014202748
            -0.000022337662    0.000014133324    -0.093621688745    0.036139608476    -0.000024669799    0.000015551178    -0.076486441994    0.023060940341
            -0.060613636162    0.064530759378    -0.000024669799    0.000015551178    -0.071438876739    0.080913450545    -0.000027654426    0.000014612239
            -0.000024705292    0.000014202748    -0.076486441994    0.023060940341    -0.000027654426    0.000014612239    -0.094899186190    0.033936976232
0.475     -0.049929622652    0.108337252749    -0.000018162969    0.000020198102    -0.046798416009    0.088473250212    -0.000020430444    0.000020858360
            -0.000018162969    0.000020198102    -0.084181920457    0.065008891181    -0.000020331807    0.000022307435    -0.072575679624    0.048507206573
            -0.046798416009    0.088473250212    -0.000020331807    0.000022307435    -0.051353072532    0.106627021461    -0.000023241940    0.000022016939
            -0.000020430444    0.000020858360    -0.072575679624    0.048507206573    -0.000023241940    0.000022016939    -0.085856072665    0.063014347551
0.500     -0.022688061301    0.127178476562    -0.000012345768    0.000024889255    -0.026394759704    0.107899514462    -0.000014358805    0.000026111380
            -0.000012345768    0.000024889255    -0.066872956163    0.090584425658    -0.000014139671    0.000027661297    -0.061554789787    0.072497098326
            -0.026394759704    0.107899514462    -0.000014139671    0.000027661297    -0.024486346084    0.125802517430    -0.000016802986    0.000027988372
            -0.000014358805    0.000026111380    -0.061554789787    0.072497098326    -0.000016802986    0.000027988372    -0.068886080306    0.088979282631
0.525     0.008946692772    0.137557301699    -0.000005404748    0.000027836742    -0.000964324268    0.121168522755    -0.000006997872    0.000029583961
            -0.000005404748    0.000027836742    -0.042908325493    0.110678407536    -0.000006646500    0.000031231664    -0.044061128485    0.093164477403
            -0.000964324268    0.121168522755    -0.000006646500    0.000031231664    0.006945699413    0.136962616634    -0.000008866210    0.000032137039
            -0.000006997872    0.000029583961    -0.044061128485    0.093164477403    -0.000008866210    0.000032137039    -0.045208796507    0.109907600993
0.550     0.042303895589    0.138586243858    0.000002116679    0.000028828052    0.026156294680    0.126582165049    0.000000780179    0.000030857112
            0.000002116679    0.000028828052    -0.014083810524    0.123590213089    0.000001263728    0.000032570731    -0.022317714485    0.107771387568
            0.026156294680    0.126582165049    0.000001263728    0.000032570731    0.038301424604    0.137721801246    -0.000000689242    0.000033754017
            0.000000780179    0.000030857112    -0.022317714485    0.107771387568    -0.000000689242    0.000033754017    -0.017907777172    0.121880630330
0.575     0.074558584003    0.130082173420    0.000009662143    0.000027776703    0.055467630183    0.123926126510    0.000009065012    0.000030007084
            0.000009662143    0.000027776703    0.017420178654    0.128125563659    0.000009678505    0.000031750632    0.004513215753    0.116426556591
            0.055467630183    0.123926126510    0.000009678505    0.000031750632    0.071369488825    0.129760774764    0.000008560776    0.000033152217
            0.000009065012    0.000030007084    0.004513215753    0.116426556591    0.000008560776    0.000033152217    0.014446925301    0.127285509415
0.600     0.102927174000    0.112632971904    0.000016684636    0.000024734538    0.082591000484    0.113459210776    0.000016794087    0.000027069338
            0.000016684636    0.000024734538    0.049104230040    0.123658095433    0.000017522294    0.000028809869    0.032466722446    0.117646166869
            0.082591000484    0.113459210776    0.000017522294    0.000028809869    0.100041768975    0.113244768417    0.000017202235    0.000030311732
            0.000016794087    0.000027069338    0.032466722446    0.117646166869    0.000017202235    0.000030311732    0.046342304145    0.123771411029
0.625     0.124881931603    0.088371103277    0.000022677784    0.000020122660    0.105725131917    0.096107332759    0.000023539784    0.000022304224
            0.000022677784    0.000020122660    0.078047362079    0.111031238569    0.000024358498    0.000024015868    0.059728154556    0.111546214656
            0.105725131917    0.096107332759    0.000024358498    0.000024015868    0.122726664949    0.089315212107    0.000024905665    0.000025315437
            0.000023539784    0.000022304224    0.059728154556    0.111546214656    0.000024905665    0.000025315437    0.076133166217    0.111642944609
0.650     0.139466236348    0.058724009451    0.000027530159    0.000014039904    0.123429074850    0.072702109888    0.000029034309    0.000015893288
            0.000027530159    0.000014039904    0.103061648841    0.091029696165    0.000029910664    0.000017560355    0.084886427798    0.098263705261
            0.123429074850    0.072702109888    0.000029910664    0.000017560355    0.137612262250    0.059904353713    0.000031196681    0.000018441204
            0.000029034309    0.000015893288    0.084886427798    0.098263705261    0.000031196681    0.000018441204    0.101608273751    0.091782981781
0.675     0.144836510683    0.025895188216    0.000030739732    0.000006767050    0.133806835449    0.044935541684    0.000032815299    0.000008144113
            0.000030739732    0.000006767050    0.121782147430    0.064687057310    0.000033713431    0.000009764905    0.105757778723    0.078455529935
            0.133806835449    0.044935541684    0.000033713431    0.000009764905    0.143417803147    0.027363509360    0.000035655119    0.000010050083
            0.000032815299    0.000008144113    0.105757778723    0.078455529935    0.000035655119    0.000010050083    0.120832191566    0.065613512234
0.700     0.140357878336    -0.007293715275    0.000032038853    -0.000001255727    0.135775386613    0.015026040750    0.000034572827    -0.000000506198
            0.000032038853    -0.000001255727    0.132654231112    0.034027004076    0.000035459491    0.000001080670    0.120692100613    0.053502773267
            0.135775386613    0.015026040750    0.000035459491    0.000001080670    0.139498740073    -0.005661557964    0.000037924314    0.000000589202
            0.000034572827    -0.000000506198    0.120692100613    0.053502773267    0.000037924314    0.000000589202    0.132297231112    0.035011548621
0.725     0.126174880171    -0.037988686145    0.000031241256    -0.000009556499    0.128843212764    -0.014555070447    0.000034075864    -0.000009561122
            0.000031241256    -0.000009556499    0.134747816759    0.001323872153    0.000034925748    -0.000007983996    0.128435961591    0.025129630248
            0.128843212739    -0.014555070672    0.000034925748    -0.000007983996    0.125938517100    -0.036371523668    0.000037727780    -0.000009404045
            0.000034075864    -0.000009561122    0.128435961591    0.025129630248    0.000037727780    -0.000009404045    0.135026746818    0.002199508664
0.750     0.103230487998    -0.063403614596    0.000028256636    -0.000017601671    0.113234483631    -0.041180636620    0.000031196773    -0.000018447267
            0.000028256636    -0.000017601671    0.127756383863    -0.030974592555    0.000031996674    -0.000016848093    0.128215374226    -0.004638742128
            0.113234483631    -0.041180636620    0.000031996674    -0.000016848093    0.103616624306    -0.062002284214    0.000034905434    -0.000019301539
            0.000031196773    -0.000018447267    0.128215374226    -0.004638742128    0.000034905434    -0.000019301539    0.128659873842    -0.030393373094
0.775     0.073290223986    -0.081035658648    0.000023124185    -0.000024802351    0.089978466176    -0.062268876595    0.000025947264    -0.000026523575
            0.000023124185    -0.000024802351    0.112037645902    -0.060389453389    0.000026698246    -0.000024868965    0.119807022491    -0.033586894231
            0.089978466176    -0.062268876595    0.000026698246    -0.000024868965    0.074232079091    -0.080051836395    0.000029450472    -0.000028398763
            0.000025947264    -0.000026523575    0.119807022491    -0.033586894231    0.000029450472    -0.000028398763    0.113497491042    -0.060287576018
