# GHz S RI R 45
0.000     0.017590827063    0.001914095181    -0.000000014553    -0.000000095883    0.000741831498    0.001636719421    -0.000000017622    -0.000000099861
            -0.000000014553    -0.000000095883    0.016019480664    0.001561392733    -0.000000000722    -0.000000073663    0.000598759554    0.001388810236
            0.000741831383    0.001636719473    -0.000000000722    -0.000000073663    0.017542921220    0.001901710388    -0.000000003767    -0.000000077850
            -0.000000017622    -0.000000099861    0.000598759360    0.001388810320    -0.000000003767    -0.000000077850    0.015985870437    0.001545308042
0.025     0.023200961705    0.010301879949    -0.000000086730    -0.000000206278    0.003122456045    0.010371158930    -0.000000094142    -0.000000215895
            -0.000000086730    -0.000000206279    0.020975334882    0.008399991769    -0.000000051338    -0.000000165216    0.002577221970    0.008596710154
            0.003120161504    0.010374139535    -0.000000051338    -0.000000165216    0.023127283713    0.010251989275    -0.000000058558    -0.000000174555
            -0.000000094142    -0.000000215895    0.002577523497    0.008595939492    -0.000000058558    -0.000000174557    0.020908127616    0.008334079876
0.050     0.031433969490    0.014887917783    -0.000000264079    -0.000000331488    0.009732959682    0.018650471730    -0.000000280210    -0.000000345879
            -0.000000264079    -0.000000331488    0.028052042150    0.011998566946    -0.000000188325    -0.000000277341    0.008149808293    0.015572727089
            0.009732932341    0.018650507430    -0.000000188325    -0.000000277341    0.031329063820    0.014786040759    -0.000000204176    -0.000000291142
            -0.000000280210    -0.000000345879    0.008149835073    0.015572718718    -0.000000204176    -0.000000291142    0.027952553459    0.011917246163
0.075     0.041199323554    0.015251024518    -0.000000499181    -0.000000361013    0.019267879631    0.023340993284    -0.000000525928    -0.000000375352
            -0.000000499181    -0.000000361013    0.036649034042    0.012194146715    -0.000000378893    -0.000000316353    0.016357055876    0.019712760586
            0.019267873062    0.023340996113    -0.000000378893    -0.000000316353    0.041056788006    0.015131819982    -0.000000405175    -0.000000329800
            -0.000000525928    -0.000000375352    0.016357051698    0.019712765352    -0.000000405175    -0.000000329800    0.036521323226    0.012106729616
0.100     0.050992170058    0.010897283973    -0.000000755310    -0.000000277890    0.030086975586    0.023586038635    -0.000000792901    -0.000000287255
            -0.000000755310    -0.000000277890    0.045665969126    0.008480343539    -0.000000594003    -0.000000264552    0.025982327395    0.020257211408
            0.030086975175    0.023586039160    -0.000000594003    -0.000000264552    0.050819250528    0.010785629989    -0.000000630817    -0.000000272841
            -0.000000792901    -0.000000287255    0.025982328183    0.020257212023    -0.000000630817    -0.000000272841    0.045520414831    0.008409100025
0.125     0.058842813755    0.001888790063    -0.000000987439    -0.000000076601    0.040365802602    0.019159058458    -0.000001034268    -0.000000076127
            -0.000000987439    -0.000000076601    0.053569086565    0.000702147081    -0.000000796835    -0.000000114242    0.035643863649    0.016888850893
            0.040365802602    0.019159058458    -0.000000796835    -0.000000114242    0.058660238108    0.001794537900    -0.000000842660    -0.000000112633
            -0.000001034268    -0.000000076127    0.035643862451    0.016888851087    -0.000000842660    -0.000000112633    0.053430831433    0.000676348145
0.150     0.063130998957    -0.010856081141    -0.000001150014    0.000000231336    0.048320156263    0.010461986363    -0.000001202877    0.000000245782
            -0.000001150014    0.000000231336    0.059067430106    -0.010567155146    -0.000000949182    0.000000127990    0.043935783110    0.009715295202
            0.048320156263    0.010461986363    -0.000000949182    0.000000127990    0.062973678049    -0.010913236515    -0.000001000709    0.000000143438
            -0.000001202877    0.000000245782    0.043935783110    0.009715295202    -0.000001000709    0.000000143438    0.058965616681    -0.010543987259
0.175     0.062362305819    -0.025926449957    -0.000001203305    0.000000618737    0.052387075789    -0.001469212141    -0.000001257529    0.000000650147
            -0.000001203305    0.000000618737    0.060827050523    -0.024469708520    -0.000001016582    0.000000442598    0.049542698175    -0.000665964627
            0.052387075789    -0.001469212141    -0.000001016582    0.000000442598    0.062269894095    -0.025953362230    -0.000001069288    0.000000474653
            -0.000001257529    0.000000650147    0.049542698176    -0.000665964610    -0.000001069288    0.000000474653    0.060803525468    -0.024400751126
0.200     0.055667145068    -0.041391648961    -0.000001117974    0.000001045197    0.051445027246    -0.015083118291    -0.000001167862    0.000001094998
            -0.000001117974    0.000001045197    0.057913886812    -0.039679664545    -0.000000971917    0.000000798098    0.051405670355    -0.013246634470
            0.051445027246    -0.015083118291    -0.000000971917    0.000000798098    0.055676760350    -0.041416771873    -0.000001020390    0.000000848094
            -0.000001167862    0.000001094998    0.051405670355    -0.013246634470    -0.000001020390    0.000000848094    0.058012754820    -0.039585947248
0.225     0.042892528993    -0.055055266189    -0.000000879284    0.000001460913    0.044958125024    -0.028480093100    -0.000000918609    0.000001528698
            -0.000000879284    0.000001460913    0.049866537605    -0.054590720890    -0.000000799924    0.000001154012    0.048830075515    -0.026704200539
            0.044958125024    -0.028480093100    -0.000000799924    0.000001154012    0.043029566423    -0.055126253579    -0.000000838235    0.000001221620
            -0.000000918609    0.000001528698    0.048830076393    -0.026704201018    -0.000000838235    0.000001221620    0.050125112188    -0.054512290262
0.250     0.024690702523    -0.064711678492    -0.000000490175    0.000001811283    0.033085157526    -0.039625253300    -0.000000512660    0.000001894633
            -0.000000490175    0.000001811283    0.036782836561    -0.067478454587    -0.000000499860    0.000001464752    0.041578158636    -0.039530216214
            0.033085157526    -0.039625253300    -0.000000499860    0.000001464752    0.024961761929    -0.064889791278    -0.000000521927    0.000001547787
            -0.000000512660    0.000001894633    0.041578158636    -0.039530216214    -0.000000521927    0.000001547787    0.037224589607    -0.067470548003
0.275     0.002486661680    -0.068418619291    0.000000027378    0.000002043772    0.016707979591    -0.046583934316    0.000000027480    0.000002138178
            0.000000027378    0.000002043772    0.019320310332    -0.076680213566    -0.000000087272    0.000001685679    0.029908617418    -0.050174249109
            0.016707979591    -0.046583934316    -0.000000087272    0.000001685679    0.002872999807    -0.068771293727    -0.000000087465    0.000001779910
            0.000000027480    0.000002138178    0.029908617418    -0.050174249109    -0.000000087465    0.000001779910    0.019949586182    -0.076808659383
0.300     -0.021616248391    -0.064783418306    0.000000633140    0.000002113946    -0.002615451727    -0.047788030329    0.000000660282    0.000002212876
            0.000000633140    0.000002113946    -0.001324234094    -0.080784211148    0.000000406880    0.000001778136    0.014579730878    -0.057211345478
            -0.002615451727    -0.047788030329    0.000000406880    0.000001778136    -0.021162106250    -0.065373795624    0.000000433111    0.000001877278
            0.000000660282    0.000002212876    0.014579730878    -0.057211345478    0.000000433111    0.000001877278    -0.000526510706    -0.081119124336
0.325     -0.045054511687    -0.053185103431    0.000001272291    0.000001992572    -0.022797669121    -0.042267079704    0.000001329080    0.000002087752
            0.000001272291    0.000001992572    -0.023519453691    -0.078787244485    0.000000939095    0.000001715708    -0.003205209868    -0.059491479359
            -0.022797669121    -0.042267079704    0.000000939095    0.000001715708    -0.044606496775    -0.054060102595    0.000000994373    0.000001811679
            0.000001329080    0.000002087752    -0.003205209868    -0.059491479359    0.000000994373    0.000001811679    -0.022597498583    -0.079393924621
0.350     -0.065101806490    -0.033942801156    0.000001880969    0.000001669692    -0.041465493529    -0.029837953276    0.000001967263    0.000001751759
            0.000001880969    0.000001669692    -0.045340366012    -0.070238814807    0.000001457883    0.000001487256    -0.021901000916    -0.056284564413
            -0.041465493529    -0.029837953276    0.000001457883    0.000001487256    -0.064754813566    -0.035122156383    0.000001542172    0.000001570801
            0.000001967263    0.000001751759    -0.021901000916    -0.056284564413    0.000001542172    0.000001570801    -0.044361831355    -0.071169384859
0.375     -0.079222145630    -0.008333684744    0.000002394029    0.000001157448    -0.056261489572    -0.011175090601    0.000002506641    0.000001216845
            0.000002394029    0.000001157448    -0.064756349026    -0.055310079002    0.000001910209    0.000001099581    -0.039763911198    -0.047372527812
            -0.056261489572    -0.011175090601    0.000001910209    0.000001099581    -0.079080588746    -0.009801473232    0.000002020339    0.000001161160
            0.000002506641    0.000001216845    -0.039763911198    -0.047372527812    0.000002020339    0.000001161160    -0.063808087917    -0.056594539205
0.400     -0.085428611302    0.021512544644    0.000002751657    0.000000488747    -0.065177960828    0.012236747464    0.000002884274    0.000000516879
            0.000002751657    0.000000488747    -0.079842726939    -0.034818275640    0.000002246391    0.000000575827    -0.055033511637    -0.033102685256
            -0.065177960828    0.012236747464    0.000002246391    0.000000575827    -0.085593121016    0.019811843187    0.000002375848    0.000000606951
            0.000002884274    0.000000516879    -0.055033511637    -0.033102685256    0.000002375848    0.000000606951    -0.079022505502    -0.036457939346
0.425     -0.082560765780    0.052870921105    0.000002906111    -0.000000286908    -0.066824167982    0.038289707863    0.000003049901    -0.000000296362
            0.000002906111    -0.000000286908    -0.088980885254    -0.010163247070    0.000002425317    -0.000000047599    -0.066108582535    -0.014366363616
            -0.066824167982    0.038289707863    0.000002425317    -0.000000047599    -0.083112580132    0.051031293990    0.000002564804    -0.000000053289
            0.000003049901    -0.000000296362    -0.066108582535    -0.014366363616    0.000002564804    -0.000000053289    -0.088387823180    -0.012126736982
0.450     -0.070452052596    0.082765281205    0.000002825338    -0.000001113998    -0.060613636162    0.064530759378    0.000002970074    -0.000001163431
            0.000002825338    -0.000001113998    -0.091041187488    0.016793080523    0.000002416480    -0.000000730847    -0.071725338646    0.007475156570
            -0.060613636162    0.064530759378    0.000002416480    -0.000000730847    -0.071438876739    0.080913450545    0.000002555014    -0.000000776267
            0.000002970074    -0.000001163431    -0.071725338646    0.007475156570    0.000002555014    -0.000000776267    -0.090764050330    0.014569697739
0.475     -0.049929622652    0.108337252749    0.000002515596    -0.000001939710    -0.046798416009    0.088473250212    0.000002648610    -0.000002025736
            0.000002515596    -0.000001939710    -0.085501117221    0.043903676436    0.000002223990    -0.000001438204    -0.071080161785    0.030721492698
            -0.046798416009    0.088473250212    0.000002223990    -0.000001438204    -0.051353072532    0.106627021461    0.000002349820    -0.000001521535
            0.000002648610    -0.000002025736    -0.071080161785    0.030721492698    0.000002349820    -0.000001521535    -0.085608757099    0.041513408978
0.500     -0.022688061301    0.127178476562    0.000002006507    -0.000002669791    -0.026394759704    0.107899514462    0.000002112992    -0.000002788755
            0.000002006504    -0.000002669792    -0.072509238760    0.068943754073    0.000001869778    -0.000002086961    -0.063918860035    0.053498924743
            -0.026394759704    0.107899514462    0.000001869779    -0.000002086965    -0.024486346084    0.125802517430    0.000001970627    -0.000002203289
            0.000002112992    -0.000002788755    -0.063918860035    0.053498924743    0.000001970627    -0.000002203289    -0.073041732755    0.066502232920
0.525     0.008946692772    0.137557301699    0.000001299163    -0.000003235693    -0.000964324268    0.121168522755    0.000001369839    -0.000003381929
            0.000001299163    -0.000003235693    -0.052866958369    0.089819098745    0.000001337980    -0.000002624105    -0.050547416769    0.073931981770
            -0.000964324268    0.121168522755    0.000001337980    -0.000002624105    0.006945699413    0.136962616634    0.000001404402    -0.000002766233
            0.000001369839    -0.000003381929    -0.050547416769    0.073931981770    0.000001404402    -0.000002766233    -0.053831249826    0.087454004089
0.550     0.042303895589    0.138586243858    0.000000432902    -0.000003599193    0.026156294680    0.126582165049    0.000000461606    -0.000003763117
            0.000000432904    -0.000003599191    -0.027954197086    0.104761163107    0.000000686753    -0.000002991558    -0.031804318070    0.090319092712
            0.026156294680    0.126582165049    0.000000686752    -0.000002991561    0.038301424604    0.137721801246    0.000000714136    -0.000003148375
            0.000000461606    -0.000003763117    -0.031804318070    0.090319092712    0.000000714136    -0.000003148375    -0.029321709124    0.102599854115
0.575     0.074558584003    0.130082173420    -0.000000534638    -0.000003723932    0.055467630183    0.123926126510    -0.000000551040    -0.000003893870
            -0.000000534638    -0.000003723932    0.000398680857    0.112473213405    -0.000000121150    -0.000003192366    -0.008973913710    0.101265343274
            0.055467630183    0.123926126510    -0.000000121150    -0.000003192366    0.071369488825    0.129760774764    -0.000000137669    -0.000003353242
            -0.000000551040    -0.000003893870    -0.008973913710    0.101265343274    -0.000000137669    -0.000003353242    -0.001307963589    0.110629138271
0.600     0.102927174000    0.112632971904    -0.000001537386    -0.000003583681    0.082591000484    0.113459210776    -0.000001598826    -0.000003747359
            -0.000001537386    -0.000003583681    0.030071169040    0.112233978821    -0.000000976121    -0.000003185091    0.016322588787    0.105798126072
            0.082591000484    0.113459210776    -0.000000976121    -0.000003185091    0.100041768975    0.113244768417    -0.000001035349    -0.000003338583
            -0.000001598826    -0.000003747359    0.016322588787    0.105798126072    -0.000001035349    -0.000003338583    0.028123502764    0.110795358661
0.625     0.124881931603    0.088371103277    -0.000002499764    -0.000003180005    0.105725131917    0.096107332759    -0.000002603010    -0.000003326210
            -0.000002499764    -0.000003180005    0.058826154119    0.103937027964    -0.000001836697    -0.000002948942    0.042258348852    0.103420967250
            0.105725131917    0.096107332759    -0.000001836697    -0.000002948942    0.122726664949    0.089315212107    -0.000001935315    -0.000003084217
            -0.000002603010    -0.000003326210    0.042258348852    0.103420967250    -0.000001935315    -0.000003084217    0.056765591131    0.102961022610
0.650     0.139466236348    0.058724009451    -0.000003365998    -0.000002515516    0.123429074850    0.072702109888    -0.000003506145    -0.000002633900
            -0.000003365998    -0.000002515516    0.084489955393    0.088090977080    -0.000002643178    -0.000002478460    0.066940816031    0.094152000881
            0.123429074850    0.072702109888    -0.000002643178    -0.000002478460    0.137612262250    0.059904353713    -0.000002775614    -0.000002586086
            -0.000003506145    -0.000002633900    0.066940816031    0.094152000881    -0.000002775614    -0.000002586086    0.082462701849    0.087599128277
0.675     0.144836510683    0.025895188216    -0.000004057297    -0.000001609888    0.133806835449    0.044935541684    -0.000004226836    -0.000001691499
            -0.000004057297    -0.000001609888    0.105108367486    0.065771913530    -0.000003332381    -0.000001783291    0.088540929227    0.078509489730
            0.133806835449    0.044935541684    -0.000003332381    -0.000001783291    0.143417803147    0.027363509360    -0.000003491193    -0.000001855639
            -0.000004226836    -0.000001691499    0.088540929227    0.078509489730    -0.000003491193    -0.000001855639    0.103266854446    0.065746582974
0.700     0.140357878336    -0.007293715275    -0.000004505241    -0.000000508734    0.135775386613    0.015026040750    -0.000004694869    -0.000000546652
            -0.000004505241    -0.000000508734    0.119089363575    0.038542739640    -0.000003839500    -0.000000889910    0.105427274037    0.057484826077
            0.135775386613    0.015026040750    -0.000003839500    -0.000000889910    0.139498740073    -0.005661557964    -0.000004016047    -0.000000921032
            -0.000004694869    -0.000000546652    0.105427274037    0.057484826077    -0.000004016047    -0.000000921032    0.117579740220    0.038924990566
0.725     0.126174880171    -0.037988686145    -0.000004652173    0.000000723990    0.128843212764    -0.014555070447    -0.000004851204    0.000000734707
            -0.000004652173    0.000000723990    0.125311341216    0.008342323047    -0.000004104696    0.000000155467    0.116268940166    0.032475176239
            0.128843212739    -0.014555070672    -0.000004104696    0.000000155467    0.125938517100    -0.036371523668    -0.000004289188    0.000000169762
            -0.000004851204    0.000000734707    0.116268940166    0.032475176239    -0.000004289188    0.000000169762    0.124261234169    0.009033105606
0.750     0.103230487998    -0.063403614596    -0.000004455195    0.000002005253    0.113234483631    -0.041180636620    -0.000004651700    0.000002067199
            -0.000004455195    0.000002005253    0.123208976541    -0.022650286620    -0.000004078040    0.000001286477    0.120146542648    0.005199554866
            0.113234483631    -0.041180636620    -0.000004078040    0.000001286477    0.103616624306    -0.062002284214    -0.000004259651    0.000001348373
            -0.000004651700    0.000002067199    0.120146542648    0.005199554866    -0.000004259651    0.000001348373    0.122716492279    -0.021784871941
0.775     0.073290223986    -0.081035658648    -0.000003895187    0.000003236160    0.089978466176    -0.062268876595    -0.000004076202    0.000003349443
            -0.000003895187    0.000003236160    0.112819796036    -0.052164185331    -0.000003728991    0.000002418599    0.116618100024    -0.022411074290
            0.089978466176    -0.062268876595    -0.000003728991    0.000002418599    0.074232079091    -0.080051836395    -0.000003895983    0.000002528128
