# GHz S RI R 45
0.000     0.017590827063    0.001914095181    0.000000590687    0.000001157265    0.000741831498    0.001636719421    0.000000665147    0.000001288495
            0.000000590687    0.000001157265    0.016932854571    0.001741115155    0.000000673577    0.000001292564    0.000681301594    0.001468191397
            0.000741831383    0.001636719473    0.000000673576    0.000001292564    0.017542921220    0.001901710388    0.000000764286    0.000001451620
            0.000000665149    0.000001288495    0.000681302284    0.001468191407    0.000000764297    0.000001451620    0.016845945571    0.001755701861
0.025     0.023200961705    0.010301879949    0.000001583740    0.000002299046    0.003122456045    0.010371158930    0.000001771048    0.000002561361
            0.000001583740    0.000002299046    0.022000090554    0.009211856388    0.000001783698    0.000002567881    0.002788700136    0.009313567491
            0.003120161504    0.010374139535    0.000001783699    0.000002567882    0.023127283713    0.010251989275    0.000002011406    0.000002884957
            0.000001771048    0.000002561360    0.002786272192    0.009312072101    0.000002011409    0.000002884961    0.021931672752    0.009223158723
0.050     0.031433969490    0.014887917783    0.000003724767    0.000003428937    0.009732959682    0.018650471730    0.000004152113    0.000003820893
            0.000003724767    0.000003428937    0.029472919973    0.013251117838    0.000004170841    0.000003828646    0.008672573783    0.016858774473
            0.009732932341    0.018650507430    0.000004170841    0.000003828646    0.031329063820    0.014786040759    0.000004688731    0.000004301828
            0.000004152113    0.000003820893    0.008672553386    0.016858768098    0.000004688731    0.000004301828    0.029444941769    0.013286405562
0.075     0.041199323554    0.015251024518    0.000006381819    0.000003337912    0.019267879631    0.023340993284    0.000007105413    0.000003727221
            0.000006381819    0.000003337912    0.038429398452    0.013612097174    0.000007129599    0.000003732729    0.017279214151    0.021327366018
            0.019267873062    0.023340996113    0.000007129599    0.000003732729    0.041056788006    0.015131819982    0.000008005100    0.000004202921
            0.000007105413    0.000003727221    0.017279206050    0.021327367434    0.000008005100    0.000004202921    0.038455663261    0.013659669029
0.100     0.050992170058    0.010897283973    0.000009065193    0.000001916488    0.030086975586    0.023586038635    0.000010092580    0.000002159609
            0.000009065193    0.000001916488    0.047647292056    0.009802792452    0.000010120728    0.000002160618    0.027250437386    0.021934726521
            0.030086975175    0.023586039160    0.000010120728    0.000002160618    0.050819250528    0.010785629989    0.000011363594    0.000002455301
            0.000010092580    0.000002159609    0.027250437003    0.021934726997    0.000011363594    0.000002455301    0.047751269707    0.009846365107
0.125     0.058842813755    0.001888790063    0.000011229358    -0.000000802720    0.040365802602    0.019159058458    0.000012511289    -0.000000848857
            0.000011229358    -0.000000802720    0.055457715431    0.001741842508    0.000012541470    -0.000000854229    0.037066486541    0.018394711461
            0.040365802602    0.019159058458    0.000012541470    -0.000000854229    0.058660238108    0.001794537900    0.000014093536    -0.000000907598
            0.000012511289    -0.000000848857    0.037066486541    0.018394711461    0.000014093536    -0.000000907598    0.055658293237    0.001769239139
0.150     0.063130998957    -0.010856081141    0.000012377858    -0.000004561288    0.048320156263    0.010461986363    0.000013811613    -0.000005015568
            0.000012377858    -0.000004561288    0.060444961102    -0.009875890467    0.000013841255    -0.000005027811    0.045200725345    0.010907181851
            0.048320156263    0.010461986363    0.000013841255    -0.000005027811    0.062973678049    -0.010913236515    0.000015580116    -0.000005573171
            0.000013811613    -0.000005015568    0.045200725345    0.010907181851    0.000015580116    -0.000005573171    0.060761138219    -0.009905053053
0.175     0.062362305819    -0.025926449957    0.000012122658    -0.000008956265    0.052387075789    -0.001469212141    0.000013562017    -0.000009898451
            0.000012122658    -0.000008956265    0.061234276055    -0.024003552101    0.000013588715    -0.000009917044    0.050259730000    0.000208867526
            0.052387075789    -0.001469212141    0.000013588715    -0.000009917044    0.062269894095    -0.025953362230    0.000015339109    -0.000011051924
            0.000013562017    -0.000009898451    0.050259730000    0.000208867544    0.000015339109    -0.000011051924    0.061674320412    -0.024132116169
0.200     0.055667145068    -0.041391648961    0.000010233197    -0.000013457039    0.051445027246    -0.015083118291    0.000011503075    -0.000014913323
            0.000010233197    -0.000013457039    0.056915791879    -0.039114393319    0.000011525135    -0.000014937058    0.051161438382    -0.012520690632
            0.051445027246    -0.015083118291    0.000011525135    -0.000014937058    0.055676760350    -0.041416771873    0.000013076818    -0.000016695029
            0.000011503075    -0.000014913323    0.051161438382    -0.012520690632    0.000013076818    -0.000016695029    0.057475088207    -0.039389625545
0.225     0.042892528993    -0.055055266189    0.000006665568    -0.000017462135    0.044958125024    -0.028480093100    0.000007580450    -0.000019396217
            0.000006665568    -0.000017462135    0.047127033441    -0.053403841318    0.000007597099    -0.000019423731    0.047254786530    -0.025774292955
            0.044958125024    -0.028480093100    0.000007597099    -0.000019423731    0.043029566423    -0.055126253579    0.000008726530    -0.000021763598
            0.000007580450    -0.000019396217    0.047254786530    -0.025774292955    0.000008726530    -0.000021763598    0.047785002064    -0.053875820297
0.250     0.024690702523    -0.064711678492    0.000001593055    -0.000020363078    0.033085157526    -0.039625253300    0.000001979058    -0.000022673335
            0.000001593055    -0.000020363078    0.032144481813    -0.064979974494    0.000001990216    -0.000022703727    0.038419125444    -0.037869402616
            0.033085157526    -0.039625253300    0.000001990216    -0.000022703727    0.024961761929    -0.064889791278    0.000002486934    -0.000025505970
            0.000001979058    -0.000022673335    0.038419125444    -0.037869402616    0.000002486934    -0.000025505970    0.032862524106    -0.065695357687
0.275     0.002486661680    -0.068418619291    -0.000004597615    -0.000021615256    0.016707979591    -0.046583934316    -0.000004880801    -0.000024139073
            -0.000004597615    -0.000021615256    0.012876347587    -0.072072202301    -0.000004875171    -0.000024172320    0.025103055032    -0.047118902614
            0.016707979591    -0.046583934316    -0.000004875171    -0.000024172320    0.002872999807    -0.068771293727    -0.000005182194    -0.000027244050
            -0.000004880801    -0.000024139073    0.025103055032    -0.047118902614    -0.000005182194    -0.000027244050    0.013597779702    -0.073068468817
0.300     -0.021616248391    -0.064783418306    -0.000011323875    -0.000020820241    -0.002615451727    -0.047788030329    -0.000012361498    -0.000023345980
            -0.000011323875    -0.000020820241    -0.009177466579    -0.073251948009    -0.000012362414    -0.000023383293    0.008317466604    -0.052028792568
            -0.002615451727    -0.047788030329    -0.000012362414    -0.000023383293    -0.021162106250    -0.065373795624    -0.000013579680    -0.000026472446
            -0.000012361498    -0.000023345980    0.008317466604    -0.052028792568    -0.000013579680    -0.000026472446    -0.008525398738    -0.074550258772
0.325     -0.045054511687    -0.053185103431    -0.000017863605    -0.000017794170    -0.022797669121    -0.042267079704    -0.000019669532    -0.000020080795
            -0.000017863605    -0.000017794170    -0.032061218425    -0.067614062885    -0.000019680020    -0.000020123094    -0.010442403498    -0.051476736687
            -0.022797669121    -0.042267079704    -0.000019680020    -0.000020123094    -0.044606496775    -0.054060102595    -0.000021829588    -0.000022941270
            -0.000019669532    -0.000020080795    -0.010442403498    -0.051476736687    -0.000021829588    -0.000022941270    -0.031562092301    -0.069212637307
0.350     -0.065101806490    -0.033942801156    -0.000023440746    -0.000012625262    -0.041465493529    -0.029837953276    -0.000025947883    -0.000014428109
            -0.000023440746    -0.000012625262    -0.053551415261    -0.054936086064    -0.000025973376    -0.000014474705    -0.029339683683    -0.044877880971
            -0.041465493529    -0.029837953276    -0.000025973376    -0.000014474705    -0.064754813566    -0.035122156383    -0.000028981465    -0.000016726846
            -0.000025947883    -0.000014428109    -0.029339683683    -0.044877880971    -0.000028981465    -0.000016726846    -0.053291997280    -0.056805401183
0.375     -0.079222145630    -0.008333684744    -0.000027333293    -0.000005683760    -0.056261489572    -0.011175090601    -0.000030394263    -0.000006782483
            -0.000027333293    -0.000005683760    -0.071397783052    -0.035740317434    -0.000030441011    -0.000006828838    -0.046388511626    -0.032280639477
            -0.056261489572    -0.011175090601    -0.000030441011    -0.000006828838    -0.079080588746    -0.009801473232    -0.000034138004    -0.000008246246
            -0.000030394263    -0.000006782483    -0.046388511626    -0.032280639477    -0.000034138004    -0.000008246246    -0.071458306796    -0.037821111132
0.400     -0.085428611302    0.021512544644    -0.000028986928    0.000002410396    -0.065177960828    0.012236747464    -0.000032384868    0.000002184447
            -0.000028986928    0.000002410396    -0.083588859700    -0.011287366380    -0.000032458134    0.000002147378    -0.059689558098    -0.014399374829
            -0.065177960828    0.012236747464    -0.000032458134    0.000002147378    -0.085593121016    0.019811843187    -0.000036590001    0.000001775031
            -0.000032384868    0.000002184447    -0.059689558098    -0.014399374829    -0.000036590001    0.000001775031    -0.084032052629    -0.013492564089
0.425     -0.082560765780    0.052870921105    -0.000028099238    0.000010872800    -0.066824167982    0.038289707863    -0.000031568095    0.000011615436
            -0.000028099238    0.000010872800    -0.088590603134    0.016542827460    -0.000031668977    0.000011600708    -0.067647914891    0.007452099015
            -0.066824167982    0.038289707863    -0.000031668977    0.000011600708    -0.083112580132    0.051031293990    -0.000035919800    0.000012399695
            -0.000031568095    0.000011615436    -0.067647914891    0.007452099015    -0.000035919800    0.000012399695    -0.089451943348    0.014323044097
0.450     -0.070452052596    0.082765281205    -0.000024664744    0.000018865453    -0.060613636162    0.064530759378    -0.000027915971    0.000020587288
            -0.000024664744    0.000018865453    -0.085541605556    0.045444314133    -0.000028039444    0.000020608994    -0.069171208922    0.031499125951
            -0.060613636162    0.064530759378    -0.000028039444    0.000020608994    -0.071438876739    0.080913450545    -0.000032061490    0.000022605674
            -0.000027915971    0.000020587288    -0.069171208922    0.031499125951    -0.000032061490    0.000022605674    -0.086821739714    0.043333007838
0.475     -0.049929622652    0.108337252749    -0.000018952593    0.000025611267    -0.046798416009    0.088473250212    -0.000021704217    0.000028236394
            -0.000018952593    0.000025611267    -0.074349121087    0.072935783944    -0.000021834626    0.000028305034    -0.063779045562    0.055704043743
            -0.046798416009    0.088473250212    -0.000021834626    0.000028305034    -0.051353072532    0.106627021461    -0.000025282619    0.000031422139
            -0.000021704217    0.000028236394    -0.063779045562    0.055704043743    -0.000025282619    0.000031422139    -0.076009527886    0.071058145766
0.500     -0.022688061301    0.127178476562    -0.000011452141    0.000030500719    -0.026394759704    0.107899514462    -0.000013455788    0.000033872411
            -0.000011452141    0.000030500719    -0.055699606764    0.096627512344    -0.000013565132    0.000034001703    -0.051651381133    0.077989928745
            -0.026394759704    0.107899514462    -0.000013565132    0.000034001703    -0.024486346084    0.125802517430    -0.000016128254    0.000038062555
            -0.000013455788    0.000033872411    -0.051651381133    0.077989928745    -0.000016128254    0.000038062555    -0.057663488869    0.095098290892
0.525     0.008946692772    0.137557301699    -0.000002802499    0.000033124914    -0.000964324268    0.121168522755    -0.000003861898    0.000037020614
            -0.000002802499    0.000033124914    -0.030967565865    0.114457663385    -0.000003903856    0.000037257798    -0.033577615537    0.096441667574
            -0.000964324268    0.121168522755    -0.000003903856    0.000037257798    0.006945699413    0.136962616634    -0.000005327506    0.000042007362
            -0.000003861898    0.000037020614    -0.033577615537    0.096441667574    -0.000005327506    0.000042007362    -0.033125183430    0.113369338542
0.550     0.042303895589    0.138586243858    0.000006315753    0.000033292643    0.026156294680    0.126582165049    0.000006329510    0.000037445141
            0.000006315753    0.000033292643    -0.002063843836    0.124883847512    0.000006008937    0.000037664333    -0.010862206843    0.109483964688
            0.026156294680    0.126582165049    0.000006008937    0.000037664333    0.038301424604    0.137721801246    0.000005857301    0.000042759415
            0.000006329510    0.000037445141    -0.010862206843    0.109483964688    0.000005857301    0.000042759415    -0.004281213310    0.124295331059
0.575     0.074558584003    0.130082173420    0.000015217381    0.000030982173    0.055467630183    0.123926126510    0.000016355919    0.000035095508
            0.000015217381    0.000030982173    0.028757249212    0.126995511863    0.000016234143    0.000035295035    0.014816817053    0.115987724839
            0.055467630183    0.123926126510    0.000016234143    0.000035295035    0.071369488825    0.129760774764    0.000017489675    0.000040384959
            0.000016355919    0.000035095508    0.014816817053    0.115987724839    0.000017489675    0.000040384959    0.026627994722    0.126922180496
0.600     0.102927174000    0.112632971904    0.000023261578    0.000026334723    0.082591000484    0.113459210776    0.000025494742    0.000030102801
            0.000023261578    0.000026334723    0.059099146333    0.120564545931    0.000025483202    0.000030362352    0.041554527084    0.115344724534
            0.082591000484    0.113459210776    0.000025483202    0.000030362352    0.100041768975    0.113244768417    0.000028111370    0.000035076652
            0.000025494742    0.000030102801    0.041554527084    0.115344724534    0.000028111370    0.000035076652    0.057211148039    0.120973182994
0.625     0.124881931603    0.088371103277    0.000029890693    0.000019776672    0.105725131917    0.096107332759    0.000033105871    0.000022923977
            0.000029890693    0.000019776672    0.086611360833    0.106026007074    0.000033239264    0.000023096019    0.067360541643    0.107475880067
            0.105725131917    0.096107332759    0.000033239264    0.000023096019    0.122726664949    0.089315212107    0.000037122471    0.000027068275
            0.000033105871    0.000022923977    0.067360541643    0.107475880067    0.000037122471    0.000027068275    0.085112510352    0.106836988105
0.650     0.139466236348    0.058724009451    0.000034797618    0.000011556458    0.123429074850    0.072702109888    0.000038834352    0.000013823720
            0.000034797618    0.000011556458    0.109162395634    0.084426122142    0.000038969602    0.000013911925    0.090297243335    0.092829832887
            0.123429074850    0.072702109888    0.000038969602    0.000013911925    0.137612262250    0.059904353713    0.000043897878    0.000016810113
            0.000038834352    0.000013823720    0.090297243335    0.092829832887    0.000043897878    0.000016810113    0.108181788524    0.085518226868
0.675     0.144836510683    0.025895188216    0.000037486052    0.000002115355    0.133806835449    0.044935541684    0.000042103645    0.000003283247
            0.000037486052    0.000002115355    0.124975099350    0.057336478725    0.000042226905    0.000003325090    0.108591657476    0.072343191403
            0.133806835449    0.044935541684    0.000042226905    0.000003325090    0.143417803147    0.027363509360    0.000047905213    0.000004873159
            0.000042103645    0.000003283247    0.108591657476    0.072343191403    0.000047905213    0.000004873159    0.124610137122    0.058553072994
0.700     0.140357878336    -0.007293715275    0.000037657939    -0.000007975584    0.135775386613    0.015026040750    0.000042558563    -0.000008060641
            0.000037657939    -0.000007975584    0.132744854217    0.026749448530    0.000042660342    -0.000008048507    0.120756031560    0.047398947743
            0.135775386613    0.015026040750    0.000042660342    -0.000008048507    0.139498740073    -0.005661557964    0.000048721028    -0.000008048522
            0.000042558563    -0.000008060641    0.120756031560    0.047398947743    0.000048721028    -0.000008048522    0.133049015497    0.027907255269
0.725     0.126174880171    -0.037988686145    0.000035123592    -0.000018076716    0.128843212764    -0.014555070447    0.000039966116    -0.000019489777
            0.000035123592    -0.000018076716    0.131725777741    -0.005042851038    0.000040041748    -0.000019489004    0.125681488950    0.019756664515
            0.128843212739    -0.014555070672    0.000040041748    -0.000019489004    0.125938517100    -0.036371523668    0.000046061373    -0.000021136881
            0.000039966116    -0.000019489777    0.125681488950    0.019756664515    0.000046061373    -0.000021136881    0.132700204609    -0.004143876606
0.750     0.103230487998    -0.063403614596    0.000029837787    -0.000027465493    0.113234483631    -0.041180636620    0.000034256492    -0.000030188590
            0.000029837787    -0.000027465493    0.121804161635    -0.035591569000    0.000034311271    -0.000030181145    0.122751186539    -0.008538288245
            0.113234483631    -0.041180636620    0.000034311271    -0.000030181145    0.103616624306    -0.062002284214    0.000039836186    -0.000033460207
            0.000034256492    -0.000030188590    0.122751186539    -0.008538288245    0.000039836186    -0.000033460207    0.123391765112    -0.035153378713
0.775     0.073290223986    -0.081035658648    0.000021950847    -0.000035359002    0.089978466176    -0.062268876595    0.000025580929    -0.000039270253
            0.000021950847    -0.000035359002    0.103539855271    -0.062450819666    0.000025629999    -0.000039244111    0.111916841168    -0.035275212386
            0.089978466176    -0.062268876595    0.000025629999    -0.000039244111    0.074232079091    -0.080051836395    0.000030207522    -0.000044009311
            0.000025580929    -0.000039270253    0.111916841168    -0.035275212386    0.000030207522    -0.000044009311    0.105623165576    -0.062661025026
