# GHz S RI R 45
0.000     0.017590827063    0.001914095181    0.000000049765    -0.000000037262    0.000741831498    0.001636719421    0.000000077835    -0.000000005075
            0.000000049765    -0.000000037262    0.016882313971    0.001563938057    0.000000100409    0.000000037051    0.000674939997    0.001388974637
            0.000741831383    0.001636719473    0.000000100409    0.000000037051    0.017542921220    0.001901710388    0.000000140602    0.000000085158
            0.000000077835    -0.000000005075    0.000674940516    0.001388974718    0.000000140602    0.000000085158    0.016765399545    0.001554256297
0.025     0.023200961705    0.010301879949    0.000000045519    -0.000000097370    0.003122456045    0.010371158930    0.000000105770    -0.000000036749
            0.000000045519    -0.000000097370    0.021832749012    0.008952708517    0.000000165630    0.000000044072    0.002724438004    0.009179404840
            0.003120161504    0.010374139535    0.000000165630    0.000000044072    0.023127283713    0.010251989275    0.000000254382    0.000000134422
            0.000000105770    -0.000000036749    0.002725921180    0.009179168130    0.000000254382    0.000000134422    0.021760735242    0.008910047358
0.050     0.031433969490    0.014887917783    -0.000000015068    -0.000000205331    0.009732959682    0.018650471730    0.000000107812    -0.000000128428
            -0.000000015068    -0.000000205331    0.029122341399    0.012911144903    0.000000244427    -0.000000012626    0.008530149629    0.016639697626
            0.009732932341    0.018650507430    0.000000244427    -0.000000012626    0.031329063820    0.014786040759    0.000000423496    0.000000105545
            0.000000107812    -0.000000128428    0.008530137844    0.016639718276    0.000000423496    0.000000105545    0.029029379031    0.012857479964
0.075     0.041199323554    0.015251024518    -0.000000132993    -0.000000283974    0.019267879631    0.023340993284    0.000000055689    -0.000000224458
            -0.000000132993    -0.000000283974    0.037910033923    0.013262444834    0.000000282557    -0.000000116105    0.017027817186    0.021063215881
            0.019267873062    0.023340996113    0.000000282557    -0.000000116105    0.041056788006    0.015131819982    0.000000559614    -0.000000019857
            0.000000055689    -0.000000224458    0.017027810154    0.021063217708    0.000000559614    -0.000000019857    0.037790960366    0.013208972613
0.100     0.050992170058    0.010897283973    -0.000000292898    -0.000000310446    0.030086975586    0.023586038635    -0.000000045003    -0.000000301515
            -0.000000292898    -0.000000310446    0.046969935574    0.009504759689    0.000000271883    -0.000000245812    0.026876229832    0.021663852126
            0.030086975175    0.023586039160    0.000000271883    -0.000000245812    0.050819250528    0.010785629989    0.000000639954    -0.000000219713
            -0.000000045003    -0.000000301515    0.026876229454    0.021663852595    0.000000639954    -0.000000219713    0.046832689710    0.009471795881
0.125     0.058842813755    0.001888790063    -0.000000474102    -0.000000269611    0.040365802602    0.019159058458    -0.000000186135    -0.000000340830
            -0.000000474102    -0.000000269611    0.054647156657    0.001569273062    0.000000201333    -0.000000380976    0.036563792682    0.018159791244
            0.040365802602    0.019159058458    0.000000201333    -0.000000380976    0.058660238108    0.001794537900    0.000000634037    -0.000000469559
            -0.000000186135    -0.000000340830    0.036563791842    0.018159788439    0.000000634037    -0.000000469559    0.054510974998    0.001564065823
0.150     0.063130998957    -0.010856081141    -0.000000650700    -0.000000151534    0.048320156263    0.010461986363    -0.000000353281    -0.000000323520
            -0.000000650700    -0.000000151534    0.059543017424    -0.009887309400    0.000000069023    -0.000000494371    0.044574801379    0.010752051377
            0.048320156263    0.010461986363    0.000000069023    -0.000000494371    0.062973678049    -0.010913236515    0.000000524020    -0.000000730413
            -0.000000353281    -0.000000323520    0.044574801379    0.010752051377    0.000000524020    -0.000000730413    0.059438894591    -0.009847979764
0.175     0.062362305819    -0.025926449957    -0.000000794392    0.000000042887    0.052387075789    -0.001469212141    -0.000000525515    -0.000000239111
            -0.000000794392    0.000000042887    0.060294703468    -0.023818446899    -0.000000117115    -0.000000560924    0.049526891176    0.000179097981
            0.052387075789    -0.001469212141    -0.000000117115    -0.000000560924    0.062269894095    -0.025953362230    0.000000305298    -0.000000960702
            -0.000000525515    -0.000000239111    0.049526891176    0.000179097999    0.000000305298    -0.000000960702    0.060258091250    -0.023740054763
0.200     0.055667145068    -0.041391648961    -0.000000876233    0.000000303925    0.051445027246    -0.015083118291    -0.000000677480    -0.000000082542
            -0.000000876233    0.000000303925    0.056002632346    -0.038707597901    -0.000000339619    -0.000000557122    0.050351624738    -0.012380190784
            0.051445027246    -0.015083118291    -0.000000339619    -0.000000557122    0.055676760350    -0.041416771873    -0.000000010485    -0.000001116858
            -0.000000677480    -0.000000082542    0.050351624738    -0.012380190784    -0.000000010485    -0.000001116858    0.056067391914    -0.038613685612
0.225     0.042892528993    -0.055055266189    -0.000000871102    0.000000611872    0.044958125024    -0.028480093100    -0.000000782365    0.000000141314
            -0.000000871102    0.000000611872    0.046313709569    -0.052765061893    -0.000000571826    -0.000000467114    0.046413708736    -0.025423317182
            0.044958125024    -0.028480093100    -0.000000571826    -0.000000467114    0.043029566423    -0.055126253579    -0.000000395638    -0.000001160592
            -0.000000782365    0.000000141314    0.046413708736    -0.025423317182    -0.000000395638    -0.000001160592    0.046505170443    -0.052695730679
0.250     0.024690702523    -0.064711678492    -0.000000758903    0.000000937736    0.033085157526    -0.039625253300    -0.000000812814    0.000000418445
            -0.000000758903    0.000000937736    0.031511072079    -0.064117102567    -0.000000779926    -0.000000284092    0.037608104292    -0.037277746266
            0.033085157526    -0.039625253300    -0.000000779926    -0.000000284092    0.024961761929    -0.064889791278    -0.000000807547    -0.000001064040
            -0.000000812814    0.000000418445    0.037608104292    -0.037277746266    -0.000000807547    -0.000001064040    0.031839836050    -0.064125235374
0.275     0.002486661680    -0.068418619291    -0.000000529592    0.000001245531    0.016707979591    -0.046583934316    -0.000000746817    0.000000724514
            -0.000000529592    0.000001245531    0.012506154449    -0.071015317645    -0.000000927804    -0.000000015280    0.024397992766    -0.046272640108
            0.016707979591    -0.046583934316    -0.000000927804    -0.000000015280    0.002872999807    -0.068771293727    -0.000001193705    -0.000000815998
            -0.000000746817    0.000000724514    0.024397992766    -0.046272640108    -0.000001193705    -0.000000815998    0.012962622504    -0.071160749934
0.300     -0.021616248391    -0.064783418306    -0.000000184595    0.000001493564    -0.002615451727    -0.047788030329    -0.000000568940    0.000001025648
            -0.000000184595    0.000001493564    -0.009203549424    -0.072056064207    -0.000000980415    0.000000318500    0.007804268996    -0.050936411052
            -0.002615451727    -0.047788030329    -0.000000980415    0.000000318500    -0.021162106250    -0.065373795624    -0.000001496838    -0.000000425088
            -0.000000568940    0.000001025648    0.007804268996    -0.050936411052    -0.000001496838    -0.000000425088    -0.008653042172    -0.072397895139
0.325     -0.045054511687    -0.053185103431    0.000000259878    0.000001640326    -0.022797669121    -0.042267079704    -0.000000276591    0.000001281829
            0.000000259878    0.000001640326    -0.031673011100    -0.066361010951    -0.000000911799    0.000000682123    -0.010675065343    -0.050173875694
            -0.022797669121    -0.042267079704    -0.000000911799    0.000000682123    -0.044606496775    -0.054060102595    -0.000001664013    0.000000077979
            -0.000000276591    0.000001281829    -0.010675065343    -0.050173875694    -0.000001664013    0.000000077979    -0.031085488667    -0.066948217033
0.350     -0.065101806490    -0.033942801156    0.000000772144    0.000001647510    -0.041465493529    -0.029837953276    0.000000118560    0.000001449303
            0.000000772144    0.000001647510    -0.052697695113    -0.053732461071    -0.000000708340    0.000001029822    -0.029209201084    -0.043429879672
            -0.041465493529    -0.029837953276    -0.000000708340    0.000001029822    -0.064754813566    -0.035122156383    -0.000001653998    0.000000642435
            0.000000118560    0.000001449303    -0.029209201084    -0.043429879672    -0.000001653998    0.000000642435    -0.052150525069    -0.054594436539
0.375     -0.079222145630    -0.008333684744    0.000001306414    0.000001488270    -0.056261489572    -0.011175090601    0.000000587635    0.000001488866
            0.000001306414    0.000001488270    -0.070055294832    -0.034712710294    -0.000000375804    0.000001311175    -0.045828880430    -0.030780719631
            -0.056261489572    -0.011175090601    -0.000000375804    0.000001311175    -0.079080588746    -0.009801473232    -0.000001446725    0.000001202877
            0.000000587635    0.000001488866    -0.045828880430    -0.030780719631    -0.000001446725    0.000001202877    -0.069639592094    -0.035851661805
0.400     -0.085428611302    0.021512544644    0.000001805365    0.000001151030    -0.065177960828    0.012236747464    0.000001085888    0.000001370308
            0.000001805365    0.000001151030    -0.081769899254    -0.010574200171    0.000000061209    0.000001477728    -0.058660634608    -0.012962842958
            -0.065177960828    0.012236747464    0.000000061209    0.000001477728    -0.085593121016    0.019811843187    -0.000001047141    0.000001687757
            0.000001085888    0.000001370308    -0.058660634608    -0.012962842958    -0.000001047141    0.000001687757    -0.081579633553    -0.011959207375
0.425     -0.082560765780    0.052870921105    0.000002208003    0.000000645376    -0.066824167982    0.038289707863    0.000001557220    0.000001081361
            0.000002208003    0.000000645376    -0.086346725421    0.016802699605    0.000000559022    0.000001492687    -0.066142098663    0.008696839000
            -0.066824167982    0.038289707863    0.000000559022    0.000001492687    -0.083112580132    0.051031293990    -0.000000487891    0.000002030639
            0.000001557220    0.000001081361    -0.066142098663    0.008696839000    -0.000000487891    0.000002030639    -0.086468120210    0.015237513010
0.450     -0.070452052596    0.082765281205    0.000002455506    0.000000001223    -0.060613636162    0.064530759378    0.000001940003    0.000000628498
            0.000002455506    0.000000001223    -0.082964125025    0.045124132518    0.000001061357    0.000001334086    -0.067216217187    0.032422498065
            -0.060613636162    0.064530759378    0.000001061357    0.000001334086    -0.071438876739    0.080913450545    0.000000175506    0.000002177704
            0.000001940003    0.000000628498    -0.067216217187    0.032422498065    0.000000175506    0.000002177704    -0.083462241719    0.043478764900
0.475     -0.049929622652    0.108337252749    0.000002505734    -0.000000734091    -0.046798416009    0.088473250212    0.000002182250    0.000000038106
            0.000002505734    -0.000000734091    -0.071564472286    0.071932759697    0.000001511461    0.000000999457    -0.061435648894    0.056189504173
            -0.046798416009    0.088473250212    0.000001511461    0.000000999457    -0.051353072532    0.106627021461    0.000000877339    0.000002095008
            0.000002182250    0.000000038106    -0.061435648894    0.056189504173    0.000000877339    0.000002095008    -0.072473095094    0.070341232301
0.500     -0.022688061301    0.127178476562    0.000002336337    -0.000001491103    -0.026394759704    0.107899514462    0.000002245838    -0.000000635872
            0.000002336337    -0.000001491103    -0.052862172101    0.094872773419    0.000001858207    0.000000515831    -0.049003111490    0.077958393714
            -0.026394759704    0.107899514462    0.000001858207    0.000000515831    -0.024486346084    0.125802517430    0.000001549250    0.000001785123
            0.000002245838    -0.000000635872    -0.049003111490    0.077958393714    0.000001549250    0.000001785123    -0.054171430798    0.093520091707
0.525     0.008946692772    0.137557301699    0.000001938408    -0.000002196882    -0.000964324268    0.121168522755    0.000002101134    -0.000001333890
            0.000001938408    -0.000002196882    -0.028247593335    0.111920765012    0.000002050136    -0.000000078308    -0.030705161983    0.095981513952
            -0.000964324268    0.121168522755    0.000002050136    -0.000000078308    0.006945699413    0.136962616634    0.000002115628    0.000001266856
            0.000002101134    -0.000001333890    -0.030705161983    0.095981513952    0.000002115628    0.000001266856    -0.029923998124    0.111252534984
0.550     0.042303895589    0.138586243858    0.000001328501    -0.000002785724    0.026156294680    0.126582165049    0.000001763042    -0.000001962151
            0.000001328501    -0.000002785724    0.000363804195    0.121594765761    0.000002074628    -0.000000703498    -0.008903505362    0.107864741698
            0.026156294680    0.126582165049    0.000002074628    -0.000000703498    0.038301424604    0.137721801246    0.000002517241    0.000000632847
            0.000001763042    -0.000001962151    -0.008903505362    0.107864741698    0.000002517241    0.000000632847    -0.003003758659    0.120133493617
0.575     0.074558584003    0.130082173420    0.000000543985    -0.000003195953    0.055467630183    0.123926126510    0.000001194538    -0.000002508576
            0.000000543985    -0.000003195953    0.030726843724    0.122945562529    0.000001863872    -0.000001352888    0.017130032610    0.113595205416
            0.055467630183    0.123926126510    0.000001863872    -0.000001352888    0.071369488825    0.129760774764    0.000002677515    -0.000000167700
            0.000001194538    -0.000002508576    0.017130032610    0.113595205416    0.000002677515    -0.000000167700    0.027984726244    0.122226804910
0.600     0.102927174000    0.112632971904    -0.000000362874    -0.000003375660    0.082591000484    0.113459210776    0.000000473454    -0.000002889513
            -0.000000362874    -0.000003375660    0.060355200789    0.115629862278    0.000001464343    -0.000001939102    0.043509691410    0.112146634019
            0.082591000484    0.113459210776    0.000001464343    -0.000001939102    0.100041768975    0.113244768417    0.000002609513    -0.000001000225
            0.000000473454    -0.000002889513    0.043509691410    0.112146634019    0.000002609513    -0.000001000225    0.057656712014    0.115853129767
0.625     0.124881931603    0.088371103277    -0.000001309578    -0.000003301168    0.105725131917    0.096107332759    -0.000000353818    -0.000003057941
            -0.000001309578    -0.000003301168    0.086513226551    0.100733092177    0.000000894015    -0.000002401855    0.068497041245    0.103799654704
            0.105725131917    0.096107332759    0.000000894015    -0.000002401855    0.122726664949    0.089315212107    0.000002290768    -0.000001803586
            -0.000000353818    -0.000003057941    0.068497041245    0.103799654704    0.000002290768    -0.000001803586    0.084420962896    0.101488225588
0.650     0.139466236348    0.058724009451    -0.000002250569    -0.000002968119    0.123429074850    0.072702109888    -0.000001235287    -0.000002996670
            -0.000002250569    -0.000002968119    0.108071710838    0.079156892994    0.000000180268    -0.000002703377    0.090719721958    0.088831818741
            0.123429074850    0.072702109888    0.000000180268    -0.000002703377    0.137612262250    0.059904353713    0.000001730269    -0.000002505758
            -0.000001235287    -0.000002996670    0.090719721958    0.088831818741    0.000001730269    -0.000002505758    0.106231425092    0.080216767687
0.675     0.144836510683    0.025895188216    -0.000003108353    -0.000002364821    0.133806835449    0.044935541684    -0.000002110557    -0.000002682639
            -0.000003108353    -0.000002364821    0.122858753947    0.052177205612    -0.000000633495    -0.000002793540    0.108145156260    0.068108038153
            0.133806835449    0.044935541684    -0.000000633495    -0.000002793540    0.143417803147    0.027363509360    0.000000957601    -0.000003036862
            -0.000002110557    -0.000002682639    0.108145156260    0.068108038153    0.000000957601    -0.000003036862    0.121367862603    0.053621722696
0.700     0.140357878336    -0.007293715275    -0.000003805491    -0.000001512852    0.135775386613    0.015026040750    -0.000002907748    -0.000002113615
            -0.000003805491    -0.000001512852    0.129571726503    0.021934923754    -0.000001485285    -0.000002638968    0.119314701535    0.043137470087
            0.135775386613    0.015026040750    -0.000001485285    -0.000002638968    0.139498740073    -0.005661557964    0.000000021521    -0.000003332334
            -0.000002907748    -0.000002113615    0.119314701535    0.043137470087    0.000000021521    -0.000003332334    0.128571495154    0.023688317052
0.725     0.126174880171    -0.037988686145    -0.000004271251    -0.000000452403    0.128843212764    -0.014555070447    -0.000003554472    -0.000001306537
            -0.000004271251    -0.000000452403    0.127545612709    -0.009231981884    -0.000002302905    -0.000002223867    0.123190240677    0.015738668729
            0.128843212739    -0.014555070672    -0.000002302905    -0.000002223867    0.125938517100    -0.036371523668    -0.000001008418    -0.000003340438
            -0.000003554472    -0.000001306537    0.123190240677    0.015738668729    -0.000001008418    -0.000003340438    0.127139715584    -0.007308965887
0.750     0.103230487998    -0.063403614596    -0.000004440758    0.000000756334    0.113234483631    -0.041180636620    -0.000003978100    -0.000000297598
            -0.000004440758    0.000000756334    0.116756322505    -0.038869097513    -0.000003005541    -0.000001551747    0.119239516084    -0.012012062420
            0.113234483631    -0.041180636620    -0.000003005541    -0.000001551747    0.103616624306    -0.062002284214    -0.000002044371    -0.000003027498
            -0.000003978100    -0.000000297598    0.119239516084    -0.012012062420    -0.000002044371    -0.000003027498    0.117000901742    -0.036949648771
0.775     0.073290223986    -0.081035658648    -0.000004263743    0.000002032054    0.089978466176    -0.062268876595    -0.000004113281    0.000000853954
            -0.000004263743    0.000002032054    0.097856337221    -0.064555542978    -0.000003510299    -0.000000652762    0.107510377800    -0.037899827565
            0.089978466176    -0.062268876595    -0.000003510299    -0.000000652762    0.074232079091    -0.080051836395    -0.000002984508    -0.000002387901
            -0.000004113281    0.000000853954    0.107510377800    -0.037899827565    -0.000002984508    -0.000002387901    0.098753678427    -0.062830665113
