# GHz S RI R 45
0.000     0.017590827063    0.001914095181    -0.000014895347    -0.000039288999    0.000741831498    0.001636719421    -0.000021114260    -0.000054347705
            -0.000014895293    -0.000039289001    0.017871240456    0.001629295072    -0.000011206061    -0.000029349800    0.000789906260    0.001481623539
            0.000741831383    0.001636719473    -0.000011206067    -0.000029349801    0.017542921220    0.001901710388    -0.000015020054    -0.000039256148
            -0.000021114217    -0.000054347707    0.000789906514    0.001481623517    -0.000015020140    -0.000039256147    0.017840961830    0.001620290888
0.025     0.023200961705    0.010301879949    -0.000039591282    -0.000084589311    0.003122456045    0.010371158930    -0.000055237521    -0.000117622907
            -0.000039591293    -0.000084589258    0.022340271741    0.010390657949    -0.000029689437    -0.000063065407    0.002308777687    0.010471106003
            0.003120161504    0.010374139535    -0.000029689425    -0.000063065382    0.023127283713    0.010251989275    -0.000039520461    -0.000084546087
            -0.000055238064    -0.000117623050    0.002308796754    0.010470322518    -0.000039520482    -0.000084546016    0.022246338731    0.010303840986
0.050     0.031433969490    0.014887917783    -0.000094188728    -0.000143400961    0.009732959682    0.018650471730    -0.000129968108    -0.000199858078
            -0.000094188728    -0.000143400961    0.027748553481    0.016311350218    -0.000070615751    -0.000106873186    0.006684211016    0.019744563095
            0.009732932341    0.018650507430    -0.000070615751    -0.000106873186    0.031329063820    0.014786040759    -0.000093681014    -0.000143771100
            -0.000129968108    -0.000199858078    0.006684235412    0.019744558003    -0.000093681014    -0.000143771100    0.027583111958    0.016176014178
0.075     0.041199323554    0.015251024518    -0.000166190755    -0.000178931524    0.019267879631    0.023340993284    -0.000228774362    -0.000251191625
            -0.000166190755    -0.000178931524    0.033677902596    0.019866049978    -0.000124696811    -0.000133169384    0.013113010545    0.026976174777
            0.019267873062    0.023340996113    -0.000124696811    -0.000133169384    0.041056788006    0.015131819982    -0.000165595969    -0.000180369009
            -0.000228774362    -0.000251191625    0.013113025342    0.026976176479    -0.000165595962    -0.000180369002    0.033415700260    0.019723633616
0.100     0.050992170058    0.010897283973    -0.000248950382    -0.000189508781    0.030086975586    0.023586038635    -0.000343658390    -0.000269150085
            -0.000248950382    -0.000189508781    0.039442490824    0.021057668639    -0.000186895448    -0.000140599535    0.020672292708    0.031717526098
            0.030086975175    0.023586039160    -0.000186895448    -0.000140599535    0.050819250528    0.010785629989    -0.000249196977    -0.000192341749
            -0.000343658390    -0.000269150085    0.020672292708    0.031717526098    -0.000249196977    -0.000192341749    0.039080806468    0.020960628580
0.125     0.058842813755    0.001888790063    -0.000335518457    -0.000174342244    0.040365802602    0.019159058458    -0.000465758166    -0.000251741849
            -0.000335518457    -0.000174342244    0.044045570138    0.020133971551    -0.000251949192    -0.000128505161    0.028411881171    0.033885507557
            0.040365802602    0.019159058458    -0.000251949192    -0.000128505161    0.058660238108    0.001794537900    -0.000337846265    -0.000178197121
            -0.000465758166    -0.000251741849    0.028411863393    0.033885461129    -0.000337846265    -0.000178197121    0.043608268366    0.020137327022
0.150     0.063130998957    -0.010856081141    -0.000419848680    -0.000134710321    0.048320156263    0.010461986363    -0.000586781172    -0.000199495850
            -0.000419848680    -0.000134710321    0.046999212261    0.017835870963    -0.000315210136    -0.000097756895    0.035382083379    0.033690294829
            0.048320156263    0.010461986363    -0.000315210136    -0.000097756895    0.062973678049    -0.010913236515    -0.000425280386    -0.000138333475
            -0.000586781172    -0.000199495850    0.035382083379    0.033690294829    -0.000425280386    -0.000138333475    0.046528591864    0.017977794854
0.175     0.062362305819    -0.025926449957    -0.000497399823    -0.000072416681    0.052387075789    -0.001469212141    -0.000699720223    -0.000113785310
            -0.000497399823    -0.000072416681    0.047757458632    0.014929684898    -0.000373113761    -0.000049661591    0.040803771332    0.031705700129
            0.052387075789    -0.001469212141    -0.000373113761    -0.000049661591    0.062269894095    -0.025953362230    -0.000506203333    -0.000073839140
            -0.000699720223    -0.000113785310    0.040803771332    0.031705700129    -0.000506203333    -0.000073839140    0.047317133780    0.015227517349
0.200     0.055667145068    -0.041391648961    -0.000564801338    0.000010866435    0.051445027246    -0.015083118291    -0.000798596170    0.000003601220
            -0.000564801338    0.000010866435    0.046153412482    0.012433391801    -0.000422909008    0.000014521556    0.044172769204    0.028758261608
            0.051445027246    -0.015083118291    -0.000422909008    0.000014521556    0.055676760350    -0.041416771873    -0.000576065216    0.000013858916
            -0.000798596170    0.000003601220    0.044172769204    0.028758261608    -0.000576065216    0.000013858916    0.045814398068    0.012875001079
0.225     0.042892528993    -0.055055266189    -0.000618744966    0.000114353364    0.044958125024    -0.028480093100    -0.000877375980    0.000151227301
            -0.000618744966    0.000114353364    0.042458648412    0.011391081254    -0.000461840988    0.000094077031    0.045334148908    0.025805499734
            0.044958125024    -0.028480093100    -0.000461840988    0.000094077031    0.043029566423    -0.055126253579    -0.000630254479    0.000123517593
            -0.000877375980    0.000151227301    0.045334148908    0.025805499734    -0.000630254479    0.000123517593    0.042284451782    0.011932611454
0.250     0.024690702523    -0.064711678492    -0.000655084095    0.000237618818    0.033085157526    -0.039625253300    -0.000929229408    0.000327360942
            -0.000655084095    0.000237618818    0.037359223381    0.012715566113    -0.000486536646    0.000188412248    0.044516881959    0.023809862366
            0.033085157526    -0.039625253300    -0.000486536646    0.000188412248    0.024961761929    -0.064889791278    -0.000663592939    0.000253527317
            -0.000929229408    0.000327360942    0.044516881959    0.023809862366    -0.000663592939    0.000253527317    0.037393013238    0.013286627828
0.275     0.002486661680    -0.068418619291    -0.000667909724    0.000379758348    0.016707979591    -0.046583934316    -0.000945724715    0.000529043190
            -0.000667909724    0.000379758348    0.031887036028    0.017009757693    -0.000492393254    0.000296399422    0.042316653018    0.023585873131
            0.016707979591    -0.046583934316    -0.000492393254    0.000296399422    0.002872999807    -0.068771293727    -0.000669811979    0.000401259969
            -0.000945724715    0.000529043190    0.042316653018    0.023585873131    -0.000669811979    0.000401259969    0.032140717797    0.017523385485
0.300     -0.021616248391    -0.064783418306    -0.000649755019    0.000537809919    -0.002615451727    -0.047788030329    -0.000917365042    0.000750471520
            -0.000649755019    0.000537809919    0.027287564251    0.024461597481    -0.000473838861    0.000415224059    0.039628119359    0.025671205343
            -0.002615451727    -0.047788030329    -0.000473838861    0.000415224059    -0.021162106250    -0.065373795624    -0.000642027240    0.000561854261
            -0.000917365042    0.000750471520    0.039628119359    0.025671205343    -0.000642027240    0.000561854261    0.027736640843    0.024827561697
0.325     -0.045054511687    -0.053185103431    -0.000592459844    0.000705302071    -0.022797669121    -0.042267079704    -0.000834636521    0.000981689420
            -0.000592459844    0.000705302071    0.024849914449    0.034756445683    -0.000425036706    0.000539407789    0.037518642176    0.030212272538
            -0.022797669121    -0.042267079704    -0.000425036706    0.000539407789    -0.044606496775    -0.054060102595    -0.000573653748    0.000727317758
            -0.000834636521    0.000981689420    0.037518642176    0.030212272538    -0.000573653748    0.000727317758    0.025433397360    0.034896832300
0.350     -0.065101806490    -0.033942801156    -0.000489241528    0.000871580032    -0.041465493529    -0.029837953276    -0.000690457545    0.001208151465
            -0.000489241528    0.000871580032    0.025709078332    0.047092649520    -0.000341559529    0.000660374007    0.037067995227    0.036920314849
            -0.041465493529    -0.029837953276    -0.000341559529    0.000660374007    -0.064754813566    -0.035122156383    -0.000460218264    0.000886345074
            -0.000690457545    0.001208151465    0.037067995227    0.036920314849    -0.000460218264    0.000886345074    0.026336440850    0.046956096148
0.375     -0.079222145630    -0.008333684744    -0.000337013040    0.001022088982    -0.056261489572    -0.011175090601    -0.000482560455    0.001411288137
            -0.000337013040    0.001022088982    0.030656431791    0.060247743114    -0.000222005319    0.000766926905    0.039184744423    0.045082491863
            -0.056261489572    -0.011175090601    -0.000222005319    0.000766926905    -0.079080588746    -0.009801473232    -0.000301171786    0.001024954126
            -0.000482560455    0.001411288137    0.039184744423    0.045082491863    -0.000301171786    0.001024954126    0.031219948944    0.059820445404
0.400     -0.085428611302    0.021512544644    -0.000138463603    0.001140392603    -0.065177960828    0.012236747464    -0.000215589661    0.001571020108
            -0.000138463603    0.001140392603    0.039994026241    0.072747859130    -0.000069548558    0.000846866526    0.044453071917    0.053667194835
            -0.065177960828    0.012236747464    -0.000069548558    0.000846866526    -0.085593121016    0.019811843187    -0.000101283995    0.001128543320
            -0.000215589661    0.001571020108    0.044453071917    0.053667194835    -0.000101283995    0.001128543320    0.040384641805    0.072057756629
0.425     -0.082560765780    0.052870921105    0.000097107056    0.001210856092    -0.066824167982    0.038289707863    0.000098209976    0.001668760569
            0.000097107035    0.001210856094    0.053460926225    0.083063996876    0.000107746761    0.000889158403    0.053023273699    0.061469839908
            -0.066824167982    0.038289707863    0.000107746761    0.000889158403    -0.083112580132    0.051031293990    0.000129063964    0.001184224173
            0.000098209976    0.001668760569    0.053023276732    0.061469841254    0.000129063964    0.001184224173    0.053585222550    0.082178708506
0.450     -0.070452052596    0.082765281205    0.000354521995    0.001221873845    -0.060613636162    0.064530759378    0.000440091296    0.001690946912
            0.000354521995    0.001221873845    0.070258599022    0.089840214057    0.000297779348    0.000886306547    0.064590826088    0.067304006429
            -0.060613636162    0.064530759378    0.000297779348    0.000886306547    -0.071438876739    0.080913450545    0.000375104715    0.001183452096
            0.000440091296    0.001690946912    0.064590826088    0.067304006429    0.000375104715    0.001183452096    0.070052852098    0.088857861542
0.475     -0.049929622652    0.108337252749    0.000614921875    0.001167973935    -0.046798416009    0.088473250212    0.000787428099    0.001631255343
            0.000614921875    0.001167973935    0.089152364902    0.092073076844    0.000486317918    0.000835745057    0.078437267152    0.070161634232
            -0.046798416009    0.088473250212    0.000486317918    0.000835745057    -0.051353072532    0.106627021461    0.000619905653    0.001123449970
            0.000787428099    0.001631255343    0.078437267152    0.070161634232    0.000619905653    0.001123449970    0.088590144956    0.091107303559
0.500     -0.022688061301    0.127178476562    0.000858858517    0.001050982263    -0.026394759704    0.107899514462    0.001117074090    0.001491611859
            0.000858858517    0.001050982263    0.108643642476    0.089241999134    0.000659625198    0.000740332237    0.093544076894    0.069350006927
            -0.026394759704    0.107899514462    0.000659625198    0.000740332237    -0.024486346084    0.125802517430    0.000847298886    0.001007624111
            0.001117074090    0.001491611859    0.093544076894    0.069350006927    0.000847298886    0.001007624111    0.107735254501    0.088406976081
0.525     0.008946692772    0.137557301699    0.001069169735    0.000879179183    -0.000964324268    0.121168522755    0.001408610591    0.001281307498
            0.001069169735    0.000879179183    0.127153698963    0.081347654138    0.000807948214    0.000607770488    0.108718010421    0.064558924393
            -0.000964324268    0.121168522755    0.000807948214    0.000607770488    0.006945699413    0.136962616634    0.001046144067    0.000845008266
            0.001408610591    0.001281307498    0.108718010421    0.064558924393    0.001046144067    0.000845008266    0.125934873655    0.080756219182
0.550     0.042303895589    0.138586243858    0.001233614381    0.000665765820    0.026156294680    0.126582165049    0.001647354602    0.001015057715
            0.001233614381    0.000665765820    0.143209048314    0.068890716008    0.000908424786    0.000457260286    0.122755839312    0.055891149884
            0.026156294680    0.126582165049    0.000908424786    0.000457260286    0.038301424604    0.137721801246    0.001185845708    0.000658356313
            0.001647354602    0.001015057715    0.122755839312    0.055891149884    0.001185845708    0.000658356313    0.141755282627    0.068672674545
0.575     0.074558584003    0.130082173420    0.001344455481    0.000426306242    0.055467630183    0.123926126510    0.001823264920    0.000709977762
            0.001344455481    0.000426306242    0.155573657179    0.052789459060    0.000982074634    0.000275749417    0.134571049769    0.043784048239
            0.055467630183    0.123926126510    0.000982074634    0.000275749417    0.071369488825    0.129760774764    0.001297270698    0.000428693452
            0.001823264920    0.000709977762    0.134571049769    0.043784048239    0.001297270698    0.000428693452    0.154051220666    0.053046678588
0.600     0.102927174000    0.112632971904    0.001399900091    0.000176710771    0.082591000484    0.113459210776    0.001932660675    0.000383621275
            0.001399900091    0.000176710771    0.163360881957    0.034283890176    0.001016281288    0.000095431611    0.143228173738    0.028954914400
            0.082591000484    0.113459210776    0.001016281288    0.000095431611    0.100041768975    0.113244768417    0.001360648208    0.000196406892
            0.001932660675    0.000383621275    0.143228173738    0.028954914400    0.001360648208    0.000196406892    0.161958786571    0.035012113338
0.625     0.124881931603    0.088371103277    0.001405948977    -0.000066011594    0.105725131917    0.096107332759    0.001980698908    0.000055759225
            0.001405948977    -0.000066011591    0.166088540320    0.014813583430    0.001015415340    -0.000079823022    0.148012255140    0.012396964518
            0.105725131917    0.096107332759    0.001015415340    -0.000079823022    0.122726664949    0.089315212107    0.001380486660    -0.000035334825
            0.001980698908    0.000055759225    0.148012255140    0.012396964518    0.001380486660    -0.000035334825    0.164957038801    0.015943637072
0.650     0.139466236348    0.058724009451    0.001371088204    -0.000295851598    0.123429074850    0.072702109888    0.001975228689    -0.000267482128
            0.001371088204    -0.000295851598    0.163713658367    -0.004103195854    0.000985712787    -0.000243759789    0.148535523130    -0.004701459222
            0.123429074850    0.072702109888    0.000985712787    -0.000243759789    0.137612262250    0.059904353713    0.001362709151    -0.000259350562
            0.001975228689    -0.000267482128    0.148535523130    -0.004701459222    0.001362709151    -0.000259350562    0.162970314843    -0.002675174732
0.675     0.144836510683    0.025895188216    0.001303234535    -0.000504933965    0.133806835449    0.044935541684    0.001922086298    -0.000576444519
            0.001303234535    -0.000504933965    0.156629272565    -0.020981517066    0.000934141422    -0.000393080645    0.144764842477    -0.021058414886
            0.133806835449    0.044935541684    0.000934141422    -0.000393080645    0.143417803147    0.027363509360    0.001313829584    -0.000471430307
            0.001922086298    -0.000576444519    0.144764842477    -0.021058414886    0.001313829584    -0.000471430307    0.156360035537    -0.019392172354
0.700     0.140357878336    -0.007293715275    0.001213351860    -0.000691490054    0.135775386613    0.015026040750    0.001830986626    -0.000867418702
            0.001213351860    -0.000691490054    0.145663754419    -0.034484687803    0.000867361838    -0.000527534987    0.137066245994    -0.035389111919
            0.135775386613    0.015026040750    0.000867361838    -0.000527534987    0.139498740073    -0.005661557964    0.001239809027    -0.000670431091
            0.001830986626    -0.000867418702    0.137066245994    -0.035389111919    0.001239809027    -0.000670431091    0.145911692243    -0.032897284668
0.725     0.126174880171    -0.037988686145    0.001110239671    -0.000858919815    0.128843212764    -0.014555070447    0.001709255048    -0.001141763026
            0.001110239671    -0.000858919815    0.132039673373    -0.043543274351    0.000790431854    -0.000649706142    0.126207625078    -0.046524738155
            0.128843212739    -0.014555070672    0.000790431854    -0.000649706142    0.125938517100    -0.036371523668    0.001144862323    -0.000857663876
            0.001709255048    -0.001141763026    0.126207625078    -0.046524738155    0.001144862323    -0.000857663876    0.132794804306    -0.042136408978
0.750     0.103230487998    -0.063403614596    0.000998684481    -0.001014261681    0.113234483631    -0.041180636620    0.001560277641    -0.001403776446
            0.000998684481    -0.001014261681    0.117315779404    -0.047483864679    0.000705607467    -0.000764149766    0.113356534705    -0.053547794281
            0.113234483631    -0.041180636620    0.000705607467    -0.000764149766    0.103616624306    -0.062002284214    0.001030409710    -0.001036001600
            0.001560277641    -0.001403776446    0.113356534705    -0.053547794281    0.001030409710    -0.001036001600    0.118508630965    -0.046432275890
0.775     0.073290223986    -0.081035658648    0.000877686893    -0.001165969006    0.089978466176    -0.062268876595    0.001381901105    -0.001658519751
            0.000877686893    -0.001165969006    0.103268521775    -0.046150847864    0.000611375168    -0.000875794457    0.099995591868    -0.055947703223
            0.089978466176    -0.062268876595    0.000611375168    -0.000875794457    0.074232079091    -0.080051836395    0.000894225330    -0.001208218822
            0.001381901105    -0.001658519751    0.099995591868    -0.055947703223    0.000894225330    -0.001208218822    0.104768828852    -0.045606050934
