# GHz S RI R 45
0.000     0.017590827063    0.001914095181    -0.000001747975    -0.000003811644    0.000741831498    0.001636719421    -0.000001941033    -0.000004159068
            -0.000001747975    -0.000003811643    0.018319901314    0.001626301545    -0.000001578591    -0.000003488400    0.000758079521    0.001483874139
            0.000741831383    0.001636719473    -0.000001578591    -0.000003488400    0.017542921220    0.001901710388    -0.000001733760    -0.000003769088
            -0.000001941033    -0.000004159068    0.000758079696    0.001483874162    -0.000001733760    -0.000003769089    0.018265033612    0.001615363224
0.025     0.023200961705    0.010301879949    -0.000004259214    -0.000008072318    0.003122456045    0.010371158930    -0.000004676948    -0.000008811536
            -0.000004259219    -0.000008072326    0.023164039794    0.010903576235    -0.000003873701    -0.000007393033    0.002514053197    0.011028264759
            0.003120161504    0.010374139535    -0.000003873695    -0.000007393016    0.023127283713    0.010251989275    -0.000004210328    -0.000007989737
            -0.000004676942    -0.000008811522    0.002512672567    0.011028274792    -0.000004210321    -0.000007989727    0.023083072522    0.010838421790
0.050     0.031433969490    0.014887917783    -0.000009539644    -0.000013433577    0.009732959682    0.018650471730    -0.000010427453    -0.000014672689
            -0.000009539645    -0.000013433577    0.029185040619    0.016877937452    -0.000008708556    -0.000012311432    0.007452809534    0.020595824122
            0.009732932341    0.018650507430    -0.000008708556    -0.000012311432    0.031329063820    0.014786040759    -0.000009426640    -0.000013313332
            -0.000010427453    -0.000014672689    0.007452818355    0.020595730536    -0.000009426640    -0.000013313332    0.029035354086    0.016772157858
0.075     0.041199323554    0.015251024518    -0.000016317727    -0.000016581439    0.019267879631    0.023340993284    -0.000017812245    -0.000018138470
            -0.000016317727    -0.000016581439    0.035761516333    0.020102153013    -0.000014923116    -0.000015202259    0.014609141808    0.027748193453
            0.019267873062    0.023340996113    -0.000014923116    -0.000015202259    0.041056788006    0.015131819982    -0.000016135259    -0.000016460030
            -0.000017812246    -0.000018138471    0.014609145738    0.027748187994    -0.000016135259    -0.000016460030    0.035527982358    0.020001079703
0.100     0.050992170058    0.010897283973    -0.000024033921    -0.000017420740    0.030086975586    0.023586038635    -0.000026244266    -0.000019102421
            -0.000024033921    -0.000017420740    0.042043089146    0.020570074435    -0.000022001691    -0.000015973861    0.022864817876    0.031987617790
            0.030086975175    0.023586039160    -0.000022001691    -0.000015973861    0.050819250528    0.010785629989    -0.000023796951    -0.000017328662
            -0.000026244269    -0.000019102417    0.022864840952    0.031987611129    -0.000023796952    -0.000017328663    0.041727848973    0.020523083468
0.125     0.058842813755    0.001888790063    -0.000032086368    -0.000015897627    0.040365802602    0.019159058458    -0.000035076964    -0.000017484708
            -0.000032086368    -0.000015897627    0.046824810352    0.018596909146    -0.000029393198    -0.000014574647    0.031065410650    0.033267082376
            0.040365802602    0.019159058458    -0.000029393198    -0.000014574647    0.058660238108    0.001794537900    -0.000031822699    -0.000015846557
            -0.000035076964    -0.000017484708    0.031065410070    0.033267082919    -0.000031822699    -0.000015846557    0.046460481650    0.018654209637
0.150     0.063130998957    -0.010856081141    -0.000039939639    -0.000012120239    0.048320156263    0.010461986363    -0.000043723602    -0.000013378846
            -0.000039939639    -0.000012120239    0.049497297105    0.015091214326    -0.000036600338    -0.000011102207    0.038087548132    0.031920150711
            0.048320156263    0.010461986363    -0.000036600338    -0.000011102207    0.062973678049    -0.010913236515    -0.000039672953    -0.000012098460
            -0.000043723602    -0.000013378846    0.038087548132    0.031920150711    -0.000039672953    -0.000012098460    0.049128017917    0.015269518617
0.175     0.062362305819    -0.025926449957    -0.000047204620    -0.000006227447    0.052387075789    -0.001469212141    -0.000051736546    -0.000006917936
            -0.000047204620    -0.000006227447    0.049431995211    0.011027505555    -0.000043265331    -0.000005683414    0.043038945586    0.028711299246
            0.052387075789    -0.001469212141    -0.000043265331    -0.000005683414    0.062269894095    -0.025953362230    -0.000046940894    -0.000006207459
            -0.000051736546    -0.000006917936    0.043038945586    0.028711299246    -0.000046940894    -0.000006207459    0.049114948489    0.011335205006
0.200     0.055667145068    -0.041391648961    -0.000053570426    0.000001677501    0.051445027246    -0.015083118291    -0.000058745670    0.000001787382
            -0.000053570426    0.000001677501    0.046476436177    0.007664094323    -0.000049098998    0.000001587990    0.045386597173    0.024699154789
            0.051445027246    -0.015083118291    -0.000049098998    0.000001587990    0.055676760350    -0.041416771873    -0.000053288016    0.000001724852
            -0.000058745670    0.000001787382    0.045386597173    0.024699154789    -0.000053288016    0.000001724852    0.046272827415    0.008084079266
0.225     0.042892528993    -0.055055266189    -0.000058690934    0.000011574127    0.044958125024    -0.028480093100    -0.000064344126    0.000012695053
            -0.000058690934    0.000011574127    0.041020933013    0.006275752461    -0.000053778349    0.000010692515    0.045045054649    0.021080482738
            0.044958125024    -0.028480093100    -0.000053778349    0.000010692515    0.043029566423    -0.055126253579    -0.000058341598    0.000011660216
            -0.000064344126    0.000012695053    0.045045054649    0.021080482738    -0.000058341599    0.000011660216    0.040984521667    0.006762863292
0.250     0.024690702523    -0.064711678492    -0.000062104042    0.000023453054    0.033085157526    -0.039625253300    -0.000068012490    0.000025760555
            -0.000062104042    0.000023453054    0.033968214716    0.007953748259    -0.000056874227    0.000021615261    0.042413576944    0.019024913709
            0.033085157526    -0.039625253300    -0.000056874227    0.000021615261    0.024961761929    -0.064889791278    -0.000061625459    0.000023553748
            -0.000068012490    0.000025760555    0.042413576944    0.019024913709    -0.000061625459    0.000023553748    0.034132852006    0.008438507017
0.275     0.002486661680    -0.068418619291    -0.000063161740    0.000037210008    0.016707979591    -0.046583934316    -0.000069052074    0.000040826921
            -0.000063161740    0.000037210008    0.026641858255    0.013386758545    -0.000057788887    0.000034253269    0.038345106071    0.019479047378
            0.016707979591    -0.046583934316    -0.000057788887    0.000034253269    0.002872999807    -0.068771293727    -0.000062500677    0.000037257378
            -0.000069052074    0.000040826921    0.038345106071    0.019479047378    -0.000062500677    0.000037257378    0.027011612968    0.013784807071
0.300     -0.021616248391    -0.064783418306    -0.000061077545    0.000052489499    -0.002615451727    -0.047788030329    -0.000066640004    0.000057469479
            -0.000061077545    0.000052489499    0.020613924458    0.022722918699    -0.000055801280    0.000048268370    0.034045672915    0.022999800656
            -0.002615451727    -0.047788030329    -0.000055801280    0.000048268370    -0.021162106250    -0.065373795624    -0.000060217387    0.000052375337
            -0.000066640004    0.000057469479    0.034045672915    0.022999800656    -0.000060217387    0.000052375337    0.021157615336    0.022948298660
0.325     -0.045054511687    -0.053185103431    -0.000055045146    0.000068550045    -0.022797669121    -0.042267079704    -0.000059948587    0.000074870611
            -0.000055045146    0.000068550045    0.017479113701    0.035467581812    -0.000050177255    0.000062969487    0.030896580755    0.029616723417
            -0.022797669121    -0.042267079704    -0.000050177255    0.000062969487    -0.044606496775    -0.054060102595    -0.000054026684    0.000068151148
            -0.000059948587    0.000074870611    0.030896580755    0.029616723417    -0.000054026684    0.000068151148    0.018130305028    0.035447481650
0.350     -0.065101806490    -0.033942801156    -0.000044467668    0.000084229336    -0.041465493529    -0.029837953276    -0.000048386545    0.000091781481
            -0.000044467668    0.000084229336    0.018593510968    0.050510936493    -0.000040381072    0.000077279772    0.030230959229    0.038791372149
            -0.041465493529    -0.029837953276    -0.000040381072    0.000077279772    -0.064754813566    -0.035122156383    -0.000043401698    0.000083435777
            -0.000048386545    0.000091781481    0.030230959229    0.038791372149    -0.000043401698    0.000083435777    0.019257103177    0.050200534099
0.375     -0.079222145630    -0.008333684744    -0.000029189174    0.000098022733    -0.056261489572    -0.011175090601    -0.000031825437    0.000106616142
            -0.000029189174    0.000098022733    0.024829108085    0.066238987227    -0.000026289537    0.000089813413    0.033091361001    0.049462116336
            -0.056261489572    -0.011175090601    -0.000026289537    0.000089813413    -0.079080588746    -0.009801473232    -0.000028242298    0.000096779047
            -0.000031825437    0.000106616142    0.033091361001    0.049462116336    -0.000028242298    0.000096779047    0.025393652193    0.065631365188
0.400     -0.085428611302    0.021512544644    -0.000009677137    0.000108326224    -0.065177960828    0.012236747464    -0.000010782049    0.000117700452
            -0.000009677137    0.000108326224    0.036398811958    0.080771209232    -0.000008350345    0.000099104451    0.040040636656    0.060212671468
            -0.065177960828    0.012236747464    -0.000008350345    0.000099104451    -0.085593121016    0.019811843187    -0.000009046538    0.000106656547
            -0.000010782049    0.000117700452    0.040040636656    0.060212671468    -0.000009046538    0.000106656547    0.036753333064    0.079903098329
0.425     -0.082560765780    0.052870921105    0.000012955860    0.000113736832    -0.066824167982    0.038289707863    0.000013560945    0.000123576708
            0.000012955860    0.000113736832    0.052789973427    0.092235112033    0.000012392687    0.000103879546    0.051049943033    0.069490163219
            -0.066824167982    0.038289707863    0.000012392687    0.000103879546    -0.083112580132    0.051031293990    0.000013091002    0.000111757548
            0.000013560945    0.000123576708    0.051049943033    0.069490163219    0.000013091002    0.000111757548    0.052839993467    0.091183685285
0.450     -0.070452052596    0.082765281205    0.000037092446    0.000113353699    -0.060613636162    0.064530759378    0.000039513654    0.000123314374
            0.000037092446    0.000113353699    0.072835380483    0.099059276135    0.000034449709    0.000103338971    0.065513662260    0.075860852485
            -0.060613636162    0.064530759378    0.000034449709    0.000103338971    -0.071438876739    0.080913450545    0.000036611201    0.000111258768
            0.000039513654    0.000123314374    0.065513662260    0.075860852485    0.000036611201    0.000111258768    0.072517332991    0.097932374297
0.475     -0.049929622652    0.108337252749    0.000060889287    0.000106944275    -0.046798416009    0.088473250212    0.000065153369    0.000116669557
            0.000060889287    0.000106944275    0.094884207676    0.100185045280    0.000056133865    0.000097302389    0.082349036136    0.078206832825
            -0.046798416009    0.088473250212    0.000056133865    0.000097302389    -0.051353072532    0.106627021461    0.000059766621    0.000104977139
            0.000065153369    0.000116669557    0.082349036136    0.078206832825    0.000059766621    0.000104977139    0.094170237336    0.099107855495
0.500     -0.022688061301    0.127178476562    0.000082587112    0.000094969772    -0.026394759704    0.107899514462    0.000088648053    0.000104114749
            0.000082587112    0.000094969772    0.117054237237    0.095195249071    0.000075877245    0.000086218156    0.100179701080    0.075866327248
            -0.026394759704    0.107899514462    0.000075877245    0.000086218156    -0.024486346084    0.125802517430    0.000080932807    0.000093374384
            0.000088648053    0.000104114749    0.100179701080    0.075866327248    0.000080932807    0.000093374384    0.115943092520    0.094292550254
0.525     0.008946692772    0.137557301699    0.000100793006    0.000078415705    -0.000964324268    0.121168522755    0.000108534322    0.000086669389
            0.000100793006    0.000078415705    0.137555335994    0.084346967380    0.000092605340    0.000071040051    0.117560649327    0.068683113250
            -0.000964324268    0.121168522755    0.000092605340    0.000071040051    0.006945699413    0.136962616634    0.000098995060    0.000077442273
            0.000108534322    0.000086669389    0.117560649327    0.068683113250    0.000098995060    0.000077442273    0.135967034490    0.083700320420
0.550     0.042303895589    0.138586243858    0.000114692769    0.000058850971    0.026156294680    0.126582165049    0.000123928374    0.000065782890
            0.000114692769    0.000058850971    0.153726017932    0.068976500635    0.000104209910    0.000054052208    0.132508592164    0.057296919649
            0.026156294680    0.126582165049    0.000104209910    0.000054052208    0.038301424604    0.137721801246    0.000111653561    0.000059412418
            0.000123928374    0.000065782890    0.132508592164    0.057296919649    0.000111653561    0.000059412418    0.152618069486    0.068134998013
0.575     0.074558584003    0.130082173420    0.000123687863    0.000037321413    0.055467630183    0.123926126510    0.000134290500    0.000042812998
            0.000123687863    0.000037321413    0.165823846663    0.048900124193    0.000112468238    0.000033908291    0.144567106242    0.041560851372
            0.055467630183    0.123926126510    0.000112468238    0.000033908291    0.071369488825    0.129760774764    0.000120983691    0.000038044313
            0.000134290500    0.000042812998    0.144567106242    0.041560851372    0.000120983691    0.000038044313    0.164467961329    0.048822971895
0.600     0.102927174000    0.112632971904    0.000128086299    0.000015416330    0.082591000484    0.113459210776    0.000139770832    0.000019223070
            0.000128086299    0.000015416330    0.172097443511    0.027021446364    0.000116593278    0.000014017192    0.152227434287    0.023351989992
            0.082591000484    0.113459210776    0.000116593278    0.000014017192    0.100041768975    0.113244768417    0.000125935669    0.000016795240
            0.000139770832    0.000019223070    0.152227434287    0.023351989992    0.000125935669    0.000016795240    0.170604781582    0.027372029669
0.625     0.124881931603    0.088371103277    0.000128650116    -0.000005543384    0.105725131917    0.096107332759    0.000141193624    -0.000003625761
            0.000128650116    -0.000005543384    0.172227410881    0.004789715763    0.000117139135    -0.000005237611    0.155020647829    0.003944358259
            0.105725131917    0.096107332759    0.000117139135    -0.000005237611    0.122726664949    0.089315212107    0.000127124931    -0.000003991543
            0.000141193624    -0.000003625761    0.155020647836    0.003944357988    0.000127124931    -0.000003991543    0.170936678393    0.005765125077
0.650     0.139466236348    0.058724009451    0.000126228547    -0.000025425319    0.123429074850    0.072702109888    0.000139308910    -0.000025604462
            0.000126228547    -0.000025425319    0.166380140032    -0.015961696889    0.000114835265    -0.000023294658    0.152631442208    -0.015438015210
            0.123429074850    0.072702109888    0.000114835265    -0.000023294658    0.137612262250    0.059904353713    0.000125187522    -0.000023727522
            0.000139308910    -0.000025604462    0.152631442181    -0.015438015477    0.000125187522    -0.000023727522    0.165530924852    -0.014714791616
0.675     0.144836510683    0.025895188216    0.000121469538    -0.000043820045    0.133806835449    0.044935541684    0.000134741040    -0.000046216294
            0.000121469538    -0.000043820045    0.155256342786    -0.033487710823    0.000110506023    -0.000039974362    0.145150062318    -0.033069478629
            0.133806835449    0.044935541684    0.000110506023    -0.000039974362    0.143417803147    0.027363509360    0.000120952823    -0.000042167379
            0.000134741040    -0.000046216294    0.145150062318    -0.033069478629    0.000120952823    -0.000042167379    0.154845591674    -0.032131066427
0.700     0.140357878336    -0.007293715275    0.000115203656    -0.000060887427    0.135775386613    0.015026040750    0.000128295610    -0.000065581397
            0.000115203656    -0.000060887427    0.140065972890    -0.046261032736    0.000104840827    -0.000055487272    0.133305959854    -0.047380947413
            0.135775386613    0.015026040750    0.000104840827    -0.000055487272    0.139498740073    -0.005661557964    0.000115087877    -0.000059495996
            0.000128295610    -0.000065581397    0.133305959854    -0.047380947413    0.000115087877    -0.000059495996    0.140101544733    -0.044941404299
0.725     0.126174880171    -0.037988686145    0.000107906569    -0.000077196230    0.128843212764    -0.014555070447    0.000120415192    -0.000084218362
            0.000107906569    -0.000077196230    0.122497804331    -0.053128744013    0.000098233793    -0.000070353239    0.118317737324    -0.057032796845
            0.128843212739    -0.014555070672    0.000098233793    -0.000070353239    0.125938517100    -0.036371523668    0.000107959851    -0.000076192390
            0.000120415192    -0.000084218362    0.118317737324    -0.057032796845    0.000107959851    -0.000076192390    0.122945708746    -0.052004205568
0.750     0.103230487998    -0.063403614596    0.000099554608    -0.000093518812    0.113234483631    -0.041180636620    0.000111051747    -0.000102820253
            0.000099554608    -0.000093518812    0.104636098735    -0.053492060268    0.000090635058    -0.000085263391    0.101889875150    -0.061088252080
            0.113234483631    -0.041180636620    0.000090635058    -0.000085263391    0.103616624306    -0.062002284214    0.000099499878    -0.000092884075
            0.000111051747    -0.000102820253    0.101889875150    -0.061088252080    0.000099499878    -0.000092884075    0.105406230012    -0.052709604250
0.775     0.073290223986    -0.081035658648    0.000089515168    -0.000110535798    0.089978466176    -0.062268876595    0.000099556863    -0.000121987921
            0.000089515168    -0.000110535798    0.088785111233    -0.047475680878    0.000081453087    -0.000100814346    0.086077345008    -0.059230331793
            0.089978466176    -0.062268876595    0.000081453087    -0.000100814346    0.074232079091    -0.080051836395    0.000089102672    -0.000110101112
            0.000099556863    -0.000121987921    0.086077345008    -0.059230331793    0.000089102672    -0.000110101112    0.089732418816    -0.047148881827
