# GHz S RI R 45
0.000     0.017590827063    0.001914095181    -0.000000016470    -0.000000112199    0.000741831498    0.001636719421    -0.000000012879    -0.000000111240
            -0.000000016470    -0.000000112199    0.016357982127    0.001419271694    0.000000003336    -0.000000082097    0.000614543248    0.001222100298
            0.000741831383    0.001636719473    0.000000003336    -0.000000082097    0.017542921220    0.001901710388    0.000000009457    -0.000000078169
            -0.000000012879    -0.000000111240    0.000614543226    0.001222100309    0.000000009457    -0.000000078169    0.016291463650    0.001411003636
0.025     0.023200961705    0.010301879949    -0.000000099415    -0.000000239632    0.003122456045    0.010371158930    -0.000000093492    -0.000000238362
            -0.000000099415    -0.000000239632    0.021150937983    0.008539858193    -0.000000050343    -0.000000182747    0.002502409810    0.008538410777
            0.003120161504    0.010374139535    -0.000000050343    -0.000000182747    0.023127283713    0.010251989275    -0.000000038729    -0.000000175893
            -0.000000093492    -0.000000238362    0.002502242960    0.008538459883    -0.000000038729    -0.000000175893    0.021072179960    0.008447222528
0.050     0.031433969490    0.014887917783    -0.000000304913    -0.000000386804    0.009732959682    0.018650471730    -0.000000296498    -0.000000387484
            -0.000000304913    -0.000000386804    0.028085650121    0.012316039190    -0.000000201163    -0.000000309899    0.007849301027    0.015529350376
            0.009732932341    0.018650507430    -0.000000201163    -0.000000309899    0.031329063820    0.014786040759    -0.000000181082    -0.000000303338
            -0.000000296498    -0.000000387484    0.007849272932    0.015529360095    -0.000000181082    -0.000000303338    0.027974346836    0.012156373692
0.075     0.041199323554    0.015251024518    -0.000000579318    -0.000000422149    0.019267879631    0.023340993284    -0.000000569627    -0.000000426257
            -0.000000579318    -0.000000422149    0.036444630464    0.012739375015    -0.000000413889    -0.000000355504    0.015714097421    0.019782889294
            0.019267873062    0.023340996113    -0.000000413889    -0.000000355504    0.041056788006    0.015131819982    -0.000000385504    -0.000000353819
            -0.000000569627    -0.000000426257    0.015714090031    0.019782891333    -0.000000385504    -0.000000353819    0.036296912807    0.012529567372
0.100     0.050992170058    0.010897283973    -0.000000878318    -0.000000325788    0.030086975586    0.023586038635    -0.000000868813    -0.000000334253
            -0.000000878318    -0.000000325788    0.045148038487    0.009347680350    -0.000000654557    -0.000000299919    0.024915352000    0.020579509064
            0.030086975175    0.023586039160    -0.000000654557    -0.000000299919    0.050819250528    0.010785629989    -0.000000619261    -0.000000307334
            -0.000000868813    -0.000000334253    0.024915352000    0.020579509064    -0.000000619261    -0.000000307334    0.044967434765    0.009108384168
0.125     0.058842813755    0.001888790063    -0.000001149367    -0.000000091657    0.040365802602    0.019159058458    -0.000001142042    -0.000000104900
            -0.000001149367    -0.000000091657    0.052733587848    0.001977719659    -0.000000882657    -0.000000134888    0.034117127376    0.017631227592
            0.040365802602    0.019159058458    -0.000000882657    -0.000000134888    0.058660238108    0.001794537900    -0.000000843490    -0.000000155218
            -0.000001142042    -0.000000104900    0.034117127376    0.017631227592    -0.000000843490    -0.000000155218    0.052528547888    0.001725970418
0.150     0.063130998957    -0.010856081141    -0.000001339904    0.000000266489    0.048320156263    0.010461986363    -0.000001336825    0.000000248960
            -0.000001339904    0.000000266489    0.057839056968    -0.008708427507    -0.000001056356    0.000000132590    0.041971383585    0.011054655135
            0.048320156263    0.010461986363    -0.000001056356    0.000000132590    0.062973678049    -0.010913236515    -0.000001017894    0.000000097040
            -0.000001336825    0.000000248960    0.041971383585    0.011054655135    -0.000001017894    0.000000097040    0.057636852338    -0.008951239513
0.175     0.062362305819    -0.025926449957    -0.000001404112    0.000000717605    0.052387075789    -0.001469212141    -0.000001407368    0.000000697025
            -0.000001404112    0.000000717605    0.059259267210    -0.021863293825    -0.000001137948    0.000000481815    0.047216752251    0.001442017514
            0.052387075789    -0.001469212141    -0.000001137948    0.000000481815    0.062269894095    -0.025953362230    -0.000001105658    0.000000430420
            -0.000001407368    0.000000697025    0.047216752251    0.001442017514    -0.000001105658    0.000000430420    0.059092583499    -0.022096134526
0.200     0.055667145068    -0.041391648961    -0.000001307873    0.000001215596    0.051445027246    -0.015083118291    -0.000001319160    0.000001194204
            -0.000001307873    0.000001215596    0.056106595674    -0.036196521138    -0.000001097143    0.000000879651    0.048845838797    -0.010219195978
            0.051445027246    -0.015083118291    -0.000001097143    0.000000879651    0.055676760350    -0.041416771873    -0.000001076769    0.000000813875
            -0.000001319160    0.000001194204    0.048845838797    -0.010219195978    -0.000001076769    0.000000813875    0.056008058817    -0.036434406581
0.225     0.042892528993    -0.055055266189    -0.000001033187    0.000001703718    0.044958125024    -0.028480093100    -0.000001053469    0.000001684531
            -0.000001033187    0.000001703718    0.047946281403    -0.050127477581    -0.000000915435    0.000001283117    0.046208573618    -0.022641010921
            0.044958125024    -0.028480093100    -0.000000915435    0.000001283117    0.043029566423    -0.055126253579    -0.000000912280    0.000001206625
            -0.000001053469    0.000001684531    0.046208573618    -0.022641010921    -0.000000912280    0.000001206625    0.047942805986    -0.050400852691
0.250     0.024690702523    -0.064711678492    -0.000000581484    0.000002119120    0.033085157526    -0.039625253300    -0.000000610538    0.000002105725
            -0.000000581484    0.000002119120    0.034902157229    -0.061954289561    -0.000000588834    0.000001642676    0.039100895716    -0.034359443578
            0.033085157526    -0.039625253300    -0.000000588834    0.000001642676    0.024961761929    -0.064889791278    -0.000000606821    0.000001561184
            -0.000000610538    0.000002105725    0.039100895716    -0.034359443578    -0.000000606821    0.000001561184    0.035008952870    -0.062306000238
0.275     0.002486661680    -0.068418619291    0.000000024257    0.000002399872    0.016707979591    -0.046583934316    -0.000000011925    0.000002395964
            0.000000024257    0.000002399872    0.017658696365    -0.070043857319    -0.000000130571    0.000001907796    0.027804533916    -0.043875343718
            0.016707979591    -0.046583934316    -0.000000130571    0.000001907796    0.002872999807    -0.068771293727    -0.000000171498    0.000001828498
            -0.000000011925    0.000002395964    0.027804533916    -0.043875343718    -0.000000171498    0.000001828498    0.017874429329    -0.070524953356
0.300     -0.021616248391    -0.064783418306    0.000000739552    0.000002491683    -0.002615451727    -0.047788030329    0.000000699503    0.000002500431
            0.000000739552    0.000002491683    -0.002562807898    -0.073022634590    0.000000428534    0.000002031999    0.013090320462    -0.049818736525
            -0.002615451727    -0.047788030329    0.000000428534    0.000002031999    -0.021162106250    -0.065373795624    0.000000365621    0.000001962681
            0.000000699503    0.000002500431    0.013090320462    -0.049818736525    0.000000365621    0.000001962681    -0.002259746097    -0.073686494290
0.325     -0.045054511687    -0.053185103431    0.000001501471    0.000002356192    -0.022797669121    -0.042267079704    0.000001461992    0.000002379674
            0.000001501471    0.000002356192    -0.024111821208    -0.069936623009    0.000001041643    0.000001980221    -0.003835599307    -0.051099676992
            -0.022797669121    -0.042267079704    0.000001041643    0.000001980221    -0.044606496775    -0.054060102595    0.000000960476    0.000001928215
            0.000001461992    0.000002379674    -0.003835599307    -0.051099676992    0.000000960476    0.000001928215    -0.023764400357    -0.070830708996
0.350     -0.065101806490    -0.033942801156    0.000002233794    0.000001976990    -0.041465493529    -0.029837953276    0.000002200350    0.000002015569
            0.000002233794    0.000001976990    -0.045054589685    -0.060395131211    0.000001649787    0.000001733614    -0.021437004493    -0.047053249558
            -0.041465493529    -0.029837953276    0.000001649787    0.000001733614    -0.064754813566    -0.035122156383    0.000001556644    0.000001704700
            0.000002200350    0.000002015569    -0.021437004493    -0.047053249558    0.000001556644    0.000001704700    -0.044725432151    -0.061553085829
0.375     -0.079222145630    -0.008333684744    0.000002856082    0.000001364684    -0.056261489572    -0.011175090601    0.000002834385    0.000001416660
            0.000002856082    0.000001364684    -0.063367499722    -0.044639630735    0.000002188750    0.000001294611    -0.037995359852    -0.037532019414
            -0.056261489572    -0.011175090601    0.000002188750    0.000001294611    -0.079080588746    -0.009801473232    0.000002091802    0.000001292208
            0.000002834385    0.000001416660    -0.037995359852    -0.037532019414    0.000002091802    0.000001292208    -0.063134148908    -0.046074342728
0.400     -0.085428611302    0.021512544644    0.000003292940    0.000000556930    -0.065177960828    0.012236747464    0.000003288112    0.000000618606
            0.000003292940    0.000000556930    -0.077155346120    -0.023563387969    0.000002596140    0.000000687224    -0.051797285420    -0.022955041442
            -0.065177960828    0.012236747464    0.000002596140    0.000000687224    -0.085593121016    0.019811843187    0.000002504477    0.000000711859
            0.000003288112    0.000000618606    -0.051797285420    -0.022955041442    0.000002504477    0.000000711859    -0.077103152807    -0.025261144844
0.425     -0.082560765780    0.052870921105    0.000003484240    -0.000000384438    -0.066824167982    0.038289707863    0.000003500187    -0.000000318496
            0.000003484240    -0.000000384438    -0.084856718810    0.001360219591    0.000002820067    -0.000000044699    -0.061315873936    -0.004279257079
            -0.066824167982    0.038289707863    0.000002820067    -0.000000044699    -0.083112580132    0.051031293990    0.000002742681    0.000000004800
            0.000003500187    -0.000000318496    -0.061315873936    -0.004279257079    0.000002742681    0.000000004800    -0.085070873952    -0.000557701265
0.450     -0.070452052596    0.082765281205    0.000003391817    -0.000001381915    -0.060613636162    0.064530759378    0.000003430538    -0.000001317868
            0.000003391817    -0.000001381915    -0.085429011134    0.028210159069    0.000002824072    -0.000000844659    -0.065389268683    0.017087895623
            -0.060613636162    0.064530759378    0.000002824072    -0.000000844659    -0.071438876739    0.080913450545    0.000002768966    -0.000000774522
            0.000003430538    -0.000001317868    -0.065389268683    0.017087895623    0.000002768966    -0.000000774522    -0.085984875035    0.026144596058
0.475     -0.049929622652    0.108337252749    0.000003009361    -0.000002352058    -0.046798416009    0.088473250212    0.000003069438    -0.000002296293
            0.000003009361    -0.000002352058    -0.078459836736    0.054806092438    0.000002599083    -0.000001651317    -0.063337320941    0.039429746525
            -0.046798416009    0.088473250212    0.000002599083    -0.000001651317    -0.051353072532    0.106627021461    0.000002570781    -0.000001566163
            0.000003069438    -0.000002296293    -0.063337320941    0.039429746525    0.000002570781    -0.000001566163    -0.079416389796    0.052694204178
0.500     -0.022688061301    0.127178476562    0.000002358497    -0.000003202336    -0.026394759704    0.107899514462    0.000002436096    -0.000003163143
            0.000002358497    -0.000003202336    -0.064224500330    0.078919285808    0.000002156806    -0.000002387554    -0.055041170104    0.060893815766
            -0.026394759704    0.107899514462    0.000002156806    -0.000002387554    -0.024486346084    0.125802517430    0.000002157082    -0.000002297812
            0.000002436096    -0.000003163143    -0.055041170104    0.060893815766    0.000002157082    -0.000002297812    -0.065612414703    0.076896048444
0.525     0.008946692772    0.137557301699    0.000001474692    -0.000003854962    -0.000964324268    0.121168522755    0.000001564749    -0.000003839721
            0.000001474692    -0.000003854962    -0.043677875291    0.098482440928    0.000001511386    -0.000002995246    -0.040952378484    0.079667985084
            -0.000964324268    0.121168522755    0.000001511386    -0.000002995246    0.006945699413    0.136962616634    0.000001541855    -0.000002911896
            0.000001564749    -0.000003839721    -0.040952378484    0.079667985084    0.000001541855    -0.000002911896    -0.045463220552    0.096720497415
0.550     0.042303895589    0.138586243858    0.000000418033    -0.000004254823    0.026156294680    0.126582165049    0.000000512044    -0.000004267107
            0.000000418033    -0.000004254823    -0.018393382574    0.111852028465    0.000000743605    -0.000003396403    -0.022053176681    0.094196930115
            0.026156294680    0.126582165049    0.000000743605    -0.000003396403    0.038301424604    0.137721801246    0.000000801122    -0.000003327189
            0.000000512044    -0.000004267107    -0.022053176681    0.094196930115    0.000000801122    -0.000003327189    -0.020409844152    0.110493037064
0.575     0.074558584003    0.130082173420    -0.000000739496    -0.000004362816    0.055467630183    0.123926126510    -0.000000649809    -0.000004401031
            -0.000000739496    -0.000004362816    0.009748537677    0.118003440063    -0.000000190348    -0.000003597244    0.000348540340    0.103315302091
            0.055467630183    0.123926126510    -0.000000190348    -0.000003597244    0.071369488825    0.129760774764    -0.000000110427    -0.000003548906
            -0.000000649809    -0.000004401031    0.000348540340    0.103315302091    -0.000000110427    -0.000003548906    0.007694572964    0.117028004314
0.600     0.102927174000    0.112632971904    -0.000001919783    -0.000004153817    0.082591000484    0.113459210776    -0.000001840324    -0.000004215655
            -0.000001919783    -0.000004153817    0.038756759195    0.116355820604    -0.000001162125    -0.000003557981    0.024715462337    0.106190010373
            0.082591000484    0.113459210776    -0.000001162125    -0.000003557981    0.100041768975    0.113244768417    -0.000001063998    -0.000003535386
            -0.000001840324    -0.000004215655    0.024715462337    0.106190010373    -0.000001063998    -0.000003535386    0.036744645928    0.115718537906
0.625     0.124881931603    0.088371103277    -0.000003033940    -0.000003636214    0.105725131917    0.096107332759    -0.000002970272    -0.000003719239
            -0.000003033940    -0.000003636214    0.066450413901    0.106848032830    -0.000002125260    -0.000003260653    0.049270034558    0.102418603738
            0.105725131917    0.096107332759    -0.000002125260    -0.000003260653    0.122726664949    0.089315212107    -0.000002015133    -0.000003269451
            -0.000002970272    -0.000003719239    0.049270034558    0.102418603738    -0.000002015133    -0.000003269451    0.064552276046    0.106560176611
0.650     0.139466236348    0.058724009451    -0.000004017998    -0.000002820654    0.123429074850    0.072702109888    -0.000003975738    -0.000002921684
            -0.000004017997    -0.000002820654    0.090695069241    0.090070027756    -0.000003014867    -0.000002705588    0.072185109102    0.092123351615
            0.123429074850    0.072702109888    -0.000003014867    -0.000002705588    0.137612262250    0.059904353713    -0.000002901163    -0.000002750075
            -0.000003975738    -0.000002921684    0.072185109102    0.092123351615    -0.000002901163    -0.000002750075    0.089016225209    0.090134485159
0.675     0.144836510683    0.025895188216    -0.000004785164    -0.000001736548    0.133806835449    0.044935541684    -0.000004769734    -0.000001850656
            -0.000004785164    -0.000001736548    0.109605436816    0.067178121269    -0.000003764893    -0.000001908123    0.091728696331    0.075906452094
            0.133806835449    0.044935541684    -0.000003764893    -0.000001908123    0.143417803147    0.027363509360    -0.000003657669    -0.000001990277
            -0.000004769734    -0.000001850656    0.091728696331    0.075906452094    -0.000003657669    -0.000001990277    0.108265639126    0.067557868476
0.700     0.140357878336    -0.007293715275    -0.000005262542    -0.000000440132    0.135775386613    0.015026040750    -0.000005278223    -0.000000560690
            -0.000005262542    -0.000000440132    0.121674602875    0.039791091266    -0.000004308746    -0.000000899001    0.106380266937    0.054809188863
            0.135775386613    0.015026040750    -0.000004308746    -0.000000899001    0.139498740073    -0.005661557964    -0.000004218959    -0.000001017870
            -0.000005278223    -0.000000560690    0.106380266937    0.054809188863    -0.000004218959    -0.000001017870    0.120787326714    0.040405617335
0.725     0.126174880171    -0.037988686145    -0.000005389676    0.000000994678    0.128843212764    -0.014555070447    -0.000005439257    0.000000875913
            -0.000005389676    0.000000994678    0.125865965107    0.009882289146    -0.000004584444    0.000000272205    0.114917677783    0.030252464341
            0.128843212739    -0.014555070672    -0.000004584444    0.000000272205    0.125938517100    -0.036371523668    -0.000004523153    0.000000120873
            -0.000005439257    0.000000875913    0.114917677783    0.030252464341    -0.000004523153    0.000000120873    0.125524175388    0.010611242306
0.750     0.103230487998    -0.063403614596    -0.000005121435    0.000002474459    0.113234483631    -0.041180636620    -0.000005205627    0.000002366811
            -0.000005121435    0.000002474459    0.121695509303    -0.020346675639    -0.000004538519    0.000001535471    0.116521713542    0.003961925428
            0.113234483631    -0.041180636620    -0.000004538519    0.000001535471    0.103616624306    -0.062002284214    -0.000004515849    0.000001359698
            -0.000005205627    0.000002366811    0.116521713542    0.003961925428    -0.000004515849    0.000001359698    0.121958480259    -0.019654740480
0.775     0.073290223986    -0.081035658648    -0.000004437294    0.000003888813    0.089978466176    -0.062268876595    -0.000004554315    0.000003802371
            -0.000004437294    0.000003888813    0.109281790881    -0.048604761168    -0.000004135856    0.000002800912    0.110846755920    -0.022130595169
            0.089978466176    -0.062268876595    -0.000004135856    0.000002800912    0.074232079091    -0.080051836395    -0.000004159697    0.000002612034
