!$
! Info: Touchstone file created by Circ.  Input file=Intel_C2M_200G_11p5in_202208016_staggered.circ
!$
# Hz S RI R 50
0	0.03194157	5.26585e-24	0.00010781	1.660396e-22	0.0001501316	3.566542e-22	0.0001078035	1.657871e-22
	0.00010781	1.660396e-22	0.03195428	5.700514e-24	0.0001078141	1.661785e-22	0.0001497347	3.535511e-22
	0.0001501877	3.567777e-22	0.0001078141	1.661804e-22	0.03193656	5.528542e-24	0.0001078057	1.65911e-22
	0.0001078035	1.657889e-22	0.0001497908	3.536747e-22	0.0001078057	1.65911e-22	0.03195228	5.389639e-24
1e+07	0.03894977	0.003237048	1.146974e-05	4.434917e-05	0.002992663	0.008258617	1.69993e-05	3.052894e-05
	1.146974e-05	4.434919e-05	0.0388775	0.004105551	9.922208e-06	5.443465e-05	0.002999342	0.008316904
	0.002992663	0.008258617	9.922208e-06	5.443465e-05	0.03885976	0.004165638	1.172553e-05	4.649915e-05
	1.69993e-05	3.052894e-05	0.002999342	0.008316904	1.172553e-05	4.649915e-05	0.03897806	0.003243272
2e+07	0.04528288	-0.0004066998	2.195659e-05	3.449808e-05	0.007221671	0.01467528	1.25485e-05	1.770752e-05
	2.195659e-05	3.44981e-05	0.04624296	0.000878516	4.213745e-05	5.130316e-05	0.007235613	0.01478944
	0.007221677	0.01467527	4.213745e-05	5.130316e-05	0.04624969	0.0009954665	2.456814e-05	3.757592e-05
	1.25485e-05	1.770752e-05	0.007235619	0.01478943	2.456814e-05	3.757592e-05	0.04532347	-0.0004088608
3e+07	0.048437	-0.007337333	3.546869e-05	2.578849e-05	0.01330155	0.01945172	1.008264e-05	1.466419e-05
	3.546869e-05	2.578848e-05	0.05012565	-0.006239463	6.774996e-05	3.864015e-05	0.01332719	0.01961681
	0.01330154	0.01945177	6.774997e-05	3.864015e-05	0.05016722	-0.006067673	3.980219e-05	2.851927e-05
	1.008264e-05	1.466419e-05	0.01332718	0.01961685	3.980219e-05	2.851927e-05	0.04847652	-0.007348223
4e+07	0.04872661	-0.0151694	4.433644e-05	1.50593e-05	0.02062398	0.02192728	1.098644e-05	1.047887e-05
	4.433644e-05	1.50593e-05	0.05092134	-0.01447553	8.425715e-05	1.975202e-05	0.02066205	0.02213613
	0.02062399	0.0219273	8.425715e-05	1.975202e-05	0.05101442	-0.01426765	4.993276e-05	1.695611e-05
	1.098645e-05	1.047887e-05	0.02066206	0.02213615	4.993276e-05	1.69561e-05	0.04876085	-0.01519502
5e+07	0.04660698	-0.02277877	4.887889e-05	3.196555e-06	0.02840263	0.02187115	1.248583e-05	5.288573e-06
	4.887889e-05	3.196554e-06	0.04910974	-0.02260128	9.228426e-05	-2.066062e-06	0.02845027	0.02211659
	0.02840264	0.02187116	9.228426e-05	-2.066063e-06	0.04925996	-0.02237784	5.53493e-05	3.96702e-06
	1.248583e-05	5.288572e-06	0.02845027	0.02211659	5.53493e-05	3.967019e-06	0.04662755	-0.02281973
6e+07	0.0425414	-0.02947133	4.950672e-05	-8.728472e-06	0.03582712	0.01926105	1.217667e-05	5.593806e-07
	4.950672e-05	-8.728471e-06	0.04516932	-0.02986038	9.256643e-05	-2.426454e-05	0.0358781	0.01953739
	0.03582712	0.01926103	9.256643e-05	-2.426454e-05	0.04537501	-0.02964257	5.648074e-05	-9.267305e-06
	1.217667e-05	5.593826e-07	0.0358781	0.01953737	5.648074e-05	-9.267304e-06	0.04254096	-0.02952535
7e+07	0.03706311	-0.03477204	4.669923e-05	-1.981536e-05	0.04211404	0.01432374	1.040087e-05	-3.279291e-06
	4.669923e-05	-1.981536e-05	0.03964718	-0.03573268	8.613542e-05	-4.482705e-05	0.04215957	0.01462811
	0.04211403	0.01432373	8.613542e-05	-4.482705e-05	0.0398991	-0.03554064	5.380945e-05	-2.176375e-05
	1.040087e-05	-3.27929e-06	0.04215957	0.01462811	5.380945e-05	-2.176375e-05	0.03703546	-0.03483561
8e+07	0.03076058	-0.03842666	4.099099e-05	-2.935343e-05	0.04658535	0.00751288	7.587891e-06	-5.880996e-06
	4.099099e-05	-2.935343e-05	0.03314504	-0.03992942	7.411911e-05	-6.224202e-05	0.04661524	0.007846194
	0.04658536	0.007512882	7.411911e-05	-6.224202e-05	0.03342717	-0.03977954	4.786579e-05	-3.274194e-05
	7.587891e-06	-5.880996e-06	0.04661524	0.007846196	4.786579e-05	-3.274194e-05	0.03070068	-0.03849545
9e+07	0.02421624	-0.04039119	3.290161e-05	-3.684625e-05	0.04873083	-0.0005346494	4.238482e-06	-7.049345e-06
	3.290161e-05	-3.684625e-05	0.02625324	-0.04238086	5.761652e-05	-7.547871e-05	0.04873514	-0.0001672148
	0.04873084	-0.0005346501	5.761652e-05	-7.547871e-05	0.026544	-0.04228323	3.91523e-05	-4.164912e-05
	4.238481e-06	-7.049345e-06	0.04873515	-0.0001672155	3.91523e-05	-4.164913e-05	0.02411975	-0.04045997
1e+08	0.01801111	-0.04078671	2.209776e-05	-4.21654e-05	0.04825239	-0.009059822	6.871825e-07	-6.685697e-06
	2.209776e-05	-4.21654e-05	0.01950557	-0.04320528	3.612276e-05	-8.415073e-05	0.04822315	-0.008648824
	0.04825239	-0.009059823	3.612276e-05	-8.415073e-05	0.01978017	-0.04316201	2.718177e-05	-4.836076e-05
	6.871827e-07	-6.685697e-06	0.04822315	-0.008648824	2.718177e-05	-4.836076e-05	0.01787444	-0.04084957
1.1e+08	0.01235404	-0.04022205	1.102602e-05	-4.035122e-05	0.04507105	-0.01724363	-1.450761e-06	-4.326006e-06
	1.102602e-05	-4.035122e-05	0.01319112	-0.04266182	1.481722e-05	-7.910725e-05	0.04500349	-0.01677692
	0.04507104	-0.01724363	1.481722e-05	-7.910725e-05	0.01340041	-0.04271708	1.44439e-05	-4.698147e-05
	-1.45076e-06	-4.326006e-06	0.04500348	-0.01677692	1.44439e-05	-4.698147e-05	0.01214529	-0.04032069
1.2e+08	0.007336477	-0.03862049	3.510318e-06	-3.670791e-05	0.0394117	-0.02422954	-2.079402e-06	-2.031407e-06
	3.510319e-06	-3.670791e-05	0.007687059	-0.04094448	4.68536e-07	-7.113142e-05	0.03930496	-0.02369223
	0.0394117	-0.02422954	4.685364e-07	-7.113142e-05	0.007801897	-0.0410205	5.572193e-06	-4.337855e-05
	-2.079402e-06	-2.031408e-06	0.03930495	-0.02369223	5.572193e-06	-4.337855e-05	0.007046722	-0.03868057
1.3e+08	0.003224432	-0.03630887	-8.629914e-08	-3.226905e-05	0.03171367	-0.02932237	-2.112404e-06	-1.341614e-07
	-8.629891e-08	-3.226905e-05	0.003190225	-0.03844513	-2.163679e-06	-6.181549e-05	0.03157249	-0.02869874
	0.03171367	-0.02932236	-2.163679e-06	-6.181549e-05	0.003222824	-0.03850361	1.565436e-06	-3.866852e-05
	-2.112404e-06	-1.341616e-07	0.03157249	-0.02869874	1.565436e-06	-3.866852e-05	0.00288281	-0.0363026
1.4e+08	7.428202e-05	-0.03363078	-7.749634e-07	-2.785821e-05	0.02260432	-0.03197122	-1.673473e-06	1.420033e-06
	-7.749632e-07	-2.785821e-05	-0.0002570363	-0.03553553	-4.088254e-06	-5.317619e-05	0.02243923	-0.03124673
	0.02260432	-0.03197122	-4.088253e-06	-5.317619e-05	-0.0002966206	-0.03556084	2.989118e-07	-3.393284e-05
	-1.673473e-06	1.420032e-06	0.02243923	-0.03124673	2.989119e-07	-3.393284e-05	-0.0002976496	-0.03355767
1.5e+08	-0.002178659	-0.03089261	-1.157705e-06	-2.403606e-05	0.01285069	-0.03182444	-6.624316e-07	2.599291e-06
	-1.157704e-06	-2.403606e-05	-0.002727958	-0.0325425	-5.004374e-06	-4.516319e-05	0.01267759	-0.03098773
	0.01285069	-0.03182443	-5.004374e-06	-4.516319e-05	-0.002836026	-0.03252199	-4.676261e-07	-2.961197e-05
	-6.624315e-07	2.599291e-06	0.01267759	-0.03098772	-4.67626e-07	-2.961197e-05	-0.002572177	-0.03075725
1.6e+08	-0.003688378	-0.02833254	-1.116352e-06	-2.062789e-05	0.003297936	-0.02876455	6.633616e-07	3.263455e-06
	-1.116352e-06	-2.062789e-05	-0.004384369	-0.02972039	-4.929182e-06	-3.790325e-05	0.003137069	-0.02780931
	0.003297936	-0.02876455	-4.929182e-06	-3.790325e-05	-0.004558024	-0.02963808	-8.982965e-07	-2.576985e-05
	6.633616e-07	3.263455e-06	0.003137069	-0.0278093	-8.982965e-07	-2.576985e-05	-0.004102099	-0.02813579
1.7e+08	-0.004664892	-0.02609991	-7.118239e-07	-1.767253e-05	-0.005200414	-0.02292336	2.012438e-06	3.409354e-06
	-7.118239e-07	-1.767253e-05	-0.005444512	-0.02723144	-3.999507e-06	-3.150762e-05	-0.005326055	-0.0218499
	-0.005200414	-0.02292336	-3.999507e-06	-3.150762e-05	-0.005675839	-0.02706815	-9.127352e-07	-2.233587e-05
	2.012438e-06	3.409354e-06	-0.005326055	-0.0218499	-9.127352e-07	-2.233587e-05	-0.005098178	-0.02583663
1.8e+08	-0.005336618	-0.02424512	-4.925339e-08	-1.516996e-05	-0.01185423	-0.01467684	3.709461e-06	2.93828e-06
	-4.925345e-08	-1.516996e-05	-0.006145543	-0.02513624	-2.369358e-06	-2.606673e-05	-0.0119212	-0.0134931
	-0.01185423	-0.01467683	-2.369358e-06	-2.606673e-05	-0.00641901	-0.02487317	-6.007402e-07	-1.931466e-05
	3.709461e-06	2.938279e-06	-0.0119212	-0.0134931	-6.007402e-07	-1.931466e-05	-0.005785381	-0.02390585
1.9e+08	-0.005913308	-0.02272343	8.117537e-07	-1.316287e-05	-0.01600551	-0.004619528	5.206308e-06	1.989689e-06
	8.117537e-07	-1.316287e-05	-0.006706205	-0.02339768	-2.089109e-07	-2.1668e-05	-0.01599237	-0.003341353
	-0.01600551	-0.004619527	-2.08911e-07	-2.1668e-05	-0.006998536	-0.0230205	-9.33359e-09	-1.676154e-05
	5.206308e-06	1.989689e-06	-0.01599237	-0.003341353	-9.333619e-09	-1.676154e-05	-0.006367486	-0.02229726
2e+08	-0.006551193	-0.02141112	1.765109e-06	-1.165399e-05	-0.01718713	0.006480594	6.347629e-06	6.576137e-07
	1.765109e-06	-1.165399e-05	-0.007291838	-0.02189752	2.252362e-06	-1.833658e-05	-0.01707713	0.007830117
	-0.01718713	0.006480594	2.252362e-06	-1.833658e-05	-0.007574863	-0.0214	7.636945e-07	-1.469374e-05
	6.347629e-06	6.576137e-07	-0.01707713	0.007830117	7.636945e-07	-1.469374e-05	-0.006995093	-0.02088914
2.1e+08	-0.007327523	-0.02013435	2.702691e-06	-1.061337e-05	-0.01516691	0.01774259	7.04648e-06	-9.53401e-07
	2.702691e-06	-1.061337e-05	-0.007988604	-0.02046534	4.782948e-06	-1.604257e-05	-0.01495048	0.01913459
	-0.01516691	0.01774259	4.782948e-06	-1.604257e-05	-0.008231982	-0.01985062	1.613992e-06	-1.309854e-05
	7.04648e-06	-9.53401e-07	-0.01495048	0.01913459	1.613992e-06	-1.309854e-05	-0.00773994	-0.01951178
2.2e+08	-0.008226994	-0.01870355	3.525936e-06	-9.987372e-06	-0.009972688	0.02824399	7.244894e-06	-2.716974e-06
	3.525936e-06	-9.987372e-06	-0.008789735	-0.01891338	7.163544e-06	-1.470523e-05	-0.009649281	0.02964619
	-0.009972688	0.02824399	7.163544e-06	-1.470523e-05	-0.008965109	-0.01819489	2.442079e-06	-1.19405e-05
	7.244894e-06	-2.716974e-06	-0.009649281	0.02964619	2.442079e-06	-1.19405e-05	-0.00858339	-0.01798264
2.3e+08	-0.009142508	-0.01695296	4.153184e-06	-9.70089e-06	-0.001895761	0.03709735	6.920017e-06	-4.493781e-06
	4.153184e-06	-9.70089e-06	-0.009596114	-0.01707616	9.201721e-06	-1.419677e-05	-0.001474931	0.03847697
	-0.001895761	0.03709735	9.201721e-06	-1.419677e-05	-0.00968085	-0.01627558	3.160616e-06	-1.116256e-05
	6.920017e-06	-4.493781e-06	-0.001474931	0.03847697	3.160616e-06	-1.116256e-05	-0.009417649	-0.01614346
2.4e+08	-0.009890299	-0.01477604	4.525315e-06	-9.662762e-06	0.00852836	0.04352412	6.087154e-06	-6.141942e-06
	4.525315e-06	-9.662762e-06	-0.0102314	-0.01484627	1.074381e-05	-1.435082e-05	0.009026864	0.04485109
	0.008528361	0.04352412	1.074381e-05	-1.435082e-05	-0.0102103	-0.01399143	3.700078e-06	-1.069007e-05
	6.087154e-06	-6.141942e-06	0.009026864	0.04485109	3.700078e-06	-1.069007e-05	-0.01006004	-0.01389615
2.5e+08	-0.01023743	-0.01215382	4.609357e-06	-9.77242e-06	0.02055978	0.04692063	4.799428e-06	-7.528082e-06
	4.609357e-06	-9.77242e-06	-0.01046943	-0.01220271	1.168358e-05	-1.497381e-05	0.02110694	0.04817074
	0.02055978	0.04692063	1.168358e-05	-1.497381e-05	-0.010337	-0.01132424	4.01315e-06	-1.043618e-05
	4.799428e-06	-7.528082e-06	0.02110694	0.04817074	4.01315e-06	-1.043618e-05	-0.01028228	-0.01122945
2.6e+08	-0.009939018	-0.009170659	4.400188e-06	-9.927415e-06	0.03331097	0.04690986	3.144224e-06	-8.537814e-06
	4.400188e-06	-9.927415e-06	-0.01007133	-0.009226848	1.19676e-05	-1.585815e-05	0.0338704	0.04806755
	0.03331097	0.04690986	1.19676e-05	-1.585815e-05	-0.00983123	-0.008355268	4.077096e-06	-1.030834e-05
	3.144224e-06	-8.537814e-06	0.0338704	0.04806755	4.077096e-06	-1.030834e-05	-0.009845788	-0.008234679
2.7e+08	-0.008778627	-0.006016224	3.919735e-06	-1.003081e-05	0.04581579	0.04337369	1.23649e-06	-9.084545e-06
	3.919735e-06	-1.003081e-05	-0.008825926	-0.006104479	1.159657e-05	-1.679615e-05	0.04634641	0.04443409
	0.04581579	0.04337369	1.159657e-05	-1.679615e-05	-0.008490523	-0.005267175	3.894256e-06	-1.021492e-05
	1.23649e-06	-9.084545e-06	0.04634641	0.04443409	3.894256e-06	-1.021492e-05	-0.008543088	-0.005106463
2.8e+08	-0.006608196	-0.002972869	3.214288e-06	-9.998227e-06	0.05710447	0.03646587	-7.900799e-07	-9.116074e-06
	3.214288e-06	-9.998227e-06	-0.006589402	-0.003113321	1.062299e-05	-1.759361e-05	0.05756368	0.03743606
	0.05710447	0.03646587	1.062299e-05	-1.759361e-05	-0.006178301	-0.002331869	3.490612e-06	-1.007184e-05
	-7.900799e-07	-9.116074e-06	0.05756368	0.03743606	3.490612e-06	-1.007184e-05	-0.006236799	-0.002129423
2.9e+08	-0.003381303	-0.0003881211	2.349874e-06	-9.763688e-06	0.06627846	0.02660295	-2.793404e-06	-8.618139e-06
	2.349874e-06	-9.763688e-06	-0.00331862	-0.0005957322	9.145206e-06	-1.808228e-05	0.06662559	0.02750234
	0.06627846	0.02660295	9.145206e-06	-1.808228e-05	-0.002855831	0.0001152292	2.912465e-06	-9.808318e-06
	-2.793404e-06	-8.618139e-06	0.06662559	0.02750234	2.912465e-06	-9.808318e-06	-0.002891621	0.0003490351
3e+08	0.0008240101	0.001362113	1.406274e-06	-9.283717e-06	0.07257929	0.01443535	-4.633698e-06	-7.614731e-06
	1.406274e-06	-9.283717e-06	0.0009062306	0.001077961	7.298718e-06	-1.812986e-05	0.07277902	0.01529493
	0.07257929	0.01443535	7.298718e-06	-1.812986e-05	0.001394608	0.001711985	2.221954e-06	-9.371344e-06
	-4.633698e-06	-7.614731e-06	0.07277902	0.01529493	2.221954e-06	-9.371344e-06	0.001402932	0.001956717
3.1e+08	0.005796099	0.00191777	4.702432e-07	-8.539758e-06	0.07544761	0.0008017299	-6.183656e-06	-6.165604e-06
	4.702432e-07	-8.539758e-06	0.005872387	0.001553424	5.245251e-06	-1.764753e-05	0.0754732	0.001662639
	0.07544761	0.0008017298	5.245251e-06	-1.764753e-05	0.006360753	0.00211155	1.491427e-06	-8.728734e-06
	-6.183656e-06	-6.165604e-06	0.0754732	0.001662639	1.491427e-06	-8.728734e-06	0.006424302	0.00233982
3.2e+08	0.0111951	0.0009798912	-3.71383e-07	-7.538323e-06	0.0745672	-0.01333072	-7.337164e-06	-4.360952e-06
	-3.713831e-07	-7.538323e-06	0.0112399	0.0005374438	3.160757e-06	-1.659413e-05	0.07440328	-0.01241962
	0.0745672	-0.01333072	3.160757e-06	-1.659413e-05	0.0117051	0.001028538	7.976727e-07	-7.87048e-06
	-7.337164e-06	-4.360952e-06	0.07440328	-0.01241962	7.976727e-07	-7.87048e-06	0.01182278	0.001209966
3.3e+08	0.01657338	-0.001645534	-1.038075e-06	-6.309522e-06	0.06989171	-0.02693516	-8.015954e-06	-2.314203e-06
	-1.038075e-06	-6.309522e-06	0.01656198	-0.002158277	1.223003e-06	-1.497719e-05	0.06953641	-0.02592033
	0.06989171	-0.02693516	1.223003e-06	-1.497719e-05	0.01698578	-0.001720098	2.160069e-07	-6.808424e-06
	-8.015954e-06	-2.314203e-06	0.06953641	-0.02592033	2.160069e-07	-6.808424e-06	0.01714366	-0.001614376
3.4e+08	0.02140924	-0.006011809	-1.461221e-06	-4.904025e-06	0.06165353	-0.03899955	-8.174071e-06	-1.536429e-07
	-1.461221e-06	-4.904025e-06	0.02131874	-0.00658141	-4.004762e-07	-1.285134e-05	0.06112002	-0.03782652
	0.06165353	-0.03899955	-4.004762e-07	-1.285134e-05	0.02168946	-0.00617805	-1.84954e-07	-5.57485e-06
	-8.174071e-06	-1.536427e-07	0.06112002	-0.03782652	-1.84954e-07	-5.57485e-06	0.02186164	-0.006170753
3.5e+08	0.02515284	-0.01200666	-1.588367e-06	-3.388912e-06	0.0503519	-0.04860022	-7.799548e-06	1.986529e-06
	-1.588367e-06	-3.388912e-06	0.02496314	-0.01261414	-1.563229e-06	-1.031356e-05	0.04966861	-0.04721774
	0.0503519	-0.04860022	-1.563229e-06	-1.031356e-05	0.0252756	-0.01222684	-3.477617e-07	-4.219654e-06
	-7.799548e-06	1.986529e-06	0.04966861	-0.04721774	-3.477617e-07	-4.219654e-06	0.02542669	-0.01233024
3.6e+08	0.02727855	-0.01934212	-1.386281e-06	-1.842945e-06	0.03672267	-0.05497186	-6.914054e-06	3.974799e-06
	-1.386281e-06	-1.842945e-06	0.02697359	-0.01996311	-2.1495e-06	-7.496695e-06	0.03593262	-0.05333625
	0.03672267	-0.05497186	-2.1495e-06	-7.496695e-06	0.0272294	-0.01957398	-2.298919e-07	-2.807205e-06
	-6.914054e-06	3.974799e-06	0.03593262	-0.05333625	-2.298919e-07	-2.807205e-06	0.02731844	-0.01978647
3.7e+08	0.02734188	-0.02756036	-8.426553e-07	-3.516343e-07	0.0216891	-0.0575673	-5.570278e-06	5.690221e-06
	-8.426553e-07	-3.516343e-07	0.02691115	-0.02816552	-2.081842e-06	-4.560785e-06	0.02084785	-0.05564669
	0.0216891	-0.0575673	-2.081842e-06	-4.560785e-06	0.02711726	-0.02776044	1.934984e-07	-1.412324e-06
	-5.570277e-06	5.690221e-06	0.02084785	-0.05564669	1.934984e-07	-1.412324e-06	0.02710288	-0.02806446
3.8e+08	0.02503316	-0.03605855	3.32002e-08	9.975984e-07	0.006298447	-0.0561022	-3.847875e-06	7.028925e-06
	3.32002e-08	9.975984e-07	0.02447338	-0.03661445	-1.326692e-06	-1.683104e-06	0.005470836	-0.0538802
	0.006298447	-0.0561022	-1.326692e-06	-1.683104e-06	0.02463973	-0.03618462	9.275499e-07	-1.161916e-07
	-3.847875e-06	7.028925e-06	0.005470836	-0.0538802	9.275499e-07	-1.161916e-07	0.02448605	-0.03654645
3.9e+08	0.02022458	-0.04412916	1.210408e-06	2.120061e-06	-0.008352756	-0.05058301	-1.848444e-06	7.909432e-06
	1.210408e-06	2.120061e-06	0.01954146	-0.04459989	1.021062e-07	9.526209e-07	-0.009097062	-0.04806145
	-0.008352756	-0.05058301	1.021062e-07	9.526209e-07	0.0196795	-0.0441425	1.956173e-06	9.980166e-07
	-1.848444e-06	7.909432e-06	-0.009097062	-0.04806145	1.956173e-06	9.980167e-07	0.01936219	-0.04451421
4e+08	0.0130048	-0.05101801	2.637192e-06	2.938335e-06	-0.02119962	-0.04131147	3.10365e-07	8.276474e-06
	2.637192e-06	2.938335e-06	0.01221455	-0.05136762	2.142363e-06	3.168273e-06	-0.02179147	-0.03851184
	-0.02119962	-0.04131147	2.142363e-06	3.168273e-06	0.01233303	-0.05088576	3.241502e-06	1.850183e-06
	3.10365e-07	8.276474e-06	-0.02179147	-0.03851184	3.241502e-06	1.850183e-06	0.0118445	-0.05120929
4.1e+08	0.003694037	-0.05599206	4.242093e-06	3.387111e-06	-0.03128826	-0.02886813	2.500659e-06	8.103291e-06
	4.242093e-06	3.387111e-06	0.002824426	-0.05618754	4.68587e-06	4.805799e-06	-0.03166463	-0.02583133
	-0.03128826	-0.02886813	4.68587e-06	4.805799e-06	0.002927792	-0.05568794	4.724425e-06	2.371564e-06
	2.500659e-06	8.103291e-06	-0.03166463	-0.02583133	4.724425e-06	2.371564e-06	0.002280686	-0.05590139
4.2e+08	-0.007161754	-0.05841003	5.93632e-06	3.417154e-06	-0.03784936	-0.01407362	4.590951e-06	7.394303e-06
	5.93632e-06	3.417154e-06	-0.008072283	-0.05842577	7.583242e-06	5.733186e-06	-0.03795905	-0.01085806
	-0.03784936	-0.01407362	7.583242e-06	5.733186e-06	-0.007985067	-0.05791671	6.327027e-06	2.503085e-06
	4.590951e-06	7.394303e-06	-0.03795905	-0.01085806	6.327027e-06	2.503085e-06	-0.008756122	-0.05796123
4.3e+08	-0.01882046	-0.05779533	7.616722e-06	3.000811e-06	-0.04035703	0.002070153	6.453142e-06	6.185023e-06
	7.616722e-06	3.000811e-06	-0.01972482	-0.05761651	1.064831e-05	5.856251e-06	-0.04016551	0.005392094
	-0.04035703	0.002070153	1.064831e-05	5.856251e-06	-0.0196612	-0.05710506	7.951507e-06	2.202757e-06
	6.453142e-06	6.185023e-06	-0.04016551	0.005392094	7.951507e-06	2.202757e-06	-0.02050041	-0.05693278
4.4e+08	-0.03039593	-0.05389485	9.170596e-06	2.136542e-06	-0.03856993	0.01845159	7.969021e-06	4.541075e-06
	9.170596e-06	2.136542e-06	-0.03124151	-0.05352062	1.367057e-05	5.133137e-06	-0.0380631	0.02179864
	-0.03856993	0.01845159	1.367057e-05	5.133137e-06	-0.03121359	-0.05300935	9.486627e-06	1.456908e-06
	7.969021e-06	4.541075e-06	-0.0380631	0.02179864	9.486627e-06	1.456908e-06	-0.03204838	-0.05259074
4.5e+08	-0.0409269	-0.04672163	1.048229e-05	8.524749e-07	-0.03255088	0.03393085	9.037643e-06	2.55643e-06
	1.048229e-05	8.524749e-07	-0.04166007	-0.0461671	1.642845e-05	3.578586e-06	-0.03173729	0.03721864
	-0.03255088	0.03393085	1.642845e-05	3.578586e-06	-0.0416829	-0.04565232	1.081477e-05	2.821405e-07
	9.037643e-06	2.55643e-06	-0.03173729	0.03721864	1.081477e-05	2.821405e-07	-0.04243029	-0.04498177
4.6e+08	-0.04946041	-0.0365752	1.144156e-05	-7.915042e-07	-0.02266276	0.04742219	9.582548e-06	3.494818e-07
	1.144156e-05	-7.915042e-07	-0.05003172	-0.03587172	1.870505e-05	1.267182e-06	-0.02157403	0.05056977
	-0.02266276	0.04742219	1.870505e-05	1.267182e-06	-0.05012079	-0.03534234	1.182074e-05	-1.271829e-06
	9.582548e-06	3.494818e-07	-0.02157403	0.05056977	1.182074e-05	-1.271829e-06	-0.05069552	-0.03444122
4.7e+08	-0.05513949	-0.02403566	1.195307e-05	-2.704285e-06	-0.009542794	0.05797234	9.558407e-06	-1.943057e-06
	1.195307e-05	-2.704285e-06	-0.05550885	-0.02322932	2.030477e-05	-1.667972e-06	-0.008232247	0.06090845
	-0.009542794	0.05797234	2.030477e-05	-1.667972e-06	-0.0556755	-0.02266668	1.240174e-05	-3.122299e-06
	9.558407e-06	-1.943057e-06	-0.008232247	0.06090845	1.240174e-05	-3.122299e-06	-0.05599892	-0.02158359
