!$
! Info: Touchstone file created by Circ.  Input file=Intel_C2M_200G_11p5in_202208016_staggered.circ
!$
# Hz S RI R 50
0	0.03250355	1.010487e-23	-0.0001292297	1.582607e-20	0.0003702663	1.22236e-21	-0.0001250304	1.531181e-20
	-0.0001292297	1.582608e-20	0.03195428	5.700514e-24	-0.0001361971	1.667934e-20	0.0001497347	3.535511e-22
	0.0003703307	1.223226e-21	-0.0001361972	1.667935e-20	0.03250478	1.036762e-23	-0.0001292547	1.582914e-20
	-0.0001250304	1.531181e-20	0.0001497908	3.536747e-22	-0.0001292546	1.582913e-20	0.03195228	5.389639e-24
1e+07	0.04051819	0.003065509	-0.0009482501	-3.25553e-05	0.002253225	0.008328079	-7.372189e-05	-0.0001016963
	-0.0009482501	-3.25553e-05	0.0388775	0.004105551	-0.0006132129	0.0003428856	0.002999342	0.008316904
	0.002253225	0.008328079	-0.0006132129	0.0003428856	0.04027926	0.003662238	-0.000751051	2.011936e-05
	-7.372189e-05	-0.0001016963	0.002999342	0.008316904	-0.000751051	2.011936e-05	0.03897806	0.003243272
2e+07	0.04713361	-0.001329277	-0.0008886507	-0.0001419341	0.005688774	0.015395	-0.0001063511	-0.0001287873
	-0.0008886506	-0.000141934	0.04624296	0.000878516	-0.0007115965	0.0003718823	0.007235613	0.01478944
	0.005688863	0.01539489	-0.0007115964	0.0003718824	0.04763247	-0.0003982904	-0.000710557	-0.0002775636
	-0.0001063511	-0.0001287873	0.007235619	0.01478943	-0.000710557	-0.0002775635	0.04532347	-0.0004088608
3e+07	0.05039494	-0.009142687	-0.0009029776	-0.0002127449	0.01078176	0.02111104	-0.0001603731	-0.0001686435
	-0.0009029775	-0.0002127449	0.05012565	-0.006239463	-0.0007623538	0.0004516141	0.01332719	0.01961681
	0.01078174	0.02111101	-0.0007623538	0.0004516141	0.05144149	-0.008341685	-0.0007273452	-0.000377654
	-0.0001603731	-0.0001686434	0.01332718	0.01961685	-0.0007273453	-0.000377654	0.04847652	-0.007348223
4e+07	0.05095884	-0.01786627	-0.0009466147	-0.0002248753	0.01699785	0.02516413	-0.0002317461	-0.0001932503
	-0.0009466147	-0.0002248753	0.05092134	-0.01447553	-0.000785364	0.0005354674	0.02066205	0.02213613
	0.01699785	0.02516413	-0.000785364	0.0005354674	0.0523793	-0.01737947	-0.000778878	-0.0004168587
	-0.000231746	-0.0001932503	0.02066206	0.02213615	-0.000778878	-0.0004168586	0.04876085	-0.01519502
5e+07	0.04907646	-0.02658965	-0.001003204	-0.000196585	0.02382449	0.02731616	-0.0003109569	-0.0001977132
	-0.001003204	-0.000196585	0.04910974	-0.02260128	-0.0007911234	0.0006146641	0.02845027	0.02211659
	0.02382449	0.02731617	-0.0007911234	0.0006146641	0.05069955	-0.02651224	-0.0008463249	-0.0004136105
	-0.0003109569	-0.0001977132	0.02845027	0.02211659	-0.0008463249	-0.0004136105	0.04662755	-0.02281973
6e+07	0.04506227	-0.03455199	-0.001060558	-0.0001359023	0.03068015	0.02751849	-0.0003938551	-0.0001817721
	-0.001060558	-0.0001359023	0.04516932	-0.02986038	-0.0007903188	0.0006860289	0.0358781	0.01953739
	0.03068015	0.02751849	-0.0007903188	0.0006860289	0.04672072	-0.03491565	-0.0009160802	-0.0003770572
	-0.0003938551	-0.0001817721	0.0358781	0.01953737	-0.0009160801	-0.0003770572	0.04254096	-0.02952535
7e+07	0.03937793	-0.04118846	-0.001115468	-3.897315e-05	0.03700441	0.02589778	-0.0004765829	-0.000145312
	-0.001115468	-3.897307e-05	0.03964718	-0.03573268	-0.0007931412	0.0007513784	0.04215957	0.01462811
	0.03700441	0.02589778	-0.0007931412	0.0007513784	0.04091592	-0.04197275	-0.0009785978	-0.0003151732
	-0.0004765829	-0.000145312	0.04215957	0.01462811	-0.0009785978	-0.0003151732	0.03703546	-0.03483561
8e+07	0.03256721	-0.04613542	-0.001157215	9.172823e-05	0.04230691	0.02273799	-0.0005538542	-8.899312e-05
	-0.001157215	9.172823e-05	0.03314504	-0.03992942	-0.0008068276	0.0008155479	0.04661524	0.007846194
	0.04230691	0.02273799	-0.0008068276	0.0008155479	0.03384841	-0.04727627	-0.001054369	-0.0001640464
	-0.0005538542	-8.899312e-05	0.04661524	0.007846196	-0.001054369	-0.0001640463	0.03070068	-0.03849545
9e+07	0.02521197	-0.04921492	-0.00117078	0.0002363769	0.04621169	0.01845078	-0.000622689	-1.432028e-05
	-0.00117078	0.0002363769	0.02625324	-0.04238086	-0.0008425265	0.0008884987	0.04873514	-0.0001672148
	0.04621169	0.01845078	-0.0008425265	0.0008884987	0.02612423	-0.05061152	-0.001100406	5.208464e-05
	-0.000622689	-1.43203e-05	0.04873515	-0.0001672155	-0.001100406	5.208468e-05	0.02411975	-0.04045997
1e+08	0.0179633	-0.05043387	-0.001142494	0.000388293	0.04849159	0.01352798	-0.0006810391	7.728365e-05
	-0.001142494	0.000388293	0.01950557	-0.04320528	-0.0009291803	0.000984839	0.04822315	-0.008648824
	0.04849159	0.01352798	-0.0009291803	0.000984839	0.01839419	-0.05194951	-0.001073943	0.0002794038
	-0.0006810391	7.728365e-05	0.04822315	-0.008648824	-0.001073943	0.0002794038	0.01787444	-0.04084957
1.1e+08	0.01105122	-0.05027505	-0.001095294	0.0005575369	0.04903165	0.00850753	-0.0007267022	0.0001854265
	-0.001095294	0.0005575369	0.01319112	-0.04266182	-0.001016734	0.001025403	0.04500349	-0.01677692
	0.04903165	0.00850753	-0.001016734	0.001025403	0.01106659	-0.05161472	-0.001014394	0.0004308946
	-0.0007267022	0.0001854265	0.04500348	-0.01677692	-0.001014394	0.0004308945	0.01214529	-0.04032069
1.2e+08	0.004786438	-0.04846387	-0.001045556	0.0007235046	0.04795792	0.003961404	-0.0007558044	0.0003104735
	-0.001045556	0.0007235046	0.007687059	-0.04094448	-0.001066144	0.001115917	0.03930496	-0.02369223
	0.04795792	0.003961404	-0.001066144	0.001115917	0.004525354	-0.04958796	-0.0009683383	0.0005730541
	-0.0007558044	0.0003104735	0.03930495	-0.02369223	-0.0009683383	0.0005730541	0.007046722	-0.03868057
1.3e+08	-0.0002951027	-0.04533332	-0.0009799683	0.000889456	0.04553771	0.0003464178	-0.000764741	0.000450408
	-0.0009799683	0.000889456	0.003190225	-0.03844513	-0.00109168	0.001251583	0.03157249	-0.02869874
	0.04553771	0.0003464182	-0.00109168	0.001251583	-0.0007462576	-0.04621666	-0.0009182756	0.0007142276
	-0.000764741	0.000450408	0.03157249	-0.02869874	-0.0009182756	0.0007142276	0.00288281	-0.0363026
1.4e+08	-0.003884954	-0.04131779	-0.0008940151	0.001055868	0.04215325	-0.001980655	-0.0007476778	0.0006017236
	-0.0008940151	0.001055868	-0.0002570363	-0.03553553	-0.001083724	0.001427158	0.02243923	-0.03124673
	0.04215325	-0.001980655	-0.001083724	0.001427158	-0.004452108	-0.04194807	-0.000858726	0.0008590788
	-0.0007476778	0.0006017236	0.02243923	-0.03124673	-0.000858726	0.0008590788	-0.0002976496	-0.03355767
1.5e+08	-0.005835345	-0.03690215	-0.0007832955	0.001221608	0.03827032	-0.002796654	-0.0007005266	0.0007598186
	-0.0007832955	0.001221608	-0.002727958	-0.0325425	-0.001030628	0.001633557	0.01267759	-0.03098773
	0.03827032	-0.002796654	-0.001030628	0.001633557	-0.006451265	-0.03727959	-0.0007834428	0.001010291
	-0.0007005266	0.0007598186	0.01267759	-0.03098772	-0.0007834428	0.001010291	-0.002572177	-0.03075725
1.6e+08	-0.006151865	-0.03257482	-0.0006432785	0.001383426	0.03439516	-0.002028638	-0.000620013	0.0009186504
	-0.0006432785	0.001383426	-0.004384369	-0.02972039	-0.0009226344	0.001857692	0.003137069	-0.02780931
	0.03439516	-0.002028637	-0.0009226344	0.001857692	-0.006755807	-0.0327114	-0.0006849246	0.001167749
	-0.000620013	0.0009186504	0.003137069	-0.0278093	-0.0006849246	0.001167749	-0.004102099	-0.02813579
1.7e+08	-0.004980174	-0.02878507	-0.0004698917	0.001535724	0.03102827	0.0002411795	-0.0005040901	0.001070946
	-0.0004698917	0.001535724	-0.005444512	-0.02723144	-0.0007538868	0.002083619	-0.005326055	-0.0218499
	0.03102827	0.0002411798	-0.0007538868	0.002083619	-0.005518405	-0.02870376	-0.000555181	0.001327734
	-0.0005040901	0.001070946	-0.005326055	-0.0218499	-0.000555181	0.001327734	-0.005098178	-0.02583663
1.8e+08	-0.002582697	-0.0259062	-0.0002605901	0.00167058	0.0286202	0.003785815	-0.000352489	0.001208466
	-0.0002605901	0.00167058	-0.006145543	-0.02513624	-0.0005232193	0.002294215	-0.0119212	-0.0134931
	0.0286202	0.003785816	-0.0005232193	0.002294215	-0.003010648	-0.0256395	-0.0003872865	0.001482728
	-0.000352489	0.001208466	-0.0119212	-0.0134931	-0.0003872865	0.001482728	-0.005785381	-0.02390585
1.9e+08	0.0006915563	-0.02420839	-1.523001e-05	0.00177828	0.02753142	0.00825554	-0.0001670852	0.001322587
	-1.523001e-05	0.00177828	-0.006706205	-0.02339768	-0.0002344619	0.002472784	-0.01599237	-0.003341353
	0.02753142	0.00825554	-0.0002344619	0.002472784	0.0004085647	-0.02379636	-0.000176818	0.001621665
	-0.0001670852	0.001322587	-0.01599237	-0.003341353	-0.000176818	0.001621665	-0.006367486	-0.02229726
2e+08	0.004444873	-0.02384154	0.0002629049	0.001848122	0.02800043	0.01320991	4.787227e-05	0.001404901
	0.0002629049	0.001848122	-0.007291838	-0.02189752	0.0001125532	0.00260559	-0.01707713	0.007830117
	0.02800043	0.01320991	0.0001125532	0.00260559	0.004329542	-0.02332903	7.665749e-05	0.001730988
	4.787227e-05	0.001404901	-0.01707713	0.007830117	7.665749e-05	0.001730988	-0.006995093	-0.02088914
2.1e+08	0.008267778	-0.02483015	0.000567288	0.001870016	0.03012385	0.01815864	0.0002859072	0.001448054
	0.000567288	0.001870016	-0.007988604	-0.02046534	0.0004976129	0.002677591	-0.01495048	0.01913459
	0.03012385	0.01815864	0.0004976129	0.002677591	0.008331518	-0.02426465	0.0003685911	0.001796656
	0.0002859072	0.001448054	-0.01495048	0.01913459	0.0003685911	0.001796656	-0.00773994	-0.01951178
2.2e+08	0.01177843	-0.02708049	0.0008877972	0.001835485	0.03384782	0.02260591	0.0005386247	0.001446347
	0.0008877972	0.001835485	-0.008789735	-0.01891338	0.0009067601	0.002681146	-0.009649281	0.02964619
	0.03384782	0.02260591	0.0009067601	0.002681146	0.01201997	-0.02650871	0.0006894079	0.001805638
	0.0005386247	0.001446347	-0.009649281	0.02964619	0.0006894079	0.001805638	-0.00858339	-0.01798264
2.3e+08	0.01465347	-0.03039775	0.001211533	0.001739032	0.0389743	0.02609493	0.0007962546	0.001396329
	0.001211533	0.001739032	-0.009596114	-0.01707616	0.001325266	0.002612432	-0.001474931	0.03847697
	0.0389743	0.02609493	0.001325266	0.002612432	0.01506035	-0.02986298	0.001024971	0.001748038
	0.0007962546	0.001396329	-0.001474931	0.03847697	0.001024971	0.001748038	-0.009417649	-0.01614346
2.4e+08	0.01665337	-0.0345116	0.001524154	0.001578934	0.0451801	0.02824946	0.001048388	0.001297073
	0.001524154	0.001578934	-0.0102314	-0.01484627	0.001738886	0.002470987	0.009026864	0.04485109
	0.0451801	0.02824946	0.001738886	0.002470987	0.01720322	-0.03405106	0.00135797	0.001618605
	0.001048388	0.001297073	0.009026864	0.04485109	0.00135797	0.001618605	-0.01006004	-0.01389615
2.5e+08	0.01763742	-0.03910723	0.00181103	0.001357695	0.05204686	0.0288061	0.001284781	0.001150183
	0.00181103	0.001357695	-0.01046943	-0.01220271	0.002134408	0.002259019	0.02110694	0.04817074
	0.05204686	0.0288061	0.002134408	0.002259019	0.0182999	-0.03874973	0.001669766	0.001417794
	0.001284781	0.001150183	0.02110694	0.04817074	0.001669766	0.001417794	-0.01028228	-0.01122945
2.6e+08	0.01756758	-0.04385739	0.002058814	0.001081736	0.05909965	0.02763674	0.001496006	0.0009597176
	0.002058814	0.001081736	-0.01007133	-0.009226848	0.002499998	0.001980805	0.0338704	0.04806755
	0.05909965	0.02763674	0.002499998	0.001980805	0.01830695	-0.04362203	0.001942527	0.001151825
	0.001496006	0.0009597176	0.0338704	0.04806755	0.001942527	0.001151825	-0.009845788	-0.008234679
2.7e+08	0.01650409	-0.0484539	0.002256624	0.0007607275	0.06585018	0.02475839	0.001674143	0.0007315421
	0.002256624	0.0007607275	-0.008825926	-0.006104479	0.002825148	0.00164216	0.04634641	0.04443409
	0.06585018	0.02475839	0.002825148	0.00164216	0.0172821	-0.0483488	0.002161238	0.0008320356
	0.001674143	0.0007315421	0.04634641	0.04443409	0.002161238	0.0008320356	-0.008543088	-0.005106463
2.8e+08	0.01459102	-0.05263423	0.00239686	0.0004064742	0.07183996	0.02032858	0.001813054	0.0004729655
	0.00239686	0.0004064742	-0.006589402	-0.003113321	0.003100676	0.001249891	0.05756368	0.03743606
	0.07183996	0.02032858	0.003100676	0.001249891	0.01536985	-0.05265622	0.002315273	0.0004735298
	0.001813054	0.0004729655	0.05756368	0.03743606	0.002315273	0.0004735298	-0.006236799	-0.002129423
2.9e+08	0.01203569	-0.05620128	0.002475483	3.165195e-05	0.07667982	0.01462966	0.001908644	0.0001919349
	0.002475483	3.165195e-05	-0.00331862	-0.0005957322	0.003318485	0.0008118264	0.06662559	0.02750234
	0.07667982	0.01462966	0.003318485	0.0008118264	0.01278108	-0.05633725	0.002399327	9.31701e-05
	0.001908644	0.0001919349	0.06662559	0.02750234	0.002399327	9.31701e-05	-0.002891621	0.0003490351
3e+08	0.009085268	-0.05903716	0.002491856	-0.0003515015	0.08008246	0.008040865	0.001958729	-0.0001035627
	0.002491856	-0.0003515015	0.0009062306	0.001077961	0.003471524	0.0003368	0.07277902	0.01529493
	0.08008246	0.008040865	0.003471524	0.0003368	0.009768996	-0.05926479	0.002413448	-0.0002923404
	0.001958729	-0.0001035627	0.07277902	0.01529493	0.002413448	-0.0002923404	0.001402932	0.001956717
3.1e+08	0.006000018	-0.06110758	0.002448105	-0.0007321549	0.08188578	0.001004727	0.001962683	-0.0004060595
	0.002448105	-0.0007321549	0.005872387	0.001553424	0.003553875	-0.0001654461	0.0754732	0.001662639
	0.08188578	0.001004727	0.003553875	-0.0001654461	0.006602009	-0.06139786	0.002362419	-0.000668319
	0.001962683	-0.0004060595	0.0754732	0.001662639	0.002362419	-0.000668319	0.006424302	0.00233982
3.2e+08	0.003028095	-0.06245936	0.002348094	-0.001101535	0.08206369	-0.006013722	0.001921047	-0.0007087609
	0.002348094	-0.001101535	0.0112399	0.0005374438	0.003561038	-0.00068401	0.07440328	-0.01241962
	0.08206369	-0.006013722	0.003561038	-0.00068401	0.003538122	-0.06277905	0.002254325	-0.001023669
	0.001921047	-0.0007087609	0.07440328	-0.01241962	0.002254325	-0.001023669	0.01182278	0.001209966
3.3e+08	0.0003829067	-0.06321058	0.002196412	-0.001453037	0.08072559	-0.01256665	0.001834986	-0.001005839
	0.002196412	-0.001453037	0.01656198	-0.002158277	0.003490125	-0.001207325	0.06953641	-0.02592033
	0.08072559	-0.01256665	0.003490125	-0.001207325	0.0008016274	-0.06352506	0.00209883	-0.001351499
	0.001834986	-0.001005839	0.06953641	-0.02592033	0.00209883	-0.001351499	0.01714366	-0.001614376
3.4e+08	-0.001775232	-0.06353521	0.00199743	-0.001781907	0.07810569	-0.01826194	0.001705876	-0.001292193
	0.00199743	-0.001781907	0.02131874	-0.00658141	0.003340279	-0.00172308	0.06112002	-0.03782652
	0.07810569	-0.01826194	0.003340279	-0.00172308	-0.001436853	-0.06381161	0.001905296	-0.0016491
	0.001705876	-0.001292193	0.06112002	-0.03782652	0.001905296	-0.0016491	0.02186164	-0.006170753
3.5e+08	-0.003352213	-0.0636432	0.001754596	-0.002084538	0.0745395	-0.02279708	0.001534951	-0.001563077
	0.001754596	-0.002084538	0.02496314	-0.01261414	0.0031128	-0.002218959	0.04966861	-0.04721774
	0.0745395	-0.02279708	0.0031128	-0.002218959	-0.003073124	-0.06385391	0.001681135	-0.001917049
	0.001534951	-0.001563077	0.04966861	-0.04721774	0.001681135	-0.001917049	0.02542669	-0.01233024
3.6e+08	-0.004325842	-0.06375887	0.001470204	-0.002357654	0.07043371	-0.0259837	0.001323278	-0.001813758
	0.001470204	-0.002357654	0.02697359	-0.01996311	0.002811002	-0.002683121	0.03593262	-0.05333625
	0.07043371	-0.0259837	0.002811002	-0.002683121	-0.004077116	-0.06388316	0.001430669	-0.002157904
	0.001323278	-0.001813758	0.03593262	-0.05333625	0.001430669	-0.002157904	0.02731844	-0.01978647
3.7e+08	-0.004745402	-0.06409715	0.001145503	-0.00259733	0.06622941	-0.02776357	0.001071762	-0.002039089
	0.001145503	-0.00259733	0.02691115	-0.02816552	0.002440198	-0.003104603	0.02084785	-0.05564669
	0.06622941	-0.02776357	0.002440198	-0.003104603	-0.004492654	-0.06412447	0.001154598	-0.002374392
	0.001071762	-0.002039089	0.02084785	-0.05564669	0.001154598	-0.002374392	0.02710288	-0.02806446
3.8e+08	-0.004723941	-0.06484321	0.0007815012	-0.002798255	0.06236211	-0.02821288	0.0007817326	-0.002233061
	0.0007815012	-0.002798255	0.02447338	-0.03661445	0.002007284	-0.003473718	0.005470836	-0.0538802
	0.06236211	-0.02821288	0.002007284	-0.003473718	-0.004430114	-0.06477431	0.000850605	-0.002567468
	0.0007817326	-0.002233061	0.005470836	-0.0538802	0.000850605	-0.002567468	0.02448605	-0.03654645
3.9e+08	-0.004425368	-0.06613548	0.0003797831	-0.002953435	0.0592225	-0.02753467	0.0004552785	-0.002388805
	0.0003797831	-0.002953435	0.01954146	-0.04459989	0.001520108	-0.003782337	-0.009097062	-0.04806145
	0.0592225	-0.02753467	0.001520108	-0.003782337	-0.004054588	-0.0659818	0.0005143855	-0.002734958
	0.0004552785	-0.002388805	-0.009097062	-0.04806145	0.0005143855	-0.002734958	0.01936219	-0.04451421
4e+08	-0.004045895	-0.06805213	-5.636771e-05	-0.003054306	0.05712021	-0.02603958	9.598167e-05	-0.002498668
	-5.636771e-05	-0.003054306	0.01221455	-0.05136762	0.0009869539	-0.00402368	-0.02179147	-0.03851184
	0.05712021	-0.02603958	0.0009869539	-0.00402368	-0.003566298	-0.0678367	0.0001414191	-0.002870598
	9.598167e-05	-0.002498668	-0.02179147	-0.03851184	0.0001414191	-0.002870598	0.0118445	-0.05120929
4.1e+08	-0.00379344	-0.07060597	-0.0005202326	-0.003090351	0.05625549	-0.02411633	-0.0002906654	-0.002554732
	-0.0005202326	-0.003090351	0.002824426	-0.05618754	0.0003786577	-0.004196375	-0.03166463	-0.02583133
	0.05625549	-0.02411633	0.0003786577	-0.004196375	-0.003180762	-0.0703608	-0.000269486	-0.002964376
	-0.0002906654	-0.002554732	-0.03166463	-0.02583133	-0.000269486	-0.002964376	0.002280686	-0.05590139
4.2e+08	-0.003867409	-0.07374541	-0.001002592	-0.003053124	0.05670026	-0.02219666	-0.0006966552	-0.002549309
	-0.001002592	-0.003053124	-0.008072283	-0.05842577	-0.0002764091	-0.004279082	-0.03795905	-0.01085806
	0.05670026	-0.02219666	-0.0002764091	-0.004279082	-0.003107393	-0.07350933	-0.0007180418	-0.003003156
	-0.0006966552	-0.002549309	-0.03795905	-0.01085806	-0.0007180418	-0.003003156	-0.008756122	-0.05796123
4.3e+08	-0.004438567	-0.07736143	-0.001491136	-0.002935453	0.05839187	-0.02071231	-0.00111157	-0.002475878
	-0.001491136	-0.002935453	-0.01972482	-0.05761651	-0.0009479063	-0.004262719	-0.04016551	0.005392094
	0.05839187	-0.02071231	-0.0009479063	-0.004262719	-0.003529467	-0.07717684	-0.001198419	-0.002971725
	-0.00111157	-0.002475878	-0.04016551	0.005392094	-0.001198419	-0.002971725	-0.02050041	-0.05693278
4.4e+08	-0.00563441	-0.08130058	-0.001970194	-0.002732493	0.06113883	-0.02005603	-0.001522639	-0.002330161
	-0.001970194	-0.002732493	-0.03124151	-0.05352062	-0.001622793	-0.004143587	-0.0380631	0.02179864
	0.06113883	-0.02005603	-0.001622793	-0.004143587	-0.004586471	-0.08120949	-0.001697839	-0.002855783
	-0.001522639	-0.002330161	-0.0380631	0.02179864	-0.001697839	-0.002855783	-0.03204838	-0.05259074
4.5e+08	-0.007528457	-0.08538155	-0.002422072	-0.002443441	0.06464002	-0.02054395	-0.001915481	-0.002110842
	-0.002422072	-0.002443441	-0.04166007	-0.0461671	-0.002286872	-0.003918783	-0.03173729	0.03721864
	0.06464002	-0.02054395	-0.002286872	-0.003918783	-0.006364074	-0.08542179	-0.002197867	-0.002644345
	-0.001915481	-0.002110842	-0.03173729	0.03721864	-0.002197867	-0.002644345	-0.04243029	-0.04498177
4.6e+08	-0.01013588	-0.08941349	-0.002828342	-0.002072293	0.06851273	-0.0223867	-0.002275044	-0.001820056
	-0.002828342	-0.002072293	-0.05003172	-0.03587172	-0.002924175	-0.003586804	-0.02157403	0.05056977
	0.06851273	-0.0223867	-0.002924175	-0.003586804	-0.008887731	-0.08961534	-0.002675658	-0.002331846
	-0.002275044	-0.001820056	-0.02157403	0.05056977	-0.002675658	-0.002331846	-0.05069552	-0.03444122
4.7e+08	-0.01341469	-0.09321354	-0.003171657	-0.001627852	0.07232909	-0.02566998	-0.002586573	-0.001463773
	-0.003171657	-0.001627852	-0.05550885	-0.02322932	-0.003517038	-0.003148216	-0.008232247	0.06090845
	0.07232909	-0.02566998	-0.003517038	-0.003148216	-0.01212295	-0.09359724	-0.003105942	-0.001920088
	-0.002586573	-0.001463773	-0.008232247	0.06090845	-0.003105942	-0.001920088	-0.05599892	-0.02158359
4.8e+08	-0.01727239	-0.09662471	-0.003437152	-0.001123407	0.07565544	-0.03034885	-0.002836865	-0.001051469
	-0.003437152	-0.001123407	-0.05742419	-0.009076924	-0.004046317	-0.002606622	0.007403242	0.06749605
	0.07565544	-0.03034885	-0.004046317	-0.002606622	-0.01598154	-0.09719807	-0.003463925	-0.001418447
	-0.002836865	-0.001051469	0.007403242	0.06749605	-0.003463925	-0.001418447	-0.05768315	-0.007265425
4.9e+08	-0.02157756	-0.09952762	-0.003613753	-0.0005757112	0.07809124	-0.03625257	-0.003015231	-0.0005956824
