!$
! Info: Touchstone file created by Circ.  Input file=Intel_C2M_200G_9p5in_202208016_staggered.circ
!$
# Hz S RI R 50
0	0.03105876	8.780015e-24	-0.000113209	1.386411e-20	0.0003546929	1.152138e-21	-0.000108997	1.334829e-20
	-0.0001132091	1.386412e-20	0.0305089	4.905086e-24	-0.0001201972	1.471992e-20	0.0001337689	3.252157e-22
	0.0003547577	1.152955e-21	-0.0001201973	1.471993e-20	0.03106	8.996447e-24	-0.0001132341	1.386718e-20
	-0.000108997	1.334829e-20	0.0001338251	3.253397e-22	-0.000113234	1.386717e-20	0.0305069	4.640382e-24
1e+07	0.03892363	0.009396671	-0.001087944	7.433256e-06	0.001953991	0.007462153	-8.67985e-05	-0.0001054816
	-0.001087944	7.433256e-06	0.0374647	0.01015192	-0.0006507326	5.44079e-05	0.00258406	0.007410849
	0.001953991	0.007462153	-0.0006507326	5.44079e-05	0.03823379	0.009711639	-0.0004536328	-8.237742e-05
	-8.67985e-05	-0.0001054816	0.00258406	0.007410849	-0.0004536328	-8.237742e-05	0.03715604	0.009957104
2e+07	0.04797477	0.01190936	-0.0009985089	-0.0002509957	0.004681007	0.01390141	-0.0001218101	-0.0001352271
	-0.0009985088	-0.0002509957	0.04540305	0.01398451	-0.000677656	-0.0001600383	0.005889569	0.0133728
	0.004681098	0.0139013	-0.000677656	-0.0001600382	0.04776149	0.01262041	-0.0004627562	-0.0001684465
	-0.0001218101	-0.0001352271	0.005889577	0.01337278	-0.0004627562	-0.0001684465	0.04491402	0.0138195
3e+07	0.05619658	0.01025937	-0.0009838371	-0.0003606409	0.008737177	0.01938719	-0.0001717253	-0.0001689066
	-0.0009838371	-0.000360641	0.05205724	0.01427714	-0.0007325465	-0.0002219336	0.01071749	0.01826679
	0.008737152	0.01938716	-0.0007325465	-0.0002219336	0.05636338	0.01101013	-0.0005169844	-0.0002376237
	-0.0001717253	-0.0001689066	0.01071748	0.01826683	-0.0005169845	-0.0002376237	0.0514493	0.01421871
4e+07	0.06379608	0.006092274	-0.001008089	-0.0004060743	0.01378058	0.02372847	-0.0002352285	-0.0001896176
	-0.001008089	-0.0004060743	0.05753227	0.01277959	-0.0008029022	-0.0002338554	0.01673684	0.02155465
	0.01378058	0.02372848	-0.0008029022	-0.0002338554	0.06425712	0.00675129	-0.0005917259	-0.0002645397
	-0.0002352285	-0.0001896175	0.01673684	0.02155468	-0.000591726	-0.0002645396	0.05686001	0.01285166
5e+07	0.07045267	-0.0002609931	-0.001053429	-0.0004098857	0.0195209	0.02672423	-0.0003084014	-0.0001991491
	-0.001053429	-0.0004098857	0.06197351	0.01019698	-0.0008766194	-0.0002111771	0.02346466	0.02301811
	0.01952091	0.02672424	-0.0008766194	-0.0002111771	0.07112357	0.0002289136	-0.0006753483	-0.0002568441
	-0.0003084014	-0.0001991491	0.02346467	0.02301811	-0.0006753483	-0.000256844	0.06127916	0.01040874
6e+07	0.07579369	-0.00841429	-0.00110675	-0.0003808433	0.02560149	0.0282771	-0.0003845203	-0.0001912725
	-0.00110675	-0.0003808433	0.06545959	0.006921957	-0.0009456854	-0.000162819	0.03039402	0.02253118
	0.02560149	0.0282771	-0.0009456854	-0.000162819	0.07658864	-0.008136488	-0.0007578305	-0.0002190188
	-0.0003845203	-0.0001912726	0.03039402	0.02253116	-0.0007578304	-0.0002190188	0.06478015	0.007272777
7e+07	0.07952742	-0.01796428	-0.001164845	-0.0003157635	0.03165871	0.02838253	-0.0004603428	-0.0001666048
	-0.001164845	-0.0003157634	0.06808305	0.003254042	-0.001005136	-9.621129e-05	0.03699793	0.02010283
	0.03165872	0.02838253	-0.001005136	-9.621129e-05	0.0803611	-0.01791405	-0.0008312038	-0.0001561955
	-0.0004603428	-0.0001666048	0.03699793	0.02010283	-0.0008312038	-0.0001561955	0.06745089	0.003735515
8e+07	0.08143538	-0.02849168	-0.001216708	-0.0002169076	0.037343	0.02712516	-0.0005331916	-0.0001261743
	-0.001216708	-0.0002169076	0.06997792	-0.0005946804	-0.001053357	-1.796557e-05	0.04276909	0.01587639
	0.037343	0.02712517	-0.001053357	-1.796557e-05	0.08222662	-0.02866033	-0.0008897743	-7.445352e-05
	-0.0005331916	-0.0001261743	0.04276909	0.01587639	-0.0008897743	-7.445352e-05	0.06942146	3.729016e-06
9e+07	0.08138711	-0.0395543	-0.001244376	-0.0001020287	0.04234119	0.02467266	-0.0006009529	-7.131197e-05
	-0.001244376	-0.0001020287	0.07129912	-0.004500204	-0.00109206	6.699577e-05	0.04725263	0.01011916
	0.04234119	0.02467266	-0.00109206	6.699577e-05	0.08206045	-0.03991125	-0.0009314057	2.307898e-05
	-0.0006009529	-7.131197e-05	0.04725264	0.01011916	-0.0009314056	2.307903e-05	0.07084392	-0.003801329
1e+08	0.07943799	-0.05070384	-0.00122807	2.475178e-05	0.04639714	0.02125864	-0.0006622986	-3.828722e-06
	-0.00122807	2.475178e-05	0.07225194	-0.008398136	-0.00112561	0.0001555768	0.05007426	0.003200816
	0.04639714	0.02125864	-0.00112561	0.0001555768	0.07990901	-0.05119777	-0.0009517158	0.0001363986
	-0.0006622986	-3.828722e-06	0.05007426	0.003200815	-0.0009517158	0.0001363986	0.07193492	-0.007609909
1.1e+08	0.07535389	-0.06192714	-0.001202888	0.0001881549	0.04929207	0.0171851	-0.0007138072	7.192324e-05
	-0.001202888	0.0001881549	0.07280023	-0.01265071	-0.001148365	0.0002345735	0.05093864	-0.004418007
	0.04929207	0.0171851	-0.001148365	0.0002345735	0.07562066	-0.06238627	-0.0009551695	0.000251655
	-0.0007138072	7.192324e-05	0.05093863	-0.004418008	-0.0009551695	0.000251655	0.07265155	-0.01192937
1.2e+08	0.06904734	-0.07219432	-0.001186835	0.0003407653	0.05094877	0.01280562	-0.0007567312	0.0001596269
	-0.001186835	0.0003407653	0.07279006	-0.01693088	-0.001167463	0.0003162063	0.04972591	-0.01215814
	0.05094877	0.01280563	-0.001167463	0.0003162063	0.06917319	-0.07259531	-0.0009524074	0.0003619899
	-0.0007567312	0.0001596269	0.04972591	-0.01215814	-0.0009524074	0.0003619899	0.07272485	-0.01626193
1.3e+08	0.06096955	-0.08104939	-0.001163965	0.0004893377	0.05136295	0.008455902	-0.0007909431	0.000258575
	-0.001163965	0.0004893377	0.07234482	-0.021243	-0.001187544	0.0004028115	0.04645203	-0.0194969
	0.05136295	0.008455903	-0.001187544	0.0004028115	0.06098616	-0.08137445	-0.0009428455	0.0004690972
	-0.0007909431	0.000258575	0.04645203	-0.0194969	-0.0009428455	0.0004690972	0.07234373	-0.02061594
1.4e+08	0.05154423	-0.08815124	-0.001132202	0.0006362647	0.05061467	0.004463153	-0.0008135246	0.0003685365
	-0.001132202	0.0006362647	0.07146791	-0.02561765	-0.001209619	0.0004983479	0.04126021	-0.02591733
	0.05061467	0.004463154	-0.001209619	0.0004983479	0.05147775	-0.08838465	-0.000928828	0.0005751464
	-0.0008135246	0.0003685365	0.0412602	-0.02591733	-0.000928828	0.0005751464	0.07151954	-0.02503863
1.5e+08	0.04123592	-0.09326943	-0.001090369	0.000783708	0.0488652	0.001120708	-0.0008224615	0.0004891305
	-0.001090369	0.000783708	0.07011426	-0.03007204	-0.001232352	0.0006074539	0.03441791	-0.03094726
	0.0488652	0.001120708	-0.001232352	0.0006074539	0.04111234	-0.09339894	-0.0009115473	0.0006836486
	-0.0008224615	0.0004891305	0.03441791	-0.03094726	-0.0009115473	0.0006836486	0.07020094	-0.02955012
1.6e+08	0.03053513	-0.09628804	-0.00103664	0.0009335936	0.04634559	-0.001331023	-0.0008152358	0.0006196163
	-0.00103664	0.0009335936	0.06820605	-0.03459465	-0.001251911	0.000734806	0.02630394	-0.03419028
	0.04634559	-0.001331023	-0.001251911	0.000734806	0.03038066	-0.09630575	-0.0008902658	0.0007988074
	-0.0008152358	0.0006196163	0.02630394	-0.03419028	-0.0008902658	0.0007988074	0.06830463	-0.03413415
1.7e+08	0.01993559	-0.09720785	-0.0009680884	0.001085967	0.04334048	-0.002721871	-0.0007888502	0.0007587981
	-0.0009680884	0.001085967	0.06564687	-0.03913408	-0.001234573	0.0009197032	0.01738759	-0.03535161
	0.04334048	-0.002721871	-0.001234573	0.0009197032	0.01977717	-0.0971105	-0.0008632319	0.0009230336
	-0.0007888502	0.0007587981	0.01738759	-0.03535161	-0.0008632319	0.0009230337	0.06573285	-0.03873154
1.8e+08	0.009910106	-0.09614286	-0.0008810354	0.001242447	0.04016879	-0.00296279	-0.0007399312	0.0009044231
	-0.0008810354	0.001242447	0.06233826	-0.04359295	-0.001193837	0.001118116	0.008201982	-0.03425824
	0.04016879	-0.00296279	-0.001193837	0.001118116	0.009773922	-0.09593244	-0.0008241808	0.001061528
	-0.0007399312	0.0009044231	0.008201982	-0.03425824	-0.0008241808	0.001061528	0.06238939	-0.04323613
1.9e+08	0.000885844	-0.09331117	-0.000770615	0.001401621	0.03716138	-0.002051719	-0.000665146	0.001053217
	-0.000770615	0.001401621	0.05819669	-0.0478249	-0.001123237	0.001328262	-0.0006869438	-0.03087232
	0.03716138	-0.002051719	-0.001123237	0.001328262	0.0007975305	-0.09299528	-0.0007656195	0.001214983
	-0.000665146	0.001053217	-0.0006869437	-0.03087232	-0.0007656195	0.001214983	0.05819632	-0.04749481
2e+08	-0.006776365	-0.08902191	-0.0006320912	0.001559778	0.03463746	-7.453144e-05	-0.0005615602	0.0012006
	-0.0006320912	0.001559778	0.05317248	-0.05163811	-0.001009448	0.001550656	-0.008714128	-0.02529589
	0.03463746	-7.453133e-05	-0.001009448	0.001550656	-0.006794513	-0.08861235	-0.0006791114	0.001381047
	-0.0005615602	0.0012006	-0.008714128	-0.02529589	-0.0006791114	0.001381047	0.05311081	-0.05131222
2.1e+08	-0.01280279	-0.08365667	-0.0004609405	0.00171138	0.03288311	0.002801472	-0.0004270743	0.001340823
	-0.0004609405	0.00171138	0.04726707	-0.05480585	-0.0008527758	0.00177169	-0.01534929	-0.01776808
	0.03288311	0.002801472	-0.0008527758	0.00177169	-0.01273046	-0.08317029	-0.0005566117	0.001554157
	-0.0004270743	0.001340823	-0.01534929	-0.01776808	-0.0005566117	0.001554157	0.04714197	-0.05445953
2.2e+08	-0.01701837	-0.07764715	-0.0002543962	0.001848592	0.03212998	0.006338961	-0.000260887	0.001467079
	-0.0002543962	0.001848592	0.04054582	-0.05708086	-0.0006494939	0.001982333	-0.02012966	-0.008653797
	0.03212998	0.006338962	-0.0006494939	0.001982333	-0.01684018	-0.0771044	-0.0003914815	0.001725374
	-0.000260887	0.001467079	-0.02012966	-0.008653796	-0.0003914815	0.001725374	0.04036286	-0.05669062
2.3e+08	-0.01935683	-0.0714503	-1.209034e-05	0.001962063	0.03253932	0.01024689	-6.394236e-05	0.001571905
	-1.209034e-05	0.001962063	0.03314745	-0.05821562	-0.0003983114	0.00217191	-0.02268961	0.001575001
	0.03253932	0.01024689	-0.0003983114	0.00217191	-0.0190621	-0.07087442	-0.000179856	0.001883027
	-6.394236e-05	0.001571905	-0.02268961	0.001575001	-0.000179856	0.001883027	0.03291842	-0.05776082
2.4e+08	-0.01986304	-0.06552155	0.0002635947	0.002041768	0.03419039	0.01420168	0.0001608188	0.001647683
	0.0002635947	0.002041768	0.0252865	-0.05798431	-0.0001006859	0.002328873	-0.02278434	0.01236497
	0.03419039	0.01420168	-0.0001006859	0.002328873	-0.01944638	-0.06493775	7.846361e-05	0.002013658
	0.0001608188	0.001647683	-0.02278434	0.01236497	7.846361e-05	0.002013658	0.02502902	-0.05744827
2.5e+08	-0.01868806	-0.06028871	0.00056701	0.002077977	0.0370745	0.01786928	0.0004084097	0.001687237
	0.00056701	0.002077977	0.01724968	-0.05620576	0.0002388154	0.00244158	-0.02030758	0.02311243
	0.0370745	0.01786928	0.0002388154	0.00244158	-0.01814979	-0.05972223	0.0003793481	0.002103403
	0.0004084097	0.001687237	-0.02030758	0.02311244	0.0003793481	0.002103403	0.01698498	-0.05557745
2.6e+08	-0.01607979	-0.05612631	0.0008895423	0.002062291	0.04109565	0.020929	0.0006717756	0.001684573
	0.0008895423	0.002062291	0.009384302	-0.05276559	0.000612486	0.00249929	-0.01530161	0.03319823
	0.04109565	0.020929	0.000612486	0.00249929	-0.01542596	-0.05560222	0.0007142884	0.002139397
	0.0006717756	0.001684573	-0.01530161	0.03319823	0.0007142884	0.002139397	0.009136539	-0.05203984
2.7e+08	-0.01236557	-0.05333538	0.001220042	0.001988667	0.04607764	0.02309641	0.0009423217	0.001635343
	0.001220042	0.001988667	0.002081486	-0.04763474	0.001009672	0.002493057	-0.007957334	0.04202363
	0.04607764	0.02309641	0.001009672	0.002493057	-0.01160784	-0.05287618	0.001070808	0.002111272
	0.0009423217	0.001635343	-0.007957334	0.04202363	0.001070808	0.002111272	0.0018757	-0.04681295
2.8e+08	-0.007932113	-0.05212633	0.001545636	0.001854176	0.05177648	0.02414224	0.001210236	0.001537465
	0.001545636	0.001854176	-0.004246297	-0.04088378	0.001417518	0.002416418	0.001393195	0.04904674
	0.05177648	0.02414223	0.001417518	0.002416418	-0.007086888	-0.0517509	0.001433357	0.002012447
	0.001210236	0.001537465	0.001393195	0.04904674	0.001433357	0.002012447	-0.004385958	-0.03997405
2.9e+08	-0.003201108	-0.05260768	0.001852732	0.001659471	0.05789765	0.02390866	0.001465336	0.001391335
	0.001852732	0.001659471	-0.009192559	-0.03269016	0.001821541	0.002266097	0.01229355	0.05381537
	0.05789765	0.02390866	0.001821541	0.002266097	-0.002288509	-0.05233074	0.001784731	0.00184092
	0.001465336	0.001391335	0.01229355	0.05381537	0.001784731	0.00184092	-0.009243736	-0.03170664
3e+08	0.001397715	-0.05478256	0.002128241	0.00140884	0.06411694	0.0223186	0.001697767	0.001199879
	0.002128241	0.00140884	-0.01238508	-0.02333848	0.002206544	0.002042358	0.02418769	0.05599477
	0.06411694	0.0223186	0.002206544	0.002042358	0.002354896	-0.05461319	0.002107525	0.001599714
	0.001697767	0.001199879	0.02418769	0.05599477	0.002107525	0.001599714	-0.01232915	-0.02230089
3.1e+08	0.005451881	-0.0585506	0.002360681	0.001109919	0.07010324	0.01938117	0.001898718	0.0009682871
	0.002360681	0.001109919	-0.01351489	-0.01321266	0.002557654	0.001748959	0.03645062	0.05538982
	0.07010324	0.01938117	0.002557654	0.001748959	0.006429404	-0.0584922	0.00238579	0.001296749
	0.001898718	0.0009682871	0.03645062	0.05538982	0.00238579	0.001296749	-0.01333761	-0.01214559
3.2e+08	0.008590607	-0.06371705	0.002541061	0.000772947	0.07554044	0.01518839	0.002060984	0.000703751
	0.002541061	0.000772947	-0.01236237	-0.00278082	0.002861161	0.001393196	0.0484237	0.05195776
	0.07554044	0.01518839	0.002861161	0.001393196	0.009564524	-0.06376692	0.002606523	0.0009439471
	0.002060984	0.000703751	0.0484237	0.05195776	0.002606523	0.0009439471	-0.01205626	-0.001712658
3.3e+08	0.01050581	-0.07000678	0.002663583	0.000409798	0.08014807	0.009908194	0.002179483	0.0004146748
	0.002663583	0.000409798	-0.008820487	0.007427364	0.003105483	0.0009850839	0.0594519	0.04581217
	0.08014807	0.009908194	0.003105483	0.0009850839	0.01145417	-0.07015644	0.002760752	0.00055617
	0.002179483	0.0004146748	0.0594519	0.04581217	0.002760752	0.00055617	-0.008384491	0.008466037
3.4e+08	0.01096859	-0.07708333	0.002726582	3.063557e-05	0.08369998	0.003771899	0.002251421	0.0001101601
	0.002726582	3.063557e-05	-0.002911224	0.01684848	0.00328161	0.0005371203	0.06892164	0.0372184
	0.08369998	0.003771899	0.00328161	0.0005371203	0.01187226	-0.07731916	0.002844181	0.0001497262
	0.002251421	0.0001101601	0.06892164	0.0372184	0.002844181	0.0001497262	-0.002351981	0.01782696
3.5e+08	0.009839704	-0.08457051	0.002729456	-0.0003500543	0.08603679	-0.002943271	0.002276282	-0.0002008842
	0.002729456	-0.0003500543	0.005205248	0.02491847	0.003383879	6.310958e-05	0.07629486	0.02657905
	0.08603679	-0.002943271	0.003383879	6.310958e-05	0.01068431	-0.08487492	0.002857249	-0.0002591467
	0.002276282	-0.0002008842	0.07629486	0.02657905	0.002857249	-0.0002591467	0.005873986	0.02580692
3.6e+08	0.007075387	-0.09207608	0.002675963	-0.0007214816	0.08707487	-0.009932244	0.002255587	-0.0005102215
	0.002675963	-0.0007214816	0.01522971	0.03110685	0.00340981	-0.0004226909	0.08113981	0.01441258
	0.08707487	-0.009932244	0.00340981	-0.0004226909	0.007851621	-0.09242801	0.002804776	-0.000655865
	0.002255587	-0.0005102215	0.08113981	0.01441258	0.002804776	-0.000655865	0.01598655	0.0318788
3.7e+08	0.002726079	-0.09921395	0.00257191	-0.001075035	0.08680974	-0.01688297	0.002192407	-0.0008109277
	0.00257191	-0.001075035	0.0267314	0.03495225	0.003360179	-0.0009062606	0.08315481	0.001324333
	0.08680974	-0.01688297	0.003360179	-0.0009062606	0.003430439	-0.09959143	0.00269496	-0.001028783
	0.002192407	-0.0008109277	0.08315481	0.001324333	0.00269496	-0.001028783	0.02754863	0.03558611
3.8e+08	-0.003069149	-0.1056267	0.002424361	-0.001404562	0.08531383	-0.02349627	0.002090883	-0.00109747
	0.002424361	-0.001404562	0.0391652	0.03609461	0.003238699	-0.001374639	0.08218387	-0.01202579
	0.08531383	-0.02349627	0.003238699	-0.001374639	-0.002433857	-0.1060077	0.002538203	-0.001369789
	0.002090883	-0.00109747	0.08218387	-0.01202579	0.002538203	-0.001369789	0.04000986	0.0365748
3.9e+08	-0.0100936	-0.1110051	0.002240616	-0.001706553	0.08273038	-0.02950414	0.001955583	-0.001366051
	0.002240616	-0.001706553	0.05189516	0.0343038	0.003051487	-0.001816743	0.07822557	-0.0249586
	0.08273038	-0.02950414	0.003051487	-0.001816743	-0.009518944	-0.1113689	0.002345684	-0.001674868
	0.001955583	-0.001366051	0.07822557	-0.0249586	0.002345684	-0.001674868	0.05273056	0.03462327
4e+08	-0.01806709	-0.1151032	0.00202734	-0.001979811	0.07926219	-0.0346859	0.001790968	-0.001614364
	0.00202734	-0.001979811	0.06422774	0.02950312	0.002806306	-0.002223814	0.07143146	-0.03681174
	0.07926219	-0.0346859	0.002806306	-0.002223814	-0.01753906	-0.1154321	0.002127855	-0.001943877
	0.001790968	-0.001614364	0.07143146	-0.03681174	0.002127855	-0.001943877	0.06501567	0.02966255
4.1e+08	-0.02666367	-0.1177498	0.001789839	-0.002224911	0.07515778	-0.03888037	0.001600905	-0.001841389
	0.001789839	-0.002224911	0.07544931	0.02178323	0.00251204	-0.002589441	0.06209793	-0.04697304
	0.07515778	-0.03888037	0.00251204	-0.002589441	-0.02616418	-0.1180305	0.001893372	-0.002179785
	0.001600905	-0.001841389	0.06209793	-0.04697304	0.001893372	-0.002179785	0.07615125	0.02179221
4.2e+08	-0.0355304	-0.1188573	0.001531671	-0.002443429	0.07069498	-0.04199594	0.001388337	-0.002046953
	0.001531671	-0.002443429	0.08486529	0.01140767	0.002177499	-0.002909959	0.05065047	-0.05491182
	0.07069498	-0.04199594	0.002177499	-0.002909959	-0.03503751	-0.119082	0.00164792	-0.002387882
	0.001388337	-0.002046953	0.05065047	-0.05491182	0.00164792	-0.002387882	0.08544493	0.01128474
4.3e+08	-0.04430731	-0.1184234	0.001254441	-0.002637135	0.06616292	-0.04401331	0.001154901	-0.002231258
	0.001254441	-0.002637135	0.09184515	-0.001191764	0.001811113	-0.003183781	0.03762104	-0.06020411
	0.06616292	-0.04401331	0.001811113	-0.003183781	-0.04379796	-0.1185901	0.001393749	-0.002574377
	0.001154901	-0.002231258	0.03762104	-0.06020411	0.001393749	-0.002574377	0.09227044	-0.001420045
4.4e+08	-0.05264751	-0.1165298	0.000958011	-0.00280712	0.06184358	-0.04498725	0.0009012422	-0.002394234
	0.000958011	-0.00280712	0.09586264	-0.01543073	0.001419858	-0.003411254	0.02362234	-0.06255272
	0.06184358	-0.04498725	0.001419858	-0.003411254	-0.05209761	-0.116643	0.001129805	-0.002744931
	0.0009012422	-0.002394234	0.02362234	-0.06255272	0.001129805	-0.002744931	0.09610717	-0.01573025
4.5e+08	-0.06023553	-0.1133371	0.0006409302	-0.00295315	0.05799454	-0.04504195	0.000627055	-0.002535105
	0.0006409302	-0.00295315	0.09653309	-0.03059679	0.001009021	-0.003593837	0.009317592	-0.06180122
	0.05799454	-0.04504195	0.001009021	-0.003593837	-0.05962256	-0.1134078	0.0008519046	-0.002903535
	0.000627055	-0.002535105	0.009317592	-0.06180122	0.0008519046	-0.002903535	0.0965781	-0.03092749
4.6e+08	-0.06680495	-0.1090749	0.0003012224	-0.003073074	0.05483177	-0.04436297	0.0003313807	-0.00265193
	0.0003012224	-0.003073074	0.09364551	-0.04588534	0.0005822098	-0.003733226	-0.004610607	-0.05794039
	0.05483177	-0.04436297	0.0005822098	-0.003733226	-0.06610927	-0.1091198	0.0005535515	-0.003051241
	0.0003313807	-0.00265193	-0.004610607	-0.05794039	0.0005535515	-0.003051241	0.09348139	-0.04620333
4.7e+08	-0.07215319	-0.104027	-6.2995e-05	-0.003162687	0.05251552	-0.0431848	1.335744e-05	-0.0027413
	-6.2995e-05	-0.003162687	0.08718647	-0.06044332	0.00014114	-0.003830666	-0.0174924	-0.05110877
	0.05251552	-0.0431848	0.00014114	-0.003830666	-0.07135927	-0.1040687	0.0002276017	-0.003185452
	1.335744e-05	-0.0027413	-0.0174924	-0.05110877	0.0002276017	-0.003185452	0.08681276	-0.06070153
4.8e+08	-0.07615109	-0.09851741	-0.0004523918	-0.003215767	0.05113993	-0.04177622	-0.0003273234	-0.002798271
	-0.0004523918	-0.003215767	0.07734886	-0.07341665	-0.0003139541	-0.00388616	-0.02870059	-0.04158649
	0.05113993	-0.04177622	-0.0003139541	-0.00388616	-0.07524977	-0.09858227	-0.0001327623	-0.003299601
	-0.0003273234	-0.002798271	-0.02870059	-0.04158649	-0.0001327623	-0.003299601	0.07677668	-0.07356818
4.9e+08	-0.07875292	-0.09289026	-0.0008655638	-0.003224493	0.05072514	-0.0404224	-0.0006895817	-0.002816536
	-0.0008655638	-0.003224493	0.06453473	-0.08400212	-0.0007831372	-0.003897839	-0.03768065	-0.02978359
	0.05072514	-0.0404224	-0.0007831372	-0.003897839	-0.07774143	-0.09300726	-0.0005321893	-0.003383407
