!$
! Info: Touchstone file created by Circ.  Input file=Intel_C2M_200G_9p5in_202208016_staggered.circ
!$
# Hz S RI R 50
0	0.0305089	4.905086e-24	0.9692933	-8.357417e-24	0.0001337689	3.252157e-22	-0.0002631878	3.223121e-20
	0.9692933	-8.354065e-24	0.03105876	8.780734e-24	-0.0002632435	3.223803e-20	0.0003546912	1.152144e-21
	0.0001338251	3.253397e-22	-0.000263378	3.22545e-20	0.0305069	4.640382e-24	0.9692936	-8.534383e-24
	-0.0002633223	3.224768e-20	0.000354756	1.15296e-21	0.9692936	-8.53775e-24	0.03106018	8.994054e-24
1e+07	0.0374647	0.01015192	0.9541141	-0.1346991	0.00258406	0.007410849	-0.001632263	-0.000842306
	0.9541141	-0.1346991	0.03807677	0.009782037	-0.00163276	-0.0008418074	0.002373947	0.007484166
	0.00258406	0.007410849	-0.00163276	-0.0008418074	0.03715604	0.009957104	0.9544356	-0.1344813
	-0.001632263	-0.000842306	0.002373947	0.007484166	0.9544356	-0.1344813	0.03775294	0.009598245
2e+07	0.04540305	0.01398451	0.9214344	-0.2606307	0.005889569	0.0133728	-0.002166598	-0.000813185
	0.9214344	-0.2606307	0.04779293	0.01272267	-0.002167243	-0.0008110306	0.00504918	0.01377839
	0.005889577	0.01337278	-0.002167253	-0.0008111391	0.04491402	0.0138195	0.9219653	-0.2604404
	-0.002166606	-0.0008132873	0.005049271	0.01377828	0.9219653	-0.2604404	0.04726045	0.01261573
3e+07	0.05205724	0.01427714	0.8744643	-0.3784967	0.01071749	0.01826679	-0.002655406	-0.0006275326
	0.8744643	-0.3784967	0.05650365	0.01101564	-0.002655097	-0.0006231965	0.009051751	0.01919398
	0.01071748	0.01826683	-0.002655139	-0.0006231881	0.0514493	0.01421871	0.8751364	-0.3784197
	-0.002655421	-0.0006275353	0.009051726	0.01919396	0.8751364	-0.3784197	0.05585774	0.01107109
4e+07	0.05753227	0.01277959	0.8136295	-0.4880841	0.01673684	0.02155465	-0.00304334	-0.0002767687
	0.8136295	-0.4880841	0.06445012	0.006618174	-0.003040607	-0.0002706336	0.0140365	0.02348794
	0.01673684	0.02155468	-0.003040612	-0.0002706281	0.05686001	0.01285166	0.8143892	-0.4881612
	-0.003043339	-0.0002767549	0.0140365	0.02348794	0.8143892	-0.4881612	0.06376109	0.006870641
5e+07	0.06197351	0.01019698	0.7399104	-0.588099	0.02346466	0.02301811	-0.003289375	0.0001910147
	0.7399104	-0.588099	0.0713136	-5.651033e-05	-0.003283127	0.0001977032	0.01971484	0.02645368
	0.02346467	0.02301811	-0.003283124	0.0001977021	0.06127916	0.01040874	0.7407077	-0.5883534
	-0.003289373	0.0001910133	0.01971484	0.02645369	0.7407077	-0.5883534	0.07064908	0.0004006845
6e+07	0.06545959	0.006921957	0.6545664	-0.6772003	0.03039402	0.02253118	-0.003371202	0.0007111953
	0.6545664	-0.6772003	0.07672449	-0.008568636	-0.003360998	0.0007167738	0.02573271	0.02799217
	0.03039402	0.02253116	-0.003360995	0.0007167722	0.06478015	0.007272777	0.6553521	-0.6776426
	-0.003371199	0.0007111942	0.02573271	0.02799217	0.6553521	-0.6776426	0.0761456	-0.007919205
7e+07	0.06808305	0.003254042	0.5590491	-0.7541532	0.03699793	0.02010283	-0.003292555	0.001219329
	0.5590491	-0.7541532	0.08039915	-0.01847241	-0.003278705	0.001221855	0.03172945	0.0280977
	0.03699793	0.02010283	-0.003278679	0.001221791	0.06745089	0.003735515	0.5597738	-0.7547826
	-0.003292553	0.001219326	0.03172946	0.0280977	0.5597738	-0.7547826	0.07995738	-0.01765924
8e+07	0.06997792	-0.0005946804	0.454961	-0.8178836	0.04276909	0.01587639	-0.003078504	0.001660348
	0.454961	-0.8178836	0.08213173	-0.02931317	-0.003062226	0.001658079	0.0373581	0.02685352
	0.04276909	0.01587639	-0.003062226	0.001658081	0.06942146	3.729016e-06	0.4555776	-0.8186915
	-0.003078505	0.001660351	0.0373581	0.02685352	0.4555776	-0.8186915	0.08186795	-0.02837664
9e+07	0.07129912	-0.004500204	0.344018	-0.867511	0.04725263	0.01011916	-0.002770219	0.001994473
	0.344018	-0.867511	0.08180602	-0.04061871	-0.002753544	0.001986178	0.04230793	0.02442548
	0.04725264	0.01011916	-0.002753539	0.001986186	0.07084392	-0.003801329	0.344476	-0.8684781
	-0.002770216	0.001994482	0.04230793	0.02442548	0.344476	-0.8684781	0.08175074	-0.03960713
1e+08	0.07225194	-0.008398136	0.2279374	-0.9023775	0.05007426	0.003200816	-0.002419126	0.002203763
	0.2279374	-0.9023775	0.07946474	-0.05190754	-0.002405131	0.002189006	0.0463252	0.02104574
	0.05007426	0.003200815	-0.002405131	0.002189005	0.07193492	-0.007609909	0.228169	-0.9034802
	-0.002419126	0.002203762	0.0463252	0.02104574	0.228169	-0.9034802	0.07965284	-0.05087811
1.1e+08	0.07280023	-0.01265071	0.1087786	-0.9215478	0.05093864	-0.004418007	-0.002058723	0.002279002
	0.1087786	-0.9215478	0.07503284	-0.06301367	-0.002048349	0.002260427	0.04919563	0.01701038
	0.05093863	-0.004418008	-0.002048349	0.002260425	0.07265155	-0.01192937	0.1087589	-0.9226581
	-0.002058724	0.002279001	0.04919563	0.01701038	0.1087589	-0.9226581	0.07542738	-0.06207443
1.2e+08	0.07279006	-0.01693088	-0.01118577	-0.9252547	0.04972591	-0.01215814	-0.001767284	0.002218946
	-0.01118577	-0.9252547	0.06849535	-0.07312313	-0.001762187	0.002197703	0.05083779	0.01266927
	0.04972591	-0.01215814	-0.001762187	0.002197702	0.07272485	-0.01626193	-0.01141984	-0.9263277
	-0.001767285	0.002218945	0.05083779	0.01266927	-0.01141984	-0.9263277	0.06902945	-0.0723049
1.3e+08	0.07234482	-0.021243	-0.1301372	-0.9136193	0.04645203	-0.0194969	-0.001593312	0.002071901
	-0.1301372	-0.9136193	0.06025906	-0.08179739	-0.001594296	0.002050039	0.05124678	0.008356642
	0.04645203	-0.0194969	-0.001594298	0.002050038	0.07234373	-0.02061594	-0.1305632	-0.9146222
	-0.001593313	0.0020719	0.05124678	0.008356642	-0.1305632	-0.9146222	0.06088193	-0.08111227
1.4e+08	0.07146791	-0.02561765	-0.2461981	-0.8869569	0.04126021	-0.02591733	-0.00156472	0.001894784
	-0.2461981	-0.8869569	0.05073651	-0.08871027	-0.001571129	0.001874598	0.05050159	0.004397932
	0.0412602	-0.02591733	-0.00157113	0.001874597	0.07151954	-0.02503863	-0.2467914	-0.8878596
	-0.001564721	0.001894783	0.05050159	0.004397933	-0.2467914	-0.8878596	0.05140396	-0.08815469
1.5e+08	0.07011426	-0.03007204	-0.3575338	-0.8458	0.03441791	-0.03094726	-0.001687241	0.001750657
	-0.3575338	-0.8458	0.04038392	-0.09364361	-0.001697843	0.001733322	0.04876212	0.001084963
	0.03441791	-0.03094726	-0.001697844	0.001733322	0.07020094	-0.02955012	-0.3582685	-0.8465803
	-0.001687242	0.001750657	0.04876212	0.001084963	-0.3582685	-0.8465803	0.0410606	-0.09320328
1.6e+08	0.06820605	-0.03459465	-0.4623819	-0.7908953	0.02630394	-0.03419028	-0.001944111	0.001701242
	-0.4623819	-0.7908953	0.02968352	-0.09649135	-0.001957541	0.001687284	0.04625778	-0.00134297
	0.02630394	-0.03419028	-0.001957541	0.001687284	0.06830463	-0.03413415	-0.4632336	-0.7915361
	-0.001944112	0.001701242	0.04625778	-0.00134297	-0.4632336	-0.7915361	0.03034329	-0.09614502
1.7e+08	0.06564687	-0.03913408	-0.5590851	-0.7231997	0.01738759	-0.03535161	-0.002297816	0.001799868
	-0.5590851	-0.7231997	0.01912026	-0.09726154	-0.002312937	0.001789364	0.04327142	-0.002716398
	0.01738759	-0.03535161	-0.002312938	0.001789364	0.06573285	-0.03873154	-0.5600275	-0.7236873
	-0.002297817	0.001799868	0.04327142	-0.002716398	-0.5600275	-0.7236873	0.01974706	-0.09698447
1.8e+08	0.06233826	-0.04359295	-0.6461123	-0.6438654	0.008201982	-0.03425824	-0.00269398	0.002085567
	-0.6461123	-0.6438654	0.009157849	-0.09607326	-0.002710004	0.00207818	0.04012017	-0.00294653
	0.008201982	-0.03425824	-0.002710005	0.00207818	0.06238939	-0.04323613	-0.6471186	-0.6441901
	-0.00269398	0.002085567	0.04012017	-0.002946529	-0.6471186	-0.6441901	0.009744596	-0.09583948
1.9e+08	0.05819669	-0.0478249	-0.7220813	-0.5542277	-0.0006869438	-0.03087232	-0.003066285	0.002578449
	-0.7220813	-0.5542277	0.0002144444	-0.09314732	-0.003082812	0.002573794	0.03713312	-0.002031092
	-0.0006869437	-0.03087232	-0.003082813	0.002573794	0.05819632	-0.04749481	-0.7231255	-0.5543862
	-0.003066285	0.002578449	0.03713312	-0.002031092	-0.7231255	-0.5543862	0.0007631741	-0.09293284
2e+08	0.05317248	-0.05163811	-0.7857851	-0.4557879	-0.008714128	-0.02529589	-0.003343315	0.003276725
	-0.7857851	-0.4557879	-0.007357834	-0.08879324	-0.003360384	0.003274455	0.0346279	-5.536599e-05
	-0.008714128	-0.02529589	-0.003360384	0.003274455	0.05311081	-0.05131222	-0.7868402	-0.455776
	-0.003343315	0.003276725	0.0346279	-5.536589e-05	-0.7868402	-0.455776	-0.006838961	-0.08857721
2.1e+08	0.04726707	-0.05480585	-0.8362134	-0.3501912	-0.01534929	-0.01776808	-0.003455578	0.004156103
	-0.8362134	-0.3501912	-0.01329308	-0.08339126	-0.003473083	0.004156283	0.03288922	0.002814363
	-0.01534929	-0.01776808	-0.003473084	0.004156283	0.04714197	-0.05445953	-0.8372532	-0.3500118
	-0.003455578	0.004156103	0.03288922	0.002814363	-0.8372532	-0.3500118	-0.01278928	-0.08315844
2.2e+08	0.04054582	-0.05708086	-0.8725694	-0.2392041	-0.02012966	-0.008653797	-0.003341484	0.005171131
	-0.8725694	-0.2392041	-0.01742299	-0.07737	-0.003359607	0.00517398	0.03214778	0.006342011
	-0.02012966	-0.008653796	-0.003359607	0.00517398	0.04036286	-0.05669062	-0.8735687	-0.2388625
	-0.003341484	0.005171132	0.03214778	0.006342011	-0.8735687	-0.2388625	-0.01691677	-0.07711121
2.3e+08	0.03314745	-0.05821562	-0.8942877	-0.1246884	-0.02268961	0.001575001	-0.002954642	0.00625832
	-0.8942877	-0.1246884	-0.01968664	-0.07118202	-0.00297305	0.006264436	0.0325642	0.01023798
	-0.02268961	0.001575001	-0.00297305	0.006264436	0.03291842	-0.05776082	-0.8952228	-0.1241922
	-0.002954642	0.00625832	0.0325642	0.01023798	-0.8952228	-0.1241922	-0.01915891	-0.07089479
2.4e+08	0.0252865	-0.05798431	-0.9010523	-0.008566153	-0.02278434	0.01236497	-0.002267166	0.007341427
	-0.9010523	-0.008566153	-0.0201327	-0.06527756	-0.002285592	0.007351408	0.03421761	0.01418016
	-0.02278434	0.01236497	-0.002285592	0.007351408	0.02502902	-0.05744827	-0.9019013	-0.007928375
	-0.002267166	0.007341427	0.03421761	0.01418016	-0.9019013	-0.007928375	-0.01956474	-0.06496622
2.5e+08	0.01724968	-0.05620576	-0.8928016	0.1072084	-0.02030758	0.02311243	-0.001274167	0.008337097
	-0.8928016	0.1072084	-0.0189143	-0.06007882	-0.001291791	0.008351472	0.03709957	0.01783595
	-0.02030758	0.02311244	-0.001291791	0.008351472	0.01698498	-0.05557745	-0.8935422	0.1079739
	-0.001274167	0.008337097	0.03709957	0.01783595	-0.8935422	0.1079739	-0.01828985	-0.05975326
2.6e+08	0.009384302	-0.05276559	-0.8697323	0.2206903	-0.01530161	0.03319823	5.294236e-06	0.009162111
	-0.8697323	0.2206903	-0.0162799	-0.05595469	-1.007947e-05	0.009181198	0.04111476	0.02088591
	-0.01530161	0.03319823	-1.007955e-05	0.009181198	0.009136539	-0.05203984	-0.8703466	0.2215637
	5.29414e-06	0.009162111	0.04111476	0.02088591	-0.8703466	0.2215637	-0.01558663	-0.05563038
2.7e+08	0.002081486	-0.04763474	-0.8322993	0.3299761	-0.007957334	0.04202363	0.001529443	0.009739961
	-0.8322993	0.3299761	-0.01255582	-0.05320102	0.001517601	0.009763755	0.04608791	0.02304661
	-0.007957334	0.04202363	0.0015176	0.009763755	0.0018757	-0.04681295	-0.8327728	0.3309379
	0.001529443	0.009739961	0.04608791	0.02304661	-0.8327728	0.3309379	-0.01178684	-0.05289645
2.8e+08	-0.004246297	-0.04088378	-0.78121	0.4332441	0.001393195	0.04904674	0.003235988	0.01000749
	-0.78121	0.4332441	-0.008126467	-0.05202373	0.003229526	0.01003528	0.05177624	0.02408938
	0.001393195	0.04904674	0.003229526	0.01003528	-0.004385958	-0.03997405	-0.7815307	0.4342716
	0.003235988	0.01000749	0.05177624	0.02408938	-0.7815307	0.4342716	-0.007280777	-0.05175895
2.9e+08	-0.009192559	-0.03269016	-0.7174079	0.5287882	0.01229355	0.05381537	0.005047526	0.00991992
	-0.7174079	0.5287882	-0.003410348	-0.05252797	0.00504786	0.00995065	0.0578865	0.02385665
	0.01229355	0.05381537	0.00504786	0.00995065	-0.009243736	-0.03170664	-0.7175674	0.5298568
	0.005047526	0.00991992	0.0578865	0.02385665	-0.7175674	0.5298568	-0.002492926	-0.05232321
3e+08	-0.01238508	-0.02333848	-0.6420511	0.6150513	0.02418769	0.05599477	0.0068764	0.009455373
	-0.6420511	0.6150513	0.00116673	-0.05471458	0.006884796	0.009487223	0.06409573	0.02227117
	0.02418769	0.05599477	0.006884796	0.009487223	-0.01232915	-0.02230089	-0.6420441	0.6161356
	0.0068764	0.009455373	0.06409573	0.02227117	-0.6420441	0.6161356	0.002145031	-0.05458793
3.1e+08	-0.01351489	-0.01321266	-0.5564898	0.6906564	0.03645062	0.05538982	0.008632556	0.008616038
	-0.5564898	0.6906564	0.00519644	-0.05848228	0.008649677	0.008646343	0.07007396	0.01934156
	0.03645062	0.05538982	0.008649677	0.008646343	-0.01333761	-0.01214559	-0.5563163	0.691728
	0.008632556	0.008616038	0.07007396	0.01934156	-0.5563163	0.691728	0.006219544	-0.05844843
3.2e+08	-0.01236237	-0.00278082	-0.4622363	0.7544238	0.0484237	0.05195776	0.01023035	0.00742785
	-0.4622363	0.7544238	0.008312078	-0.06363655	0.01025606	0.007453944	0.07550598	0.01515901
	0.0484237	0.05195776	0.01025606	0.007453944	-0.01205626	-0.001712658	-0.4618997	0.7554598
	0.01023035	0.00742785	0.07550598	0.01515901	-0.4618997	0.7554598	0.009360158	-0.06370528
3.3e+08	-0.008820487	0.007427364	-0.3609291	0.8053968	0.0594519	0.04581217	0.0115953	0.005937815
	-0.3609291	0.8053968	0.0102092	-0.06990376	0.01162838	0.005957558	0.08011191	0.009890417
	0.0594519	0.04581217	0.01162838	0.005957558	-0.008384491	0.008466037	-0.3604386	0.8063716
	0.0115953	0.005937815	0.08011191	0.009890417	-0.3604386	0.8063716	0.01126042	-0.070079
3.4e+08	-0.002911224	0.01684848	-0.2543057	0.8428482	0.06892164	0.0372184	0.01266931	0.004210659
	-0.2543057	0.8428482	0.01066188	-0.07694973	0.01270792	0.004221222	0.08366588	0.003765984
	0.06892164	0.0372184	0.01270792	0.004221222	-0.002351981	0.01782696	-0.2536715	0.8437413
	0.01266931	0.004210659	0.08366588	0.003765984	-0.2536715	0.8437413	0.01169358	-0.07722921
3.5e+08	0.005205248	0.02491847	-0.1441593	0.8662909	0.07629486	0.02657905	0.01341536	0.002321361
	-0.1441593	0.8662909	0.009532953	-0.08440136	0.01345668	0.002321054	0.08600841	-0.002938228
	0.07629486	0.02657905	0.01345668	0.002321054	0.005873986	0.02580692	-0.1433989	0.8670788
	0.01341536	0.002321361	0.08600841	-0.002938228	-0.1433989	0.8670788	0.01052411	-0.08477682
3.6e+08	0.01522971	0.03110685	-0.03231497	0.8754722	0.08113981	0.01441258	0.0138188	0.0003492077
	-0.03231497	0.8754722	0.006779656	-0.09186976	0.01385964	0.000337587	0.08705549	-0.009918203
	0.08113981	0.01441258	0.01385964	0.000337587	0.01598655	0.0318788	-0.03144573	0.8761386
	0.0138188	0.0003492078	0.08705549	-0.009918203	-0.03144573	0.8761386	0.007712158	-0.09232688
3.7e+08	0.0267314	0.03495225	0.07940967	0.8703729	0.08315481	0.001324333	0.01388731	-0.001629127
	0.07940967	0.8703729	0.002452469	-0.09897234	0.01392415	-0.001651979	0.08680195	-0.0168628
	0.08315481	0.001324333	0.01392415	-0.001651979	0.02754863	0.03558611	0.08036834	0.8709054
	0.01388731	-0.001629127	0.08680195	-0.0168628	0.08036834	0.8709054	0.003312585	-0.09949279
3.8e+08	0.0391652	0.03609461	0.1892283	0.8511996	0.08218387	-0.01202579	0.01364808	-0.003547527
	0.1892283	0.8511996	-0.003310547	-0.105355	0.01367779	-0.003579461	0.0853193	-0.02347345
	0.08218387	-0.01202579	0.01367779	-0.003579461	0.04000986	0.0365748	0.1902537	0.8515862
	0.01364808	-0.003547527	0.0853193	-0.02347345	0.1902537	0.8515862	-0.002530666	-0.1059172
3.9e+08	0.05189516	0.0343038	0.2954091	0.8183711	0.07822557	-0.0249586	0.01314379	-0.005353328
	0.2954091	0.8183711	-0.01029457	-0.1107112	0.01316337	-0.005392605	0.08274979	-0.02948261
	0.07822557	-0.0249586	0.01316337	-0.005392605	0.05273056	0.03462327	0.29648	0.8186084
	0.01314379	-0.005353328	0.08274979	-0.02948261	0.29648	0.8186084	-0.009596618	-0.1112918
4e+08	0.06422774	0.02950312	0.396301	0.7725095	0.07143146	-0.03681174	0.01242564	-0.007013957
	0.396301	0.7725095	-0.01822193	-0.114797	0.01243368	-0.007056812	0.07929509	-0.03466964
	0.07143146	-0.03681174	0.01243368	-0.007056812	0.06501567	0.02966255	0.3973961	0.7725915
	0.01242564	-0.007013957	0.07929509	-0.03466964	0.3973961	0.7725915	-0.01760081	-0.1153732
4.1e+08	0.07544931	0.02178323	0.4903551	0.7144171	0.06209793	-0.04697304	0.0115471	-0.008516481
	0.4903551	0.7144171	-0.02676976	-0.1174427	0.01154312	-0.008558977	0.07520262	-0.03887316
	0.06209793	-0.04697304	0.01154312	-0.008558977	0.07615125	0.02179221	0.4914542	0.7143443
	0.0115471	-0.00851648	0.07520262	-0.03887316	0.4914542	0.7143443	-0.02621429	-0.1179939
4.2e+08	0.08486529	0.01140767	0.5761335	0.6450749	0.05065047	-0.05491182	0.01055698	-0.009866772
	0.5761335	0.6450749	-0.03558828	-0.1185611	0.01054154	-0.009905288	0.07074925	-0.04200108
	0.05065047	-0.05491182	0.01054154	-0.009905288	0.08544493	0.01128474	0.5772149	0.6448499
	0.01055698	-0.009866772	0.07074925	-0.04200108	0.5772149	0.6448499	-0.03508113	-0.1190703
4.3e+08	0.09184515	-0.001191764	0.6523315	0.5656155	0.03762104	-0.06020411	0.009491586	-0.0110873
	0.6523315	0.5656155	-0.04432072	-0.118149	0.009467103	-0.01111851	0.06622323	-0.04403333
	0.03762104	-0.06020411	0.009467103	-0.01111851	0.09227044	-0.001420045	0.6533768	0.565242
	0.009491586	-0.0110873	0.06622323	-0.04403333	0.6533768	0.565242	-0.04384084	-0.1186049
4.4e+08	0.09586264	-0.01543073	0.7177882	0.4773152	0.02362234	-0.06255272	0.008371132	-0.01221042
	0.7177882	0.4773152	-0.05262299	-0.1162869	0.00834038	-0.0122319	0.06190593	-0.04502379
	0.02362234	-0.06255272	0.00834038	-0.0122319	0.09610717	-0.01573025	0.7187788	0.4767993
	0.008371132	-0.01221042	0.06190593	-0.04502379	0.7187788	0.4767993	-0.05214583	-0.1166845
4.5e+08	0.09653309	-0.03059679	0.7714986	0.3815797	0.009317592	-0.06180122	0.007195798	-0.01327191
	0.7714986	0.3815797	-0.06018202	-0.1131334	0.00716254	-0.01328255	0.05805455	-0.04509547
	0.009317592	-0.06180122	0.00716254	-0.01328255	0.0965781	-0.03092749	0.7724168	0.3809289
	0.007195798	-0.01327191	0.05805455	-0.04509547	0.7724168	0.3809289	-0.05968213	-0.1134748
4.6e+08	0.09364551	-0.04588534	0.8126288	0.2799262	-0.004610607	-0.05794039	0.005945085	-0.01430279
	0.8126288	0.2799262	-0.06673296	-0.1089152	0.005913599	-0.01430283	0.05488501	-0.04443285
	-0.004610607	-0.05794039	0.005913599	-0.01430283	0.09348139	-0.04620333	0.813458	0.2791478
	0.005945085	-0.01430279	0.05488501	-0.04443285	0.813458	0.2791478	-0.06618591	-0.1092096
4.7e+08	0.08718647	-0.06044332	0.8405328	0.1739644	-0.0174924	-0.05110877	0.004581872	-0.01532111
	0.8405328	0.1739644	-0.07207418	-0.1039133	0.004555466	-0.01531222	0.05255779	-0.04326918
	-0.0174924	-0.05110877	0.004555466	-0.01531222	0.08681276	-0.06070153	0.8412544	0.1730697
	0.004581872	-0.01532111	0.05255779	-0.04326918	0.8412544	0.1730697	-0.07145799	-0.1041773
4.8e+08	0.07734886	-0.07341665	0.8547517	0.06538294	-0.02870059	-0.04158649	0.00305525	-0.0163254
	0.8547517	0.06538294	-0.07607646	-0.0984484	0.00303714	-0.01631045	0.05116758	-0.04187219
	-0.02870059	-0.04158649	0.003037139	-0.01631045	0.07677668	-0.07356818	0.8553526	0.06438493
	0.00305525	-0.0163254	0.05116758	-0.04187219	0.8553526	0.06438493	-0.07537465	-0.09870453
4.9e+08	0.06453473	-0.08400212	0.8550428	-0.0440685	-0.03768065	-0.02978359	0.001311366	-0.01728927
	0.8550428	-0.0440685	-0.07869322	-0.09286184	0.001302561	-0.01727206	0.05073542	-0.04052608
	-0.03768065	-0.02978359	0.001302561	-0.01727206	0.06378514	-0.08400251	0.8555063	-0.04515772
	0.001311366	-0.01728927	0.05073542	-0.04052608	0.8555063	-0.04515772	-0.0778952	-0.09313705
5e+08	0.04933976	-0.09150144	0.8413815	-0.1526179	-0.04397544	-0.01622202	-0.0006999132	-0.01815922
	0.8413815	-0.1526179	-0.07996183	-0.08749444	-0.0006990297	-0.01814415	0.05120653	-0.0395118
	-0.04397544	-0.01622202	-0.0006990297	-0.01814415	0.04844425	-0.09131017	0.8416918	-0.1537776
	-0.0006999133	-0.01815922	0.05120653	-0.0395118	0.8416918	-0.1537776	-0.07906441	-0.08781932
5.1e+08	0.0325259	-0.09536548	0.8139672	-0.2584791	-0.04724806	-0.001514523	-0.003011642	-0.0188572
	0.8139672	-0.2584791	-0.08000123	-0.08266803	-0.003002807	-0.01884815	0.05245267	-0.03908811
	-0.04724806	-0.001514523	-0.003002807	-0.01884815	0.03152541	-0.09495004	0.8141135	-0.2596903
	-0.003011642	-0.0188572	0.05245267	-0.03908811	0.8141135	-0.2596903	-0.07900984	-0.08307314
5.2e+08	0.0149835	-0.09523811	0.7732382	-0.3598948	-0.04730016	0.01366351	-0.005632536	-0.01928448
	0.7732382	-0.3598948	-0.07900635	-0.07866392	-0.005619264	-0.01928446	0.05428008	-0.03947226
	-0.04730016	0.01366351	-0.005619264	-0.01928446	0.01392632	-0.09457464	0.7732074	-0.3611342
