!$
! Info: Touchstone file created by Circ.  Input file=Intel_C2M_200G_9p5in_202208016_staggered.circ
!$
# Hz S RI R 50
0	0.03049616	4.511316e-24	9.172006e-05	1.372252e-22	0.0001341665	3.281668e-22	9.171339e-05	1.37004e-22
	9.172006e-05	1.372252e-22	0.0305089	4.905086e-24	9.172435e-05	1.373448e-22	0.0001337689	3.252157e-22
	0.0001342227	3.282907e-22	9.172434e-05	1.373464e-22	0.03049113	4.72836e-24	9.171564e-05	1.371093e-22
	9.171337e-05	1.370057e-22	0.0001338251	3.253397e-22	9.171564e-05	1.371093e-22	0.0305069	4.640382e-24
1e+07	0.03712242	0.00992437	1.075889e-05	3.905876e-05	0.00257823	0.007356002	1.535769e-05	2.976509e-05
	1.07589e-05	3.905876e-05	0.0374647	0.01015192	1.169113e-05	6.837862e-05	0.00258406	0.007410849
	0.00257823	0.007356002	1.169113e-05	6.837862e-05	0.03744159	0.01020151	1.091208e-05	4.062667e-05
	1.535769e-05	2.976509e-05	0.00258406	0.007410849	1.091208e-05	4.062667e-05	0.03715604	0.009957104
2e+07	0.04486261	0.01376311	1.889319e-05	3.240727e-05	0.005876963	0.01326561	9.351445e-06	2.237689e-05
	1.88932e-05	3.240728e-05	0.04540305	0.01398451	6.525333e-05	7.58167e-05	0.005889569	0.0133728
	0.00587697	0.0132656	6.525333e-05	7.58167e-05	0.04538646	0.01408548	2.071649e-05	3.476578e-05
	9.351444e-06	2.237689e-05	0.005889577	0.01337278	2.071648e-05	3.476578e-05	0.04491402	0.0138195
3e+07	0.05137638	0.01413717	3.188938e-05	2.526909e-05	0.01069537	0.0181117	1.285198e-05	1.908315e-05
	3.188938e-05	2.526909e-05	0.05205724	0.01427714	0.0001048214	6.282151e-05	0.01071749	0.01826679
	0.01069535	0.01811174	0.0001048214	6.282151e-05	0.0520495	0.01443638	3.496408e-05	2.750202e-05
	1.285199e-05	1.908315e-05	0.01071748	0.01826683	3.496409e-05	2.750201e-05	0.0514493	0.01421871
4e+07	0.05675489	0.01275688	4.072955e-05	1.593931e-05	0.01670472	0.02135719	1.837402e-05	1.351969e-05
	4.072955e-05	1.593931e-05	0.05753227	0.01277959	0.0001328219	3.934643e-05	0.01673684	0.02155465
	0.01670472	0.02135721	0.0001328219	3.934643e-05	0.0575461	0.01298987	4.478649e-05	1.769778e-05
	1.837402e-05	1.351969e-05	0.01673684	0.02155468	4.478649e-05	1.769778e-05	0.05686001	0.01285166
5e+07	0.06113839	0.01031161	4.577356e-05	5.328702e-06	0.0234244	0.022784	2.165756e-05	7.317686e-06
	4.577356e-05	5.3287e-06	0.06197351	0.01019698	0.0001503203	9.966475e-06	0.02346466	0.02301811
	0.02342441	0.02278401	0.0001503203	9.966474e-06	0.06201455	0.01044997	5.058228e-05	6.387181e-06
	2.165756e-05	7.317685e-06	0.02346467	0.02301811	5.058228e-05	6.38718e-06	0.06127916	0.01040874
6e+07	0.06460249	0.007183991	4.730613e-05	-5.641252e-06	0.03034986	0.02226563	2.282395e-05	9.907243e-07
	4.730613e-05	-5.64125e-06	0.06545959	0.006921957	0.0001579464	-2.226509e-05	0.03039402	0.02253118
	0.03034986	0.02226561	0.0001579464	-2.226509e-05	0.06553054	0.007208316	5.264863e-05	-5.445442e-06
	2.282395e-05	9.907258e-07	0.03039402	0.02253116	5.264863e-05	-5.44544e-06	0.06478015	0.007272777
7e+07	0.06723731	0.003666259	4.565245e-05	-1.617026e-05	0.03695627	0.01980961	2.208836e-05	-4.987731e-06
	4.565245e-05	-1.617026e-05	0.06808305	0.003254042	0.0001562056	-5.500891e-05	0.03699793	0.02010283
	0.03695627	0.01980961	0.0001562056	-5.500891e-05	0.06818317	0.003563613	5.13151e-05	-1.695951e-05
	2.208836e-05	-4.98773e-06	0.03699793	0.02010283	5.13151e-05	-1.695951e-05	0.06745089	0.003735515
8e+07	0.06917502	-3.476007e-05	4.121302e-05	-2.561102e-05	0.04273811	0.01555713	1.971434e-05	-1.022165e-05
	4.121302e-05	-2.561102e-05	0.06997792	-0.0005946804	0.0001457079	-8.634157e-05	0.04276909	0.01587639
	0.04273811	0.01555713	0.0001457079	-8.634157e-05	0.07010308	-0.0002714796	4.694823e-05	-2.747713e-05
	1.971434e-05	-1.022165e-05	0.04276909	0.01587639	4.694823e-05	-2.747713e-05	0.06942146	3.729016e-06
9e+07	0.07057041	-0.00379843	3.434077e-05	-3.349592e-05	0.04724143	0.009772693	1.596129e-05	-1.441048e-05
	3.434077e-05	-3.349592e-05	0.07129912	-0.004500204	0.0001268982	-0.0001148086	0.04725263	0.01011916
	0.04724144	0.009772696	0.0001268982	-0.0001148086	0.07144156	-0.004170933	3.987579e-05	-3.650691e-05
	1.596129e-05	-1.441048e-05	0.04725264	0.01011916	3.987579e-05	-3.650691e-05	0.07084392	-0.003801329
1e+08	0.07164173	-0.007556336	2.452752e-05	-3.972889e-05	0.0500921	0.0028228	1.064959e-05	-1.740387e-05
	2.452752e-05	-3.972889e-05	0.07225194	-0.008398136	9.724019e-05	-0.0001403303	0.05007426	0.003200816
	0.0500921	0.002822799	9.724019e-05	-0.0001403303	0.07240107	-0.00806677	2.945035e-05	-4.399802e-05
	1.064959e-05	-1.740387e-05	0.05007426	0.003200815	2.945035e-05	-4.399802e-05	0.07193492	-0.007609909
1.1e+08	0.07235229	-0.01175615	1.369484e-05	-3.90463e-05	0.05099389	-0.004835572	5.254025e-06	-1.661681e-05
	1.369484e-05	-3.90463e-05	0.07280023	-0.01265071	6.049251e-05	-0.0001437914	0.05093864	-0.004418007
	0.05099389	-0.004835573	6.049251e-05	-0.0001437914	0.07294755	-0.01237644	1.747458e-05	-4.392873e-05
	5.254025e-06	-1.661681e-05	0.05093863	-0.004418008	1.747458e-05	-4.392873e-05	0.07265155	-0.01192937
1.2e+08	0.07247183	-0.0160181	5.917681e-06	-3.64703e-05	0.04982465	-0.01262591	1.650381e-06	-1.490755e-05
	5.917681e-06	-3.64703e-05	0.07279006	-0.01693088	3.547493e-05	-0.0001388558	0.04972591	-0.01215814
	0.04982464	-0.01262591	3.547493e-05	-0.0001388558	0.07288929	-0.0166593	8.73016e-06	-4.16532e-05
	1.650381e-06	-1.490755e-05	0.04972591	-0.01215814	8.730161e-06	-4.16532e-05	0.07272485	-0.01626193
1.3e+08	0.0721392	-0.02032971	1.646144e-06	-3.2797e-05	0.04659738	-0.0200279	-1.137072e-06	-1.296096e-05
	1.646145e-06	-3.2797e-05	0.07234482	-0.021243	2.681551e-05	-0.0001283409	0.04645203	-0.0194969
	0.04659738	-0.02002789	2.681551e-05	-0.0001283409	0.07240078	-0.02094	4.213344e-06	-3.792835e-05
	-1.137072e-06	-1.296096e-05	0.04645203	-0.0194969	4.213344e-06	-3.792835e-05	0.07234373	-0.02061594
1.4e+08	0.07136141	-0.02471552	3.770435e-07	-2.850562e-05	0.0414516	-0.0265261	-3.263559e-06	-1.084849e-05
	3.770438e-07	-2.850562e-05	0.07146791	-0.02561765	1.830136e-05	-0.0001181796	0.04126021	-0.02591733
	0.04145159	-0.02652609	1.830136e-05	-0.0001181796	0.07149246	-0.02527227	2.512742e-06	-3.358485e-05
	-3.263559e-06	-1.084849e-05	0.0412602	-0.02591733	2.512742e-06	-3.358485e-05	0.07151954	-0.02503863
1.5e+08	0.0700958	-0.02918918	-5.699872e-07	-2.472393e-05	0.0346505	-0.0316488	-3.335633e-06	-8.494925e-06
	-5.69987e-07	-2.472393e-05	0.07011426	-0.03007204	1.058786e-05	-0.0001079286	0.03441791	-0.03094726
	0.0346505	-0.0316488	1.058786e-05	-0.0001079286	0.07011355	-0.02968167	1.188594e-06	-2.951162e-05
	-3.335633e-06	-8.494926e-06	0.03441791	-0.03094726	1.188594e-06	-2.951162e-05	0.07020094	-0.02955012
1.6e+08	0.06826664	-0.03373694	-1.086894e-06	-2.115756e-05	0.02656842	-0.03499883	-2.873935e-06	-6.437549e-06
	-1.086894e-06	-2.115756e-05	0.06820605	-0.03459465	3.927735e-06	-9.756311e-05	0.02630394	-0.03419028
	0.02656842	-0.03499883	3.927735e-06	-9.756311e-05	0.06818135	-0.03415709	2.514656e-07	-2.578665e-05
	-2.873935e-06	-6.43755e-06	0.02630394	-0.03419028	2.514658e-07	-2.578665e-05	0.06830463	-0.03413415
1.7e+08	0.06577941	-0.03830683	-1.152757e-06	-1.784546e-05	0.01767024	-0.03627936	-2.279538e-06	-4.775959e-06
	-1.152757e-06	-1.784546e-05	0.06564687	-0.03913408	-1.521395e-06	-8.714956e-05	0.01738759	-0.03535161
	0.01767024	-0.03627936	-1.521395e-06	-8.714956e-05	0.06559832	-0.03864453	-2.329192e-07	-2.227851e-05
	-2.279538e-06	-4.775959e-06	0.01738759	-0.03535161	-2.329191e-07	-2.227851e-05	0.06573285	-0.03873154
1.8e+08	0.06253692	-0.04280071	-7.950261e-07	-1.485394e-05	0.008485142	-0.03531404	-1.483258e-06	-3.355426e-06
	-7.95026e-07	-1.485394e-05	0.06233826	-0.04359295	-5.672577e-06	-7.681037e-05	0.008201982	-0.03425824
	0.008485142	-0.03531403	-5.672577e-06	-7.681037e-05	0.06226769	-0.04304385	-2.781881e-07	-1.904767e-05
	-1.483258e-06	-3.355426e-06	0.008201982	-0.03425824	-2.781881e-07	-1.904767e-05	0.06238939	-0.04323613
1.9e+08	0.05845663	-0.04707272	-6.310969e-08	-1.22398e-05	-0.0004239669	-0.03206041	-5.187527e-07	-2.206251e-06
	-6.310966e-08	-1.22398e-05	0.05819669	-0.0478249	-8.493951e-06	-6.669839e-05	-0.0006869438	-0.03087232
	-0.0004239668	-0.03206041	-8.493951e-06	-6.669839e-05	0.05810961	-0.04720758	7.726649e-08	-1.615082e-05
	-5.187527e-07	-2.206251e-06	-0.0006869437	-0.03087232	7.726652e-08	-1.615082e-05	0.05819632	-0.04749481
2e+08	0.05348903	-0.05093201	9.758606e-07	-1.00537e-05	-0.008493912	-0.02661503	5.692076e-07	-1.354384e-06
	9.758606e-07	-1.00537e-05	0.05317248	-0.05163811	-1.000235e-05	-5.698263e-05	-0.008714128	-0.02529589
	-0.008493912	-0.02661503	-1.000235e-05	-5.698263e-05	0.05307816	-0.05094567	7.765432e-07	-1.364047e-05
	5.692076e-07	-1.354384e-06	-0.008714128	-0.02529589	7.765432e-07	-1.364047e-05	0.05311081	-0.05131222
2.1e+08	0.04763501	-0.05415298	2.239317e-06	-8.331214e-06	-0.01519474	-0.01921083	1.726507e-06	-8.176731e-07
	2.239317e-06	-8.331214e-06	0.04726707	-0.05480585	-1.025918e-05	-4.783492e-05	-0.01534929	-0.01776808
	-0.01519474	-0.01921083	-1.025918e-05	-4.783492e-05	0.04717791	-0.05403398	1.746684e-06	-1.155716e-05
	1.726507e-06	-8.176731e-07	-0.01534929	-0.01776808	1.746684e-06	-1.155716e-05	0.04714197	-0.05445953
2.2e+08	0.04095842	-0.05648932	3.635671e-06	-7.093149e-06	-0.02006228	-0.0102064	2.892103e-06	-6.032474e-07
	3.635671e-06	-7.093149e-06	0.04054582	-0.05708086	-9.366082e-06	-3.942059e-05	-0.02012966	-0.008653797
	-0.02006228	-0.0102064	-9.366082e-06	-3.942059e-05	0.04047622	-0.05622999	2.904279e-06	-9.92876e-06
	2.892103e-06	-6.032474e-07	-0.02012966	-0.008653796	2.904279e-06	-9.92876e-06	0.04036286	-0.05669062
2.3e+08	0.03359577	-0.05769393	5.068699e-06	-6.338562e-06	-0.02272778	-6.758721e-05	4.000958e-06	-7.052323e-07
	5.068699e-06	-6.338562e-06	0.03314745	-0.05821562	-7.463136e-06	-3.188089e-05	-0.02268961	0.001575001
	-0.02272778	-6.758682e-05	-7.463136e-06	-3.188089e-05	0.03311125	-0.05729114	4.15866e-06	-8.767248e-06
	4.000958e-06	-7.052323e-07	-0.02268961	0.001575001	4.15866e-06	-8.767248e-06	0.03291842	-0.05776082
2.4e+08	0.02575884	-0.05754061	6.440643e-06	-6.053685e-06	-0.02294161	0.01065753	4.987802e-06	-1.102904e-06
	6.440644e-06	-6.053685e-06	0.0252865	-0.05798431	-4.7134e-06	-2.534853e-05	-0.02278434	0.01236497
	-0.02294161	0.01065753	-4.7134e-06	-2.534853e-05	0.02529601	-0.05699591	5.415833e-06	-8.065204e-06
	4.987802e-06	-1.102904e-06	-0.02278434	0.01236497	5.415833e-06	-8.065204e-06	0.02502902	-0.05744827
2.5e+08	0.01773131	-0.05584677	7.656657e-06	-6.201582e-06	-0.02059118	0.02136935	5.791006e-06	-1.760551e-06
	7.656657e-06	-6.201582e-06	0.01724968	-0.05620576	-1.310333e-06	-1.991354e-05	-0.02030758	0.02311243
	-0.02059118	0.02136935	-1.310333e-06	-1.991354e-05	0.01731332	-0.05516712	6.58516e-06	-7.794305e-06
	5.791006e-06	-1.760551e-06	-0.02030758	0.02311244	6.58516e-06	-7.794305e-06	0.01698498	-0.05557745
2.6e+08	0.009857669	-0.05249546	8.630931e-06	-6.724538e-06	-0.01571132	0.03145107	6.357094e-06	-2.627882e-06
	8.630931e-06	-6.724538e-06	0.009384302	-0.05276559	2.535101e-06	-1.563915e-05	-0.01530161	0.03319823
	-0.01571132	0.03145107	2.535101e-06	-1.563915e-05	0.009506327	-0.05169248	7.58028e-06	-7.911698e-06
	6.357094e-06	-2.627882e-06	-0.01530161	0.03319823	7.58028e-06	-7.911698e-06	0.009136539	-0.05203984
2.7e+08	0.00252671	-0.04745398	9.291186e-06	-7.547172e-06	-0.008484782	0.04030441	6.644582e-06	-3.642163e-06
	9.291186e-06	-7.547172e-06	0.002081486	-0.04763474	6.600323e-06	-1.254322e-05	-0.007957334	0.04202363
	-0.008484782	0.04030441	6.600323e-06	-1.254322e-05	0.002261024	-0.04654386	8.325607e-06	-8.354813e-06
	6.644582e-06	-3.642163e-06	-0.007957334	0.04202363	8.325607e-06	-8.354813e-06	0.0018757	-0.04681295
2.8e+08	-0.003850436	-0.04078837	9.583185e-06	-8.579391e-06	0.0007645937	0.04738575	6.627561e-06	-4.731381e-06
	9.583185e-06	-8.579391e-06	-0.004246297	-0.04088378	1.066283e-05	-1.059902e-05	0.001393195	0.04904674
	0.0007645937	0.04738575	1.066283e-05	-1.059902e-05	-0.004015506	-0.03979112	8.761129e-06	-9.04519e-06
	6.627561e-06	-4.731381e-06	0.001393195	0.04904674	8.761129e-06	-9.04519e-06	-0.004385958	-0.03997405
2.9e+08	-0.008867445	-0.03267088	9.474429e-06	-9.720683e-06	0.01158823	0.05223911	6.298155e-06	-5.818559e-06
	9.474429e-06	-9.720683e-06	-0.009192559	-0.03269016	1.451023e-05	-9.736789e-06	0.01229355	0.05381537
	0.01158823	0.05223911	1.451023e-05	-9.736789e-06	-0.008921009	-0.03160924	8.845997e-06	-9.892736e-06
	6.298155e-06	-5.818559e-06	0.01229355	0.05381537	8.845997e-06	-9.892736e-06	-0.009243736	-0.03170664
3e+08	-0.01215085	-0.02338078	8.956485e-06	-1.086546e-05	0.02343696	0.05452397	5.667528e-06	-6.826662e-06
	8.956485e-06	-1.086546e-05	-0.01238508	-0.02333848	1.794965e-05	-9.846344e-06	0.02418769	0.05599477
	0.02343696	0.05452397	1.794965e-05	-9.846344e-06	-0.01208716	-0.02227917	8.561228e-06	-1.080037e-05
	5.667528e-06	-6.826662e-06	0.02418769	0.05599477	8.561228e-06	-1.080037e-05	-0.01232915	-0.02230089
3.1e+08	-0.01338901	-0.01329676	8.046129e-06	-1.190924e-05	0.03569121	0.05403766	4.765517e-06	-7.683834e-06
	8.046129e-06	-1.190924e-05	-0.01351489	-0.01321266	2.081659e-05	-1.078247e-05	0.03645062	0.05538982
	0.03569121	0.05403766	2.081659e-05	-1.078247e-05	-0.0132071	-0.01218047	7.911261e-06	-1.166981e-05
	4.765517e-06	-7.683834e-06	0.03645062	0.05538982	7.911261e-06	-1.166981e-05	-0.01333761	-0.01214559
3.2e+08	-0.01235824	-0.00288226	6.784502e-06	-1.275489e-05	0.04769594	0.0507286	3.638557e-06	-8.328166e-06
	6.784502e-06	-1.275489e-05	-0.01236237	-0.00278082	2.29818e-05	-1.237146e-05	0.0484237	0.05195776
	0.04769594	0.0507286	2.29818e-05	-1.237146e-05	-0.01206324	-0.001776389	6.923698e-06	-1.240715e-05
	3.638557e-06	-8.328166e-06	0.0484237	0.05195776	6.923698e-06	-1.240715e-05	-0.01205626	-0.001712658
3.3e+08	-0.008946246	0.007336834	5.234686e-06	-1.331846e-05	0.05879757	0.0447006	2.346314e-06	-8.711647e-06
	5.234686e-06	-1.331846e-05	-0.008820487	0.007427364	2.435667e-05	-1.441986e-05	0.0594519	0.04581217
	0.05879757	0.0447006	2.435667e-05	-1.441986e-05	-0.00854798	0.008408678	5.647527e-06	-1.292868e-05
	2.346314e-06	-8.711647e-06	0.0594519	0.04581217	5.647527e-06	-1.292868e-05	-0.008384491	0.008466037
3.4e+08	-0.003168717	0.01679971	3.477716e-06	-1.353444e-05	0.06838163	0.03620892	9.574085e-07	-8.803013e-06
	3.477716e-06	-1.353444e-05	-0.002911224	0.01684848	2.489667e-05	-1.672411e-05	0.06892164	0.0372184
	0.06838163	0.03620892	2.489667e-05	-1.672411e-05	-0.002682088	0.01781693	4.150011e-06	-1.316598e-05
	9.574084e-07	-8.803013e-06	0.06892164	0.0372184	4.150011e-06	-1.316598e-05	-0.002351981	0.01782696
3.5e+08	0.004821144	0.02494356	1.607186e-06	-1.335947e-05	0.07590674	0.02564621	-4.554656e-07	-8.58894e-06
	1.607186e-06	-1.335947e-05	0.005205248	0.02491847	2.460157e-05	-1.908014e-05	0.07629486	0.02657905
	0.07590674	0.02564621	2.460157e-05	-1.908014e-05	0.005377632	0.02588873	2.511964e-06	-1.306971e-05
	-4.554656e-07	-8.58894e-06	0.07629486	0.02657905	2.511964e-06	-1.306971e-05	0.005873986	0.02580692
3.6e+08	0.0147316	0.03123758	-2.767398e-07	-1.277451e-05	0.0809354	0.01352172	-1.820299e-06	-8.073984e-06
	-2.767398e-07	-1.277451e-05	0.01522971	0.03110685	2.351434e-05	-2.129316e-05	0.08113981	0.01441258
	0.0809354	0.01352172	2.351434e-05	-2.129316e-05	0.01533582	0.03209796	8.225453e-07	-1.261214e-05
	-1.820299e-06	-8.073984e-06	0.08113981	0.01441258	8.225453e-07	-1.261214e-05	0.01598655	0.0318788
3.7e+08	0.02613955	0.0352185	-2.073767e-06	-1.178522e-05	0.083158	0.0004329284	-3.070174e-06	-7.279008e-06
	-2.073767e-06	-1.178522e-05	0.0267314	0.03495225	2.171721e-05	-2.318645e-05	0.08315481	0.001324333
	0.083158	0.0004329284	2.171721e-05	-2.318645e-05	0.02676739	0.03598625	-8.266225e-07	-1.178803e-05
	-3.070174e-06	-7.279008e-06	0.08315481	0.001324333	-8.266225e-07	-1.178803e-05	0.02754863	0.03558611
3.8e+08	0.03850736	0.03652248	-3.689376e-06	-1.04205e-05	0.08240867	-0.01296631	-4.146671e-06	-6.238674e-06
	-3.689376e-06	-1.04205e-05	0.0391652	0.03609461	1.932636e-05	-2.460875e-05	0.08218387	-0.01202579
	0.08240867	-0.01296631	1.932636e-05	-2.460875e-05	0.03913381	0.03719471	-2.346835e-06	-1.061378e-05
	-4.146671e-06	-6.238674e-06	0.08218387	-0.01202579	-2.346835e-06	-1.061378e-05	0.04000986	0.0365748
3.9e+08	0.05120611	0.0349139	-5.040098e-06	-8.729884e-06	0.07867459	-0.0260005	-5.002353e-06	-4.998379e-06
	-5.040098e-06	-8.729884e-06	0.05189516	0.0343038	1.648546e-05	-2.544046e-05	0.07822557	-0.0249586
	0.07867459	-0.0260005	1.648546e-05	-2.544046e-05	0.05180631	0.03549368	-3.657254e-06	-9.125631e-06
	-5.002353e-06	-4.998379e-06	0.07822557	-0.0249586	-3.657254e-06	-9.125631e-06	0.05273056	0.03462327
4e+08	0.06354836	0.03030851	-6.057507e-06	-6.779399e-06	0.07209496	-0.03800824	-5.602112e-06	-3.610752e-06
	-6.057507e-06	-6.779399e-06	0.06422774	0.02950312	1.335766e-05	-2.5598e-05	0.07143146	-0.03681174
	0.07209496	-0.03800824	1.335766e-05	-2.5598e-05	0.06409906	0.03080321	-4.688986e-06	-7.376233e-06
	-5.602112e-06	-3.610752e-06	0.07143146	-0.03681174	-4.688986e-06	-7.376233e-06	0.06501567	0.02966255
4.1e+08	0.0748251	0.02278769	-6.691026e-06	-4.647139e-06	0.06295359	-0.04837536	-5.92351e-06	-2.132487e-06
	-6.691026e-06	-4.647139e-06	0.07544931	0.02178323	1.01176e-05	-2.503649e-05	0.06209793	-0.04697304
	0.06295359	-0.04837536	1.01176e-05	-2.503649e-05	0.07530479	0.0232091	-5.387726e-06	-5.431096e-06
	-5.92351e-06	-2.132487e-06	0.06209793	-0.04697304	-5.387726e-06	-5.431096e-06	0.07615125	0.02179221
4.2e+08	0.08434435	0.01260397	-6.909134e-06	-2.418296e-06	0.05166384	-0.0565661	-5.956307e-06	-6.21438e-07
	-6.909134e-06	-2.418296e-06	0.08486529	0.01140767	6.943474e-06	-2.375057e-05	0.05065047	-0.05491182
	0.05166384	-0.0565661	6.943474e-06	-2.375057e-05	0.08473452	0.01296794	-5.71548e-06	-3.364379e-06
	-5.956307e-06	-6.21438e-07	0.05065047	-0.05491182	-5.71548e-06	-3.364379e-06	0.08544493	0.01128474
4.3e+08	0.09147554	0.0001769689	-6.699315e-06	-1.807205e-07	0.03874678	-0.06214853	-5.70143e-06	8.6568e-07
	-6.699315e-06	-1.807205e-07	0.09184515	-0.001191764	4.008433e-06	-2.177377e-05	0.03762104	-0.06020411
	0.03874678	-0.06214853	4.008433e-06	-2.177377e-05	0.0917612	0.0005021436	-5.65102e-06	-1.255014e-06
	-5.70143e-06	8.6568e-07	0.03762104	-0.06020411	-5.65102e-06	-1.255014e-06	0.09227044	-0.001420045
4.4e+08	0.09568918	-0.0139218	-6.06711e-06	1.97905e-06	0.02480618	-0.06481489	-5.169706e-06	2.274887e-06
	-6.06711e-06	1.97905e-06	0.09586264	-0.01543073	1.473279e-06	-1.917641e-05	0.02362234	-0.06255272
	0.02480618	-0.06481489	1.473279e-06	-1.917641e-05	0.09585876	-0.01361404	-5.189512e-06	8.167529e-07
	-5.169706e-06	2.274887e-06	0.02362234	-0.06255272	-5.189512e-06	8.167529e-07	0.09610717	-0.01573025
4.5e+08	0.0965938	-0.02899242	-5.034297e-06	3.978998e-06	0.01049898	-0.06439616	-4.380562e-06	3.556048e-06
	-5.034297e-06	3.978998e-06	0.09653309	-0.03059679	-5.204082e-07	-1.60623e-05	0.009317592	-0.06180122
	0.01049898	-0.06439616	-5.204082e-07	-1.60623e-05	0.09663981	-0.02867899	-4.341508e-06	2.772341e-06
	-4.380562e-06	3.556048e-06	0.009317592	-0.06180122	-4.341508e-06	2.772341e-06	0.0965781	-0.03092749
4.6e+08	0.09396789	-0.04424155	-3.636833e-06	5.743839e-06	-0.003495539	-0.06086912	-3.360954e-06	4.663518e-06
	-3.636833e-06	5.743839e-06	0.09364551	-0.04588534	-1.856764e-06	-1.256413e-05	-0.004610607	-0.05794039
	-0.003495539	-0.06086912	-1.856764e-06	-1.256413e-05	0.09388725	-0.04389854	-3.131689e-06	4.537021e-06
	-3.360954e-06	4.663518e-06	-0.004610607	-0.05794039	-3.131689e-06	4.537021e-06	0.09348139	-0.04620333
4.7e+08	0.08778405	-0.05882476	-1.923008e-06	7.206642e-06	-0.01650744	-0.05435777	-2.14461e-06	5.556551e-06
	-1.923008e-06	7.206642e-06	0.08718647	-0.06044332	-2.451192e-06	-8.838131e-06	-0.0174924	-0.05110877
	-0.01650744	-0.05435777	-2.451192e-06	-8.838131e-06	0.08757731	-0.05842684	-1.597573e-06	6.041641e-06
	-2.14461e-06	5.556551e-06	-0.0174924	-0.05110877	-1.597573e-06	6.041641e-06	0.08681276	-0.06070153
4.8e+08	0.07821832	-0.07189301	4.844403e-08	8.309743e-06	-0.02790622	-0.04512793	-7.716117e-07	6.199698e-06
	4.844403e-08	8.309743e-06	0.07734886	-0.07341665	-2.254503e-06	-5.057549e-06	-0.02870059	-0.04158649
