!$
! Info: Touchstone file created by Circ.  Input file=Intel_C2M_200G_9p5in_202208016_staggered.circ
!$
# Hz S RI R 50
0	0.0304961	4.74128e-24	9.199235e-05	1.374866e-22	0.0001341447	3.280029e-22	9.192837e-05	1.372578e-22
	9.199235e-05	1.374866e-22	0.0305089	4.905086e-24	9.197612e-05	1.373994e-22	0.0001337689	3.252157e-22
	0.0001342009	3.281267e-22	9.197611e-05	1.37401e-22	0.03049106	4.51394e-24	9.194168e-05	1.371747e-22
	9.192836e-05	1.372594e-22	0.0001338251	3.253397e-22	9.194168e-05	1.371747e-22	0.0305069	4.640382e-24
1e+07	0.03760815	0.01003659	8.726008e-05	7.948403e-06	0.002157482	0.007322043	1.303517e-05	6.553915e-05
	8.726008e-05	7.948403e-06	0.0374647	0.01015192	8.291505e-05	5.329736e-05	0.00258406	0.007410849
	0.002157482	0.007322043	8.291505e-05	5.329736e-05	0.03832049	0.009825229	4.766766e-05	3.591672e-05
	1.303517e-05	6.553915e-05	0.00258406	0.007410849	4.766766e-05	3.591672e-05	0.03715604	0.009957104
2e+07	0.0453695	0.01375567	6.789386e-05	2.065961e-05	0.005498445	0.01337002	5.646918e-05	6.680877e-05
	6.789386e-05	2.065961e-05	0.04540305	0.01398451	0.0001031017	3.427456e-05	0.005889569	0.0133728
	0.005498452	0.01337	0.0001031017	3.427456e-05	0.04567322	0.013204	5.068833e-05	1.264576e-05
	5.646918e-05	6.680877e-05	0.005889577	0.01337278	5.068833e-05	1.264576e-05	0.04491402	0.0138195
3e+07	0.05188522	0.0140518	6.10789e-05	3.018501e-05	0.01036	0.01828413	8.898717e-05	5.613216e-05
	6.10789e-05	3.018501e-05	0.05205724	0.01427714	0.0001186299	1.979034e-05	0.01071749	0.01826679
	0.01035998	0.01828417	0.0001186299	1.979034e-05	0.05187944	0.01348374	5.265318e-05	2.160015e-06
	8.898717e-05	5.613216e-05	0.01071748	0.01826683	5.265318e-05	2.160013e-06	0.0514493	0.01421871
4e+07	0.05724478	0.01259944	5.50926e-05	3.22604e-05	0.01641763	0.02157921	0.0001132965	3.811533e-05
	5.509259e-05	3.22604e-05	0.05753227	0.01277959	0.0001292613	2.293355e-06	0.01673684	0.02155465
	0.01641763	0.02157923	0.0001292613	2.293353e-06	0.05700642	0.01211226	5.284095e-05	-6.858923e-06
	0.0001132965	3.811533e-05	0.01673684	0.02155468	5.284095e-05	-6.858923e-06	0.05686001	0.01285166
5e+07	0.06158942	0.01009023	4.873901e-05	3.133879e-05	0.02319046	0.02304203	0.0001303081	1.527217e-05
	4.873901e-05	3.133879e-05	0.06197351	0.01019698	0.0001366982	-2.140193e-05	0.02346466	0.02301811
	0.02319047	0.02304204	0.0001366982	-2.140193e-05	0.0611823	0.009736795	5.176238e-05	-1.658981e-05
	0.0001303081	1.527217e-05	0.02346467	0.02301811	5.176238e-05	-1.658981e-05	0.06127916	0.01040874
6e+07	0.06499733	0.006911422	4.149073e-05	2.93871e-05	0.03017236	0.02254671	0.0001400398	-1.069102e-05
	4.149074e-05	2.93871e-05	0.06545959	0.006921957	0.0001373364	-4.622407e-05	0.03039402	0.02253118
	0.03017236	0.02254669	0.0001373364	-4.622407e-05	0.06448062	0.006720476	4.829941e-05	-2.556867e-05
	0.0001400398	-1.069102e-05	0.03039402	0.02253116	4.829941e-05	-2.556867e-05	0.06478015	0.007272777
7e+07	0.06756254	0.003359756	4.420765e-05	1.772156e-05	0.03683617	0.02010067	0.0001421757	-3.82769e-05
	4.420765e-05	1.772156e-05	0.06808305	0.003254042	0.0001307584	-7.0778e-05	0.03699793	0.02010283
	0.03683617	0.02010066	0.0001307584	-7.0778e-05	0.06699104	0.003342663	4.268394e-05	-3.32259e-05
	0.0001421757	-3.82769e-05	0.03699793	0.02010283	4.268394e-05	-3.32259e-05	0.06745089	0.003735515
8e+07	0.06942242	-0.0003543972	4.541849e-05	3.487549e-06	0.04267389	0.01584524	0.0001371629	-6.593462e-05
	4.541849e-05	3.487549e-06	0.06997792	-0.0005946804	0.0001179397	-9.333011e-05	0.04276909	0.01587639
	0.04267389	0.01584524	0.0001179397	-9.333011e-05	0.06884664	-0.0001989588	3.543105e-05	-3.914782e-05
	0.0001371629	-6.593462e-05	0.04276909	0.01587639	3.543105e-05	-3.914782e-05	0.06942146	3.729016e-06
9e+07	0.07073734	-0.004107937	4.208991e-05	-9.623893e-06	0.04722869	0.01004534	0.0001250798	-9.25827e-05
	4.208991e-05	-9.623892e-06	0.07129912	-0.004500204	9.951236e-05	-0.0001126978	0.04725263	0.01011916
	0.0472287	0.01004535	9.951236e-05	-0.0001126978	0.07020457	-0.003789952	2.701924e-05	-4.30278e-05
	0.0001250798	-9.25827e-05	0.04725264	0.01011916	2.701924e-05	-4.30278e-05	0.07084392	-0.003801329
1e+08	0.07172886	-0.007828786	3.341032e-05	-2.094042e-05	0.05012287	0.003067307	0.0001033029	-0.0001186644
	3.341032e-05	-2.094042e-05	0.07225194	-0.008398136	7.418968e-05	-0.000128583	0.05007426	0.003200816
	0.05012287	0.003067306	7.418968e-05	-0.000128583	0.07130195	-0.00735723	2.202006e-05	-4.192174e-05
	0.0001033029	-0.0001186644	0.05007426	0.003200815	2.202006e-05	-4.192174e-05	0.07193492	-0.007609909
1.1e+08	0.07239043	-0.01195865	2.26198e-05	-2.33283e-05	0.05105207	-0.00462373	7.340582e-05	-0.0001274178
	2.26198e-05	-2.33283e-05	0.07280023	-0.01265071	6.157687e-05	-0.0001224725	0.05093864	-0.004418007
	0.05105206	-0.004623731	6.157687e-05	-0.0001224725	0.07211134	-0.01151936	1.928357e-05	-3.817374e-05
	7.340582e-05	-0.0001274178	0.05093863	-0.004418008	1.928357e-05	-3.817374e-05	0.07265155	-0.01192937
1.2e+08	0.07248959	-0.01615091	1.547137e-05	-2.393555e-05	0.04990173	-0.01244679	5.3301e-05	-0.0001283364
	1.547137e-05	-2.393555e-05	0.07279006	-0.01693088	5.127926e-05	-0.0001162947	0.04972591	-0.01215814
	0.04990173	-0.01244679	5.127926e-05	-0.0001162947	0.07226393	-0.01572974	1.627664e-05	-3.57222e-05
	5.3301e-05	-0.0001283364	0.04972591	-0.01215814	1.627664e-05	-3.57222e-05	0.07272485	-0.01626193
1.3e+08	0.07215848	-0.02039687	9.465459e-06	-2.465515e-05	0.04668515	-0.01988113	4.480627e-05	-0.0001241506
	9.465459e-06	-2.465515e-05	0.07234482	-0.021243	4.104307e-05	-0.0001104536	0.04645203	-0.0194969
	0.04668515	-0.01988113	4.104307e-05	-0.0001104536	0.07196595	-0.01997975	1.29902e-05	-3.399736e-05
	4.480627e-05	-0.0001241506	0.04645203	-0.0194969	1.29902e-05	-3.399736e-05	0.07234373	-0.02061594
1.4e+08	0.07140039	-0.02472562	4.171079e-06	-2.526498e-05	0.04154254	-0.0264099	3.554934e-05	-0.0001202223
	4.171079e-06	-2.526498e-05	0.07146791	-0.02561765	3.115404e-05	-0.0001045722	0.04126021	-0.02591733
	0.04154254	-0.0264099	3.115404e-05	-0.0001045722	0.07123147	-0.02431419	9.856329e-06	-3.229221e-05
	3.554934e-05	-0.0001202223	0.0412602	-0.02591733	9.856329e-06	-3.229221e-05	0.07151954	-0.02503863
1.5e+08	0.0701686	-0.0291545	-7.80694e-07	-2.52043e-05	0.03473808	-0.03156007	2.58173e-05	-0.0001160925
	-7.806941e-07	-2.52043e-05	0.07011426	-0.03007204	2.170082e-05	-9.848579e-05	0.03441791	-0.03094726
	0.03473808	-0.03156007	2.170082e-05	-9.848579e-05	0.07000961	-0.02875315	6.839894e-06	-3.058948e-05
	2.581731e-05	-0.0001160925	0.03441791	-0.03094726	6.839894e-06	-3.058948e-05	0.07020094	-0.02955012
1.6e+08	0.06838284	-0.0336722	-5.504399e-06	-2.457335e-05	0.02664731	-0.03493342	1.580084e-05	-0.0001114448
	-5.504399e-06	-2.457335e-05	0.06820605	-0.03459465	1.270604e-05	-9.20826e-05	0.02630394	-0.03419028
	0.02664731	-0.03493342	1.270604e-05	-9.20826e-05	0.06821637	-0.03328124	3.893666e-06	-2.885301e-05
	1.580084e-05	-0.0001114448	0.02630394	-0.03419028	3.893666e-06	-2.885301e-05	0.06830463	-0.03413415
1.7e+08	0.06594395	-0.03822791	-1.008035e-05	-2.339293e-05	0.01773646	-0.03623234	5.674455e-06	-0.0001060309
	-1.008035e-05	-2.339293e-05	0.06564687	-0.03913408	3.900955e-06	-8.545986e-05	0.01738759	-0.03535161
	0.01773646	-0.03623234	3.900955e-06	-8.545986e-05	0.06575245	-0.03784029	8.986797e-07	-2.706663e-05
	5.674455e-06	-0.0001060309	0.01738759	-0.03535161	8.986797e-07	-2.706663e-05	0.06573285	-0.03873154
1.8e+08	0.0627501	-0.04272406	-1.454423e-05	-2.163323e-05	0.008536091	-0.03528003	-4.368252e-06	-9.964848e-05
	-1.454423e-05	-2.163323e-05	0.06233826	-0.04359295	-4.67046e-06	-7.829008e-05	0.008201982	-0.03425824
	0.008536091	-0.03528003	-4.67046e-06	-7.829008e-05	0.0625197	-0.04232587	-2.24567e-06	-2.514751e-05
	-4.368252e-06	-9.964848e-05	0.008201982	-0.03425824	-2.24567e-06	-2.514751e-05	0.06238939	-0.04323613
1.9e+08	0.05871425	-0.04701382	-1.888053e-05	-1.923632e-05	-0.0003894636	-0.03203388	-1.409961e-05	-9.214568e-05
	-1.888053e-05	-1.923632e-05	0.05819669	-0.0478249	-1.266951e-05	-7.028217e-05	-0.0006869438	-0.03087232
	-0.0003894635	-0.03203388	-1.266951e-05	-7.028217e-05	0.05843727	-0.04658618	-5.386147e-06	-2.288548e-05
	-1.409961e-05	-9.214568e-05	-0.0006869437	-0.03087232	-5.386147e-06	-2.288548e-05	0.05819632	-0.04749481
2e+08	0.05378287	-0.05090427	-2.302712e-05	-1.613183e-05	-0.008475669	-0.02659063	-2.325871e-05	-8.342352e-05
	-2.302712e-05	-1.613183e-05	0.05317248	-0.05163811	-1.992219e-05	-6.1408e-05	-0.008714128	-0.02529589
	-0.008475669	-0.02659063	-1.992219e-05	-6.1408e-05	0.05345877	-0.05042674	-8.460688e-06	-2.021134e-05
	-2.325871e-05	-8.342352e-05	-0.008714128	-0.02529589	-8.460688e-06	-2.021134e-05	0.05311081	-0.05131222
2.1e+08	0.04795356	-0.05416684	-2.687318e-05	-1.225639e-05	-0.01519129	-0.01918368	-3.155457e-05	-7.344626e-05
	-2.687318e-05	-1.225639e-05	0.04726707	-0.05480585	-2.623509e-05	-5.167454e-05	-0.01534929	-0.01776808
	-0.01519129	-0.01918368	-2.623509e-05	-5.167454e-05	0.04758906	-0.05361902	-1.138174e-05	-1.706867e-05
	-3.155457e-05	-7.344626e-05	-0.01534929	-0.01776808	-1.138174e-05	-1.706867e-05	0.04714197	-0.05445953
2.2e+08	0.04128786	-0.05655156	-3.026397e-05	-7.574905e-06	-0.02007109	-0.01017231	-3.867719e-05	-6.225246e-05
	-3.026397e-05	-7.574905e-06	0.04054582	-0.05708086	-3.140067e-05	-4.114425e-05	-0.02012966	-0.008653797
	-0.02007109	-0.01017231	-3.140067e-05	-4.114425e-05	0.04089653	-0.05591624	-1.403849e-05	-1.342231e-05
	-3.867719e-05	-6.225246e-05	-0.02012966	-0.008653796	-1.403849e-05	-1.342231e-05	0.04036286	-0.05669062
2.3e+08	0.03392098	-0.05780726	-3.265087e-05	-2.432746e-06	-0.02274545	-2.329894e-05	-4.432427e-05	-4.986829e-05
	-3.265087e-05	-2.432746e-06	0.03314745	-0.05821562	-3.522276e-05	-2.984281e-05	-0.02268961	0.001575001
	-0.02274545	-2.329854e-05	-3.522276e-05	-2.984281e-05	0.03352113	-0.0570719	-1.630268e-05	-9.271688e-06
	-4.432427e-05	-4.986829e-05	-0.02268961	0.001575001	-1.630268e-05	-9.271688e-06	0.03291842	-0.05776082
2.4e+08	0.02606455	-0.05770352	-3.437209e-05	3.514664e-06	-0.02296407	0.0107142	-4.814678e-05	-3.658791e-05
	-3.437209e-05	3.514664e-06	0.0252865	-0.05798431	-3.745622e-05	-1.80396e-05	-0.02278434	0.01236497
	-0.02296407	0.0107142	-3.745622e-05	-1.80396e-05	0.02567834	-0.05686102	-1.803797e-05	-4.640031e-06
	-4.814678e-05	-3.658791e-05	-0.02278434	0.01236497	-1.803797e-05	-4.640031e-06	0.02502902	-0.05744827
2.5e+08	0.01800315	-0.05605364	-3.519774e-05	1.020627e-05	-0.02061404	0.02143936	-4.988918e-05	-2.271178e-05
	-3.519774e-05	1.020627e-05	0.01724968	-0.05620576	-3.794322e-05	-5.986219e-06	-0.02030758	0.02311243
	-0.02061404	0.02143936	-3.794322e-05	-5.986219e-06	0.0176541	-0.0551036	-1.910573e-05	4.051033e-07
	-4.988918e-05	-2.271178e-05	-0.02030758	0.02311244	-1.910573e-05	4.051033e-07	0.01698498	-0.05557745
2.6e+08	0.01008325	-0.05273703	-3.487977e-05	1.748022e-05	-0.01573018	0.03153415	-4.935813e-05	-8.602006e-06
	-3.487977e-05	1.748022e-05	0.009384302	-0.05276559	-3.657671e-05	6.026105e-06	-0.01530161	0.03319823
	-0.01573018	0.03153415	-3.657671e-05	6.026105e-06	0.009795126	-0.05168526	-1.93787e-05	5.758333e-06
	-4.935813e-05	-8.602006e-06	-0.01530161	0.03319823	-1.93787e-05	5.758333e-06	0.009136539	-0.05203984
2.7e+08	0.002696424	-0.04771794	-3.320695e-05	2.510877e-05	-0.008495499	0.04039906	-4.643616e-05	5.326526e-06
	-3.320695e-05	2.510877e-05	0.002081486	-0.04763474	-3.330877e-05	1.767315e-05	-0.007957334	0.04202363
	-0.008495499	0.04039906	-3.330877e-05	1.767315e-05	0.002491257	-0.04657663	-1.875016e-05	1.128002e-05
	-4.643616e-05	5.326526e-06	-0.007957334	0.04202363	-1.875016e-05	1.128002e-05	0.0018757	-0.04681295
2.8e+08	-0.003742709	-0.04106026	-3.001993e-05	3.280545e-05	0.0007655719	0.04748944	-4.109374e-05	1.862203e-05
	-3.001993e-05	3.280545e-05	-0.004246297	-0.04088378	-2.81583e-05	2.861179e-05	0.001393195	0.04904674
	0.0007655719	0.04748944	-2.81583e-05	2.861179e-05	-0.003846483	-0.03984727	-1.714287e-05	1.679934e-05
	-4.109374e-05	1.862203e-05	0.001393195	0.04904674	-1.714287e-05	1.679934e-05	-0.004385958	-0.03997405
2.9e+08	-0.008823936	-0.03293498	-2.522322e-05	4.024067e-05	0.01160362	0.05234833	-3.339736e-05	3.081694e-05
	-2.522322e-05	4.024067e-05	-0.009192559	-0.03269016	-2.121563e-05	3.849304e-05	0.01229355	0.05381537
	0.01160362	0.05234833	-2.121563e-05	3.849304e-05	-0.008812008	-0.03167269	-1.451518e-05	2.212414e-05
	-3.339736e-05	3.081694e-05	0.01229355	0.05381537	-1.451518e-05	2.212414e-05	-0.009243736	-0.03170664
3e+08	-0.01216973	-0.02362119	-1.879236e-05	4.705653e-05	0.02346841	0.05463462	-2.351059e-05	4.144915e-05
	-1.879236e-05	4.705653e-05	-0.01238508	-0.02333848	-1.264342e-05	4.697923e-05	0.02418769	0.05599477
	0.02346841	0.05463462	-1.264342e-05	4.697923e-05	-0.01203349	-0.02233524	-1.086558e-05	2.704802e-05
	-2.351059e-05	4.144915e-05	0.02418769	0.05599477	-1.086558e-05	2.704802e-05	-0.01232915	-0.02230089
3.1e+08	-0.01346448	-0.01349837	-1.078406e-05	5.287692e-05	0.03573919	0.05414526	-1.169408e-05	5.008178e-05
	-1.078406e-05	5.287692e-05	-0.01351489	-0.01321266	-2.670148e-06	5.376007e-05	0.03645062	0.05538982
	0.03573919	0.05414526	-2.670148e-06	5.376007e-05	-0.01320104	-0.01221658	-6.236066e-06	3.135829e-05
	-1.169408e-05	5.008178e-05	0.03645062	0.05538982	-6.236066e-06	3.135829e-05	-0.01333761	-0.01214559
3.2e+08	-0.01248087	-0.003031771	-1.333057e-06	5.73279e-05	0.04775964	0.05082864	1.699916e-06	5.632181e-05
	-1.333057e-06	5.73279e-05	-0.01236237	-0.00278082	8.40908e-06	5.856268e-05	0.0484237	0.05195776
	0.04775964	0.05082865	8.40908e-06	5.856268e-05	-0.01209474	-0.001782664	-7.103953e-07	3.484569e-05
	1.699916e-06	5.632181e-05	0.0484237	0.05195776	-7.103953e-07	3.484569e-05	-0.01205626	-0.001712658
3.3e+08	-0.009103529	0.007250135	9.340227e-06	6.004898e-05	0.05887497	0.04478894	1.623747e-05	5.983887e-05
	9.340227e-06	6.004898e-05	-0.008820487	0.007427364	2.024743e-05	6.116679e-05	0.0594519	0.04581217
	0.05887497	0.04478894	2.024743e-05	6.116679e-05	-0.008605395	0.00843901	5.582255e-06	3.73105e-05
	1.623747e-05	5.983887e-05	0.0594519	0.04581217	5.582255e-06	3.73105e-05	-0.008384491	0.008466037
3.4e+08	-0.003345807	0.01678326	2.093284e-05	6.071077e-05	0.06846961	0.03628203	3.140964e-05	6.038064e-05
	2.093284e-05	6.071077e-05	-0.002911224	0.01684848	3.244923e-05	6.141238e-05	0.06892164	0.0372184
	0.06846961	0.03628203	3.244923e-05	6.141238e-05	-0.002753019	0.01788735	1.247286e-05	3.857137e-05
	3.140964e-05	6.038064e-05	0.06892164	0.0372184	1.247286e-05	3.857137e-05	-0.002351981	0.01782696
3.5e+08	0.004640594	0.02500106	3.305652e-05	5.903226e-05	0.07600131	0.02570148	4.66541e-05	5.778705e-05
	3.305652e-05	5.903226e-05	0.005205248	0.02491847	4.458525e-05	5.921034e-05	0.07629486	0.02657905
	0.07600131	0.02570148	4.458525e-05	5.921034e-05	0.005305532	0.02599943	1.97504e-05	3.847133e-05
	4.66541e-05	5.778705e-05	0.07629486	0.02657905	1.97504e-05	3.847133e-05	0.005873986	0.02580692
3.6e+08	0.01456451	0.03136875	4.524971e-05	5.4797e-05	0.08103193	0.01355767	6.136095e-05	5.200361e-05
	4.524971e-05	5.4797e-05	0.01522971	0.03110685	5.620648e-05	5.454473e-05	0.08113981	0.01441258
	0.08103193	0.01355767	5.620648e-05	5.454473e-05	0.01527397	0.03224607	2.7165e-05	3.688722e-05
	6.136095e-05	5.200361e-05	0.08113981	0.01441258	2.7165e-05	3.688722e-05	0.01598655	0.0318788
3.7e+08	0.02600243	0.03541903	5.697668e-05	4.788136e-05	0.08325163	0.0004493032	7.489647e-05	4.309274e-05
	5.697668e-05	4.788136e-05	0.0267314	0.03495225	6.684715e-05	4.748256e-05	0.08315481	0.001324333
	0.08325163	0.0004493032	6.684715e-05	4.748256e-05	0.02672566	0.03616628	3.44355e-05	3.373513e-05
	7.489647e-05	4.309274e-05	0.08315481	0.001324333	3.44355e-05	3.373513e-05	0.02754863	0.03558611
3.8e+08	0.03841536	0.03678428	6.76505e-05	3.82645e-05	0.08249454	-0.01296845	8.66237e-05	3.124223e-05
	6.76505e-05	3.82645e-05	0.0391652	0.03609461	7.604765e-05	3.817252e-05	0.08218387	-0.01202579
	0.08249454	-0.01296845	7.604765e-05	3.817252e-05	0.03911991	0.03739904	4.124696e-05	2.898378e-05
	8.66237e-05	3.124223e-05	0.08218387	-0.01202579	4.124696e-05	2.898378e-05	0.04000986	0.0365748
3.9e+08	0.05117223	0.0352254	7.664784e-05	2.605719e-05	0.07874827	-0.02601894	9.592736e-05	1.676655e-05
	7.664784e-05	2.605719e-05	0.05189516	0.0343038	8.336274e-05	2.684929e-05	0.07822557	-0.0249586
	0.07874827	-0.02601894	8.336274e-05	2.684929e-05	0.05182544	0.03571336	4.726465e-05	2.265601e-05
	9.592736e-05	1.676655e-05	0.07822557	-0.0249586	4.726465e-05	2.265601e-05	0.05273056	0.03462327
4e+08	0.0635826	0.03065535	8.333775e-05	1.15159e-05	0.07215267	-0.03803969	0.0001022353	1.18228e-07
	8.333775e-05	1.15159e-05	0.06422774	0.02950312	8.837549e-05	1.383529e-05	0.07143146	-0.03681174
	0.07215267	-0.03803969	8.837549e-05	1.383529e-05	0.06415372	0.03102856	5.213681e-05	1.484753e-05
	0.0001022353	1.18228e-07	0.07143146	-0.03681174	5.213681e-05	1.484753e-05	0.06501567	0.02966255
4.1e+08	0.07493392	0.02315341	8.711806e-05	-4.951635e-06	0.06299249	-0.04841565	0.0001050507	-1.812904e-05
	8.711806e-05	-4.951635e-06	0.07544931	0.02178323	9.071463e-05	-4.62835e-07	0.06209793	-0.04697304
	0.06299249	-0.04841565	9.071463e-05	-4.62835e-07	0.07539482	0.02343057	5.551183e-05	5.724326e-06
	0.0001050507	-1.812904e-05	0.06209793	-0.04697304	5.551183e-05	5.724326e-06	0.07615125	0.02179221
4.2e+08	0.08453022	0.01297091	8.744989e-05	-2.27773e-05	0.05168214	-0.05661051	0.0001039819	-3.727596e-05
	8.744989e-05	-2.27773e-05	0.08486529	0.01140767	9.007325e-05	-1.555734e-05	0.05065047	-0.05491182
	0.05168214	-0.05661051	9.007325e-05	-1.555734e-05	0.08485723	0.01317668	5.704956e-05	-4.461085e-06
	0.0001039819	-3.727596e-05	0.05065047	-0.05491182	5.704956e-05	-4.461085e-06	0.08544493	0.01128474
4.3e+08	0.09173673	0.0005272418	8.390335e-05	-4.124307e-05	0.03874392	-0.06219201	9.877036e-05	-5.652368e-05
	8.390335e-05	-4.124307e-05	0.09184515	-0.001191764	8.621747e-05	-3.088227e-05	0.03762104	-0.06020411
	0.03874392	-0.06219201	8.621747e-05	-3.088227e-05	0.09191182	0.0006906809	5.644359e-05	-1.536979e-05
	9.877036e-05	-5.652368e-05	0.03762104	-0.06020411	5.644359e-05	-1.536979e-05	0.09227044	-0.001420045
4.4e+08	0.09601977	-0.01360537	7.620164e-05	-5.949966e-05	0.02478278	-0.06485245	8.931791e-05	-7.49983e-05
	7.620164e-05	-5.949966e-05	0.09586264	-0.01543073	7.901508e-05	-4.580482e-05	0.02362234	-0.06255272
	0.02478278	-0.06485245	7.901508e-05	-4.580482e-05	0.09603091	-0.01345139	5.344169e-05	-2.657401e-05
	8.931791e-05	-7.49983e-05	0.02362234	-0.06255272	5.344169e-05	-2.657401e-05	0.09610717	-0.01573025
4.5e+08	0.09698393	-0.02872523	6.425438e-05	-7.66004e-05	0.01045683	-0.06442302	7.571572e-05	-9.177357e-05
	6.425438e-05	-7.66004e-05	0.09653309	-0.03059679	6.845231e-05	-5.963686e-05	0.009317592	-0.06180122
	0.01045683	-0.06442302	6.845231e-05	-5.963686e-05	0.09682611	-0.02854582	4.786952e-05	-3.756716e-05
	7.571572e-05	-9.177357e-05	0.009317592	-0.06180122	4.786952e-05	-3.756716e-05	0.0965781	-0.03092749
4.6e+08	0.09440427	-0.04403636	4.819609e-05	-9.154231e-05	-0.003553576	-0.06088107	5.825941e-05	-0.0001059194
	4.819609e-05	-9.154231e-05	0.09364551	-0.04588534	5.464749e-05	-7.165695e-05	-0.004610607	-0.05794039
	-0.003553576	-0.06088107	5.464749e-05	-7.165695e-05	0.09407994	-0.04379625	3.966218e-05	-4.776945e-05
	5.825941e-05	-0.0001059194	-0.004610607	-0.05794039	3.966218e-05	-4.776945e-05	0.09348139	-0.04620333
4.7e+08	0.0882506	-0.05869087	2.840586e-05	-0.0001033242	-0.01657764	-0.05435136	3.745678e-05	-0.0001165514
	2.840586e-05	-0.0001033242	0.08718647	-0.06044332	3.787985e-05	-8.11273e-05	-0.0174924	-0.05110877
	-0.01657764	-0.05435136	3.787985e-05	-8.11273e-05	0.0877688	-0.05835467	2.888648e-05	-5.655177e-05
	3.745678e-05	-0.0001165514	-0.0174924	-0.05110877	2.888648e-05	-5.655177e-05	0.08681276	-0.06070153
4.8e+08	0.0786972	-0.07183569	5.519716e-06	-0.0001110064	-0.0279841	-0.04510063	1.403472e-05	-0.000122874
	5.519716e-06	-0.0001110064	0.07734886	-0.07341665	1.859773e-05	-8.73379e-05	-0.02870059	-0.04158649
	-0.0279841	-0.04510063	1.859773e-05	-8.73379e-05	0.07807524	-0.07137041	1.576079e-05	-6.327198e-05
