!!!!!!!!!!!!!!!!!!!!!!!!!!!!!!!!!!!!!!!!!!!!!!!!!!!!!!!!!!!!!!!!!!!!!!!!!!!!!!!!!!!!!!!!!
!!
!! Reference: shanbhag_3dj_01_2305.pdf
!!
!!!!!!!!!!!!!!!!!!!!!!!!!!!!!!!!!!!!!!!!!!!!!!!!!!!!!!!!!!!!!!!!!!!!!!!!!!!!!!!!!!!!!!!!!
!!
!! CHANNEL DESCRIPTION: TP0_TP5 CR Channel using 1meter DAC, Cabled Host
!! MODEL DESCRIPTION: s4p, FEXT1
!! CONNECTOR DESCRIPTION: OSFP 200G OTB
!! CABLE DESCRIPTION: 1meter 26AWG Cable
!! MODEL STATUS: Developmental
!!
!! PORT DEFINITIONS: 
!! Port   1    ----->  Side A	      Side B  <-----  Port   2
!! Port   3    ----->  Side A	      Side B  <-----  Port   4
!!
# HZ S MA R 50.000000 


0.	0.0520428396000001	3.20311533999999	0.000684681796	173.248509	0.0237708102	30.0306191	0.000226932682	172.613216	
	0.000684681483	173.248512	0.0556912844	2.63961078	0.000624470338	173.150418	0.0236443748	30.3610349	
	0.0237694666	30.0311341	0.000624445505	173.150414	0.0572375987999999	2.07845046	0.000381245841	172.589001	
	0.000226938845	172.613211	0.0236437679	30.3638304	0.000381273681	172.588989	0.0532273298000001	2.7584609	
	
10000000.	0.0734060772000001	7.85098641999999	0.000817446305	146.466688	0.0595289446	39.112427	0.000325030715	148.772065	
	0.000817446251	146.466649	0.0766472891000001	7.45631071999999	0.000756016206	146.835727	0.0594392857	39.5535075	
	0.0595288932	39.1119869	0.000756017292	146.835668	0.0795261889	6.80364334	0.000497947302	144.243451	
	0.000325033333	148.771947	0.0594394398	39.5547381	0.000497948402	144.243407	0.0741909935	7.46039502	
	
20000000.	0.0940590579	-7.56197236	0.000904140609	114.416442	0.0955933124	15.9033791	0.000402700402	119.212601	
	0.000904140356	114.416418	0.0987254229	-7.28381152	0.000854678549	115.80319	0.0959720093	16.5767681	
	0.0955929387	15.9031041	0.000854678809	115.803173	0.101182494	-8.15515946	0.000569660143	112.5627	
	0.000402702624	119.212573	0.0959728295	16.5775569	0.000569661889	112.56294	0.0954708449000001	-7.40885430999999	
	
30000000.	0.101983337	-28.0243817	0.000976529479	85.2748961	0.100351127	-11.5512789	0.000477251532	93.1625673	
	0.000976529326	85.2748774	0.108161404	-27.3737105	0.000945188707	87.7999213	0.101807198	-10.6766826	
	0.100350792	-11.5513395	0.000945189384	87.7998654	0.110414932	-28.3140182	0.000629244799	86.1280022	
	0.00047725246	93.1622912	0.101808215	-10.6764681	0.00062924536	86.1279191	0.104284694	-27.5171066	
	
40000000.	0.0970083447	-49.1741615	0.00108124062	57.9528147	0.0713102461	-37.0020054	0.000584596128	67.877818	
	0.00108124038	57.9527817	0.103549867	-48.4146649	0.00107524454	61.2770502	0.0741432362	-36.2616428	
	0.0713099675	-37.0019116	0.00107524412	61.277037	0.106682536	-49.3749829	0.000733543775	62.187025	
	0.000584595836	67.8775968	0.0741441862	-36.2618003	0.000733543565	62.1869774	0.0994416161	-48.4780508	
	
50000000.	0.0811376852	-68.6320369999999	0.00124059652	29.481312	0.0213820735	-28.2637365	0.000733116561	39.2402441	
	0.0012405959	29.4812755	0.0860876058	-67.7766815	0.0012645444	33.1713217	0.0238840719	-34.6444282	
	0.0213820819	-28.2628534	0.00126454421	33.1713274	0.0916475919	-69.2553254	0.000904047422	35.298448	
	0.000733115791	39.2401036	0.0238843208	-34.646452	0.000904047638	35.2984523	0.0822349567	-67.6254716999999	
	
60000000.	0.0594562006	-82.0620163	0.00141793403	-1.96535436	0.0561568755	49.5814877	0.000885257616	6.46198971	
	0.00141793287	-1.96538126	0.0612599581	-80.0076113000001	0.00147509912	1.95004117	0.0523690378	50.4547765	
	0.0561571033	49.5812555	0.00147509922	1.95004116	0.0698076366	-84.5039277000001	0.00109296204	3.57911362	
	0.00088525681	6.46190011	0.0523683985	50.4553533	0.00109296315	3.57912724	0.0581607545	-79.290018	
	
70000000.	0.0417584533	-81.6922020999999	0.00154687839	-35.4514286	0.109848237	27.4249466	0.000990278356	-28.1881879	
	0.00154687669	-35.4514379	0.0424071028	-73.9403066000001	0.00164177214	-31.2768329	0.107725588	29.5322663	
	0.109848292	27.4247915	0.00164177246	-31.2768383	0.0498265994	-89.1458028	0.00122899483	-30.7560305	
	0.000990277716	-28.1882483	0.107725414	29.5326779	0.00122899676	-30.7560292	0.0405326197	-72.0923099	
	
80000000.	0.0380558512	-70.3581835	0.00158933531	-68.8522241	0.136087007	-1.17637046	0.00102584822	-61.9927568	
	0.00158933293	-68.8522265	0.044129319	-58.5405956999999	0.00172834913	-64.5040882	0.137308321	1.3105288	
	0.13608692	-1.17647978	0.0017283497	-64.5040993	0.0414495057	-81.7445039999999	0.00127491431	-64.7544326	
	0.00102584727	-61.9927978	0.137308524	1.31083436	0.00127491671	-64.7544606	0.0430657419000001	-56.9279204999999	
	
90000000.	0.0437905453	-70.2781774	0.00155308764	-100.144932	0.125402648	-30.8998806	0.0010060083	-92.7698239	
	0.0015530869	-100.144895	0.0556858686	-62.1253164	0.00174101596	-96.1013135	0.131049274	-28.1532109	
	0.125402468	-30.89996	0.00174101656	-96.1013337	0.0446680545	-79.0168343999999	0.00124072124	-95.8800836	
	0.00100600737	-92.7699141	0.131049739	-28.1529836	0.00124072348	-95.8801559	0.0542469059	-61.168042	
	
100000000.	0.0472550994	-82.5170868000001	0.00148978099	-127.57567	0.0787843249	-60.0648599	0.000976745605	-118.898339	
	0.00148977948	-127.575612	0.0615285487	-78.19234	0.00171991158	-124.876127	0.0889247458	-57.4725716	
	0.078784111	-60.0649033	0.00171991172	-124.876157	0.0488270045	-88.8257379000001	0.00118431051	-121.866608	
	0.000976744603	-118.89839	0.0889253256	-57.4724347	0.00118431171	-121.866729	0.0593891128	-77.3691837	
	
110000000.	0.0430161122	-98.9497473000001	0.00149636366	-151.014993	0.00977835697	-48.7426662	0.0010145354	-141.182473	
	0.00149636294	-151.014923	0.0558905825	-98.1818180999999	0.00173998604	-150.618547	0.0208652541	-74.2181335	
	0.0097782385	-48.741756	0.00173998695	-150.618577	0.0466385279	-104.941564	0.00121447802	-142.990513	
	0.00101453688	-141.182473	0.0208657794	-74.2185062	0.00121448223	-142.990593	0.0532173757	-97.0698916	
	
120000000.	0.0324122183	-112.364317	0.00164087438	-174.750146	0.0710276774	45.2720415	0.00115458434	-165.046884	
	0.00164087436	-174.750087	0.040476362	-115.573919	0.00186475695	-175.940752	0.0579581982	48.6229297	
	0.0710277952	45.2719495	0.00186475856	-175.940805	0.0379069935	-121.17429	0.00139401639	-165.675973	
	0.00115458795	-165.046905	0.0579578166	48.6230323	0.0013940231	-165.676059	0.0376959977	-113.311475	
	
130000000.	0.0215776793	-113.351847	0.0018652338	157.365301	0.131048106	16.5852696	0.00133907842	166.352552	
	0.00186523408	157.36534	0.0233785586	-117.985001	0.00206470252	156.223264	0.121576517	20.9172224	
	0.131048104	16.5851755	0.00206470436	156.223187	0.0270040686	-132.168477	0.00164326142	165.989102	
	0.00133908356	166.352489	0.121576373	20.9173514	0.00164327041	165.989003	0.0215191974	-111.373623	
	
140000000.	0.0172886424	-101.233025	0.00205878302	125.933701	0.158375076	-13.6204603	0.00148911775	134.559131	
	0.00205878314	125.933724	0.0175990557	-91.9104382000001	0.00225258783	125.691245	0.15514648	-9.00841856	
	0.158374971	-13.6205539	0.00225258985	125.691154	0.0188662454999999	-136.003524	0.00184748062	133.81969	
	0.00148912366	134.559031	0.15514655	-9.00829077	0.00184749139	133.819573	0.0184481862	-82.9036713000001	
	
150000000.	0.0164885638	-101.873976	0.00214720945	93.0657108	0.146693209	-43.7496632	0.00156002401	101.8674	
	0.00214720911	93.0657302	0.0213764421	-85.7801864999998	0.00235806812	93.834852	0.151101402	-38.9332523	
	0.146693048	-43.749756	0.00235807052	93.8347458	0.0141439816999999	-144.777315	0.00194034462	100.526028	
	0.00156003004	101.86727	0.151101609	-38.9331225	0.00194035628	100.525884	0.0231662719	-81.0014400000002	
	
160000000.	0.0105915138000001	-122.502964000001	0.00209678215	60.9930509	0.0992027198	-72.7236034	0.00153494677	70.447919	
	0.00209678148	60.9930786	0.0196573758	-102.660567	0.00234179791	62.4615662	0.111099565	-68.0880141	
	0.0992025635	-72.7236954	0.00234180052	62.4614325	0.00982442685999997	172.634912	0.00189855107	68.5986909	
	0.00153495244	70.447756	0.111099811	-68.0878707	0.00189856252	68.598502	0.0212190981	-98.5395642	
	
170000000.	0.00475355539000002	79.009686199999	0.00194180587	32.8546664	0.0297811522	-88.0620471	0.00144764948	43.3138857	
	0.00194180539	32.8547095	0.00821075967000009	-133.744067000001	0.00222734543	34.1938843	0.0461700514	-90.900877	
	0.0297810476	-88.062112	0.0022273474	34.1937132	0.0142911635	85.8123039999998	0.00177082709	41.366854	
	0.0014476542	43.3136741	0.0461702644	-90.9006729	0.00177083684	41.3665903	0.00915642132999999	-124.044776	
	
180000000.	0.0242012502000001	27.2801865999999	0.00184806786	11.2532698	0.0482786184	23.0813749	0.00142932069	22.1990285	
	0.00184806808	11.2533159	0.0108526277000001	40.2792385999997	0.00216297911	11.0902934	0.0305858393	21.2377769	
	0.0482786321	23.0813436	0.00216297942	11.0901012	0.0301113472999999	37.4221580000001	0.00173540439	20.7834582	
	0.00142932348	22.1987728	0.0305858238	21.2375227	0.0017354106	20.7831284	0.0102236796000001	32.7893508999998	
	
190000000.	0.0434912533999999	-2.22497536000001	0.00201205782	-8.17934909	0.103847722	-0.700481927	0.0016092788	1.69431509	
	0.00201205845	-8.17932177	0.0300297294999999	7.22324016000002	0.00233245264	-10.093759	0.0887742482	4.66474562	
	0.103847673	-0.700537629	0.0023324514	-10.0939329	0.0460694593	4.41486529	0.00196523107	0.794280055	
	0.00160927927	1.69408305	0.0887742882	4.66471396	0.00196523343	0.793986587	0.0301242646000001	4.24437189999999	
	
200000000.	0.0558416835	-29.3172083	0.00240130185	-32.9854146	0.128536407	-30.0386495	0.00193987424	-24.4506605	
	0.00240130226	-32.9854008	0.0429940702	-20.0607123	0.00272494092	-35.3394888	0.119809073	-23.9232646	
	0.128536322	-30.0387025	0.00272493903	-35.3396357	0.0553047791	-23.8300723	0.0023889366	-25.4787676	
	0.00193987329	-24.4508315	0.119809162	-23.9232733	0.0023889369	-25.4789753	0.0437261737	-22.3468772	
	
210000000.	0.0559999231	-53.4447000000001	0.00282842325	-67.0492398	0.118540878	-58.9657346	0.00226821046	-59.2149575	
	0.0028284236	-67.0492259	0.0467893325	-43.5759942	0.00315254336	-68.8371477	0.117335749	-52.5374471	
	0.118540799	-58.9657884	0.00315254135	-68.8372809	0.0529672668	-47.404207	0.00280226557	-60.5926515	
	0.00226820929	-59.2150866	0.117335814	-52.5374308	0.00280226555	-60.5928028	0.0480757697000001	-45.9181784999999	
	
220000000.	0.0418984581	-72.4314731000001	0.00312560199	-104.421116	0.0788968094	-86.2886196	0.00249295504	-96.8101206	
	0.00312560238	-104.421102	0.0380788319	-61.7720014	0.00345674599	-105.677923	0.0844874991	-80.0494906	
	0.0788967526	-86.2886735	0.00345674386	-105.678047	0.0377540649000001	-62.4145925999999	0.00307118307	-98.5399588	
	0.00249295407	-96.8102249	0.0844875327	-80.0494443	0.0030711834	-98.5400771	0.0396989802	-65.2362570999999	
	
230000000.	0.0210105690000001	-56.8637957999998	0.00318877203	-142.148072	0.0245161035	-95.4945462	0.00253865751	-134.506065	
	0.00318877249	-142.148058	0.0220989862	-51.8991066000001	0.00350992997	-143.145032	0.0334567504	-97.0895927	
	0.024516075	-95.4945921	0.00350992774	-143.145146	0.0230639306	-33.1082979000001	0.00310634387	-136.412295	
	0.00253865671	-134.506157	0.0334567704	-97.0894573	0.00310634451	-136.4124	0.0224677895	-60.4982484000002	
	
240000000.	0.0383480874	-9.28386893	0.00304576638	-176.852975	0.03656221	2.56151007	0.00243435235	-169.03476	
	0.00304576687	-176.852963	0.0335958330000001	-7.77499239999999	0.00332391931	-177.763571	0.027046888	2.8268795	
	0.0365622034	2.56148264	0.00332391714	-177.763671	0.0476956709999999	-5.55462755000001	0.00295209329	-170.829658	
	0.00243435145	-169.034844	0.0270469469	2.82678563	0.00295209353	-170.829762	0.0302609737	-10.7725644	
	
250000000.	0.0734665748999999	-21.9367684	0.00291269908	153.854055	0.0719273907	-17.3904627	0.00235609785	161.604195	
	0.00291269954	153.854066	0.0649336180000001	-15.9279844	0.00312892561	153.403246	0.0652063089	-10.5691793	
	0.0719273697	-17.3904984	0.00312892369	153.403161	0.0828507015000001	-21.0426062	0.00283804837	160.37205	
	0.00235609661	161.604126	0.0652063515	-10.5692067	0.00283804741	160.371954	0.0611498575	-16.563187	
	
260000000.	0.100260446	-45.0571843	0.0030475885	127.459685	0.0797061233	-44.3993504	0.00249222113	134.457061	
	0.00304758896	127.459695	0.0910845599	-37.2341426	0.00324204979	128.389017	0.0785000961	-36.898616	
	0.0797060977	-44.3993847	0.00324204806	128.388946	0.108793165	-44.3356887	0.00301399362	133.958857	
	0.00249221972	134.457013	0.0785001243	-36.8986197	0.00301399159	133.958791	0.0874817094	-37.6293468	
	
270000000.	0.110281482	-70.1070425	0.00347637066	97.9891999	0.0594076637	-69.9309232	0.00284126708	104.036235	
	0.00347637117	97.989208	0.102888804	-61.0224785	0.00373833804	100.373236	0.0633380272	-62.8445288	
	0.0594076422	-69.9309542	0.00373833634	100.373177	0.117597757	-69.1533196	0.00347453078	103.805183	
	0.00284126583	104.036204	0.0633380386	-62.8445156	0.00347452861	103.805148	0.0998359461	-61.4869603	
	
280000000.	0.0994415654	-94.3974027999999	0.00398683842	63.299222	0.0213786245	-75.0515333	0.00323342959	68.7118116	
	0.00398683895	63.2992287	0.0956159587	-84.0634487	0.00438094938	66.3439014	0.0269801794	-75.7449738	
	0.0213786114	-75.0515528	0.00438094772	66.3438552	0.105436645	-92.9730944	0.00399063812	68.3310665	
	0.00323342863	68.7117916	0.0269801821	-75.7449239	0.00399063646	68.3310475	0.0934037455	-84.7831946	
	
290000000.	0.0699537341	-112.970915	0.00432458339	25.2123906	0.0327137481	14.5745866	0.00347223377	30.3390132	
	0.00432458385	25.2123964	0.070427022	-101.147387	0.00485630942	28.1699909	0.0276876799	19.036064	
	0.0327137481	14.5745767	0.00485630802	28.1699569	0.0749293768	-110.729812	0.00431169012	29.6460752	
	0.00347223311	30.3390003	0.0276877033	19.0360507	0.00431168907	29.6460627	0.0690742028	-102.526683	
	
300000000.	0.0376807457	-104.131843	0.0043473016	-13.1818577	0.0681318663	-2.90880151	0.00345511063	-7.96826989	
	0.00434730194	-13.1818519	0.0423464998	-93.0484604999999	0.00496902019	-10.9340813	0.0682126323	5.72773655	
	0.0681318613	-2.908814	0.00496901923	-10.9341041	0.0429122721	-102.433269	0.00430586998	-9.11970384	
	0.00345511022	-7.96827598	0.0682126513	5.727735	0.00430586933	-9.11971365	0.0406707652	-95.9313336	
	
310000000.	0.0480521895	-64.9527066999999	0.00412509973	-48.8000599	0.081031314	-29.5034455	0.00325923245	-43.0964532	
	0.0041251	-48.8000533	0.0521975127999999	-60.4396411000001	0.00475031357	-47.8882406	0.0895999115	-20.6773449	
	0.0810313063	-29.5034547	0.00475031308	-47.8882533	0.0527634327	-68.2348957	0.00405361033	-44.8403777	
	0.00325923232	-43.0964516	0.089599923	-20.677341	0.00405360992	-44.8403844	0.0484675571	-61.0944649999999	
	
320000000.	0.0805528646	-71.6736063	0.00391191365	-79.9964394	0.0651803408	-55.1283533	0.00310426318	-73.6922047	
	0.00391191393	-79.9964322	0.0851188313	-65.5480839999999	0.00443766249	-80.5570278	0.0825726504	-47.6255938	
	0.0651803331	-55.1283588	0.00443766239	-80.5570306	0.085549265	-74.1408071	0.00382071785	-75.7827167	
	0.00310426342	-73.6921956	0.082572653	-47.6255877	0.00382071768	-75.7827186	0.080284749	-65.227983	
	
330000000.	0.100410818	-92.5509896	0.00396397645	-108.710969	0.0268742786	-62.406994	0.00318353324	-102.320082	
	0.00396397677	-108.710962	0.10818164	-85.2155951	0.0043417542	-109.364706	0.0486148518	-68.7038142	
	0.0268742715	-62.4069958	0.00434175445	-109.364699	0.106545868	-94.4700511000001	0.00387678711	-104.060533	
	0.00318353395	-102.320068	0.0486148478	-68.7038085	0.00387678737	-104.060532	0.102674701	-84.7487706000001	
	
340000000.	0.098927048	-115.91803	0.00430136673	-139.588747	0.0371672427	25.1953262	0.00347970818	-133.700136	
	0.00430136705	-139.588741	0.110481322	-108.20939	0.00461266381	-138.501586	0.0182563805	-1.40436828	
	0.0371672415	25.1953439	0.00461266452	-138.50157	0.106226105	-117.758228	0.00423913249	-134.770476	
	0.00347970937	-133.70012	0.0182563775	-1.40434021	0.00423913325	-134.770473	0.104838742	-107.658007	
	
350000000.	0.0777836119	-136.533187	0.00467802919	-174.720897	0.0873235962	10.0632683	0.00377510416	-169.389145	
	0.00467802945	-174.720891	0.0909145076000001	-129.524583	0.00506156943	-171.656846	0.0683570687	18.0279524	
	0.0873235938	10.0632851	0.00506157062	-171.656823	0.0858009913	-139.05564	0.00464490962	-170.067143	
	0.0037751058	-169.389126	0.0683570679	18.0279653	0.00464491082	-170.06714	0.0857896212999999	-128.724522	
	
360000000.	0.047992843	-144.978937	0.00482089024	147.535146	0.120539491	-16.7070589	0.00385601731	152.662249	
	0.00482089044	147.535152	0.0585401919	-140.781605	0.00536353957	151.799631	0.11336706	-6.30897829	
	0.120539487	-16.7070384	0.00536354109	151.79966	0.0553693469	-151.001388	0.00481132464	151.862065	
	0.00385601931	152.662272	0.113367054	-6.30897012	0.00481132621	151.862069	0.0546936021999999	-139.002694	
	
370000000.	0.0328176004	-120.636934	0.00463264577	110.03884	0.124528441	-44.9587008	0.00367116315	115.494026	
	0.00463264591	110.038847	0.0376942607	-119.390417	0.00535053254	114.457459	0.133172758	-34.2098666	
	0.124528435	-44.9586759	0.00535053423	114.457496	0.0345439654	-135.586046	0.00463643093	113.938265	
	0.00367116543	115.494053	0.133172747	-34.209863	0.00463643285	113.938272	0.0362545368	-115.551748	
	
380000000.	0.0446663087	-106.063739	0.00421414368	75.5166282	0.0964575427	-71.9593513	0.0033330546	81.7688548	
	0.00421414378	75.5166359	0.0529151456	-99.2817888999999	0.00505669322	78.6764618	0.121187425	-62.1610903	
	0.0964575354	-71.9593218	0.00505669504	78.6765075	0.0409332608	-115.654322	0.00421407974	78.904087	
	0.00333305719	81.7688878	0.121187412	-62.1610935	0.00421408209	78.9040978	0.0520895439	-97.3373345999999	
	
390000000.	0.0529848667	-118.351531	0.00381060321	46.0867617	0.0438937646	-87.8833767	0.00305003226	53.0954484	
	0.00381060333	46.0867711	0.071567134	-110.954932	0.00465371842	46.3894587	0.079992266	-87.1249174	
	0.0438937591	-87.8833411	0.00465372057	46.3895129	0.0492539119000001	-124.613052	0.00378434367	49.053729	
	0.00305003539	53.0954846	0.079992252	-87.1249338	0.00378434664	49.0537422	0.0693580373	-109.699442	
	
400000000.	0.0446083526	-135.424078	0.00372669956	20.6982581	0.0343599313	1.20235019	0.00304008115	27.5920313	
	0.00372669982	20.6982685	0.0732431283	-132.06446	0.00442106928	18.1660917	0.0248303495	-80.6404263	
	0.0343599318	1.20239082	0.00442107196	18.1661493	0.04242241	-141.964302	0.00366429567	23.7314814	
	0.00304008509	27.5920612	0.0248303214	-80.6404804	0.00366429952	23.7314898	0.0695165032	-130.653964	
	
410000000.	0.0242531178	-135.452863	0.00403756697	-6.71002324	0.0931794326	-7.36291812	0.00331618185	-0.589498919	
	0.00403756739	-6.71001396	0.0551494781999999	-153.19142	0.00455803742	-9.46273322	0.0540310935	-2.43887303	
	0.0931794274	-7.36287634	0.00455804044	-9.4626776	0.0226128537999999	-147.575738	0.00395800997	-3.21504441	
	0.00331618651	-0.589480437	0.0540310708	-2.43884158	0.00395801478	-3.2150459	0.0504391969999999	-150.525406	
	
420000000.	0.0242404901	-81.8520631999999	0.00446481779	-39.397502	0.13370526	-33.9037083	0.00364571643	-33.7168591	
	0.00446481827	-39.3974947	0.0262813943	-157.842944	0.00492840797	-40.6849992	0.105873977	-22.320874	
	0.133705247	-33.903663	0.00492841102	-40.6849431	0.0179813327	-85.0961917999998	0.0043960298	-35.5884544	
	0.0036457215	-33.7168476	0.105873953	-22.3208649	0.00439603538	-35.5884634	0.0227520433	-146.607734	
	
430000000.	0.0458353807	-81.7785779	0.0047081859	-75.4926835	0.143803606	-62.409	0.00381662104	-69.600601	
	0.0047081863	-75.4926774	0.0225690897	-94.4972421000003	0.0052188359	-75.5961828	0.133413284	-49.6564727	
	0.143803588	-62.4089512	0.00521883889	-75.5961214	0.0378817234	-80.7362642999998	0.00466498798	-71.6536351	
	0.00381662622	-69.6005903	0.133413257	-49.6564764	0.00466499403	-71.6536474	0.0273546774	-86.3461370999999	
	
440000000.	0.0572919435	-101.651798	0.00464793558	-112.29308	0.122406377	-90.6812358	0.00376762285	-105.711471	
	0.00464793582	-112.293074	0.0445804841	-94.4220783000001	0.00522845876	-112.167531	0.130551786	-77.9028631	
	0.122406358	-90.6811834	0.00522846187	-112.167462	0.0480454505	-100.59456	0.00463004988	-108.641033	
