!!!!!!!!!!!!!!!!!!!!!!!!!!!!!!!!!!!!!!!!!!!!!!!!!!!!!!!!!!!!!!!!!!!!!!!!!!!!!!!!!!!!!!!!!
!!
!! Reference: shanbhag_3dj_01_2305.pdf
!!
!!!!!!!!!!!!!!!!!!!!!!!!!!!!!!!!!!!!!!!!!!!!!!!!!!!!!!!!!!!!!!!!!!!!!!!!!!!!!!!!!!!!!!!!!
!!
!! CHANNEL DESCRIPTION: TP0_TP5 CR Channel using 1meter DAC, PCB Host
!! MODEL DESCRIPTION: s4p, FEXT1
!! CONNECTOR DESCRIPTION: OSFP 200G SMT
!! CABLE DESCRIPTION: 1meter 26AWG Cable
!! MODEL STATUS: Developmental
!!
!! PORT DEFINITIONS: 
!! Port   1    ----->  Side A	      Side B  <-----  Port   2
!! Port   3    ----->  Side A	      Side B  <-----  Port   4
!!

# HZ S MA R 50.000000 


0.	0.0348692531999999	1.69665180000001e-12	0.000465247143	-180	0.00843532923	-4.55118323e-12	3.58048111e-05	180	
	0.000465247281	-180	0.0385017281	1.32768819e-12	0.000365321052	-180	0.00817104115	5.6628531e-13	
	0.00843408433	-1.63744971e-12	0.000365307177	-180	0.0402033191	7.13007600000001e-13	0.000167744835	-180	
	3.58058596e-05	-180	0.0081709011	-1.31749177e-12	0.000167756565	180	0.0358355437	5.64844234e-13	
	
10000000.	0.0561068491999999	21.2571664	0.000514434077	174.756662	0.0409517836	57.1944221	0.000145204178	-132.241582	
	0.000514434246	174.756556	0.0580643836000001	19.9221243	0.000413613844	-179.012519	0.0407560179	58.1332781	
	0.0409517896	57.1944299	0.000413614136	-179.012612	0.0624608700999999	19.6450922	0.000228046776	-164.493466	
	0.000145204468	-132.242668	0.0407559996	58.1333237	0.000228046959	-164.49349	0.0556591517	20.410436	
	
20000000.	0.0809084475	13.0889428	0.000597564442	161.764312	0.0741211574	37.4924046	0.000258633409	-155.260126	
	0.000597564181	161.764233	0.0819779816999999	13.0142631	0.000515180826	169.208529	0.0740954322	38.801667	
	0.0741210754	37.492318	0.000515181875	169.208535	0.0884328357	12.1515609	0.000327565772	-174.535057	
	0.00025863266	-155.260438	0.0740954579	38.8019702	0.000327566355	-174.534734	0.0788392186999999	13.166551	
	
30000000.	0.0991380025000001	-2.11352802	0.000659783019	144.976967	0.0945782414	15.3915185	0.000340150982	-177.463327	
	0.000659782457	144.976904	0.0995540256000001	-0.902968441999999	0.00058561458	152.556734	0.0951226123	17.156439	
	0.0945782496	15.3915179	0.00058561489	152.556653	0.107854664	-2.46069092	0.000402824843	170.265144	
	0.000340149424	-177.463627	0.0951225735	17.156488	0.000402825091	170.265116	0.0957493536	-0.933249199	
	
40000000.	0.108649833	-19.4967819	0.000697523071	129.29973	0.0994098595	-7.09207356	0.000411029471	164.319992	
	0.000697522198	129.29969	0.108647174	-17.018548	0.000628150451	138.008716	0.100867528	-4.85590186	
	0.0994098753	-7.09207844	0.000628150261	138.008726	0.118183954	-19.3227769	0.000475293264	157.671564	
	0.00041102736	164.319849	0.100867456	-4.85585854	0.000475293096	157.671524	0.1044613	-17.1640078	
	
50000000.	0.10860293	-37.6853514	0.000757939955	116.649815	0.0879975155	-29.553872	0.000511182401	148.027877	
	0.000757939033	116.649814	0.108495697	-33.9154965	0.000706727443	127.25098	0.0905444835	-26.822715	
	0.0879975275	-29.5538776	0.000706727323	127.250983	0.118443091	-37.0291799	0.000604692662	145.788016	
	0.00051118026	148.027857	0.0905444416	-26.8226692	0.000604692476	145.787987	0.10430103	-34.1605387	
	
60000000.	0.0986353384	-55.8999321	0.000903433355	103.665311	0.0619835967	-51.4893832	0.000667176142	128.914229	
	0.000903432739	103.665337	0.0987838596	-50.7720706	0.000893039647	114.733735	0.0655609063	-48.2284643	
	0.061983605	-51.4893903	0.00089303923	114.733734	0.108176626	-54.7290011	0.00082393859	128.516231	
	0.000667174292	128.914263	0.0655608837	-48.2284169	0.000823938381	128.516212	0.094970912	-51.1448318	
	
70000000.	0.0793138556	-72.8404377	0.00114168745	85.4426429	0.0253744034	-69.1573082	0.000865283213	104.790446	
	0.00114168713	85.4426703	0.0800691768	-66.2194122	0.00118149973	95.2063889	0.0296343541	-65.7949204	
	0.0253744079	-69.1573222	0.00118149923	95.2063947	0.0879861854	-71.0380138999999	0.00110232438	104.491536	
	0.000865281751	104.790487	0.0296343419	-65.7948512	0.0011023242	104.491526	0.0769715893	-66.808911	
	
80000000.	0.0531427579	-84.6291894000001	0.00141285654	61.5367973	0.0172011066	63.3287876	0.00106126586	76.7985415	
	0.00141285582	61.5368243	0.0548476354	-76.3045288999999	0.00149746757	69.57756	0.0134265126	59.8228153	
	0.0172011036	63.3287943	0.00149746722	69.5775645	0.0606480079	-82.0772701	0.00137380287	76.0433281	
	0.00106126461	76.7986057	0.013426529	59.8227924	0.00137380281	76.0433272	0.0526063001	-77.3415012	
	
90000000.	0.0279729327	-73.3967245000002	0.00163922201	34.3193748	0.0562744962	49.7193899	0.00120641615	47.138963	
	0.00163922258	34.3193571	0.0310079757	-64.9618362999999	0.00175564266	40.7898633	0.0530810941	53.1270677	
	0.0562744966	49.7193904	0.00175564242	40.789863	0.0346364551	-72.5576303999999	0.00157138317	45.8119431	
	0.00120641427	47.1389953	0.0530811046	53.1270801	0.00157138326	45.8119427	0.0291447737	-66.6893142	
	
100000000.	0.0312543719999999	-24.2812960000001	0.00176735831	6.3463013	0.0866176207	27.8305063	0.00127207249	17.9949972	
	0.00176735795	6.34631616	0.0331951638000001	-21.2069993999999	0.00189720018	11.3931275	0.0853132181	32.3215648	
	0.0866176238	27.8305047	0.00189719986	11.393131	0.0358663915000001	-30.5958547999999	0.00165462004	16.0830124	
	0.00127207138	17.9950238	0.0853132227	32.3215758	0.0016546201	16.0830048	0.0307100835999999	-20.7690129000001	
	
110000000.	0.0567458038000001	-19.830992	0.00178853743	-20.2172369	0.102919129	5.22341581	0.00126435582	-8.64071561	
	0.00178853713	-20.2172193	0.0575122667	-14.2909678	0.00190756448	-16.5203199	0.104358406	10.4766096	
	0.102919107	5.22339704	0.00190756494	-16.5203561	0.061505239	-23.5209695	0.00162851903	-11.0027227	
	0.00126435724	-8.64073493	0.104358461	10.47662	0.00162852329	-11.0027751	0.0542966234999999	-13.4347897	
	
120000000.	0.0808241306	-32.4540197	0.00174423023	-43.5807814	0.102673709	-17.2916117	0.00122732472	-31.1651975	
	0.00174422999	-43.5807616	0.0816415540000001	-24.9448743	0.00182410354	-40.9813643	0.107329278	-11.3218918	
	0.102673669	-17.2916441	0.00182410456	-40.9814335	0.0871864616000001	-34.6342887	0.00155327742	-33.4190817	
	0.00122732768	-31.1652784	0.107329365	-11.3218672	0.00155328419	-33.4192141	0.0776882304	-24.2060245	
	
130000000.	0.0978759426	-49.4384195	0.00171961741	-62.8660057	0.0860338296	-39.2870142	0.00123389558	-49.4473339	
	0.00171961723	-62.8659827	0.0993774597000001	-40.4450427	0.001738677	-60.3194096	0.0938720245	-32.5781565	
	0.0860337834	-39.2870579	0.00173867843	-60.3195164	0.105867563	-50.8117651	0.00154042967	-50.5974129	
	0.00123389905	-49.4474851	0.0938721157	-32.5781062	0.00154043677	-50.5976504	0.0949486175999999	-39.8225223	
	
140000000.	0.105222127	-68.0194241	0.00181484354	-79.7677296	0.0555824854	-59.5725661	0.00135151489	-66.5690867	
	0.00181484349	-79.7677031	0.107816425	-57.7479644	0.00178757244	-75.4363762	0.0659961313	-52.1985655	
	0.0555824478	-59.5726209	0.00178757377	-75.4365282	0.114411989	-68.8486065	0.00169956542	-66.2897112	
	0.00135151809	-66.5692838	0.065996207	-52.1984659	0.00169957115	-66.2900011	0.103290322	-57.2405778	
	
150000000.	0.101294699	-87.0004459	0.00206972261	-98.4522146	0.016737263	-64.636414	0.00158337895	-86.9095983	
	0.0020697228	-98.4521879	0.105155078	-75.5546353000001	0.00205601543	-91.7461884	0.0283335665	-62.5665102	
	0.0167372428	-64.6364881	0.00205601592	-91.7463687	0.111053693	-87.3808025	0.00203229298	-86.0561127	
	0.00158338173	-86.9098018	0.0283336329	-62.56625	0.00203229743	-86.0563766	0.100945275	-75.1846985	
	
160000000.	0.0861498136	-105.083337	0.00241917392	-121.443565	0.0290554157	52.5094494	0.00186058766	-111.842809	
	0.00241917436	-121.443542	0.0911246833	-92.5294166	0.00247809933	-113.480501	0.0199648664	43.9756737	
	0.0290554013	52.5094179	0.00247809866	-113.480683	0.0957922068	-105.054062	0.00242966296	-111.194174	
	0.00186059021	-111.843001	0.0199649647	43.9753603	0.00242966716	-111.194391	0.0876096647	-92.3547939999999	
	
170000000.	0.0621308258	-119.514261	0.00274588508	-148.093369	0.0682084946	37.6195001	0.00209223899	-139.986044	
	0.00274588568	-148.093351	0.0677708236	-105.979513	0.00290416672	-140.007023	0.0602217943	42.1100157	
	0.0682084571	37.6194515	0.00290416512	-140.007193	0.0710603706	-119.235641	0.00276161854	-139.849705	
	0.00209224145	-139.986223	0.0602218852	42.1099104	0.00276162322	-139.849887	0.0651893768	-106.151131	
	
180000000.	0.0350918164	-119.897877	0.00295127966	-176.484107	0.0976870204	16.4072415	0.00221172524	-169.240438	
	0.00295128025	-176.484094	0.0408093547	-106.796437	0.00320633985	-168.966977	0.0938246345	23.2430162	
	0.0976869653	16.4071878	0.00320633781	-168.967133	0.0428628621999999	-121.22074	0.00293558777	-169.747828	
	0.00221172753	-169.24061	0.0938247428	23.2429685	0.00293559297	-169.747992	0.0389907227	-107.712922	
	
190000000.	0.0258255758	-74.5615949000001	0.00299382121	155.324766	0.112289076	-5.78798907	0.00220166405	162.391741	
	0.00299382167	155.324777	0.0292096486	-68.7767446	0.00332046756	161.742618	0.114075473	2.37632701	
	0.112289014	-5.78804512	0.00332046556	161.742474	0.0299037087	-85.31433	0.0029220579	161.144617	
	0.00220166597	162.391573	0.114075587	2.37630913	0.00292206311	161.144455	0.0269527963	-69.0080219999999	
	
200000000.	0.0481886441	-55.7697029	0.00289855793	129.056391	0.109557206	-28.0334057	0.00209863785	136.688105	
	0.0028985582	129.056402	0.0500738971999999	-46.0518478000001	0.00324932881	133.830522	0.117702591	-18.7476815	
	0.109557146	-28.0334628	0.00324932718	133.830385	0.0500640049	-62.1740618	0.00276267034	134.749272	
	0.00209863914	136.687939	0.117702696	-18.7476776	0.00276267471	134.749101	0.0469802213	-44.8161131	
	
210000000.	0.0735016574	-65.6672902999999	0.00275148047	106.115874	0.0898422899	-49.6955639	0.00198524647	114.948789	
	0.00275148064	106.115887	0.0770689879999999	-52.9916599000001	0.00305692091	108.912633	0.104153679	-39.3119216	
	0.0898422414	-49.6956214	0.00305691963	108.912498	0.0766751476	-69.4174031999999	0.00257039174	112.792025	
	0.00198524692	114.948626	0.104153764	-39.3118967	0.00257039435	112.791843	0.0730964962	-51.766054	
	
220000000.	0.0919588219	-82.4082900999999	0.00268271487	86.7903451	0.0562270583	-69.0317187	0.00196928617	96.7746439	
	0.00268271511	86.7903612	0.098304447	-67.9089903	0.00287308345	88.3535586	0.0755603811	-57.8675871	
	0.0562270263	-69.0317775	0.00287308212	88.3534218	0.0971062909	-85.0201672	0.00251211523	95.3035186	
	0.00196928571	96.7744972	0.0755604435	-57.8675337	0.00251211558	95.3033489	0.0936569525	-66.7904494	
	
230000000.	0.0997392955	-101.376625	0.00280789098	68.8374763	0.0155871465	-65.1328573	0.00212381902	78.836556	
	0.00280789143	68.8374921	0.109173168	-85.4473227	0.00287588976	71.4479494	0.0371328215	-66.8836675	
	0.0155871296	-65.1329177	0.00287588779	71.4478178	0.106764167	-103.359861	0.00271281544	78.4430649	
	0.00212381785	78.8364372	0.0371328742	-66.8835494	0.0027128141	78.4429372	0.104229172	-84.4284222	
	
240000000.	0.0952441743000001	-120.795816	0.00313079602	48.5889896	0.0341411216	39.9651096	0.00241733871	57.4498644	
	0.00313079665	48.5890017	0.107343744	-103.623274	0.00316650886	53.8754586	0.0197479271	13.6953717	
	0.0341411138	39.9650818	0.00316650611	53.8753464	0.103707612	-122.379783	0.00312831462	57.611714	
	0.00241733719	57.4497745	0.0197480023	13.6952414	0.00312831273	57.61163	0.10255991	-102.695207	
	
250000000.	0.0792873191999999	-139.137841	0.00353110799	24.4814806	0.0745614207	25.6488306	0.00273558957	31.9580268	
	0.00353110865	24.4814891	0.0929093748	-120.840658	0.00364873844	31.9413267	0.0587711699	28.7314665	
	0.074561403	25.648796	0.00364873534	31.9412381	0.088562565	-140.526299	0.00358833131	32.1029813	
	0.00273558801	31.957959	0.0587712157	28.7314073	0.00358832963	32.102925	0.0887427819	-120.00172	
	
260000000.	0.0550407186	-153.493987	0.00385744107	-2.5417402	0.104956452	4.95337728	0.00296189064	3.89204421	
	0.00385744164	-2.54173383	0.0686544735	-134.37048	0.00412575261	5.90065498	0.0950178095	12.8914424	
	0.104956429	4.95334414	0.00412574968	5.90058571	0.0644029792999999	-155.27917	0.00392657655	3.69134032	
	0.00296188921	3.89199262	0.0950178535	12.8914178	0.00392657529	3.6912988	0.0654669164	-133.637806	
	
270000000.	0.0287710216000001	-151.541833	0.00400743973	-30.7118831	0.120217139	-16.9178389	0.00303066198	-24.7763481	
	0.00400744015	-30.7118772	0.0408411489	-135.101328	0.00444370165	-22.2917901	0.118866216	-6.66146402	
	0.120217115	-16.9178688	0.00444369924	-22.291845	0.0370387589999999	-157.911613	0.00404611296	-25.5630002	
	0.00303066077	-24.7763871	0.118866256	-6.66147233	0.00404611205	-25.5630339	0.0387170972	-134.484157	
	
280000000.	0.0232770774	-97.6665990000001	0.00395735949	-58.2957741	0.117839533	-39.0139696	0.00294402979	-52.2309254	
	0.00395735977	-58.2957674	0.02899368	-96.0380297000001	0.00453567087	-50.8046784	0.126414993	-27.0221369	
	0.117839512	-39.0139955	0.00453566909	-50.8047222	0.0243582288	-116.918733	0.00393569638	-53.7982627	
	0.00294402884	-52.2309535	0.126415026	-27.0221354	0.00393569565	-53.7982914	0.0272526329	-94.686609	
	
290000000.	0.0456532383	-84.8633150000001	0.00376207973	-83.7226491	0.0980080089	-60.7310947	0.00276642095	-76.8779568	
	0.00376207996	-83.7226411	0.0500257423	-73.5238002	0.00441258974	-78.1203902	0.116498761	-47.1176537	
	0.0980079936	-60.7311165	0.00441258852	-78.1204245	0.0436051287	-93.1984397999998	0.00367008748	-79.2189967	
	0.00276642025	-76.8779746	0.116498785	-47.1176454	0.00367008677	-79.2190207	0.0474979718	-71.9203061	
	
300000000.	0.0671103431	-97.3741315	0.00354591488	-105.784995	0.0636671731	-80.600301	0.00261150387	-97.7182048	
	0.00354591513	-105.784986	0.0761350562	-80.9871075	0.00415620136	-102.787412	0.0907146624	-65.6171968	
	0.0636671631	-80.6003191	0.00415620056	-102.787437	0.0664641103	-102.295257	0.00340800741	-100.351312	
	0.00261150345	-97.718212	0.0907146785	-65.6171829	0.0034080067	-100.35133	0.0724233059	-79.4773251000001	
	
310000000.	0.0799719559000001	-115.498199	0.00347377253	-124.68569	0.0210910097	-85.3073265	0.00260920536	-115.710008	
	0.00347377286	-124.68568	0.0950915015	-96.2739029000001	0.00392732403	-123.70391	0.0536910549	-77.8665287	
	0.0210910032	-85.3073435	0.00392732355	-123.703924	0.0816350440000001	-119.251472	0.00335566956	-117.773084	
	0.0026092053	-115.710005	0.0536910665	-77.8665086	0.00335566897	-117.773093	0.0903720192	-94.7887140999999	
	
320000000.	0.0815757704000001	-135.261123	0.00365763929	-143.15613	0.029855952	26.1081383	0.00281961457	-134.400379	
	0.0036576397	-143.156122	0.102478525	-113.901974	0.00392886253	-141.772077	0.0209432702	-43.0079016	
	0.0298559515	26.1081451	0.00392886243	-141.77208	0.0856701410999999	-138.544651	0.00362520174	-135.543708	
	0.00281961496	-134.40037	0.020943283	-43.0078945	0.00362520152	-135.54371	0.0971569893	-112.377045	
	
330000000.	0.0719025744000001	-154.919246	0.0040496356	-164.45394	0.0720219887	14.2156151	0.00316694789	-156.754706	
	0.00404963603	-164.453934	0.0968799769	-131.697023	0.0042480944	-160.684117	0.0468917136	10.2247639	
	0.0720219874	14.2156208	0.00424809483	-160.68411	0.0781494212000001	-158.134976	0.00411311129	-157.378409	
	0.00316694883	-156.754693	0.0468917152	10.2247617	0.00411311158	-157.378408	0.0914870275	-130.043054	
	
340000000.	0.0532772271	-172.587824	0.00447843657	170.64822	0.10471244	-6.19138218	0.00350138237	177.257021	
	0.00447843697	170.648226	0.0796966984	-147.71911	0.00475276787	176.742951	0.0848841182	0.738561677	
	0.104712439	-6.19137263	0.00475276885	176.742965	0.0611053343	-176.368584	0.00460208184	176.668102	
	0.00350138384	177.257036	0.0848841154	0.738565803	0.00460208266	176.668103	0.0748209094	-145.75837	
	
350000000.	0.0298780658	177.555828	0.0047752561	143.384562	0.12269181	-28.0024812	0.00369884596	149.291225	
	0.00477525644	143.384568	0.0549792322999999	-158.007573	0.00522343987	150.8175	0.113100445	-16.8679501	
	0.122691808	-28.0024669	0.00522344133	150.81752	0.0383140624	170.389252	0.00491182443	148.378518	
	0.00369884792	149.291242	0.113100439	-16.8679451	0.00491182579	148.378519	0.0512351497	-155.260168	
	
360000000.	0.0129243826	-141.187489	0.00484790309	115.456605	0.123397113	-50.1774114	0.00370733588	121.174143	
	0.00484790337	115.456611	0.0313799417	-147.691675	0.00550253288	123.173003	0.126550367	-36.2964558	
	0.12339711	-50.1773923	0.0055025347	123.173029	0.0166970858000001	-176.222844	0.00495547977	119.645436	
	0.00370733823	121.174164	0.126550359	-36.2964524	0.00495548162	119.645439	0.0295857886	-142.829198	
	
370000000.	0.0275041412	-99.1339642999997	0.00469548344	88.4836647	0.106764948	-72.249856	0.00354985907	94.5449731	
	0.00469548365	88.4836716	0.0320451009	-105.392985	0.00552892416	95.404884	0.123347228	-55.946548	
	0.106764945	-72.2498321	0.00552892625	95.4049178	0.0211422441	-114.855975	0.00474459252	92.2068796	
	0.00354986176	94.5449977	0.123347218	-55.9465485	0.00474459486	92.2068837	0.0318776319	-102.052513	
	
380000000.	0.0454089624	-109.349187	0.00440349257	63.9902038	0.0752375738	-93.423286	0.00331380683	70.8567965	
	0.00440349274	63.9902119	0.0537727182	-97.6809263	0.00532759495	68.9580852	0.104238751	-74.6537572	
	0.07523757	-93.4232573	0.00532759729	68.9581269	0.0392008021	-116.527714	0.00438725389	67.7866972	
	0.00331380989	70.856825	0.104238741	-74.6537647	0.00438725675	67.7867026	0.0524907232	-95.9031151999999	
	
390000000.	0.0559326042	-127.77373	0.00413728101	43.0663904	0.0337108847	-109.16248	0.00313949889	50.8658187	
	0.00413728121	43.0663998	0.0736669538	-108.58014	0.00501289132	45.2406621	0.0726409029	-89.8987471	
	0.0337108813	-109.162446	0.00501289402	45.2407109	0.0515891917999999	-133.376332	0.00408644533	47.6221585	
	0.00313950251	50.8658478	0.0726408904	-89.8987683	0.00408644887	47.6221625	0.0707672008	-106.913519	
	
400000000.	0.0566872835	-148.446931	0.00409668369	24.9594514	0.0155075176	4.59590493	0.00317288726	33.0942875	
	0.004096684	24.9594615	0.084467425	-124.514068	0.00479206943	24.9679667	0.0361995135	-89.1263651	
	0.0155075192	4.59594582	0.00479207263	24.968019	0.0548590501	-153.934362	0.00407706319	30.4847854	
	0.00317289163	33.0943102	0.0361994882	-89.1264158	0.00407706756	30.4847824	0.0801331197	-122.631014	
	
410000000.	0.0477527457000001	-169.551984	0.00437515935	6.30441934	0.0577758623	3.59592111	0.00345006992	13.8279153	
	0.00437515979	6.30442874	0.0837692242000001	-141.622398	0.00487625458	6.49405784	0.0293688773	-26.4775655	
	0.057775861	3.59596221	0.00487625827	6.4941087	0.0486774560000001	-175.78325	0.00443836184	12.0638391	
	0.00345007503	13.8279276	0.0293688354	-26.4775254	0.00443836709	12.0638261	0.0784536244	-139.285097	
	
420000000.	0.0313048698000002	170.583571	0.00485615204	-15.8029652	0.0927520908	-16.5968496	0.00384851282	-9.23607716	
	0.00485615254	-15.8029571	0.072084334	-157.629308	0.00528749255	-13.7093539	0.0627149014	-15.5968738	
	0.092752085	-16.5968049	0.00528749652	-13.7093054	0.0348574643999999	162.038778	0.00500087613	-10.5826519	
	0.0038485185	-9.23607261	0.0627148733	-15.5968415	0.00500088221	-10.5826722	0.0664647663999999	-154.392493	
	
430000000.	0.0110688852999999	161.008794	0.0053185904	-41.3804036	0.114533074	-38.6405042	0.00419397103	-35.5194167	
	0.00531859088	-41.3803965	0.0525826792	-169.102121	0.00582807425	-37.4072382	0.0934160398	-28.9837267	
	0.114533063	-38.6404561	0.00582807829	-37.4071891	0.0165679620000001	140.372724	0.0055108201	-36.9289967	
	0.00419397706	-35.5194155	0.0934160155	-28.9837102	0.00551082689	-36.929021	0.0476460440999999	-163.784982	
	
440000000.	0.0111669733	-79.9964782999996	0.00558686293	-68.9054907	0.120430621	-61.1728776	0.00436663133	-63.3209425	
	0.00558686331	-68.9054838	0.0318555591	-165.443361	0.00626298699	-63.8438367	0.112538898	-46.8532321	
	0.120430606	-61.1728263	0.00626299102	-63.8437842	0.00266155595	-74.8067391999999	0.00578656649	-65.1521552	
	0.00436663751	-63.320941	0.112538875	-46.8532273	0.00578657377	-65.1521808	0.0295602993	-154.96654	
	
450000000.	0.0285241842	-90.5505504	0.00558458115	-96.7111084	0.110117032	-83.8358517	0.004329587	-90.987227	
