!!!!!!!!!!!!!!!!!!!!!!!!!!!!!!!!!!!!!!!!!!!!!!!!!!!!!!!!!!!!!!!!!!!!!!!!!!!!!!!!!!!!!!!!!
!!
!! Reference: shanbhag_3dj_01_2305.pdf
!!
!!!!!!!!!!!!!!!!!!!!!!!!!!!!!!!!!!!!!!!!!!!!!!!!!!!!!!!!!!!!!!!!!!!!!!!!!!!!!!!!!!!!!!!!!
!!
!! CHANNEL DESCRIPTION: TP0_TP5 CR Channel using 1meter DAC, Cabled Host
!! MODEL DESCRIPTION: s4p, THRU
!! CONNECTOR DESCRIPTION: OSFP 200G OTB
!! CABLE DESCRIPTION: 1meter 26AWG Cable
!! MODEL STATUS: Developmental
!!
!! PORT DEFINITIONS: 
!! Port   1    ----->  Side A	      Side B  <-----  Port   2
!! Port   3    ----->  Side A	      Side B  <-----  Port   4
!!

# HZ S MA R 50.000000 


0.	0.0520472101	3.20232254	0.946434755	-6.39975659	0.0237722586	30.0280426	0.0166042431	172.387507	
	0.946434758	-6.39975662	0.0520428396	3.20311534	0.0166056084	172.387828	0.0237708102	30.0306191	
	0.0237708648	30.0286469	0.0166049765	172.387843	0.0572324711999999	2.0791968	0.942347575	-6.38854049	
	0.0166036081	172.387521	0.0237694666	30.0311341	0.942347572	-6.38854046	0.0572375987999999	2.07845046	
	
10000000.	0.0734060780000001	7.85098575	0.93787433	-33.7591842	0.0595289445	39.1124271	0.0162400732	141.600075	
	0.93787433	-33.7591842	0.0734060772000001	7.85098642000001	0.0162400732	141.600074	0.0595289446	39.112427	
	0.0595288931	39.1119871	0.0162399065	141.59993	0.0795261898	6.8036423	0.933727942	-33.7621499	
	0.0162399065	141.59993	0.0595288932	39.1119869	0.933727942	-33.7621499	0.0795261889	6.80364334	
	
20000000.	0.0940590716	-7.5619805	0.928927075	-66.9196296	0.0955933129	15.90338	0.0183486079	100.05497	
	0.928927075	-66.9196296	0.0940590579	-7.56197236	0.0183486076	100.054974	0.0955933124	15.9033791	
	0.0955929383	15.9031033	0.0183483828	100.054732	0.10118249	-8.15515842	0.92469854	-66.918753	
	0.018348383	100.054729	0.0955929387	15.9031041	0.92469854	-66.918753	0.101182494	-8.15515946	
	
30000000.	0.10198334	-28.0243892	0.923561594	-99.8274966	0.100351129	-11.551277	0.018995184	54.7566848	
	0.923561594	-99.8274966	0.101983337	-28.0243817	0.0189951851	54.7566849	0.100351127	-11.5512789	
	0.100350792	-11.5513396	0.0189950432	54.7564044	0.110414937	-28.3140223	0.919302086	-99.8159093	
	0.0189950421	54.7564044	0.100350792	-11.5513395	0.919302086	-99.8159093	0.110414932	-28.3140182	
	
40000000.	0.0970083558000001	-49.1741664	0.921822709	-132.773062	0.0713102475	-37.0020043	0.0178030065	9.73913746	
	0.921822709	-132.773062	0.0970083447000001	-49.1741615	0.0178030062	9.73913577	0.0713102461	-37.0020054	
	0.0713099673	-37.001911	0.0178028852	9.73878680000004	0.106682537	-49.3749929	0.917580189	-132.749623	
	0.0178028854	9.73878789	0.0713099675	-37.0019116	0.917580189	-132.749623	0.106682536	-49.3749829	
	
50000000.	0.0811376819	-68.6320381999999	0.920167667	-165.890124	0.0213820752	-28.2637316	0.0151545612	-31.7785324	
	0.920167667	-165.890124	0.0811376852	-68.6320369999999	0.0151545609	-31.7785363	0.0213820735	-28.2637365	
	0.0213820836	-28.2628477	0.0151544715	-31.7789038	0.0916475907	-69.255341	0.916013918	-165.855109	
	0.0151544717	-31.7789007	0.0213820819	-28.2628534	0.916013918	-165.855109	0.0916475919	-69.2553254	
	
60000000.	0.0594561929	-82.0620405000001	0.915475505	160.949308	0.0561568767	49.581485	0.0123004754	-65.8172569	
	0.915475505	160.949308	0.0594562006	-82.0620163	0.0123004756	-65.8172549	0.0561568755	49.5814877	
	0.0561571046	49.5812528	0.0123004135	-65.8176421	0.0698076291	-84.5039501000001	0.911482895	160.992905	
	0.0123004133	-65.8176431	0.0561571033	49.5812555	0.911482895	160.992905	0.0698076366	-84.5039277000001	
	
70000000.	0.0417584267	-81.6922125999999	0.908467527	127.979349	0.109848238	27.4249448	0.0109427405	-92.298347	
	0.908467527	127.979349	0.0417584533	-81.6922021000001	0.0109427395	-92.2983473	0.109848237	27.4249466	
	0.109848293	27.4247897	0.0109426946	-92.2987258	0.0498265803	-89.1458265000001	0.904660818	128.026939	
	0.0109426955	-92.2987236	0.109848292	27.4247915	0.904660818	128.026939	0.0498265994	-89.1458028	
	
80000000.	0.0380558266	-70.358184	0.903048711	95.2591785	0.136087008	-1.17637143	0.0113097113	-120.846522	
	0.903048711	95.2591785	0.0380558512	-70.3581835	0.0113097112	-120.846523	0.136087007	-1.17637046	
	0.136086921	-1.17648071	0.011309676	-120.84687	0.0414494818	-81.7445105	0.899389271	95.3069503	
	0.0113096762	-120.846869	0.13608692	-1.17647978	0.899389271	95.3069503	0.0414495057	-81.7445039999999	
	
90000000.	0.0437905317	-70.2781672	0.901962521	62.5838514	0.125402648	-30.8998811	0.0119127018	-156.947995	
	0.901962521	62.5838514	0.0437905453	-70.2781774000002	0.0119127017	-156.947996	0.125402648	-30.8998806	
	0.125402468	-30.8999605	0.0119126759	-156.948331	0.0446680402	-79.0168272	0.898379511	62.6303689	
	0.0119126758	-156.94833	0.125402468	-30.89996	0.898379511	62.6303689	0.0446680545	-79.0168343999999	
	
100000000.	0.047255097	-82.5170866	0.903621937	29.682548	0.0787843249	-60.0648592	0.0115274816	162.179257	
	0.903621937	29.682548	0.0472550994	-82.5170868000001	0.0115274821	162.17926	0.0787843249	-60.0648599	
	0.078784111	-60.0649029	0.0115274698	162.178939	0.048827002	-88.825738	0.900061095	29.728817	
	0.0115274693	162.178936	0.078784111	-60.0649033	0.900061095	29.728817	0.0488270045	-88.8257379000001	
	
110000000.	0.0430161143	-98.9497701	0.903259581	-3.49437595	0.00977835883	-48.7426531	0.00986205206	123.021794	
	0.903259581	-3.49437595	0.0430161122	-98.9497473000001	0.00986205268	123.021797	0.00977835697	-48.7426662	
	0.00977823994	-48.7417437	0.00986207962	123.02142	0.0466385322	-104.941582	0.899697971	-3.44798714	
	0.00986207933	123.021413	0.0097782385	-48.741756	0.899697971	-3.44798714	0.0466385279	-104.941564	
	
120000000.	0.0324122126	-112.364382	0.897512189	-36.6892327	0.0710276787	45.2720376	0.00768253456	90.2916241	
	0.897512189	-36.6892327	0.0324122183	-112.364317	0.00768253545	90.2916264	0.0710276774	45.2720415	
	0.0710277968	45.2719458	0.00768259041	90.2911589	0.0379069960999999	-121.174341	0.893999548	-36.640951	
	0.00768258999	90.291152	0.0710277952	45.2719495	0.893999548	-36.640951	0.0379069935	-121.17429	
	
130000000.	0.0215776446	-113.351962	0.888591368	-69.5797509	0.131048108	16.5852667	0.00630736487	66.0513126	
	0.888591368	-69.5797509	0.0215776793000001	-113.351847000001	0.00630736577	66.0513112	0.131048106	16.5852696	
	0.131048106	16.5851725	0.00630743420000001	66.0506566000001	0.0270040543	-132.168583	0.885168281	-69.5301856	
	0.00630743361	66.0506523	0.131048104	16.5851755	0.885168281	-69.5301856	0.0270040686	-132.168477	
	
140000000.	0.017288572	-101.233059	0.882013778	-102.124596	0.158375078	-13.6204632	0.00590931369	40.2986942	
	0.882013778	-102.124596	0.0172886424	-101.233024999999	0.00590931435	40.2986907	0.158375076	-13.6204603	
	0.158374973	-13.6205569	0.00590938974000001	40.2978859	0.0188661977999999	-136.003674	0.878671991	-102.075756	
	0.00590938922	40.2978835	0.158374971	-13.6205539	0.878671991	-102.075756	0.0188662454999999	-136.003524	
	
150000000.	0.0164884875	-101.873869	0.881094232	-134.604159	0.14669321	-43.7496667	0.00526812639	7.14203917	
	0.881094232	-134.604159	0.0164885638000001	-101.873976	0.00526812699	7.14203619999999	0.146693209	-43.7496632	
	0.14669305	-43.7497596	0.00526821343	7.14114614000005	0.0141439069	-144.777437	0.877780572	-134.55758	
	0.00526821288	7.14114311999999	0.146693048	-43.749756	0.877780572	-134.55758	0.0141439816999999	-144.777315	
	
160000000.	0.0105914408	-122.502712	0.883955246	-167.353152	0.0992027205	-72.7236083	0.00364318474	-24.1496354	
	0.883955246	-167.353152	0.0105915138000001	-122.502964	0.00364318546	-24.1496404	0.0992027198	-72.7236034	
	0.0992025641	-72.7237004	0.0036432774	-24.1508997999999	0.00982435368000002	172.634654	0.880607982	-167.308237	
	0.00364327663	-24.1509023	0.0992025635	-72.7236954	0.880607982	-167.308237	0.00982442685999997	172.634912	
	
170000000.	0.00475356121000001	79.0086975999995	0.885232856	159.553136	0.0297811508	-88.0620598	0.0023577566	-17.334154	
	0.885232856	159.553136	0.00475355538999996	79.0096862000003	0.0023577568	-17.334177	0.0297811522	-88.0620471	
	0.029781046	-88.062125	0.00235778428	-17.3371124	0.014291155	85.8119830999998	0.881829821	159.599454	
	0.00235778374	-17.3370953	0.0297810476	-88.062112	0.881829821	159.599454	0.0142911635	85.8123039999998	
	
180000000.	0.0242012777	27.2800403	0.88122282	126.375692	0.0482786165	23.0813793	0.00438610369	-20.9412065	
	0.88122282	126.375692	0.0242012502000001	27.2801866	0.00438610303	-20.9412166	0.0482786184	23.0813749	
	0.0482786305	23.0813482	0.00438607115	-20.9427894000001	0.0301113561	37.4220364	0.877806296	126.426924	
	0.00438607145	-20.9427791	0.0482786321	23.0813436	0.877806296	126.426924	0.0301113472999999	37.4221580000001	
	
190000000.	0.0434912705	-2.22502803	0.87362471	93.4430523	0.103847722	-0.700481625	0.00674065339	-64.8697418	
	0.87362471	93.4430523	0.0434912533999999	-2.22497536000001	0.00674065264	-64.869746	0.103847722	-0.700481927	
	0.103847673	-0.700537316	0.00674064332	-64.8707634	0.0460694633	4.41481714	0.870269319	93.4999286	
	0.00674064377	-64.8707592	0.103847673	-0.700537629	0.870269319	93.4999286	0.0460694593	4.41486529	
	
200000000.	0.0558416906	-29.3172188	0.867402647	60.8186278	0.128536407	-30.0386511	0.00776962651	-119.139608	
	0.867402647	60.8186278	0.0558416835000001	-29.3172082999998	0.00776962593	-119.13961	0.128536407	-30.0386495	
	0.128536322	-30.0387041	0.00776965453	-119.14038	0.0553047772999999	-23.830079	0.864150645	60.8777465	
	0.00776965487	-119.140378	0.128536322	-30.0387025	0.864150645	60.8777465	0.0553047791	-23.8300723	
	
210000000.	0.0559999268	-53.4446741	0.866225056	28.2717953	0.118540879	-58.9657384	0.00799465083	-174.44396	
	0.866225056	28.2717953	0.0559999230999999	-53.4447	0.00799465047	-174.44396	0.118540878	-58.9657346	
	0.1185408	-58.9657922	0.0079947104	-174.444534	0.0529672672	-47.4041741	0.86304587	28.3270534	
	0.00799471058	-174.444534	0.118540799	-58.9657884	0.86304587	28.3270534	0.0529672668	-47.404207	
	
220000000.	0.0418984747	-72.4313896000001	0.868041053	-4.46463274	0.0788968092	-86.2886282	0.00653095481	133.620421	
	0.868041053	-4.46463274	0.0418984581	-72.4314731000001	0.00653095467	133.620421	0.0788968094	-86.2886196	
	0.0788967525	-86.2886821	0.00653103021	133.619985	0.0377540889	-62.4144967	0.864843085	-4.41710378	
	0.00653103022	133.619984	0.0788967526	-86.2886735	0.864843085	-4.41710378	0.0377540649000001	-62.4145925999999	
	
230000000.	0.0210106559	-56.8636701	0.868942536	-37.454935	0.0245160977	-95.4945772	0.00396022629	97.993135	
	0.868942536	-37.454935	0.021010569	-56.8637958000001	0.00396022633	97.9931357	0.0245161035	-95.4945462	
	0.0245160692	-95.4946233	0.00396029871	97.9925657	0.0230640313999999	-33.1082701000001	0.865615681	-37.4139492	
	0.00396029855	97.9925639	0.024516075	-95.4945921	0.865615681	-37.4139492	0.0230639306	-33.1082979000001	
	
240000000.	0.0383481653999999	-9.28401678000001	0.866265446	-70.5147048	0.0365622026	2.56153267	0.00362672	106.08563	
	0.866265446	-70.5147048	0.0383480874	-9.28386892999988	0.00362672009	106.085628	0.03656221	2.56151007	
	0.036562196	2.56150536	0.00362674850000001	106.084512	0.0476957455	-5.55475181	0.862747992	-70.4737412	
	0.00362674831	106.084513	0.0365622034	2.56148264	0.862747992	-70.4737412	0.0476956709999999	-5.55462755000001	
	
250000000.	0.0734666204	-21.9368736	0.861133381	-103.417914	0.0719273864	-17.3904498	0.0067120388	78.3095779	
	0.861133381	-103.417914	0.0734665748999999	-21.9367684	0.00671203884	78.309577	0.0719273907	-17.3904627	
	0.0719273654	-17.3904855	0.00671205829000001	78.3090083	0.0828507470999999	-21.0426995	0.857446598	-103.368724	
	0.00671205816	78.3090094	0.0719273697	-17.3904984	0.857446598	-103.368724	0.0828507015000001	-21.0426062	
	
260000000.	0.10026047	-45.0572662	0.856705968	-136.127506	0.079706121	-44.3993395	0.00942748281	27.9912233	
	0.856705968	-136.127506	0.100260446	-45.0571843	0.00942748288	27.991223	0.0797061233	-44.3993504	
	0.0797060954	-44.3993738	0.00942751459	27.9909133	0.108793189	-44.3357636	0.852930013	-136.06458	
	0.00942751445	27.9909136	0.0797060977	-44.3993847	0.852930013	-136.06458	0.108793165	-44.3356887	
	
270000000.	0.110281489	-70.1071119	0.854684061	-168.785186	0.0594076637	-69.9309118	0.0105013068	-26.9685344	
	0.854684061	-168.785186	0.110281482	-70.1070425	0.0105013069	-26.9685342	0.0594076637	-69.9309232	
	0.0594076422	-69.9309429	0.0105013454	-26.9686938	0.117597764	-69.153384	0.85091077	-168.707715	
	0.0105013452	-26.968694	0.0594076422	-69.9309542	0.85091077	-168.707715	0.117597757	-69.1533196	
	
280000000.	0.0994415578	-94.3974649	0.854203711	158.46454	0.0213786274	-75.0515181	0.00958183507	-81.8183807	
	0.854203711	158.46454	0.0994415653999998	-94.3974027999999	0.00958183516	-81.8183802	0.0213786245	-75.0515333	
	0.0213786143	-75.0515378	0.00958187056	-81.8184317	0.105436637	-92.9731520999999	0.85050167	158.553494	
	0.00958187043	-81.8184323	0.0213786114	-75.0515528	0.85050167	158.553494	0.105436645	-92.9730944	
	
290000000.	0.069953716	-112.97097	0.853286922	125.60387	0.0327137485	14.5745869	0.00699702792	-131.123401	
	0.853286922	125.60387	0.0699537341000001	-112.970915	0.00699702797	-131.1234	0.0327137481	14.5745866	
	0.0327137485	14.5745771	0.00699705407	-131.123369	0.0749293581	-110.729862	0.849683747	125.69961	
	0.00699705399	-131.12337	0.0327137481	14.5745767	0.849683747	125.69961	0.0749293768	-110.729812	
	
300000000.	0.0376807322	-104.131868	0.851008434	92.7301788	0.0681318654	-2.90879613	0.00429646585	-157.823762	
	0.851008434	92.7301788	0.0376807457	-104.131843	0.00429646589	-157.82376	0.0681318663	-2.90880151	
	0.0681318603	-2.90880857	0.00429648391	-157.823714	0.0429122592	-102.433292	0.847487612	92.8287265	
	0.00429648385	-157.823716	0.0681318613	-2.908814	0.847487612	92.8287265	0.0429122721	-102.433269	
	
310000000.	0.0480522075	-64.9527441000001	0.848267075	59.9213509	0.0810313129	-29.5034364	0.00489602045	-162.962689	
	0.848267075	59.9213509	0.0480521895000001	-64.9527066999999	0.00489602057	-162.962688	0.081031314	-29.5034455	
	0.0810313051	-29.5034456	0.00489603166	-162.962692	0.0527634528	-68.2349287999999	0.844779761	60.0210932	
	0.00489603153	-162.962694	0.0810313063	-29.5034547	0.844779761	60.0210932	0.0527634327	-68.2348957	
	
320000000.	0.0805528849	-71.6736688	0.846178631	27.1415086	0.0651803413	-55.128337	0.00743882702	158.262064	
	0.846178631	27.1415086	0.0805528645999999	-71.6736063	0.00743882718	158.262066	0.0651803408	-55.1283533	
	0.0651803336	-55.1283425	0.00743883093999999	158.262104	0.0855492901	-74.1408651	0.842671252	27.2438485	
	0.00743883077	158.262102	0.0651803331	-55.1283588	0.842671252	27.2438485	0.085549265	-74.1408071	
	
330000000.	0.100410827	-92.551069	0.844412773	-5.68264524	0.026874289	-62.4069518	0.00899425363	103.724165	
	0.844412773	-5.68264524	0.100410818	-92.5509896	0.00899425377	103.724167	0.0268742786	-62.406994	
	0.0268742819	-62.4069536	0.00899424749	103.724216	0.106545883	-94.4701255000001	0.840862848	-5.57384974	
	0.00899424736	103.724214	0.0268742715	-62.4069958	0.840862848	-5.57384974	0.106545868	-94.4700511000001	
	
340000000.	0.0989270339999999	-115.918132	0.841750789	-38.5438638	0.037167255	25.1952956	0.00876704864	44.0465257	
	0.841750789	-38.5438638	0.098927048	-115.91803	0.00876704869	44.0465273	0.0371672427	25.1953262	
	0.0371672538	25.1953132	0.00876703281	44.0465437	0.1062261	-117.758324	0.838191316	-38.424207	
	0.00876703277	44.0465422	0.0371672415	25.1953439	0.838191316	-38.424207	0.106226105	-117.758228	
	
350000000.	0.0777835579000001	-136.533329	0.837808058	-71.346127	0.0873236022	10.0632545	0.00688230169	-17.6943017	
	0.837808058	-71.346127	0.0777836119	-136.533187	0.00688230162	-17.6943004	0.0873235962	10.0632683	
	0.0873235999	10.0632713	0.00688228244	-17.6943822	0.0858009486	-139.055771	0.834319575	-71.2133622	
	0.00688228251	-17.6943835	0.0873235938	10.0632851	0.834319575	-71.2133622	0.0858009913	-139.05564	
	
360000000.	0.0479927146000001	-144.979128	0.833960698	-104.005615	0.120539496	-16.7070676	0.0040237517	-79.9507356	
	0.833960698	-104.005615	0.047992843	-144.978937	0.00402375153	-79.9507355	0.120539491	-16.7070589	
	0.120539491	-16.7070471	0.00402373897000001	-79.9510777	0.0553692379000001	-151.001568	0.830628863	-103.86157	
	0.00402373914	-79.9510776	0.120539487	-16.7070384	0.830628863	-103.86157	0.0553693469	-151.001388	
	
370000000.	0.0328174114000001	-120.636908	0.832312066	-136.573638	0.124528444	-44.958707	0.00108663598	-136.359484	
	0.832312066	-136.573638	0.0328176004	-120.636934	0.00108663575	-136.359493	0.124528441	-44.9587008	
	0.124528438	-44.9586822	0.00108663541000001	-136.361253	0.0345437783	-135.586106	0.829178464	-136.423799	
	0.00108663564	-136.361243	0.124528435	-44.9586759	0.829178464	-136.423799	0.0345439654	-135.586046	
	
380000000.	0.0446662093999999	-106.063586	0.833312357	-169.228132	0.096457544	-71.9593554	0.00122314549	-46.3420982	
	0.833312357	-169.228132	0.0446663087	-106.063739	0.00122314552	-46.3420785	0.0964575427	-71.9593513	
	0.0964575368	-71.9593259	0.00122311235	-46.3410775	0.040933141	-115.654181	0.830353815	-169.078766	
	0.00122311234	-46.3410976	0.0964575354	-71.9593218	0.830353815	-169.078766	0.0409332608	-115.654322	
	
390000000.	0.0529848272	-118.351428	0.834760542	157.897905	0.0438937661	-87.8833745	0.00230175434	-114.162875	
	0.834760542	157.897905	0.0529848667000001	-118.351531	0.00230175417	-114.162863	0.0438937646	-87.8833767	
	0.0438937606	-87.883339	0.00230171023	-114.162896	0.0492538612	-124.612945	0.831912243	158.043425	
	0.00230171041	-114.162908	0.0438937591	-87.8833411	0.831912243	158.043425	0.0492539119000001	-124.613052	
	
400000000.	0.0446083389000001	-135.42403	0.833584118	124.86604	0.0343599381	1.20233524	0.0022739653	160.77219	
	0.833584118	124.86604	0.0446083526000001	-135.424078	0.00227396485	160.772197	0.0343599313	1.20235019	
	0.0343599386	1.20237585000001	0.00227393761	160.771235	0.0424223924999999	-141.964252	0.830796319	125.008763	
	0.00227393807	160.771228	0.0343599318	1.20239082	0.830796319	125.008763	0.04242241	-141.964302	
	
410000000.	0.0242530863	-135.452915	0.828822652	91.9114169	0.0931794379	-7.36292972	0.0022118951	51.9506779	
	0.828822652	91.9114169	0.0242531178	-135.452863	0.00221189473	51.9506706	0.0931794326	-7.36291812	
	0.0931794327	-7.36288795	0.00221192864	51.949727	0.0226128293	-147.57581	0.826099622	92.0543447	
	0.002211929	51.9497346	0.0931794274	-7.36287634	0.826099622	92.0543447	0.0226128537999999	-147.575738	
	
420000000.	0.0242404029	-81.8519098999996	0.82284216	59.2173246	0.133705265	-33.9037195	0.00324203563	-49.7676901	
	0.82284216	59.2173246	0.0242404901	-81.8520631999999	0.00324203576	-49.7676964	0.13370526	-33.9037083	
	0.133705253	-33.9036742	0.00324208531	-49.7673104	0.0179812408	-85.0960080999997	0.820234589	59.3604536	
	0.00324208517	-49.7673041	0.133705247	-33.903663	0.820234589	59.3604536	0.0179813327	-85.0961917999998	
	
430000000.	0.0458353098	-81.7783801999999	0.819349159	26.7513573	0.14380361	-62.4090126	0.00437971831	-130.210108	
	0.819349159	26.7513573	0.0458353807	-81.7785779	0.00437971867	-130.210109	0.143803606	-62.409	
	0.143803593	-62.4089638	0.00437973784	-130.20938	0.0378816522	-80.7360243	0.816880254	26.8898618	
	0.00437973747	-130.20938	0.143803588	-62.4089512	0.816880254	26.8898618	0.0378817234	-80.7362642999998	
	
440000000.	0.057291892	-101.651579	0.820009405	-5.7191045	0.122406379	-90.6812516	0.00459633183	157.072805	
	0.820009405	-5.7191045	0.0572919435	-101.651798	0.00459633215	157.072809	0.122406377	-90.6812358	
	0.12240636	-90.6811992	0.00459631229	157.073538	0.0480453993	-100.594297	0.817621296	-5.59213649	
	0.00459631197	157.073534	0.122406358	-90.6811834	0.817621296	-5.59213649	0.0480454505	-100.59456	
	
450000000.	0.0493446646	-124.768756	0.823147689	-38.4267214	0.0761519413	-116.138698	0.00341349051	84.1538591	
	0.823147689	-38.4267214	0.0493446863000001	-124.769055	0.00341349055	84.1538694	0.0761519431	-116.138675	
	0.0761519274	-116.138642	0.00341343893	84.1544299000001	0.0395154822	-123.374875	0.820703743	-38.3145673	
