!!!!!!!!!!!!!!!!!!!!!!!!!!!!!!!!!!!!!!!!!!!!!!!!!!!!!!!!!!!!!!!!!!!!!!!!!!!!!!!!!!!!!!!!!
!!
!! Reference: shanbhag_3dj_01_2305.pdf
!!
!!!!!!!!!!!!!!!!!!!!!!!!!!!!!!!!!!!!!!!!!!!!!!!!!!!!!!!!!!!!!!!!!!!!!!!!!!!!!!!!!!!!!!!!!
!!
!! CHANNEL DESCRIPTION: TP0_TP5 CR Channel using 1meter DAC, PCB Host
!! MODEL DESCRIPTION: s4p, THRU
!! CONNECTOR DESCRIPTION: OSFP 200G SMT
!! CABLE DESCRIPTION: 1meter 26AWG Cable
!! MODEL STATUS: Developmental
!!
!! PORT DEFINITIONS: 
!! Port   1    ----->  Side A	      Side B  <-----  Port   2
!! Port   3    ----->  Side A	      Side B  <-----  Port   4
!!
# HZ S MA R 50.000000 


0.	0.0348905688000001	1.73337236e-12	0.96039624	-5.12279188e-14	0.00842057506	-3.6008528e-12	0.00886089416	-180	
	0.960396243	-5.12264241e-14	0.0348692531999999	1.69665180000001e-12	0.00886159128	-180	0.00843532923	-4.55118323e-12	
	0.00841926757	-6.71035765e-13	0.00886145959	180	0.0402164796	3.74507363e-13	0.955953987	7.53766179e-14	
	0.00886075932	-180	0.00843408433	-1.63744971e-12	0.955953983	7.53747953e-14	0.0402033191	7.13007600000001e-13	
	
10000000.	0.055759756	21.3613033	0.953040993	-24.5373888	0.0409913278	57.3814709	0.00781936159	159.708019	
	0.953040993	-24.5373888	0.0561068491999999	21.2571664	0.0078186529	159.718737	0.0409517836	57.1944221	
	0.0409913338	57.3814788	0.00781866133	159.718741	0.0621209557000001	19.7663214	0.948436932	-24.5511703	
	0.00781937002	159.708023	0.0409517896	57.1944299	0.948436932	-24.5511703	0.0624608700999999	19.6450922	
	
20000000.	0.0800813798999999	13.7280604	0.946096766	-48.7002818	0.0741998918	37.8290466	0.0100686468	130.28863	
	0.946096766	-48.7002818	0.0809084475	13.0889428	0.0100676749	130.309218	0.0741211574	37.4924046	
	0.0741998088	37.8289579	0.0100676585	130.309284	0.0876056524	12.7922196	0.941296882	-48.706832	
	0.0100686304	130.288696	0.0741210754	37.492318	0.941296882	-48.706832	0.0884328357	12.1515609	
	
30000000.	0.0979780790999999	-0.897809968000003	0.940272655	-72.6446316	0.0946864809	15.899638	0.0122694329	93.3797785	
	0.940272655	-72.6446316	0.0991380025000001	-2.11352801999997	0.0122679425	93.4098787	0.0945782414	15.3915185	
	0.094686487	15.8996352	0.0122679516	93.409879	0.10668996	-1.25242186	0.935361005	-72.6378279	
	0.0122694421	93.379779	0.0945782496	15.3915179	0.935361004	-72.6378279	0.107854664	-2.46069092	
	
40000000.	0.107385903	-17.7085155	0.93670753	-96.4779717	0.0995333926	-6.38269872	0.0139687002	53.9356713	
	0.93670753	-96.4779717	0.108649833	-19.4967819	0.0139665986	53.9752733	0.0994098595	-7.09207356	
	0.0995334071	-6.38270399	0.013966602	53.9752449	0.116920443	-17.5494565	0.931747213	-96.4563234	
	0.0139687034	53.9356423	0.0994098753	-7.09207844	0.931747213	-96.4563234	0.118183954	-19.3227769	
	
50000000.	0.107490424	-35.3477477	0.935507522	-120.307651	0.0881252378	-28.581468	0.0149006345	13.9732827	
	0.935507522	-120.307651	0.10860293	-37.6853514	0.0148979563	14.0223983	0.0879975155	-29.553872	
	0.0881252497	-28.5814733	0.0148979623	14.0223945	0.117344395	-34.7146897	0.930558232	-120.270508	
	0.0149006404	13.9732781	0.0879975275	-29.5538776	0.930558232	-120.270508	0.118443091	-37.0291799	
	
60000000.	0.097899367	-53.0537038	0.935832174	-144.221265	0.0621206911	-50.0903825	0.0148468466	-25.2981374	
	0.935832174	-144.221265	0.0986353384	-55.8999321	0.0148437754	-25.2391701	0.0619835967	-51.4893832	
	0.0621206994	-50.0903895	0.0148437811	-25.2391703	0.107472249	-51.915224	0.930957738	-144.169909	
	0.0148468522	-25.2981369	0.061983605	-51.4893903	0.930957738	-144.169909	0.108176626	-54.7290011	
	
70000000.	0.0791045961	-69.5604694999999	0.936173324	-168.252842	0.0255918282	-66.4726157	0.0136996187	-62.4653063	
	0.936173324	-168.252842	0.0793138556	-72.8404376999999	0.0136965005	-62.3955646	0.0253744034	-69.1573082	
	0.0255918323	-66.4726297	0.0136965053	-62.3955641	0.0878243785	-67.8029249	0.931427523	-168.190637	
	0.0136996232	-62.4653049	0.0253744079	-69.1573222	0.931427523	-168.190637	0.0879861854	-71.0380138999999	
	
80000000.	0.053476356	-81.1574464999999	0.935073995	167.634994	0.0173874136	61.6258448	0.0116343691	-94.9507832	
	0.935073995	167.634994	0.0531427579	-84.6291894000001	0.0116317255	-94.8682369	0.0172011066	63.3287876	
	0.0173874104	61.625851	0.0116317296	-94.8682353	0.0610285122	-78.6609395999999	0.930480682	167.703384	
	0.0116343733	-94.950781	0.0172011036	63.3287943	0.930480682	167.703384	0.0606480079	-82.0772701	
	
90000000.	0.0283648991	-71.083697	0.931955909	143.530608	0.0563337842	50.1603819	0.00941463351	-117.894993	
	0.931955909	143.530608	0.0279729327	-73.3967245000002	0.00941327514	-117.796974	0.0562744962	49.7193899	
	0.0563337846	50.1603824	0.00941327880000001	-117.79697	0.0350514084	-70.0570582	0.927495978	143.600774	
	0.00941463711	-117.89499	0.0562744966	49.7193904	0.927495978	143.600774	0.0346364551	-72.5576303999999	
	
100000000.	0.0301410464000001	-21.3925343	0.92745885	119.519041	0.0867084454	28.8657424	0.00868921873	-128.512014	
	0.92745885	119.519041	0.0312543719999999	-24.281296	0.0086900325	-128.403826	0.0866176207	27.8305063	
	0.0867084485	28.8657405	0.00869003574	-128.403828	0.0348151098999999	-27.8321452000001	0.923075296	119.588451	
	0.00868922197	-128.512016	0.0866176238	27.8305047	0.923075296	119.588451	0.0358663915000001	-30.5958547999999	
	
110000000.	0.0550974031999999	-15.0605756	0.922976985	95.6320798	0.103070554	6.70754262	0.010600969	-140.705119	
	0.922976985	95.6320798	0.0567458038000001	-19.830992	0.0106035706	-140.597562	0.102919129	5.22341581	
	0.103070532	6.70752364	0.0106036029	-140.597619	0.0598072508000001	-18.9190967	0.918575622	95.6991964	
	0.0106010017	-140.705178	0.102919107	5.22339704	0.918575622	95.6991964	0.061505239	-23.5209695	
	
120000000.	0.0792306112999999	-26.90217	0.919718303	71.8288195	0.10289033	-15.3134974	0.0139679802	-164.380755	
	0.919718303	71.8288195	0.0808241305999999	-32.4540197	0.0139716367	-164.270667	0.102673709	-17.2916117	
	0.102890289	-15.31353	0.0139716908	-164.270755	0.0855212356999999	-29.2007688	0.91524368	71.8972383	
	0.0139680348	-164.380844	0.102673669	-17.2916441	0.91524368	71.8972383	0.0871864616000001	-34.6342887	
	
130000000.	0.096673751	-43.373944	0.91806285	48.0343129	0.0863286826	-36.5973254	0.0173105457	164.748206	
	0.91806285	48.0343129	0.0978759426	-49.4384195	0.0173153374	164.865787	0.0860338296	-39.2870142	
	0.0863286352	-36.5973693	0.0173154093	164.865714	0.104601274	-44.8412233	0.91349656	48.1088983	
	0.0173106182	164.748132	0.0860337834	-39.2870579	0.91349656	48.1088983	0.105867563	-50.8117651	
	
140000000.	0.104628482	-61.5474974	0.91748258	24.183064	0.056056741	-55.4438161	0.0197177385	130.791251	
	0.91748258	24.183064	0.105222127	-68.0194241	0.0197242808	130.919289	0.0555824854	-59.5725661	
	0.0560567016	-55.4438708	0.0197243657	130.919252	0.113778164	-62.4546383	0.912852743	24.2682381	
	0.0197178239	130.791214	0.0555824478	-59.5726209	0.912852743	24.2682381	0.114411989	-68.8486065	
	
150000000.	0.101414586	-80.1781688	0.916942022	0.252340795	0.0182790967	-54.5198851	0.0206432758	96.0884638	
	0.916942022	0.252340795	0.101294699	-87.0004459	0.0206524684	96.2289176	0.016737263	-64.636414	
	0.0182790734	-54.5199509	0.02065256	96.2289272	0.11116909	-80.6248005	0.912314074	0.350511974	
	0.0206433678	96.0884731	0.0167372428	-64.6364881	0.912314074	0.350511974	0.111053693	-87.3808025	
	
160000000.	0.08698424	-97.9774822	0.915497218	-23.729859	0.0299400301	48.52106	0.0198907971	62.5150022	
	0.915497218	-23.729859	0.0861498136	-105.083337	0.0199036682	62.6689589	0.0290554157	52.5094494	
	0.0299400151	48.5210294	0.0199037609	62.6690203	0.0966625908	-98.0059265	0.910948663	-23.6191144	
	0.0198908901	62.5150636	0.0290554013	52.5094179	0.910948663	-23.6191144	0.0957922068	-105.054062	
	
170000000.	0.0635456872	-112.348188	0.912827912	-47.7031074	0.0685667122	37.2566382	0.0177511204	32.3987567	
	0.912827912	-47.7031074	0.0621308257999999	-119.514261	0.0177687214	32.5645683	0.0682084946	37.6195001	
	0.0685666751	37.2565898	0.0177688132	32.5646799	0.072545203	-112.105144	0.908417043	-47.5827395	
	0.0177512123	32.3988685	0.0682084571	37.6194515	0.908417043	-47.5827395	0.0710603706	-119.235641	
	
180000000.	0.036575742	-113.885244	0.909429114	-71.6121867	0.0979637765	17.351753	0.0151966256	8.9995543	
	0.909429114	-71.6121867	0.0350918163999999	-119.897877	0.0152196005	9.16584507	0.0976870204	16.4072415	
	0.0979637215	17.3516992	0.0152196946	9.16598073	0.0444538238	-114.974645	0.905172385	-71.4863889	
	0.0151967198	8.99969028	0.0976869653	16.4071878	0.905172385	-71.4863889	0.0428628621999999	-121.22074	
	
190000000.	0.0252490359	-70.6081070000001	0.906275015	-95.4438806	0.112615845	-3.91541644	0.0139567294	-5.97241537	
	0.906275015	-95.4438806	0.0258255758	-74.5615949000001	0.0139833052	-5.83133539	0.112289076	-5.78798907	
	0.112615782	-3.91547262	0.0139834053	-5.8312513	0.0296709454	-81.1875917999998	0.902142988	-95.3164391	
	0.0139568295	-5.97233112	0.112289014	-5.78804512	0.902142988	-95.3164391	0.0299037087	-85.31433	
	
200000000.	0.0466397498999999	-48.1355850000001	0.904133328	-119.235522	0.110006354	-25.2036834	0.0154043551	-19.6830668	
	0.904133328	-119.235522	0.0481886441	-55.7697029000002	0.0154301814	-19.567139	0.109557206	-28.0334057	
	0.110006293	-25.2037405	0.0154302824	-19.5671404999999	0.0484944554999999	-54.8341353000001	0.900064739	-119.108441	
	0.0154044561	-19.6830684	0.109557146	-28.0334628	0.900064739	-119.108441	0.0500640049	-62.1740618	
	
210000000.	0.0723283867	-56.8227877	0.903043709	-143.046795	0.0904960996	-45.5195215	0.0187678689	-40.8498274	
	0.903043709	-143.046795	0.0735016573999999	-65.6672903	0.0187923766	-40.7286518	0.0898422899	-49.6955639	
	0.0904960492	-45.5195789	0.0187924726	-40.7286788	0.0753744994	-60.6880148	0.898970426	-142.919599	
	0.0187679649	-40.8498543	0.0898422414	-49.6956214	0.898970426	-142.919599	0.0766751476	-69.4174031999999	
	
220000000.	0.0915185238	-72.8902726	0.902344208	-166.917326	0.0573871771	-62.0844983	0.0222705287	-68.8807029	
	0.902344208	-166.917326	0.0919588219	-82.4082900999998	0.0222968909	-68.7386802	0.0562270583	-69.0317187	
	0.0573871424	-62.084556	0.0222969794	-68.7386936	0.0965259363	-75.5565986	0.898218174	-166.787247	
	0.0222706172	-68.8807161	0.0562270263	-69.0317775	0.898218174	-166.787247	0.0971062909	-85.0201672	
	
230000000.	0.10016997	-91.2407257000001	0.901164972	169.157643	0.01973494	-48.9329354	0.0245957982	-100.405887	
	0.901164972	169.157643	0.0997392955000001	-101.376625	0.024627938	-100.239293	0.0155871465	-65.1328573	
	0.0197349199	-48.9329816	0.0246280169	-100.239283	0.107078576	-93.2600081999999	0.89697755	169.294592	
	0.024595877	-100.405877	0.0155871296	-65.1329177	0.89697755	169.294592	0.106764167	-103.359861	
	
240000000.	0.0965977958	-109.954762	0.898985116	145.220655	0.0363869174	32.7265098	0.025070071	-132.781578	
	0.898985116	145.220655	0.0952441743000001	-120.795816	0.0251117066	-132.590805	0.0341411216	39.9651096	
	0.0363869085	32.7264825	0.0251117742	-132.590774	0.104989325	-111.585875	0.894769977	145.36806	
	0.0250701385	-132.781547	0.0341411138	39.9650818	0.894769977	145.36806	0.103707612	-122.379783	
	
250000000.	0.0815756817	-127.431977	0.895923965	121.325404	0.0756290943	23.7673979	0.0236561741	-163.787697	
	0.895923965	121.325404	0.0792873191999999	-139.137841	0.0237104607	-163.577668	0.0745614207	25.6488306	
	0.0756290769	23.7673634	0.0237105173	-163.577619	0.0908297806	-128.917777	0.891741306	121.485014	
	0.0236562305	-163.787647	0.074561403	25.648796	0.891741306	121.485014	0.088562565	-140.526299	
	
260000000.	0.0582507237999999	-140.773196	0.892686224	97.5059576	0.105716338	5.19968175	0.0209910959	169.014897	
	0.892686224	97.5059576	0.0550407186	-153.493987	0.0210598209	169.226452	0.104956452	4.95337728	
	0.105716315	5.19964857	0.0210598688	169.226511	0.0676247911999999	-142.754192	0.888596685	97.6770812	
	0.0209911437	169.014957	0.104956429	4.95334414	0.888596685	97.6770812	0.0644029792999999	-155.27917	
	
270000000.	0.0328573969000001	-139.180573	0.890189982	73.7539941	0.120938056	-15.1837356	0.0184283231	148.155482	
	0.890189982	73.7539941	0.0287710216000001	-151.541833	0.0185086795	148.323252	0.120217139	-16.9178389	
	0.120938033	-15.1837655	0.0185087223	148.323305	0.0411330266999999	-145.252709	0.88623137	73.933883	
	0.0184283658	148.155536	0.120217115	-16.9178688	0.88623137	73.933883	0.0370387589999999	-157.911613	
	
280000000.	0.0253467708	-94.1618887999998	0.889006038	50.0182167	0.118697742	-35.8036805	0.0177381925	132.979959	
	0.889006038	50.0182167	0.0232770774000001	-97.6665989999998	0.0178176941	133.058666	0.117839533	-39.0139696	
	0.118697721	-35.8037064	0.0178177326	133.058694	0.0273816526	-111.446439	0.885181452	50.2031536	
	0.0177382309	132.979987	0.117839512	-39.0139955	0.885181452	50.2031536	0.0243582288	-116.918733	
	
290000000.	0.0456964603	-77.0004668	0.888939977	26.2332165	0.0991890111	-55.5482992	0.0196341204	116.427139	
	0.888939977	26.2332165	0.0456532383	-84.8633150000001	0.0196998549	116.457932	0.0980080089	-60.7310947	
	0.0991889953	-55.5483206	0.0196998867	116.457937	0.0439848255	-85.5853510999999	0.885219272	26.4199113	
	0.0196341522	116.427143	0.0980079936	-60.7311165	0.885219272	26.4199113	0.0436051287	-93.1984397999998	
	
300000000.	0.067267552	-86.7052379	0.889099133	2.36183722	0.0656443096	-71.6501216	0.0228522278	93.5121565	
	0.889099133	2.36183722	0.0671103431	-97.3741315	0.0229056474	93.5624283	0.0636671731	-80.600301	
	0.0656442991	-71.6501386	0.0229056709	93.5624268	0.0666146923	-91.6612703999999	0.885432441	2.54868868	
	0.0228522513	93.5121551	0.0636671631	-80.6003191	0.885432441	2.54868868	0.0664641103	-102.295257	
	
310000000.	0.0808789775	-102.853587	0.888442395	-21.5802127	0.0268829823	-64.7015031	0.0256382789	65.5538961	
	0.888442395	-21.5802127	0.0799719559	-115.498199	0.0256893129	65.6494835	0.0210910097	-85.3073265	
	0.0268829754	-64.7015137	0.025689328	65.649483	0.0823804064	-106.559067	0.8847817	-21.3925271	
	0.025638294	65.5538957	0.0210910032	-85.3073435	0.8847817	-21.3925271	0.0816350440000001	-119.251472	
	
320000000.	0.0835334218999999	-120.610886	0.886412419	-45.5348497	0.0345431032	12.4764343	0.0268726527	35.4066062	
	0.886412419	-45.5348497	0.0815757704	-135.261123	0.0269325287	35.5496626	0.029855952	26.1081383	
	0.034543101	12.476438	0.0269325359	35.5496629	0.0873692476	-123.861266	0.882732241	-45.3438248	
	0.0268726599	35.4066066	0.0298559515	26.1081451	0.882732241	-45.3438248	0.0856701410999999	-138.544651	
	
330000000.	0.0751770124	-137.757171	0.883229371	-69.4356151	0.0742010702	9.59175131	0.026239167	5.54334217	
	0.883229371	-69.4356151	0.0719025744000001	-154.919246	0.0263180877	5.72472083	0.0720219887	14.2156151	
	0.0742010679	9.59175606	0.0263180881	5.72471932000001	0.0810805948999999	-141.070302	0.879535637	-69.2381997	
	0.0262391674	5.54334066	0.0720219874	14.2156208	0.879535637	-69.2381997	0.0781494212000001	-158.134976	
	
340000000.	0.0582694307	-151.830685	0.879753401	-93.2424471	0.106263433	-7.39916823	0.0241810363	-21.8125971	
	0.879753401	-93.2424471	0.0532772271	-172.587824	0.024286215	-21.6192757	0.10471244	-6.19138218	
	0.10626343	-7.39915923	0.0242862094	-21.6192821	0.0656132586	-156.06224	0.876076659	-93.0364247	
	0.0241810308	-21.8126036	0.104712439	-6.19137263	0.876076659	-93.0364247	0.0611053343	-176.368584	
	
350000000.	0.0375712580000001	-156.626198	0.877049491	-116.962923	0.12407852	-26.9768887	0.0218027081	-44.7038678	
	0.877049491	-116.962923	0.0298780658	177.555828	0.0219333882	-44.5583933	0.12269181	-28.0024812	
	0.124078517	-26.9768748	0.0219333768	-44.5584058000001	0.0450995504999999	-164.614242	0.873429001	-116.747741	
	0.0218026967	-44.7038805	0.122691808	-28.0024669	0.873429001	-116.747741	0.0383140624	170.389252	
	
360000000.	0.0237248631	-132.568234	0.875833736	-140.651199	0.124896691	-47.0651852	0.0205654749	-62.978224	
	0.875833736	-140.651199	0.0129243826	-141.187489	0.0207046753	-62.9571441	0.123397113	-50.1774114	
	0.124896688	-47.0651663	0.0207046573	-62.9571585	0.0272826101	-153.000572	0.872301561	-140.428067	
	0.0205654569	-62.9782386	0.12339711	-50.1773923	0.872301561	-140.428067	0.0166970858000001	-176.222844	
	
370000000.	0.0319357099	-101.988772	0.876060514	-164.380933	0.108651532	-66.5470323	0.0213569891	-80.4471777	
	0.876060514	-164.380933	0.0275041412	-99.1339642999997	0.0214767453	-80.5453682	0.106764948	-72.249856	
	0.108651529	-66.5470081	0.0214767204	-80.5453773	0.0279598302	-118.166966	0.872630542	-164.152268	
	0.0213569643	-80.4471867	0.106764945	-72.2498321	0.872630542	-164.152268	0.0211422441	-114.855975	
	
380000000.	0.0475253108	-103.331546	0.876918917	171.795583	0.0780382494	-83.3389928	0.0235837154	-101.591699	
	0.876918917	171.795583	0.0454089624	-109.349187	0.02366994	-101.718248	0.0752375738	-93.423286	
	0.0780382466	-83.3389634	0.0236699091	-101.718251	0.0422021641	-111.522507	0.873583226	172.027175	
	0.0235836845	-101.591701	0.07523757	-93.4232573	0.873583226	172.027175	0.0392008021	-116.527714	
	
390000000.	0.0579131555	-115.722129	0.877275917	147.876533	0.0397206798	-87.4274842	0.0258227043	-126.928412	
	0.877275917	147.876533	0.0559326042	-127.77373	0.0258814978	-127.014582	0.0337108847	-109.16248	
	0.0397206787	-87.4274488	0.0258814621	-127.014583	0.053758382	-121.470472	0.874010581	148.109349	
	0.0258226686	-126.928413	0.0337108813	-109.162446	0.874010581	148.109349	0.0515891917999999	-133.376332	
	
400000000.	0.0595195555999999	-130.747621	0.87629108	123.909949	0.0263212501	-22.8946483	0.0269575615	-154.489346	
	0.87629108	123.909949	0.0566872835	-148.446931	0.0270053145	-154.509798	0.0155075176	4.59590493	
	0.0263212507	-22.8946129	0.0270052753	-154.509801	0.0573530278999999	-135.917818	0.873069726	124.143742	
	0.0269575224	-154.489349	0.0155075192	4.59594581999999	0.873069726	124.143742	0.0548590501	-153.934362	
	
410000000.	0.0523360075000001	-144.606895	0.873836944	99.9670381	0.0616854829	-7.22343084	0.0266242931	178.024899	
	0.873836944	99.9670381	0.0477527456999998	-169.551984	0.0266808143	178.069156	0.0577758623	3.59592111	
	0.0616854794	-7.22339172	0.0266807725	178.069148	0.0523150388	-150.32591	0.870643775	100.20271	
	0.0266242514	178.024891	0.057775861	3.59596221000001	0.870643775	100.20271	0.0486774560000001	-175.78325	
	
420000000.	0.0392317194999999	-152.64506	0.87053784	76.1063243	0.0953481372	-20.981895	0.0252410643	152.631567	
	0.87053784	76.1063243	0.0313048698000001	170.583571	0.0253243518	152.713333	0.0927520908	-16.5968496	
	0.0953481289	-20.9818515	0.0253243075	152.713321	0.0408178460000001	-160.773047	0.867371346	76.3450736	
	0.0252410201	152.631554	0.092752085	-16.5968049	0.867371346	76.3450736	0.0348574643999999	162.038778	
	
430000000.	0.0266763233999999	-144.403469	0.867444385	52.3448484	0.116796987	-39.4103688	0.0238189367	130.53843	
	0.867444385	52.3448484	0.0110688852999998	161.008794	0.0239365785	130.593482	0.114533074	-38.6405042	
	0.116796974	-39.4103214	0.0239365308	130.59347	0.0277364685000001	-159.390043	0.864311542	52.5874191	
	0.0238188891	130.538418	0.114533063	-38.6404561	0.864311542	52.5874191	0.0165679620000001	140.372724	
	
440000000.	0.0258327234	-118.024167	0.865497893	28.6495624	0.122792364	-58.9133773	0.0234527121	110.952551	
	0.865497893	28.6495624	0.0111669733	-79.9964782999995	0.023591574	110.90306	0.120430621	-61.1728776	
	0.122792347	-58.9133263	0.0235915224	110.903056	0.0221854299999999	-136.274736	0.862405611	28.8959494	
	0.0234526605	110.952547	0.120430606	-61.1728263	0.862405611	28.8959494	0.00266155595	-74.8067391999999	
	
450000000.	0.0355851267	-109.385317	0.865058113	4.9548058	0.112913148	-78.1811718	0.0245172989	90.9564039	
	0.865058113	4.9548058	0.0285241842	-90.5505504	0.0246475606	90.7854872	0.110117032	-83.8358517	
	0.112913129	-78.1811174	0.0246475053	90.7854946	0.0284395656	-120.030765	0.862007019	5.20439628	
	0.0245172435	90.9564115	0.110117015	-83.8357974	0.862007019	5.20439629	0.019276363	-88.5955386000001	
	
460000000.	0.0442765317	-116.601105	0.865748931	-18.8036823	0.0891509385	-95.7519821	0.0263544549	68.2549546	
