!!!!!!!!!!!!!!!!!!!!!!!!!!!!!!!!!!!!!!!!!!!!!!!!!!!!!!!!!!!!!!!!!!!!!!!!!!!!!!!!!!!!!!!!!
!!
!! Reference: shanbhag_3dj_01_2305.pdf
!!
!!!!!!!!!!!!!!!!!!!!!!!!!!!!!!!!!!!!!!!!!!!!!!!!!!!!!!!!!!!!!!!!!!!!!!!!!!!!!!!!!!!!!!!!!
!!
!! CHANNEL DESCRIPTION: TP0_TP5 CR Channel using 1meter DAC, PCB Host
!! MODEL DESCRIPTION: s4p, FEXT2
!! CONNECTOR DESCRIPTION: OSFP 200G SMT
!! CABLE DESCRIPTION: 1meter 26AWG Cable
!! MODEL STATUS: Developmental
!!
!! PORT DEFINITIONS: 
!! Port   1    ----->  Side A	      Side B  <-----  Port   2
!! Port   3    ----->  Side A	      Side B  <-----  Port   4
!!

# HZ S MA R 50.000000 


0.	0.0371102121	1.58739773e-12	0.000464703961	-180	0.00839518724	-4.57468805e-12	3.55642897e-05	180	
	0.000464704098	-180	0.0407318699000001	1.25876722e-12	0.000364115276	-180	0.0081317705	5.75657111e-13	
	0.00839394716	-1.64020233e-12	0.00036410145	-180	0.0424233557	6.78056517e-13	0.000166976514	-180	
	3.55653306e-05	-180	0.00813163024	-1.31209293e-12	0.00016698819	180	0.0380807848	5.35307797e-13	
	
10000000.	0.0576632409999999	18.7936749	0.000513471924	173.549347	0.0424008167	56.4935257	0.000144438857	-133.386479	
	0.000513472096	173.549241	0.0596599944	17.551014	0.000411781437	179.812798	0.0422181873	57.4106348	
	0.0424008228	56.4935333	0.00041178173	179.812705	0.0640302316	17.3710664	0.000226956026	-165.665066	
	0.000144439148	-133.387571	0.0422181693	57.4106788	0.00022695621	-165.66509	0.0572537569999999	17.9629011	
	
20000000.	0.0817844676000001	10.1082679	0.000595480128	159.392813	0.07620316	35.5810368	0.000256898806	-157.488048	
	0.000595479872	159.392734	0.0828841353	10.0416859	0.000512066035	166.949638	0.0762217392	36.8665582	
	0.0762030778	35.58095	0.000512067086	166.949645	0.0893035023000001	9.26462464999999	0.000325280316	-176.865066	
	0.000256898058	-157.488363	0.0762217662	36.8668588	0.000325280895	-176.864745	0.0797492294000001	10.1536246	
	
30000000.	0.0994941477999999	-5.56068863000001	0.000656357985	141.544726	0.0959198391	12.3948739	0.000337763932	179.339337	
	0.000656357428	141.544662	0.0999346316	-4.37468351	0.000581671061	149.307543	0.0965653106	14.1359715	
	0.0959198472	12.3948732	0.000581671369	149.307462	0.1081933	-5.87515580999999	0.000399169683	166.978404	
	0.000337762373	179.339036	0.0965652722	14.1360199	0.00039916993	166.978376	0.0961341977	-4.4186058	
	
40000000.	0.10861466	-23.4586835	0.000694257138	124.906487	0.0985198419	-11.1294998	0.000409540141	160.163648	
	0.000694256266	124.906446	0.108655742	-21.0154665	0.000625295065	133.805804	0.100146916	-8.90836927	
	0.0985198576	-11.1295047	0.000625294878	133.805814	0.118137641	-23.3000657	0.000472391817	153.532842	
	0.00040953803	160.163505	0.100146845	-8.90832583	0.000472391647	153.532802	0.104470087	-21.1503846	
	
50000000.	0.108248202	-42.2036197	0.000758060178	111.191943	0.0836864356	-34.5618853	0.000512570342	142.63545	
	0.00075805926	111.191942	0.108236488	-38.4663455	0.000707461348	121.889953	0.0864527741	-31.819303	
	0.0836864475	-34.5618911	0.000707461229	121.889956	0.118098736	-41.6100992	0.000605704582	140.442982	
	0.000512568205	142.635431	0.0864527328	-31.8192552	0.000605704397	140.442953	0.10403598	-38.6775341	
	
60000000.	0.0979428249	-60.9619622	0.000908095599	96.7544502	0.0537885899	-57.1283459	0.000670950215	121.94624	
	0.000908094984	96.7544755	0.0982687094000001	-55.8549318	0.000896665458	107.868122	0.0575761441	-53.7958848	
	0.0537885981	-57.1283543	0.000896665041	107.868121	0.107522487	-59.9086163	0.000827994501	121.544629	
	0.000670948365	121.946272	0.0575761223	-53.7958306	0.000827994296	121.544609	0.0944428892	-56.1698862	
	
70000000.	0.0782858184	-78.2677424	0.00114572735	76.8815468	0.0141322715	-68.6314836	0.000866967479	96.199166	
	0.00114572701	76.8815735	0.0793170519	-71.6510706	0.00118229918	86.8067063	0.0184730796	-66.6902043	
	0.014132275	-68.6315112	0.00118229868	86.8067118	0.0870266214	-76.6675677	0.00110309193	95.8812192	
	0.000866966004	96.1992043	0.0184730715	-66.6900911	0.00110309175	95.8812098	0.0761961141	-72.1527341999999	
	
80000000.	0.0520749309	-89.7552437999999	0.00140704328	51.4836519	0.0300843772	61.210934	0.0010541111	66.7781923	
	0.00140704253	51.4836779	0.0541580639	-81.4649774000001	0.00148772101	59.8493518	0.0262953661	61.8093997	
	0.0300843745	61.2109384	0.00148772066	59.8493561	0.0596760006	-87.6247969	0.00136235471	66.0121734	
	0.00105410981	66.778255	0.0262953809	61.8093842	0.00136235465	66.0121722	0.0518707259	-82.3537599999999	
	
90000000.	0.0282043028	-76.3655680999998	0.00161591295	23.0680474	0.0683478024	41.2030462	0.00118525109	35.9937392	
	0.00161591352	23.0680298	0.0316162734	-68.6375354	0.0017301172	29.9836238	0.0657119818	44.6057152	
	0.0683478027	41.2030466	0.00173011695	29.9836235	0.0348246628	-76.8114028000001	0.00154089043	34.661074	
	0.00118524921	35.9937694	0.0657119925	44.6057259	0.00154089051	34.6610735	0.0296810328	-69.9401919999999	
	
100000000.	0.0336480331	-31.9516608	0.00172532834	-5.79649326	0.0948571428	17.8759417	0.00123707965	6.06665224	
	0.00172532797	-5.79647851	0.0357309416	-29.1431447	0.00185693377	-0.262200393	0.094513215	22.2493423	
	0.0948571459	17.8759402	0.00185693345	-0.262196965	0.038030894	-38.1731486	0.00160498936	4.1576202	
	0.00123707852	6.06667865	0.0945132197	22.2493517	0.00160498941	4.15761256	0.0332712867	-28.5510553	
	
110000000.	0.0589314372	-29.89617	0.00173460427	-32.9730734	0.104880288	-5.77872552	0.00122237394	-21.0265281	
	0.00173460395	-32.9730562	0.0599370164	-24.5986832	0.00186028964	-28.8444319	0.107619466	-0.621996351	
	0.104880266	-5.77874489	0.00186029015	-28.8444667	0.063577156	-33.5460365	0.00156864244	-23.3266423	
	0.00122237534	-21.0265476	0.107619521	-0.621981573	0.00156864665	-23.3266965	0.0567477612	-23.7068287	
	
120000000.	0.0824474188999999	-43.5006572	0.00169195104	-56.7763242	0.0968343071	-29.165381	0.00119056221	-43.8514129	
	0.00169195076	-56.7763045	0.0836581992999999	-36.1989859	0.00178182138	-53.8822517	0.102974894	-23.2200441	
	0.0968342682	-29.1654146	0.00178182252	-53.8823193	0.0887120695	-45.7508987	0.00150098188	-45.8784957	
	0.00119056514	-43.8514958	0.102974974	-23.220009	0.00150098847	-45.8786355	0.0797358596999999	-35.4050948	
	
130000000.	0.0985588157	-61.4617807	0.00168501035	-76.6920579	0.0721805448	-51.6105987	0.00121507499	-62.8356619	
	0.00168501012	-76.6920339	0.100667106	-52.6133846	0.00171454516	-73.9567669	0.0814419559	-44.8108049	
	0.0721805046	-51.6106446	0.00171454678	-73.9568757	0.106456714	-62.962308	0.00151647899	-63.6157348	
	0.00121507844	-62.8358146	0.0814420342	-44.810732	0.00151648579	-63.6159773	0.0962725529000001	-51.9202251	
	
140000000.	0.104351254	-81.069806	0.00180371932	-94.9930804	0.0352194069	-69.5380089	0.00135168631	-81.6431448	
	0.00180371926	-94.9930522	0.1077738	-70.865501	0.00178644104	-90.4926933	0.0466870523	-62.4710701	
	0.0352193798	-69.5380696	0.00178644251	-90.4928508	0.113449942	-82.0632675	0.00170605853	-81.1239231	
	0.0013516896	-81.6433407	0.0466871149	-62.4709062	0.00170606412	-81.1242057	0.10328277	-70.2751523	
	
150000000.	0.0983409421	-100.992587	0.00206441827	-115.735588	0.0118047008	36.7158542	0.00158464108	-104.210127	
	0.00206441848	-115.735561	0.103173081	-89.509123	0.00206020375	-108.84305	0.0108607309	-20.2616379	
	0.0118046919	36.7158589	0.00206020429	-108.843235	0.108012522	-101.573219	0.00204131541	-103.305642	
	0.00158464408	-104.210331	0.0108608811	-20.2613971	0.00204132007	-103.305896	0.0989966987	-89.0410973	
	
160000000.	0.081112677	-119.710998	0.00238751604	-140.672785	0.0527259353	42.5060945	0.00183670116	-131.085796	
	0.0023875165	-140.672762	0.0870665957	-106.952223	0.00245610054	-132.40967	0.0436702817	43.359414	
	0.0527259063	42.5060498	0.00245609991	-132.409854	0.0906782156999999	-119.945888	0.00240405583	-130.45135	
	0.00183670398	-131.085992	0.043670377	43.3592493	0.00240406049	-130.451563	0.0835773745	-106.655339	
	
170000000.	0.0557450819	-133.85727	0.00266209208	-168.726568	0.0872034767	21.5953597	0.00202415953	-160.54617	
	0.00266209263	-168.726552	0.0622966744	-119.864303	0.00283329382	-160.195217	0.0813241364	26.6405876	
	0.0872034255	21.5953067	0.00283329234	-160.195388	0.0646100481999999	-134.071477	0.0026761329	-160.438194	
	0.00202416219	-160.546358	0.0813242475	26.6405179	0.00267613804	-160.438379	0.0597168504999999	-119.866507	
	
180000000.	0.0293901454	-128.973839	0.00280936911	162.056541	0.107631844	-1.32098135	0.00209761981	169.528876	
	0.00280936958	162.056553	0.0360455556	-116.120385	0.00308462634	170.073274	0.10693122	5.43530874	
	0.10763178	-1.32103811	0.00308462455	170.073117	0.0368831894	-132.56926	0.00278722937	168.970641	
	0.00209762217	169.528694	0.106931341	5.43527978	0.00278723483	168.970469	0.0341529107999999	-116.628567	
	
190000000.	0.0275678206	-78.3051566000001	0.00280960125	133.532732	0.110391914	-24.5913618	0.00205823873	141.061676	
	0.00280960153	133.532742	0.0313440643	-73.9439427	0.00316524084	140.323109	0.115971014	-16.5522999	
	0.110391848	-24.5914207	0.0031652392	140.322963	0.0300587337	-90.4581262	0.00273142133	139.752551	
	0.0020582406	141.061497	0.11597113	-16.5523014	0.00273142649	139.752377	0.029147392	-73.0163622000002	
	
200000000.	0.0519627046	-70.349385	0.00270425117	107.308886	0.0949572735	-47.544359	0.00195600883	115.675492	
	0.00270425129	107.308899	0.0550694562	-61.1182821999999	0.00308826731	112.122557	0.106988118	-38.2598978	
	0.0949572172	-47.5444191	0.00308826604	112.122415	0.0531568127	-76.5100655000001	0.00257030127	113.760549	
	0.00195601003	115.675316	0.106988215	-38.2598743	0.00257030529	113.760365	0.0521120675	-59.6566425	
	
210000000.	0.0752189065	-84.024113	0.00258776817	84.4809995	0.0639555921	-68.9037847	0.00187860762	94.1742739	
	0.00258776829	84.4810156	0.0806221097	-71.6948779999999	0.00292124528	86.9503935	0.0815986361	-58.4043479	
	0.0639555526	-68.9038464	0.0029212442	86.9502496	0.0780192388	-87.8347830999999	0.00242974322	92.2649023	
	0.00187860797	94.1741035	0.0815987085	-58.4042925	0.00242974532	92.2647135	0.0767641621	-70.3512986	
	
220000000.	0.0898267717	-102.962951	0.00258062008	64.5528775	0.0233615161	-78.7864919	0.00191976097	75.105749	
	0.00258062037	64.5528955	0.0984747025	-88.5573329	0.00279125183	65.7668499	0.0446752481	-71.8007604	
	0.0233614949	-78.786559	0.00279125041	65.7667039	0.094729446	-105.770768	0.0024601545	73.9686467	
	0.00191976044	75.1055967	0.0446753061	-71.8006395	0.00246015455	73.9684805	0.0939352325	-87.3137121999999	
	
230000000.	0.0927998299	-123.541461	0.0027553828	44.6586239	0.0251635709	34.9001262	0.00211084859	54.7500774	
	0.00275538332	44.6586395	0.104672574	-107.39776	0.0028481159	47.1583371	0.0161855252	-15.2066527	
	0.0251635645	34.9001023	0.00284811367	47.1582007	0.0996541247	-125.807346	0.00271969161	54.4214079	
	0.00211084737	54.7499537	0.0161856332	-15.2066894	0.00271969041	54.4212853	0.0998419697	-106.216981	
	
240000000.	0.083778377	-144.124748	0.00306696401	21.8774807	0.0656358211	23.7097412	0.00238491312	30.6468165	
	0.00306696462	21.8774919	0.0979964218	-126.303905	0.00313868721	27.0994741	0.0496726111	22.6920012	
	0.0656358027	23.709703	0.00313868427	27.0993608	0.0921163613	-146.089393	0.0031099791	30.6068181	
	0.00238491155	30.6467211	0.0496726695	22.6919121	0.00310997758	30.6067332	0.0933400064	-125.147792	
	
250000000.	0.0648370273	-163.093024	0.00338951882	-4.22606598	0.0965380541	2.45406128	0.0026319287	3.24891632	
	0.00338951939	-4.22605794	0.079939231	-143.450104	0.00354970864	3.16237267	0.0853461204	7.92779916	
	0.0965380275	2.45402334	0.00354970553	3.16228367	0.0740088780999999	-165.064069	0.00347138601	3.07077054	
	0.00263192707	3.24884366	0.0853461733	7.92776131	0.00347138468	3.07070916	0.0759187602999999	-142.264362	
	
260000000.	0.0399222407999999	-176.34799	0.0036056892	-32.3360117	0.112382227	-20.2820971	0.00276783172	-25.6807076	
	0.00360568964	-32.3360048	0.054477787	-154.941298	0.00392085133	-23.9597408	0.109017197	-12.0496437	
	0.112382198	-20.2821323	0.00392084852	-23.9598111	0.0491271746000001	-179.581456	0.00368281846	-26.2823646	
	0.00276783022	-25.6807627	0.109017245	-12.0496583	0.00368281739	-26.2824123	0.0514673880999999	-153.593235	
	
270000000.	0.0173490702000001	-157.94139	0.00365727307	-60.7629123	0.110658245	-43.3547925	0.00276500254	-54.306151	
	0.00365727339	-60.762905	0.0301604248	-145.012075	0.00414449602	-52.5595533	0.116661988	-33.1435059	
	0.110658219	-43.354824	0.00414449375	-52.55961	0.0242026401000001	-174.40203	0.00369584695	-55.559678	
	0.0027650013	-54.306192	0.116662028	-33.1435063	0.00369584608	-55.5597172	0.0283407501999999	-142.875133	
	
280000000.	0.0257129384	-101.558389	0.00355676595	-87.9201229	0.0916879085	-66.154097	0.00265442788	-81.0093823	
	0.0035567662	-87.9201145	0.0316088725	-100.967462	0.00418321033	-81.0872673	0.107232321	-54.0723361	
	0.0916878885	-66.1541245	0.00418320864	-81.0873133	0.0230477455	-119.401352	0.00353966683	-83.0188271	
	0.00265442692	-81.0094115	0.107232351	-54.072326	0.00353966602	-83.0188599	0.0303277809	-98.5707232999999	
	
290000000.	0.0465363261	-106.631182	0.003383633	-112.467804	0.0586957308	-87.2565935	0.00251666094	-104.57518	
	0.00338363326	-112.467795	0.0544244556	-95.3321637	0.00406231686	-108.177553	0.0825912882	-73.350108	
	0.0586957176	-87.2566174	0.00406231564	-108.177589	0.0434614098	-114.267609	0.00332039677	-107.126227	
	0.00251666025	-104.575199	0.0825913097	-73.350088	0.00332039596	-107.126253	0.0521431107	-93.5069272999999	
	
300000000.	0.0611435055	-124.576496	0.00326771406	-133.927387	0.0182003432	-92.9864547	0.00246120482	-125.040182	
	0.00326771439	-133.927377	0.0747881559	-108.071357	0.00387278557	-132.614698	0.0478007421	-85.7678015	
	0.0182003354	-92.9864771	0.00387278471	-132.614723	0.0600866460000001	-129.851636	0.00320249586	-127.528489	
	0.0024612044	-125.04019	0.0478007607	-85.7677687	0.00320249508	-127.528507	0.0712677598	-106.328381	
	
310000000.	0.0660165643	-145.634729	0.0033301192	-153.805015	0.0283460539	20.3418482	0.00256876738	-144.728776	
	0.0033301196	-153.805006	0.0857497565999999	-125.554935	0.00376391752	-154.067139	0.0193337087	-47.4418102	
	0.0283460532	20.3418502	0.00376391699	-154.067153	0.0675163220999999	-150.158909	0.00332093792	-146.63656	
	0.00256876732	-144.728774	0.0193337334	-47.4418091	0.00332093732	-146.636568	0.0812349307	-123.720645	
	
320000000.	0.0607915028	-167.484519	0.00358687048	-175.039167	0.0659745587	5.89442679	0.0028191394	-166.725635	
	0.00358687092	-175.039159	0.0852464638000001	-144.123292	0.00386554944	-174.298635	0.0436155973	-1.02770348	
	0.0659745557	5.89442752	0.00386554935	-174.298637	0.0648544970000001	-171.865824	0.00365798417	-168.121649	
	0.00281913981	-166.725626	0.0436156019	-1.02771987	0.00365798395	-168.121651	0.0801838027	-142.052346	
	
330000000.	0.0472872851000001	171.095978	0.00393012662	160.7343	0.0931785368	-15.8022502	0.00310526834	167.998538	
	0.00393012706	160.734307	0.0740548256999999	-161.826431	0.00417072323	163.829742	0.07540326	-11.9309053	
	0.0931785324	-15.8022453	0.00417072366	163.829749	0.0535812030999999	166.335076	0.00406116068	166.75073	
	0.00310526928	167.99855	0.0754032576	-11.9309079	0.00406116095	166.750731	0.0690152702000001	-159.278303	
	
340000000.	0.0286826416000001	152.104528	0.00421718383	134.009494	0.105764305	-38.7178997	0.00331593617	140.486028	
	0.00421718424	134.0095	0.0551503466	-176.11098	0.00454444987	139.129543	0.0968633494	-30.4453471	
	0.1057643	-38.7178897	0.00454445082	139.129557	0.0365991872	145.639359	0.00436960416	139.056713	
	0.00331593764	140.486044	0.096863343	-30.4453457	0.00436960497	139.056715	0.05080344	-172.5257	
	
350000000.	0.00927202636000004	151.860932	0.00435057642	106.200997	0.102269084	-61.9584448	0.00338983016	112.343838	
	0.00435057679	106.201003	0.033718492	-179.393313	0.00484046041	112.32013	0.104308764	-50.6550154	
	0.102269079	-61.9584294	0.00484046183	112.32015	0.0174705326999999	130.640395	0.00448838244	110.484251	
	0.00338983211	112.343856	0.104308756	-50.6550145	0.00448838378	110.484254	0.0309995910000001	-173.143144	
	
360000000.	0.0120694057	-109.671043	0.00430571524	78.8215432	0.0837538937	-85.0899133	0.00332741227	85.0931355	
	0.00430571556	78.8215501	0.0222535122999999	-149.090906	0.00497208769	84.7351134	0.0971189825	-70.9085718	
	0.083753889	-85.0898923	0.00497208949	84.735141	0.00516860002	-159.178457	0.00440533836	82.6645909	
	0.00332741464	85.0931568	0.0971189737	-70.9085748	0.00440534023	82.6645953	0.0225097936	-141.247843	
	
370000000.	0.0253875025	-120.202965	0.004133758	53.2701013	0.0536305722	-107.213081	0.00318613411	60.0257751	
	0.0041337583	53.2701091	0.0331328556999999	-124.246687	0.00492612341	57.7174023	0.0772080662	-89.7139798	
	0.0536305682	-107.213054	0.00492612559	57.7174369	0.0171825267999999	-130.504188	0.00419213078	57.0893986	
	0.00318613691	60.0257992	0.077208058	-89.7139921	0.00419213318	57.0894035	0.0336302348999999	-121.318163	
	
380000000.	0.0322219316999999	-141.868235	0.00395481048	30.5048296	0.0173898569	-120.54671	0.00306903921	37.80526	
	0.00395481081	30.5048383	0.0477437884	-130.056415	0.00476642159	32.4818618	0.0490053768	-103.070474	
	0.0173898546	-120.546673	0.00476642415	32.4819026	0.0255543809000001	-150.451395	0.0039956084	34.6922193	
	0.00306904255	37.8052843	0.0490053667	-103.070507	0.00399561142	34.6922233	0.0467160762999999	-127.964955	
	
390000000.	0.0314076319000001	-166.331121	0.00391890739	10.0978548	0.020953922	6.49714153	0.00308637398	17.5131334	
	0.00391890781	10.0978636	0.0561470636999999	-144.736518	0.00462758358	9.67198067	0.0224396851	-88.0141955	
	0.0209539227	6.49717326	0.00462758654	9.67202522	0.0271723343999999	-176.195725	0.00398345104	14.664637	
	0.00308637798	17.5131528	0.0224396551	-88.0142639	0.0039834548	14.6646366	0.0534989993999999	-142.324562	
	
400000000.	0.0238399632999999	166.636239	0.00410841641	-10.2613749	0.0524549079	-9.69066431	0.0032778372	-3.37328665	
	0.00410841693	-10.2613671	0.0562020599	-161.543003	0.00465559695	-11.5249941	0.0294824322	-32.9517553	
	0.0524549055	-9.69062608	0.00465560029	-11.5249488	0.0227675277	153.43079	0.00422392417	-5.80571873	
	0.00327784186	-3.37327593	0.0294823929	-32.9517139	0.00422392879	-5.80572628	0.0522498691	-158.255891	
	
410000000.	0.0121005881	131.098561	0.00446284804	-32.8906066	0.0743930719	-32.1503715	0.00357427441	-26.7771571	
	0.0044628486	-32.8906002	0.0486393719	-177.579493	0.00489622764	-33.2573435	0.0527492499	-34.962271	
	0.0743930658	-32.1503281	0.00489623125	-33.2572983	0.0150490290000001	112.503655	0.00462237352	-28.996078	
	0.0035742796	-26.777154	0.0527492175	-34.962242	0.00462237898	-28.9960927	0.0440032983	-172.546383	
	
420000000.	0.00521333366999994	11.4242378000001	0.00483392889	-58.1975685	0.0839608845	-55.6092648	0.00385804904	-52.665399	
	0.00483392941	-58.1975629	0.0360868	170.443739	0.00525386492	-57.1014758	0.0693710517	-50.8832692	
	0.0839608752	-55.6092168	0.00525386871	-57.1014294	0.00994997875000001	42.0740534999999	0.00500997427	-54.9428766	
	0.00385805461	-52.6654002	0.0693710225	-50.8832562	0.00500998049	-54.9428967	0.0318354529999999	179.303929	
	
430000000.	0.0149791543	-57.3025058000001	0.00508898979	-85.1886533	0.0807139986	-79.4491854	0.00403800939	-79.9014373	
	0.00508899023	-85.1886475	0.0230143207000001	170.555759	0.00557569758	-83.0041828	0.0756004615	-69.8123411	
	0.080713987	-79.4491329	0.00557570153	-83.0041337	0.0130376928999999	-28.0747998000002	0.00525357467	-82.4178905	
	0.0040380152	-79.9014398	0.0756004355	-69.8123432	0.00525358146	-82.4179143	0.0213043596999999	-172.657085	
	
440000000.	0.0219834647	-88.0059555000002	0.00516252656	-112.51083	0.0662737595	-103.58903	0.00407908571	-107.174103	
	0.00516252693	-112.510823	0.0173248429	-165.231465	0.00574530143	-109.936459	0.0712984062	-89.1678343	
	0.0662737476	-103.588973	0.00574530552	-109.936407	0.0166181376	-68.4768962000002	0.00529918807	-109.983922	
	0.0040790917	-107.174105	0.0712983838	-89.1678542	0.00529919524	-109.983948	0.0202420411	-149.188705	
	
