!!!!!!!!!!!!!!!!!!!!!!!!!!!!!!!!!!!!!!!!!!!!!!!!!!!!!!!!!!!!!!!!!!!!!!!!!!!!!!!!!!!!!!!!!
!!
!! Reference: shanbhag_3dj_01_2305.pdf
!!
!!!!!!!!!!!!!!!!!!!!!!!!!!!!!!!!!!!!!!!!!!!!!!!!!!!!!!!!!!!!!!!!!!!!!!!!!!!!!!!!!!!!!!!!!
!!
!! CHANNEL DESCRIPTION: TP0_TP5 CR Channel using 1meter DAC, PCB Host
!! MODEL DESCRIPTION: s4p, FEXT2
!! CONNECTOR DESCRIPTION: OSFP 200G SMT
!! CABLE DESCRIPTION: 1meter 26AWG Cable
!! MODEL STATUS: Developmental
!!
!! PORT DEFINITIONS: 
!! Port   1    ----->  Side A	      Side B  <-----  Port   2
!! Port   3    ----->  Side A	      Side B  <-----  Port   4
!!
# HZ S MA R 50.000000 


0.	0.0415609759	1.40538809e-12	0.000463628694	-180	0.00831573711	-4.62187126e-12	3.50881294e-05	180	
	0.000463628829	-180	0.0451612241999999	1.14204089e-12	0.000361728594	-180	0.00805404579	5.94500159e-13	
	0.00831450656	-1.64572239e-12	0.000361714865	-180	0.0468326943999999	6.18447469000001e-13	0.0001654557	-180	
	3.50891552e-05	-180	0.0080539051	-1.30122733e-12	0.000165467269	180	0.0425400228999999	4.85868464000001e-13	
	
10000000.	0.0608050126999999	14.1463676	0.000511508251	171.134732	0.0452440646	55.0191737	0.000142932473	-135.666993	
	0.000511508428	171.134627	0.0628700654000001	13.0677661	0.000408127215	177.470593	0.045087307	55.8964483	
	0.0452440707	55.0191807	0.000408127509	177.4705	0.0671819051999999	13.0492298	0.000224784301	-167.999351	
	0.000142932765	-135.668097	0.0450872896	55.8964896	0.000224784488	-167.999376	0.0604676698000001	13.3497635	
	
20000000.	0.0834573004	4.34682546	0.000591150433	154.658417	0.0800514917	31.7273002	0.000253474568	-161.920239	
	0.000591150187	154.658338	0.0846151635999999	4.29257837	0.000505844465	162.45435	0.0801592587	32.9700363	
	0.0800514095	31.7272131	0.000505845522	162.454357	0.0909574465999999	3.66703476	0.00032069304	178.502228	
	0.00025347382	-161.920561	0.0801592878	32.9703322	0.00032069361	178.502549	0.0814899152999999	4.33471305	
	
30000000.	0.100022142	-12.2292887	0.000649304349	134.70345	0.0977722307	6.39196507	0.000333138962	172.97867	
	0.000649303802	134.703386	0.100513803	-11.0927143	0.000573928564	142.845392	0.0986188394	8.09185734	
	0.0977722388	6.39196402	0.000573928867	142.845309	0.108685248	-12.4984398	0.000391957646	160.461147	
	0.000333137402	172.978367	0.0986188019	8.09190499	0.000391957888	160.461118	0.0967205608999999	-11.1541219	
	
40000000.	0.10830499	-31.123936	0.000687676676	116.136026	0.0952744254	-19.1854062	0.000406866102	151.843638	
	0.000687675806	116.135985	0.108439901	-28.7463404	0.000619985021	125.410894	0.097226787	-16.9839933	
	0.0952744409	-19.1854112	0.00061998484	125.410903	0.117807789	-31.0188564	0.000467033425	145.283885	
	0.000406863992	151.843496	0.0972267172	-16.9839489	0.000467033254	145.283845	0.104253225	-28.84867	
	
50000000.	0.107264928	-50.9800853	0.000757984384	100.210889	0.0731721428	-44.4532331	0.000515153913	131.741698	
	0.000757983474	100.210889	0.107455317	-47.2976555	0.000708909727	111.085554	0.0763288225	-41.6632085	
	0.0731721545	-44.4532398	0.000708909606	111.085556	0.117132932	-50.5383921	0.000607689481	129.658539	
	0.000515151784	131.741678	0.0763287828	-41.6631546	0.000607689299	129.658511	0.103245581	-47.4281395	
	
60000000.	0.0962594024	-70.8587254	0.000914578764	82.7873748	0.0357816431	-67.2900602	0.000676077497	107.867209	
	0.000914578151	82.7873987	0.0969505609	-65.7778307	0.00090136674	94.0092506	0.0398832519	-63.7758642	
	0.0357816508	-67.2900734	0.000901366325	94.0092489	0.105896161	-70.070782	0.000833196071	107.47031	
	0.000676075647	107.867238	0.039883233	-63.7757847	0.000833195875	107.47029	0.0931088319	-65.9637145	
	
70000000.	0.0759795449	-88.9719334	0.00114559981	59.6793161	0.010795497	56.0786304	0.000863958358	78.9773666	
	0.00114559945	59.6793418	0.07755637	-82.3465568000001	0.00117666908	69.969	0.00790007957	39.0304548	
	0.0107954899	56.0786461	0.00117666858	69.9690048	0.0848086531	-87.811186	0.00109662161	78.6389427	
	0.000863956859	78.9774012	0.00790011417	39.0303728	0.00109662143	78.6389328	0.0744085207	-82.6594847	
	
80000000.	0.0498480808	-100.090448	0.00138128528	31.4925341	0.0540043715	48.2255545	0.00102958415	46.9182697	
	0.0013812845	31.4925583	0.0526398608	-91.8667770999999	0.00145638803	40.5459172	0.0508108648	50.2008705	
	0.0540043689	48.2255572	0.00145638768	40.5459212	0.0575373829	-98.8386512	0.00132645797	46.1490321	
	0.00102958282	46.9183301	0.0508108782	50.2008635	0.0013264579	46.1490304	0.0502968574	-92.4494387999999	
	
90000000.	0.028495116	-83.7430897000002	0.00155232636	0.942686206	0.087082248	23.5279329	0.00113183112	14.1742602	
	0.00155232693	0.94266869	0.0325288149	-77.2743338000001	0.00166610527	8.75879017	0.0858514537	26.8665637	
	0.0870822484	23.5279332	0.00166610502	8.75879005	0.0348391658	-86.3686092999998	0.00146559999	12.8566403	
	0.00113182922	14.174287	0.0858514642	26.8665729	0.00146560005	12.8566395	0.0305279359	-77.8536877000001	
	
100000000.	0.0370108618000001	-47.0585535999999	0.00162669773	-29.4289707	0.102673501	-2.09842502	0.00115962274	-17.014115	
	0.00162669732	-29.4289558	0.0394140839	-44.7137613000001	0.00176735386	-22.9767351	0.104426243	2.11270374	
	0.102673504	-2.0984265	0.00176735356	-22.9767319	0.0409146569999999	-53.2946486000001	0.00149612927	-18.8529643	
	0.00115962159	-17.0140878	0.104426248	2.11271156	0.0014961293	-18.8529719	0.0370169497000001	-43.8389322999999	
	
110000000.	0.0616013016	-49.1396206	0.00161937028	-57.5962926	0.0978212897	-27.6006206	0.00113839719	-44.792108	
	0.0016193699	-57.5962754	0.0631692081	-44.2198652	0.00176408294	-52.7784607	0.103097851	-22.5423276	
	0.0978212682	-27.6006414	0.00176408355	-52.7784938	0.0659601183	-52.8715066	0.0014503121	-46.8190548	
	0.00113839855	-44.7921284	0.103097901	-22.5423019	0.00145031616	-46.8191152	0.060049261	-43.1890851	
	
120000000.	0.0834878497	-65.0794733	0.00158961798	-82.2319878	0.0737123865	-52.2012172	0.00112550935	-68.3083068	
	0.00158961762	-82.2319666	0.0856058902	-58.0526	0.00170334367	-79.0325261	0.082380652	-46.1850037	
	0.0737123555	-52.2012541	0.00170334507	-79.0325951	0.0895009154	-67.5633487999999	0.00141255207	-69.6925812	
	0.00112551221	-68.3083945	0.0823807135	-46.1849383	0.00141255825	-69.6927366	0.0817655302	-57.1019371000001	
	
130000000.	0.096879919	-85.3527832	0.00162216696	-103.792381	0.035482121	-72.1393471	0.00118708668	-89.3285357	
	0.00162216669	-103.792354	0.100291477	-76.6300229	0.00167458809	-100.969508	0.0466733169	-65.5352602	
	0.0354820978	-72.1394022	0.00167458996	-100.969627	0.10453258	-87.1697353	0.00148906351	-89.3955663	
	0.00118709013	-89.3286925	0.0466733706	-65.5350948	0.00148906978	-89.3958121	0.0959894753	-75.7609462	
	
140000000.	0.0988261534	-107.234756	0.00177348309	-125.396136	0.0128796877	35.4045281	0.00134615879	-112.016813	
	0.00177348307	-125.396105	0.103833444	-96.9594806	0.0017782055	-120.813986	0.0112174924	-17.7088631	
	0.012879678	35.4045277	0.00177820705	-120.814156	0.107681299	-108.603328	0.00171659144	-111.226728	
	0.00134616228	-112.017012	0.0112176543	-17.7086874	0.00171659697	-111.226995	0.0994420632	-96.170439	
	
150000000.	0.0887210633	-129.186688	0.00201521088	-150.134186	0.0542258845	36.1318386	0.001555351	-138.738086	
	0.00201521115	-150.134159	0.0951381134	-117.323148	0.00203296665	-143.08217	0.0455188281	35.4997007	
	0.0542258533	36.1317946	0.00203296716	-143.082363	0.0981601914	-130.208475	0.00201952577	-137.900197	
	0.00155535431	-138.738299	0.0455189374	35.4995357	0.00201953097	-137.900439	0.091062767	-116.620104	
	
160000000.	0.0685131746	-149.477719	0.00225923853	-178.260465	0.0866244445	13.1965436	0.00173809042	-168.650982	
	0.00225923894	-178.260445	0.0757792822999999	-135.76564	0.00235214393	-169.598861	0.0811370121	16.6914056	
	0.0866243906	13.1964902	0.00235214336	-169.59905	0.0778767496	-150.283642	0.00228618932	-168.182787	
	0.00173809346	-168.651195	0.0811371356	16.6913342	0.00228619471	-168.183002	0.0723799316000001	-135.171048	
	
170000000.	0.0422661133	-163.667673	0.00242508016	151.790679	0.102544682	-11.5732715	0.00183881736	160.282791	
	0.00242508051	151.790694	0.0498891550000001	-147.680763	0.00263018125	160.910068	0.102257728	-6.35063578	
	0.102544615	-11.5733303	0.00263018005	160.909892	0.0509387724	-165.030076	0.00243814157	160.189843	
	0.00183881999	160.282582	0.102257857	-6.3506625	0.00243814716	160.189643	0.0473689753	-147.237807	
	
180000000.	0.0192412069000001	-145.294238	0.00247792528	121.860113	0.0990627447	-36.6170146	0.00184523871	130.044059	
	0.00247792546	121.860126	0.0272491475000001	-133.429017	0.00280270152	130.298755	0.104956159	-30.0674042	
	0.0990626785	-36.6170771	0.00280270017	130.29859	0.0256532204	-156.248812	0.00245313087	129.274498	
	0.00184524081	130.043854	0.104956276	-30.0673969	0.00245313622	129.274301	0.0253988732000001	-132.581537	
	
190000000.	0.0289016052	-95.2698181	0.0024368574	93.5543186	0.077075002	-61.0584383	0.00178976554	102.250198	
	0.00243685744	93.5543336	0.0337612358	-92.4503311000002	0.00285239486	100.071545	0.0890886397	-53.1784761	
	0.077074948	-61.058504	0.00285239363	100.071386	0.0287633655	-108.251105	0.0023692701	100.852827	
	0.00178976701	102.249997	0.0890887309	-53.1784318	0.00236927454	100.852623	0.031918924	-90.2450653999998	
	
200000000.	0.051282281	-102.430297	0.00236898854	67.9418709	0.0413523252	-81.8993703	0.00173962943	77.7140503	
	0.00236898861	67.9418899	0.0571714183	-93.6572208	0.0028031703	71.4738534	0.0583257975	-73.1259512	
	0.0413522908	-81.8994415	0.00280316914	71.4736937	0.0513976443	-108.788528	0.00228071232	76.0557062	
	0.00173963016	77.7138535	0.0583258634	-73.1258458	0.0022807152	76.0554992	0.0545023364	-91.7650011000001	
	
210000000.	0.0673353328	-122.305524	0.00236427812	44.7580283	0.00822306904	-14.5686146	0.00176865586	55.3921819	
	0.00236427837	44.7580488	0.0763337178	-109.926059	0.00272126705	45.4499362	0.0217382982	-70.4997026	
	0.00822305664	-14.5685875	0.00272126561	45.4497753	0.0695279667	-126.723958	0.00230145731	53.9763552	
	0.0017686557	55.3919974	0.0217383878	-70.4994341	0.00230145843	53.9761642	0.0727330527	-108.191156	
	
220000000.	0.0733514090000001	-145.385963	0.00247810418	21.9466526	0.0434046471	24.533377	0.00190395398	32.4197974	
	0.00247810462	21.9466704	0.0855762035	-130.159311	0.00270125783	21.8840415	0.0292252326	12.1001052	
	0.0434046329	24.5333365	0.00270125574	21.8838868	0.0778767488999999	-148.995933	0.0024783832	31.3748575	
	0.00190395295	32.419638	0.0292253242	12.0999194	0.002478383	31.3747015	0.0813018796999999	-128.452366	
	
230000000.	0.0691281691999999	-169.43632	0.00268389056	-2.70290696	0.0740664316	3.36516987	0.00209936053	6.74053394	
	0.00268389107	-2.70289331	0.0836233503999999	-151.310957	0.00280751996	-1.02041188	0.0617314907	3.73193467	
	0.0740664044	3.365124	0.00280751719	-1.02054812	0.0757597233	-172.626522	0.00274639671	5.83765244	
	0.00209935889	6.74040577	0.0617315616	3.73185362	0.00274639585	5.83753242	0.0790816535	-149.536552	
	
240000000.	0.0566178597999999	166.391652	0.00289934686	-29.6690087	0.0900724377	-20.701571	0.00227713132	-21.4089239	
	0.00289934734	-29.6689977	0.0718052543999999	-171.870343	0.00302021061	-25.3537085	0.083406193	-16.8375891	
	0.0900724044	-20.7016163	0.00302020748	-25.3538204	0.0648618093999999	163.444808	0.00299495048	-22.414503	
	0.0022771294	-21.4090228	0.0834062556	-16.8376265	0.00299494939	-22.4145958	0.0674592979	-169.917615	
	
250000000.	0.0388590308	142.745631	0.00304892341	-57.9892789	0.0890544701	-45.2841039	0.00238128673	-50.580642	
	0.00304892382	-57.9892688	0.0530511039000002	169.952111	0.00326325483	-51.7104806	0.0897403261	-39.4158796	
	0.0890544375	-45.2841467	0.00326325178	-51.7105707	0.0480517643000001	139.899856	0.00314378011	-51.8662875	
	0.00238128484	-50.5807168	0.0897403769	-39.4158907	0.00314377897	-51.8663612	0.0493570752000001	172.287192	
	
260000000.	0.019251792	122.162447	0.00310199257	-86.2660772	0.0719850042	-69.5408069	0.00240098005	-79.1992153	
	0.00310199294	-86.266067	0.0315262332	159.782145	0.00346712724	-79.4353118	0.0803611382	-62.0016125	
	0.0719849774	-69.5408467	0.00346712451	-79.4353846	0.0286161911999999	118.508992	0.00317230676	-80.8664655	
	0.00240097839	-79.199271	0.0803611756	-62.0016022	0.00317230558	-80.8665249	0.0289093867999999	163.177194	
	
270000000.	0.00345047538999992	167.774436	0.00308388009	-113.248331	0.0429955172	-91.5523464	0.0023717976	-106.040354	
	0.00308388046	-113.24832	0.0163843750000001	-175.566447	0.00359824142	-107.549261	0.058105976	-82.6157896	
	0.0429954986	-91.5523831	0.00359823913	-107.54932	0.010432347	112.939581	0.00312495083	-108.054712	
	0.00237179623	-106.040394	0.058106003	-82.6157548	0.00312494961	-108.054759	0.0154000587	-169.181832	
	
280000000.	0.0143872801	-135.405007	0.00306633217	-138.341859	0.0100910632	-85.1897122	0.00236134083	-130.749382	
	0.00306633258	-138.341848	0.0239178599	-139.800864	0.00366241147	-135.205109	0.0291662723	-93.0992618	
	0.0100910525	-85.1897318	0.00366240962	-135.205156	0.00922217746999986	-164.821889	0.00309671662	-132.935216	
	0.00236133972	-130.74941	0.0291663006	-93.0991839	0.00309671538	-132.935251	0.0232148319	-135.958084	
	
290000000.	0.0229583119	-158.212256	0.00312819078	-162.18565	0.0263707893	13.9293272	0.00243188042	-154.387816	
	0.00312819122	-162.18564	0.0366624252999999	-146.612162	0.00369790705	-161.933784	0.0149701983	-31.103501	
	0.0263707893	13.9293182	0.00369790562	-161.933819	0.0193253824	-172.826501	0.00317889083	-156.596537	
	0.00243187957	-154.387832	0.0149702385	-31.1035754	0.00317888965	-156.596561	0.0347843086000001	-143.358083	
	
300000000.	0.0258561916999999	173.597806	0.00329656014	173.612786	0.0509380903	-4.20727835	0.00259286642	-178.838031	
	0.0032965606	173.612794	0.044157218	-164.212795	0.00375224118	172.140686	0.0357801701	-12.5403764	
	0.0509380857	-4.20728871	0.00375224017	172.140662	0.0250810982000001	161.43099	0.00338512666	178.90615	
	0.00259286589	-178.838037	0.0357801824	-12.5404267	0.00338512568	178.906136	0.0410878454999999	-160.631278	
	
310000000.	0.0244413135999999	142.035273	0.00352546536	147.873865	0.0634047045	-27.3547614	0.00279378974	154.847802	
	0.00352546583	147.873872	0.0454110371	175.339615	0.00384809896	146.42769	0.0517509478	-29.2947257	
	0.0634046971	-27.354767	0.00384809839	146.427677	0.0269007963999999	131.3411	0.0036421489	152.449254	
	0.00279378965	154.847804	0.05175095	-29.2947488	0.00364214823	152.449247	0.0414416072	179.615546	
	
320000000.	0.0211290157	106.58367	0.00373644951	120.656318	0.0622042682	-51.0765835	0.00296655057	127.013907	
	0.00373644997	120.656324	0.0416151935000001	153.972081	0.00396981642	120.427303	0.0560577434	-50.7560608	
	0.0622042598	-51.0765825	0.00396981633	120.427301	0.0266003737	99.1668551	0.00385427229	124.442172	
	0.00296655098	127.013915	0.0560577396	-50.7560723	0.00385427205	124.442169	0.0371617712999999	159.26098	
	
330000000.	0.0183872387	68.3476765999997	0.00387237563	92.8582696	0.0489217439	-74.0453328	0.00306893635	98.7435548	
	0.00387237608	92.8582756	0.0347364548	132.213268	0.00408544926	94.1490466	0.0487027968	-72.8717928	
	0.0489217362	-74.0453234	0.00408544968	94.1490527	0.0259060933	67.2787200999999	0.00396482092	96.0782209	
	0.00306893729	98.7435662	0.0487027901	-72.8718006	0.00396482119	96.078222	0.0302485525	138.805911	
	
340000000.	0.0173833515999999	33.2845391000002	0.00392869332	65.5759369	0.0277487499	-93.317905	0.00310514672	71.1847389	
	0.00392869375	65.5759428	0.0268431751	109.972321	0.0041811951	68.011557	0.032603034	-92.9609253	
	0.0277487444	-93.3178817	0.00418119604	68.0115705	0.0257202834	38.9889026000001	0.00398479876	68.6226017	
	0.0031051482	71.1847529	0.0326030276	-92.9609389	0.00398479961	68.6226049	0.0227085234	117.898066	
	
350000000.	0.0177694023000001	7.87337907999997	0.00395878636	39.5660303	0.0066348242	-68.7446573	0.00312513904	45.0372704	
	0.00395878682	39.5660362	0.0196440378	86.4520441000002	0.00428034524	42.4112055	0.0132554167	-98.3387644	
	0.00663482737	-68.7445823	0.00428034668	42.4112246	0.0263216575	16.6844209	0.00399243042	42.8223931	
	0.00312514108	45.037285	0.0132554095	-98.3388173	0.00399243192	42.8223965	0.0161028807	94.7096365999995	
	
360000000.	0.0193856269	-7.75709538	0.0040466452	14.7057949	0.0182685228	8.31682973	0.00319824382	20.0378749	
	0.00404664569	14.7058004	0.0141649897	59.9666392000002	0.00443205461	17.2543408	0.0105691589	-15.4654648	
	0.0182685261	8.31683566	0.00443205648	17.2543643	0.0279694737	-0.0101026401	0.00409118642	18.2477433	
	0.00319824642	20.0378875	0.0105691398	-15.4654078	0.00409118862	18.2477442	0.0113739968	65.0370186999997	
	
370000000.	0.0224534479	-19.0242841	0.00424704522	-10.1106502	0.0304723076	-6.24746678	0.00336329512	-5.04124544	
	0.00424704575	-10.1106458	0.0106280111	29.2696873000001	0.00467045092	-8.16479934	0.0221943549	-17.1196082	
	0.0304723072	-6.24744688	0.00467045316	-8.16477206	0.0306393474000001	-13.815382	0.0043299877	-6.65241882	
	0.00336329825	-5.04123653	0.0221943329	-17.1195613	0.00432999062	-6.65242225	0.00902872091999999	25.6605665	
	
380000000.	0.0260936893	-30.7909611	0.00453783274	-36.1039759	0.0327912513	-24.4109666	0.00359469281	-31.4039197	
	0.00453783325	-36.1039727	0.00837289933000004	-3.17573930999998	0.00497461599	-34.6610091	0.025739715	-37.9822476	
	0.0327912484	-24.4109343	0.00497461856	-34.6609777	0.0333261731999999	-27.1104973000001	0.00465624927	-33.2183121	
	0.00359469642	-31.4039143	0.0257396883	-37.9822111	0.00465625288	-33.21832	0.00864699144000009	-16.0348036999998	
	
390000000.	0.028356039	-43.4787024	0.00483476398	-63.6273389	0.0258365633	-37.6141684	0.00382098941	-59.2928318	
	0.00483476442	-63.6273363	0.00588273892	-31.4046563	0.00526906246	-62.495398	0.0194372019	-63.0102905	
	0.0258365606	-37.6141191	0.00526906537	-62.4953622	0.0343265364	-39.9245967	0.00495541064	-61.542851	
	0.00382099344	-59.2928283	0.019437173	-63.0102682	0.00495541491	-61.5428623	0.00819746505999997	-52.2020955000003	
	
400000000.	0.0276377358	-54.2168149000001	0.00504904768	-92.097104	0.0154087043	-27.091903	0.00397288369	-88.0274871	
	0.00504904801	-92.0971011	0.00178634268999992	-24.6874107000012	0.00546421555	-91.1898616	0.0051498354	-100.69739	
	0.0154087094	-27.0918288	0.00546421878	-91.1898218	0.0324742345	-49.7516478	0.00512664814	-90.7017206	
	0.00397288812	-88.0274841	0.00514981102	-100.697517	0.00512665303	-90.7017341	0.00548438101	-86.9336457999992	
	
410000000.	0.0243993956	-57.1073184000001	0.00514074548	-120.45234	0.0181273935	14.3624019	0.00402439653	-116.489735	
	0.00514074574	-120.452336	0.00666968394000002	67.5307308999996	0.00550897632	-119.732748	0.0137936206	78.2256928	
	0.0181274058	14.362433	0.00550897982	-119.732705	0.028923048	-51.3905525	0.00514042909	-119.34349	
	0.00402440136	-116.489733	0.013793644	78.2257628	0.00514043461	-119.343505	0.00162881486	128.618369	
	
420000000.	0.0234007232	-46.2373189999999	0.0051490115	-147.651796	0.029836885	15.6942489	0.00401512785	-143.627256	
	0.00514901178	-147.651791	0.0174567976	48.8982899999998	0.00543507957	-146.918245	0.0312237405	49.4717834	
	0.0298368922	15.6942743	0.00543508322	-146.918201	0.0290043736	-41.9634418999999	0.00506820053	-146.212021	
	0.00401513308	-143.627256	0.0312237549	49.4718443	0.00506820674	-146.21204	0.0112573004	58.8001093000002	
	
430000000.	0.0306086233999999	-36.0774047000001	0.00518470726	-173.28304	0.0361622612	2.30095257	0.00404060071	-169.113114	
	0.00518470763	-173.283034	0.030280176	25.5837673	0.00537172772	-171.953885	0.0422397171	23.729049	
	0.036162262	2.30098377	0.00537173137	-171.953841	0.0375714105	-35.501317	0.00506678943	-170.951332	
	0.0040406063	-169.113119	0.0422397213	23.7291078	0.00506679641	-170.951357	0.0239674741000001	29.9066030999999	
	
440000000.	0.0430885545	-40.4510534	0.00536620012	161.87351	0.0327968998	-11.1669924	0.00419452237	166.083092	
	0.00536620059	161.873516	0.0428513136	1.62311072	0.0054931586	164.586113	0.0427748316	-0.785186961	
	0.0327968949	-11.1669538	0.00549316218	164.586156	0.050969394	-41.3141252	0.00528415363	165.078856	
