!!!!!!!!!!!!!!!!!!!!!!!!!!!!!!!!!!!!!!!!!!!!!!!!!!!!!!!!!!!!!!!!!!!!!!!!!!!!!!!!!!!!!!!!!
!!
!! Reference: shanbhag_3dj_01_2305.pdf
!!
!!!!!!!!!!!!!!!!!!!!!!!!!!!!!!!!!!!!!!!!!!!!!!!!!!!!!!!!!!!!!!!!!!!!!!!!!!!!!!!!!!!!!!!!!
!!
!! CHANNEL DESCRIPTION: TP0_TP5 CR Channel using 1meter DAC, PCB Host
!! MODEL DESCRIPTION: s4p, THRU
!! CONNECTOR DESCRIPTION: OSFP 200G SMT
!! CABLE DESCRIPTION: 1meter 26AWG Cable
!! MODEL STATUS: Developmental
!!
!! PORT DEFINITIONS: 
!! Port   1    ----->  Side A	      Side B  <-----  Port   2
!! Port   3    ----->  Side A	      Side B  <-----  Port   4
!!

# HZ S MA R 50.000000 


0.	0.0371314777	1.62190307e-12	0.958155333	-5.10832217e-14	0.00838046776	-3.62207592e-12	0.00882076566	-180	
	0.958155337	-5.10817272e-14	0.0371102121	1.58739773e-12	0.00882146113	-180	0.00839518724	-4.57468805e-12	
	0.00837916524	-6.71430773e-13	0.00882133435	180	0.0424364853000001	3.58011773999999e-13	0.953733982	7.54298552e-14	
	0.00882063573	-180	0.00839394716	-1.64020233e-12	0.953733978	7.54280327e-14	0.0424233557	6.78056517e-13	
	
10000000.	0.0573146266	18.8863369	0.950664524	-25.6170954	0.0424410699	56.6733306	0.00777464984	157.18213	
	0.950664524	-25.6170954	0.0576632409999999	18.7936749000001	0.00777394201	157.192773	0.0424008167	56.4935257	
	0.0424410759	56.6733382	0.00777395041	157.192779	0.0636884553	17.4826212	0.946087563	-25.6307128	
	0.00777465824	157.182135	0.0424008228	56.4935333	0.946087563	-25.6307128	0.0640302316	17.3710664	
	
20000000.	0.0809464046999999	10.7303052	0.94357892	-50.8525868	0.076282887	35.9073101	0.00999352097	125.613065	
	0.94357892	-50.8525868	0.0817844676	10.1082679	0.00999257275	125.63368	0.07620316	35.5810368	
	0.0762828038	35.9072213	0.00999255551999998	125.633745	0.0884656385000001	9.89039990999999	0.938810182	-50.858988	
	0.00999350377	125.61313	0.0762030778	35.58095	0.938810182	-50.858988	0.0893035023000001	9.26462464999999	
	
30000000.	0.0983283284000001	-4.35525223	0.937723408	-75.8649097	0.0960291454	12.8944419	0.0122001306	86.8535674	
	0.937723408	-75.8649097	0.0994941477999998	-5.56068863000002	0.0121987493	86.8839021	0.0959198391	12.3948739	
	0.0960291514	12.894439	0.0121987584	86.8839049	0.107023203	-4.67601183	0.93284608	-75.858081	
	0.0122001397	86.8535704	0.0959198472	12.3948732	0.93284608	-75.858081	0.1081933	-5.87515580999999	
	
40000000.	0.1073724	-21.6705502	0.934270638	-100.770905	0.0986451275	-10.4150529	0.0139460996	45.7749647	
	0.934270638	-100.770905	0.10861466	-23.4586835	0.0139442797	45.8151027	0.0985198419	-11.1294998	
	0.0986451419	-10.4150582	0.0139442835	45.8150754	0.116896116	-21.5271401	0.929344697	-100.749423	
	0.0139461033	45.7749366	0.0985198576	-11.1295047	0.929344696	-100.749423	0.118137641	-23.3000657	
	
50000000.	0.107203805	-39.8555789	0.933200908	-125.686653	0.0838197316	-33.5402484	0.0149440915	4.36033242	
	0.933200908	-125.686653	0.108248202	-42.2036197000001	0.0149419637	4.41038958	0.0836864356	-34.5618853	
	0.0838197434	-33.5402541	0.0149419697	4.41038745999998	0.117067949	-39.2872245	0.928284012	-125.649839	
	0.0149440974	4.36032947	0.0836864475	-34.5618911	0.928284012	-125.649839	0.118098736	-41.6100992	
	
60000000.	0.0973292701	-58.0939112999999	0.933448939	-150.698774	0.0539464065	-55.51812	0.0149444523	-36.1731738	
	0.933448939	-150.698774	0.0979428248999999	-60.9619622	0.0149422839	-36.1127563	0.0537885899	-57.1283459	
	0.0539464146	-55.5181282	0.0149422895	-36.1127549	0.106939682	-57.0775603	0.928604871	-150.647836	
	0.0149444578	-36.1731716	0.0537885981	-57.1283543	0.928604871	-150.647836	0.107522487	-59.9086163	
	
70000000.	0.0782476848	-74.9539716	0.93335461	-175.827428	0.0145326423	-64.0465926	0.0138243388	-74.3371476	
	0.93335461	-175.827428	0.0782858184	-78.2677424	0.0138225258	-74.2654165	0.0141322715	-68.6314836	
	0.0145326452	-64.0466197	0.0138225305	-74.2654146	0.0870344645	-73.4070253999999	0.92863864	-175.765658	
	0.0138243432	-74.3371448	0.014132275	-68.6315112	0.92863864	-175.765658	0.0870266214	-76.6675677	
	
80000000.	0.0526050038	-86.2610285000001	0.931558186	158.983907	0.0302093157	60.198368	0.0117909869	-107.410545	
	0.931558186	158.983907	0.0520749309000001	-89.7552438	0.0117900587	-107.325851	0.0300843772	61.210934	
	0.0302093128	60.1983723	0.0117900627	-107.325848	0.0602509013	-84.1959525	0.926995403	159.0519	
	0.0117909911	-107.410541	0.0300843745	61.2109384	0.926995403	159.0519	0.0596760006	-87.6247969	
	
90000000.	0.028723062	-74.1930455	0.927832935	133.832481	0.0684162881	41.5633695	0.00970642466	-130.613677	
	0.927832935	133.832481	0.0282043028000001	-76.3655680999998	0.00970713309	-130.515496	0.0683478024	41.2030462	
	0.0684162885	41.5633699	0.0097071367	-130.515491	0.0353781144	-74.4152663999999	0.923403936	133.902334	
	0.00970642821	-130.613673	0.0683478027	41.2030466	0.923403936	133.902334	0.0348246628	-76.8114028000001	
	
100000000.	0.0326208888999999	-29.1923418000001	0.923183827	108.791252	0.094965951	18.8167905	0.00928154609	-142.689461	
	0.923183827	108.791252	0.0336480331000001	-31.9516607999997	0.00928448079	-142.586089	0.0948571428	17.8759417	
	0.0949659542	18.8167888	0.00928448403000001	-142.586089	0.037076308	-35.5028516000001	0.918830026	108.860477	
	0.00928154933	-142.689462	0.0948571459	17.8759402	0.918830026	108.860477	0.038030894	-38.1731486	
	
110000000.	0.0574184106000001	-25.2863593	0.919085107	83.8647286	0.105058923	-4.3281137	0.0114476192	-157.846895	
	0.919085107	83.8647286	0.0589314372000001	-29.8961699999999	0.0114523519	-157.744491	0.104880288	-5.77872552	
	0.1050589	-4.32813326	0.0114523844	-157.744528	0.0620245409999999	-29.0768188	0.914710402	83.9318518	
	0.0114476521	-157.846935	0.104880266	-5.77874489	0.914710402	83.9318517	0.063577156	-33.5460365	
	
120000000.	0.0810884976	-38.0536492	0.916446637	58.9885997	0.0970987684	-27.0731819	0.0149158518	176.198788	
	0.916446637	58.9885997	0.0824474188999999	-43.5006572	0.0149222284	176.305968	0.0968343071	-29.165381	
	0.0970987288	-27.0732157	0.0149222831	176.30591	0.0872851107000001	-40.4064068	0.911995679	59.057287	
	0.0149159071	176.198728	0.0968342682	-29.1654146	0.911995679	59.057287	0.0887120695	-45.7508987	
	
130000000.	0.0976938245	-55.4453803	0.915154346	34.0855351	0.0725878084	-48.4109964	0.0182190231	143.67664	
	0.915154346	34.0855351	0.0985588157000001	-61.4617807	0.0182276651	143.793232	0.0721805448	-51.6105987	
	0.0725877668	-48.4110424	0.0182277369	143.793191	0.105526513	-57.0303146	0.91061187	34.1606902	
	0.0182190954	143.676598	0.0721805046	-51.6106446	0.91061187	34.1606902	0.106456714	-62.962308	
	
140000000.	0.10417417	-74.5663122	0.914303835	9.11219085	0.0361138011	-63.162327	0.0204231352	108.400469	
	0.914303835	9.11219085	0.104351254	-81.0698060000001	0.0204350318	108.528985	0.0352194069	-69.5380089	
	0.0361137715	-63.1623864	0.0204351146	108.52898	0.113229177	-75.6358794	0.909703429	9.19819326	
	0.0204232185	108.400464	0.0352193798	-69.5380696	0.909703429	9.19819326	0.113449942	-82.0632675	
	
150000000.	0.098932242	-94.0156485	0.912861219	-15.9197127	0.0143296945	26.2272494	0.0209944939	72.7282551	
	0.912861219	-15.9197127	0.0983409421000001	-100.992587	0.0210107566	72.8701317	0.0118047008	36.7158542	
	0.0143296823	26.2272465	0.0210108436	72.870174	0.10859533	-94.6738919999999	0.90827296	-15.8206043	
	0.0209945814	72.7282973	0.0118046919	36.7158589	0.90827296	-15.8206043	0.108012522	-101.573219	
	
160000000.	0.0824591137	-112.264281	0.910312658	-40.956717	0.0533157415	40.1590574	0.0198418272	38.7263679	
	0.910312658	-40.956717	0.081112677	-119.710998	0.019863537	38.881341	0.0527259353	42.5060945	
	0.0533157126	40.1590133	0.0198636235	38.8814349	0.0920570725	-112.592207	0.905814112	-40.8451143	
	0.0198419139	38.726462	0.0527259063	42.5060498	0.905814112	-40.8451143	0.0906782156999999	-119.945888	
	
170000000.	0.0577203793	-126.092667	0.906969167	-65.9405368	0.0875412403	21.2945981	0.0174596024	9.00960538	
	0.906969167	-65.9405368	0.0557450819	-133.85727	0.017487615	9.1716539	0.0872034767	21.5953597	
	0.0875411894	21.2945453	0.0174877008	9.17179592	0.0666507542	-126.418082	0.902613495	-65.8194869	
	0.0174596884	9.00974776	0.0872034255	21.5953067	0.902613495	-65.8194869	0.0646100481999999	-134.071477	
	
180000000.	0.0315143246000001	-122.556076	0.903743083	-90.8487267	0.107948404	-0.475139027	0.0150929109	-13.2064848	
	0.903743083	-90.8487266	0.0293901454	-128.973839	0.0151267627	-13.0591104	0.107631844	-1.32098135	
	0.10794834	-0.475195809	0.0151268532	-13.0589548	0.0391152487	-125.846675	0.899539857	-90.7223676	
	0.0150930015	-13.2063288	0.10763178	-1.32103811	0.899539857	-90.7223676	0.0368831894	-132.56926	
	
190000000.	0.0275113062	-74.4748869	0.901483532	-115.71243	0.110811036	-22.7014299	0.0145767802	-28.3031529	
	0.901483532	-115.71243	0.0275678206	-78.3051565999999	0.0146120818	-28.1975372	0.110391914	-24.5913618	
	0.11081097	-22.7014888	0.0146121796	-28.1974446	0.0303863157	-86.4371187000002	0.897399057	-115.584387	
	0.014576878	-28.3030602	0.110391848	-24.5914207	0.897399057	-115.584387	0.0300587337	-90.4581262	
	
200000000.	0.0511357376	-63.2055042999999	0.900326721	-140.594125	0.0955892368	-44.3026094	0.0167107136	-45.4011653	
	0.900326721	-140.594125	0.0519627046	-70.349385	0.0167429037	-45.3154477	0.0949572735	-47.544359	
	0.0955891789	-44.3026695	0.0167430021	-45.315426	0.0523449875	-69.5241722	0.89630051	-140.466203	
	0.0167108121	-45.4011438	0.0949572172	-47.5444191	0.89630051	-140.466203	0.0531568127	-76.5100655000001	
	
210000000.	0.0748251237	-75.4091320999999	0.899584324	-165.539857	0.0650571712	-63.1149579	0.0201536593	-70.312801	
	0.899584324	-165.539857	0.0752189065	-84.0241129999998	0.020184742	-70.2120647	0.0639555921	-68.9037847	
	0.0650571291	-63.1150189	0.0201848351	-70.2120589	0.0775172631	-79.2764978999999	0.89555428	-165.411402	
	0.0201537523	-70.3127952	0.0639555526	-68.9038464	0.89555428	-165.411402	0.0780192388	-87.8347830999999	
	
220000000.	0.0902143365	-93.289725	0.898269362	169.455385	0.0265652395	-64.4183549	0.0231506648	-100.843628	
	0.898269362	169.455385	0.0898267717	-102.962951	0.0231857734	-100.716355	0.0233615161	-78.7864919	
	0.0265652143	-64.4184128	0.0231858577	-100.716337	0.0949702641	-96.1328235000001	0.894197113	169.58721	
	0.0231507491	-100.843609	0.0233614949	-78.786559	0.894197113	169.58721	0.094729446	-105.770768	
	
230000000.	0.0941109162	-112.772892	0.89581663	144.442407	0.0284078028	22.8355958	0.0246045692	-133.698544	
	0.89581663	144.442407	0.0927998299	-123.541461	0.0246488655	-133.544208	0.0251635709	34.9001262	
	0.0284077938	22.835572	0.0246489387	-133.54417	0.100814807	-115.099705	0.891702799	144.581417	
	0.0246046424	-133.698507	0.0251635645	34.9001023	0.891702798	144.581417	0.0996541247	-125.807346	
	
240000000.	0.0860917083	-132.018744	0.892445967	119.481902	0.0669615874	19.5313936	0.0241553102	-166.315304	
	0.892445967	119.481902	0.0837783769999999	-144.124748	0.0242131916	-166.138791	0.0656358211	23.7097412	
	0.066961569	19.5313558	0.0242132532	-166.138735	0.0942924173	-134.128174	0.888327564	119.631246	
	0.0241553718	-166.315248	0.0656358027	23.709703	0.888327564	119.631246	0.0921163613	-146.089393	
	
250000000.	0.0682196712	-149.197491	0.889004575	94.6063688	0.0974052321	0.946431176	0.0221449182	163.619183	
	0.889004575	94.6063688	0.0648370273	-163.093024	0.0222192579	163.80255	0.0965380541	2.45406128	
	0.097405206	0.946393283	0.0222193098	163.80262	0.0772610998999999	-151.507556	0.884936464	94.7672543	
	0.0221449699	163.619254	0.0965380275	2.45402334	0.884936464	94.7672543	0.0740088780999999	-165.064069	
	
260000000.	0.0445663746999999	-160.000762	0.886468707	69.7995844	0.113133954	-20.0764227	0.0195864036	138.491048	
	0.886468707	69.7995844	0.0399222407999999	-176.34799	0.0196760074	138.641868	0.112382227	-20.2820971	
	0.113133926	-20.0764579	0.0196760531	138.641941	0.0535692327000001	-163.939072	0.882500298	69.9709169	
	0.0195864492	138.491121	0.112382198	-20.2821323	0.882500298	69.9709169	0.0491271746000001	-179.581456	
	
270000000.	0.0236499359999999	-145.217153	0.885357307	45.0025846	0.111522029	-41.4997891	0.0180203859	119.317505	
	0.885357307	45.0025846	0.0173490702000002	-157.94139	0.0181144273	119.376895	0.110658245	-43.3547925	
	0.111522003	-41.4998206	0.0181144696	119.376951	0.0302206525000001	-158.830484	0.881515219	45.1815035	
	0.0180204282	119.317562	0.110658219	-43.354824	0.881515219	45.1815035	0.0242026401000001	-174.40203	
	
280000000.	0.0281909303	-100.532524	0.885361165	20.1471618	0.0929081861	-62.0908183	0.0186436106	102.06022	
	0.885361165	20.1471618	0.0257129384	-101.558389	0.0187241741	102.031966	0.0916879085	-66.154097	
	0.0929081656	-62.0908455	0.0187242119	102.031993	0.0268211425999999	-117.308011	0.881642184	20.3301756	
	0.0186436483	102.060247	0.0916878885	-66.1541245	0.881642184	20.3301756	0.0230477455	-119.401352	
	
290000000.	0.0475480448	-99.1073265	0.88547882	-4.80000712	0.0608133871	-78.8853273	0.0209957553	80.5587962	
	0.88547882	-4.80000712	0.0465363261	-106.631182	0.021056748	80.520891	0.0586957308	-87.2565935	
	0.0608133732	-78.8853499	0.0210567786	80.5209013	0.0448092835	-106.919175	0.881853699	-4.61566593	
	0.0209957859	80.5588065	0.0586957176	-87.2566174	0.881853699	-4.61566593	0.0434614098	-114.267609	
	
300000000.	0.0624658534	-113.06213	0.884646612	-29.814296	0.0245529288	-70.9644201	0.0235184252	53.8619979	
	0.884646612	-29.814296	0.0611435055000001	-124.576496	0.0235684302	53.8639958	0.0182003432	-92.9864547	
	0.0245529203	-70.9644342	0.0235684525	53.8640015	0.0613225157	-118.275324	0.8810739	-29.6296209	
	0.0235184474	53.8620036	0.0182003354	-92.9864771	0.8810739	-29.6296209	0.0600866460000001	-129.851636	
	
310000000.	0.0682571456	-130.641234	0.882420587	-54.8299124	0.0329669786	3.02457936	0.0249740863	24.3597385	
	0.882420587	-54.8299124	0.0660165643	-145.634729	0.0250263743	24.4115681	0.0283460539	20.3418482	
	0.0329669759	3.02457867	0.0250263884	24.4115729	0.0693917161000001	-135.077081	0.878865517	-54.6439285	
	0.0249741004	24.3597433	0.0283460532	20.3418502	0.878865517	-54.6439285	0.0675163220999999	-150.158909	
	
320000000.	0.0643265211000001	-148.432232	0.879209754	-79.782064	0.068109276	-1.52464916	0.0249193513	-5.397327	
	0.879209754	-79.782064	0.0607915027999998	-167.484519	0.0249866307	-5.30560795	0.0659745587	5.89442679	
	0.0681092719	-1.52464942	0.0249866375	-5.3056051	0.0677608981	-152.912664	0.875658184	-79.592616	
	0.0249193581	-5.3973241	0.0659745557	5.89442752000001	0.875658184	-79.592616	0.0648544970000001	-171.865824	
	
330000000.	0.0525373325000001	-164.140552	0.875973306	-104.643652	0.0946843163	-19.5021873	0.0236573268	-33.316533	
	0.875973306	-104.643652	0.0472872851000003	171.095978	0.0237485663	-33.213662	0.0931785368	-15.8022502	
	0.0946843107	-19.5021831	0.0237485667	-33.2136634	0.0578633397	-169.593797	0.872433162	-104.448648	
	0.0236573273	-33.3165344	0.0931785324	-15.8022453	0.872433162	-104.448648	0.0535812030999999	166.335076	
	
340000000.	0.0365030165	-173.756268	0.873657591	-129.437628	0.10711378	-39.9514629	0.0220456813	-57.9364497	
	0.873657591	-129.437628	0.0286826415999999	152.104528	0.0221609499	-57.8775199	0.105764305	-38.7178997	
	0.107113774	-39.9514534	0.0221609444	-57.8775272	0.0427841829	177.55301	0.870149645	-129.236008	
	0.0220456759	-57.936457	0.1057643	-38.7178897	0.870149645	-129.236008	0.0365991872	145.639359	
	
350000000.	0.0223218695	-165.364025	0.87268866	-154.222483	0.103768528	-60.771744	0.0211354531	-79.3423242	
	0.87268866	-154.222483	0.00927202635999983	151.860932	0.0212597667	-79.3902224	0.102269084	-61.9584448	
	0.103768522	-60.7717289	0.0212597551	-79.3902341	0.0270520430000002	175.454164	0.86923425	-154.014524	
	0.0211354414	-79.342336	0.102269079	-61.9584294	0.86923425	-154.014524	0.0174705326999999	130.640395	
	
360000000.	0.0208582522999999	-134.139254	0.872760412	-179.05886	0.085748774	-80.6266612	0.0215170911	-99.9691552	
	0.872760412	-179.05886	0.0120694057	-109.671043	0.0216248554	-100.129363	0.0837538937	-85.0899133	
	0.0857487691	-80.6266403	0.0216248373	-100.129374	0.0187555140000001	-161.638881	0.869371965	-178.845844	
	0.021517073	-99.9691671	0.083753889	-85.0898923	0.869371965	-178.845844	0.00516860002	-159.178457	
	
370000000.	0.029156187	-125.851518	0.873036722	156.024564	0.0568519554	-96.4508632	0.0228348411	-122.611352	
	0.873036722	156.024564	0.0253875024999999	-120.202965	0.0229082518	-122.820129	0.0536305722	-107.213081	
	0.0568519523	-96.4508356	0.0229082276	-122.820139	0.0230621851999999	-141.013433	0.869714017	156.241092	
	0.0228348168	-122.611361	0.0536305682	-107.213054	0.869714017	156.241092	0.0171825267999999	-130.504188	
	
380000000.	0.0350671163	-134.186639	0.872654265	131.044928	0.0256075652	-90.4216004	0.0241921673	-147.807293	
	0.872654265	131.044928	0.0322219316999999	-141.868235	0.0242307004	-147.998467	0.0173898569	-120.54671	
	0.0256075655	-90.4215651	0.024230671	-147.998476	0.0289721686999999	-143.841561	0.869387881	131.263922	
	0.0241921378	-147.807301	0.0173898546	-120.546673	0.869387881	131.263922	0.0255543809000001	-150.451395	
	
390000000.	0.0349330623	-146.249493	0.871203196	106.051139	0.027830622	-25.4814786	0.0249082006	-174.289593	
	0.871203196	106.051139	0.0314076319000001	-166.331121	0.0249242855	-174.427167	0.020953922	6.49714153	
	0.0278306222	-25.4814491	0.0249242518	-174.427176	0.0301059008	-154.610469	0.867983203	106.272357	
	0.0249081669	-174.289602	0.0209539227	6.49717326000001	0.867983203	106.272357	0.0271723343999999	-176.195725	
	
400000000.	0.0293611528999999	-155.661182	0.868894723	81.0937095	0.0553695595	-24.6791335	0.0248726363	159.557248	
	0.868894723	81.0937095	0.0238399632999999	166.636239	0.0248849338	159.481026	0.0524549079	-9.69066431	
	0.055369555	-24.6790977	0.0248848963	159.481015	0.0260639762999998	-164.951308	0.865717839	81.3173596	
	0.0248725988	159.557238	0.0524549055	-9.69062608	0.865717839	81.3173596	0.0227675277	153.43079	
	
410000000.	0.0218343546000001	-154.753138	0.866366746	56.1980158	0.076412273	-40.9893179	0.0244926167	134.824128	
	0.866366746	56.1980158	0.0121005881	131.098561	0.0245188885	134.788948	0.0743930719	-32.1503715	
	0.0764122642	-40.9892765	0.0245188474	134.788937	0.0193335598999999	-167.519365	0.863235518	56.4240761	
	0.0244925756	134.824118	0.0743930658	-32.1503281	0.863235518	56.4240761	0.0150490290000001	112.503655	
	
420000000.	0.0186660925999999	-137.936031	0.864293486	31.3544295	0.0858336364	-60.5462383	0.0243740861	111.520714	
	0.864293486	31.3544295	0.00521333366999984	11.424237800001	0.0244223358	111.480387	0.0839608845	-55.6092648	
	0.085833624	-60.5461917	0.0244222908	111.48038	0.0148661827	-153.579345	0.861208151	31.5822447	
	0.0243740411	111.520706	0.0839608752	-55.6092168	0.861208151	31.5822447	0.00994997875000001	42.0740534999999	
	
430000000.	0.0222844644	-126.743441	0.863034402	6.52795912	0.0828658691	-80.6343137	0.0248743188	88.5446815	
	0.863034402	6.52795912	0.0149791543	-57.3025058000001	0.0249367202	88.4517716	0.0807139986	-79.4491854	
	0.0828658549	-80.6342623	0.0249366715	88.4517691	0.0162705665000001	-138.343969	0.859984177	6.7564453	
	0.0248742701	88.544679	0.080713987	-79.4491329	0.859984177	6.7564453	0.0130376928999999	-28.0747998000002	
	
440000000.	0.0263044277000001	-131.385494	0.862499734	-18.3203556	0.0691207757	-99.7452425	0.0258413015	64.6542856	
	0.862499734	-18.3203556	0.0219834647	-88.0059555000005	0.0258981749	64.4921894	0.0662737595	-103.58903	
	0.0691207623	-99.745186	0.0258981231	64.4921917	0.0188410134	-140.69584	0.8594601	-18.0920137	
	0.0258412496	64.6542881	0.0662737476	-103.588973	0.8594601	-18.0920137	0.0166181376	-68.4768962000002	
	
450000000.	0.0258927514	-143.162078	0.862264696	-43.2135383	0.0481484996	-115.178208	0.0267927773	39.5266532	
	0.862264696	-43.2135383	0.022737791	-114.270923	0.0268233259	39.3129033	0.0438976159	-128.263608	
	0.0481484901	-115.178145	0.0268232716	39.3129084	0.0176646554000001	-153.154531	0.859203758	-42.9851022	
	0.026792723	39.5266586	0.0438976059	-128.263546	0.859203758	-42.9851022	0.0154913926	-97.5929633999998	
	
