!!!!!!!!!!!!!!!!!!!!!!!!!!!!!!!!!!!!!!!!!!!!!!!!!!!!!!!!!!!!!!!!!!!!!!!!!!!!!!!!!!!!!!!!!
!!
!! Reference: shanbhag_3dj_01_2305.pdf
!!
!!!!!!!!!!!!!!!!!!!!!!!!!!!!!!!!!!!!!!!!!!!!!!!!!!!!!!!!!!!!!!!!!!!!!!!!!!!!!!!!!!!!!!!!!
!!
!! CHANNEL DESCRIPTION: TP0_TP5 CR Channel using 1meter DAC, PCB Host
!! MODEL DESCRIPTION: s4p, THRU
!! CONNECTOR DESCRIPTION: OSFP 200G SMT
!! CABLE DESCRIPTION: 1meter 26AWG Cable
!! MODEL STATUS: Developmental
!!
!! PORT DEFINITIONS: 
!! Port   1    ----->  Side A	      Side B  <-----  Port   2
!! Port   3    ----->  Side A	      Side B  <-----  Port   4
!!

# HZ S MA R 50.000000 


0.	0.0393619780000001	1.52357018e-12	0.955924836	-5.09391368e-14	0.00834063911	-3.64335639e-12	0.00878091589	-180	
	0.955924839	-5.09376426e-14	0.0393407621999999	1.49102631e-12	0.00878160972	-180	0.00835532405	-4.59825071e-12	
	0.00833934151	-6.71829931e-13	0.00878148779	180	0.0446462227	3.43215573e-13	0.951524246	7.54833722e-14	
	0.00878079082	-180	0.00835408877	-1.64295989e-12	0.951524242	7.54815498e-14	0.0446331238	6.46713871000001e-13	
	
10000000.	0.0588809397000001	16.5080756	0.948298115	-26.6969054	0.0438726647	55.940639	0.00772910304	154.601624	
	0.948298115	-26.6969054	0.0592307211999999	16.4257414	0.00772839498	154.612191	0.0438317689	55.7675068	
	0.0438726708	55.9406463	0.00772840334	154.612198	0.0652617456999999	15.2769242	0.943748113	-26.7103765	
	0.0077291114	154.601631	0.043831775	55.7675141	0.943748113	-26.7103765	0.0656050666	15.1741971	
	
20000000.	0.0817876379999999	7.8010916	0.941075697	-53.0047746	0.0782613701	33.9757271	0.00991719873	120.876355	
	0.941075697	-53.0047746	0.0826354352999999	7.19496752999997	0.00991627008	120.897008	0.0781807508	33.658814	
	0.0782612867	33.9756382	0.009916252	120.897072	0.0892988901	7.04891397	0.936337925	-53.0110674	
	0.0099171807	120.87642	0.0781806685	33.6587271	0.936337925	-53.0110674	0.0901462454999999	6.43703936000001	
	
30000000.	0.0986206425	-7.73519738	0.935206603	-79.0852623	0.0970956391	9.88731201	0.0121318795	80.2964016	
	0.935206603	-79.0852623	0.0997895536	-8.93209746000001	0.0121305998	80.3269992	0.0969853013	9.39457695	
	0.0970956451	9.88730902	0.0121306088	80.3270045	0.107298065	-8.02907684	0.930363214	-79.0784767	
	0.0121318886	80.2964071	0.0969853095	9.39457605	0.930363214	-79.0784767	0.1084708	-9.22063075000001	
	
40000000.	0.10728381	-25.543161	0.9318833	-105.065723	0.0972657387	-14.4380337	0.0139274298	37.6320259	
	0.9318833	-105.065723	0.108499172	-27.3335168	0.0139258836	37.6727389	0.0971383782	-15.1614326	
	0.0972657529	-14.438039	0.0139258878	37.6727126	0.116797454	-25.4232869	0.926991049	-105.044499	
	0.0139274339	37.6319989	0.0971383938	-15.1614376	0.926991049	-105.044499	0.11801183	-27.1979029	
	
50000000.	0.106831316	-44.2724477	0.930925822	-131.070676	0.0788699726	-38.4477638	0.0149920448	-5.18298786999999	
	0.930925822	-131.070676	0.107800295	-46.6333603	0.0149904659	-5.13197028	0.0787295096	-39.5328948	
	0.0788699843	-38.4477698	0.0149904719	-5.13197071000003	0.116704782	-43.7779234	0.926040476	-131.034299	
	0.0149920508	-5.18298914	0.0787295214	-39.5329011	0.926040476	-131.034299	0.117660487	-46.1113701	
	
60000000.	0.096663375	-63.053064	0.931024827	-157.182891	0.0452011336	-60.5561	0.0150437517	-46.9314503	
	0.931024827	-157.182891	0.0971471524	-65.9447037999999	0.0150424993	-46.8696488	0.0450129878	-62.4757825	
	0.0452011414	-60.5561101	0.0150425048	-46.8696459	0.1063051	-62.1691162	0.926210414	-157.132489	
	0.0150437571	-46.9314466	0.0450129958	-62.4757927	0.926210414	-157.132489	0.106759256	-65.0191712	
	
70000000.	0.0773058263	-80.2904681	0.930407687	176.594951	0.00573731681	-21.2375127	0.0139481505	-86.0550092	
	0.930407687	176.594951	0.0771689101	-83.6373107000001	0.0139476743	-85.9815702	0.00459873987	-25.9720132	
	0.00573731333	-21.2375782	0.013947679	-85.9815668	0.0861434883	-78.9656887	0.925721061	176.656166	
	0.0139481549	-86.0550051	0.00459873691	-25.9721015	0.925721061	176.656166	0.0859626319	-82.2516631	
	
80000000.	0.0516975087	-91.3832686	0.927905304	150.338612	0.0425794637	54.5558479	0.0119510784	-119.716211	
	0.927905304	150.338612	0.0509755085	-94.8896658999999	0.0119519043	-119.630141	0.0424799016	55.2813454	
	0.042579461	54.5558511	0.0119519083	-119.630137	0.059402006	-89.7601146	0.923372469	150.406091	
	0.0119510825	-119.716206	0.0424798989	55.2813487	0.923372469	150.406091	0.0586379226	-93.1956124	
	
90000000.	0.0290327798	-77.7813362999998	0.923707711	124.148357	0.0787861311	32.7362085	0.0100107534	-143.322601	
	0.923707711	124.148357	0.0284038621	-79.8018535	0.0100135183	-143.225765	0.0787104701	32.4256537	
	0.0787861316	32.7362088	0.0100135219	-143.225759	0.0355883861	-79.1157939999998	0.919308468	124.217789	
	0.0100107569	-143.322596	0.0787104705	32.425654	0.919308468	124.217789	0.0349114416	-81.402631	
	
100000000.	0.0346414603	-36.8684184	0.919134307	98.0768076	0.10038745	8.77108769	0.0098662942	-157.066363	
	0.919134307	98.0768076	0.0355783642999999	-39.5461113000001	0.00987124719	-156.968571	0.100261495	7.88491162	
	0.100387454	8.77108604	0.00987125042	-156.96857	0.0388691850000001	-43.1304632999999	0.91480832	98.145751	
	0.00986629743	-157.066363	0.100261498	7.88491013	0.91480832	98.145751	0.0397252032	-45.7420165	
	
110000000.	0.0592135176	-35.133888	0.915583406	72.0979288	0.103358678	-15.2656611	0.0122373027	-175.008773	
	0.915583406	72.0979288	0.0605632174999999	-39.6419539	0.0122440884	-174.911448	0.103149157	-16.7356647	
	0.103358655	-15.2656813	0.0122441208	-174.911469	0.0636921957999999	-38.9196726000001	0.911233268	72.1649693	
	0.0122373356	-175.008796	0.103149135	-16.7356847	0.911233268	72.1649693	0.0650750204	-43.307948	
	
120000000.	0.0822626104000001	-48.9612652	0.913514432	46.1302408	0.0873423054	-38.5336236	0.0157492031	156.899431	
	0.913514432	46.1302408	0.0833550861000001	-54.354107	0.0157582612	157.003571	0.0870120691	-40.8568309	
	0.0873422688	-38.5336589	0.0157583157	157.003539	0.0883440956999999	-51.4037964	0.90908627	46.1991012	
	0.0157492583	156.899398	0.0870120333	-40.8568659	0.90908627	46.1991012	0.0895034401	-56.7061769	
	
130000000.	0.0977352085	-67.393069	0.912295337	20.107291	0.0555570502	-58.902841	0.0189343222	122.786618	
	0.912295337	20.107291	0.098239936	-73.4179739999999	0.0189467962	122.901735	0.0549534397	-63.0794309	
	0.0555570163	-58.9028901	0.0189468667	122.901723	0.105451965	-69.1198993	0.90777856	20.1828791	
	0.0189343933	122.786605	0.0549534074	-63.0794801	0.90777856	20.1828791	0.106024973	-75.0662023999999	
	
140000000.	0.102438343	-87.5233219000001	0.910810367	-5.98062741	0.0164483516	-52.1540294	0.0208475304	86.2783041	
	0.910810367	-5.98062741	0.102188713	-94.1309546000001	0.0208647639	86.406352	0.0140586465	-64.654835	
	0.0164483306	-52.1540898	0.0208648432	86.4063774	0.111375147	-88.7755178	0.90624436	-5.89403354	
	0.0208476103	86.2783292	0.014058629	-64.6549078	0.90624436	-5.89403354	0.111175165	-95.3036085	
	
150000000.	0.0951027073	-107.806641	0.908309361	-32.087653	0.0347648784	41.1161963	0.0210102951	49.7995512	
	0.908309361	-32.087653	0.0940433952	-115.033775	0.0210335851	49.9410766	0.0336940846	46.670086	
	0.0347648596	41.1161626	0.0210336666	49.9411488	0.104648643	-108.698604	0.903766886	-31.9879922	
	0.021010377	49.7996234	0.0336940666	46.6700511	0.903766886	-31.9879922	0.103606175	-115.828284	
	
160000000.	0.0769022297	-126.528153	0.904909193	-58.1503863	0.0730081867	26.6150275	0.0194845395	15.6115112	
	0.904909193	-58.1503863	0.0750643536	-134.444509	0.0195149583	15.763825	0.0725524203	28.3583093	
	0.0730081442	26.6149778	0.0195150382	15.763949	0.0863920594999999	-127.189271	0.900464603	-58.0384458	
	0.0194846197	15.6116355	0.0725523775	28.3582592	0.900464603	-58.0384458	0.0845330719	-134.962012	
	
170000000.	0.0514521135999999	-139.847081	0.901477712	-84.1351939	0.0993279077	4.78529872	0.0169912101	-13.4636019	
	0.901477712	-84.1351939	0.0489501533	-148.391929	0.0170291217	-13.3133691	0.0990098035	5.0609559	
	0.0993278468	4.78524278	0.017029202	-13.3131997	0.0602698389	-140.842222	0.89717706	-84.0140516	
	0.0169912906	-13.4634319	0.0990097423	5.06089985	0.89717706	-84.0140516	0.0577224386	-149.172807	
	
180000000.	0.0268017850000001	-130.482252	0.898986615	-110.065291	0.108432474	-18.2346259	0.0150045859	-34.7232114	
	0.898986615	-110.065291	0.0240680469	-137.052676	0.0150475428	-34.6072867	0.10807681	-19.0663392	
	0.108432406	-18.2346854	0.0150476301	-34.6071157999999	0.0339123059	-136.653651	0.894833557	-109.938972	
	0.0150046734	-34.7230401	0.108076742	-19.0663988	0.894833557	-109.938972	0.0310846866999999	-143.838794	
	
190000000.	0.0292844555	-81.8874560000001	0.897746355	-136.00656	0.0986708534	-41.0452342	0.0152319928	-51.1079312	
	0.897746355	-136.00656	0.0289310586	-85.427586	0.0152730414	-51.0422605	0.09813628	-43.1530425	
	0.0986707899	-41.045296	0.0152731364	-51.0421575	0.0307560268	-94.2796248000002	0.893706196	-135.878521	
	0.015232088	-51.1078284	0.0981362175	-43.1531044	0.893706196	-135.878521	0.0299807715	-98.0375586	
	
200000000.	0.0529613006	-79.0095006	0.897104482	-162.017424	0.0720124656	-61.9325634	0.0177558016	-71.9495943	
	0.897104482	-162.017424	0.0531541293000001	-85.9877580000001	0.0177918618	-71.8925907	0.0710808412	-66.2092957	
	0.0720124163	-61.932627	0.0177919568	-71.892544	0.0535984533	-85.2065185	0.893121194	-161.889316	
	0.0177558966	-71.9495479	0.0710807941	-66.2093598	0.893121194	-161.889316	0.0537646048	-92.1073481	
	
210000000.	0.0734821787	-94.1301053	0.895912817	171.898985	0.0346265816	-72.4649342	0.0209059916	-100.023313	
	0.895912817	171.898985	0.0731456312	-102.926519	0.0209417229	-99.9430515	0.0323227438	-83.0972731	
	0.0346265505	-72.4649987	0.0209418115	-99.9430148	0.0758328002	-98.1669042	0.891932525	172.027902	
	0.0209060802	-100.023276	0.0323227164	-83.0973426	0.891932525	172.027902	0.0756174961	-106.941845	
	
220000000.	0.084475958	-113.621009	0.893418069	145.79875	0.0201331472	7.5141302	0.0231217635	-132.333337	
	0.893418069	145.79875	0.0832944694000001	-123.937057	0.0231638716	-132.223523	0.0154068732	24.4774241	
	0.0201331368	7.51411727	0.0231639503	-132.223475	0.0889741982	-116.78809	0.889410968	145.931229	
	0.0231218421	-132.333289	0.015406868	24.4774187	0.889410968	145.931229	0.0879855419	-127.06327	
	
230000000.	0.0840794266000001	-134.101544	0.889820792	119.754825	0.0563073355	16.9248619	0.0236450547	-165.754206	
	0.889820792	119.754825	0.0819267910999998	-146.107208	0.0236995634	-165.619094	0.0547827815	23.4495395	
	0.0563073181	16.9248221	0.0236996305	-165.61903	0.0905581383000001	-136.898866	0.885791633	119.89434	
	0.0236451217	-165.754142	0.0547827643	23.4494989	0.885791633	119.89434	0.0886400996	-148.773674	
	
240000000.	0.0732009495999999	-153.900195	0.886100348	93.8061382	0.0865677915	-1.33202455	0.0224990356	162.183871	
	0.886100348	93.8061382	0.0700226137	-168.068566	0.0225702859	162.330696	0.0856607181	1.94776848	
	0.0865677642	-1.33206667	0.0225703424	162.330775	0.0811818119000001	-156.697037	0.882082521	93.9553262	
	0.0224990919	162.183951	0.0856606903	1.94772617	0.882082521	93.9553262	0.0782700512000001	-170.52532	
	
250000000.	0.0546829381999999	-171.092306	0.883355343	67.933399	0.102398398	-22.9844187	0.0203746142	133.697284	
	0.883355343	67.933399	0.0504328603	171.629014	0.0204632294	133.823177	0.101694191	-21.5315078	
	0.102398366	-22.9844591	0.0204632783	133.823265	0.0634752741000001	-174.551624	0.879393852	68.0930078	
	0.020374663	133.697373	0.101694159	-21.5315482	0.879393852	68.0930078	0.0595511748999999	168.991923	
	
260000000.	0.0328281304000001	-179.895713	0.882123204	42.071072	0.101215735	-45.2347174	0.0184814573	110.336458	
	0.882123204	42.071072	0.0271334339	157.966073	0.0185795938	110.384369	0.100465883	-45.445013	
	0.101215705	-45.2347546	0.0185796388	110.38445	0.0413844054999999	173.381179	0.878256591	42.2397895	
	0.0184815024	110.33654	0.100465853	-45.4450502	0.878256591	42.2397895	0.0362727443000001	153.076462	
	
270000000.	0.0174550848	-153.230916	0.882036183	16.1474522	0.0836447742	-66.6953505	0.0180633638	90.6115296	
	0.882036183	16.1474522	0.00991126352000007	-160.015068	0.0181526775	90.5511761	0.0825736765	-69.126929	
	0.0836447499	-66.6953838	0.0181527196	90.5512317	0.022019837	-176.351688	0.878283838	16.3225317	
	0.0180634058	90.6115854	0.0825736525	-69.1269625	0.878283838	16.3225317	0.0148630366	164.003411	
	
280000000.	0.0261104471000001	-117.009844	0.882034201	-9.86901686	0.0535737132	-84.1672738	0.0193410834	69.5049568	
	0.882034201	-9.86901686	0.0236078075	-116.711415	0.0194072897	69.3942281	0.0516188351	-91.0777697	
	0.0535736963	-84.1673025	0.0194073263	69.3942586	0.0229531317	-134.439546	0.878391416	-9.69061558	
	0.01934112	69.5049872	0.051618819	-91.0777997	0.878391416	-9.69061558	0.0190922140000001	-134.371154	
	
290000000.	0.0402156028000001	-122.721431	0.881062973	-35.9488778	0.0207554674	-73.993226	0.0212787521	44.1729705	
	0.881062973	-35.9488778	0.0384737305999999	-131.467576	0.0213244627	44.0828092	0.0145231935	-95.2872709	
	0.0207554574	-73.9932421	0.0213244918	44.0828268	0.0368056450999999	-131.408827	0.87750523	-35.7692821	
	0.0212787812	44.172988	0.0145231841	-95.2872972	0.87750523	-35.7692821	0.0348893153	-140.172806	
	
300000000.	0.0482680847000001	-138.71535	0.878774927	-62.0239136	0.0304868921	-2.86283947	0.0227116589	15.7736322	
	0.878774927	-62.0239136	0.0458833221000002	-153.592234	0.0227495425	15.7307396	0.0266626786	16.3086201	
	0.0304868896	-2.86284418	0.0227495635	15.7307521	0.0466702757999999	-145.257351	0.875270481	-61.8436608	
	0.0227116799	15.7736447	0.0266626782	16.3086169	0.875270481	-61.8436608	0.0446977323000001	-160.471629	
	
310000000.	0.0486641381000001	-156.769539	0.875692703	-88.0347721	0.0598178442	-10.0530664	0.0231084055	-13.4166052	
	0.875692703	-88.0347721	0.0451625877	-177.900219	0.0231526581	-13.4170935	0.0580860717	-0.22324418	
	0.0598178391	-10.053072	0.0231526715	-13.4170845	0.0493377713	-163.050806	0.872216697	-87.8530243	
	0.0231084189	-13.4165962	0.0580860677	-0.223248775	0.872216697	-87.8530243	0.0467637944000001	175.642637	
	
320000000.	0.0425698611000001	-174.172072	0.872772857	-113.966966	0.0794451671	-29.3125518	0.022613972	-41.5272523	
	0.872772857	-113.966966	0.0377437468000001	156.518931	0.0226752154	-41.5117921	0.0782782766	-22.9224366	
	0.0794451597	-29.3125528	0.0226752221	-41.5117877	0.0454288503	178.633422	0.869314427	-113.782377	
	0.0226139786	-41.5272478	0.0782782703	-22.9224367	0.869314427	-113.782377	0.042114997	150.028183	
	
330000000.	0.0324893923999999	171.231866	0.870768692	-139.853751	0.0853208614	-50.7695837	0.0218087407	-67.526191	
	0.870768692	-139.853751	0.0262512748000002	129.162877	0.0218888651	-67.5408194	0.0843050599	-46.6477629	
	0.0853208531	-50.7695791	0.0218888656	-67.5408207	0.0370386840000001	161.392777	0.867328582	-139.665335	
	0.0218087412	-67.5261923	0.0843050528	-46.6477574	0.867328582	-139.665335	0.0330733033	122.798775	
	
340000000.	0.0215541548	163.300441	0.869814867	-165.750187	0.0772761628	-72.3023748	0.0213425939	-91.6114645	
	0.869814867	-165.750187	0.0137865377	96.7647729999996	0.0214305197	-91.7039022	0.0761122473	-70.5486132	
	0.0772761548	-72.3023637	0.0214305141	-91.7039091	0.0267789003000001	146.793657	0.866397911	-165.557701	
	0.0213425883	-91.6114713	0.0761122405	-70.5486013	0.866397911	-165.557701	0.0224170824	93.1853076000001	
	
350000000.	0.0133145342999999	169.939295	0.869432031	168.302397	0.0578794151	-92.0633636	0.0215265635	-115.142445	
	0.869432031	168.302397	0.00414126964999996	30.5884472	0.0216016708	-115.323857	0.0561663765	-94.0469823	
	0.0578794086	-92.0633451	0.021601659	-115.323867	0.0171929454999999	137.21129	0.866040429	168.49866	
	0.0215265517	-115.142456	0.0561663707	-94.0469632	0.866040429	168.49866	0.0127604931	59.6318513000003	
	
360000000.	0.0103636528000001	-169.759824	0.86890023	142.299281	0.0323110174	-103.966749	0.0221721161	-139.451004	
	0.86890023	142.299281	0.00554095220999998	-88.2485150000007	0.0222163663	-139.684464	0.0289877779	-115.227129	
	0.0323110141	-103.96672	0.0222163485	-139.684476	0.0100816537000001	135.094426	0.865531688	142.499029	
	0.0221720983	-139.451016	0.028987774	-115.2271	0.865531688	142.499029	0.00589889210000001	21.9982652	
	
370000000.	0.00977370888000001	-157.221216	0.867734417	116.269224	0.0141682485	-64.9069431	0.0228708456	-164.765778	
	0.867734417	116.269224	0.00698277869000017	-131.732205	0.0228783483	-164.996583	0.00349453901	-52.7653168	
	0.0141682518	-64.9069083	0.0228783249	-164.996595	0.00536406800999993	137.902037999999	0.86438617	116.472582	
	0.0228708222	-164.765789	0.00349454277	-52.7652581	0.864386171	116.472582	0.00213642784000008	10.9924798999996	
	
380000000.	0.00829966669000002	-145.289495	0.865936883	90.2504869	0.0284653308	-27.2065439	0.0233851451	169.524264	
	0.865936883	90.2504869	0.00408572025	-177.406351	0.0233632375	169.339899	0.0257245422	1.29432493	
	0.0284653308	-27.2065194	0.0233632091	169.339888	0.00115506582	149.944937	0.862612256	90.4579334	
	0.0233851167	169.524252	0.0257245422	1.29435059	0.862612256	90.4579334	0.00425948330999996	48.9982036000006	
	
390000000.	0.00824994576000006	-119.391066000001	0.863890158	64.2653205	0.0439693636	-39.1904123	0.0237761477	144.023835	
	0.863890158	64.2653205	0.00384469419999995	43.311466600002	0.0237408441	143.905166	0.0428573582	-19.5536221	
	0.0439693589	-39.19038	0.023740811	143.905155	0.00384884439000003	-68.0314413999988	0.860601145	64.4770987	
	0.0237761145	144.023824	0.0428573553	-19.5535867	0.860601145	64.4770987	0.00997239295999991	27.3256217000002	
	
400000000.	0.0118732019	-106.825787	0.862031293	38.310026	0.0503093099	-58.6829298	0.0242480297	118.800863	
	0.862031293	38.310026	0.0110553118000001	-4.94010780999988	0.0242160381	118.736921	0.0497741694	-42.3517399	
	0.0503093013	-58.6828899	0.0242160005	118.736912	0.00855656077000001	-81.7573148999996	0.858792736	38.5254777	
	0.0242479921	118.800854	0.0497741641	-42.3516965	0.858792736	38.5254777	0.016158386	2.18617472	
	
410000000.	0.0155994352	-114.633131	0.860569535	12.3636231	0.0468241352	-79.5845839	0.024900316	93.4544963	
	0.860569535	12.3636231	0.0172075064999999	-31.8560126000003	0.024880346	93.4118288	0.0464333144	-65.185279	
	0.0468241241	-79.5845359	0.0248803044	93.4118228	0.0113146275	-101.904818000001	0.857386773	12.5810168	
	0.0249002744	93.4544904	0.0464333078	-65.1852271	0.857386773	12.5810168	0.0207560986999999	-20.1244835000001	
	
420000000.	0.0161811917	-131.975633	0.859418238	-13.5948492	0.0355779736	-99.4214528	0.0256207963	67.630137	
	0.859418238	-13.5948492	0.0198735319	-52.7276978000001	0.0256094526	67.5743724	0.0349272497	-87.2407033	
	0.0355779626	-99.4213941	0.0256094074	67.5743689	0.0104400866000001	-126.921043000001	0.85627549	-13.3777033	
	0.0256207511	67.6301336	0.0349272437	-87.2406402	0.85627549	-13.3777033	0.0222197103999999	-37.5258579000001	
	
430000000.	0.0120613458999999	-156.024967	0.858328241	-39.5737133	0.0205084229	-113.175338	0.0262073284	41.4173527	
	0.858328241	-39.5737133	0.0182465590000001	-65.6668517999999	0.026192012	41.3320373	0.0188908844	-106.656716	
	0.0205084157	-113.17526	0.0261919639	41.3320358	0.00531388460999989	-168.530076	0.855186166	-39.3582582	
	0.0262072803	41.4173513	0.0188908812	-106.656632	0.855186166	-39.3582582	0.0206809792	-45.6483847	
	
440000000.	0.00381680426999998	148.55023	0.857081076	-65.5675022	0.00850843789	-91.6050368	0.026578625	15.2584205	
	0.857081076	-65.5675022	0.0147259837000001	-60.0111550999999	0.0265446631	15.1513707	0.0031949934	-92.1174181	
	0.00850844206	-91.6049249	0.0265446126	15.151371	0.00652770777999997	50.3302729000004	0.853888266	-65.3532678	
	0.0265785744	15.2584209	0.00319499956	-92.1172213	0.853888266	-65.3532678	0.0198941862999999	-38.6894950000001	
	
450000000.	0.0104711422999999	7.42665116000005	0.855600444	-91.5644924	0.0115846828	-45.9154353	0.0268696395	-10.4734439	
	0.855600444	-91.5644924	0.0175286789999999	-36.8154547000002	0.0268080416	-10.574121	0.0107299933	14.2418701	
