!!!!!!!!!!!!!!!!!!!!!!!!!!!!!!!!!!!!!!!!!!!!!!!!!!!!!!!!!!!!!!!!!!!!!!!!!!!!!!!!!!!!!!!!!
!!
!! Reference: shanbhag_3dj_01_2305.pdf
!!
!!!!!!!!!!!!!!!!!!!!!!!!!!!!!!!!!!!!!!!!!!!!!!!!!!!!!!!!!!!!!!!!!!!!!!!!!!!!!!!!!!!!!!!!!
!!
!! CHANNEL DESCRIPTION: TP0_TP5 CR Channel using 1meter DAC, PCB Host
!! MODEL DESCRIPTION: s4p, THRU
!! CONNECTOR DESCRIPTION: OSFP 200G SMT
!! CABLE DESCRIPTION: 1meter 26AWG Cable
!! MODEL STATUS: Developmental
!!
!! PORT DEFINITIONS: 
!! Port   1    ----->  Side A	      Side B  <-----  Port   2
!! Port   3    ----->  Side A	      Side B  <-----  Port   4
!!

# HZ S MA R 50.000000 


0.	0.0326391784	1.86079505e-12	0.962647628	-5.13732324e-14	0.00846096362	-3.579687e-12	0.00890130398	-180	
	0.962647631	-5.13717375e-14	0.0326178125000001	1.82155295e-12	0.00890200276	-180	0.00847575264	-4.52773623e-12	
	0.00845965111	-6.70644905e-13	0.00890186613	180	0.0379861337	3.93014199e-13	0.958184331	7.5323662e-14	
	0.0089011642	-180	0.00847450287	-1.63470202e-12	0.958184328	7.53218394e-14	0.0379729421999999	7.52229596000002e-13	
	
10000000.	0.0542211214000001	23.9405622	0.95542765	-23.457779	0.0395240394	58.0618569	0.00786290567	162.17957	
	0.95542765	-23.457779	0.0545662811	23.8236879	0.00786219498	162.19036	0.0394852788	57.8669212	
	0.0395240454	58.0618651	0.00786220344	162.190363	0.0605630972000001	22.1337163	0.950796351	-23.4717424	
	0.00786291413	162.179573	0.0394852848	57.8669294	0.950796351	-23.4717424	0.0609007884000001	22.0018901	
	
20000000.	0.0791970486	16.7966095	0.948629067	-46.5478389	0.0720149641	39.7392411	0.0101415978	134.902366	
	0.948629067	-46.5478389	0.0800117738	16.1392350999999	0.0101405981	134.922938	0.0719373394	39.3911009	
	0.0720148815	39.7391526	0.0101405825	134.923005	0.0867229239999999	15.756171	0.943797882	-46.5545787	
	0.0101415823	134.902433	0.0719372578	39.3910145	0.943797882	-46.5545787	0.0875381656999999	15.0996397	
	
30000000.	0.0975726432000001	2.63870855	0.942854073	-69.4242884	0.093070853	18.9015605	0.0123383109	99.870736	
	0.942854073	-69.4242884	0.0987237736	1.41095634000003	0.0123367037	99.9006329	0.0929637488	18.3830348	
	0.0930708592	18.9015579	0.0123367129	99.9006308	0.106300865	2.24303479	0.937907769	-69.4175787	
	0.0123383201	99.870734	0.0929637571	18.3830343	0.937907769	-69.4175787	0.107457338	1.02410154	
	
40000000.	0.107323641	-13.6542756	0.939197166	-92.1865575	0.0999241563	-2.34332857	0.0139937079	62.1067166	
	0.939197166	-92.1865575	0.108603881	-15.4451331	0.0139913159	62.1458291	0.099802129	-3.0513957	
	0.0999241708	-2.34333385	0.0139913189	62.1457998	0.116870037	-13.4875872	0.934201864	-92.1648358	
	0.0139937108	62.1066868	0.0998021449	-3.0514006	0.934201864	-92.1648358	0.118150235	-15.2634737	
	
50000000.	0.10768675	-30.7431836	0.937858427	-114.933322	0.0917467375	-23.5838577	0.0148606177	23.6483385	
	0.937858427	-114.933322	0.108859693	-33.0731091	0.0148573858	23.6965494	0.0916233093	-24.5187131	
	0.0917467494	-23.5838629	0.0148573918	23.6965438	0.117530807	-30.0547048	0.932875974	-114.89596	
	0.0148606236	23.6483321	0.0916233214	-24.5187185	0.932875974	-114.89596	0.11868985	-32.3632698	
	
60000000.	0.0983643586	-47.9217643	0.938196637	-137.750833	0.0696086914	-44.42642	0.0147506083	-14.3104087	
	0.938196637	-137.750833	0.0992144186999999	-50.7486020000001	0.0147466456	-14.2529232	0.0694862393	-45.6752393	
	0.0696086998	-44.4264262	0.0147466512	-14.2529252	0.107895527	-46.6718553	0.933291208	-137.69918	
	0.0147506138	-14.3104099	0.0694862478	-45.6752455	0.933291208	-137.69918	0.108713382	-49.4706159	
	
70000000.	0.0798610752	-64.088418	0.938877711	-160.683307	0.0365622756	-62.8711457	0.0135743275	-50.4358726	
	0.938877711	-160.683307	0.0802353893	-67.3349547000001	0.0135699382	-50.3683493	0.0364165467	-64.7616214	
	0.0365622801	-62.871155	0.0135699431	-50.3683505	0.0885003917	-62.1334275	0.93410179	-160.620794	
	0.0135743321	-50.4358727	0.0364165517	-64.7616308	0.93410179	-160.620794	0.0888262933	-65.3438576	
	
80000000.	0.0543038773	-76.0186750999999	0.938429012	176.288964	0.00582464518	30.0688596	0.0114830833	-82.3185488	
	0.938429012	176.288964	0.054167338	-79.4580955000001	0.0114787789	-82.2388828	0.00535449393	32.9199965	
	0.00582464153	30.0688539	0.011478783	-82.2388826	0.0617290042	-73.109221	0.933805	176.357625	
	0.0114830876	-82.3185481	0.00535449033	32.919993	0.933805	176.357625	0.0615443764	-76.5070819000001	
	
90000000.	0.0280323888	-68.3864833000001	0.936004622	153.241537	0.0428796674	58.2303259	0.0091434829	-105.142733	
	0.936004622	153.241537	0.0277821122	-70.8130865999999	0.00914008377	-105.046625	0.0428340116	57.6462369	
	0.0428796678	58.2303266	0.00914008747999999	-105.046622	0.0346650553	-65.9922128999999	0.931513212	153.311897	
	0.00914348653	-105.142731	0.0428340119	57.6462376	0.931513212	153.311897	0.0344018973	-68.5830736	
	
100000000.	0.0272491850999999	-13.4615291	0.93187492	130.263614	0.0758700826	38.8664011	0.00810558349	-114.615638	
	0.93187492	130.263614	0.0284446278	-16.5417054999999	0.00810418469	-114.504013	0.075799961	37.6775192	
	0.0758700857	38.866399	0.00810418792	-114.504017	0.0321322584999999	-20.1237714	0.927460321	130.333101	
	0.00810558673	-114.615641	0.075799964	37.6775174	0.927460321	130.333101	0.0332785122	-23.0218369	
	
110000000.	0.0523096252999999	-4.35575212000001	0.927234629	107.408401	0.0974406959	17.805038	0.00971106607	-123.674394	
	0.927234629	107.408401	0.05405908	-9.35798908000002	0.00971144325	-123.56168	0.0973153875	16.2280901	
	0.0974406761	17.8050196	0.00971147511	-123.561759	0.0570962866	-8.35941044	0.922804835	107.475419	
	0.00971109826	-123.674477	0.0973153678	16.2280719	0.922804835	107.475419	0.0589096798	-13.1551528	
	
120000000.	0.0767736763000002	-15.4196937	0.923426526	84.660264	0.104400486	-3.36742928	0.0129208957	-144.881233	
	0.923426526	84.660264	0.0785606174000003	-21.1318874999999	0.0129217822	-144.768293	0.104221293	-5.32277174	
	0.104400445	-3.36746074	0.0129218349	-144.768415	0.0831370689000001	-17.7050408	0.918927076	84.7283319	
	0.0129209489	-144.881358	0.104221253	-5.32280296	0.918927076	84.7283319	0.0850021237000001	-23.2782752	
	
130000000.	0.0947743229999999	-31.1125472	0.921229361	61.9567865	0.0958883841	-24.1586995	0.016229705	-174.036879	
	0.921229361	61.9567865	0.0962800845000001	-37.2825095	0.0162306344	-173.918695	0.0956644866	-26.5814413	
	0.0958883332	-24.1587415	0.0162307053	-173.918806	0.102777379	-32.4880928	0.91664037	62.0307067	
	0.0162297764	-174.036991	0.0956644367	-26.5814831	0.91664037	62.0307067	0.104347625	-38.5504579	
	
140000000.	0.103827552	-48.427759	0.920551245	39.2235028	0.0731823495	-43.876568	0.0187497857	153.385622	
	0.920551245	39.2235028	0.104817448	-54.9396867999999	0.0187510036	153.512385	0.072893825	-47.0353333	
	0.0731823017	-43.8766195	0.0187510892	153.51231	0.113050324	-49.1912359	0.915896608	39.3076912	
	0.0187498717	153.385547	0.0728937787	-47.0353847	0.915896608	39.3076912	0.114077925	-55.6181001	
	
150000000.	0.102374778	-66.2607003	0.920577471	16.4106119	0.0396410741	-59.18518	0.0199531145	119.779395	
	0.920577471	16.4106119	0.102717558	-73.0228467	0.0199553103	119.916985	0.039133459	-64.1184768	
	0.0396410406	-59.1852423	0.019955405	119.916958	0.112194721	-66.5140908	0.915917393	16.5075675	
	0.0199532096	119.779368	0.0391334276	-64.1185399	0.915917393	16.5075675	0.112539923	-73.2133901	
	
160000000.	0.0900604101	-83.5747035	0.920207108	-6.48517594	0.00960440197	7.80729474	0.019589503	86.8574697	
	0.920207108	-6.48517594	0.0897367558	-90.4657940000002	0.0195936402	87.0075902	0.0074085994	9.8605171	
	0.00960438695	7.80730332	0.0195937382	87.007616	0.0997877802	-83.3335336	0.915616338	-6.37570942	
	0.0195896012	86.8574952	0.00740858625	9.86053946000001	0.915616338	-6.37570942	0.0994294135	-90.1891391	
	
170000000.	0.0683948538	-98.3485326	0.918614478	-29.4202399	0.0443014907	51.3122488	0.0177905086	56.6331136	
	0.918614478	-29.4202399	0.0675358899	-105.081821	0.0177977101	56.7964457	0.0439152819	51.8215732	
	0.0443014691	51.3122087	0.0177978077	56.7965233	0.077414923	-97.6324813	0.914153449	-29.3010716	
	0.0177906064	56.6331912	0.0439152601	51.8215329	0.914153449	-29.3010716	0.0764930031	-104.384312	
	
180000000.	0.041602217	-103.884919	0.915709765	-52.3279133	0.0794512991	34.994044	0.0152585742	32.0919604	
	0.915709765	-52.3279133	0.0407219136000001	-109.415745	0.0152699576	32.2646592	0.0792245234	33.8123965	
	0.0794512576	34.9939942	0.0152700559	32.2647693	0.049560139	-103.398002	0.911400873	-52.203221	
	0.0152586726	32.0920708	0.0792244816	33.8123468	0.911400873	-52.203221	0.0485945439	-109.19092	
	
190000000.	0.0236587117	-70.1772932999998	0.912192757	-75.1581939	0.103740337	15.0852584	0.0134526489	16.166248	
	0.912192757	-75.1581939	0.0248006931000001	-73.6734777	0.0134682634	16.3320225	0.103500085	13.0369346	
	0.103740283	15.0852052	0.0134683656	16.3320976	0.0294656231	-77.6271175000002	0.908012672	-75.0318822	
	0.0134527511	16.1663233	0.103500031	13.0368816	0.908012672	-75.0318822	0.0303032969	-81.4716974999998	
	
200000000.	0.0402237362	-34.0544937	0.909089735	-97.9083652	0.113154636	-5.45834537	0.0140304803	4.82363271	
	0.909089735	-97.9083652	0.0426046695	-42.4844941	0.0140474932	4.9687352	0.112839953	-8.224463	
	0.113154578	-5.45839982	0.014047596	4.96871488999996	0.0428074088999999	-41.3586365000001	0.904980127	-97.7826414	
	0.0140305831	4.82361246	0.112839896	-8.22451723	0.904980127	-97.7826414	0.0452580286000001	-49.2479135999999	
	
210000000.	0.0665484114000001	-38.3845935999999	0.907092769	-120.621568	0.106200538	-25.7498364	0.0169308655	-12.2850783	
	0.907092769	-120.621568	0.0685555495999999	-47.8696049	0.0169469248	-12.1433071	0.105787322	-29.3181626	
	0.106200485	-25.749891	0.0169470224	-12.143368	0.0699595947	-42.3965897	0.902983475	-120.496196	
	0.016930963	-12.2851391	0.10578727	-29.318217	0.902983475	-120.496196	0.0721380505000001	-51.6657144999999	
	
220000000.	0.0883128402000001	-52.4855598	0.906181041	-143.356079	0.0838786797	-44.8250558	0.0205562055	-37.1678422	
	0.906181041	-143.356079	0.0896169485	-62.2988185000001	0.0205723111	-37.0124752	0.0833110403	-49.5829305	
	0.0838786378	-44.8251101	0.020572402	-37.012523	0.0935710029999999	-55.089017	0.902016655	-143.228496	
	0.0205562964	-37.1678897	0.0833110004	-49.5829849	0.902016654	-143.228496	0.0950360339	-64.7984398	
	
230000000.	0.101097266	-69.5339551	0.905721839	-166.149785	0.0496984874	-59.2541116	0.0234900567	-66.6504877	
	0.905721839	-166.149785	0.101563635	-79.5672460999998	0.0235086974	-66.475479	0.0486738761	-66.6288973	
	0.0496984598	-59.2541659	0.0235087802	-66.4755	0.108195697	-71.3658258	0.9014829	-166.016039	
	0.0234901394	-66.6505084	0.048673851	-66.6289527	0.9014829	-166.016039	0.108778847	-81.3514265999999	
	
240000000.	0.102502977	-87.492911	0.904886568	170.998234	0.0150947743	-26.3293963	0.0248734652	-97.964818	
	0.904886568	170.998234	0.10210465	-97.7356948	0.0248974582	-97.768395	0.0108362401	-37.5083642	
	0.0150947588	-26.3294241	0.0248975311	-97.7683902	0.111049843	-88.8079031	0.900597313	171.141983	
	0.024873538	-97.9648128	0.0108362261	-37.5084014	0.900597313	171.141983	0.11070529	-99.0403463	
	
250000000.	0.0920462458	-105.010175	0.903102456	148.124265	0.0419703368	41.3918982	0.0243695095	-129.000816	
	0.903102456	148.124265	0.0908338602	-115.449802	0.0244015841	-128.783383	0.0405383901	44.4918325	
	0.0419703289	41.3918717	0.024401646	-128.783357	0.101444887	-105.958625	0.898820738	148.280262	
	0.0243695713	-129.000789	0.0405383823	44.4918058	0.898820738	148.280262	0.100215284	-116.417915	
	
260000000.	0.0715187138	-120.146348	0.900359872	125.280546	0.0804888726	29.7595661	0.0222159811	-157.60532	
	0.900359872	125.280546	0.0696435422000001	-130.651382	0.0222584728	-157.372087	0.0797344758	29.3784083	
	0.0804888581	29.7595358	0.0222585245	-157.372045	0.0810859941	-120.973498	0.896153018	125.448624	
	0.0222160327	-157.605278	0.079734461	29.3783781	0.896153018	125.448624	0.0791253845	-131.541874	
	
270000000.	0.0452023247	-127.411093	0.897259796	102.506452	0.109438044	11.4099492	0.0193267979	178.894327	
	0.897259796	102.506452	0.0430639422999998	-137.218083	0.019380683	179.123532	0.108850717	9.46164411	
	0.109438027	11.4099209	0.0193807271	179.123577	0.0542044515	-129.315952	0.893177757	102.684184	
	0.0193268419	178.894373	0.108850699	9.46161598	0.893177757	102.684184	0.0519047328000001	-139.4051	
	
280000000.	0.024605214	-101.931386	0.894704407	79.8021621	0.123756258	-8.32784012	0.0173332848	162.529122	
	0.894704407	79.8021621	0.0239183550000001	-107.788205000001	0.0173945065	162.710893	0.123156032	-11.4352954	
	0.123756241	-8.32786477	0.0173945453	162.710922	0.0308030675	-113.075131	0.890761699	79.985822	
	0.0173333235	162.529152	0.123156015	-11.43532	0.890761699	79.985822	0.0295528044	-120.15048	
	
290000000.	0.0364045712	-59.8655597000001	0.893336193	57.1240558	0.121026983	-28.1764465	0.0178615392	149.605596	
	0.893336193	57.1240558	0.0379232476	-69.2946575999999	0.0179189459	149.72413	0.120311093	-32.4504319	
	0.121026969	-28.176467	0.0179189784	149.724133	0.0365076162	-70.8139502	0.889508231	57.3099955	
	0.0178615716	149.605599	0.120311078	-32.4504524	0.889508231	57.3099955	0.0378094466	-79.6273690999998	
	
300000000.	0.0614525358	-61.1209229	0.893098894	34.4102305	0.101411095	-47.1534771	0.0207627117	131.975846	
	0.893098894	34.4102305	0.0627710649999999	-72.6310998000001	0.020810245	132.083211	0.100472049	-52.9714738	
	0.101411084	-47.1534931	0.0208102693	132.083203	0.0614684045	-66.6048242999999	0.889332698	34.5962374	
	0.020762736	131.975838	0.100472039	-52.9714901	0.889332698	34.5962374	0.062876932	-77.9437773	
	
310000000.	0.0821088344	-74.4865207	0.893253093	11.6195838	0.0678211538	-62.7851854	0.0243302081	107.636839	
	0.893253093	11.6195838	0.0826449344	-86.8764008000001	0.0243721897	107.773542	0.0663163619	-71.476141	
	0.0678211467	-62.785197	0.0243722056	107.773537	0.0839895717	-78.0775401	0.889488746	11.8057456	
	0.0243302239	107.636833	0.066316355	-71.4761535	0.889488746	11.8057456	0.0846801506	-90.4554126	
	
320000000.	0.0932233389	-91.2174234	0.892825028	-11.2435781	0.028039378	-57.8162562	0.026981971	79.115242	
	0.892825028	-11.2435781	0.092796031	-104.331748	0.0270263955	79.2929644	0.0237464092	-75.2054037	
	0.0280393727	-57.8162625	0.0270264033	79.2929619	0.0973552283	-93.9776345000001	0.889020404	-11.0549274	
	0.0269819787	79.1152395	0.0237464038	-75.2054146	0.889020404	-11.0549274	0.0970811487	-107.142959	
	
330000000.	0.0926140635999999	-108.692823	0.891156686	-34.1333231	0.0333373134	24.1418204	0.0278169901	49.0759366	
	0.891156686	-34.1333231	0.0911472534	-122.63611	0.0278720818	49.2950308	0.0293434479	32.9794257	
	0.0333373123	24.141829	0.0278720821	49.295029	0.0988495099	-111.060061	0.88730459	-33.9386333	
	0.0278169905	49.0759348	0.0293434479	32.9794375	0.88730459	-33.9386333	0.0975022489000001	-125.075066	
	
340000000.	0.0806167053	-125.151964	0.888243562	-56.98636	0.0751896226	23.0177127	0.0266508854	19.7644165	
	0.888243562	-56.98636	0.0780488245000002	-140.158057	0.0267240547	20.0185073	0.0733548621	24.5770351	
	0.0751896225	23.0177222	0.0267240486	20.0185029	0.0884841703999999	-127.485395	0.884372701	-56.7823747	
	0.0266508794	19.764412	0.073354863	24.5770454	0.884372701	-56.7823747	0.085989319	-142.541216	
	
350000000.	0.0600312948000001	-137.922773	0.884761336	-79.7529235	0.110528508	6.88436405	0.0240236108	-6.54895976	
	0.884761336	-79.7529235	0.0562726869	-154.294461	0.0241202122	-6.28112659	0.109224155	5.67798398	
	0.110528508	6.88437749	0.0241202005	-6.28113687999998	0.0687978505000001	-140.988865	0.880922004	-79.5379319	
	0.0240235991	-6.54897024	0.109224156	5.67799782	0.880922004	-79.5379319	0.065084087	-157.343128	
	
360000000.	0.0364124035	-138.716066	0.88177839	-102.424253	0.132147686	-11.9123339	0.0211903175	-27.5433246	
	0.88177839	-102.424253	0.0312661857000001	-155.645265	0.0213094675	-27.3172837	0.130988142	-14.8930735	
	0.132147686	-11.9123159	0.0213094498	-27.3172997	0.0447308770999999	-145.770154	0.878021832	-102.198651	
	0.0211902998	-27.543341	0.130988143	-14.8930554	0.878021832	-102.198651	0.0396574174	-163.166509	
	
370000000.	0.0249336699	-102.837222	0.880211474	-125.04321	0.136600267	-31.3013113	0.0198785986	-42.956518	
	0.880211474	-125.04321	0.0206896484	-108.027743	0.0200045833	-42.8480164	0.135377654	-35.8746412	
	0.136600266	-31.3012887	0.0200045586	-42.8480298	0.0277054457000001	-122.379348	0.876571566	-124.809321	
	0.0198785739	-42.9565317	0.135377654	-35.8746186	0.876571566	-124.809321	0.0222182709	-132.411104	
	
380000000.	0.0403559317	-77.3202752999998	0.880283549	-147.685646	0.122989788	-50.3049645	0.0211294342	-57.9098321	
	0.880283549	-147.685646	0.0395447326000001	-84.8882200999998	0.0212372982	-57.9028567	0.121528917	-56.7352374	
	0.122989786	-50.3049373	0.0212372666	-57.9028582	0.0369752774	-88.7915531000002	0.876765591	-147.446863	
	0.0211294027	-57.9098337	0.121528914	-56.7352104	0.876765591	-147.446863	0.0352271423	-95.7022920000001	
	
390000000.	0.0606056005	-82.4821622	0.881343135	-170.419083	0.0930789103	-67.397066	0.024106978	-77.9736942	
	0.881343135	-170.419083	0.060312945	-93.976279	0.0241880186	-77.972598	0.09105888	-76.7004786	
	0.0930789076	-67.3970341	0.0241879813	-77.9725907	0.0571965716	-88.5797821000001	0.877923019	-170.178548	
	0.0241069408	-77.9736869	0.0910588759	-76.7004474	0.877923019	-170.178548	0.0566246748	-99.8021021000001	
	
400000000.	0.0744767271	-96.1202127999999	0.882190303	166.735397	0.052038175	-76.294757	0.0270608488	-103.259345	
	0.882190303	166.735397	0.0736686702	-110.177576	0.0271242343	-103.206331	0.0481640137	-92.3076703	
	0.0520381725	-76.2947199	0.0271241926	-103.206322	0.0728357496	-100.486274	0.878825734	166.976068	
	0.0270608072	-103.259336	0.0481640089	-92.3076348	0.878825734	166.976068	0.0720339174999999	-114.581609	
	
410000000.	0.0782419488	-112.031275	0.881705002	143.814493	0.023581308	-23.8097677	0.0286420534	-131.345658	
	0.881705002	143.814493	0.0764426638	-128.499849	0.028703642	-131.223754	0.0117115021	-18.947781	
	0.0235813083	-23.8097248	0.0287035974	-131.22375	0.0789280758	-115.828728	0.878355036	144.055756	
	0.0286420088	-131.345654	0.0117115023	-18.9477222	0.878355037	144.055756	0.0773135624000001	-132.487787	
	
420000000.	0.0712262279999999	-127.455847	0.87941055	120.894342	0.0597146217	12.2325723	0.0282883572	-159.753326	
	0.87941055	120.894342	0.0680081701999998	-146.886725	0.0283655381	-159.564276	0.0557365898	18.8126552	
	0.0597146201	12.2326146	0.0283654918	-159.564279	0.0742516282	-131.365705	0.876053204	121.138266	
	0.028288311	-159.753329	0.0557365904	18.8126993	0.876053204	121.138266	0.0713751069000001	-151.027532	
	
430000000.	0.0556063865000001	-139.309187	0.875723572	98.0549917	0.101849216	1.11456955	0.0262778584	173.840053	
	0.875723572	98.0549917	0.0502721715000001	-163.041362	0.0263866301	174.075349	0.0993728637	1.90314718	
	0.10184921	1.11461504	0.0263865824	174.075338	0.060490518	-144.385356	0.872362044	98.3041711	
	0.0262778109	173.840041	0.0993728593	1.90319356	0.872362044	98.3041711	0.0557311885	-168.243412	
	
440000000.	0.0366486934	-140.194611	0.871800283	75.3414281	0.132663429	-16.2211724	0.0236781453	151.595881	
	0.871800283	75.3414281	0.0275587042000001	-169.564808	0.0238272283	151.816019	0.130619994	-18.3650867	
	0.132663417	-16.2211239	0.0238271784	151.816004	0.0419759306999999	-149.693128	0.86845752	75.5978928	
	0.0236780955	151.595866	0.130619983	-18.3650376	0.86845752	75.5978928	0.0340400362999999	-179.800628	
	
450000000.	0.0264000567	-113.641983	0.868995255	52.7372987	0.147080638	-35.0052846	0.0220688799	134.208979	
	0.868995255	52.7372987	0.0138401638	-118.454051	0.0222469943	134.30656	0.145081931	-39.391339	
	0.147080619	-35.0052332	0.0222469405	134.306553	0.0275049949	-133.450954	0.865702812	53.0017447	
	0.0220688261	134.208971	0.145081914	-39.3912874	0.865702812	53.0017447	0.0140956863	-157.395012	
	
460000000.	0.0364513774	-89.304575	0.868165358	30.1690361	0.143049947	-53.898769	0.0226254912	118.427225	
