!!!!!!!!!!!!!!!!!!!!!!!!!!!!!!!!!!!!!!!!!!!!!!!!!!!!!!!!!!!!!!!!!!!!!!!!!!!!!!!!!!!!!!!!!
!!
!! Reference: shanbhag_3dj_01_2305.pdf
!!
!!!!!!!!!!!!!!!!!!!!!!!!!!!!!!!!!!!!!!!!!!!!!!!!!!!!!!!!!!!!!!!!!!!!!!!!!!!!!!!!!!!!!!!!!
!!
!! CHANNEL DESCRIPTION: TP0_TP5 CR Channel using 1meter DAC, PCB Host
!! MODEL DESCRIPTION: s4p, FEXT1
!! CONNECTOR DESCRIPTION: OSFP 200G SMT
!! CABLE DESCRIPTION: 1meter 26AWG Cable
!! MODEL STATUS: Developmental
!!
!! PORT DEFINITIONS: 
!! Port   1    ----->  Side A	      Side B  <-----  Port   2
!! Port   3    ----->  Side A	      Side B  <-----  Port   4
!!

# HZ S MA R 50.000000 


0.	0.0393407621999999	1.49102631e-12	0.000464164489	-180	0.00835532405	-4.59825071e-12	3.53254007e-05	180	
	0.000464164625	-180	0.0429516781000001	1.19726399e-12	0.000362917815	-180	0.00809277289	5.85062053e-13	
	0.00835408877	-1.64295989e-12	0.000362904038	-180	0.0446331238	6.46713871000001e-13	0.000166213485	-180	
	3.5326434e-05	-180	0.00809263241	-1.30667146e-12	0.000166225108	180	0.040315587	5.09167576999999e-13	
	
10000000.	0.0592307211999999	16.4257414	0.000512496597	172.342036	0.0438317689	55.7675068	0.000143681614	-134.528247	
	0.000512496771	172.34193	0.0612631826	15.2684037	0.00040995245	178.640508	0.043662137	56.6641233	
	0.043831775	55.7675141	0.000409952743	178.640414	0.0656050666	15.1741971	0.00022586846	-166.833686	
	0.000143681905	-134.529345	0.0436621192	56.6641659	0.000225868645	-166.833711	0.0588580026999999	15.6117933	
	
20000000.	0.0826354352999999	7.19496753	0.000593341508	157.024154	0.0781807508	33.658814	0.000255179008	-159.708016	
	0.000593341257	157.024075	0.0837645366999999	7.13519222000001	0.00050895312	164.698258	0.0782438381	34.9222133	
	0.0781806685	33.6587271	0.000508954174	164.698265	0.0901462454999999	6.43703936000001	0.000322988814	-179.185972	
	0.000255178259	-159.708334	0.0782438662	34.9225115	0.000322989388	-179.185651	0.0806341969	7.21049386	
	
30000000.	0.0997895536	-8.93209746	0.000652863524	138.120189	0.0969853013	9.39457695	0.000335426405	176.153526	
	0.000652862972	138.120125	0.100255322	-7.77075287	0.0005777742	146.07055	0.0977315976	11.1140644	
	0.0969853095	9.39457605	0.000577774506	146.070468	0.1084708	-9.22063075000001	0.000395545663	163.710464	
	0.000335424846	176.153224	0.0977315597	11.1141123	0.000395545907	163.710435	0.0964587138000001	-7.82501282999999	
	
40000000.	0.108499172	-27.3335168	0.000690975229	120.518681	0.0971383782	-15.1614326	0.000408155374	156.005264	
	0.000690974358	120.518639	0.108586257	-24.9238343	0.000622574837	129.60694	0.0989306043	-12.9518522	
	0.0971383938	-15.1614376	0.000622574653	129.606949	0.11801183	-27.1979029	0.000469639283	149.404121	
	0.000408153264	156.005122	0.0989305337	-12.9518084	0.000469639113	149.404082	0.104400261	-25.0443587	
	
50000000.	0.107800295	-46.6333603	0.000758088994	105.712097	0.0787295096	-39.5328948	0.000513908607	137.2062	
	0.00075808808	105.712096	0.107888018	-42.9251676	0.000708204518	116.501406	0.0816995978	-36.7709716	
	0.0787295214	-39.5329011	0.000708204398	116.501409	0.117660487	-46.1113701	0.000606718768	135.066245	
	0.000513906474	137.206181	0.0816995572	-36.7709211	0.000606718584	135.066217	0.1036823	-43.0981395	
	
60000000.	0.0971471524	-65.9447037999999	0.000911845311	89.7925295	0.0450129878	-62.4757825	0.000673941443	114.927391	
	0.000911844697	89.7925541	0.0976543651	-60.8531713	0.000899471741	100.957534	0.0489752999	-59.054365	
	0.0450129958	-62.4757927	0.000899471325	100.957532	0.106759256	-65.0191712	0.000831107264	114.52637	
	0.000673939593	114.927421	0.0489752792	-59.0543008	0.000831107063	114.52635	0.0938186888	-61.1057362	
	
70000000.	0.0771689101	-83.6373107000001	0.00114704539	68.2879184	0.00459873987	-25.9720132	0.00086652385	87.5886771	
	0.00114704505	68.2879445	0.0784749028	-77.0190426	0.00118069212	78.3889497	0.00801625285	-48.9180653	
	0.00459873691	-25.9721015	0.00118069162	78.3889548	0.0859626319	-82.2516631	0.00110118457	87.2578595	
	0.000866522363	87.5887135	0.00801626099	-48.9178081	0.0011011844	87.2578498	0.0753369693	-77.4282135000001	
	
80000000.	0.0509755085	-94.8896658999999	0.00139642129	41.460699	0.0424799016	55.2813454	0.00104345145	56.8098313	
	0.00139642052	41.460724	0.0534224143	-86.6343783	0.00147391369	50.1647898	0.0389277149	56.8699911	
	0.0424798989	55.2813487	0.00147391334	50.1647939	0.0586379226	-93.1956124	0.00134644406	56.0392491	
	0.00104345014	56.8098928	0.038927729	56.869981	0.00134644399	56.0392477	0.0511011284	-87.3706013000001	
	
90000000.	0.0284038621	-79.8018534999998	0.00158666723	11.9332915	0.0787104701	32.4256537	0.0011601461	24.9965482	
	0.0015866678	11.9332739	0.0321465022	-72.7363475999999	0.00169997717	19.2991245	0.0767356957	35.800397	
	0.0787104705	32.425654	0.00169997692	19.2991243	0.0349114416	-81.402631	0.0015053107	23.6664103	
	0.00116014421	24.9965766	0.0767357064	35.8004068	0.00150531077	23.6664097	0.0301671545	-73.6549891000001	
	
100000000.	0.0355783642999999	-39.5461113000001	0.00167800249	-17.7310568	0.100261495	7.88491162	0.00119923909	-5.61146167	
	0.0016780021	-17.7310421	0.0378168653000001	-36.9759608999999	0.00181322592	-11.7244343	0.100947788	12.16794	
	0.100261498	7.88491013	0.00181322561	-11.724431	0.0397252032	-45.7420165	0.00155166478	-7.49806742	
	0.00119923795	-5.6114351	0.100947793	12.1679484	0.00155166482	-7.49807505	0.0353864482999999	-36.2410251000001	
	
110000000.	0.0605632175	-39.6419539	0.00167769136	-45.4419979	0.103149157	-16.7356647	0.00117998901	-33.0824538	
	0.00167769101	-45.4419808	0.0618387841000001	-34.5485760999999	0.00181202651	-40.9329396	0.107183476	-11.6410483	
	0.103149135	-16.7356847	0.00181202706	-40.9329733	0.0650750204	-43.307948	0.00150862146	-35.273428	
	0.0011799904	-33.0824737	0.107183529	-11.6410286	0.00150862561	-35.2734849	0.0586811227999999	-33.5972431000001	
	
120000000.	0.0833550861	-54.354107	0.00163990427	-69.6648672	0.0870120691	-40.8568309	0.00115630895	-56.2279514	
	0.00163990395	-69.664847	0.0850042308	-47.210841	0.00174124901	-66.5637723	0.0945102927	-34.8916144	
	0.0870120333	-40.8568659	0.00174125029	-66.5638399	0.0895034401	-56.7061769	0.00145351288	-57.9613994	
	0.00115631184	-56.2280364	0.0945103646	-34.8915664	0.00145351928	-57.9615471	0.0811190934	-46.3457748	
	
130000000.	0.098239936	-73.417974	0.00165228876	-90.3334961	0.0549534397	-63.0794309	0.00119948651	-76.1211496	
	0.0016522885	-90.3334704	0.100994673	-64.6577971	0.00169317448	-87.5026011	0.0653498803	-56.1815862	
	0.0549534074	-63.0794801	0.00169317625	-87.5027139	0.106024973	-75.0662023999999	0.00149938314	-76.5283618	
	0.00119948996	-76.121304	0.0653499446	-56.1814798	0.00149938966	-76.5286071	0.0966418954	-63.8824692	
	
140000000.	0.102188713	-94.1309546000001	0.00179001292	-110.217656	0.0140586465	-64.654835	0.00135014742	-96.8097179	
	0.00179001288	-110.217626	0.106432129	-83.9251583	0.00178363247	-105.632075	0.0258535786	-65.0681287	
	0.014058629	-64.6549078	0.00178363401	-105.632239	0.111175165	-95.3036085	0.00171223115	-96.1148706	
	0.00135015082	-96.8099143	0.0258536475	-65.067815	0.00171223667	-96.1151451	0.101985694	-83.2413563	
	
150000000.	0.0940433952	-115.033775	0.00204587146	-133.003708	0.0336940846	46.670086	0.00157504519	-121.530934	
	0.00204587171	-133.00368	0.0997467926	-103.415518	0.00205238643	-125.993957	0.0246745659	38.7192818	
	0.0336940666	46.6700511	0.00205238697	-125.994147	0.103606175	-115.828284	0.00203692353	-120.62873	
	0.00157504838	-121.531141	0.0246746788	38.7189984	0.00203692845	-120.628977	0.0956154395	-102.836907	
	
160000000.	0.0750643536	-134.444509	0.00233240765	-159.665155	0.0725524203	28.3583093	0.00179434547	-150.07723	
	0.0023324081	-159.665134	0.0817966462	-121.314779	0.00241253905	-151.163983	0.0649589611	31.1725998	
	0.0725523775	28.3582592	0.00241253845	-151.16417	0.0845330719	-134.962012	0.00235449846	-149.499288	
	0.00179434846	-150.077433	0.0649590715	31.172495	0.00235450353	-149.499501	0.0783468304	-120.877686	
	
170000000.	0.0489501533	-148.391929	0.00255164808	171.178415	0.0990098035	5.0609559	0.00193671653	179.488306	
	0.00255164854	171.17843	0.0561730271000001	-133.631881	0.00273870396	-179.932749	0.0957939982	10.2760899	
	0.0990097423	5.06089985	0.00273870262	-179.932922	0.0577224386	-149.172807	0.00256476072	179.521113	
	0.00193671925	179.488108	0.0957941227	10.2760438	0.00256476617	179.520922	0.0536146223	-133.427711	
	
180000000.	0.0240680468999999	-137.052676	0.00264671131	141.444314	0.10807681	-19.0663392	0.00197145215	149.238234	
	0.00264671163	141.444326	0.031484023	-124.663264	0.0029457743	149.795041	0.110744326	-12.3987806	
	0.108076742	-19.0663988	0.00294577276	149.79488	0.0310846866999999	-143.838794	0.00262137422	148.587113	
	0.00197145444	149.238041	0.11074445	-12.3987922	0.00262137973	148.586929	0.0295788942	-124.576775	
	
190000000.	0.0289310586	-85.427586	0.00261791072	112.879357	0.09813628	-43.1530425	0.00191627069	120.975681	
	0.00261791085	112.87937	0.0331799243	-81.9327296999998	0.00300452604	119.740623	0.107259286	-35.1801329	
	0.0981362175	-43.1531044	0.00300452468	119.740471	0.0299807715	-98.0375586	0.00254074724	119.604415	
	0.00191627241	120.975491	0.107259394	-35.1801152	0.00254075213	119.604227	0.0311451552	-80.2537129999999	
	
200000000.	0.0531541293	-85.987758	0.00252065834	86.9055509	0.0710808412	-66.2092957	0.00183148525	96.0407498	
	0.0025206584	86.9055664	0.0576345978	-77.039764	0.00293458936	91.3252871	0.0861873331	-56.8756766	
	0.0710807941	-66.2093598	0.00293458826	91.3251365	0.0537646048	-92.1073481	0.00240249564	94.2203382	
	0.00183148626	96.0405628	0.0861874149	-56.8756243	0.00240249914	94.2201412	0.0548195654	-75.3807541	
	
210000000.	0.0731456312	-102.926519	0.00245226638	64.0822215	0.0323227438	-83.0972731	0.00180310948	74.4425907	
	0.00245226654	64.0822404	0.0804439743	-90.6882613	0.00280466141	65.8204968	0.0518926015	-73.9006173	
	0.0323227164	-83.0973426	0.00280466027	65.8203433	0.0756174961	-106.941845	0.00233571279	72.8187134	
	0.00180310963	74.4424122	0.0518926633	-73.9005012	0.00233571437	72.8185212	0.0767088389	-89.1853836000001	
	
220000000.	0.0832944694000001	-123.937057	0.00250869272	43.0223772	0.0154068732	24.4774241	0.00189720833	53.7512478	
	0.00250869309	43.0223958	0.0940135874	-109.315323	0.00273111187	43.6564478	0.0168937205	-48.7831586	
	0.015406868	24.4774187	0.00273111017	43.6562952	0.0879855419	-127.06327	0.0024493997	52.7835684	
	0.0018972076	53.7510904	0.0168938324	-48.7829684	0.00244939958	52.7834072	0.0895979547	-107.884981	
	
230000000.	0.0819267910999999	-146.107208	0.00271067216	20.8201992	0.0547827815	23.4495395	0.00210127178	30.7057429	
	0.00271067269	20.8202137	0.0955783633999999	-129.303843	0.00282321682	22.9916913	0.0393495039	17.475486	
	0.0547827643	23.4494989	0.0028232143	22.9915536	0.0886400996	-148.773674	0.00273093126	30.2026065	
	0.00210127039	30.7056152	0.0393495772	17.475355	0.00273093024	30.2024861	0.0908844582999999	-127.879047	
	
240000000.	0.0700226137	-168.068566	0.00298239027	-4.25576132	0.0856607181	1.94776848	0.00233254167	4.30542315	
	0.00298239082	-4.25575075	0.0853238628	-148.863585	0.00308426881	0.63076402	0.0736536174	4.85889213	
	0.0856606903	1.94772617	0.00308426575	0.630651155	0.0782700512000001	-170.52532	0.00306014098	3.8637994	
	0.00233253994	4.30532425	0.0736536794	4.85883584	0.00306013975	3.86371098	0.0808219017999999	-147.367978	
	
250000000.	0.0504328603000001	171.629014	0.00321570419	-31.7749912	0.101694191	-21.5315078	0.00250338341	-24.3053967	
	0.00321570466	-31.7749826	0.0657990261	-166.03719	0.00341039532	-24.7766925	0.0964847169	-15.464529	
	0.101694159	-21.5315482	0.00341039225	-24.776782	0.0595511748999999	168.991923	0.00331153188	-24.9890376	
	0.00250338164	-24.3054718	0.0964847724	-15.4645531	0.00331153072	-24.9891052	0.0619547183	-164.336777	
	
260000000.	0.0271334339	157.966073	0.00333528617	-60.3062887	0.100465883	-45.445013	0.00256674875	-53.3893408	
	0.00333528654	-60.3062803	0.0414932974	-175.578633	0.0036864074	-52.4502889	0.103706576	-37.2907432	
	0.100465853	-45.4450502	0.00368640467	-52.4503607	0.0362727443000001	153.076462	0.00341375169	-54.5417232	
	0.00256674716	-53.3893972	0.103706622	-37.2907475	0.00341375064	-54.5417772	0.0387182075	-173.264766	
	
270000000.	0.00991126352000006	-160.015068	0.00332463204	-88.3074968	0.0825736765	-69.126929	0.00252819893	-81.3293941	
	0.00332463235	-88.3074876	0.0227165898000001	-154.574378	0.00384367575	-81.0171736	0.0945621183	-59.0516479	
	0.0825736525	-69.1269625	0.00384367353	-81.0172321	0.0148630366	164.003411	0.00336429391	-83.084835	
	0.00252819763	-81.3294358	0.0945621525	-59.0516368	0.00336429292	-83.0848792	0.0214249881	-150.367386	
	
280000000.	0.0236078075	-116.711415	0.00322920802	-114.447835	0.0516188351	-91.0777697	0.00244143569	-106.879899	
	0.00322920832	-114.447825	0.0311517482999999	-116.72502	0.00386752984	-109.196412	0.0713177144	-79.0766912	
	0.051618819	-91.0777997	0.00386752811	-109.196459	0.0190922140000001	-134.371154	0.00323065351	-109.165404	
	0.00244143469	-106.879929	0.0713177396	-79.0766642	0.00323065254	-109.16544	0.0302357334	-113.886767	
	
290000000.	0.0384737305999999	-131.467576	0.00314443189	-138.065986	0.0145231935	-95.2872709	0.00239198244	-129.732537	
	0.00314443225	-138.065975	0.0498470462	-120.153205	0.00379655795	-135.893582	0.0394910709	-91.2917685	
	0.0145231841	-95.2872972	0.00379655663	-135.893619	0.0348893153	-140.172806	0.00313578987	-132.208675	
	0.0023919817	-129.732555	0.0394910948	-91.2917178	0.00313578889	-132.208701	0.0477726255	-117.934133	
	
300000000.	0.0458833221	-153.592234	0.00317234271	-159.971344	0.0266626786	16.3086201	0.00245499878	-151.316253	
	0.00317234312	-159.971335	0.0629800966	-135.933604	0.00371818047	-160.501832	0.0167965205	-45.5838429	
	0.0266626782	16.3086169	0.00371817952	-160.501857	0.0446977323000001	-160.471629	0.0031965479	-153.612862	
	0.00245499831	-151.316261	0.0167965559	-45.58386	0.00319654702	-153.612878	0.0596678128999999	-133.649806	
	
310000000.	0.0451625877	-177.900219	0.00334876981	177.687783	0.0580860717	-0.22324418	0.00263706653	-174.092453	
	0.00334877026	177.687791	0.0671529997	-154.821369	0.0037314541	176.45843	0.0391887893	-8.96355625	
	0.0580860677	-0.223248775	0.00373145354	176.458416	0.0467637944000001	175.642637	0.00342980341	-176.141848	
	0.00263706645	-174.092451	0.0391887981	-8.96358936	0.00342980278	-176.141855	0.0628965525000001	-152.212907	
	
320000000.	0.0377437468	156.518931	0.00361315137	153.279154	0.0782782766	-22.9224366	0.00286979539	160.657804	
	0.00361315183	153.279161	0.0624699500000001	-174.082881	0.00387716192	153.386032	0.0633277586	-22.1284185	
	0.0782782703	-22.9224367	0.00387716183	153.386029	0.042114997	150.028183	0.00374013424	158.689397	
	0.00286979579	160.657812	0.0633277581	-22.12843	0.00374013401	158.689395	0.0577410950000001	-170.869376	
	
330000000.	0.0262512748000001	129.162877	0.00386149007	126.810972	0.0843050599	-46.6477629	0.00306629808	133.420052	
	0.00386149052	126.810978	0.0509253575	167.951567	0.00410788179	128.947127	0.0765696225	-41.8570107	
	0.0843050528	-46.6477574	0.00410788221	128.947133	0.0330733033	122.798775	0.00400433958	131.351686	
	0.00306629902	133.420064	0.0765696171	-41.8570145	0.00400433984	131.351687	0.0463153087	172.270555	
	
340000000.	0.0137865377	96.7647729999996	0.00401330564	99.3179344	0.0761122473	-70.5486132	0.00317154764	105.462016	
	0.00401330606	99.3179406	0.0356174252000001	153.951828	0.00433540635	103.012877	0.0769520689	-62.9468782	
	0.0761122405	-70.5486013	0.00433540729	103.012891	0.0224170824	93.1853076000001	0.00414253326	103.182466	
	0.00317154912	105.462031	0.0769520613	-62.9468804	0.00414253408	103.182469	0.0318449229000001	160.532797	
	
350000000.	0.00414126964999997	30.5884472000002	0.00404459425	72.0782634	0.0561663765	-94.0469823	0.00318044329	78.0932645	
	0.00404459465	72.0782698	0.0207962901000001	152.246515	0.00449175839	76.3059174	0.065492642	-83.6101793	
	0.0561663707	-94.0469632	0.00449175981	76.305938	0.0127604931	59.6318513000003	0.00414389515	75.5961974	
	0.00318044527	78.0932818	0.0654926347	-83.6101856	0.00414389654	75.5962014	0.0189299744	163.76914	
	
360000000.	0.00554095221	-88.2485150000007	0.00399512471	46.1982964	0.0289877779	-115.227129	0.00313688477	52.3193774	
	0.00399512511	46.1983032	0.0142246129	-179.384406	0.00455938764	49.7775499	0.0455746408	-101.376475	
	0.028987774	-115.2271	0.00455938951	49.7775765	0.00589889210000001	21.9982652	0.00406898421	49.7215031	
	0.00313688726	52.3193958	0.0455746349	-101.376495	0.0040689862	49.7215071	0.0150698240000001	-168.005559	
	
370000000.	0.00698277869000001	-131.732205	0.00395525579	22.1714027	0.00349453901	-52.7653168	0.0031177014	28.4079954	
	0.00395525623	22.1714097	0.018828331	-160.870715	0.00457620192	24.1762851	0.023092222	-106.114878	
	0.00349454277	-52.7652581	0.00457620421	24.1763167	0.00213642784000008	10.9924798999996	0.00402825669	25.8802557	
	0.00311770442	28.4080127	0.0230922114	-106.11494	0.00402825933	25.8802578	0.0194661257999999	-156.094963	
	
380000000.	0.00408572025	-177.406351	0.00402045178	-0.643601324	0.0257245422	1.29432493	0.00319230617	5.45547452	
	0.00402045228	-0.643594987	0.0235472257	-167.324148	0.004615845	-0.35041983	0.0145348806	-54.088543	
	0.0257245422	1.29435059	0.00461584764	-0.350384617	0.00425948330999996	48.9982036000006	0.00412038278	3.05490864	
	0.00319230977	5.4554876	0.0145348453	-54.0885455	0.00412038613	3.05490679	0.0226921419999999	-162.993391	
	
390000000.	0.00384469420000007	43.311466599999	0.00422447563	-23.7930638	0.0428573582	-19.5536221	0.0033728629	-18.1333018	
	0.00422447618	-23.7930587	0.0244230818	178.90958	0.00473900851	-24.4476216	0.0274900376	-37.7700717	
	0.0428573553	-19.5535867	0.00473901147	-24.4475836	0.00997239295999991	27.3256217000002	0.00435771566	-20.5286968	
	0.00337286705	-18.1332945	0.0274900039	-37.7700316	0.00435771977	-20.5287038	0.0221522231000001	-174.696708	
	
400000000.	0.0110553118000001	-4.94010780999996	0.00451405994	-48.4617912	0.0497741694	-42.3517399	0.00360643719	-43.331431	
	0.00451406046	-48.4617871	0.0219008802000001	163.953232	0.00494530314	-49.0864781	0.0368630758	-51.8643866	
	0.0497741641	-42.3516965	0.00494530639	-49.0864375	0.016158386	2.18617472	0.00465948452	-45.8754786	
	0.00360644181	-43.3314286	0.0368630435	-51.8643615	0.0046594894	-45.8754908	0.0187678090000001	174.81839	
	
410000000.	0.0172075065	-31.8560126000001	0.00479417004	-74.692229	0.0464333144	-65.185279	0.00381812925	-69.9663243	
	0.00479417049	-74.6922252	0.0177110997	150.167086	0.00517344566	-74.7580383	0.0378225252	-71.5187455	
	0.0464333078	-65.1852271	0.00517344917	-74.7579951	0.0207560986999999	-20.1244835000001	0.00491876788	-72.7023647	
	0.00381813427	-69.9663249	0.0378224956	-71.5187398	0.00491877349	-72.7023813	0.0146860316	169.032705	
	
420000000.	0.0198735319	-52.7276978000001	0.00498955266	-101.724275	0.0349272497	-87.2407033	0.00395667895	-97.1971744	
	0.00498955304	-101.724271	0.0137155801999999	137.462968	0.00534768144	-101.181713	0.0309563935	-92.1360228	
	0.0349272437	-87.2406402	0.0053476852	-101.181668	0.0222197103999999	-37.5258579000001	0.00506808558	-100.024035	
	0.00395668431	-97.1971768	0.0309563689	-92.1360479	0.00506809182	-100.024055	0.0118258488999998	166.616735	
	
430000000.	0.018246559	-65.6668517999998	0.00507997589	-128.577349	0.0188908844	-106.656716	0.00401665095	-124.070634	
	0.00507997626	-128.577343	0.0109929447	120.728588	0.00542878157	-127.576223	0.0189958319	-110.315775	
	0.0188908812	-106.656632	0.00542878552	-127.576176	0.0206809792	-45.6483847	0.00510985714	-126.76804	
	0.00401665662	-124.070638	0.0189958119	-110.315869	0.00510986393	-126.768064	0.0100681418000001	157.184249	
	
440000000.	0.0147259837	-60.0111551000002	0.00510781268	-154.473445	0.0031949934	-92.1174181	0.00403960731	-149.917501	
	0.00510781311	-154.473439	0.00985191545	90.9081623999991	0.00544388952	-153.103446	0.00649627547	-106.123753	
	0.00319499956	-92.1172213	0.00544389354	-153.103399	0.0198941862999999	-38.6894950000001	0.0051153623	-152.236811	
