!$
! Info: Touchstone file created by Circ.  Input file=Intel_C2M_200G_13p0in_202208016_staggered.circ
!$
# Hz S RI R 50
0	0.03877784	6.139262e-24	0.961026	-1.041583e-23	0.0001588271	3.686016e-22	-0.0002871366	3.516409e-20
	0.961026	-1.041159e-23	0.03932431	1.083263e-23	-0.0002871924	3.517093e-20	0.000377531	1.549849e-21
	0.0001588824	3.687233e-22	-0.0002873253	3.51872e-20	0.03877587	5.802466e-24	0.9610263	-1.066953e-23
	-0.0002872694	3.518036e-20	0.0003775936	1.550949e-21	0.9610263	-1.067379e-23	0.03932574	1.111908e-23
1e+07	0.04800927	0.01186853	0.9385633	-0.1696382	0.003530264	0.008790184	-0.00206493	-0.0007807839
	0.9385633	-0.1696382	0.04879713	0.01136468	-0.002065543	-0.0007800419	0.003230532	0.008906213
	0.003530264	0.008790184	-0.002065543	-0.0007800419	0.04759569	0.01161215	0.9389945	-0.1693594
	-0.00206493	-0.0007807839	0.003230532	0.008906213	0.9389945	-0.1693594	0.04836318	0.01112454
2e+07	0.05879505	0.01484596	0.8883352	-0.3256591	0.008312068	0.01533915	-0.002653129	-0.0003942018
	0.8883352	-0.3256591	0.06171936	0.01295374	-0.002653493	-0.0003911444	0.007167764	0.01597547
	0.008312073	0.01533913	-0.002653511	-0.0003912507	0.05813072	0.01465183	0.8890556	-0.3254497
	-0.002653145	-0.0003943022	0.007167856	0.01597536	0.8890556	-0.3254497	0.06100429	0.01284133
3e+07	0.0674464	0.01268381	0.8156428	-0.4676727	0.01509018	0.01987747	-0.003044352	0.0001937972
	0.8156428	-0.4676727	0.07267271	0.007893537	-0.003042531	0.0001993628	0.01287482	0.02144828
	0.01509017	0.01987751	-0.003042572	0.0001993763	0.0666352	0.01266032	0.8165423	-0.4676572
	-0.003044366	0.0001937968	0.01287479	0.02144825	0.8165423	-0.4676572	0.07182564	0.008028997
4e+07	0.07397854	0.007927336	0.7220779	-0.5942459	0.02302914	0.02166622	-0.003149307	0.0009229558
	0.7220779	-0.5942459	0.08154056	-0.001079221	-0.003143303	0.0009295931	0.01965709	0.02491487
	0.02302915	0.02166624	-0.003143306	0.0009295995	0.07310856	0.008102788	0.7230648	-0.5944791
	-0.003149304	0.0009229695	0.01965709	0.02491488	0.7230648	-0.5944791	0.08067957	-0.000660653
5e+07	0.07848166	0.00167922	0.6101845	-0.7027682	0.03112141	0.02051678	-0.002943455	0.001653115
	0.6101845	-0.7027682	0.08766788	-0.01298059	-0.002932471	0.001658182	0.02684418	0.02616196
	0.03112142	0.02051678	-0.002932468	0.001658181	0.07762305	0.002054706	0.6111717	-0.7032738
	-0.002943452	0.001653113	0.02684418	0.02616197	0.6111717	-0.7032738	0.08689923	-0.01229129
6e+07	0.08104301	-0.005346485	0.4830394	-0.7908438	0.03836098	0.01654234	-0.00246711	0.002242228
	0.4830394	-0.7908438	0.09050163	-0.02675316	-0.002451919	0.002242882	0.03371775	0.02522948
	0.03836098	0.01654232	-0.002451917	0.002242879	0.08025355	-0.004788635	0.4839438	-0.7916209
	-0.002467107	0.002242226	0.03371775	0.02522948	0.4839438	-0.7916209	0.08991125	-0.02583953
7e+07	0.0818332	-0.01259883	0.3440942	-0.8565144	0.04383014	0.01018341	-0.001819953	0.002585662
	0.3440942	-0.8565144	0.08976608	-0.04130594	-0.00180283	0.002579537	0.03961979	0.02238244
	0.04383013	0.01018341	-0.001802821	0.002579469	0.08115766	-0.0118896	0.3448364	-0.8575416
	-0.001819952	0.002585659	0.03961979	0.02238244	0.3448364	-0.8575416	0.08941358	-0.04023741
8e+07	0.08109559	-0.01969113	0.1970684	-0.8983494	0.04680476	0.002159516	-0.00113495	0.002637006
	0.1970684	-0.8983494	0.08546651	-0.05556416	-0.001119317	0.002623103	0.04401666	0.01807731
	0.04680476	0.002159518	-0.001119316	0.002623105	0.08056598	-0.01886963	0.1975765	-0.8995883
	-0.00113495	0.002637009	0.04401666	0.01807731	0.1975765	-0.8995883	0.08538355	-0.05442257
9e+07	0.07908917	-0.02638627	0.04584502	-0.915493	0.046833	-0.00660834	-0.0005494312	0.002414757
	0.04584502	-0.915493	0.07789001	-0.06852253	-0.0005391159	0.002393877	0.0465532	0.01291288
	0.04683301	-0.006608343	-0.0005391084	0.002393883	0.07872661	-0.02549475	0.04605104	-0.9168854
	-0.0005494252	0.002414764	0.0465532	0.01291289	0.04605104	-0.9168855	0.07808169	-0.06739211
1e+08	0.07610057	-0.03256046	-0.1057253	-0.9076646	0.04378163	-0.01509873	-0.000175979	0.001998699
	-0.1057253	-0.9076646	0.06763795	-0.07933036	-0.0001747784	0.001973838	0.0470871	0.007561047
	0.04378163	-0.01509873	-0.000174779	0.001973837	0.07593304	-0.03163951	-0.1059044	-0.9091326
	-0.0001759796	0.001998698	0.0470871	0.007561047	-0.1059044	-0.9091326	0.06809955	-0.07829944
1.1e+08	0.07203059	-0.03841229	-0.253236	-0.874715	0.03784312	-0.02225887	-7.685614e-05	0.001491742
	-0.253236	-0.874715	0.05520088	-0.08750722	-8.367961e-05	0.001467196	0.04568281	0.002731555
	0.03784311	-0.02225887	-8.368066e-05	0.001467195	0.07199482	-0.03762467	-0.2537764	-0.8760653
	-7.685721e-05	0.001491741	0.04568281	0.002731555	-0.2537764	-0.8760653	0.05581916	-0.08667454
1.2e+08	0.06692771	-0.0434481	-0.3925814	-0.8183514	0.02963778	-0.02715616	-0.000290958	0.001041319
	-0.3925814	-0.8183514	0.04150633	-0.09218534	-0.0003053319	0.001020398	0.04269191	-0.0009568543
	0.02963778	-0.02715615	-0.0003053332	0.001020397	0.06695166	-0.04274604	-0.3934045	-0.8195266
	-0.0002909593	0.001041319	0.04269191	-0.0009568542	-0.3934045	-0.8195266	0.04218558	-0.0915381
1.3e+08	0.06101094	-0.04758517	-0.5202866	-0.7402488	0.01999305	-0.02914104	-0.0007594151	0.0007965689
	-0.5202866	-0.7402488	0.02773654	-0.09324809	-0.0007791233	0.0007816522	0.03861317	-0.003045355
	0.01999305	-0.02914103	-0.0007791246	0.0007816519	0.0610744	-0.04695483	-0.5213342	-0.741206
	-0.0007594165	0.0007965686	0.03861317	-0.003045354	-0.5213342	-0.741206	0.02841487	-0.09275778
1.4e+08	0.05440022	-0.05072093	-0.633058	-0.642626	0.009918557	-0.02784777	-0.001366961	0.000863552
	-0.633058	-0.642626	0.01496588	-0.09090131	-0.001388963	0.0008555027	0.03406871	-0.003262062
	0.009918557	-0.02784777	-0.001388964	0.0008555027	0.05447852	-0.05015968	-0.6342707	-0.6433334
	-0.001366962	0.0008635521	0.03406871	-0.003262061	-0.6342707	-0.6433334	0.0156037	-0.09052628
1.5e+08	0.04721517	-0.05272409	-0.7279724	-0.5282047	0.0005036811	-0.02324878	-0.001962378	0.001289454
	-0.7279724	-0.5282047	0.004133268	-0.08565157	-0.0019845	0.001287597	0.02973443	-0.001557262
	0.0005036817	-0.02324878	-0.001984501	0.001287598	0.04728011	-0.0522209	-0.7292922	-0.5286436
	-0.001962378	0.001289455	0.02973443	-0.001557262	-0.7292922	-0.5286436	0.004712822	-0.08534624
1.6e+08	0.03960908	-0.05343994	-0.8025681	-0.4001533	-0.007194274	-0.01566877	-0.002386548	0.002053489
	-0.8025681	-0.4001533	-0.004031272	-0.07825301	-0.002407462	0.002056774	0.02626319	0.001891798
	-0.007194273	-0.01566877	-0.002407462	0.002056774	0.03963742	-0.05297217	-0.8039394	-0.4003145
	-0.002386549	0.00205349	0.02626319	0.001891799	-0.8039394	-0.4003145	-0.003509029	-0.07797485
1.7e+08	0.03179326	-0.05270731	-0.8549309	-0.2620116	-0.01226178	-0.005761288	-0.002501121	0.00307014
	-0.8549309	-0.2620116	-0.009067128	-0.06963326	-0.002520127	0.003077758	0.02420995	0.006700601
	-0.01226178	-0.005761288	-0.002520128	0.003077758	0.03177332	-0.05224472	-0.856298	-0.2618956
	-0.002501121	0.003070141	0.02420995	0.006700601	-0.856298	-0.2618956	-0.008586264	-0.06934873
1.8e+08	0.02405171	-0.05038639	-0.8837544	-0.1175969	-0.01402925	0.005549876	-0.002212972	0.004204081
	-0.8837544	-0.1175969	-0.01082019	-0.06080369	-0.002229726	0.004215434	0.02396931	0.01232318
	-0.01402925	0.005549876	-0.002229727	0.004215434	0.02398656	-0.0498967	-0.885064	-0.1172139
	-0.002212972	0.004204081	0.02396931	0.01232318	-0.885064	-0.1172139	-0.01035516	-0.0604912
1.9e+08	0.01674467	-0.04639105	-0.8883886	0.02910161	-0.01214863	0.01715924	-0.001489726	0.005292888
	-0.8883886	0.02910161	-0.00945061	-0.05276139	-0.001503824	0.005307697	0.0257314	0.01811588
	-0.01214863	0.01715924	-0.001503824	0.005307697	0.01665105	-0.04584695	-0.889593	0.02973139
	-0.001489726	0.005292888	0.0257314	0.01811588	-0.889593	0.02973139	-0.008971404	-0.05241341
2e+08	0.01029789	-0.04072566	-0.8688695	0.1740447	-0.006638707	0.02789038	-0.0003651046	0.006174163
	-0.8688695	0.1740447	-0.005409425	-0.04639423	-0.0003760404	0.006192282	0.02946218	0.0234111
	-0.006638706	0.02789038	-0.0003760404	0.006192283	0.01020202	-0.04010949	-0.8699231	0.1748949
	-0.0003651046	0.006174163	0.02946218	0.0234111	-0.8699231	0.1748949	-0.004888157	-0.0460162
2.1e+08	0.005175193	-0.03351853	-0.825919	0.3132685	0.002106794	0.03661612	0.001067547	0.006711905
	-0.825919	0.3132685	0.0006105509	-0.04239808	0.001060932	0.006732897	0.03491147	0.02759384
	0.002106794	0.03661612	0.001060932	0.006732897	0.005108991	-0.03282501	-0.8267839	0.3143033
	0.001067546	0.006711905	0.03491147	0.02759384	-0.8267839	0.3143033	0.001196646	-0.04200686
2.2e+08	0.001838365	-0.02504445	-0.7609172	0.4430069	0.0133505	0.04237656	0.002672264	0.006816681
	-0.7609172	0.4430069	0.007751009	-0.04121493	0.002670961	0.00683974	0.04164408	0.03016904
	0.0133505	0.04237656	0.002670961	0.00683974	0.001833492	-0.02428187	-0.7615633	0.4441851
	0.002672263	0.006816681	0.04164408	0.03016904	-0.7615633	0.4441851	0.008414558	-0.04083468
2.3e+08	0.0006954325	-0.01573412	-0.6758531	0.5598059	0.02607942	0.04448172	0.004292369	0.006458202
	-0.6758531	0.5598059	0.01507514	-0.04299813	0.00429755	0.006481786	0.04909246	0.03081353
	0.02607942	0.04448172	0.00429755	0.006481786	0.0007787638	-0.01492233	-0.6762585	0.5610828
	0.004292369	0.006458202	0.04909246	0.03081353	-0.6762585	0.5610828	0.01581789	-0.04265619
2.4e+08	0.002044998	-0.006163748	-0.5732501	0.6606306	0.03910248	0.04258671	0.00577686	0.00566587
	-0.5732501	0.6606306	0.02166181	-0.04760791	0.005788827	0.005688047	0.05662226	0.02940757
	0.03910248	0.04258671	0.005788827	0.005688047	0.002235161	-0.005332469	-0.5734041	0.6619578
	0.00577686	0.005665871	0.05662226	0.02940757	-0.5734041	0.6619578	0.02247441	-0.04733035
2.5e+08	0.006022732	0.002975177	-0.4560761	0.7429396	0.05116755	0.03673241	0.007001934	0.00452049
	-0.4560761	0.7429396	0.02669398	-0.05463633	0.007020269	0.004538898	0.06360201	0.0260412
	0.05116755	0.03673241	0.007020269	0.004538898	0.006326969	0.003790711	-0.4559737	0.7442673
	0.007001934	0.00452049	0.06360201	0.0260412	-0.4559737	0.7442673	0.0275574	-0.05444361
2.6e+08	0.01255734	0.01092666	-0.3276348	0.8047451	0.06108506	0.02734703	0.007888187	0.003137405
	-0.3276348	0.8047451	0.02953159	-0.06345691	0.007911605	0.003149608	0.06947027	0.02099852
	0.06108506	0.02734703	0.007911605	0.003149608	0.01297056	0.01168896	-0.3272849	0.8060243
	0.007888187	0.003137405	0.06947027	0.02099852	-0.3272849	0.8060243	0.03042019	-0.0633612
2.7e+08	0.02134368	0.01693628	-0.1914659	0.8446461	0.0678446	0.01520796	0.008408483	0.001644352
	-0.1914659	0.8446461	0.0297658	-0.0732938	0.008434571	0.001648927	0.07379221	0.01472232
	0.0678446	0.01520796	0.008434571	0.001648927	0.02184816	0.01761019	-0.1908839	0.8458332
	0.008408483	0.001644352	0.07379221	0.01472232	-0.1908839	0.8458332	0.03065092	-0.07329678
2.8e+08	0.03183771	0.0203276	-0.05123844	0.861843	0.0707143	0.00137051	0.008586108	0.0001597316
	-0.05123844	0.861843	0.02724677	-0.08330075	0.008611963	0.0001558504	0.07630068	0.007762704
	0.0707143	0.00137051	0.008611963	0.0001558505	0.03240444	0.02088449	-0.05044779	0.8628979
	0.008586108	0.0001597317	0.07630068	0.007762704	-0.05044779	0.8628979	0.02810085	-0.08339309
2.9e+08	0.04327846	0.02058185	0.08934705	0.8561312	0.06931206	-0.0129301	0.008484493	-0.001227372
	0.08934705	0.8561312	0.02208652	-0.09264218	0.008507119	-0.001238827	0.07691844	0.0007183092
	0.06931206	-0.0129301	0.008507119	-0.001238827	0.04386944	0.02100225	0.09031652	0.8570196
	0.008484493	-0.001227372	0.07691844	0.0007183091	0.09031652	0.8570196	0.02288716	-0.09280519
3e+08	0.05473609	0.01740981	0.2266476	0.827879	0.06364259	-0.02639238	0.008190116	-0.002468643
	0.2266476	0.827879	0.01463882	-0.10057	0.008206992	-0.002485745	0.07576104	-0.005826805
	0.06364259	-0.02639238	0.008206992	-0.002485745	0.05530771	0.01768635	0.2277615	0.8285726
	0.008190116	-0.002468643	0.07576104	-0.005826805	0.2277615	0.8285726	0.01537181	-0.1007775
3.1e+08	0.06518487	0.01080841	0.3571558	0.778003	0.05410016	-0.03776725	0.007791801	-0.003562202
	0.3571558	0.778003	0.005457489	-0.1064884	0.007801168	-0.003582169	0.07312127	-0.01136091
	0.05410016	-0.03776725	0.007801168	-0.003582169	0.06569115	0.01094695	0.3583743	0.7784807
	0.007791801	-0.003562202	0.07312127	-0.01136091	0.3583743	0.7784807	0.006119085	-0.1067106
3.2e+08	0.07359437	0.001092872	0.477565	0.7079316	0.04143523	-0.04597042	0.007360014	-0.004547732
	0.477565	0.7079316	-0.004759958	-0.1100029	0.007361821	-0.004567258	0.06943562	-0.01549663
	0.04143523	-0.04597042	0.007361821	-0.004567258	0.07399171	0.001113921	0.4788505	0.7081801
	0.007360014	-0.004547732	0.06943562	-0.01549663	0.4788505	0.7081801	-0.004162564	-0.1102103
3.3e+08	0.07903256	-0.01110076	0.5848381	0.6195664	0.02669098	-0.05017939	0.006929819	-0.005493807
	0.5848381	0.6195664	-0.0152401	-0.1109504	0.006925962	-0.00550951	0.06523784	-0.01800823
	0.02669098	-0.05017939	0.006925962	-0.00550951	0.0792834	-0.01116384	0.5861484	0.6195795
	0.00692982	-0.005493807	0.06523784	-0.01800823	0.5861484	0.6195795	-0.01468842	-0.1111175
3.4e+08	0.08076842	-0.02484738	0.6762594	0.5152485	0.0111153	-0.04990872	0.006491496	-0.006477945
	0.6762594	0.5152485	-0.02520463	-0.109409	0.006484353	-0.006488187	0.06110415	-0.01885408
	0.0111153	-0.04990872	0.006484353	-0.006488187	0.08084589	-0.0249501	0.6775563	0.5150248
	0.006491496	-0.006477945	0.06110415	-0.01885408	0.6775563	0.5150248	-0.02467241	-0.1095184
3.5e+08	0.07836462	-0.03899912	0.7494994	0.397708	-0.003944393	-0.04505567	0.00598826	-0.007565667
	0.7494994	0.397708	-0.03394341	-0.1056868	0.005981251	-0.007569975	0.05759185	-0.01818165
	-0.003944393	-0.04505567	0.005981251	-0.007569975	0.07825488	-0.03908892	0.7507386	0.3972539
	0.00598826	-0.007565667	0.05759185	-0.01818165	0.7507386	0.3972539	-0.03339782	-0.1057318
3.6e+08	0.07174689	-0.05228102	0.8026622	0.2700206	-0.01715544	-0.03591623	0.00532548	-0.00878784
	0.8026622	0.2700206	-0.04087788	-0.1002908	0.00532218	-0.00878767	0.05518034	-0.01631199
	-0.01715544	-0.03591623	0.00532218	-0.00878767	0.07145256	-0.05230136	0.8038053	0.2693475
	0.00532548	-0.00878784	0.05518034	-0.01631199	0.8038053	0.2693475	-0.04028524	-0.1002761
3.7e+08	0.06124214	-0.06340962	0.8343486	0.1355435	-0.02731511	-0.02316734	0.0043888	-0.01012434
	0.8343486	0.1355435	-0.04561585	-0.09387605	0.004391133	-0.01012276	0.05421839	-0.01370712
	-0.02731511	-0.02316734	0.004391133	-0.01012276	0.06078293	-0.06330512	0.8353588	0.1346692
	0.0043888	-0.01012434	0.05421839	-0.01370712	0.8353588	0.1346692	-0.04494556	-0.09381939
3.8e+08	0.04757526	-0.07122212	0.8437073	-0.002153375	-0.03345663	-0.007817655	0.003067278	-0.01149602
	0.8437073	-0.002153375	-0.04798791	-0.08718354	0.003076297	-0.01149703	0.05488371	-0.01092101
	-0.03345663	-0.007817655	0.003076297	-0.01149703	0.04698749	-0.07094341	0.8445469	-0.003203281
	0.003067278	-0.01149602	0.05488371	-0.01092101	0.8445469	-0.003203281	-0.04721578	-0.0871132
3.9e+08	0.03182484	-0.07480239	0.8304776	-0.1393721	-0.03494022	0.008870395	0.001283147	-0.01276786
	0.8304776	-0.1393721	-0.04806356	-0.08096725	0.001296242	-0.0127753	0.05716056	-0.008538704
	-0.03494022	0.008870395	0.001296242	-0.0127753	0.03116001	-0.07431241	0.8311179	-0.1405663
	0.001283147	-0.01276786	0.05716056	-0.008538704	0.8311179	-0.1405663	-0.04717678	-0.08091863
4e+08	0.01533593	-0.07359118	0.7950254	-0.2723926	-0.03151811	0.02548466	-0.0009865698	-0.01376407
	0.7950254	-0.2723926	-0.04614358	-0.07591744	-0.0009727107	-0.01378102	0.06083837	-0.007110037
	-0.03151811	0.02548466	-0.0009727107	-0.01378102	0.01465599	-0.07286851	0.7954373	-0.2736938
	-0.0009865697	-0.01376407	0.06083837	-0.007110037	0.7954373	-0.2736938	-0.04514126	-0.07593006
4.1e+08	-0.0004009274	-0.06746299	0.7383448	-0.3975902	-0.02336864	0.04058328	-0.003691158	-0.0142941
	0.7383448	-0.3975902	-0.04272784	-0.07259097	-0.003681552	-0.01432144	0.06553383	-0.007085471
	-0.02336864	0.04058328	-0.003681552	-0.01432144	-0.001027735	-0.0665056	0.7385099	-0.3989554
	-0.003691158	-0.0142941	0.06553383	-0.007085471	0.7385099	-0.3989554	-0.04162323	-0.07270344
4.2e+08	-0.01389036	-0.0567611	0.6620531	-0.5115464	-0.0110933	0.05282395	-0.006701806	-0.014185
	0.6620531	-0.5115464	-0.03846326	-0.07135611	-0.006702077	-0.01422079	0.07073294	-0.008764367
	-0.0110933	0.05282395	-0.006702077	-0.01422079	-0.01439625	-0.05558831	0.6619614	-0.5129257
	-0.006701806	-0.014185	0.07073294	-0.008764367	0.6619614	-0.5129257	-0.03728186	-0.07160157
4.3e+08	-0.02378367	-0.04228589	0.5683359	-0.6111755	0.004326921	0.06108847	-0.009822629	-0.01331274
	0.5683359	-0.6111755	-0.03407348	-0.0723551	-0.009837224	-0.01335301	0.07585088	-0.01225767
	0.004326921	0.06108847	-0.009837224	-0.01335301	-0.02410811	-0.04093744	0.5679872	-0.6125192
	-0.009822629	-0.01331274	0.07585088	-0.01225767	0.5679872	-0.6125192	-0.03285155	-0.07275695
4.4e+08	-0.02901739	-0.02523371	0.459879	-0.6938277	0.02161165	0.0645909	-0.01281287	-0.01162985
	0.459879	-0.6938277	-0.03028308	-0.07549392	-0.01284416	-0.01166797	0.08029889	-0.01747713
	0.02161165	0.0645909	-0.01284416	-0.01166797	-0.02911305	-0.02376748	0.459285	-0.6950854
	-0.01281287	-0.01162985	0.08029889	-0.01747713	0.459285	-0.6950854	-0.02906266	-0.07606295
4.5e+08	-0.02892737	-0.007095731	0.3397736	-0.7573734	0.03929386	0.06295728	-0.01542104	-0.009178837
	0.3397736	-0.7573734	-0.02774166	-0.08045762	-0.0154685	-0.009207591	0.0835524	-0.0241462
	0.03929386	0.06295728	-0.0154685	-0.009207591	-0.02876586	-0.005582806	0.3389562	-0.758499
	-0.01542104	-0.009178837	0.0835524	-0.0241462	0.3389562	-0.758499	-0.02656674	-0.08119026
4.6e+08	-0.02332718	0.01047685	0.2113993	-0.8002673	0.05585355	0.05626558	-0.01742184	-0.006090832
	0.2113993	-0.8002673	-0.02695885	-0.08674896	-0.01748172	-0.006103815	0.08520874	-0.03183505
	0.05585355	0.05626558	-0.01748172	-0.006103815	-0.02290263	0.01195892	0.2103887	-0.8012205
	-0.01742184	-0.006090832	0.08520874	-0.03183505	0.2103887	-0.8012205	-0.02587033	-0.08762744
4.7e+08	-0.01254166	0.02582582	0.0783027	-0.8215799	0.06985817	0.04504193	-0.0186496	-0.002570226
	0.0783027	-0.8215799	-0.02825715	-0.09374441	-0.0187154	-0.002562273	0.08502918	-0.04001105
	0.06985817	0.04504193	-0.0187154	-0.002562273	-0.01187146	0.0271989	0.07713882	-0.8223274
	-0.0186496	-0.002570226	0.08502918	-0.04001105	0.07713882	-0.8223274	-0.02728797	-0.09473891
4.8e+08	0.002610501	0.03743995	-0.05591489	-0.8209886	0.08009372	0.03021236	-0.01902208	0.001137431
	-0.05591489	-0.8209886	-0.03174611	-0.1007631	-0.01908553	0.001167747	0.08295993	-0.04810041
	0.08009372	0.03021236	-0.01908553	0.001167747	0.003485189	0.03863395	-0.05718835	-0.8215114
	-0.01902208	0.001137431	0.08295993	-0.04810041	-0.05718835	-0.8215114	-0.030918	-0.1018343
4.9e+08	0.02087449	0.04410061	-0.1877033	-0.7987703	0.08567458	0.01301591	-0.01854912	0.004779081
	-0.1877033	-0.7987703	-0.03732103	-0.1071346	-0.01860159	0.004830582	0.07913178	-0.05555006
	0.08567458	0.01301591	-0.01860159	0.004830582	0.02189353	0.04505967	-0.1890437	-0.7990554
	-0.01854912	0.004779081	0.07913178	-0.05555006	-0.1890437	-0.7990554	-0.03664169	-0.1082385
5e+08	0.04066324	0.04500537	-0.3136693	-0.7557523	0.0861171	-0.005110335	-0.01732502	0.008133658
	-0.3136693	-0.7557523	-0.0446813	-0.1122633	-0.01735941	0.008200942	0.07383975	-0.06188446
	0.0861171	-0.005110335	-0.01735941	0.008200942	0.04175138	0.04569251	-0.3150292	-0.7557969
	-0.01732502	0.008133658	0.07383975	-0.06188446	-0.3150292	-0.7557969	-0.04414334	-0.1133562
5.1e+08	0.06019058	0.03985253	-0.430632	-0.6932599	0.08137509	-0.02265973	-0.0155082	0.01103931
	-0.430632	-0.6932599	-0.05336603	-0.1156818	-0.01551964	0.01111477	0.06750691	-0.06675126
	0.08137509	-0.02265973	-0.01551964	0.01111477	0.06126432	0.04025456	-0.4319726	-0.6930711
	-0.0155082	0.01103931	0.06750691	-0.06675126	-0.4319726	-0.6930711	-0.05294812	-0.1167243
5.2e+08	0.07762734	0.02889061	-0.5356969	-0.6130688	0.07183366	-0.03818769	-0.01328755	0.01341321
	-0.5356969	-0.6130688	-0.06280308	-0.1170884	-0.01327446	0.01348817	0.06063817	-0.06995187
