!$
! Info: Touchstone file created by Circ.  Input file=Intel_C2M_200G_13p0in_202208016_staggered.circ
!$
# Hz S RI R 50
0	0.03932432	1.083171e-23	-0.0001386046	1.697417e-20	0.0003775328	1.549843e-21	-0.0001344649	1.64672e-20
	-0.0001386047	1.697418e-20	0.03877784	6.139262e-24	-0.0001454743	1.781547e-20	0.0001588271	3.686016e-22
	0.0003775953	1.550944e-21	-0.0001454744	1.781548e-20	0.03932556	1.112204e-23	-0.0001386295	1.697722e-20
	-0.0001344648	1.646719e-20	0.0001588824	3.687233e-22	-0.0001386294	1.697721e-20	0.03877587	5.802466e-24
1e+07	0.0498591	0.01079186	-0.001398428	0.0001001889	0.002687304	0.008898466	-0.0001050393	-0.0001040518
	-0.001398428	0.0001001889	0.04800927	0.01186853	-0.0007888138	0.0001419053	0.003530264	0.008790184
	0.002687304	0.008898466	-0.0007888138	0.0001419053	0.04897539	0.0112315	-0.0005659533	-5.260136e-05
	-0.0001050393	-0.0001040518	0.003530264	0.008790184	-0.0005659533	-5.260136e-05	0.04759569	0.01161215
2e+07	0.06182079	0.01186169	-0.00128129	-0.000157031	0.006708262	0.01616841	-0.0001414044	-0.0001130878
	-0.00128129	-0.0001570309	0.05879505	0.01484596	-0.0008152873	-5.40362e-05	0.008312068	0.01533915
	0.006708354	0.0161683	-0.0008152873	-5.403608e-05	0.061615	0.01278177	-0.0005697155	-0.0001081725
	-0.0001414044	-0.0001130877	0.008312073	0.01533913	-0.0005697155	-0.0001081725	0.05813072	0.01465183
3e+07	0.07210245	0.006968036	-0.001254161	-0.0002308711	0.01250493	0.0217373	-0.0001925488	-0.0001283952
	-0.001254161	-0.0002308711	0.0674464	0.01268381	-0.0008564298	-6.055187e-05	0.01509018	0.01987747
	0.0125049	0.02173727	-0.0008564298	-6.055184e-05	0.07241194	0.007870242	-0.0006265599	-0.0001449787
	-0.0001925488	-0.0001283951	0.01509017	0.01987751	-0.00062656	-0.0001449787	0.0666352	0.01266032
4e+07	0.08054661	-0.001599671	-0.001264517	-0.0002250833	0.01938489	0.02526131	-0.0002544782	-0.0001286184
	-0.001264517	-0.0002250833	0.07397854	0.007927336	-0.0008948887	-1.162805e-05	0.02302914	0.02166622
	0.01938489	0.02526132	-0.0008948887	-1.162805e-05	0.08122027	-0.0008989063	-0.0006963978	-0.000127805
	-0.0002544782	-0.0001286183	0.02302915	0.02166624	-0.0006963979	-0.000127805	0.07310856	0.008102788
5e+07	0.08649188	-0.01299784	-0.001287476	-0.0001715262	0.02667204	0.02653426	-0.0003241424	-0.0001164501
	-0.001287476	-0.0001715262	0.07848166	0.00167922	-0.0009172764	6.481771e-05	0.03112141	0.02051678
	0.02667205	0.02653428	-0.0009172764	6.481771e-05	0.0873784	-0.01259049	-0.0007619754	-7.096006e-05
	-0.0003241424	-0.0001164501	0.03112142	0.02051678	-0.0007619754	-7.096003e-05	0.07762305	0.002054706
6e+07	0.08936553	-0.02626568	-0.001306662	-8.603034e-05	0.03364127	0.02559952	-0.0003923848	-8.540186e-05
	-0.001306662	-8.603034e-05	0.08104301	-0.005346485	-0.0009201846	0.0001501359	0.03836098	0.01654234
	0.03364127	0.02559952	-0.0009201846	0.0001501359	0.09031853	-0.02617987	-0.0008112293	1.357196e-05
	-0.0003923848	-8.540187e-05	0.03836098	0.01654232	-0.0008112292	1.357192e-05	0.08025355	-0.004788635
7e+07	0.08885659	-0.04038535	-0.001316662	2.928696e-05	0.03962804	0.02272605	-0.0004561569	-3.710549e-05
	-0.001316662	2.928699e-05	0.0818332	-0.01259883	-0.0009076944	0.000231052	0.04383014	0.01018341
	0.03962805	0.02272605	-0.0009076944	0.000231052	0.08974444	-0.04059852	-0.0008382935	0.000113487
	-0.0004561569	-3.710547e-05	0.04383013	0.01018341	-0.0008382935	0.000113487	0.08115766	-0.0118896
8e+07	0.08492333	-0.05433531	-0.001307938	0.0001668103	0.04409368	0.0183753	-0.0005133329	2.711523e-05
	-0.001307938	0.0001668103	0.08109559	-0.01969113	-0.0008894513	0.0003007581	0.04680476	0.002159516
	0.04409368	0.0183753	-0.0008894513	0.0003007582	0.08563919	-0.0547849	-0.0008431154	0.0002177214
	-0.0005133329	2.711523e-05	0.04680476	0.002159518	-0.0008431154	0.0002177215	0.08056598	-0.01886963
9e+07	0.07780091	-0.06714538	-0.001269757	0.000303668	0.04667928	0.01315193	-0.000562248	0.0001064353
	-0.001269757	0.000303668	0.07908917	-0.02638627	-0.0008773819	0.0003604791	0.046833	-0.00660834
	0.04667928	0.01315193	-0.0008773819	0.0003604791	0.07826821	-0.06773874	-0.0008300585	0.0003220014
	-0.000562248	0.0001064353	0.04683301	-0.006608343	-0.0008300585	0.0003220014	0.07872661	-0.02549475
1e+08	0.06806407	-0.07800165	-0.001183418	0.0004287294	0.04723958	0.007733532	-0.0006017984	0.0002005456
	-0.001183418	0.0004287294	0.07610057	-0.03256046	-0.0008829686	0.0004185314	0.04378163	-0.01509873
	0.04723958	0.007733532	-0.0008829686	0.0004185314	0.06822508	-0.07861954	-0.0007991449	0.0004278203
	-0.0006017984	0.0002005456	0.04378163	-0.01509873	-0.0007991449	0.0004278203	0.07593304	-0.03163951
1.1e+08	0.05595138	-0.08649895	-0.001078747	0.0005952974	0.04583722	0.002843232	-0.0006281913	0.0003048061
	-0.001078747	0.0005952974	0.07203059	-0.03841229	-0.0009065772	0.0004668632	0.03784312	-0.02225887
	0.04583722	0.002843232	-0.0009065772	0.0004668632	0.05589092	-0.08694725	-0.0007622454	0.0005329635
	-0.0006281913	0.0003048061	0.03784311	-0.02225887	-0.0007622454	0.0005329635	0.07199482	-0.03762467
1.2e+08	0.04240471	-0.09148398	-0.0009944981	0.0007560753	0.04283364	-0.0008965838	-0.0006374046	0.0004251983
	-0.0009944981	0.0007560753	0.06692771	-0.0434481	-0.0009450626	0.000538048	0.02963778	-0.02715616
	0.04283364	-0.0008965837	-0.0009450626	0.000538048	0.04222653	-0.09175649	-0.0007315698	0.0006407481
	-0.0006374046	0.0004251983	0.02963778	-0.02715615	-0.0007315698	0.0006407481	0.06695166	-0.04274604
1.3e+08	0.02867263	-0.09282629	-0.0009041113	0.0009172704	0.03873114	-0.003024994	-0.0006253394	0.0005608791
	-0.0009041113	0.0009172704	0.06101094	-0.04758517	-0.0009913597	0.0006458162	0.01999305	-0.02914104
	0.03873114	-0.003024994	-0.0009913597	0.0006458162	0.02844237	-0.09292264	-0.0006984592	0.00076022
	-0.0006253394	0.0005608791	0.01999305	-0.02914103	-0.0006984592	0.00076022	0.0610744	-0.04695483
1.4e+08	0.01586036	-0.09071375	-0.0007966365	0.001082278	0.03415626	-0.003268573	-0.0005843063	0.0007081734
	-0.0007966365	0.001082278	0.05440022	-0.05072093	-0.001029374	0.0007987063	0.009918557	-0.02784777
	0.03415626	-0.003268573	-0.001029374	0.0007987063	0.01563177	-0.09064219	-0.000653067	0.0008980916
	-0.0005843063	0.0007081734	0.009918557	-0.02784777	-0.000653067	0.0008980916	0.05447852	-0.05015968
1.5e+08	0.004933836	-0.08564189	-0.0006613498	0.001249991	0.02978944	-0.001577344	-0.0005079404	0.0008610254
	-0.0006613498	0.001249991	0.04721517	-0.05272409	-0.001038734	0.0009978598	0.0005036811	-0.02324878
	0.02978944	-0.001577344	-0.001038734	0.0009978598	0.004752462	-0.08542014	-0.0005816871	0.00105584
	-0.0005079404	0.0008610254	0.0005036817	-0.02324878	-0.0005816872	0.00105584	0.04728011	-0.0522209
1.6e+08	-0.003352154	-0.07836121	-0.0004882781	0.00141383	0.02628778	0.001870327	-0.0003912611	0.001010361
	-0.0004882781	0.00141383	0.03960908	-0.05343994	-0.0009980246	0.001235897	-0.007194274	-0.01566877
	0.02628778	0.001870327	-0.0009980246	0.001235897	-0.003449682	-0.07801521	-0.0004693225	0.00122772
	-0.0003912611	0.001010361	-0.007194273	-0.01566877	-0.0004693225	0.00122772	0.03963742	-0.05297217
1.7e+08	-0.008515248	-0.06980246	-0.0002714525	0.001560831	0.02420975	0.006687605	-0.0002319081	0.001144635
	-0.0002714525	0.001560831	0.03179326	-0.05270731	-0.0008313786	0.001515949	-0.01226178	-0.005761288
	0.02420975	0.006687605	-0.0008313786	0.001515949	-0.008501458	-0.06936466	-0.0003051238	0.001400052
	-0.0002319081	0.001144635	-0.01226178	-0.005761288	-0.0003051238	0.001400052	0.03177332	-0.05224472
1.8e+08	-0.01038364	-0.06098534	-7.865701e-06	0.001676736	0.02395232	0.01232536	-3.164055e-05	0.001250665
	-7.865698e-06	0.001676736	0.02405171	-0.05038639	-0.0005834927	0.001775739	-0.01402925	0.005549876
	0.02395232	0.01232536	-0.0005834927	0.001775739	-0.01024215	-0.06049269	-7.982752e-05	0.001553796
	-3.164055e-05	0.001250665	-0.01402925	0.005549876	-7.982752e-05	0.001553796	0.02398656	-0.0498967
1.9e+08	-0.009104787	-0.05291911	0.0002979115	0.001744057	0.02570674	0.01813629	0.00020323	0.001315577
	0.0002979115	0.001744057	0.01674467	-0.04639105	-0.0002566177	0.00198899	-0.01214863	0.01715924
	0.02570674	0.01813629	-0.0002566177	0.00198899	-0.008830104	-0.0524103	0.0002048909	0.001665217
	0.00020323	0.001315577	-0.01214863	0.01715924	0.0002048909	0.001665217	0.01665105	-0.04584695
2e+08	-0.005122555	-0.04650593	0.0006338289	0.001746623	0.02943874	0.02344924	0.0004618571	0.001328527
	0.0006338289	0.001746623	0.01029789	-0.04072566	0.0001454371	0.00212914	-0.006638707	0.02789038
	0.02943874	0.02344924	0.0001454371	0.00212914	-0.004721042	-0.04601754	0.0005373195	0.001711271
	0.0004618571	0.001328527	-0.006638706	0.02789038	0.0005373195	0.001711271	0.01020202	-0.04010949
2.1e+08	0.0008719917	-0.04245598	0.0009818556	0.001673146	0.03489668	0.02764605	0.0007299215	0.001282499
	0.0009818556	0.001673146	0.005175193	-0.03351853	0.0005927109	0.002174263	0.002106794	0.03661612
	0.03489668	0.02764605	0.0005927109	0.002174263	0.00138476	-0.04202041	0.000896614	0.001674338
	0.0007299215	0.001282499	0.002106794	0.03661612	0.000896614	0.001674338	0.005108991	-0.03282501
2.2e+08	0.008017477	-0.04122415	0.00131994	0.001519194	0.04164302	0.03022943	0.0009912368	0.001175417
	0.00131994	0.001519194	0.001838365	-0.02504445	0.001057852	0.002111943	0.0133505	0.04237656
	0.04164302	0.03022943	0.001057852	0.002111943	0.00861701	-0.04086626	0.001255718	0.001545442
	0.0009912368	0.001175417	0.0133505	0.04237656	0.001255718	0.001545442	0.001833492	-0.02428187
2.3e+08	0.01537024	-0.04297391	0.00162527	0.001288472	0.04910731	0.03087506	0.001229773	0.001010558
	0.00162527	0.001288472	0.0006954325	-0.01573412	0.001510686	0.001939283	0.02607942	0.04448172
	0.04910731	0.03087506	0.001510686	0.001939283	0.01602676	-0.04270924	0.001585516	0.001326427
	0.001229773	0.001010558	0.02607942	0.04448172	0.001585516	0.001326427	0.0007787638	-0.01492233
2.4e+08	0.02199983	-0.04757192	0.001877778	0.0009922794	0.05665226	0.02946322	0.001431653	0.0007959984
	0.001877778	0.0009922794	0.002044998	-0.006163748	0.001922006	0.001662954	0.03910248	0.04258671
	0.05665226	0.02946322	0.001922006	0.001662954	0.0226813	-0.04740565	0.001859554	0.001029797
	0.001431653	0.0007959984	0.03910248	0.04258671	0.001859554	0.001029797	0.002235161	-0.005332469
2.5e+08	0.02707895	-0.05461263	0.002062739	0.0006478584	0.0636438	0.02608498	0.001586699	0.0005432549
	0.002062739	0.0006478584	0.006022732	0.002975177	0.002266701	0.00129797	0.05116755	0.03673241
	0.0636438	0.02608498	0.002266701	0.00129797	0.02775423	-0.05453932	0.002058207	0.0006766636
	0.001586699	0.0005432549	0.05116755	0.03673241	0.002058207	0.0006766636	0.006326969	0.003790711
2.6e+08	0.02995774	-0.06346816	0.002172552	0.000275444	0.06951851	0.02102633	0.001689244	0.0002656725
	0.002172552	0.000275444	0.01255734	0.01092666	0.00252621	0.0008654692	0.06108506	0.02734703
	0.06951851	0.02102633	0.00252621	0.0008654692	0.03059999	-0.06347306	0.002171432	0.0002929395
	0.001689244	0.0002656725	0.06108506	0.02734703	0.002171432	0.0002929395	0.01297056	0.01168896
2.7e+08	0.03021929	-0.07335794	0.002206991	-0.0001048337	0.07384049	0.01473243	0.001738129	-2.367871e-05
	0.002206991	-0.0001048337	0.02134368	0.01693628	0.002689743	0.0003898897	0.0678446	0.01520796
	0.07384049	0.01473243	0.002689743	0.0003898897	0.03080851	-0.07341865	0.002199603	-9.512457e-05
	0.001738129	-2.367871e-05	0.0678446	0.01520796	0.002199603	-9.512457e-05	0.02184816	0.01761019
2.8e+08	0.02770825	-0.08342883	0.002172085	-0.0004758145	0.07634245	0.007755892	0.001735922	-0.0003133714
	0.002172085	-0.0004758145	0.03183771	0.0203276	0.002754407	-0.0001042054	0.0707143	0.00137051
	0.07634245	0.007755892	0.002754407	-0.0001042054	0.02823323	-0.0835176	0.002152317	-0.0004652109
	0.001735922	-0.0003133714	0.0707143	0.00137051	0.002152317	-0.0004652109	0.03240444	0.02088449
2.9e+08	0.02253417	-0.09283706	0.002077909	-0.00082526	0.07694789	0.0006977079	0.001687647	-0.0005948753
	0.002077909	-0.00082526	0.04327846	0.02058185	0.002724192	-0.0005945493	0.06931206	-0.0129301
	0.07694789	0.0006977078	0.002724192	-0.0005945493	0.02299375	-0.09292448	0.002045447	-0.0008023391
	0.001687647	-0.0005948753	0.06931206	-0.0129301	0.002045447	-0.0008023391	0.04386944	0.02100225
3e+08	0.01505143	-0.1008265	0.001935876	-0.00114669	0.07577385	-0.005856218	0.001599183	-0.0008629014
	0.001935876	-0.00114669	0.05473609	0.01740981	0.002608174	-0.001063099	0.06364259	-0.02639238
	0.07577385	-0.005856218	0.002608174	-0.001063099	0.01545445	-0.1008839	0.001897134	-0.00110034
	0.001599183	-0.0008629014	0.06364259	-0.02639238	0.001897134	-0.00110034	0.05530771	0.01768635
3.1e+08	0.005817242	-0.1067941	0.00175606	-0.001438823	0.07311515	-0.01139291	0.001475669	-0.001115096
	0.00175606	-0.001438823	0.06518487	0.01080841	0.002418178	-0.001497157	0.05410016	-0.03776725
	0.07311515	-0.01139291	0.002418178	-0.001497157	0.006181793	-0.1067973	0.00172364	-0.001361549
	0.001475669	-0.001115096	0.05410016	-0.03776725	0.00172364	-0.001361549	0.06569115	0.01094695
3.2e+08	-0.00446534	-0.1103402	0.001545033	-0.001703911	0.06941057	-0.01552458	0.001320421	-0.001350957
	0.001545033	-0.001703911	0.07359437	0.001092872	0.002166577	-0.001889197	0.04143523	-0.04597042
	0.06941057	-0.01552458	0.002166577	-0.001889197	-0.004113973	-0.1102721	0.001535603	-0.001594752
	0.001320421	-0.001350957	0.04143523	-0.04597042	0.001535603	-0.001594752	0.07399171	0.001113921
3.3e+08	-0.01501604	-0.1112987	0.001304773	-0.001945409	0.06519613	-0.01802577	0.00113417	-0.001570588
	0.001304773	-0.001945409	0.07903256	-0.01110076	0.001863949	-0.002236215	0.02669098	-0.05017939
	0.06519613	-0.01802577	0.001863949	-0.002236215	-0.01464676	-0.111151	0.001335872	-0.00181157
	0.00113417	-0.001570588	0.02669098	-0.05017939	0.001335872	-0.00181157	0.0792834	-0.01116384
3.4e+08	-0.02504927	-0.1097476	0.001030346	-0.002167171	0.06105014	-0.01885601	0.0009153201	-0.001773014
	0.001030346	-0.002167171	0.08076842	-0.02484738	0.001517927	-0.002537651	0.0111153	-0.04990872
	0.06105014	-0.01885601	0.001517927	-0.002537651	-0.02462975	-0.1095223	0.00111904	-0.002022249
	0.0009153201	-0.001773014	0.0111153	-0.04990872	0.00111904	-0.002022249	0.08084589	-0.0249501
3.5e+08	-0.03384818	-0.1059971	0.000718684	-0.002364181	0.05753147	-0.01816453	0.000660419	-0.001954846
	0.000718684	-0.002364181	0.07836462	-0.03899912	0.001132418	-0.002793777	-0.003944393	-0.04505567
	0.05753147	-0.01816453	0.001132418	-0.002793777	-0.03334606	-0.1057073	0.0008730384	-0.002231541
	0.000660419	-0.001954846	-0.003944393	-0.04505567	0.0008730384	-0.002231541	0.07825488	-0.03908892
3.6e+08	-0.04082874	-0.1005582	0.0003642256	-0.002529256	0.05512036	-0.01627462	0.0003659855	-0.00210917
	0.0003642256	-0.002529256	0.07174689	-0.05228102	0.0007080218	-0.003003059	-0.01715544	-0.03591623
	0.05512036	-0.01627462	0.0007080218	-0.003003059	-0.04021686	-0.1002268	0.0005823963	-0.002435803
	0.0003659855	-0.00210917	-0.01715544	-0.03591623	0.0005823963	-0.002435803	0.07145256	-0.05230136
3.7e+08	-0.04559518	-0.09409227	-3.630014e-05	-0.002649844	0.0541657	-0.01365067	3.025726e-05	-0.002225353
	-3.630014e-05	-0.002649844	0.06124214	-0.06340962	0.0002437978	-0.003160481	-0.02731511	-0.02316734
	0.0541657	-0.01365067	0.0002437978	-0.003160481	-0.04485425	-0.09375082	0.0002326401	-0.002621648
	3.025726e-05	-0.002225353	-0.02731511	-0.02316734	0.0002326401	-0.002621648	0.06078293	-0.06330512
3.8e+08	-0.04797676	-0.08734652	-0.0004809182	-0.00270934	0.05484439	-0.01084903	-0.0003445578	-0.002289798
	-0.0004809182	-0.00270934	0.04757526	-0.07122212	-0.0002604121	-0.003256673	-0.03345663	-0.007817655
	0.05484439	-0.01084903	-0.0002604121	-0.003256673	-0.04709715	-0.08703295	-0.0001846755	-0.002766852
	-0.0003445578	-0.002289798	-0.03345663	-0.007817655	-0.0001846755	-0.002766852	0.04698749	-0.07094341
3.9e+08	-0.04804398	-0.08108152	-0.0009604791	-0.002689599	0.05713911	-0.008456625	-0.0007508894	-0.002287681
	-0.0009604791	-0.002689599	0.03182484	-0.07480239	-0.0008014661	-0.00327829	-0.03494022	0.008870395
	0.05713911	-0.008456625	-0.0008014661	-0.00327829	-0.04702893	-0.08083537	-0.000668052	-0.002843505
	-0.0007508894	-0.002287681	-0.03494022	0.008870395	-0.000668052	-0.002843505	0.03116001	-0.07431241
4e+08	-0.04610076	-0.07599321	-0.001457831	-0.002574336	0.0608371	-0.007024615	-0.001174896	-0.002205428
	-0.001457831	-0.002574336	0.01533593	-0.07359118	-0.001370532	-0.003209583	-0.03151811	0.02548466
	0.0608371	-0.007024615	-0.001370532	-0.003209583	-0.04496516	-0.07585284	-0.001203593	-0.002822777
	-0.001174896	-0.002205428	-0.03151811	0.02548466	-0.001203593	-0.002822777	0.01465599	-0.07286851
4.1e+08	-0.04265179	-0.0726426	-0.001948708	-0.002352709	0.06555253	-0.007003849	-0.001596978	-0.002033516
	-0.001948708	-0.002352709	-0.0004009274	-0.06746299	-0.001951378	-0.003035427	-0.02336864	0.04058328
	0.06555253	-0.007003849	-0.001951378	-0.003035427	-0.04142276	-0.0726406	-0.001764806	-0.002680765
	-0.001596978	-0.002033516	-0.02336864	0.04058328	-0.001764806	-0.002680765	-0.001027735	-0.0665056
4.2e+08	-0.03834985	-0.07140018	-0.00240418	-0.002022374	0.07076885	-0.008693173	-0.001993483	-0.001768961
	-0.00240418	-0.002022374	-0.01389036	-0.0567611	-0.002520786	-0.002744386	-0.0110933	0.05282395
	0.07076885	-0.008693173	-0.002520786	-0.002744386	-0.03706353	-0.07155987	-0.002315441	-0.002403667
	-0.001993483	-0.001768961	-0.0110933	0.05282395	-0.002315441	-0.002403667	-0.01439625	-0.05558831
4.3e+08	-0.03392486	-0.0724082	-0.002794411	-0.001591105	0.07589907	-0.01220213	-0.00233955	-0.001416673
	-0.002794411	-0.001591105	-0.02378367	-0.04228589	-0.003049674	-0.002332364	0.004326921	0.06108847
	0.07589907	-0.01220213	-0.003049674	-0.002332364	-0.03262383	-0.0727406	-0.002814203	-0.00199163
	-0.00233955	-0.001416673	0.004326921	0.06108847	-0.002814203	-0.00199163	-0.02410811	-0.04093744
4.4e+08	-0.0301071	-0.07557051	-0.003092793	-0.001076727	0.0803529	-0.01744031	-0.002612265	-0.0009899286
	-0.003092793	-0.001076727	-0.02901739	-0.02523371	-0.003506445	-0.00180458	0.02161165	0.0645909
	0.0803529	-0.01744031	-0.003506445	-0.00180458	-0.02883505	-0.07607308	-0.003220836	-0.001460262
	-0.002612265	-0.0009899286	0.02161165	0.0645909	-0.003220836	-0.001460262	-0.02911305	-0.02376748
4.5e+08	-0.02755079	-0.08056822	-0.003279802	-0.000505132	0.08360512	-0.02412875	-0.002793882	-0.0005089323
	-0.003279802	-0.000505132	-0.02892737	-0.007095731	-0.003860666	-0.001176635	0.03929386	0.06295728
	0.08360512	-0.02412875	-0.003860666	-0.001176635	-0.02634857	-0.08122471	-0.003502573	-0.000838856
	-0.002793882	-0.0005089323	0.03929386	0.06295728	-0.003502573	-0.000838856	-0.02876586	-0.005582806
4.6e+08	-0.02676851	-0.08689877	-0.00334548	9.304535e-05	0.08525329	-0.03183502	-0.00287403	1.78203e-06
	-0.00334548	9.304535e-05	-0.02332718	0.01047685	-0.004086968	-0.0004738935	0.05585355	0.05626558
	0.08525329	-0.03183502	-0.004086968	-0.0004738935	-0.02566966	-0.08768097	-0.003638923	-0.000166219
	-0.00287403	1.78203e-06	0.05585355	0.05626558	-0.003638923	-0.000166219	-0.02290263	0.01195892
4.7e+08	-0.02808358	-0.09393273	-0.003290328	0.0006867932	0.08505982	-0.04002424	-0.002850631	0.0005163357
	-0.003290328	0.0006867932	-0.01254166	0.02582582	-0.004168482	0.0002712292	0.06985817	0.04504193
	0.08505982	-0.04002424	-0.004168482	0.0002712292	-0.02711062	-0.09480391	-0.003624398	0.0005147353
	-0.002850631	0.0005163357	0.06985817	0.04504193	-0.003624398	0.0005147353	-0.01187146	0.0271989
4.8e+08	-0.03160433	-0.1009834	-0.003124228	0.001248477	0.08297276	-0.04812087	-0.002729391	0.001010855
	-0.003124228	0.001248477	0.002610501	0.03743995	-0.004098829	0.001022802	0.08009372	0.03021236
	0.08297276	-0.04812087	-0.004098829	0.001022802	-0.03076685	-0.1019016	-0.003468342	0.001163734
	-0.002729391	0.001010855	0.08009372	0.03021236	-0.003468342	0.001163734	0.003485189	0.03863395
4.9e+08	-0.03722294	-0.1073753	-0.002863907	0.001756861	0.07912511	-0.05557089	-0.002522121	0.00146587
	-0.002863907	0.001756861	0.02087449	0.04410061	-0.003882589	0.001744895	0.08567458	0.01301591
