!$
! Info: Touchstone file created by Circ.  Input file=Intel_C2M_200G_13p0in_202208016_staggered.circ
!$
# Hz S RI R 50
0	0.03876525	5.989501e-24	0.0001177579	1.829599e-22	0.0001591973	3.721988e-22	0.0001176954	1.826675e-22
	0.0001177579	1.829599e-22	0.03877784	6.139262e-24	0.0001177424	1.828408e-22	0.0001588271	3.686016e-22
	0.0001592526	3.723205e-22	0.0001177424	1.828428e-22	0.0387603	5.687683e-24	0.0001177089	1.825536e-22
	0.0001176953	1.826695e-22	0.0001588824	3.687233e-22	0.0001177089	1.825536e-22	0.03877587	5.802466e-24
1e+07	0.04817918	0.01169109	0.0001155068	4.52845e-06	0.002979521	0.008712996	2.043487e-05	8.480146e-05
	0.0001155068	4.52845e-06	0.04800927	0.01186853	0.0001096763	6.551311e-05	0.003530264	0.008790184
	0.002979521	0.008712996	0.0001096763	6.551311e-05	0.0490934	0.01136106	6.384208e-05	4.309312e-05
	2.043487e-05	8.480146e-05	0.003530264	0.008790184	6.384208e-05	4.309312e-05	0.04759569	0.01161215
2e+07	0.05869603	0.01453402	9.039716e-05	1.690277e-05	0.007824108	0.01540518	8.083573e-05	8.095788e-05
	9.039716e-05	1.690277e-05	0.05879505	0.01484596	0.0001363528	3.158494e-05	0.008312068	0.01533915
	0.007824113	0.01540517	0.0001363528	3.158494e-05	0.05901844	0.01376271	6.646926e-05	8.881249e-06
	8.083573e-05	8.095788e-05	0.008312073	0.01533913	6.646926e-05	8.881249e-06	0.05813072	0.01465183
3e+07	0.06714777	0.01241182	8.055399e-05	2.618598e-05	0.01466878	0.01999524	0.0001231728	5.818404e-05
	8.055399e-05	2.618598e-05	0.0674464	0.01268381	0.0001537588	3.605617e-06	0.01509018	0.01987747
	0.01466878	0.01999528	0.0001537588	3.605618e-06	0.06703381	0.01165009	6.654723e-05	-8.122874e-06
	0.0001231728	5.818404e-05	0.01509017	0.01987751	6.654723e-05	-8.122877e-06	0.0666352	0.01266032
4e+07	0.07352941	0.007759766	7.115354e-05	2.686747e-05	0.02268613	0.02181018	0.0001505501	2.51082e-05
	7.115354e-05	2.686747e-05	0.07397854	0.007927336	0.0001613841	-2.726317e-05	0.02302914	0.02166622
	0.02268614	0.0218102	0.0001613841	-2.726317e-05	0.07310202	0.007147924	6.303911e-05	-2.22602e-05
	0.0001505501	2.510819e-05	0.02302915	0.02166624	6.30391e-05	-2.22602e-05	0.07310856	0.008102788
5e+07	0.07792747	0.001655919	6.091365e-05	2.498423e-05	0.03086869	0.02066552	0.0001641661	-1.319756e-05
	6.091365e-05	2.498423e-05	0.07848166	0.00167922	0.0001597314	-6.315445e-05	0.03112141	0.02051678
	0.0308687	0.02066553	0.0001597314	-6.315445e-05	0.07729482	0.001263477	5.628906e-05	-3.55612e-05
	0.0001641661	-1.319756e-05	0.03112142	0.02051678	5.628906e-05	-3.55612e-05	0.07762305	0.002054706
6e+07	0.0804296	-0.005199428	4.963399e-05	2.325421e-05	0.03820766	0.01667278	0.0001646241	-5.278354e-05
	4.963399e-05	2.325421e-05	0.08104301	-0.005346485	0.0001469932	-9.673676e-05	0.03836098	0.01654234
	0.03820766	0.01667276	0.0001469932	-9.673676e-05	0.07969024	-0.005345586	4.61277e-05	-4.589394e-05
	0.0001646241	-5.278354e-05	0.03836098	0.01654232	4.61277e-05	-4.589394e-05	0.08025355	-0.004788635
7e+07	0.08120841	-0.0122661	4.775602e-05	8.198377e-06	0.04378052	0.01027009	0.0001524194	-9.011143e-05
	4.775602e-05	8.198377e-06	0.0818332	-0.01259883	0.0001238115	-0.0001249786	0.04383014	0.01018341
	0.04378051	0.01027009	0.0001238115	-0.0001249786	0.08044827	-0.01216982	3.366711e-05	-5.242587e-05
	0.0001524194	-9.011143e-05	0.04383013	0.01018341	3.366711e-05	-5.242587e-05	0.08115766	-0.0118896
8e+07	0.08051023	-0.01916777	4.277341e-05	-8.125453e-06	0.0468571	0.002175427	0.0001296435	-0.0001221977
	4.277341e-05	-8.125453e-06	0.08109559	-0.01969113	9.332304e-05	-0.0001453623	0.04680476	0.002159516
	0.0468571	0.002175429	9.332304e-05	-0.0001453623	0.07980045	-0.01885476	2.033233e-05	-5.488425e-05
	0.0001296435	-0.0001221977	0.04680476	0.002159518	2.033233e-05	-5.488425e-05	0.08056598	-0.01886963
9e+07	0.07859793	-0.02567797	3.295302e-05	-2.014729e-05	0.04697794	-0.006690368	9.813649e-05	-0.0001469071
	3.295302e-05	-2.014729e-05	0.07908917	-0.02638627	5.81976e-05	-0.0001564828	0.046833	-0.00660834
	0.04697795	-0.006690371	5.81976e-05	-0.0001564829	0.07799526	-0.02518812	7.422659e-06	-5.335471e-05
	9.813649e-05	-0.0001469071	0.04683301	-0.006608343	7.422659e-06	-5.335471e-05	0.07872661	-0.02549475
1e+08	0.07577555	-0.03168011	1.895957e-05	-2.684819e-05	0.0440001	-0.01530451	5.660303e-05	-0.0001630432
	1.895957e-05	-2.684819e-05	0.07610057	-0.03256046	1.896963e-05	-0.0001576574	0.04378163	-0.01509873
	0.04400009	-0.01530451	1.896963e-05	-0.0001576574	0.0753431	-0.03106101	1.527623e-06	-4.702456e-05
	5.660303e-05	-0.0001630432	0.04378163	-0.01509873	1.527623e-06	-4.702456e-05	0.07593304	-0.03163951
1.1e+08	0.07192622	-0.03747986	6.868481e-06	-2.35367e-05	0.03810736	-0.02259812	1.551861e-05	-0.0001542933
	6.868481e-06	-2.35367e-05	0.07203059	-0.03841229	3.571519e-06	-0.0001396651	0.03784312	-0.02225887
	0.03810736	-0.02259812	3.57152e-06	-0.0001396651	0.07160897	-0.03692586	-4.311264e-07	-3.960022e-05
	1.551861e-05	-0.0001542933	0.03784311	-0.02225887	-4.311265e-07	-3.960022e-05	0.07199482	-0.03762467
1.2e+08	0.06701165	-0.04251899	-3.400966e-07	-1.952691e-05	0.02992731	-0.02763692	-9.805409e-06	-0.0001393956
	-3.400966e-07	-1.952691e-05	0.06692771	-0.0434481	-7.93764e-06	-0.000122137	0.02963778	-0.02715616
	0.02992731	-0.02763692	-7.93764e-06	-0.000122137	0.06673651	-0.04197922	-2.853786e-06	-3.355061e-05
	-9.805409e-06	-0.0001393956	0.02963778	-0.02715615	-2.853785e-06	-3.355061e-05	0.06695166	-0.04274604
1.3e+08	0.06126198	-0.04670033	-6.204107e-06	-1.555699e-05	0.02028309	-0.02976784	-2.001059e-05	-0.0001234351
	-6.204107e-06	-1.555699e-05	0.06101094	-0.04758517	-1.777743e-05	-0.0001046976	0.01999305	-0.02914104
	0.02028309	-0.02976784	-1.777743e-05	-0.0001046976	0.06101767	-0.04615885	-5.486995e-06	-2.799664e-05
	-2.001059e-05	-0.0001234351	0.01999305	-0.02914103	-5.486995e-06	-2.799664e-05	0.0610744	-0.04695483
1.4e+08	0.05479338	-0.04991493	-1.075334e-05	-1.131903e-05	0.01018222	-0.02861886	-2.91073e-05	-0.0001068456
	-1.075334e-05	-1.131903e-05	0.05440022	-0.05072093	-2.544756e-05	-8.725403e-05	0.009918557	-0.02784777
	0.01018222	-0.02861886	-2.544756e-05	-8.725403e-05	0.05456706	-0.0493694	-7.376423e-06	-2.257517e-05
	-2.91073e-05	-0.0001068456	0.009918557	-0.02784777	-7.376423e-06	-2.257517e-05	0.05447852	-0.05015968
1.5e+08	0.04772017	-0.05202496	-1.378445e-05	-6.54963e-06	0.0007138547	-0.0241548	-3.637145e-05	-8.955866e-05
	-1.378445e-05	-6.54963e-06	0.04721517	-0.05272409	-3.074e-05	-6.991291e-05	0.0005036811	-0.02324878
	0.0007138553	-0.0241548	-3.074e-05	-6.991291e-05	0.04749659	-0.0514677	-8.552e-06	-1.732077e-05
	-3.637145e-05	-8.955866e-05	0.0005036817	-0.02324878	-8.552e-06	-1.732077e-05	0.04728011	-0.0522209
1.6e+08	0.0401909	-0.05286801	-1.544396e-05	-1.510852e-06	-0.007062458	-0.0166923	-4.128785e-05	-7.174356e-05
	-1.544396e-05	-1.510852e-06	0.03960908	-0.05343994	-3.354191e-05	-5.287114e-05	-0.007194274	-0.01566877
	-0.007062457	-0.01669229	-3.354191e-05	-5.287114e-05	0.0399594	-0.05228326	-9.034824e-06	-1.226492e-05
	-4.128785e-05	-7.174356e-05	-0.007194273	-0.01566877	-9.034824e-06	-1.226492e-05	0.03963742	-0.05297217
1.7e+08	0.03241307	-0.0522744	-1.582615e-05	3.587074e-06	-0.01222825	-0.006877117	-4.347352e-05	-5.374222e-05
	-1.582615e-05	3.587074e-06	0.03179326	-0.05270731	-3.404239e-05	-3.621394e-05	-0.01226178	-0.005761288
	-0.01222825	-0.006877116	-3.404239e-05	-3.621394e-05	0.03217331	-0.05164169	-8.88288e-06	-7.39627e-06
	-4.347352e-05	-5.374222e-05	-0.01226178	-0.005761288	-8.88288e-06	-7.39627e-06	0.03177332	-0.05224472
1.8e+08	0.02466893	-0.05009447	-1.500151e-05	8.540279e-06	-0.01410627	0.004373312	-4.267595e-05	-3.603959e-05
	-1.500151e-05	8.540279e-06	0.02405171	-0.05038639	-3.20072e-05	-2.020762e-05	-0.01402925	0.005549876
	-0.01410627	0.004373312	-3.20072e-05	-2.020762e-05	0.0244325	-0.04939486	-8.123788e-06	-2.70003e-06
	-4.267595e-05	-3.603959e-05	-0.01402925	0.005549876	-8.123788e-06	-2.70003e-06	0.02398656	-0.0498967
1.9e+08	0.01731922	-0.04623188	-1.304429e-05	1.314315e-05	-0.01233849	0.01595748	-3.879906e-05	-1.922676e-05
	-1.304429e-05	1.314315e-05	0.01674467	-0.04639105	-2.723438e-05	-5.479873e-06	-0.01214863	0.01715924
	-0.01233849	0.01595748	-2.723438e-05	-5.479873e-06	0.0171076	-0.04545355	-6.607015e-06	1.635352e-06
	-3.879906e-05	-1.922676e-05	-0.01214863	0.01715924	-6.607015e-06	1.635352e-06	0.01665105	-0.04584695
2e+08	0.01079273	-0.04068079	-1.004858e-05	1.719566e-05	-0.006932412	0.02669968	-3.192139e-05	-3.94917e-06
	-1.004858e-05	1.719566e-05	0.01029789	-0.04072566	-1.995736e-05	7.407827e-06	-0.006638707	0.02789038
	-0.006932411	0.02669968	-1.995736e-05	7.407827e-06	0.01063228	-0.03982262	-4.387657e-06	5.466084e-06
	-3.192139e-05	-3.94917e-06	-0.006638706	0.02789038	-4.387657e-06	5.466084e-06	0.01020202	-0.04010949
2.1e+08	0.005558921	-0.0335602	-6.132713e-06	2.05087e-05	0.001729847	0.03546963	-2.23044e-05	9.144489e-06
	-6.132713e-06	2.05087e-05	0.005175193	-0.03351853	-1.056372e-05	1.794119e-05	0.002106794	0.03661612
	0.001729847	0.03546963	-1.056372e-05	1.794119e-05	0.005476867	-0.03263295	-1.560342e-06	8.659655e-06
	-2.23044e-05	9.144489e-06	0.002106794	0.03661612	-1.560342e-06	8.659655e-06	0.005108991	-0.03282501
2.2e+08	0.002087667	-0.02513706	-1.443131e-06	2.29071e-05	0.0129214	0.04130059	-1.038924e-05	1.945467e-05
	-1.443131e-06	2.29071e-05	0.001838365	-0.02504445	4.140138e-07	2.56985e-05	0.0133505	0.04237656
	0.0129214	0.04130059	4.140138e-07	2.56985e-05	0.002106303	-0.02416304	1.749366e-06	1.110758e-05
	-1.038924e-05	1.945467e-05	0.0133505	0.04237656	1.749366e-06	1.110758e-05	0.001833492	-0.02428187
2.3e+08	0.0007971182	-0.01583646	3.946811e-06	2.436844e-05	0.02563739	0.04349246	3.331373e-06	2.647073e-05
	3.946811e-06	2.436844e-05	0.0006954325	-0.01573412	1.244796e-05	3.038554e-05	0.02607942	0.04448172
	0.02563739	0.04349246	1.244796e-05	3.038554e-05	0.0009299673	-0.01484614	5.39171e-06	1.273124e-05
	3.331373e-06	2.647073e-05	0.02607942	0.04448172	5.39171e-06	1.273124e-05	0.0007787638	-0.01492233
2.4e+08	0.001997358	-0.006231837	9.837815e-06	2.477665e-05	0.03869154	0.04168771	1.800684e-05	2.976554e-05
	9.837815e-06	2.477665e-05	0.002044998	-0.006163748	2.47242e-05	3.181178e-05	0.03910248	0.04258671
	0.03869154	0.04168771	2.47242e-05	3.181178e-05	0.002246944	-0.005260807	9.220929e-06	1.348359e-05
	1.800684e-05	2.976554e-05	0.03910248	0.04258671	9.220929e-06	1.348359e-05	0.002235161	-0.005332469
2.5e+08	0.005836145	0.002985011	1.605652e-05	2.390995e-05	0.05083241	0.03591328	3.277047e-05	2.915408e-05
	1.605652e-05	2.390995e-05	0.006022732	0.002975177	3.649527e-05	3.002439e-05	0.05116755	0.03673241
	0.05083241	0.03591328	3.649527e-05	3.002439e-05	0.00619241	0.003901087	1.30861e-05	1.333565e-05
	3.277047e-05	2.915408e-05	0.05116755	0.03673241	1.30861e-05	1.333565e-05	0.006326969	0.003790711
2.6e+08	0.01225395	0.01105454	2.235525e-05	2.155898e-05	0.06086682	0.02658354	4.671281e-05	2.465212e-05
	2.235525e-05	2.155898e-05	0.01255734	0.01092666	4.705344e-05	2.523669e-05	0.06108506	0.02734703
	0.06086682	0.02658354	4.705344e-05	2.523669e-05	0.01269523	0.01188346	1.683541e-05	1.227094e-05
	4.671281e-05	2.465212e-05	0.06108506	0.02734703	1.683541e-05	1.227094e-05	0.01297056	0.01168896
2.7e+08	0.02095635	0.01721579	2.839266e-05	1.754888e-05	0.06777653	0.01446322	5.8918e-05	1.64864e-05
	2.839266e-05	1.754888e-05	0.02134368	0.01693628	5.575562e-05	1.780688e-05	0.0678446	0.01520796
	0.06777653	0.01446322	5.575562e-05	1.780688e-05	0.02145085	0.0179329	2.030756e-05	1.028027e-05
	5.8918e-05	1.64864e-05	0.0678446	0.01520796	2.030756e-05	1.028027e-05	0.02184816	0.01761019
2.8e+08	0.03140822	0.02078309	3.372447e-05	1.17781e-05	0.07081817	0.0005975827	6.850787e-05	5.10154e-06
	3.372447e-05	1.17781e-05	0.03183771	0.0203276	6.204528e-05	8.217984e-06	0.0707143	0.00137051
	0.07081817	0.0005975826	6.204528e-05	8.217984e-06	0.03191704	0.02137449	2.331723e-05	7.36713e-06
	6.850787e-05	5.10154e-06	0.0707143	0.00137051	2.331723e-05	7.36713e-06	0.03240444	0.02088449
2.9e+08	0.04285519	0.02122612	3.781538e-05	4.266388e-06	0.06959507	-0.01378464	7.469298e-05	-8.839754e-06
	3.781538e-05	4.266388e-06	0.04327846	0.02058185	6.546668e-05	-2.937852e-06	0.06931206	-0.0129301
	0.06959507	-0.01378464	6.546668e-05	-2.937852e-06	0.0433359	0.02168969	2.564704e-05	3.561597e-06
	7.469298e-05	-8.839754e-06	0.06931206	-0.0129301	2.564704e-05	3.561597e-06	0.04386944	0.02100225
3e+08	0.05437112	0.01824236	4.007178e-05	-4.795427e-06	0.06409562	-0.02738411	7.682728e-05	-2.446823e-05
	4.007178e-05	-4.795427e-06	0.05473609	0.01740981	6.568268e-05	-1.497317e-05	0.06364259	-0.02639238
	0.06409562	-0.02738411	6.568268e-05	-1.497317e-05	0.0547817	0.01858876	2.7045e-05	-1.055574e-06
	7.682728e-05	-2.446822e-05	0.06364259	-0.02639238	2.7045e-05	-1.055574e-06	0.05530771	0.01768635
3.1e+08	0.06493063	0.01181415	3.989977e-05	-1.49975e-05	0.05469708	-0.03894881	7.446716e-05	-4.073009e-05
	3.989977e-05	-1.49975e-05	0.06518487	0.01080841	6.249306e-05	-2.71219e-05	0.05410016	-0.03776725
	0.05469708	-0.03894881	6.249306e-05	-2.71219e-05	0.06523269	0.01206589	2.723634e-05	-6.324465e-06
	7.446716e-05	-4.073009e-05	0.05410016	-0.03776725	2.723634e-05	-6.324465e-06	0.06569115	0.01094695
3.2e+08	0.07349977	0.002241539	3.67887e-05	-2.56995e-05	0.04213381	-0.04738641	6.743054e-05	-5.642834e-05
	3.67887e-05	-2.56995e-05	0.07359437	0.001092872	5.585903e-05	-3.855e-05	0.04143523	-0.04597042
	0.04213381	-0.04738641	5.585903e-05	-3.855e-05	0.0736625	0.002432477	2.595043e-05	-1.19841e-05
	6.743054e-05	-5.642834e-05	0.04143523	-0.04597042	2.595043e-05	-1.19841e-05	0.07399171	0.001113921
3.3e+08	0.07913853	-0.009854244	3.040675e-05	-3.603841e-05	0.02743541	-0.05186139	5.585051e-05	-7.02877e-05
	3.040675e-05	-3.603841e-05	0.07903256	-0.01110076	4.592967e-05	-4.83885e-05	0.02669098	-0.05017939
	0.02743541	-0.05186139	4.592967e-05	-4.83885e-05	0.07914104	-0.009682268	2.296331e-05	-1.765446e-05
	5.585051e-05	-7.02877e-05	0.02669098	-0.05017939	2.296331e-05	-1.765446e-05	0.0792834	-0.01116384
3.4e+08	0.0811032	-0.02356115	2.069439e-05	-4.498735e-05	0.01184026	-0.05187112	4.021734e-05	-8.10371e-05
	2.069439e-05	-4.498735e-05	0.08076842	-0.02484738	3.307089e-05	-5.576448e-05	0.0111153	-0.04990872
	0.01184026	-0.05187112	3.307089e-05	-5.576448e-05	0.08093739	-0.02336108	1.81476e-05	-2.284444e-05
	4.021734e-05	-8.10371e-05	0.0111153	-0.04990872	1.81476e-05	-2.284444e-05	0.08084589	-0.0249501
3.5e+08	0.07893923	-0.03774099	7.9406e-06	-5.144747e-05	-0.003308346	-0.04729277	2.138789e-05	-8.752061e-05
	7.9406e-06	-5.144747e-05	0.07836462	-0.03899912	1.788572e-05	-5.987005e-05	-0.003944393	-0.04505567
	-0.003308346	-0.04729277	1.788572e-05	-5.987005e-05	0.07860994	-0.03746403	1.152784e-05	-2.697399e-05
	2.138789e-05	-8.752061e-05	-0.003944393	-0.04505567	1.152784e-05	-2.697399e-05	0.07825488	-0.03908892
3.6e+08	0.07255138	-0.05112327	-7.186048e-06	-5.437806e-05	-0.01667551	-0.03840108	5.725396e-07	-8.880963e-05
	-7.186048e-06	-5.437806e-05	0.07174689	-0.05228102	1.212076e-06	-6.002025e-05	-0.01715544	-0.03591623
	-0.01667551	-0.03840108	1.212076e-06	-6.002025e-05	0.07207791	-0.05072261	3.32708e-06	-2.942885e-05
	5.725396e-07	-8.880963e-05	-0.01715544	-0.03591623	3.32708e-06	-2.942885e-05	0.07145256	-0.05230136
3.7e+08	0.06224352	-0.06242225	-2.364057e-05	-5.294005e-05	-0.02704975	-0.02585267	-2.073044e-05	-8.432401e-05
	-2.364057e-05	-5.294005e-05	0.06124214	-0.06340962	-1.588427e-05	-5.573484e-05	-0.02731511	-0.02316734
	-0.02704975	-0.02585267	-1.588427e-05	-5.573484e-05	0.06165832	-0.06185719	-6.012312e-06	-2.96342e-05
	-2.073044e-05	-8.432401e-05	-0.02731511	-0.02316734	-6.012312e-06	-2.96342e-05	0.06078293	-0.06330512
3.8e+08	0.04871787	-0.07046495	-4.008517e-05	-4.662917e-05	-0.03344922	-0.0106389	-4.084123e-05	-7.393061e-05
	-4.008517e-05	-4.662917e-05	0.04757526	-0.07122212	-3.216822e-05	-4.682216e-05	-0.03345663	-0.007817655
	-0.03344922	-0.0106389	-3.216822e-05	-4.682216e-05	0.04806468	-0.06970439	-1.582567e-05	-2.714184e-05
	-4.084123e-05	-7.393061e-05	-0.03345663	-0.007817655	-1.582567e-05	-2.714184e-05	0.04698749	-0.07094341
3.9e+08	0.03303368	-0.07431722	-5.50035e-05	-3.538576e-05	-0.03521404	0.005990148	-5.804496e-05	-5.800179e-05
	-5.50035e-05	-3.538576e-05	0.03182484	-0.07480239	-4.631231e-05	-3.344894e-05	-0.03494022	0.008870395
	-0.03521404	0.005990148	-4.631231e-05	-3.344894e-05	0.03236518	-0.07334395	-2.527697e-05	-2.171445e-05
	-5.804496e-05	-5.800179e-05	-0.03494022	0.008870395	-2.527697e-05	-2.171445e-05	0.03116001	-0.07431241
4e+08	0.01652291	-0.07339524	-6.686326e-05	-1.964845e-05	-0.03207283	0.02262835	-7.074911e-05	-3.743141e-05
	-6.686326e-05	-1.964845e-05	0.01533593	-0.07359118	-5.700966e-05	-1.618583e-05	-0.03151811	0.02548466
	-0.03207283	0.02262835	-5.700966e-05	-1.618583e-05	0.01589577	-0.07220732	-3.342772e-05	-1.340037e-05
	-7.074911e-05	-3.743141e-05	-0.03151811	0.02548466	-3.342772e-05	-1.340037e-05	0.01465599	-0.07286851
4.1e+08	0.0006717204	-0.06754478	-7.429239e-05	-3.410763e-07	-0.02417903	0.03783245	-7.765667e-05	-1.357459e-05
	-7.429239e-05	-3.410763e-07	-0.0004009274	-0.06746299	-6.311189e-05	3.990716e-06	-0.02336864	0.04058328
	-0.02417903	0.03783245	-6.311189e-05	3.990716e-06	0.0001427123	-0.06615719	-3.935083e-05	-2.561929e-06
	-7.765667e-05	-1.357459e-05	-0.02336864	0.04058328	-3.935083e-05	-2.561929e-06	-0.001027735	-0.0665056
4.2e+08	-0.01301911	-0.05707963	-7.623041e-05	2.119467e-05	-0.01211005	0.05025134	-7.790265e-05	1.184654e-05
	-7.623041e-05	2.119467e-05	-0.01389036	-0.0567611	-6.376938e-05	2.574719e-05	-0.0110933	0.05282395
	-0.01211005	0.05025134	-6.376938e-05	2.574719e-05	-0.01339878	-0.05552434	-4.224006e-05	1.01258e-05
	-7.790265e-05	1.184654e-05	-0.0110933	0.05282395	-4.224006e-05	1.01258e-05	-0.01439625	-0.05558831
4.3e+08	-0.02318577	-0.04277352	-7.20516e-05	4.332186e-05	0.003174026	0.05875088	-7.1151e-05	3.690064e-05
	-7.20516e-05	4.332186e-05	-0.02378367	-0.04228589	-5.854164e-05	4.749355e-05	0.004326921	0.06108847
	0.003174026	0.05875088	-5.854164e-05	4.749355e-05	-0.02337575	-0.04109698	-4.152129e-05	2.373188e-05
	-7.1151e-05	3.690064e-05	0.004326921	0.06108847	-4.152129e-05	2.373188e-05	-0.02410811	-0.04093744
4.4e+08	-0.02874161	-0.0258022	-6.163419e-05	6.425722e-05	0.0204085	0.0625233	-5.763397e-05	5.961671e-05
	-6.163419e-05	6.425722e-05	-0.02901739	-0.02523371	-4.748425e-05	6.752677e-05	0.02161165	0.0645909
	0.0204085	0.0625233	-4.748425e-05	6.752677e-05	-0.02871632	-0.02406219	-3.692882e-05	3.715865e-05
	-5.763397e-05	5.961671e-05	0.02161165	0.0645909	-3.692882e-05	3.715865e-05	-0.02911305	-0.02376748
4.5e+08	-0.02899393	-0.007644552	-4.536917e-05	8.222731e-05	0.03813534	0.06116853	-3.81393e-05	7.814321e-05
	-4.536917e-05	8.222731e-05	-0.02892737	-0.007095731	-3.116701e-05	8.419534e-05	0.03929386	0.06295728
	0.03813534	0.06116853	-3.116701e-05	8.419534e-05	-0.02874601	-0.005904734	-2.854239e-05	4.925704e-05
	-3.81393e-05	7.814321e-05	0.03929386	0.06295728	-2.854239e-05	4.925704e-05	-0.02876586	-0.005582806
4.6e+08	-0.02372542	0.01005121	-2.41361e-05	9.560623e-05	0.05483548	0.05473626	-1.39452e-05	9.09046e-05
	-2.41361e-05	9.560623e-05	-0.02332718	0.01047685	-1.062825e-05	9.606298e-05	0.05585355	0.05626558
	0.05483548	0.05473626	-1.062825e-05	9.606298e-05	-0.02326695	0.01172753	-1.678727e-05	5.893258e-05
	-1.39452e-05	9.09046e-05	0.05585355	0.05626558	-1.678727e-05	5.893258e-05	-0.02290263	0.01195892
4.7e+08	-0.01323079	0.02562063	7.596567e-07	0.0001030373	0.06906893	0.04372457	1.328037e-05	9.672137e-05
	7.596567e-07	0.0001030373	-0.01254166	0.02582582	1.270606e-05	0.0001020345	0.06985817	0.04504193
	0.06906893	0.04372457	1.270606e-05	0.0001020345	-0.01259169	0.02717524	-2.391713e-06	6.524579e-05
	1.328037e-05	9.672137e-05	0.06985817	0.04504193	-2.391713e-06	6.524579e-05	-0.01187146	0.0271989
4.8e+08	0.001698333	0.03753817	2.76614e-05	0.000103527	0.07960596	0.02903417	4.158853e-05	9.488646e-05
	2.76614e-05	0.000103527	0.002610501	0.03743995	3.715445e-05	0.0001014555	0.08009372	0.03021236
	0.07960596	0.02903417	3.715445e-05	0.0001014555	0.002471533	0.03892456	1.367932e-05	6.74895e-05
