# GHz S RI R 45
0.000     0.014902405000    0.000000000000    0.000002530137    -0.000000000000    0.000496498580    0.000000000000    0.000012852542    -0.000000000000
            0.000002530228    -0.000000000000    0.014092065000    0.000000000000    0.000007002120    -0.000000000000    0.000245412310    0.000000000000
            0.000496576000    0.000000000000    0.000007002253    -0.000000000000    0.014860377000    0.000000000000    0.000005082259    0.000000000000
            0.000012852638    -0.000000000000    0.000245414530    0.000000000000    0.000005082134    0.000000000000    0.013919773000    0.000000000000
0.025     0.018439025485    0.010244944112    -0.000001971368    -0.000004538012    0.001612752870    0.009468450511    -0.000001162013    -0.000011464019
            -0.000001971272    -0.000004538022    0.017331928040    0.010504705175    0.000004750742    -0.000003577957    0.001297725538    0.009799647717
            0.001612711243    0.009468280993    0.000004750879    -0.000003577964    0.018383389799    0.010265300040    0.000004958596    -0.000003295481
            -0.000001161925    -0.000011464023    0.001297605116    0.009799482193    0.000004958467    -0.000003295476    0.017347366478    0.010587972199
0.050     0.022468066197    0.017347986735    -0.000003511686    -0.000004554623    0.004559866486    0.018323366891    -0.000006063921    -0.000008649366
            -0.000003511592    -0.000004554632    0.021161241496    0.018111645083    0.000003871836    -0.000004930599    0.004102622892    0.019052864071
            0.004559974031    0.018323347341    0.000003871967    -0.000004930614    0.022410215464    0.017409012506    0.000004562536    -0.000006598688
            -0.000006063832    -0.000008649375    0.004102654095    0.019052852237    0.000004562402    -0.000006598674    0.021211009208    0.018082276721
0.075     0.027278953086    0.023330566713    -0.000003576487    -0.000005384157    0.009143009610    0.026221040259    -0.000006359491    -0.000007853418
            -0.000003576392    -0.000005384171    0.025769761213    0.024704018493    0.000003704833    -0.000006728044    0.008478612025    0.027472569082
            0.009143092219    0.026221028398    0.000003704968    -0.000006728066    0.027230977206    0.023432888643    0.000003977110    -0.000010013281
            -0.000006359403    -0.000007853431    0.008478619032    0.027472567966    0.000003976986    -0.000010013261    0.025756028414    0.024606345524
0.100     0.032881050874    0.027963777072    -0.000003461059    -0.000006898443    0.015051534745    0.032828338624    -0.000005760836    -0.000008665448
            -0.000003460964    -0.000006898462    0.031185407090    0.030103908039    0.000003506224    -0.000008951693    0.014176861211    0.034771173431
            0.015051610430    0.032828323725    0.000003506353    -0.000008951720    0.032851331795    0.028106301295    0.000003006148    -0.000013556139
            -0.000005760747    -0.000008665466    0.014176863639    0.034771172441    0.000003006026    -0.000013556114    0.031074058636    0.029987071572
0.125     0.038929164638    0.031095371345    -0.000003591609    -0.000008967615    0.021903645855    0.037912130504    -0.000005202506    -0.000010744460
            -0.000003591515    -0.000008967639    0.037127881192    0.034185626424    0.000003056758    -0.000011552063    0.020883652552    0.040740565904
            0.021903721206    0.037912111223    0.000003056894    -0.000011552098    0.038926677796    0.031275647851    0.000001605246    -0.000017213907
            -0.000005202419    -0.000010744482    0.020883654685    0.040740564810    0.000001605116    -0.000017213872    0.036909346369    0.034098026590
0.150     0.044977392525    0.032676946220    -0.000004120240    -0.000011384048    0.029284957910    0.041353380887    -0.000005068173    -0.000013666640
            -0.000004120149    -0.000011384076    0.043225496424    0.036912281968    0.000002191241    -0.000014393607    0.028264177241    0.045261174393
            0.029285032264    0.041353358866    0.000002191374    -0.000014393650    0.045012040615    0.032891907363    -0.000000330935    -0.000020896265
            -0.000005068088    -0.000013666666    0.028264169332    0.045261175795    -0.000000331053    -0.000020896227    0.042904951363    0.036899981586
0.175     0.050631708618    0.032841166274    -0.000005206601    -0.000014003607    0.036772386607    0.043138360133    -0.000005696447    -0.000017198261
            -0.000005206510    -0.000014003639    0.049167962754    0.038384118632    0.000000827068    -0.000017385472    0.035971779950    0.048294288409
            0.036772460486    0.043138333948    0.000000827190    -0.000017385518    0.050713696791    0.033083938412    -0.000002831191    -0.000024537629
            -0.000005696363    -0.000017198290    0.035971781636    0.048294287153    -0.000002831311    -0.000024537584    0.048767166546    0.038488005348
0.200     0.055537134452    0.031812866143    -0.000006847975    -0.000016654228    0.043962927608    0.043364235002    -0.000007134541    -0.000021034914
            -0.000006847886    -0.000016654266    0.054673976794    0.038771009845    -0.000001084373    -0.000020390744    0.043674506531    0.049888219155
            0.043962998918    0.043364205427    -0.000001084251    -0.000020390795    0.055675735879    0.032073427913    -0.000005922299    -0.000028029149
            -0.000007134458    -0.000021034947    0.043674497801    0.049888221481    -0.000005922411    -0.000028029100    0.054225551217    0.039023687931
0.225     0.059417994169    0.029891797915    -0.000009068858    -0.000019213752    0.050499643792    0.042221349476    -0.000009491388    -0.000024965318
            -0.000009068771    -0.000019213794    0.059522604958    0.038295214967    -0.000003551971    -0.000023318866    0.051071656390    0.050163370325
            0.050499714060    0.042221316879    -0.000003551851    -0.000023318925    0.059620648848    0.030156700028    -0.000009596680    -0.000031302996
            -0.000009491312    -0.000024965355    0.051071657265    0.050163369434    -0.000009596789    -0.000031302942    0.059068744437    0.038718109645
0.250     0.062087949324    0.027450614066    -0.000011816556    -0.000021578071    0.056092718781    0.039984318377    -0.000012716547    -0.000028786743
            -0.000011816473    -0.000021578116    0.063562970556    0.037234921512    -0.000006571665    -0.000026069920    0.057912717675    0.049307759865
            0.056092786943    0.039984281330    -0.000006571550    -0.000026069982    0.062358729981    0.027703498974    -0.000013846869    -0.000034276698
            -0.000012716469    -0.000028786785    0.057912719396    0.049307757844    -0.000013846971    -0.000034276640    0.063150930758    0.037837496923
0.275     0.063472435553    0.024891208108    -0.000015069460    -0.000023673366    0.060535547443    0.036986563329    -0.000016812555    -0.000032343589
            -0.000015069403    -0.000023673458    0.066728802354    0.035886406287    -0.000010127723    -0.000028575381    0.064006859503    0.047555300516
            0.060535598471    0.036986527762    -0.000010127612    -0.000028575448    0.063811177593    0.025113640933    -0.000018658579    -0.000036893696
            -0.000016812479    -0.000032343635    0.064006861136    0.047555299996    -0.000018658683    -0.000036893632    0.066408294030    0.036664353524
0.300     0.063608928314    0.022630248617    -0.000018786893    -0.000025444368    0.063718638413    0.033604119177    -0.000021721054    -0.000035504837
            -0.000018786816    -0.000025444421    0.069039770954    0.034556055486    -0.000014212544    -0.000030761569    0.069236127293    0.045175814781
            0.063718703398    0.033604075272    -0.000014212434    -0.000030761642    0.064010461683    0.022802656504    -0.000024028873    -0.000039084248
            -0.000021720982    -0.000035504886    0.069236128082    0.045175813573    -0.000024028972    -0.000039084180    0.068859008382    0.035491448676
0.325     0.062649044735    0.021056725201    -0.000022953428    -0.000026837666    0.065634279401    0.030224929426    -0.000027417185    -0.000038147154
            -0.000022953349    -0.000026837726    0.070598838960    0.033524365339    -0.000018813312    -0.000032562403    0.073555337850    0.042449899035
            0.065634342023    0.030224881898    -0.000018813211    -0.000032562478    0.063102432510    0.021160030152    -0.000029951045    -0.000040780911
            -0.000027417113    -0.000038147208    0.073555339457    0.042449898251    -0.000029951152    -0.000040780831    0.070601262347    0.034586316854
0.350     0.060849707778    0.020516031366    -0.000027556313    -0.000027799735    0.066382904872    0.027230036728    -0.000033858587    -0.000040156430
            -0.000027556239    -0.000027799796    0.071587117109    0.033037938236    -0.000023929852    -0.000033896559    0.077000357127    0.039657289950
            0.066382965243    0.027229987047    -0.000023929751    -0.000033896641    0.061338109546    0.020533121620    -0.000036429048    -0.000041894301
            -0.000033858523    -0.000040156483    0.077000358708    0.039657289064    -0.000036429145    -0.000041894221    0.071807827559    0.034184024448
0.375     0.058558632875    0.021272512696    -0.000032588364    -0.000028257033    0.066163882448    0.024958712248    -0.000041006816    -0.000041400013
            -0.000032588292    -0.000028257100    0.072247772364    0.033278909951    -0.000029545260    -0.000034672641    0.079676331423    0.037049237617
            0.066163946382    0.024958653262    -0.000029545159    -0.000034672730    0.059059926962    0.021190193967    -0.000043447883    -0.000042320014
            -0.000041006756    -0.000041400068    0.079676333883    0.037049237070    -0.000043447977    -0.000042319929    0.072710822785    0.034457543676
0.400     0.056196585502    0.023497006024    -0.000038039281    -0.000028120719    0.065270956049    0.023690450733    -0.000048809865    -0.000041739067
            -0.000038039216    -0.000028120783    0.072874455774    0.034360577084    -0.000035643060    -0.000034776388    0.081758710311    0.034838919238
            0.065270955109    0.023690450392    -0.000035642961    -0.000034776486    0.056683774736    0.023307558736    -0.000050987681    -0.000041926677
            -0.000048809802    -0.000041739131    0.081758712759    0.034838918595    -0.000050987740    -0.000041926621    0.073590488096    0.035513867546
0.425     0.054228560009    0.027238890258    -0.000043876044    -0.000027276052    0.064068453892    0.023611950715    -0.000057184890    -0.000041011823
            -0.000043875979    -0.000027276128    0.073786272524    0.036305963557    -0.000042169233    -0.000034081195    0.083471826727    0.033175678615
            0.064068518991    0.023611878180    -0.000042169148    -0.000034081284    0.054671447583    0.026941630471    -0.000058985849    -0.000040568021
            -0.000057184831    -0.000041011887    0.083471828235    0.033175677528    -0.000058985911    -0.000040567957    0.074751061680    0.037373425192
0.450     0.053136430809    0.032421652312    -0.000050042417    -0.000025593419    0.062973063204    0.024805927026    -0.000066019722    -0.000039050954
            -0.000050042357    -0.000025593499    0.075310751619    0.039049866856    -0.000049049124    -0.000032442518    0.085080545642    0.032140771241
            0.062973123956    0.024805851925    -0.000049049062    -0.000032442587    0.053503458133    0.032024189140    -0.000067351586    -0.000038079054
            -0.000066019660    -0.000039051026    0.085080547138    0.032140770109    -0.000067351639    -0.000038078991    0.076504410338    0.039972045554
0.475     0.053379928135    0.038831520726    -0.000056431633    -0.000022932972    0.062416471737    0.027228684569    -0.000075141365    -0.000035687040
            -0.000056431583    -0.000022933044    0.077753165711    0.042430155602    -0.000056150700    -0.000029720805    0.086861056141    0.031729737829
            0.062416528087    0.027228605416    -0.000056150637    -0.000029720885    0.053640520256    0.038350602228    -0.000075929904    -0.000034301105
            -0.000075141306    -0.000035687124    0.086861059128    0.031729735483    -0.000075929987    -0.000034300999    0.079140695390    0.043153306995
0.500     0.055364069462    0.046129316030    -0.000062896573    -0.000019162644    0.062816298699    0.030714841326    -0.000084333354    -0.000030769195
            -0.000062896524    -0.000019162725    0.081377404202    0.046200650346    -0.000063304892    -0.000025782900    0.089086341863    0.031858119174
            0.062816350395    0.030714760642    -0.000063304829    -0.000025782991    0.055491032305    0.045590330596    -0.000084520991    -0.000029085785
            -0.000084333297    -0.000030769291    0.089086341863    0.031858119174    -0.000084521040    -0.000029085719    0.082910270897    0.046679928806
0.525     0.059398417161    0.053860550241    -0.000069227321    -0.000014176208    0.064533999755    0.034975533925    -0.000093307870    -0.000024186176
            -0.000069227276    -0.000014176287    0.086376710743    0.050036977957    -0.000070279907    -0.000020535160    0.091993251203    0.032357158005
            0.064534047565    0.034975452006    -0.000070279856    -0.000020535238    0.059370652802    0.053297112897    -0.000092856330    -0.000022330425
            -0.000093307846    -0.000024186222    0.091993254219    0.032357155457    -0.000092856381    -0.000022330335    0.087995269790    0.050240672260
0.550     0.065671615513    0.061487959865    -0.000075178349    -0.000007911499    0.067846472308    0.039624346536    -0.000101743797    -0.000015884009
            -0.000075178311    -0.000007911575    0.092859667194    0.053561820439    -0.000076813144    -0.000013926092    0.095770011986    0.032992089150
            0.067846515709    0.039624262308    -0.000076813090    -0.000013926193    0.065476548625    0.060940145594    -0.000100631991    -0.000013983088
            -0.000101743753    -0.000015884093    0.095770023168    0.032992087392    -0.000100632043    -0.000013983005    0.094496833978    0.053473440558
0.575     0.074222917050    0.068422651115    -0.000080458937    -0.000000374213    0.072912072037    0.044197393326    -0.000109271826    -0.000005893468
            -0.000080458899    -0.000000374298    0.100828920247    0.056364178579    -0.000082601808    -0.000005981633    0.100527286831    0.033472286015
            0.072912113626    0.044197305426    -0.000082601762    -0.000005981717    0.073858328297    0.067934925740    -0.000107501716    -0.000004078897
            -0.000109271814    -0.000005893505    0.100527298656    0.033472282156    -0.000107501759    -0.000004078824    0.102414568099    0.055984954087
0.600     0.084937950219    0.074070842799    -0.000084777880    0.000008357109    0.079761124719    0.048197725010    -0.000115531825    0.000005668458
            -0.000084777845    0.000008357030    0.110182814872    0.058032251155    -0.000087347449    0.000003202947    0.106296972674    0.033480366464
            0.079761158148    0.048197640687    -0.000087347371    0.000003202761    0.084413257749    0.073689270904    -0.000113124922    0.000007266490
            -0.000115531825    0.000005668458    0.106296985718    0.033480358337    -0.000113124956    0.000007266572    0.111647857510    0.057381177911
0.625     0.097543917176    0.077874451946    -0.000087845289    0.000018114334    0.088281028789    0.051126450714    -0.000120168678    0.000018579299
            -0.000087845260    0.000018114248    0.120706911272    0.058179901199    -0.000090759537    0.000013438331    0.113013679336    0.032690098487
            0.088281044228    0.051126404101    -0.000090759485    0.000013438194    0.096880717033    0.077642864403    -0.000117172066    0.000019834327
            -0.000120168658    0.000018579232    0.113013680477    0.032690094542    -0.000117172115    0.000019834462    0.121988881477    0.057292693787
0.650     0.111633841615    0.079355007351    -0.000089423345    0.000028659141    0.098234335442    0.052529508661    -0.000122896123    0.000032537386
            -0.000089423316    0.000028659063    0.132095415961    0.056476239071    -0.000092603060    0.000024470726    0.120531147209    0.030798223818
            0.098234362729    0.052529415219    -0.000092603027    0.000024470631    0.110864817965    0.079313008134    -0.000119377873    0.000033331463
            -0.000122896088    0.000032537285    0.120531150434    0.030798211196    -0.000119377898    0.000033331559    0.133141833761    0.055404025442
0.675     0.126684151395    0.078145650819    -0.000089326817    0.000039679303    0.109265402556    0.052023784129    -0.000123490054    0.000047155501
            -0.000089326793    0.000039679218    0.143956181261    0.052669043047    -0.000092701221    0.000035972051    0.128616085699    0.027541854324
            0.109265414411    0.052023735968    -0.000092701182    0.000035971906    0.125852641942    0.078324256781    -0.000119542449    0.000047384322
            -0.000123490034    0.000047155468    0.128616086661    0.027541849834    -0.000119542491    0.000047384460    0.144728641214    0.051474865020
0.700     0.142100408814    0.074015606117    -0.000087463293    0.000050831145    0.120939838552    0.049329160520    -0.000121839319    0.000062014489
            -0.000087463276    0.000050831074    0.155846503023    0.046601761495    -0.000090970976    0.000047588928    0.136980001126    0.022721722238
            0.120939844367    0.049329172740    -0.000090970956    0.000047588816    0.141257224726    0.074436378428    -0.000117572113    0.000061590870
            -0.000121839287    0.000062014420    0.136980001166    0.022721721999    -0.000117572134    0.000061590960    0.156322952109    0.045356988158
0.725     0.157245469170    0.066882505236    -0.000083821370    0.000061743114    0.132762562521    0.044277461035    -0.000117924974    0.000076662425
            -0.000083821357    0.000061743014    0.167287020391    0.038226017657    -0.000087413190    0.000058942719    0.145279407611    0.016211074932
            0.132762566172    0.044277418480    -0.000087413169    0.000058942571    0.156447818938    0.067553844792    -0.000113465655    0.000075522637
            -0.000117924942    0.000076662345    0.145279408036    0.016211071129    -0.000113465673    0.000075522735    0.167463901372    0.037004829699
0.750     0.171488336446    0.056810190823    -0.000078488284    0.000072067892    0.144222322947    0.036822570661    -0.000111845688    0.000090678598
            -0.000078488278    0.000072067810    0.177801578594    0.027599670631    -0.000082125440    0.000069683498    0.153156884672    0.007966410899
            0.144222326705    0.036822475096    -0.000082125435    0.000069683395    0.170794809400    0.057727960490    -0.000107331427    0.000088782372
            -0.000111845681    0.000090678496    0.153156884644    0.007966411434    -0.000107331435    0.000088782472    0.177693127500    0.026476261370
0.775     0.184229602806    0.044001498836    -0.000071624585    0.000081480157    0.154809069114    0.027031850252    -0.000103783547    0.000103665767
            -0.000071624581    0.000081480067    0.186930674479    0.014887358657    -0.000075280012    0.000079486273    0.160239954751    -0.001975366024
            0.154809075446    0.027031755856    -0.000075280006    0.000079486128    0.183698669457    0.045147558042    -0.000099358955    0.000101001897
            -0.000103783563    0.000103665638    0.160239954659    -0.001975373491    -0.000099358969    0.000101001981    0.186569106488    0.013930420944
