# GHz S RI R 45
0.000     0.013188000000    0.000000000000    -0.000009915067    0.000000000000    0.000402442990    -0.000000000000    -0.000007890985    0.000000000000
            -0.000009915185    0.000000000000    0.014092065000    0.000000000000    -0.000020479522    0.000000000000    0.000245412310    0.000000000000
            0.000402438410    -0.000000000000    -0.000020479350    0.000000000000    0.013147025000    0.000000000000    -0.000024071585    0.000000000000
            -0.000007891022    0.000000000000    0.000245414530    0.000000000000    -0.000024071771    0.000000000000    0.013919773000    0.000000000000
0.025     0.017150637288    0.009797873735    -0.000009735657    -0.000025187669    0.001867372572    0.008813851661    -0.000009733002    -0.000023457250
            -0.000009735726    -0.000025187664    0.017331928040    0.010504705175    -0.000016876911    -0.000027907606    0.001297725538    0.009799647717
            0.001867341050    0.008813898614    -0.000016876766    -0.000027907619    0.017082898911    0.009710750543    -0.000012234741    -0.000018495644
            -0.000009733044    -0.000023457245    0.001297605116    0.009799482193    -0.000012234900    -0.000018495625    0.017347366478    0.010587972199
0.050     0.022593810658    0.016376064318    -0.000020878659    -0.000053257397    0.005835420837    0.016810296827    -0.000020418470    -0.000047361432
            -0.000020878729    -0.000053257383    0.021161241496    0.018111645083    -0.000028996908    -0.000063427110    0.004102622892    0.019052864071
            0.005835403337    0.016810306077    -0.000028996649    -0.000063427159    0.022499332767    0.016227388144    -0.000018770923    -0.000053232306
            -0.000020418506    -0.000047361425    0.004102654095    0.019052852237    -0.000018771079    -0.000053232276    0.021211009208    0.018082276721
0.075     0.029817244291    0.021284479883    -0.000041790070    -0.000075616559    0.012054513203    0.023430261792    -0.000039014234    -0.000066409000
            -0.000041790129    -0.000075616542    0.025769761213    0.024704018493    -0.000055152523    -0.000090971151    0.008478612025    0.027472569082
            0.012054501967    0.023430263075    -0.000055152354    -0.000090971195    0.029687657177    0.021081924796    -0.000041481264    -0.000079972135
            -0.000039014259    -0.000066408989    0.008478619032    0.027472567966    -0.000041481447    -0.000079972079    0.025756028414    0.024606345524
0.100     0.038667724358    0.023997839257    -0.000068762787    -0.000090921263    0.020108559893    0.028157890279    -0.000062782873    -0.000079370345
            -0.000068762803    -0.000090921251    0.031185407090    0.030103908039    -0.000088946296    -0.000109012971    0.014176861211    0.034771173431
            0.020108557526    0.028157893199    -0.000088946125    -0.000109013034    0.038497027143    0.023757545821    -0.000071773473    -0.000097507212
            -0.000062782893    -0.000079370342    0.014176863639    0.034771172441    -0.000071773536    -0.000097507191    0.031074058636    0.029987071572
0.125     0.048522142850    0.024093576394    -0.000099419950    -0.000098387778    0.029476870322    0.030587531094    -0.000089740412    -0.000085479100
            -0.000099420040    -0.000098387730    0.037127881192    0.034185626424    -0.000126996938    -0.000116696288    0.020883652552    0.040740565904
            0.029476868880    0.030587533872    -0.000126996736    -0.000116696389    0.048318450141    0.023834267295    -0.000106105137    -0.000105340441
            -0.000089740427    -0.000085479084    0.020883654685    0.040740564810    -0.000106105239    -0.000105340395    0.036909346369    0.034098026590
0.150     0.058841524446    0.021324040220    -0.000131680668    -0.000097964249    0.039571418273    0.030452181236    -0.000118059921    -0.000084657658
            -0.000131680685    -0.000097964226    0.043225496424    0.036912281968    -0.000166462827    -0.000114224040    0.028264177241    0.045261174393
            0.039571417732    0.030452185218    -0.000166462597    -0.000114224181    0.058601557393    0.021063653862    -0.000141812275    -0.000103773982
            -0.000118059935    -0.000084657637    0.028264169332    0.045261175795    -0.000141812353    -0.000103773926    0.042904951363    0.036899981586
0.175     0.068828460698    0.015591465471    -0.000163668603    -0.000089971290    0.049758732028    0.027620372542    -0.000146091358    -0.000077164235
            -0.000163668652    -0.000089971242    0.049167962754    0.038384118632    -0.000204831110    -0.000102233291    0.035971779950    0.048294288409
            0.049758731456    0.027620375633    -0.000204830976    -0.000102233403    0.068568002233    0.015350768429    -0.000176530282    -0.000093464304
            -0.000146091447    -0.000077164152    0.035971781636    0.048294287153    -0.000176530417    -0.000093464218    0.048767166546    0.038488005348
0.200     0.077749690413    0.007022588890    -0.000193997006    -0.000075087518    0.059399185845    0.022107859347    -0.000172597857    -0.000063598779
            -0.000193997092    -0.000075087434    0.054673976794    0.038771009845    -0.000240368908    -0.000081861116    0.043674506531    0.049888219155
            0.059399185625    0.022107862806    -0.000240368917    -0.000081861119    0.077492350086    0.006815095511    -0.000208669926    -0.000075477241
            -0.000172597928    -0.000063598703    0.043674497801    0.049888221481    -0.000208669989    -0.000075477182    0.054225551217    0.039023687931
0.225     0.084928580490    -0.004110616736    -0.000221505531    -0.000054138388    0.067869945741    0.014068695515    -0.000196545522    -0.000044689979
            -0.000221505588    -0.000054138279    0.059522604958    0.038295214967    -0.000271647787    -0.000054395227    0.051071656390    0.050163370325
            0.067869945984    0.014068699272    -0.000271647486    -0.000054395561    0.084701842003    -0.004279134599    -0.000236902883    -0.000051029815
            -0.000196545522    -0.000044689979    0.051071657265    0.050163369434    -0.000236902931    -0.000051029782    0.059068744437    0.038718109645
0.250     0.089774898720    -0.017389733546    -0.000245460126    -0.000027972855    0.074600284025    0.003788723735    -0.000217278490    -0.000021204954
            -0.000245460126    -0.000027972855    0.063562970556    0.037234921512    -0.000297909623    -0.000021118372    0.057912717675    0.049307759865
            0.074600284898    0.003788726260    -0.000297909623    -0.000021118372    0.089608811867    -0.017520448703    -0.000260540807    -0.000021313414
            -0.000217278541    -0.000021204844    0.057912719396    0.049307757844    -0.000260540801    -0.000021313368    0.063150930758    0.037837496923
0.275     0.091793236688    -0.032280688798    -0.000265271329    0.000002566040    0.079088576118    -0.008328456910    -0.000234275402    0.000006097156
            -0.000265271319    0.000002566086    0.066728802354    0.035886406287    -0.000318573396    0.000016728954    0.064006859503    0.047555300516
            0.079088578383    -0.008328454497    -0.000318573167    0.000016728552    0.091718710447    -0.032382826214    -0.000279055209    0.000012503109
            -0.000234275421    0.000006097197    0.064006861136    0.047555299996    -0.000279055211    0.000012503061    0.066408294030    0.036664353524
0.300     0.090620713746    -0.048150146681    -0.000280594202    0.000036762082    0.080932570185    -0.021781089353    -0.000247239741    0.000036563380
            -0.000280594232    0.000036762086    0.069039770954    0.034556055486    -0.000333450488    0.000058136637    0.069236127293    0.045175814781
            0.080932572877    -0.021781087047    -0.000333450487    0.000058136697    0.090667928082    -0.048242106198    -0.000292292975    0.000049482785
            -0.000247239770    0.000036563384    0.069236128082    0.045175813573    -0.000292293013    0.000049482739    0.068859008382    0.035491448676
0.325     0.086028600597    -0.064295378741    -0.000291119277    0.000073941476    0.079838216748    -0.035987157177    -0.000255908584    0.000069586812
            -0.000291119258    0.000073941471    0.070598838960    0.033524365339    -0.000342386341    0.000102181143    0.073555337850    0.042449899035
            0.079838219828    -0.035987155212    -0.000342386180    0.000102180705    0.086224544782    -0.064404445000    -0.000300136363    0.000088759047
            -0.000255908575    0.000069586810    0.073555339457    0.042449898251    -0.000300136343    0.000088759042    0.070601262347    0.034586316854
0.350     0.077948129791    -0.079976936918    -0.000296615647    0.000113564082    0.075641927980    -0.050313771429    -0.000260097843    0.000104679701
            -0.000296615657    0.000113564085    0.071587117109    0.033037938236    -0.000345362171    0.000148187619    0.077000357127    0.039657289950
            0.075641930523    -0.050313771217    -0.000345362154    0.000148187683    0.078313867640    -0.080138623031    -0.000302598044    0.000129714693
            -0.000260097834    0.000104679750    0.077000358708    0.039657289064    -0.000302598057    0.000129714636    0.071807827559    0.034184024448
0.375     0.066462911784    -0.094445446606    -0.000296810515    0.000155090368    0.068311195955    -0.064095690365    -0.000259583355    0.000141365740
            -0.000296810470    0.000155090410    0.072247772364    0.033278909951    -0.000342296439    0.000195516257    0.079676331423    0.037049237617
            0.068311199261    -0.064095691226    -0.000342296465    0.000195516272    0.067011756698    -0.094702169775    -0.000299635305    0.000171764402
            -0.000259583330    0.000141365785    0.079676333883    0.037049237070    -0.000299635305    0.000171764402    0.072710822785    0.034457543676
0.400     0.051817923648    -0.106981345185    -0.000291414120    0.000198027136    0.057955952478    -0.076673111181    -0.000254123888    0.000179212347
            -0.000291414087    0.000198027114    0.072874455774    0.034360577084    -0.000333079772    0.000243669002    0.081758710311    0.034838919238
            0.057955956360    -0.076673110754    -0.000333079721    0.000243668073    0.052553348754    -0.107380805302    -0.000291177434    0.000214471574
            -0.000254123913    0.000179212364    0.081758712759    0.034838918595    -0.000291177479    0.000214471529    0.073590488096    0.035513867546
0.425     0.034405189006    -0.116918633171    -0.000280077310    0.000241801037    0.044821284411    -0.087408626998    -0.000243420631    0.000217723446
            -0.000280077302    0.000241801030    0.073786272524    0.036305963557    -0.000317512163    0.000292082378    0.083471826727    0.033175678615
            0.044821286849    -0.087408627995    -0.000317512134    0.000292082454    0.035319104443    -0.117511604825    -0.000277064334    0.000257341720
            -0.000243420578    0.000217723476    0.083471828235    0.033175677528    -0.000277064780    0.000257342224    0.074751061680    0.037373425192
0.450     0.014753018927    -0.123684471344    -0.000262431343    0.000285767802    0.029283920471    -0.095727662499    -0.000227150993    0.000256341165
            -0.000262431323    0.000285767780    0.075310751619    0.039049866856    -0.000295329858    0.000340181327    0.085080545642    0.032140771241
            0.029283922142    -0.095727661988    -0.000295329884    0.000340181357    0.015825480309    -0.124521676807    -0.000257070077    0.000299880923
            -0.000227151013    0.000256341188    0.085080547138    0.032140770109    -0.000257070142    0.000299880894    0.076504410338    0.039972045554
0.475     -0.006494972895    -0.126817428434    -0.000238111750    0.000329123115    0.011837706825    -0.101132516614    -0.000204988151    0.000294362836
            -0.000238111750    0.000329123115    0.077753165711    0.042430155602    -0.000266232050    0.000387222920    0.086861056141    0.031729737829
            0.011837709753    -0.101132526340    -0.000266232050    0.000387222920    -0.005296527323    -0.127946598370    -0.000230927124    0.000341438007
            -0.000204988026    0.000294363313    0.086861059128    0.031729735483    -0.000230927070    0.000341438441    0.079140695390    0.043153306995
0.500     -0.028605634240    -0.125998045975    -0.000206827735    0.000370912402    -0.006925771049    -0.103239224187    -0.000176661401    0.000330948733
            -0.000206827750    0.000370912429    0.081377404202    0.046200650346    -0.000229943958    0.000432325519    0.089086341863    0.031858119174
            -0.006925771049    -0.103239224187    -0.000229944228    0.000432324571    -0.027325838662    -0.127461478458    -0.000198376105    0.000381238909
            -0.000176661420    0.000330948768    0.089086341863    0.031858119174    -0.000198376115    0.000381238926    0.082910270897    0.046679928806
0.525     -0.050786188067    -0.121059645656    -0.000168419142    0.000409997747    -0.026338607213    -0.101784474040    -0.000142019737    0.000365085247
            -0.000168418997    0.000409998207    0.086376710743    0.050036977957    -0.000186291061    0.000474396280    0.091993251203    0.032357158005
            -0.026338564168    -0.101784454190    -0.000186291057    0.000474396271    -0.049480171040    -0.122890769004    -0.000159246578    0.000418307717
            -0.000142019733    0.000365085237    0.091993254219    0.032357155457    -0.000159246567    0.000418307689    0.087995269790    0.050240672260
0.550     -0.072220395304    -0.112004991245    -0.000122941265    0.000445109932    -0.045689444771    -0.096652663544    -0.000101097227    0.000395634271
            -0.000122941279    0.000445109981    0.092859667194    0.053561820439    -0.000135281686    0.000512188215    0.095770011986    0.032992089150
            -0.045689444771    -0.096652663544    -0.000135281676    0.000512188176    -0.070952348375    -0.114225765991    -0.000113525919    0.000451519007
            -0.000101097227    0.000395634271    0.095770023168    0.032992087392    -0.000113525919    0.000451519007    0.094496833978    0.053473440558
0.575     -0.092101057716    -0.099002744308    -0.000070720878    0.000474874461    -0.064248040180    -0.087871472683    -0.000054175584    0.000421356565
            -0.000070720862    0.000474874464    0.100828920247    0.056364178579    -0.000077186624    0.000544310942    0.100527286831    0.033472286015
            -0.064248046082    -0.087871480756    -0.000077186597    0.000544310956    -0.090941328073    -0.101622102818    -0.000061446374    0.000479608132
            -0.000054175584    0.000421356565    0.100527298656    0.033472282156    -0.000061446374    0.000479608132    0.102414568099    0.055984954087
0.600     -0.109671693456    -0.082387306060    -0.000012403911    0.000497920714    -0.081307441674    -0.075622920288    -0.000001832678    0.000441006482
            -0.000012403884    0.000497920675    0.110182814872    0.058032251155    -0.000012602523    0.000569337916    0.106296972674    0.033480366464
            -0.081307448996    -0.075622927099    -0.000012602514    0.000569337956    -0.108693836575    -0.085398935653    -0.000003534493    0.000501266499
            -0.000001832678    0.000441006482    0.106296985718    0.033480358337    -0.000003534493    0.000501266499    0.111647857510    0.057381177911
0.625     -0.124253960124    -0.062640873661    0.000051027347    0.000512944748    -0.096203975621    -0.060226876191    0.000055047047    0.000453394085
            0.000051027372    0.000512944725    0.120706911272    0.058179901199    0.000057523277    0.000585876501    0.113013679336    0.032690098487
            -0.096203975621    -0.060226876191    0.000057523311    0.000585876528    -0.123531712017    -0.066022617052    0.000059350263    0.000515212690
            0.000055047065    0.000453394103    0.113013680477    0.032690094542    0.000059350237    0.000515212703    0.121988881477    0.057292693787
0.650     -0.135285530960    -0.040373976730    0.000118276042    0.000518842305    -0.108359789906    -0.042133113414    0.000115283311    0.000457510945
            0.000118276055    0.000518842364    0.132095415961    0.056476239071    0.000131893091    0.000592707688    0.120531147209    0.030798223818
            -0.108359789906    -0.042133113414    0.000131893126    0.000592707650    -0.134888198036    -0.044088493523    0.000126023580    0.000520315959
            0.000115283324    0.000457510931    0.120531150434    0.030798211196    0.000126024277    0.000520316572    0.133141833761    0.055404025442
0.675     -0.142335744053    -0.016297667113    0.000187771920    0.000514761447    -0.117292957334    -0.021896245806    0.000177441482    0.000452576440
            0.000187771948    0.000514761468    0.143956181261    0.052669043047    0.000208900446    0.000588854440    0.128616085699    0.027541854324
            -0.117292957334    -0.021896245806    0.000208900470    0.000588854411    -0.142325988655    -0.020292509420    0.000195004460    0.000515671901
            0.000177441487    0.000452576428    0.128616086661    0.027541849834    0.000195004832    0.000515672177    0.144728641214    0.051474865020
0.700     -0.145131161958    0.008810397467    0.000257766165    0.000500211888    -0.122652426332    -0.000151582242    0.000239916308    0.000438145769
            0.000257766202    0.000500211937    0.155846503023    0.046601761495    0.000286713355    0.000573701720    0.136980001126    0.022721722238
            -0.122652426332    -0.000151582242    0.000286713362    0.000573701683    -0.145561100688    0.004600101186    0.000264597209    0.000500708751
            0.000239916314    0.000438145708    0.136980001166    0.022721721999    0.000264597993    0.000500709196    0.156322952109    0.045356988158
0.725     -0.143556191597    0.034137772757    0.000326406541    0.000475066002    -0.124212819395    0.022412847381    0.000301006870    0.000414107690
            0.000326406505    0.000475065967    0.167287020391    0.038226017657    0.000363361677    0.000547018426    0.145279407611    0.016211074932
            -0.124212819395    0.022412847381    0.000363361276    0.000547018236    -0.144465109522    0.029787936292    0.000332974009    0.000475214129
            0.000301006884    0.000414107679    0.145279408036    0.016211071129    0.000332973981    0.000475214124    0.167463901372    0.037004829699
0.750     -0.137660530844    0.058876312947    0.000391863925    0.000439605840    -0.121895545498    0.045090023545    0.000359027001    0.000380733273
            0.000391863966    0.000439605870    0.177801578594    0.027599670631    0.000436858349    0.000509008676    0.153156884672    0.007966410899
            -0.121895553368    0.045090002270    0.000436858334    0.000509008622    -0.139072638890    0.054470052989    0.000398284927    0.000439385971
            0.000359026994    0.000380733225    0.153156884644    0.007966411434    0.000398284886    0.000439385941    0.177693127500    0.026476261370
0.775     -0.127645906438    0.082251169260    0.000452401605    0.000394465272    -0.115752957810    0.067175726126    0.000412381181    0.000338620745
            0.000452401604    0.000394465258    0.186930674479    0.014887358657    0.000505298510    0.000460267856    0.160239954751    -0.001975366024
            -0.115752957810    0.067175726126    0.000505298071    0.000460267730    -0.129569443782    0.077876200392    0.000458752686    0.000393792353
            0.000412381202    0.000338620751    0.160239954659    -0.001975373491    0.000458752679    0.000393792376    0.186569106488    0.013930420944
