# GHz S RI R 45
0.000     0.013985181000    0.000000000000    -0.000090748924    0.000000000000    0.000487614170    -0.000000000000    -0.000101265280    0.000000000000
            -0.000090748467    0.000000000000    0.014092065000    0.000000000000    -0.000060192415    0.000000000000    0.000245412310    0.000000000000
            0.000487611120    -0.000000000000    -0.000060191568    0.000000000000    0.013908831000    0.000000000000    -0.000062643846    0.000000000000
            -0.000101264600    0.000000000000    0.000245414530    0.000000000000    -0.000062644230    0.000000000000    0.013919773000    0.000000000000
0.025     0.018006444057    0.010336847527    -0.000097480808    -0.000205142264    0.002013849630    0.009360771071    -0.000072362123    -0.000141097780
            -0.000097480363    -0.000205142343    0.017331928040    0.010504705175    -0.000104376072    -0.000284220892    0.001297725538    0.009799647717
            0.002013819054    0.009360818053    -0.000104375160    -0.000284221014    0.017937599092    0.010302271255    -0.000084961985    -0.000216463738
            -0.000072361530    -0.000141097837    0.001297605116    0.009799482193    -0.000084962472    -0.000216463644    0.017347366478    0.010587972199
0.050     0.023697807099    0.017288314545    -0.000188803066    -0.000425733315    0.006208368103    0.017849220971    -0.000131368498    -0.000331901509
            -0.000188802667    -0.000425733416    0.021161241496    0.018111645083    -0.000231232039    -0.000548034133    0.004102622892    0.019052864071
            0.006208351955    0.017849229764    -0.000231231211    -0.000548034308    0.023613991383    0.017240308665    -0.000182361606    -0.000430468611
            -0.000131367882    -0.000331901645    0.004102654095    0.019052852237    -0.000182362092    -0.000430468503    0.021211009208    0.018082276721
0.075     0.031231681982    0.022409742846    -0.000356014012    -0.000602694587    0.012769507126    0.024812553537    -0.000266429985    -0.000482291051
            -0.000356013435    -0.000602694812    0.025769761213    0.024704018493    -0.000435503315    -0.000765239694    0.008478612025    0.027472569082
            0.012769496659    0.024812555550    -0.000435502420    -0.000765239985    0.031135426970    0.022356174584    -0.000347620876    -0.000603768467
            -0.000266429427    -0.000482291233    0.008478619032    0.027472567966    -0.000347621583    -0.000603768233    0.025756028414    0.024606345524
0.100     0.040387633632    0.025133349331    -0.000572237703    -0.000725235484    0.021209387942    0.029687394417    -0.000443785322    -0.000584211497
            -0.000572237703    -0.000725235484    0.031185407090    0.030103908039    -0.000697620059    -0.000921675568    0.014176861211    0.034771173431
            0.021209385933    0.029687397081    -0.000697619134    -0.000921676017    0.040283172908    0.025084446044    -0.000559808115    -0.000725114943
            -0.000443784355    -0.000584211917    0.014176863639    0.034771172441    -0.000559809033    -0.000725114563    0.031074058636    0.029987071572
0.125     0.050470258200    0.025025387146    -0.000820256571    -0.000785971980    0.030926101436    0.032046717262    -0.000646649183    -0.000632967812
            -0.000820256152    -0.000785972128    0.037127881192    0.034185626424    -0.000999791691    -0.001007276927    0.020883652552    0.040740565904
            0.030926099893    0.032046720140    -0.000999791269    -0.001007277205    0.050366550054    0.024992449180    -0.000802798860    -0.000786985341
            -0.000646648766    -0.000632968066    0.020883654685    0.040740564810    -0.000802798860    -0.000786985341    0.036909346369    0.034098026590
0.150     0.060815803989    0.021846025149    -0.001083793559    -0.000783142155    0.041246471560    0.031628108017    -0.000860770653    -0.000628242046
            -0.001083793559    -0.000783142155    0.043225496424    0.036912281968    -0.001323825828    -0.001018531611    0.028264177241    0.045261174393
            0.041246470698    0.031628110786    -0.001323825057    -0.001018532122    0.060726561114    0.021838090208    -0.001060886231    -0.000787452804
            -0.000860769972    -0.000628242470    0.028264169332    0.045261175795    -0.001060886231    -0.000787452804    0.042904951363    0.036899981586
0.175     0.070559755654    0.015556385758    -0.001348028969    -0.000717732983    0.051454986327    0.028332343723    -0.001073352723    -0.000571933296
            -0.001348028880    -0.000717732936    0.049167962754    0.038384118632    -0.001652865740    -0.000955455221    0.035971779950    0.048294288409
            0.051454985719    0.028332346900    -0.001652864980    -0.000955455936    0.070504340780    0.015579655363    -0.001319745851    -0.000727614989
            -0.001073352059    -0.000571933905    0.035971781636    0.048294287153    -0.001319746280    -0.000727614624    0.048767166546    0.038488005348
0.200     0.078902704113    0.006355045413    -0.001601009542    -0.000593856485    0.060840295860    0.022231124134    -0.001274626522    -0.000468401509
            -0.001601008856    -0.000593857184    0.054673976794    0.038771009845    -0.001972806260    -0.000821811277    0.043674506531    0.049888219155
            0.060840296024    0.022231126601    -0.001972805604    -0.000821811812    0.078904576725    0.006410675216    -0.001567825382    -0.000611724814
            -0.001274625819    -0.000468402261    0.043674497801    0.049888221481    -0.001567825382    -0.000611724814    0.054225551217    0.039023687931
0.225     0.085117913902    -0.005391105496    -0.001832441590    -0.000416966317    0.068723535726    0.013555091372    -0.001456370788    -0.000323077645
            -0.001832441322    -0.000416966593    0.059522604958    0.038295214967    -0.002271469301    -0.000623052632    0.051071656390    0.050163370325
            0.068723537215    0.013555094158    -0.002271468697    -0.000623053319    0.085203391037    -0.005309482785    -0.001795496493    -0.000445425774
            -0.001456370131    -0.000323078300    0.051071657265    0.050163369434    -0.001795496493    -0.000445425774    0.059068744437    0.038718109645
0.250     0.088591552145    -0.019153070987    -0.002034873060    -0.000193318227    0.074497509609    0.002682233753    -0.001613133119    -0.000141788784
            -0.002034872561    -0.000193319254    0.063562970556    0.037234921512    -0.002539722945    -0.000365781940    0.057912717675    0.049307759865
            0.074497511518    0.002682236295    -0.002539722422    -0.000365782770    0.088787481144    -0.019059652390    -0.001996056344    -0.000235107184
            -0.001613132547    -0.000141789585    0.057912719396    0.049307757844    -0.001996056865    -0.000235106185    0.063150930758    0.037837496923
0.275     0.088833019538    -0.034276868935    -0.002202036578    0.000070614077    0.077647229068    -0.009879893800    -0.001740551380    0.000069635442
            -0.002202036478    0.000070614074    0.066728802354    0.035886406287    -0.002769915470    -0.000056830230    0.064006859503    0.047555300516
            0.077647231293    -0.009879892155    -0.002769915260    -0.000056830709    0.089164991615    -0.034194447941    -0.002164268112    0.000012873774
            -0.001740551205    0.000069634826    0.064006861136    0.047555299996    -0.002164268412    0.000012873776    0.066408294030    0.036664353524
0.300     0.085515135760    -0.050007797378    -0.002329489082    0.000368728104    0.077781798238    -0.023519307978    -0.001835943864    0.000306053145
            -0.002329488618    0.000368727197    0.069039770954    0.034556055486    -0.002956430394    0.000297280954    0.069236127293    0.045175814781
            0.077781800563    -0.023519307200    -0.002956426747    0.000297272248    0.086004304086    -0.049967987151    -0.002296803715    0.000292796910
            -0.001835943478    0.000306052422    0.069236128082    0.045175813573    -0.002296803715    0.000292796910    0.068859008382    0.035491448676
0.325     0.078475753289    -0.065525321277    -0.002413173150    0.000695043103    0.074646199150    -0.037541404814    -0.001896934975    0.000562651566
            -0.002413173150    0.000695043103    0.070598838960    0.033524365339    -0.003094102123    0.000690334149    0.073555337850    0.042449899035
            0.074646201592    -0.037541404410    -0.003094102123    0.000690334149    0.079136816665    -0.065567372310    -0.002390810129    0.000599536425
            -0.001896934975    0.000562651566    0.073555339457    0.042449898251    -0.002390810129    0.000599536425    0.070601262347    0.034586316854
0.350     0.067743097983    -0.079983883751    -0.002449811113    0.001044079036    0.068143680053    -0.051205012417    -0.001921735234    0.000835413204
            -0.002449811113    0.001044079036    0.071587117109    0.033037938236    -0.003178551878    0.001116725913    0.077000357127    0.039657289950
            0.068143683346    -0.051205013029    -0.003178551878    0.001116725913    0.068581826954    -0.080153440046    -0.002444025952    0.000928908971
            -0.001921735234    0.000835413204    0.077000358708    0.039657289064    -0.002444025952    0.000928908971    0.071807827559    0.034184024448
0.375     0.053528466589    -0.092544667651    -0.002435916781    0.001410131217    0.058339134676    -0.063746189610    -0.001908227732    0.001120355652
            -0.002435916867    0.001410131268    0.072247772364    0.033278909951    -0.003204961931    0.001570754334    0.079676331423    0.037049237617
            0.058339137814    -0.063746190804    -0.003204961931    0.001570754334    0.054539559823    -0.092891763349    -0.002453721654    0.001277013683
            -0.001908227732    0.001120355652    0.079676333883    0.037049237070    -0.002453721654    0.001277013683    0.072710822785    0.034457543676
0.400     0.036231256070    -0.102424806049    -0.002368209974    0.001787428533    0.045468563878    -0.074424214529    -0.001854184672    0.001413684779
            -0.002368209974    0.001787428533    0.072874455774    0.034360577084    -0.003168469345    0.002046632118    0.081758710311    0.034838919238
            0.045468566741    -0.074424216295    -0.003168469345    0.002046632118    0.037397000937    -0.103001264290    -0.002416809133    0.001640245337
            -0.001854184672    0.001413684779    0.081758712759    0.034838918595    -0.002416809133    0.001640245337    0.073590488096    0.035513867546
0.425     0.016422349710    -0.108928153182    -0.002243204611    0.002169253914    0.029931079321    -0.082546378088    -0.001756920420    0.001710918564
            -0.002243204539    0.002169253844    0.073786272524    0.036305963557    -0.003063550270    0.002537497885    0.083471826727    0.033175678615
            0.029931081784    -0.082546380386    -0.003063550848    0.002537492955    0.017711829511    -0.109784053580    -0.002329352593    0.002014304032
            -0.001756920420    0.001710918564    0.083471828235    0.033175677528    -0.002329352593    0.002014304032    0.074751061680    0.037373425192
0.450     -0.005174093963    -0.111493066664    -0.002057748259    0.002548040719    0.012279873831    -0.087517747374    -0.001613702434    0.002006926999
            -0.002057748259    0.002548040719    0.075310751619    0.039049866856    -0.002884718442    0.003035268071    0.085080545642    0.032140771241
            0.012279875637    -0.087517749140    -0.002884718374    0.003035267999    -0.003805525658    -0.112673472855    -0.002186971833    0.002394051076
            -0.001613702434    0.002006926999    0.085080547138    0.032140770109    -0.002186971833    0.002394051076    0.076504410338    0.039972045554
0.475     -0.027710360330    -0.109717842787    -0.001809258229    0.002914662463    -0.006798688395    -0.088863905692    -0.001421912428    0.002295187899
            -0.001809258282    0.002914662548    0.077753165711    0.042430155602    -0.002626640008    0.003529765972    0.086861056141    0.031729737829
            -0.006798687149    -0.088863909799    -0.002626640008    0.003529765972    -0.026319463839    -0.111259713737    -0.001985003452    0.002772559076
            -0.001421912428    0.002295187899    0.086861059128    0.031729735483    -0.001985003452    0.002772559076    0.079140695390    0.043153306995
0.500     -0.050254665804    -0.103397142760    -0.001496448182    0.003258737329    -0.026517415263    -0.086274477194    -0.001179724473    0.002567963234
            -0.001496448182    0.003258737329    0.081377404202    0.046200650346    -0.002285160418    0.004008819203    0.089086341863    0.031858119174
            -0.026517415263    -0.086274477194    -0.002285160467    0.004008819289    -0.048909062148    -0.105325166681    -0.001719303963    0.003141073103
            -0.001179724431    0.002567963143    0.089086341863    0.031858119174    -0.001719300265    0.003141081967    0.082910270897    0.046679928806
0.525     -0.071834144536    -0.092533599224    -0.001119837344    0.003568393571    -0.046021786957    -0.079614522028    -0.000886606620    0.002816011180
            -0.001119837906    0.003568393185    0.086376710743    0.050036977957    -0.001857939773    0.004457842412    0.091993251203    0.032357158005
            -0.046021787958    -0.079614523759    -0.001857939773    0.004457842412    -0.070609525401    -0.094858278222    -0.001386927702    0.003488615582
            -0.000886606128    0.002816011335    0.091993254219    0.032357155457    -0.001386925803    0.003488619673    0.087995269790    0.050240672260
0.550     -0.091489572994    -0.077351970625    -0.000682504456    0.003831124372    -0.064441379324    -0.068949766098    -0.000543990429    0.003029201714
            -0.000682504456    0.003831124372    0.092859667194    0.053561820439    -0.001345597181    0.004860716522    0.095770011986    0.032992089150
            -0.064441384787    -0.068949771943    -0.001345597181    0.004860716522    -0.090466055813    -0.080066349014    -0.000987111646    0.003802467797
            -0.000543991028    0.003029202013    0.095770023168    0.032992087392    -0.000987111771    0.003802468281    0.094496833978    0.053473440558
0.575     -0.108323069153    -0.058287583575    -0.000190507213    0.004034056079    -0.080928968594    -0.054538052263    -0.000155810015    0.003196792002
            -0.000190507213    0.004034056079    0.100828920247    0.056364178579    -0.000752345971    0.005199992269    0.100527286831    0.033472286015
            -0.080928968594    -0.054538052263    -0.000752345881    0.005199992282    -0.107580964934    -0.061366881635    -0.000522001933    0.004068446978
            -0.000155810011    0.003196791902    0.100527298656    0.033472282156    -0.000522001933    0.004068446978    0.102414568099    0.055984954087
0.600     -0.121554219510    -0.035970418771    0.000346921879    0.004165281190    -0.094718732202    -0.036825593618    0.000271260591    0.003308484783
            0.000346921879    0.004165281190    0.110182814872    0.058032251155    -0.000086610820    0.005458507511    0.106296972674    0.033480366464
            -0.094718732202    -0.036825593618    -0.000086610725    0.005458507512    -0.121169646999    -0.039371386890    0.000002688955    0.004272128354
            0.000271260649    0.003308484778    0.106296985718    0.033480358337    0.000002688955    0.004272128354    0.111647857510    0.057381177911
0.625     -0.130556924412    -0.011190082903    0.000917398837    0.004214424211    -0.105156554393    -0.016417082505    0.000727738915    0.003355008616
            0.000917398574    0.004214424064    0.120706911272    0.058179901199    0.000638838012    0.005620093764    0.113013679336    0.032690098487
            -0.105156554393    -0.016417082505    0.000638838098    0.005620093653    -0.130597522109    -0.014852093788    0.000577487278    0.004399575936
            0.000727738952    0.003355008506    0.113013680477    0.032690094542    0.000577487265    0.004399575837    0.121988881477    0.057292693787
0.650     -0.134900072730    0.015147131154    0.001506018584    0.004174026036    -0.111748422788    0.005955764409    0.001201747590    0.003329342478
            0.001506018690    0.004174026103    0.132095415961    0.056476239071    0.001407274120    0.005671436277    0.120531147209    0.030798223818
            -0.111748422788    0.005955764409    0.001407274120    0.005671436277    -0.135420614888    0.011299469835    0.001189309404    0.004438924458
            0.001201747706    0.003329342436    0.120531150434    0.030798211196    0.001189309482    0.004438924437    0.133141833761    0.055404025442
0.675     -0.134360003712    0.042067374924    0.002095914261    0.004039874364    -0.114167830567    0.029477173529    0.001679525287    0.003227081570
            0.002095914261    0.004039874364    0.143956181261    0.052669043047    0.002198583439    0.005602624498    0.128616085699    0.027541854324
            -0.114167869904    0.029477141177    0.002198583537    0.005602624459    -0.135399732203    0.038121934042    0.001821916356    0.004381007949
            0.001679525482    0.003227081806    0.128616086661    0.027541849834    0.001821916357    0.004381008166    0.144728641214    0.051474865020
0.700     -0.128934124877    0.068585224315    0.002669590919    0.003811807411    -0.112282762099    0.053295603694    0.002146447035    0.003047231876
            0.002669591043    0.003811807447    0.155846503023    0.046601761495    0.002990604847    0.005408599239    0.136980001126    0.022721722238
            -0.112282771133    0.053295607982    0.002990604847    0.005408599239    -0.130513319444    0.064637334710    0.002457003232    0.004220630215
            0.002146447089    0.003047231839    0.136980001166    0.022721721999    0.002457003232    0.004220630215    0.156322952109    0.045356988158
0.725     -0.118825161623    0.093750192622    0.003209683479    0.003493484079    -0.106136598789    0.076562914237    0.002587796554    0.002792075745
            0.003209683533    0.003493483893    0.167287020391    0.038226017657    0.003760087831    0.005089040692    0.145279407611    0.016211074932
            -0.106136598789    0.076562914237    0.003760083353    0.005089039276    -0.120944692116    0.089899460550    0.003075056004    0.003956656635
            0.002587796603    0.002792075700    0.145279408036    0.016211071129    0.003075055943    0.003956656557    0.167463901372    0.037004829699
0.750     -0.104426531200    0.116696838861    0.003700348075    0.003092377569    -0.095949210187    0.098482960865    0.002989894596    0.002467248478
            0.003700338999    0.003092375798    0.177801578594    0.027599670631    0.004484464444    0.004648872860    0.153156884672    0.007966410899
            -0.095949210187    0.098482960865    0.004484464387    0.004648872638    -0.107066897715    0.113042054724    0.003656796102    0.003592463690
            0.002989894759    0.002467248437    0.153156884644    0.007966411434    0.003656796102    0.003592463690    0.177693127500    0.026476261370
0.775     -0.086287860914    0.136675932815    0.004127776624    0.002618960292    -0.082083074668    0.118334345959    0.003340679327    0.002081078341
            0.004127776670    0.002618960220    0.186930674479    0.014887358657    0.005142610680    0.004097479146    0.160239954751    -0.001975366024
            -0.082083080367    0.118334354176    0.005142610680    0.004097479146    -0.089410197246    0.133310926850    0.004184002310    0.003135386223
            0.003340679279    0.002081078230    0.160239954659    -0.001975373491    0.004184002150    0.003135386103    0.186569106488    0.013930420944
