# GHz S RI R 45
0.000     0.015437219000    0.000000000000    0.000023809457    -0.000000000000    0.000451820270    0.000000000000    -0.000003128475    0.000000000000
            0.000023809358    -0.000000000000    0.014092065000    0.000000000000    0.000002081882    0.000000000000    0.000245412310    0.000000000000
            0.000451738480    0.000000000000    0.000002081736    0.000000000000    0.015367484000    0.000000000000    0.000000991355    0.000000000000
            -0.000003128582    0.000000000000    0.000245414530    0.000000000000    0.000000991453    0.000000000000    0.013919773000    0.000000000000
0.025     0.019212996182    0.010882050248    -0.000009311131    -0.000018521676    0.001745188650    0.010079784756    0.000000779547    0.000004344383
            -0.000009311227    -0.000018521672    0.017331928040    0.010504705175    -0.000005992653    -0.000002754019    0.001297725538    0.009799647717
            0.001744982622    0.010079623539    -0.000005992798    -0.000002754012    0.019147077837    0.010905368661    -0.000002441943    -0.000000709421
            0.000000779439    0.000004344391    0.001297605116    0.009799482193    -0.000002441846    -0.000000709425    0.017347366478    0.010587972199
0.050     0.023761846493    0.018284535486    -0.000018930560    -0.000002602566    0.005132269689    0.019386979427    0.000003617173    0.000004761548
            -0.000018930659    -0.000002602559    0.021161241496    0.018111645083    -0.000007153726    0.000003129815    0.004102622892    0.019052864071
            0.005132218900    0.019386976322    -0.000007153873    0.000003129830    0.023702303030    0.018356161007    -0.000002342699    0.000002347500
            0.000003617069    0.000004761558    0.004102654095    0.019052852237    -0.000002342607    0.000002347490    0.021211009208    0.018082276721
0.075     0.029204415900    0.024329481966    -0.000016454823    0.000008146825    0.010342379330    0.027523674598    0.000006090816    0.000004774022
            -0.000016454922    0.000008146838    0.025769761213    0.024704018493    -0.000004456220    0.000006967761    0.008478612025    0.027472569082
            0.010342305360    0.027523686369    -0.000004456364    0.000006967783    0.029173208865    0.024445525189    -0.000000222084    0.000004170545
            0.000006090712    0.000004774037    0.008478619032    0.027472567966    -0.000000221992    0.000004170531    0.025756028414    0.024606345524
0.100     0.035487682063    0.028752489108    -0.000010422766    0.000014483300    0.016984788442    0.034101785052    0.000008686743    0.000004087088
            -0.000010422866    0.000014483317    0.031185407090    0.030103908039    -0.000000459296    0.000008780378    0.014176861211    0.034771173431
            0.016984709443    0.034101800938    -0.000000459439    0.000008780407    0.035500958787    0.028902860194    0.000002669747    0.000004630481
            0.000008686630    0.000004087110    0.014176863639    0.034771172441    0.000002669838    0.000004630463    0.031074058636    0.029987071572
0.125     0.042174127676    0.031384553946    -0.000003257085    0.000017243804    0.024580520094    0.038860180947    0.000011217095    0.000002546907
            -0.000003257176    0.000017243823    0.037127881192    0.034185626424    0.000003845332    0.000008764565    0.020883652552    0.040740565904
            0.024580443510    0.038860200991    0.000003845190    0.000008764602    0.042243991358    0.031555045939    0.000005686738    0.000003816629
            0.000011217002    0.000002546929    0.020883654685    0.040740564810    0.000005686832    0.000003816604    0.036909346369    0.034098026590
0.150     0.048709563388    0.032201041159    0.000003907164    0.000017097514    0.032613460236    0.041683371622    0.000013412786    0.000000175641
            0.000003907077    0.000017097539    0.043225496424    0.036912281968    0.000007886224    0.000007150018    0.028264177241    0.045261174393
            0.032613375657    0.041683398436    0.000007886083    0.000007150063    0.048846182002    0.032375884685    0.000008416472    0.000001826018
            0.000013412695    0.000000175668    0.028264169332    0.045261175795    0.000008416558    0.000001825990    0.042904951363    0.036899981586
0.175     0.054614398132    0.031383767261    0.000010303151    0.000014653320    0.040564021285    0.042592359252    0.000015044325    -0.000002896326
            0.000010303068    0.000014653348    0.049167962754    0.038384118632    0.000011232274    0.000004288876    0.035971779950    0.048294288409
            0.040563947180    0.042592385638    0.000011232162    0.000004288919    0.054823697439    0.031542880149    0.000010541122    -0.000001078599
            0.000015044234    -0.000002896295    0.035971781636    0.048294287153    0.000010541219    -0.000001078633    0.048767166546    0.038488005348
0.200     0.059461354453    0.029235167832    0.000015490448    0.000010443035    0.047945947782    0.041746390471    0.000015959147    -0.000006491771
            0.000015490353    0.000010443072    0.054673976794    0.038771009845    0.000013635719    0.000000482432    0.043674506531    0.049888219155
            0.047945875483    0.041746420207    0.000013635631    0.000000482469    0.059744065015    0.029356163911    0.000011845703    -0.000004682262
            0.000015959060    -0.000006491735    0.043674497801    0.049888221481    0.000011845798    -0.000004682301    0.054225551217    0.039023687931
0.225     0.062927280733    0.026153686206    0.000019217964    0.000005043583    0.054338879596    0.039421481652    0.000016064738    -0.000010407367
            0.000019217869    0.000005043625    0.059522604958    0.038295214967    0.000014974152    -0.000003896191    0.051071656390    0.050163370325
            0.054338808365    0.039421516828    0.000014974019    -0.000003896129    0.063278416819    0.026212605464    0.000012237560    -0.000008691537
            0.000016064649    -0.000010407327    0.051071657265    0.050163369434    0.000012237652    -0.000008691581    0.059068744437    0.038718109645
0.250     0.064808689077    0.022623443596    0.000021375866    -0.000001122139    0.059415578176    0.035995413035    0.000015324802    -0.000014463171
            0.000021375772    -0.000001122092    0.063562970556    0.037234921512    0.000015199478    -0.000008584268    0.057912717675    0.049307759865
            0.059415500737    0.035995454012    0.000015199307    -0.000008584174    0.065216569284    0.022596305773    0.000011656688    -0.000012888742
            0.000015324717    -0.000014463125    0.057912719396    0.049307757844    0.000011656776    -0.000012888790    0.063150930758    0.037837496923
0.275     0.065046491754    0.019161863139    0.000021983254    -0.000007606005    0.062961618872    0.031915121421    0.000013743455    -0.000018476460
            0.000021983166    -0.000007605953    0.066728802354    0.035886406287    0.000014355359    -0.000013300440    0.064006859503    0.047555300516
            0.062961551331    0.031915161772    0.000014355237    -0.000013300364    0.065492525990    0.019026527058    0.000010141787    -0.000017040718
            0.000013743373    -0.000018476410    0.064006861136    0.047555299996    0.000010141874    -0.000017040770    0.066408294030    0.036664353524
0.300     0.063727411578    0.016297050993    0.000021075040    -0.000014112225    0.064892737562    0.027673154792    0.000011341625    -0.000022301271
            0.000021074955    -0.000014112170    0.069039770954    0.034556055486    0.000012480567    -0.000017859208    0.069236127293    0.045175814781
            0.064892671927    0.027673199085    0.000012480487    -0.000017859154    0.064186026450    0.016034608599    0.000007715252    -0.000020975602
            0.000011341541    -0.000022301216    0.069236128082    0.045175813573    0.000007715257    -0.000020975604    0.068859008382    0.035491448676
0.325     0.061084598069    0.014515952052    0.000018781354    -0.000020328465    0.065260141770    0.023768003221    0.000008170138    -0.000025788994
            0.000018781271    -0.000020328405    0.070598838960    0.033524365339    0.000009675573    -0.000022070547    0.073555337850    0.042449899035
            0.065260078026    0.023768049670    0.000009675420    -0.000022070433    0.061523682372    0.014113193683    0.000004468466    -0.000024526947
            0.000008170060    -0.000025788936    0.073555339457    0.042449898251    0.000004468550    -0.000024527008    0.070601262347    0.034586316854
0.350     0.057486018745    0.014239693635    0.000015187701    -0.000026043071    0.064256466131    0.020675869058    0.000004276539    -0.000028815993
            0.000015187620    -0.000026043004    0.071587117109    0.033037938236    0.000006003389    -0.000025799472    0.077000357127    0.039657289950
            0.064256404990    0.020675918691    0.000006003239    -0.000025799351    0.057868105505    0.013690988268    0.000000459863    -0.000027561972
            0.000004276389    -0.000028815870    0.077000358708    0.039657289064    0.000000459868    -0.000027561976    0.071807827559    0.034184024448
0.375     0.053414690058    0.015777766464    0.000010463178    -0.000031034309    0.062203299248    0.018805834767    -0.000000259206    -0.000031253801
            0.000010463101    -0.000031034240    0.072247772364    0.033278909951    0.000001579146    -0.000028906253    0.079676331423    0.037049237617
            0.062203226141    0.018805900346    0.000001579076    -0.000028906189    0.053698783102    0.015087049442    -0.000004198597    -0.000029955787
            -0.000000259311    -0.000031253704    0.079676333883    0.037049237070    -0.000004198557    -0.000029955822    0.072710822785    0.034457543676
0.400     0.049442453984    0.019307053311    0.000004724845    -0.000035131402    0.059539616752    0.018472080240    -0.000005361210    -0.000032986399
            0.000004724772    -0.000035131328    0.072874455774    0.034360577084    -0.000003516651    -0.000031272725    0.081758710311    0.034838919238
            0.059539547026    0.018472149742    -0.000003516717    -0.000031272658    0.049586269331    0.018489180606    -0.000009422638    -0.000031595889
            -0.000005361276    -0.000032986332    0.081758712759    0.034838918595    -0.000009422570    -0.000031595961    0.073590488096    0.035513867546
0.425     0.046190569785    0.024837899375    -0.000001827582    -0.000038167811    0.056789030061    0.019852471135    -0.000010911602    -0.000033900241
            -0.000001827619    -0.000038167770    0.073786272524    0.036305963557    -0.000009147520    -0.000032782041    0.083471826727    0.033175678615
            0.056788964392    0.019852543834    -0.000009147648    -0.000032781901    0.046153545980    0.023919541102    -0.000015076473    -0.000032382347
            -0.000010911664    -0.000033900172    0.083471828235    0.033175677528    -0.000015076436    -0.000032382386    0.074751061680    0.037373425192
0.450     0.044287911852    0.032207157590    -0.000009030529    -0.000040003705    0.054526172897    0.022971637996    -0.000016789433    -0.000033892735
            -0.000009030599    -0.000040003621    0.075310751619    0.039049866856    -0.000015194354    -0.000033326184    0.085080545642    0.032140771241
            0.054526110609    0.022971713726    -0.000015194471    -0.000033326039    0.044034980555    0.031226824610    -0.000021038296    -0.000032220966
            -0.000016789487    -0.000033892666    0.085080547138    0.032140770109    -0.000021038229    -0.000032221047    0.076504410338    0.039972045554
0.475     0.044317202992    0.041067769325    -0.000016640694    -0.000040527938    0.053324667489    0.027678345386    -0.000022826430    -0.000032882149
            -0.000016640759    -0.000040527855    0.077753165711    0.042430155602    -0.000021478044    -0.000032817179    0.086861056141    0.031729737829
            0.053324638571    0.027678385903    -0.000021478131    -0.000032817062    0.043821410641    0.040074955932    -0.000027135064    -0.000031044380
            -0.000022826481    -0.000032882076    0.086861059128    0.031729735483    -0.000027135007    -0.000031044457    0.079140695390    0.043153306995
0.500     0.046765304661    0.050908492766    -0.000024436691    -0.000039657442    0.053710748987    0.033654540245    -0.000028847702    -0.000030809365
            -0.000024436697    -0.000039657436    0.081377404202    0.046200650346    -0.000027823532    -0.000031184599    0.089086341863    0.031858119174
            0.053710696642    0.033654627551    -0.000027823612    -0.000031184481    0.046012274176    0.049961020049    -0.000033197935    -0.000028799616
            -0.000028847761    -0.000030809277    0.089086341863    0.031858119174    -0.000033197883    -0.000028799694    0.082910270897    0.046679928806
0.525     0.051970757481    0.061076732462    -0.000032134075    -0.000037368080    0.056105198972    0.040425820548    -0.000034640574    -0.000027660741
            -0.000032134123    -0.000037367991    0.086376710743    0.050036977957    -0.000034005611    -0.000028404940    0.091993251203    0.032357158005
            0.056105148312    0.040425904541    -0.000034005685    -0.000028404820    0.050960267518    0.060238400969    -0.000039017969    -0.000025481613
            -0.000034640629    -0.000027660646    0.091993254219    0.032357155457    -0.000039017923    -0.000025481689    0.087995269790    0.050240672260
0.550     0.060088577906    0.070830731552    -0.000039475742    -0.000033674631    0.060785840114    0.047404296260    -0.000039997598    -0.000023459921
            -0.000039475785    -0.000033674549    0.092859667194    0.053561820439    -0.000039809584    -0.000024488807    0.095770011986    0.032992089150
            0.060785793988    0.047404381424    -0.000039809653    -0.000024488677    0.058837220949    0.070166402092    -0.000044396559    -0.000021114005
            -0.000039997649    -0.000023459829    0.095770023168    0.032992087392    -0.000044396516    -0.000021114090    0.094496833978    0.053473440558
0.575     0.071061936752    0.079390786235    -0.000046176757    -0.000028671444    0.067848777872    0.053929747971    -0.000044700494    -0.000018292783
            -0.000046176791    -0.000028671364    0.100828920247    0.056364178579    -0.000044999019    -0.000019513772    0.100527286831    0.033472286015
            0.067848733913    0.053929838633    -0.000044999079    -0.000019513649    0.069603312925    0.078962390168    -0.000049121198    -0.000015783415
            -0.000044700542    -0.000018292684    0.100527298656    0.033472282156    -0.000049121162    -0.000015783498    0.102414568099    0.055984954087
0.600     0.084624456786    0.086007307735    -0.000052002355    -0.000022492352    0.077204519972    0.059334552509    -0.000048562310    -0.000012284673
            -0.000052002382    -0.000022492277    0.110182814872    0.058032251155    -0.000049372102    -0.000013596589    0.106296972674    0.033480366464
            0.077204482837    0.059334641854    -0.000049372159    -0.000013596457    0.083007727300    0.085869031228    -0.000053011492    -0.000009609240
            -0.000048562348    -0.000012284583    0.106296985718    0.033480358337    -0.000053011461    -0.000009609320    0.111647857510    0.057381177911
0.625     0.100309388981    0.090018048079    -0.000056732415    -0.000015346699    0.088574377615    0.062992650303    -0.000051419488    -0.000005618808
            -0.000056732444    -0.000015346612    0.120706911272    0.058179901199    -0.000052743125    -0.000006919005    0.113013679336    0.032690098487
            0.088574340041    0.062992737644    -0.000052743171    -0.000006918880    0.098598502133    0.090212158540    -0.000055905931    -0.000002769253
            -0.000051419524    -0.000005618712    0.113013680477    0.032690094542    -0.000055905896    -0.000002769359    0.121988881477    0.057292693787
0.650     0.117495121545    0.090902810891    -0.000060220375    -0.000007461409    0.101526751465    0.064378416175    -0.000053164414    0.000001501500
            -0.000060220401    -0.000007461316    0.132095415961    0.056476239071    -0.000054986145    0.000000315722    0.120531147209    0.030798223818
            0.101526751465    0.064378416175    -0.000054986202    0.000000315905    0.115763706037    0.091455767313    -0.000057697762    0.000004541946
            -0.000053164443    0.000001501584    0.120531150434    0.030798211196    -0.000057697732    0.000004541852    0.133141833761    0.055404025442
0.675     0.135442194766    0.088316378162    -0.000062363819    0.000000889207    0.115503123194    0.063096144802    -0.000053735958    0.000008840524
            -0.000062363841    0.000000889295    0.143956181261    0.052669043047    -0.000056018244    0.000007864366    0.128616085699    0.027541854324
            0.115503109945    0.063096189914    -0.000056018284    0.000007864512    0.133770469146    0.089237150367    -0.000058321619    0.000012095237
            -0.000053735981    0.000008840605    0.128616086661    0.027541849834    -0.000058321593    0.000012095136    0.144728641214    0.051474865020
0.700     0.153359497960    0.082108917915    -0.000063138003    0.000009448622    0.129876452011    0.058909165307    -0.000053134924    0.000016174667
            -0.000063138021    0.000009448715    0.155846503023    0.046601761495    -0.000055823876    0.000015494510    0.136980001126    0.022721722238
            0.129876432183    0.058909257439    -0.000055823916    0.000015494710    0.151829635717    0.083387493255    -0.000057773119    0.000019674404
            -0.000053134966    0.000016174842    0.136980001166    0.022721721999    -0.000057773097    0.000019674307    0.156322952109    0.045356988158
0.725     0.170448204391    0.072325640491    -0.000062567460    0.000017949097    0.143983914488    0.051739782305    -0.000051410093    0.000023280547
            -0.000062567475    0.000017949196    0.167287020391    0.038226017657    -0.000054434634    0.000022967023    0.145279407611    0.016211074932
            0.143983901703    0.051739877024    -0.000054434664    0.000022967215    0.169139815570    0.073932347550    -0.000056091140    0.000027059076
            -0.000051410112    0.000023280631    0.145279408036    0.016211071129    -0.000056091124    0.000027058984    0.167463901372    0.037004829699
0.750     0.185959331180    0.059190737783    -0.000060735721    0.000026171437    0.157181634782    0.041666985340    -0.000048656476    0.000029974217
            -0.000060735722    0.000026171437    0.177801578594    0.027599670631    -0.000051935247    0.000030082453    0.153156884672    0.007966410899
            0.157181634055    0.041666988084    -0.000051935276    0.000030082628    0.184944408657    0.061078631160    -0.000053361854    0.000034067386
            -0.000048656494    0.000029974299    0.153156884644    0.007966411434    -0.000053361844    0.000034067288    0.177693127500    0.026476261370
0.775     0.199222672770    0.043084640289    -0.000057760041    0.000033910710    0.168865472872    0.028904866406    -0.000045000274    0.000036093869
            -0.000057760046    0.000033910808    0.186930674479    0.014887358657    -0.000048442803    0.000036658460    0.160239954751    -0.001975366024
            0.168865474959    0.028904913481    -0.000048442814    0.000036658548    0.198562475189    0.045190810328    -0.000049699931    0.000040534462
            -0.000045000293    0.000036093999    0.160239954659    -0.001975373491    -0.000049699931    0.000040534405    0.186569106488    0.013930420944
