# GHz S RI R 45
0.000     0.013602043000    0.000000000000    -0.000043935148    0.000000000000    0.000441619130    -0.000000000000    -0.000033208621    0.000000000000
            -0.000043935491    0.000000000000    0.014092065000    0.000000000000    -0.000020516450    0.000000000000    0.000245412310    0.000000000000
            0.000441536580    -0.000000000000    -0.000020516144    0.000000000000    0.013559548000    0.000000000000    -0.000016492781    0.000000000000
            -0.000033208824    0.000000000000    0.000245414530    0.000000000000    -0.000016493102    0.000000000000    0.013919773000    0.000000000000
0.025     0.017578019283    0.010093426567    -0.000033373646    -0.000049648807    0.001939674980    0.009093862387    -0.000035370046    -0.000050285599
            -0.000033373839    -0.000049648794    0.017331928040    0.010504705175    -0.000036013343    -0.000075357573    0.001297725538    0.009799647717
            0.001939563848    0.009093920957    -0.000036013051    -0.000075357605    0.017507315961    0.010034133258    -0.000034355947    -0.000066265498
            -0.000035370200    -0.000050285576    0.001297605116    0.009799482193    -0.000034356205    -0.000066265457    0.017347366478    0.010587972199
0.050     0.023119493280    0.016885235883    -0.000053283953    -0.000117904471    0.006008530706    0.017338650276    -0.000058144605    -0.000104299051
            -0.000053284134    -0.000117904433    0.021161241496    0.018111645083    -0.000069873229    -0.000141634485    0.004102622892    0.019052864071
            0.006008438081    0.017338681316    -0.000069872951    -0.000141634544    0.023029304974    0.016782298547    -0.000065122797    -0.000119960143
            -0.000058144817    -0.000104299002    0.004102654095    0.019052852237    -0.000065123065    -0.000119960089    0.021211009208    0.018082276721
0.075     0.030458434494    0.021939861196    -0.000100508300    -0.000172134423    0.012375775902    0.024139852424    -0.000099901816    -0.000147050132
            -0.000100508405    -0.000172134396    0.025769761213    0.024704018493    -0.000122544382    -0.000196311398    0.008478612025    0.027472569082
            0.012375695572    0.024139884616    -0.000122544026    -0.000196311514    0.030342735674    0.021803495538    -0.000110318753    -0.000163993561
            -0.000099901947    -0.000147050104    0.008478619032    0.027472567966    -0.000110318963    -0.000163993504    0.025756028414    0.024606345524
0.100     0.039413287207    0.024710493274    -0.000162840874    -0.000209703121    0.020593825870    0.028959034121    -0.000153524723    -0.000176059644
            -0.000162840959    -0.000209703080    0.031185407090    0.030103908039    -0.000189746871    -0.000235758706    0.014176861211    0.034771173431
            0.020593753803    0.028959080462    -0.000189746473    -0.000235758885    0.039271000045    0.024555921811    -0.000167311239    -0.000195133747
            -0.000153524892    -0.000176059590    0.014176863639    0.034771172441    -0.000167311414    -0.000195133676    0.031074058636    0.029987071572
0.125     0.049334347967    0.024772224900    -0.000234639743    -0.000228851762    0.030104621411    0.031380793942    -0.000214674017    -0.000189478662
            -0.000234639844    -0.000228851701    0.037127881192    0.034185626424    -0.000267201559    -0.000257190939    0.020883652552    0.040740565904
            0.030104559346    0.031380846554    -0.000267201270    -0.000257191110    0.049171271234    0.024615006851    -0.000232546369    -0.000210892196
            -0.000214674113    -0.000189478613    0.020883654685    0.040740564810    -0.000232546575    -0.000210892088    0.036909346369    0.034098026590
0.150     0.059608696132    0.021875174625    -0.000311007967    -0.000229391887    0.040280343102    0.031140222710    -0.000279133249    -0.000187108546
            -0.000311007967    -0.000229391887    0.043225496424    0.036912281968    -0.000350265158    -0.000259684526    0.028264177241    0.045261174393
            0.040280294284    0.031140279317    -0.000350265158    -0.000259684526    0.059436500989    0.021731931988    -0.000301970072    -0.000210533154
            -0.000279133257    -0.000187108552    0.028264169332    0.045261175795    -0.000301970072    -0.000210533154    0.042904951363    0.036899981586
0.175     0.069418036513    0.015956674933    -0.000387559092    -0.000211763058    0.050449766134    0.028121358075    -0.000343180795    -0.000169364048
            -0.000387559083    -0.000211763053    0.049167962754    0.038384118632    -0.000434653336    -0.000243146478    0.035971779950    0.048294288409
            0.050449722119    0.028121424714    -0.000434653336    -0.000243146478    0.069255200704    0.015839582491    -0.000371887566    -0.000194099963
            -0.000343181181    -0.000169363718    0.035971781636    0.048294287153    -0.000371887557    -0.000194099958    0.048767166546    0.038488005348
0.200     0.078000970540    0.007176568511    -0.000460890063    -0.000177305661    0.059939898535    0.022366043139    -0.000403899196    -0.000137537363
            -0.000460890737    -0.000177304997    0.054673976794    0.038771009845    -0.000516751754    -0.000208536855    0.043674506531    0.049888219155
            0.059939862309    0.022366120199    -0.000516751065    -0.000208537520    0.077871294484    0.007092830138    -0.000439199727    -0.000162600609
            -0.000403899186    -0.000137537359    0.043674497801    0.049888221481    -0.000439199727    -0.000162600609    0.054225551217    0.039023687931
0.225     0.084658556651    -0.004149080045    -0.000528051714    -0.000127681355    0.068101852960    0.014064005000    -0.000458849357    -0.000093171076
            -0.000528051704    -0.000127681352    0.059522604958    0.038295214967    -0.000593419507    -0.000157198786    0.051071656390    0.050163370325
            0.068101829904    0.014064082032    -0.000593419177    -0.000157199253    0.084589727548    -0.004199630053    -0.000501302675    -0.000117364426
            -0.000458849674    -0.000093170724    0.051071657265    0.050163369434    -0.000501302992    -0.000117364039    0.059068744437    0.038718109645
0.250     0.088790032792    -0.017550194164    -0.000587011684    -0.000064752976    0.074348057213    0.003543969989    -0.000506403523    -0.000037999700
            -0.000587011674    -0.000064752975    0.063562970556    0.037234921512    -0.000662305426    -0.000090823128    0.057912717675    0.049307759865
            0.074348044660    0.003544044304    -0.000662304879    -0.000090823877    0.088811699517    -0.017575583267    -0.000556315201    -0.000060012473
            -0.000506403523    -0.000037999700    0.057912719396    0.049307757844    -0.000556315191    -0.000060012570    0.063150930758    0.037837496923
0.275     0.089903144377    -0.032436684297    -0.000636037746    0.000009584733    0.078170280347    -0.008742273923    -0.000545250003    0.000026285429
            -0.000636037736    0.000009584733    0.066728802354    0.035886406287    -0.000721404541    -0.000011147219    0.064006859503    0.047555300516
            0.078170278753    -0.008742189204    -0.000721404561    -0.000011147220    0.090044880094    -0.032453727401    -0.000602723074    0.000007850622
            -0.000545250003    0.000026285429    0.064006861136    0.047555299996    -0.000602723074    0.000007850622    0.066408294030    0.036664353524
0.300     0.087652373322    -0.048119167861    -0.000673982402    0.000093593887    0.079170810614    -0.022241837854    -0.000574588017    0.000098154407
            -0.000673982422    0.000093593889    0.069039770954    0.034556055486    -0.000769253130    0.000080137822    0.069236127293    0.045175814781
            0.079170823331    -0.022241744522    -0.000769253110    0.000080137820    0.087940846086    -0.048153712030    -0.000639504275    0.000084714148
            -0.000574588402    0.000098155299    0.069236128082    0.045175813573    -0.000639504275    0.000084714148    0.068859008382    0.035491448676
0.325     0.081840159204    -0.063839992926    -0.000699774213    0.000185584647    0.077072491558    -0.036319923892    -0.000593694653    0.000176204079
            -0.000699774204    0.000185584645    0.070598838960    0.033524365339    -0.000804493976    0.000181408404    0.073555337850    0.042449899035
            0.077072517020    -0.036319832325    -0.000804493827    0.000181407928    0.082296992506    -0.063926567841    -0.000665745240    0.000169209734
            -0.000593694780    0.000176204567    0.073555339457    0.042449898251    -0.000665745567    0.000169210559    0.070601262347    0.034586316854
0.350     0.072442680772    -0.078810321843    -0.000712588947    0.000284069432    0.071741212568    -0.050292458046    -0.000602037883    0.000259246089
            -0.000712588937    0.000284069428    0.071587117109    0.033037938236    -0.000826002490    0.000291171645    0.077000357127    0.039657289950
            0.071741250554    -0.050292370760    -0.000826002490    0.000291171645    0.073082098140    -0.078990697328    -0.000680719742    0.000260151667
            -0.000602037874    0.000259246085    0.077000358708    0.039657289064    -0.000680719974    0.000260152572    0.071807827559    0.034184024448
0.375     0.059602599355    -0.092238236461    -0.000711517988    0.000387508940    0.063188161442    -0.063446429197    -0.000598973105    0.000346117031
            -0.000711518031    0.000387509446    0.072247772364    0.033278909951    -0.000832553828    0.000407905355    0.079676331423    0.037049237617
            0.063188183979    -0.063446389814    -0.000832553728    0.000407904945    0.060429058889    -0.092560014740    -0.000683571657    0.000356406883
            -0.000598973097    0.000346117026    0.079676333883    0.037049237070    -0.000683571709    0.000356407366    0.072710822785    0.034457543676
0.400     0.043636125122    -0.103373234687    -0.000695701570    0.000494401331    0.051580076132    -0.075081674635    -0.000583841643    0.000435712132
            -0.000695701612    0.000494402274    0.072874455774    0.034360577084    -0.000822952504    0.000530065029    0.081758710311    0.034838919238
            0.051580136103    -0.075081601891    -0.000822952512    0.000530065035    0.044643115296    -0.103887502530    -0.000673411812    0.000456871430
            -0.000583841643    0.000435712132    0.081758712759    0.034838918595    -0.000673411812    0.000456871430    0.073590488096    0.035513867546
0.425     0.025018537540    -0.111532414488    -0.000664190989    0.000602994935    0.037232904725    -0.084530799541    -0.000555835588    0.000526739925
            -0.000664190982    0.000602994928    0.073786272524    0.036305963557    -0.000795863220    0.000655842076    0.083471826727    0.033175678615
            0.037232975655    -0.084530736610    -0.000795863218    0.000655841608    0.026186745757    -0.112291350849    -0.000649145449    0.000560251009
            -0.000555835588    0.000526739925    0.083471828235    0.033175677528    -0.000649145449    0.000560251009    0.074751061680    0.037373425192
0.450     0.004370432452    -0.116144741172    -0.000616099737    0.000711340817    0.020605774765    -0.091204657452    -0.000514130973    0.000617721879
            -0.000616099731    0.000711340810    0.075310751619    0.039049866856    -0.000749990403    0.000783148599    0.085080545642    0.032140771241
            0.020605853231    -0.091204604867    -0.000749990534    0.000783147642    0.005667771293    -0.117197871339    -0.000609629974    0.000665007704
            -0.000514130999    0.000617721910    0.085080547138    0.032140770109    -0.000609630110    0.000665007620    0.076504410338    0.039972045554
0.475     -0.017567048235    -0.116772434267    -0.000550642587    0.000817065133    0.002284141839    -0.094610667524    -0.000457918513    0.000706787555
            -0.000550642576    0.000817065116    0.077753165711    0.042430155602    -0.000684094783    0.000909395688    0.086861056141    0.031729737829
            0.002284226764    -0.094610626462    -0.000684094783    0.000909395688    -0.016185342981    -0.118163999077    -0.000553685694    0.000769150222
            -0.000457918513    0.000706787555    0.086861059128    0.031729735483    -0.000553685472    0.000769150763    0.079140695390    0.043153306995
0.500     -0.039963959074    -0.113145101507    -0.000467336071    0.000917455972    -0.017045305845    -0.094392925239    -0.000386597406    0.000791708712
            -0.000467336071    0.000917455972    0.081377404202    0.046200650346    -0.000597248623    0.001031539129    0.089086341863    0.031858119174
            -0.017045215298    -0.094392894846    -0.000597249043    0.001031538193    -0.038554427630    -0.114910493240    -0.000480325858    0.000870230123
            -0.000386597406    0.000791708712    0.089086341863    0.031858119174    -0.000480325858    0.000870230123    0.082910270897    0.046679928806
0.525     -0.061936914179    -0.105171393396    -0.000366140534    0.001009368180    -0.036620780931    -0.090342760141    -0.000299913836    0.000869818399
            -0.000366140318    0.001009368684    0.086376710743    0.050036977957    -0.000488976185    0.001145975699    0.091993251203    0.032357158005
            -0.036620698701    -0.090342738443    -0.000488976185    0.001145975699    -0.060565544638    -0.107334655459    -0.000388907381    0.000965245725
            -0.000299913504    0.000869818915    0.091993254219    0.032357155457    -0.000388907381    0.000965245725    0.087995269790    0.050240672260
0.550     -0.082594556484    -0.092955853271    -0.000247652543    0.001089442082    -0.055648031022    -0.082425084241    -0.000198164140    0.000938171415
            -0.000247652521    0.001089441985    0.092859667194    0.053561820439    -0.000359510015    0.001248751075    0.095770011986    0.032992089150
            -0.055647944382    -0.082425079993    -0.000359510475    0.001248750215    -0.081334665114    -0.095526385589    -0.000279391889    0.001050794289
            -0.000198164146    0.000938171444    0.095770023168    0.032992087392    -0.000279391889    0.001050794289    0.094496833978    0.053473440558
0.575     -0.101077411994    -0.076792330296    -0.000113238772    0.001154155151    -0.073331332699    -0.070773579448    -0.000082332117    0.000993609969
            -0.000113238792    0.001154155149    0.100828920247    0.056364178579    -0.000209961222    0.001335625594    0.100527286831    0.033472286015
            -0.073331286408    -0.070773584212    -0.000209961222    0.001335625594    -0.100005738175    -0.079764055430    -0.000152502269    0.001123135913
            -0.000082332098    0.000993609951    0.100527298656    0.033472282156    -0.000152502269    0.001123135913    0.102414568099    0.055984954087
0.600     -0.116606752164    -0.057157010764    0.000034889272    0.001200167186    -0.088924212834    -0.055695603169    0.000045808269    0.001033055973
            0.000034889209    0.001200167187    0.110182814872    0.058032251155    -0.000042450792    0.001402453977    0.106296972674    0.033480366464
            -0.088924123102    -0.055695633402    -0.000042450767    0.001402453978    -0.115799708934    -0.060506691789    -0.000009889161    0.001178523210
            0.000045808895    0.001033056645    0.106296985718    0.033480358337    -0.000009889140    0.001178523210    0.111647857510    0.057381177911
0.625     -0.128518151728    -0.034683283748    0.000193661075    0.001224465506    -0.101755189283    -0.037649816363    0.000183676490    0.001053675279
            0.000193661075    0.001224465506    0.120706911272    0.058179901199    0.000139891628    0.001445326902    0.113013679336    0.032690098487
            -0.101755106727    -0.037649866581    0.000139891628    0.001445326902    -0.128048307587    -0.038370905962    0.000145837349    0.001213371597
            0.000183676490    0.001053675279    0.113013680477    0.032690094542    0.000145837349    0.001213371597    0.121988881477    0.057292693787
0.650     -0.136301581558    -0.010131397071    0.000359291637    0.001224732378    -0.111274927006    -0.017227601234    0.000327965631    0.001053218419
            0.000359291637    0.001224732378    0.132095415961    0.056476239071    0.000332977003    0.001461066658    0.120531147209    0.030798223818
            -0.111274848809    -0.017227648788    0.000332976978    0.001461066664    -0.136233531969    -0.014101316177    0.000311150701    0.001224681459
            0.000327965649    0.001053218413    0.120531150434    0.030798211196    0.000311150701    0.001224681459    0.133141833761    0.055404025442
0.675     -0.139617963258    0.015650251242    0.000527396018    0.001199442682    -0.117066039914    0.004880977259    0.000474783821    0.001030134402
            0.000527395997    0.001199442691    0.143956181261    0.052669043047    0.000531915172    0.001447294139    0.128616085699    0.027541854324
            -0.117066001652    0.004880934729    0.000531915172    0.001447294139    -0.140004401848    0.011467407232    0.000481749942    0.001210168760
            0.000474783803    0.001030134410    0.128616086661    0.027541849834    0.000481749942    0.001210168760    0.144728641214    0.051474865020
0.700     -0.138318568066    0.041770136619    0.000693332728    0.001148120610    -0.118875771079    0.027923828101    0.000619912434    0.000983825400
            0.000693332708    0.001148120622    0.155846503023    0.046601761495    0.000731385381    0.001402822102    0.136980001126    0.022721722238
            -0.118875717555    0.027923749851    0.000731385381    0.001402822102    -0.139198057593    0.037454284555    0.000652840394    0.001168614030
            0.000619912434    0.000983825400    0.136980001166    0.022721721999    0.000652840394    0.001168614030    0.156322952109    0.045356988158
0.725     -0.132440670358    0.067333611425    0.000852365081    0.001071276144    -0.116605014092    0.051120935716    0.000759025748    0.000914617317
            0.000852365081    0.001071276144    0.167287020391    0.038226017657    0.000925784958    0.001327570252    0.145279407611    0.016211074932
            -0.116604967591    0.051120842540    0.000925784901    0.001327570170    -0.133835029845    0.062972706477    0.000819343992    0.001099827722
            0.000759025748    0.000914617317    0.145279408036    0.016211071129    0.000819344011    0.001099827708    0.167463901372    0.037004829699
0.750     -0.122203243940    0.091489548722    0.001000066968    0.000970465101    -0.110321366711    0.073706443208    0.000888009555    0.000823824007
            0.001000066968    0.000970465101    0.177801578594    0.027599670631    0.001109716669    0.001222736064    0.153156884672    0.007966410899
            -0.110321325919    0.073706360256    0.001109716669    0.001222736064    -0.124116748824    0.087174769166    0.000976295347    0.001004808713
            0.000888009555    0.000823824007    0.153156884644    0.007966411434    0.000976295347    0.001004808713    0.177693127500    0.026476261370
0.775     -0.107984371675    0.113461161027    0.001132474803    0.000848089491    -0.100230206298    0.094954825062    0.001003135677    0.000713574375
            0.001132474803    0.000848089491    0.186930674479    0.014887358657    0.001278146755    0.001090546470    0.160239954751    -0.001975366024
            -0.100230157535    0.094954745672    0.001278146755    0.001090546470    -0.110403185036    0.109283610379    0.001119057285    0.000885553524
            0.001003135665    0.000713574393    0.160239954659    -0.001975373491    0.001119057285    0.000885553524    0.186569106488    0.013930420944
