# GHz S RI R 45
0.000     0.014130358000    0.000000000000    0.985450280000    -0.000000000000    0.000482791030    -0.000000000000    -0.000623249600    0.000000000000
            0.985450280000    -0.000000000000    0.014092065000    0.000000000000    -0.000623419360    0.000000000000    0.000245412310    0.000000000000
            0.000482760090    -0.000000000000    -0.000623454520    0.000000000000    0.014096965000    0.000000000000    0.985510900000    -0.000000000000
            -0.000623284790    0.000000000000    0.000245414530    0.000000000000    0.985510900000    -0.000000000000    0.013919773000    0.000000000000
0.025     0.018396904737    0.010615525051    0.975741952193    -0.119655021676    0.002074259323    0.009673616992    -0.000973607652    -0.002344486661
            0.975741951985    -0.119655023379    0.017331928040    0.010504705175    -0.000969927204    -0.002343363787    0.001297725538    0.009799647717
            0.002074200895    0.009673668179    -0.000969956241    -0.002343423523    0.018327793618    0.010563871174    0.975824074132    -0.119339089826
            -0.000973737881    -0.002344564571    0.001297605116    0.009799482193    0.975824074340    -0.119339088123    0.017347366478    0.010587972199
0.050     0.024268512835    0.017713415977    0.952680328600    -0.234772302224    0.006433462791    0.018411969433    -0.002131469656    -0.004519775350
            0.952680328600    -0.234772302224    0.021161241496    0.018111645083    -0.002126908699    -0.004521101004    0.004102622892    0.019052864071
            0.006433418774    0.018411985873    -0.002126942211    -0.004521102589    0.024191193664    0.017632988547    0.952872053234    -0.234132275933
            -0.002131503110    -0.004519778811    0.004102654095    0.019052852237    0.952872053234    -0.234132275933    0.021211009208    0.018082276721
0.075     0.032018616803    0.022885440180    0.916404993315    -0.345908427332    0.013227766146    0.025532654147    -0.003946041288    -0.006207929194
            0.916404993315    -0.345908427332    0.025769761213    0.024704018493    -0.003942080921    -0.006210053229    0.008478612025    0.027472569082
            0.013227732652    0.025532665868    -0.003942111435    -0.006210043808    0.031935839565    0.022776638578    0.916793263022    -0.344976869145
            -0.003946072935    -0.006207919149    0.008478619032    0.027472567966    0.916793263022    -0.344976869145    0.025756028414    0.024606345524
0.100     0.041394061291    0.025540201840    0.867284378194    -0.451486577547    0.021930175723    0.030446503323    -0.006204198574    -0.007296475218
            0.867284378194    -0.451486577547    0.031185407090    0.030103908039    -0.006200011209    -0.007297820191    0.014176861211    0.034771173431
            0.021930153883    0.030446517821    -0.006200041884    -0.007297807252    0.041308784457    0.025409276064    0.867939843890    -0.450311062858
            -0.006204229205    -0.007296464793    0.014176863639    0.034771172441    0.867939843890    -0.450311062858    0.031074058636    0.029987071572
0.125     0.051646248391    0.025241623373    0.806178352400    -0.550027484589    0.031891897243    0.032715126348    -0.008713569099    -0.007730021246
            0.806178352400    -0.550027484589    0.037127881192    0.034185626424    -0.008707092171    -0.007729762719    0.020883652552    0.040740565904
            0.031891874276    0.032715147340    -0.008707126925    -0.007729744660    0.051564777329    0.025094001444    0.807158900484    -0.548665785298
            -0.008713597565    -0.007730005734    0.020883654685    0.040740564810    0.807158900484    -0.548665785298    0.036909346369    0.034098026590
0.150     0.062069065250    0.021750159772    0.734084268062    -0.640205700325    0.042389765277    0.032080183301    -0.011295057096    -0.007515311720
            0.734084268062    -0.640205700325    0.043225496424    0.036912281968    -0.011283406369    -0.007513760746    0.028264177241    0.045261174393
            0.042389748005    0.032080202810    -0.011283437693    -0.007513738965    0.062004039800    0.021593457444    0.735437440932    -0.638725618686
            -0.011295080682    -0.007515296128    0.028264169332    0.045261175795    0.735437440932    -0.638725618686    0.042904951363    0.036899981586
0.175     0.071743258506    0.015061457384    0.652175138053    -0.720878809494    0.052661435464    0.028462618940    -0.013796151262    -0.006697584199
            0.652175138053    -0.720878809494    0.049167962754    0.038384118632    -0.013776279981    -0.006696787457    0.035971779950    0.048294288409
            0.052661421286    0.028462640967    -0.013776309565    -0.006696763195    0.071710733627    0.014896864405    0.653935056203    -0.719353306635
            -0.013796179952    -0.006697559447    0.035971781636    0.048294287153    0.653935056203    -0.719353306635    0.048767166546    0.038488005348
0.200     0.079831351164    0.005419704756    0.561704341006    -0.791076066779    0.061954960196    0.021967839400    -0.016100888986    -0.005355687721
            0.561704327199    -0.791076076582    0.054673976794    0.038771009845    -0.016070403452    -0.005359369604    0.043674506531    0.049888219155
            0.061954949493    0.021967863602    -0.016070423254    -0.005359348157    0.079849566094    0.005243073285    0.563893425934    -0.789582858956
            -0.016100914450    -0.005355661860    0.043674497801    0.049888221481    0.563893425934    -0.789582858956    0.054225551217    0.039023687931
0.225     0.085582096165    -0.006752667192    0.463986507139    -0.849973883721    0.069560407980    0.012872148342    -0.018131487885    -0.003583219120
            0.463986507139    -0.849973883721    0.059522604958    0.038295214967    -0.018089312062    -0.003596615788    0.051071656390    0.050163370325
            0.069560399499    0.012872183185    -0.018089335013    -0.003596587531    0.085670355371    -0.006951828489    0.466614392648    -0.848592445061
            -0.018131510817    -0.003583190770    0.051071657265    0.050163369434    0.466614392648    -0.848592445061    0.059068744437    0.038718109645
0.250     0.088371842876    -0.020863596398    0.360391998661    -0.896904224743    0.074852004049    0.001608144381    -0.019851411841    -0.001473998866
            0.360391998661    -0.896904224743    0.063562970556    0.037234921512    -0.019798434338    -0.001503296279    0.057912717675    0.049307759865
            0.074852000283    0.001608179982    -0.019798454910    -0.001503263087    0.088548890844    -0.021102752533    0.363455416353    -0.895717333133
            -0.019851431367    -0.001473965478    0.057912719396    0.049307757844    0.363455416353    -0.895717333133    0.063150930758    0.037837496923
0.275     0.087717761204    -0.036191571211    0.252329349070    -0.931343118426    0.077309877493    -0.011255680434    -0.021254912406    0.000892587677
            0.252329349070    -0.931343118426    0.066728802354    0.035886406287    -0.021194584335    0.000840843849    0.064006859503    0.047555300516
            0.077309876312    -0.011255667723    -0.021194597297    0.000840870298    0.087998995477    -0.036495128987    0.255817387048    -0.930431987600
            -0.021254928988    0.000892621820    0.064006861136    0.047555299996    0.255817387048    -0.930431987600    0.066408294030    0.036664353524
0.300     0.083317167937    -0.051914486089    0.141244029481    -0.952914541719    0.076554272615    -0.025043402701    -0.022359150986    0.003462074746
            0.141244029481    -0.952914541719    0.069039770954    0.034556055486    -0.022297326087    0.003382026127    0.069236127293    0.045175814781
            0.076554268890    -0.025043404440    -0.022297339560    0.003382064001    0.083713088566    -0.052314141831    0.145128883361    -0.952359123817
            -0.022359163336    0.003462112622    0.069236128082    0.045175813573    0.145128883361    -0.952359123817    0.068859008382    0.035491448676
0.325     0.075051163483    -0.067147701692    0.028609735868    -0.961378154403    0.072357728732    -0.038996608733    -0.023186742250    0.006208895972
            0.028609735868    -0.961378154403    0.070598838960    0.033524365339    -0.023132136670    0.006096184582    0.073555337850    0.042449899035
            0.072357725411    -0.038996608572    -0.023132146530    0.006096221723    0.075564926427    -0.067680683098    0.032854483748    -0.961258673609
            -0.023186751934    0.006208933262    0.073555339457    0.042449898251    0.032854483748    -0.961258673609    0.070601262347    0.034586316854
0.350     0.063009113366    -0.080989986483    -0.084083454153    -0.956649536838    0.064668821426    -0.052314315073    -0.023754203344    0.009136726526
            -0.084083455029    -0.956649546799    0.071587117109    0.033037938236    -0.023717311045    0.008989581331    0.077000357127    0.039657289950
            0.064668818181    -0.052314314315    -0.023717316260    0.008989621181    0.063634274422    -0.081697634872    -0.079529091030    -0.957041244276
            -0.023754209914    0.009136762368    0.077000358708    0.039657289064    -0.079529091030    -0.957041244276    0.071807827559    0.034184024448
0.375     0.047480446521    -0.092559097216    -0.195323775055    -0.938789809785    0.053615209184    -0.064181015582    -0.024055389869    0.012269829886
            -0.195323775055    -0.938789809785    0.072247772364    0.033278909951    -0.024048127055    0.012089773560    0.079676331423    0.037049237617
            0.053615237498    -0.064180978899    -0.024048128690    0.012089805930    0.048199620600    -0.093484542652    -0.190522028001    -0.939763131162
            -0.024055390913    0.012269867454    0.079676333883    0.037049237070    -0.190522028001    -0.939763131162    0.072710822785    0.034457543676
0.400     0.028957516007    -0.101046495436    -0.303599521010    -0.908026358363    0.039511981475    -0.073817933874    -0.024054208641    0.015642834573
            -0.303599521010    -0.908026358363    0.072874455774    0.034360577084    -0.024088728117    0.015435245244    0.081758710311    0.034838919238
            0.039511978771    -0.073817931918    -0.024088726099    0.015435285464    0.029741395171    -0.102231879373    -0.298625762324    -0.909646088805
            -0.024054205458    0.015642874319    0.081758712759    0.034838918595    -0.298625762324    -0.909646088805    0.073590488096    0.035513867546
0.425     0.008115775803    -0.105752271565    -0.407403548494    -0.864758204634    0.022852555447    -0.080512616833    -0.023678053746    0.019283110535
            -0.407403548494    -0.864758204634    0.073786272524    0.036305963557    -0.023765352107    0.019057384049    0.083471826727    0.033175678615
            0.022852552090    -0.080512615707    -0.023765345413    0.019057419572    0.008922783905    -0.107235459489    -0.402346861284    -0.867080881782
            -0.023678046735    0.019283146066    0.083471828235    0.033175677528    -0.402346861284    -0.867080881782    0.074751061680    0.037373425192
0.450     -0.014209719093    -0.106138119371    -0.505266140677    -0.809569518323    0.004293492221    -0.083674257608    -0.022821490597    0.023195549354
            -0.505266140677    -0.809569518323    0.075310751619    0.039049866856    -0.022970304884    0.022964877238    0.085080545642    0.032140771241
            0.004293578102    -0.083674219156    -0.022970296865    0.022964909303    -0.013433147522    -0.107949223759    -0.500226222262    -0.812637607682
            -0.022821482278    0.023195581387    0.085080547138    0.032140770109    -0.500226222262    -0.812637607682    0.076504410338    0.039972045554
0.475     -0.037061039911    -0.101855676177    -0.595769884102    -0.743229703379    -0.015370359221    -0.082860575529    -0.021353878262    0.027344513780
            -0.595769884102    -0.743229703379    0.077753165711    0.042430155602    -0.021569256791    0.027125211146    0.086861056141    0.031729737829
            -0.015370358492    -0.082860571596    -0.021569239211    0.027125257066    -0.036378200237    -0.104013608172    -0.590857034537    -0.747074358815
            -0.021353860241    0.027344559573    0.086861059128    0.031729735483    -0.590857034537    -0.747074358815    0.079140695390    0.043153306995
0.500     -0.059405240026    -0.092784313905    -0.677588527897    -0.666705510437    -0.035248298578    -0.077823954133    -0.019136473414    0.031643661802
            -0.677588527897    -0.666705510437    0.081377404202    0.046200650346    -0.019418717485    0.031453959161    0.089086341863    0.031858119174
            -0.035248298578    -0.077823954133    -0.019418717485    0.031453959161    -0.058887254874    -0.095294128937    -0.672921535164    -0.671338803502
            -0.019136473414    0.031643661802    0.089086341863    0.031858119174    -0.672921535164    -0.671338803502    0.082910270897    0.046679928806
0.525     -0.080187217054    -0.079041941289    -0.749516927703    -0.581141285704    -0.054394857030    -0.068523129768    -0.016041414205    0.035947682360
            -0.749516927703    -0.581141285704    0.086376710743    0.050036977957    -0.016385433319    0.035806291508    0.091993251203    0.032357158005
            -0.054394761793    -0.068523132593    -0.016385431655    0.035806287871    -0.079909363328    -0.081892600490    -0.745222678507    -0.586559850385
            -0.016041359292    0.035947761617    0.091993254219    0.032357155457    -0.745222678507    -0.586559850385    0.087995269790    0.050240672260
0.550     -0.098394305541    -0.060994050043    -0.810514536794    -0.487854384416    -0.071872405101    -0.055144653804    -0.011974798124    0.040057146058
            -0.810514536794    -0.487854384416    0.092859667194    0.053561820439    -0.012370213476    0.039981513660    0.095770011986    0.032992089150
            -0.071872401928    -0.055144651369    -0.012370153270    0.039981590907    -0.098431964567    -0.064156170678    -0.806720057195    -0.494029502927
            -0.011974798124    0.040057146058    0.095770023168    0.032992087392    -0.806720057195    -0.494029502927    0.094496833978    0.053473440558
0.575     -0.113111511977    -0.039234844327    -0.859725761776    -0.388301559777    -0.086798217125    -0.038088347553    -0.006898537046    0.043726429898
            -0.859725761776    -0.388301559777    0.100828920247    0.056364178579    -0.007329766457    0.043731180940    0.100527286831    0.033472286015
            -0.086798218278    -0.038088329993    -0.007329701411    0.043731251665    -0.113535827491    -0.042661110100    -0.856560948377    -0.395184218776
            -0.006898503407    0.043726464563    0.100527298656    0.033472282156    -0.856560948377    -0.395184218776    0.102414568099    0.055984954087
0.600     -0.123584498474    -0.014559063270    -0.896520674783    -0.284042169701    -0.098409788288    -0.017952958615    -0.000846497034    0.046685445320
            -0.896520674783    -0.284042169701    0.110182814872    0.058032251155    -0.001293774420    0.046780649986    0.106296972674    0.033480366464
            -0.098409700187    -0.017952995785    -0.001293707384    0.046780707861    -0.124457097810    -0.018185078635    -0.894105745975    -0.291562230645
            -0.000846428808    0.046685503566    0.106296985718    0.033480358337    -0.894105745975    -0.291562230645    0.111647857510    0.057381177911
0.625     -0.129257359211    0.012084276036    -0.920499273204    -0.176705953875    -0.106097238547    0.004504316645    0.006064951249    0.048661426763
            -0.920499273204    -0.176705953875    0.120706911272    0.058179901199    0.005623743310    0.048851613868    0.113013679336    0.032690098487
            -0.106097160977    0.004504257699    0.005623775501    0.048851638348    -0.130626845307    0.008337923162    -0.918944830259    -0.184769419109
            0.006064985287    0.048661450738    0.113013680477    0.032690094542    -0.918944830259    -0.184769419109    0.121988881477    0.057292693787
0.650     -0.129811228636    0.039649869591    -0.931506489325    -0.067931394348    -0.109451075658    0.028413974386    0.013637471951    0.049409449167
            -0.931506489325    -0.067931394348    0.132095415961    0.056476239071    0.013225575400    0.049692731206    0.120531147209    0.030798223818
            -0.109451061020    0.028413990976    0.013225655945    0.049692779102    -0.131709029631    0.035874121952    -0.930909994258    -0.076427921356
            0.013637553325    0.049409495175    0.120531150434    0.030798211196    -0.930909994258    -0.076427921356    0.133141833761    0.055404025442
0.675     -0.125169788689    0.067055299863    -0.929616329869    0.040659126124    -0.108264313661    0.052846049987    0.021598686800    0.048735607289
            -0.929616329869    0.040659126124    0.143956181261    0.052669043047    0.021238165063    0.049103893713    0.128616085699    0.027541854324
            -0.108264277952    0.052846009158    0.021238203477    0.049103911963    -0.127607833054    0.063348548471    -0.930057040953    0.031856831972
            0.021598726539    0.048735625773    0.128616086661    0.027541849834    -0.930057040953    0.031856831972    0.144728641214    0.051474865020
0.700     -0.115501593855    0.093247540959    -0.915123499802    0.147519168554    -0.102549182547    0.076869365746    0.029622252981    0.046522403876
            -0.915123499802    0.147519168554    0.155846503023    0.046601761495    0.029332452458    0.046961803858    0.136980001126    0.022721722238
            -0.102549182547    0.076869365746    0.029332452458    0.046961803858    -0.118470870150    0.089710452047    -0.916660864263    0.138548299285
            0.029622252981    0.046522403876    0.136980001166    0.022721721999    -0.916660864263    0.138548299285    0.156322952109    0.045356988158
0.725     -0.101193436621    0.117252672083    -0.888515232471    0.251189827143    -0.092509236077    0.099594139122    0.037349593278    0.042741227547
            -0.888515232471    0.251189827143    0.167287020391    0.038226017657    0.037144978374    0.043233100922    0.145279407611    0.016211074932
            -0.092509236077    0.099594139122    0.037144978374    0.043233100922    -0.104663829695    0.113984338190    -0.891186617143    0.242202033359
            0.037349639916    0.042741237257    0.145279408036    0.016211071129    -0.891186617143    0.242202033359    0.167463901372    0.037004829699
0.750     -0.082820430249    0.138228416341    -0.850437917503    0.350350540602    -0.078526024001    0.120223429220    0.044420989316    0.037460128346
            -0.850437917503    0.350350540602    0.177801578594    0.027599670631    0.044310713738    0.037982756110    0.153156884672    0.007966410899
            -0.078526022219    0.120223334831    0.044310706723    0.037982758147    -0.086741660320    0.135320487119    -0.854257902434    0.341494434967
            0.044420982336    0.037460130419    0.153156884644    0.007966411434    -0.854257902434    0.341494434967    0.177693127500    0.026476261370
0.775     -0.061101582741    0.155489646417    -0.801667798143    0.443804871149    -0.061116932806    0.138071774611    0.050499893947    0.030840247272
            -0.801667798143    0.443804871149    0.186930674479    0.014887358657    0.050486811292    0.031370474697    0.160239954751    -0.001975366024
            -0.061116904660    0.138071776134    0.050486811292    0.031370474697    -0.065405560539    0.153023303590    -0.806632370223    0.435234483860
            0.050499986444    0.030840249305    0.160239954659    -0.001975373491    -0.806632370223    0.435234483860    0.186569106488    0.013930420944
