# GHz S RI R 45
0.000     0.014502188000    0.000000000000    -0.000014999990    0.000000000000    0.000436269530    0.000000000000    -0.000003476488    0.000000000000
            -0.000015000013    0.000000000000    0.014092065000    0.000000000000    -0.000001534996    0.000000000000    0.000245412310    0.000000000000
            0.000436269490    0.000000000000    -0.000001534960    0.000000000000    0.014484832000    0.000000000000    -0.000007732895    0.000000000000
            -0.000003476472    0.000000000000    0.000245414530    0.000000000000    -0.000007732926    0.000000000000    0.013919773000    0.000000000000
0.025     0.017992096989    0.010202580671    -0.000019217765    -0.000010968209    0.001501523901    0.009268816874    -0.000015966086    -0.000017596595
            -0.000019217764    -0.000010968204    0.017331928040    0.010504705175    -0.000016319959    -0.000017924695    0.001297725538    0.009799647717
            0.001501401167    0.009268651573    -0.000016319963    -0.000017924692    0.017913642650    0.010203322625    -0.000012709523    -0.000013775793
            -0.000015966089    -0.000017596592    0.001297605116    0.009799482193    -0.000012709524    -0.000013775793    0.017347366478    0.010587972199
0.050     0.021941146241    0.017288751786    -0.000023166484    -0.000018417296    0.004287695109    0.017954085058    -0.000023069279    -0.000023068353
            -0.000023166484    -0.000018417296    0.021161241496    0.018111645083    -0.000024032961    -0.000021214302    0.004102622892    0.019052864071
            0.004287725515    0.017954073684    -0.000024032960    -0.000021214301    0.021839273497    0.017308005537    -0.000017338223    -0.000023260799
            -0.000023069285    -0.000023068351    0.004102654095    0.019052852237    -0.000017338228    -0.000023260797    0.021211009208    0.018082276721
0.075     0.026619765411    0.023299950039    -0.000027906839    -0.000025224445    0.008616434860    0.025761298684    -0.000027959089    -0.000029018780
            -0.000027906839    -0.000025224445    0.025769761213    0.024704018493    -0.000028472812    -0.000025352852    0.008478612025    0.027472569082
            0.008616440572    0.025761297827    -0.000028472763    -0.000025352862    0.026491415785    0.023351106244    -0.000022842884    -0.000032126611
            -0.000027959090    -0.000029018780    0.008478619032    0.027472567966    -0.000022842884    -0.000032126611    0.025756028414    0.024606345524
0.100     0.032062722201    0.028037777317    -0.000033665665    -0.000031194618    0.014210938326    0.032392028855    -0.000033256360    -0.000035042466
            -0.000033665664    -0.000031194616    0.031185407090    0.030103908039    -0.000032956535    -0.000029866835    0.014176861211    0.034771173431
            0.014210937761    0.032392029103    -0.000032956536    -0.000029866836    0.031907776045    0.028135021948    -0.000029567182    -0.000040083251
            -0.000033256458    -0.000035042447    0.014176863639    0.034771172441    -0.000029567277    -0.000040083233    0.031074058636    0.029987071572
0.125     0.037962420594    0.031359297420    -0.000040373972    -0.000036016668    0.020733142869    0.037632749368    -0.000039400902    -0.000040656376
            -0.000040373970    -0.000036016667    0.037127881192    0.034185626424    -0.000038047208    -0.000034241342    0.020883652552    0.040740565904
            0.020733142869    0.037632749368    -0.000038047208    -0.000034241342    0.037786540653    0.031519076216    -0.000037440338    -0.000046825025
            -0.000039400903    -0.000040656377    0.020883654685    0.040740564810    -0.000037440338    -0.000046825025    0.036909346369    0.034098026590
0.150     0.043905168482    0.033221179363    -0.000047686912    -0.000039682404    0.027816505283    0.041368423803    -0.000046297577    -0.000045635885
            -0.000047686910    -0.000039682402    0.043225496424    0.036912281968    -0.000043736162    -0.000038212538    0.028264177241    0.045261174393
            0.027816505283    0.041368423803    -0.000043736162    -0.000038212538    0.043718813282    0.033458377882    -0.000046124386    -0.000052304907
            -0.000046297584    -0.000045635875    0.028264169332    0.045261175795    -0.000046124386    -0.000052304907    0.042904951363    0.036899981586
0.175     0.049535131585    0.033735723816    -0.000055413381    -0.000042168644    0.035084960334    0.043574314251    -0.000053939439    -0.000049844033
            -0.000055413421    -0.000042168629    0.049167962754    0.038384118632    -0.000050062347    -0.000041630827    0.035971779950    0.048294288409
            0.035084960334    0.043574314251    -0.000050062299    -0.000041630847    0.049356056614    0.034063179771    -0.000055420700    -0.000056508955
            -0.000053939438    -0.000049844032    0.035971781636    0.048294287153    -0.000055420700    -0.000056508955    0.048767166546    0.038488005348
0.200     0.054524260718    0.033099859954    -0.000063337038    -0.000043607418    0.042177622158    0.044322184206    -0.000062169641    -0.000053261100
            -0.000063337034    -0.000043607416    0.054673976794    0.038771009845    -0.000056900740    -0.000044456978    0.043674506531    0.049888219155
            0.042177622158    0.044322184206    -0.000056900740    -0.000044456978    0.054375266744    0.033525457134    -0.000065114658    -0.000059546799
            -0.000062169639    -0.000053261098    0.043674497801    0.049888221481    -0.000065114752    -0.000059546759    0.054225551217    0.039023687931
0.225     0.058613699294    0.031578349701    -0.000071356785    -0.000044083185    0.048770694037    0.043765067961    -0.000070970757    -0.000055853834
            -0.000071356783    -0.000044083184    0.059522604958    0.038295214967    -0.000064261777    -0.000046642114    0.051071656390    0.050163370325
            0.048770694037    0.043765067961    -0.000064261777    -0.000046642114    0.058521186609    0.032102884459    -0.000075108397    -0.000061504566
            -0.000070970758    -0.000055853835    0.051071657265    0.050163369434    -0.000075108397    -0.000061504565    0.059068744437    0.038718109645
0.250     0.061622451561    0.029503949943    -0.000079405179    -0.000043743665    0.054596287092    0.042131395224    -0.000080263447    -0.000057653452
            -0.000079405176    -0.000043743663    0.063562970556    0.037234921512    -0.000072077724    -0.000048204187    0.057912717675    0.049307759865
            0.054596287092    0.042131395224    -0.000072077723    -0.000048204187    0.061613819787    0.030120919148    -0.000085340035    -0.000062511287
            -0.000080263445    -0.000057653451    0.057912719396    0.049307757844    -0.000085340035    -0.000062511287    0.063150930758    0.037837496923
0.275     0.063468952854    0.027237759585    -0.000087485889    -0.000042665296    0.059456002800    0.039702322212    -0.000090073739    -0.000058633959
            -0.000087485889    -0.000042665296    0.066728802354    0.035886406287    -0.000080388704    -0.000049104396    0.064006859503    0.047555300516
            0.059456002800    0.039702322212    -0.000080388670    -0.000049104414    0.063570796730    0.027932710738    -0.000095825630    -0.000062633802
            -0.000090073786    -0.000058633922    0.064006861136    0.047555299996    -0.000095825630    -0.000062633802    0.066408294030    0.036664353524
0.300     0.064172137300    0.025158325144    -0.000095637432    -0.000040933048    0.063234048882    0.036799552355    -0.000100401462    -0.000058795638
            -0.000095637416    -0.000040933061    0.069039770954    0.034556055486    -0.000089196374    -0.000049336504    0.069236127293    0.045175814781
            0.063234048882    0.036799552355    -0.000089196374    -0.000049336504    0.064407870077    0.025908988779    -0.000106615047    -0.000061929386
            -0.000100401462    -0.000058795638    0.069236128082    0.045175813573    -0.000106615058    -0.000061929367    0.068859008382    0.035491448676
0.325     0.063853635223    0.023621369102    -0.000103925463    -0.000038548457    0.065900762683    0.033758201216    -0.000111300620    -0.000058055058
            -0.000103925537    -0.000038548402    0.070598838960    0.033524365339    -0.000098561372    -0.000048811504    0.073555337850    0.042449899035
            0.065900762683    0.033758201216    -0.000098561372    -0.000048811504    0.064241361214    0.024398761087    -0.000117786822    -0.000060369693
            -0.000111300705    -0.000058055003    0.073555339457    0.042449898251    -0.000117786861    -0.000060369661    0.070601262347    0.034586316854
0.350     0.062730911014    0.022947388487    -0.000112430341    -0.000035491137    0.067519815931    0.030912065878    -0.000122805882    -0.000056328169
            -0.000112430414    -0.000035491074    0.071587117109    0.033037938236    -0.000108516629    -0.000047445977    0.077000357127    0.039657289950
            0.067519815931    0.030912065878    -0.000108516646    -0.000047445962    0.063281534978    0.023717104116    -0.000129431361    -0.000057891590
            -0.000122805958    -0.000056328100    0.077000358708    0.039657289064    -0.000129431361    -0.000057891590    0.071807827559    0.034184024448
0.375     0.061104955553    0.023386965285    -0.000121216477    -0.000031658063    0.068239840438    0.028563183618    -0.000134947687    -0.000053436816
            -0.000121216507    -0.000031658026    0.072247772364    0.033278909951    -0.000119097157    -0.000045065051    0.079676331423    0.037049237617
            0.068239840438    0.028563183618    -0.000119097157    -0.000045065051    0.061820489401    0.024110866476    -0.000141615433    -0.000054339577
            -0.000134947687    -0.000053436816    0.079676333883    0.037049237070    -0.000141615433    -0.000054339577    0.072710822785    0.034457543676
0.400     0.059344580876    0.025109787688    -0.000130329332    -0.000026914384    0.068292494127    0.026967502458    -0.000147719305    -0.000049192252
            -0.000130329404    -0.000026914328    0.072874455774    0.034360577084    -0.000130297544    -0.000041488378    0.081758710311    0.034838919238
            0.068292494127    0.026967502458    -0.000130297484    -0.000041488434    0.060217262543    0.025748779726    -0.000154376349    -0.000049515461
            -0.000147719305    -0.000049192252    0.081758712759    0.034838918595    -0.000154376349    -0.000049515461    0.073590488096    0.035513867546
0.425     0.057861699916    0.028178972528    -0.000139755953    -0.000021058762    0.067972884098    0.026305924248    -0.000161052829    -0.000043326409
            -0.000139755976    -0.000021058741    0.073786272524    0.036305963557    -0.000142057319    -0.000036458105    0.083471826727    0.033175678615
            0.067972884098    0.026305924248    -0.000142057319    -0.000036458105    0.058873575635    0.028695498292    -0.000167676486    -0.000043147690
            -0.000161052829    -0.000043326409    0.083471828235    0.033175677528    -0.000167676557    -0.000043147615    0.074751061680    0.037373425192
0.450     0.057088253448    0.032547735495    -0.000149427986    -0.000013872958    0.067625289438    0.026675194660    -0.000174812116    -0.000035572917
            -0.000149427976    -0.000013872957    0.075310751619    0.039049866856    -0.000154248508    -0.000029721617    0.085080545642    0.032140771241
            0.067625289438    0.026675194660    -0.000154248508    -0.000029721617    0.058211484458    0.032908354477    -0.000181406230    -0.000034945220
            -0.000174812183    -0.000035572836    0.085080547138    0.032140770109    -0.000181406230    -0.000034945220    0.076504410338    0.039972045554
0.475     0.057441984705    0.038047005813    -0.000159179347    -0.000005110733    0.067613279046    0.028067109586    -0.000188752320    -0.000025633608
            -0.000159179347    -0.000005110733    0.077753165711    0.042430155602    -0.000166644683    -0.000020996037    0.086861056141    0.031729737829
            0.067613279536    0.028067108406    -0.000166644683    -0.000020996037    0.058639809356    0.038225501179    -0.000195336104    -0.000024591972
            -0.000188752606    -0.000025633210    0.086861059128    0.031729735483    -0.000195336104    -0.000024591972    0.079140695390    0.043153306995
0.500     0.059298356704    0.044395320086    -0.000168769306    0.000005442844    0.068296420254    0.030371641023    -0.000202542857    -0.000013258106
            -0.000168769315    0.000005442873    0.081377404202    0.046200650346    -0.000178932503    -0.000010045765    0.089086341863    0.031858119174
            0.068296420254    0.030371641023    -0.000178932503    -0.000010045765    0.060527019378    0.044374761604    -0.000209137168    -0.000011807888
            -0.000202542857    -0.000013258106    0.089086341863    0.031858119174    -0.000209137168    -0.000011807888    0.082910270897    0.046679928806
0.525     0.062954810510    0.051204917450    -0.000177842902    0.000017967727    0.069994534303    0.033372348648    -0.000215723983    0.000001758451
            -0.000177842912    0.000017967728    0.086376710743    0.050036977957    -0.000190685581    0.000003323968    0.091993251203    0.032357158005
            0.069994534303    0.033372348648    -0.000190685581    0.000003323968    0.064166599052    0.050979843052    -0.000222349548    0.000003631989
            -0.000215723983    0.000001758451    0.091993254219    0.032357155457    -0.000222349791    0.000003632420    0.087995269790    0.050240672260
0.550     0.068608122339    0.058009192935    -0.000185986628    0.000032551656    0.072964829371    0.036766381910    -0.000227772174    0.000019508022
            -0.000185986628    0.000032551656    0.092859667194    0.053561820439    -0.000201409066    0.000019197274    0.095770011986    0.032992089150
            0.072964829371    0.036766381910    -0.000201409066    0.000019197274    0.069753815456    0.057586343705    -0.000234430946    0.000021842752
            -0.000227772174    0.000019508022    0.095770023168    0.032992087392    -0.000234430946    0.000021842752    0.094496833978    0.053473440558
0.575     0.076326770915    0.064286695923    -0.000192705931    0.000049176688    0.077370819438    0.040177724961    -0.000238074538    0.000039955953
            -0.000192705931    0.000049176688    0.100828920247    0.056364178579    -0.000210531078    0.000037539398    0.100527286831    0.033472286015
            0.077370817849    0.040177725851    -0.000210531078    0.000037539398    0.077359350811    0.063685865627    -0.000244752359    0.000042798488
            -0.000238074538    0.000039955953    0.100527298656    0.033472282156    -0.000244752359    0.000042798488    0.102414568099    0.055984954087
0.600     0.086045329726    0.069500995767    -0.000197508789    0.000067684346    0.083273066461    0.043193386044    -0.000246024078    0.000062904496
            -0.000197508789    0.000067684346    0.110182814872    0.058032251155    -0.000217485153    0.000058161357    0.106296972674    0.033480366464
            0.083273066461    0.043193386044    -0.000217485153    0.000058161357    0.086923315226    0.068753592710    -0.000252681196    0.000066306169
            -0.000246024078    0.000062904496    0.106296985718    0.033480358337    -0.000252681196    0.000066306169    0.111647857510    0.057381177911
0.625     0.097555795638    0.073135018051    -0.000199903725    0.000087771242    0.090612128073    0.045386775602    -0.000251017076    0.000087985107
            -0.000199903883    0.000087771728    0.120706911272    0.058179901199    -0.000221708262    0.000080712737    0.113013679336    0.032690098487
            0.090612128073    0.045386775602    -0.000221708266    0.000080712695    0.098246663729    0.072282817876    -0.000257591097    0.000091993099
            -0.000251017066    0.000087985104    0.113013680477    0.032690094542    -0.000257591415    0.000091994024    0.121988881477    0.057292693787
0.650     0.110525810926    0.074731145168    -0.000199493003    0.000109003328    0.099221629732    0.046358629456    -0.000252560886    0.000114675676
            -0.000199492997    0.000109003234    0.132095415961    0.056476239071    -0.000222745617    0.000104698345    0.120531147209    0.030798223818
            0.099221629732    0.046358629456    -0.000222745608    0.000104698341    0.111007684945    0.073823513507    -0.000258964270    0.000119322461
            -0.000252560857    0.000114675716    0.120531150434    0.030798211196    -0.000258964261    0.000119322456    0.133141833761    0.055404025442
0.675     0.124509175835    0.073920508641    -0.000195965896    0.000130824293    0.108828438477    0.045758655589    -0.000250262034    0.000142311188
            -0.000195965896    0.000130824293    0.143956181261    0.052669043047    -0.000220239333    0.000129490495    0.128616085699    0.027541854324
            0.108828430856    0.045758647914    -0.000220239333    0.000129490495    0.124773836432    0.073011837857    -0.000256395282    0.000147607692
            -0.000250262034    0.000142311188    0.128616086661    0.027541849834    -0.000256395283    0.000147607752    0.144728641214    0.051474865020
0.700     0.138984286586    0.070449539679    -0.000189181370    0.000152612183    0.119084793606    0.043316178662    -0.000243927092    0.000170149821
            -0.000189181370    0.000152612183    0.155846503023    0.046601761495    -0.000214018690    0.000154389277    0.136980001126    0.022721722238
            0.119084793606    0.043316178662    -0.000214018690    0.000154389277    0.139036343143    0.069594997301    -0.000249676662    0.000176076937
            -0.000243927092    0.000170149821    0.136980001166    0.022721721999    -0.000249676662    0.000176076937    0.156322952109    0.045356988158
0.725     0.153376653670    0.064193480197    -0.000179137809    0.000173703167    0.129579895649    0.038850183189    -0.000233519524    0.000197395544
            -0.000179137816    0.000173703174    0.167287020391    0.038226017657    -0.000204065905    0.000178645944    0.145279407611    0.016211074932
            0.129579895649    0.038850183189    -0.000204065905    0.000178645944    0.153235252199    0.063445770038    -0.000238773709    0.000203907221
            -0.000233519505    0.000197395598    0.145279408036    0.016211071129    -0.000238773709    0.000203907221    0.167463901372    0.037004829699
0.750     0.167102810160    0.055160615994    -0.000166015344    0.000193468620    0.139878747482    0.032281979438    -0.000219218491    0.000223286554
            -0.000166015344    0.000193468620    0.177801578594    0.027599670631    -0.000190566465    0.000201549389    0.153156884672    0.007966410899
            0.139878747482    0.032281979438    -0.000190566465    0.000201549389    0.166799265027    0.054567378717    -0.000223873297    0.000230303376
            -0.000219218491    0.000223286554    0.153156884644    0.007966411434    -0.000223873297    0.000230303376    0.177693127500    0.026476261370
0.775     0.179593362810    0.043489321967    -0.000150122132    0.000211324288    0.149535673650    0.023630658512    -0.000201352867    0.000247109668
            -0.000150122106    0.000211324331    0.186930674479    0.014887358657    -0.000173848506    0.000222434627    0.160239954751    -0.001975366024
            0.149535673650    0.023630658512    -0.000173848538    0.000222434589    0.179169966490    0.043089566992    -0.000205321725    0.000254525079
            -0.000201352880    0.000247109684    0.160239954659    -0.001975373491    -0.000205321731    0.000254525087    0.186569106488    0.013930420944
