# GHz S RI R 45
0.000     0.015139361000    0.000000000000    0.000014025942    0.000000000000    0.000236994040    0.000000000000    0.000023165780    0.000000000000
            0.000014025838    0.000000000000    0.014092065000    0.000000000000    0.000042612714    0.000000000000    0.000245412310    0.000000000000
            0.000236969730    0.000000000000    0.000042612530    0.000000000000    0.015055318000    0.000000000000    0.000022094805    0.000000000000
            0.000023165498    0.000000000000    0.000245414530    0.000000000000    0.000022094822    0.000000000000    0.013919773000    0.000000000000
0.025     0.019180751143    0.011783895990    -0.000046607660    -0.000021360560    0.001533873322    0.010971320364    -0.000029456263    -0.000017932730
            -0.000046607760    -0.000021360557    0.017331928040    0.010504705175    -0.000043018817    -0.000033616441    0.001297725538    0.009799647717
            0.001533725435    0.010971156259    -0.000043018994    -0.000033616422    0.019079904685    0.011725574474    -0.000021718976    -0.000009140635
            -0.000029456533    -0.000017932711    0.001297605116    0.009799482193    -0.000021718962    -0.000009140634    0.017347366478    0.010587972199
0.050     0.024112815021    0.020030130351    -0.000058506407    0.000021629211    0.005242728734    0.021204219188    -0.000039086241    0.000020064312
            -0.000058506504    0.000021629224    0.021161241496    0.018111645083    -0.000061112725    0.000023350626    0.004102622892    0.019052864071
            0.005242733475    0.021204209775    -0.000061112910    0.000023350648    0.023966829795    0.019923570174    -0.000026142725    0.000029034580
            -0.000039086523    0.000020064345    0.004102654095    0.019052852237    -0.000026142713    0.000029034577    0.021211009208    0.018082276721
0.075     0.030132495030    0.026738214162    -0.000043842629    0.000051564254    0.010986148409    0.030121512240    -0.000025919804    0.000046464691
            -0.000043842722    0.000051564272    0.025769761213    0.024704018493    -0.000043539561    0.000062906812    0.008478612025    0.027472569082
            0.010986128638    0.030121515193    -0.000043539744    0.000062906842    0.029915329604    0.026610440426    -0.000010204041    0.000055640435
            -0.000025920034    0.000046464723    0.008478619032    0.027472567966    -0.000010204031    0.000055640433    0.025756028414    0.024606345524
0.100     0.037102322251    0.031611391739    -0.000020355669    0.000069374203    0.018303847776    0.037298681836    -0.000004835294    0.000062234348
            -0.000020355766    0.000069374221    0.031185407090    0.030103908039    -0.000013943859    0.000086742653    0.014176861211    0.034771173431
            0.018303822559    0.037298686413    -0.000013944040    0.000086742693    0.036801888627    0.031495623199    0.000013625162    0.000071470098
            -0.000004835574    0.000062234404    0.014176863639    0.034771172441    0.000013625185    0.000071470094    0.031074058636    0.029987071572
0.125     0.044507917540    0.034508817416    0.000005722538    0.000076469177    0.026644335851    0.042463720426    0.000018506189    0.000068556438
            0.000005722447    0.000076469198    0.037127881192    0.034185626424    0.000019209469    0.000096802079    0.020883652552    0.040740565904
            0.026644308092    0.042463727219    0.000019209286    0.000096802129    0.044123070024    0.034440825918    0.000039690251    0.000077418290
            0.000018505935    0.000068556501    0.020883654685    0.040740564810    0.000039690260    0.000077418285    0.036909346369    0.034098026590
0.150     0.051713013009    0.035371156502    0.000031201495    0.000074539911    0.035430417393    0.045509579557    0.000041431541    0.000066887965
            0.000031201403    0.000074539934    0.043225496424    0.036912281968    0.000051983128    0.000095281718    0.028264177241    0.045261174393
            0.035430389804    0.045509588363    0.000051982951    0.000095281769    0.051261582277    0.035386161380    0.000065269017    0.000074823175
            0.000041431271    0.000066888046    0.028264169332    0.045261175795    0.000065269030    0.000074823172    0.042904951363    0.036899981586
0.175     0.058181083364    0.034452339543    0.000053594330    0.000065405116    0.044087482255    0.046486056582    0.000061668627    0.000058807027
            0.000053594232    0.000065405147    0.049167962754    0.038384118632    0.000081085776    0.000084458816    0.035971779950    0.048294288409
            0.044087463768    0.046486063089    0.000081085607    0.000084458882    0.057690721643    0.034578649338    0.000087911860    0.000065273613
            0.000061668407    0.000058807103    0.035971781636    0.048294287153    0.000087911874    0.000065273611    0.048767166546    0.038488005348
0.200     0.063451908836    0.032124028243    0.000071685910    0.000050899972    0.052092238551    0.045595488686    0.000078190653    0.000045921910
            0.000071685810    0.000050900010    0.054673976794    0.038771009845    0.000105004496    0.000066624479    0.043674506531    0.049888219155
            0.052092211262    0.045595500126    0.000105004332    0.000066624552    0.062959460405    0.032380363321    0.000106515734    0.000050477128
            0.000078190485    0.000045921980    0.043674497801    0.049888221481    0.000106515747    0.000050477124    0.054225551217    0.039023687931
0.225     0.067191399499    0.028857749111    0.000084678301    0.000032909204    0.059003030310    0.043167266147    0.000090229587    0.000029877045
            0.000084678203    0.000032909248    0.059522604958    0.038295214967    0.000122608529    0.000044128990    0.051071656390    0.050163370325
            0.059003003943    0.043167278476    0.000122608363    0.000044129068    0.066740098081    0.029249876968    0.000120202956    0.000032180503
            0.000090229334    0.000029877165    0.051071657265    0.050163369434    0.000120202968    0.000032180498    0.059068744437    0.038718109645
0.250     0.069213667986    0.025209784122    0.000092505115    0.000012947694    0.064493525629    0.039635950047    0.000097756575    0.000012014609
            0.000092505022    0.000012947742    0.063562970556    0.037234921512    0.000133808318    0.000018884414    0.057912717675    0.049307759865
            0.064493499706    0.039635963580    0.000133808339    0.000018884409    0.068848617046    0.025728955744    0.000128955392    0.000011848699
            0.000097756325    0.000012014743    0.057912719396    0.049307757844    0.000128955403    0.000011848693    0.063150930758    0.037837496923
0.275     0.069500642069    0.021761527100    0.000095302144    -0.000007561601    0.068369429371    0.035503262653    0.000100836511    -0.000006410924
            0.000095302092    -0.000007561575    0.066728802354    0.035886406287    0.000138671074    -0.000007305207    0.064006859503    0.047555300516
            0.068369412441    0.035503273557    0.000138670667    -0.000007304944    0.069264761892    0.022384662595    0.000132802292    -0.000009154159
            0.000100836269    -0.000006410778    0.064006861136    0.047555299996    0.000132802302    -0.000009154163    0.066408294030    0.036664353524
0.300     0.068204709572    0.019089844466    0.000093512398    -0.000027629946    0.070588442271    0.031307890404    0.000099894053    -0.000024521633
            0.000093512310    -0.000027629888    0.069039770954    0.034556055486    0.000137763263    -0.000033176720    0.069236127293    0.045175814781
            0.070588442271    0.031307890404    0.000137763273    -0.000033176724    0.068133928161    0.019779449484    0.000132230622    -0.000029864631
            0.000099893814    -0.000024521472    0.069236128082    0.045175813573    0.000132230641    -0.000029864638    0.068859008382    0.035491448676
0.325     0.065641544708    0.017708304135    0.000087645106    -0.000046347045    0.071260118787    0.027579548603    0.000095337814    -0.000041505518
            0.000087645101    -0.000046347043    0.070598838960    0.033524365339    0.000131656438    -0.000057554663    0.073555337850    0.042449899035
            0.071260079136    0.027579579018    0.000131656456    -0.000057554671    0.065760631910    0.018415287218    0.000127657779    -0.000049385169
            0.000095337039    -0.000041504943    0.073555339457    0.042449898251    0.000127657787    -0.000049385175    0.070601262347    0.034586316854
0.350     0.062275193304    0.018036376404    0.000078278514    -0.000063142777    0.070650766173    0.024804626271    0.000087715803    -0.000056864460
            0.000078278506    -0.000063142772    0.071587117109    0.033037938236    0.000121104304    -0.000079711857    0.077000357127    0.039657289950
            0.070650767116    0.024804626602    0.000121104321    -0.000079711868    0.062594154530    0.018702951900    0.000119711638    -0.000067176947
            0.000087715810    -0.000056864467    0.077000358708    0.039657289064    0.000119711654    -0.000067176959    0.071807827559    0.034184024448
0.375     0.058687284042    0.020348385326    0.000066024953    -0.000077484540    0.069161686741    0.023375328984    0.000077538583    -0.000070120822
            0.000066024946    -0.000077484533    0.072247772364    0.033278909951    0.000106830893    -0.000098951774    0.079676331423    0.037049237617
            0.069161687689    0.023375329304    0.000106830553    -0.000098951449    0.059198646678    0.020913022952    0.000108931649    -0.000082707417
            0.000077538239    -0.000070120487    0.079676333883    0.037049237070    0.000108931657    -0.000082707423    0.072710822785    0.034457543676
0.400     0.055542845077    0.024750654283    0.000051468774    -0.000089069392    0.067311887616    0.023558714647    0.000065355700    -0.000081027958
            0.000051468772    -0.000089069393    0.072874455774    0.034360577084    0.000089597210    -0.000114903653    0.081758710311    0.034838919238
            0.067311889504    0.023558715308    0.000089597228    -0.000114903664    0.056220345734    0.025152619860    0.000095941734    -0.000095725532
            0.000065355023    -0.000081027283    0.081758712759    0.034838918595    0.000095941750    -0.000095725545    0.073590488096    0.035513867546
0.425     0.053536025008    0.031146855798    0.000035236367    -0.000097625805    0.065691042048    0.025452718604    0.000051691645    -0.000089343978
            0.000035236297    -0.000097625724    0.073786272524    0.036305963557    0.000070151587    -0.000127210192    0.083471826727    0.033175678615
            0.065691010692    0.025452755245    0.000070151601    -0.000127210207    0.054334687228    0.031332696337    0.000081299696    -0.000105961400
            0.000051691326    -0.000089343643    0.083471828235    0.033175677528    0.000081299712    -0.000105961413    0.074751061680    0.037373425192
0.450     0.053338279871    0.039236465325    0.000017898180    -0.000103040410    0.064917405980    0.028973712035    0.000037069911    -0.000095001469
            0.000017898121    -0.000103040328    0.075310751619    0.039049866856    0.000049220653    -0.000135751897    0.085080545642    0.032140771241
            0.064917406893    0.028973712442    0.000049220665    -0.000135751925    0.054196382109    0.039165299786    0.000065586484    -0.000113366890
            0.000037069302    -0.000095000730    0.085080547138    0.032140770109    0.000065586496    -0.000113366906    0.076504410338    0.039972045554
0.475     0.055528800945    0.048514214483    0.000000064085    -0.000105254800    0.065570373469    0.033840078931    0.000021992984    -0.000097949033
            0.000000064025    -0.000105254711    0.077753165711    0.042430155602    0.000027522201    -0.000140437673    0.086861056141    0.031729737829
            0.065570373469    0.033840078931    0.000027521917    -0.000140437311    0.056371932626    0.048163127288    0.000049333273    -0.000117882005
            0.000021992849    -0.000097948848    0.086861059128    0.031729735483    0.000049333281    -0.000117882013    0.079140695390    0.043153306995
0.500     0.060539724406    0.058304597878    -0.000017724173    -0.000104330302    0.068137758849    0.039595369976    0.000006939686    -0.000098273817
            -0.000017724224    -0.000104330212    0.081377404202    0.046200650346    0.000005726340    -0.000141361855    0.089086341863    0.031858119174
            0.068137765072    0.039595367229    0.000005726346    -0.000141361875    0.061286082299    0.057672149043    0.000033055834    -0.000119627362
            0.000006939533    -0.000098273589    0.089086341863    0.031858119174    0.000033055841    -0.000119627370    0.082910270897    0.046679928806
0.525     0.068597286653    0.067804115363    -0.000034915668    -0.000100408400    0.072951771692    0.045635022572    -0.000007650655    -0.000096093788
            -0.000034915715    -0.000100408310    0.086376710743    0.050036977957    -0.000015529503    -0.000138669430    0.091993251203    0.032357158005
            0.072951750341    0.045635062361    -0.000015529735    -0.000138669032    0.069164513313    0.066913238027    0.000017210794    -0.000118720248
            -0.000007650755    -0.000096093530    0.091993254219    0.032357155457    0.000017210799    -0.000118720267    0.087995269790    0.050240672260
0.550     0.079693950355    0.076153092455    -0.000051050986    -0.000093717673    0.080156931064    0.051267609455    -0.000021387025    -0.000091631160
            -0.000051051039    -0.000093717576    0.092859667194    0.053561820439    -0.000035686507    -0.000132645404    0.095770011986    0.032992089150
            0.080156931064    0.051267609455    -0.000035686955    -0.000132644579    0.080006721515    0.075049727719    0.000002206968    -0.000115420432
            -0.000021387154    -0.000091630918    0.095770023168    0.032992087392    0.000002206972    -0.000115420442    0.094496833978    0.053473440558
0.575     0.093570233970    0.082504978759    -0.000065705866    -0.000084567149    0.089679589587    0.055772542708    -0.000033947333    -0.000085134213
            -0.000065705877    -0.000084567103    0.100828920247    0.056364178579    -0.000054259286    -0.000123620994    0.100527286831    0.033472286015
            0.089679566225    0.055772580273    -0.000054259372    -0.000123620837    0.093566456718    0.081256566623    -0.000011627035    -0.000109977059
            -0.000033947426    -0.000085134015    0.100527298656    0.033472282156    -0.000011627029    -0.000109977080    0.102414568099    0.055984954087
0.600     0.109738253509    0.086106625219    -0.000078566139    -0.000073304574    0.101243229803    0.058475918632    -0.000045071271    -0.000076912394
            -0.000078566173    -0.000073304479    0.110182814872    0.058032251155    -0.000070860495    -0.000112012465    0.106296972674    0.033480366464
            0.101243234906    0.058475909796    -0.000070860564    -0.000112012315    0.109375220539    0.084797045109    -0.000024028295    -0.000102731507
            -0.000045071366    -0.000076912156    0.106296985718    0.033480358337    -0.000024028282    -0.000102731530    0.111647857510    0.057381177911
0.625     0.127510913267    0.086359491941    -0.000089385479    -0.000060329226    0.114381946518    0.058803685634    -0.000054588624    -0.000067272414
            -0.000089385515    -0.000060329137    0.120706911272    0.058179901199    -0.000085204613    -0.000098249362    0.113013679336    0.032690098487
            0.114381946518    0.058803685634    -0.000085204687    -0.000098249205    0.126769957698    0.085082671160    -0.000034827545    -0.000093988418
            -0.000054588716    -0.000067272167    0.113013680477    0.032690094542    -0.000034827532    -0.000093988433    0.121988881477    0.057292693787
0.650     0.146071944223    0.082868531195    -0.000098021147    -0.000046021293    0.128499852403    0.056334746474    -0.000062379243    -0.000056537845
            -0.000098021169    -0.000046021199    0.132095415961    0.056476239071    -0.000097098227    -0.000082783929    0.120531147209    0.030798223818
            0.128499852403    0.056334746474    -0.000097098282    -0.000082783771    0.144959062866    0.081721718695    -0.000043910089    -0.000084093249
            -0.000062379332    -0.000056537589    0.120531150434    0.030798211196    -0.000043910082    -0.000084093272    0.133141833761    0.055404025442
0.675     0.164527670994    0.075464752696    -0.000104401959    -0.000030773386    0.142907635637    0.050821626060    -0.000068411058    -0.000044994125
            -0.000104401981    -0.000030773313    0.143956181261    0.052669043047    -0.000106447713    -0.000066039300    0.128616085699    0.027541854324
            0.142907635637    0.050821626060    -0.000106447771    -0.000066039131    0.163075016400    0.074541857668    -0.000051248389    -0.000073322360
            -0.000068411128    -0.000044993880    0.128616086661    0.027541849834    -0.000051248386    -0.000073322383    0.144728641214    0.051474865020
0.700     0.181988401456    0.064206741377    -0.000108520652    -0.000014916830    0.156896591409    0.042201976509    -0.000072666789    -0.000032917297
            -0.000108520673    -0.000014916755    0.155846503023    0.046601761495    -0.000113211755    -0.000048418784    0.136980001126    0.022721722238
            0.156896586172    0.042201957482    -0.000113211795    -0.000048418615    0.180250074984    0.063591017735    -0.000056829291    -0.000061965224
            -0.000072666831    -0.000032917148    0.136980001166    0.022721721999    -0.000056829298    -0.000061965253    0.156322952109    0.045356988158
0.725     0.197611904342    0.049363838912    -0.000110424460    0.000001230844    0.169766557686    0.030584540077    -0.000075198229    -0.000020521809
            -0.000110424469    0.000001230941    0.167287020391    0.038226017657    -0.000117429158    -0.000030267786    0.145279407611    0.016211074932
            0.169766549679    0.030584584522    -0.000117429190    -0.000030267620    0.195662508375    0.049122618552    -0.000060710726    -0.000050218159
            -0.000075198282    -0.000020521555    0.145279408036    0.016211071129    -0.000060710724    -0.000050218193    0.167463901372    0.037004829699
0.750     0.210663528361    0.031381116645    -0.000110171897    0.000017423004    0.180886732820    0.016231019916    -0.000076030152    -0.000008014637
            -0.000110171905    0.000017423084    0.177801578594    0.027599670631    -0.000119134467    -0.000011902814    0.153156884672    0.007966410899
            0.180886715268    0.016231103632    -0.000119134496    -0.000011902628    0.208591281736    0.031562695707    -0.000062911646    -0.000038300527
            -0.000076030190    -0.000008014400    0.153156884644    0.007966411434    -0.000062911653    -0.000038300546    0.177693127500    0.026476261370
0.775     0.220534885312    0.010846006193    -0.000107853755    0.000033432175    0.189701136959    -0.000474343362    -0.000075234050    0.000004463823
            -0.000107853764    0.000033432281    0.186930674479    0.014887358657    -0.000118420426    0.000006423247    0.160239954751    -0.001975366024
            0.189701126937    -0.000474352144    -0.000118420446    0.000006423434    0.218438021902    0.011476201562    -0.000063510176    -0.000026323725
            -0.000075234079    0.000004464035    0.160239954659    -0.001975373491    -0.000063510183    -0.000026323754    0.186569106488    0.013930420944
0.800     0.226772557095    -0.011556497508    -0.000103530865    0.000049078428    0.195764513363    -0.019050467375    -0.000072825236    0.000016753987
