# GHz S RI R 45
0.000     0.013666243000    0.000000000000    -0.000005499430    0.000000000000    0.000488592570    -0.000000000000    -0.000002453518    0.000000000000
            -0.000005499408    0.000000000000    0.014092065000    0.000000000000    -0.000006367759    0.000000000000    0.000245412310    0.000000000000
            0.000488594630    -0.000000000000    -0.000006367737    0.000000000000    0.013588034000    0.000000000000    -0.000013111735    0.000000000000
            -0.000002453570    0.000000000000    0.000245414530    0.000000000000    -0.000013111743    0.000000000000    0.013919773000    0.000000000000
0.025     0.017360986729    0.009304858805    0.000001866227    -0.000005363999    0.001764328932    0.008199608365    0.000007540042    -0.000002558838
            0.000001866250    -0.000005363999    0.017331928040    0.010504705175    -0.000006160697    -0.000010763141    0.001297725538    0.009799647717
            0.001764304548    0.008199653709    -0.000006160664    -0.000010763145    0.017290814516    0.009236651560    -0.000002522501    -0.000002457261
            0.000007540071    -0.000002558841    0.001297605116    0.009799482193    -0.000002522508    -0.000002457264    0.017347366478    0.010587972199
0.050     0.022438071171    0.015534794557    -0.000000767412    -0.000018938837    0.005332965143    0.015708833276    0.000006479362    -0.000016179463
            -0.000000767402    -0.000018938840    0.021161241496    0.018111645083    -0.000011028110    -0.000023002561    0.004102622892    0.019052864071
            0.005332954044    0.015708840212    -0.000011028092    -0.000023002566    0.022355871327    0.015407836632    0.000000330135    -0.000017912106
            0.000006479392    -0.000016179469    0.004102654095    0.019052852237    0.000000330113    -0.000017912101    0.021211009208    0.018082276721
0.075     0.029118571047    0.020179183075    -0.000009641044    -0.000028888606    0.010950177601    0.021953968065    -0.000000574484    -0.000026358194
            -0.000009641029    -0.000028888611    0.025769761213    0.024704018493    -0.000020261557    -0.000032580634    0.008478612025    0.027472569082
            0.010950171154    0.021953965693    -0.000020261538    -0.000032580642    0.029016405072    0.019998412329    -0.000007535857    -0.000030420543
            -0.000000574455    -0.000026358203    0.008478619032    0.027472567966    -0.000007535878    -0.000030420536    0.025756028414    0.024606345524
0.100     0.037248337955    0.022768693818    -0.000021417269    -0.000034706596    0.018216332042    0.026469075733    -0.000010522702    -0.000033069341
            -0.000021417254    -0.000034706600    0.031185407090    0.030103908039    -0.000032089450    -0.000038987373    0.014176861211    0.034771173431
            0.018216332966    0.026469075098    -0.000032089358    -0.000038987414    0.037122535517    0.022546105262    -0.000018991417    -0.000038990806
            -0.000010522674    -0.000033069352    0.014176863639    0.034771172441    -0.000018991430    -0.000038990799    0.031074058636    0.029987071572
0.125     0.046255068594    0.022931165933    -0.000034298940    -0.000036397698    0.026649814967    0.028891746919    -0.000021758620    -0.000036386883
            -0.000034298932    -0.000036397702    0.037127881192    0.034185626424    -0.000045442023    -0.000041889819    0.020883652552    0.040740565904
            0.026649816480    0.028891745523    -0.000045442024    -0.000041889820    0.046107004794    0.022680645389    -0.000032287925    -0.000043697104
            -0.000021758588    -0.000036386901    0.020883654685    0.040740564810    -0.000032287942    -0.000043697095    0.036909346369    0.034098026590
0.150     0.055610249629    0.020434872915    -0.000047139320    -0.000034275955    0.035709870538    0.028983276232    -0.000033419187    -0.000036509528
            -0.000047139315    -0.000034275952    0.043225496424    0.036912281968    -0.000059373468    -0.000041327138    0.028264177241    0.045261174393
            0.035709870773    0.028983274355    -0.000059373382    -0.000041327201    0.055448982125    0.020169377890    -0.000046424028    -0.000044721791
            -0.000033419160    -0.000036509549    0.028264169332    0.045261175795    -0.000046424028    -0.000044721791    0.042904951363    0.036899981586
0.175     0.064583171027    0.015212167375    -0.000058918870    -0.000028857044    0.044814755792    0.026632502489    -0.000044675077    -0.000033778291
            -0.000058918830    -0.000028857075    0.049167962754    0.038384118632    -0.000073057853    -0.000037480010    0.035971779950    0.048294288409
            0.044814756257    0.026632501707    -0.000073057853    -0.000037480010    0.064422824855    0.014941917336    -0.000060488668    -0.000042332945
            -0.000044675062    -0.000033778304    0.035971781636    0.048294287153    -0.000060488668    -0.000042332945    0.048767166546    0.038488005348
0.200     0.072493202747    0.007394271248    -0.000069073722    -0.000020766324    0.053378586588    0.021863684942    -0.000055054272    -0.000028571578
            -0.000069073650    -0.000020766394    0.054673976794    0.038771009845    -0.000085907046    -0.000030696382    0.043674506531    0.049888219155
            0.053378586588    0.021863684942    -0.000085906981    -0.000030696443    0.072351905726    0.007125350431    -0.000073898063    -0.000036872192
            -0.000055054201    -0.000028571651    0.043674497801    0.049888221481    -0.000073898066    -0.000036872193    0.054225551217    0.039023687931
0.225     0.078711346013    -0.002750549399    -0.000077167078    -0.000010684742    0.060832830158    0.014828554628    -0.000064148951    -0.000021337141
            -0.000077167077    -0.000010684742    0.059522604958    0.038295214967    -0.000097436647    -0.000021365847    0.051071656390    0.050163370325
            0.060832829445    0.014828553330    -0.000097436587    -0.000021365923    0.078610497349    -0.003017862554    -0.000086136984    -0.000028741549
            -0.000064148919    -0.000021337180    0.051071657265    0.050163369434    -0.000086136985    -0.000028741549    0.059068744437    0.038718109645
0.250     0.082691173578    -0.014815320258    -0.000083086189    0.000000800756    0.066657939143    0.005800076437    -0.000071776564    -0.000012446582
            -0.000083086188    0.000000800756    0.063562970556    0.037234921512    -0.000107365240    -0.000009881505    0.057912717675    0.049307759865
            0.066657938208    0.005800075652    -0.000107365240    -0.000009881505    0.082653703555    -0.015087264073    -0.000096909224    -0.000018305355
            -0.000071776509    -0.000012446663    0.057912719396    0.049307757844    -0.000096909225    -0.000018305355    0.063150930758    0.037837496923
0.275     0.083978774599    -0.028284447272    -0.000086778046    0.000013130685    0.070400245453    -0.004840237025    -0.000077789747    -0.000002278389
            -0.000086778044    0.000013130684    0.066728802354    0.035886406287    -0.000115464795    0.000003382178    0.064006859503    0.047555300516
            0.070400243382    -0.004840237993    -0.000115464795    0.000003382178    0.084027294414    -0.028574338609    -0.000105956488    -0.000005935389
            -0.000077789723    -0.000002278429    0.064006861136    0.047555299996    -0.000105956488    -0.000005935389    0.066408294030    0.036664353524
0.300     0.082246721577    -0.042549243276    -0.000088352662    0.000025912072    0.071698153430    -0.016620225702    -0.000082145398    0.000008899795
            -0.000088352624    0.000025911977    0.069039770954    0.034556055486    -0.000121620973    0.000018114359    0.069236127293    0.045175814781
            0.071698151110    -0.016620235713    -0.000121620973    0.000018114359    0.082401750911    -0.042878038807    -0.000113131082    0.000008079329
            -0.000082145360    0.000008899704    0.069236128082    0.045175813573    -0.000113131082    0.000008079329    0.068859008382    0.035491448676
0.325     0.077297276790    -0.056936546891    -0.000087917566    0.000038785358    0.070293265299    -0.028993675742    -0.000084798061    0.000020821591
            -0.000087917547    0.000038785314    0.070598838960    0.033524365339    -0.000125719541    0.000034030395    0.073555337850    0.042449899035
            0.070293263869    -0.028993676588    -0.000125719511    0.000034030316    0.077575155377    -0.057331839209    -0.000118284557    0.000023450130
            -0.000084798060    0.000020821591    0.073555339457    0.042449898251    -0.000118284557    0.000023450130    0.070601262347    0.034586316854
0.350     0.069086115177    -0.070739151069    -0.000085622452    0.000051539910    0.066048830524    -0.041367188544    -0.000085724701    0.000033307614
            -0.000085622452    0.000051539910    0.071587117109    0.033037938236    -0.000127685394    0.000050906230    0.077000357127    0.039657289950
            0.066048828955    -0.041367189166    -0.000127685394    0.000050906230    0.069497018540    -0.071234716691    -0.000121300648    0.000039956708
            -0.000085724698    0.000033307613    0.077000358708    0.039657289064    -0.000121300648    0.000039956708    0.071807827559    0.034184024448
0.375     0.057716819045    -0.083242124786    -0.000081583957    0.000063970522    0.058953635919    -0.053118132194    -0.000084880568    0.000046160265
            -0.000081583957    0.000063970522    0.072247772364    0.033278909951    -0.000127410234    0.000068518948    0.079676331423    0.037049237617
            0.058953634433    -0.053118130855    -0.000127410226    0.000068518858    0.058263054617    -0.083876681517    -0.000122036376    0.000057357865
            -0.000084880570    0.000046160208    0.079676333883    0.037049237070    -0.000122036383    0.000057357921    0.072710822785    0.034457543676
0.400     0.043449115802    -0.093761254577    -0.000075894684    0.000075962323    0.049131518206    -0.063629957000    -0.000082205829    0.000059219209
            -0.000075894668    0.000075962226    0.072874455774    0.034360577084    -0.000124780801    0.000086666533    0.081758710311    0.034838919238
            0.049131517595    -0.063629956208    -0.000124780805    0.000086666439    0.044123579079    -0.094576135204    -0.000120343209    0.000075434266
            -0.000082205829    0.000059219209    0.081758712759    0.034838918595    -0.000120343196    0.000075434287    0.073590488096    0.035513867546
0.425     0.026686248383    -0.101667114673    -0.000068615736    0.000087370284    0.036836878140    -0.072310133874    -0.000077626278    0.000072278303
            -0.000068615736    0.000087370284    0.073786272524    0.036305963557    -0.000119654932    0.000105106736    0.083471826727    0.033175678615
            0.036836875970    -0.072310132734    -0.000119654932    0.000105106736    0.027471618138    -0.102704513357    -0.000116050513    0.000093910072
            -0.000077626278    0.000072278303    0.083471828235    0.033175677528    -0.000116050513    0.000093910072    0.074751061680    0.037373425192
0.450     0.007964676557    -0.106423600417    -0.000059770135    0.000098074907    0.022450392255    -0.078628041321    -0.000071056410    0.000085119361
            -0.000059770135    0.000098074907    0.075310751619    0.039049866856    -0.000111880602    0.000123569065    0.085080545642    0.032140771241
            0.022450390334    -0.078628039789    -0.000111880602    0.000123569065    0.008832755670    -0.107723707742    -0.000108988978    0.000112479999
            -0.000071056410    0.000085119361    0.085080547138    0.032140770109    -0.000108988978    0.000112479999    0.076504410338    0.039972045554
0.475     -0.012066155068    -0.107608614085    -0.000049378703    0.000107899556    0.006466176685    -0.082132817662    -0.000062429014    0.000097458895
            -0.000049378703    0.000107899556    0.077753165711    0.042430155602    -0.000101310419    0.000141706213    0.086861056141    0.031729737829
            0.006466176606    -0.082132816665    -0.000101310419    0.000141706213    -0.011154113123    -0.109207032303    -0.000099004115    0.000130754103
            -0.000062429020    0.000097458903    0.086861059128    0.031729735483    -0.000099004115    0.000130754103    0.079140695390    0.043153306995
0.500     -0.032670964069    -0.104944448094    -0.000037453820    0.000116647857    -0.010528822192    -0.082487303339    -0.000051703295    0.000108974935
            -0.000037453817    0.000116647847    0.081377404202    0.046200650346    -0.000087835466    0.000159111572    0.089086341863    0.031858119174
            -0.010528822065    -0.082487302347    -0.000087835466    0.000159111572    -0.031763660933    -0.106869478732    -0.000085986350    0.000148284009
            -0.000051703341    0.000108974835    0.089086341863    0.031858119174    -0.000085986350    0.000148284009    0.082910270897    0.046679928806
0.525     -0.053058873582    -0.098310421968    -0.000024052780    0.000124066112    -0.027876351341    -0.079479118653    -0.000038905157    0.000119287830
            -0.000024052778    0.000124066102    0.086376710743    0.050036977957    -0.000071403881    0.000175295818    0.091993251203    0.032357158005
            -0.027876351010    -0.079479117709    -0.000071403881    0.000175295818    -0.052213181119    -0.100580600519    -0.000069904001    0.000164538091
            -0.000038905169    0.000119287795    0.091993254219    0.032357155457    -0.000069904001    0.000164538091    0.087995269790    0.050240672260
0.550     -0.072421547268    -0.087758265021    -0.000009273178    0.000129877822    -0.044881831086    -0.073044555198    -0.000024135628    0.000127993897
            -0.000009273181    0.000129877822    0.092859667194    0.053561820439    -0.000052066619    0.000189722576    0.095770011986    0.032992089150
            -0.044881831086    -0.073044555198    -0.000052066655    0.000189722577    -0.071700613608    -0.090380123352    -0.000050831780    0.000178948136
            -0.000024135682    0.000127993815    0.095770023168    0.032992087392    -0.000050831782    0.000178948146    0.094496833978    0.053473440558
0.575     -0.089968772280    -0.073511131354    0.000006698884    0.000133784942    -0.060841555088    -0.063267298501    -0.000007602143    0.000134676219
            0.000006698884    0.000133784942    0.100828920247    0.056364178579    -0.000029992966    0.000201816944    0.100527286831    0.033472286015
            -0.060841553702    -0.063267297059    -0.000029992970    0.000201816943    -0.089438825840    -0.076477485333    -0.000028976986    0.000190909958
            -0.000007602172    0.000134676188    0.100527298656    0.033472282156    -0.000028976989    0.000190909957    0.102414568099    0.055984954087
0.600     -0.104971407483    -0.055957980986    0.000023605425    0.000135508456    -0.075085216364    -0.050383546163    0.000010384828    0.000138948456
            0.000023605423    0.000135508446    0.110182814872    0.058032251155    -0.000005494005    0.000211018972    0.106296972674    0.033480366464
            -0.075085221836    -0.050383530830    -0.000005494009    0.000211018982    -0.104698809174    -0.059247194950    -0.000004689893    0.000199849859
            0.000010384826    0.000138948456    0.106296985718    0.033480358337    -0.000004689893    0.000199849869    0.111647857510    0.057381177911
0.625     -0.116792684287    -0.035636149229    0.000041091135    0.000134811161    -0.087000306275    -0.034766907924    0.000029407850    0.000140479477
            0.000041091135    0.000134811161    0.120706911272    0.058179901199    0.000020981051    0.000216809488    0.113013679336    0.032690098487
            -0.087000306275    -0.034766907924    0.000020981051    0.000216809488    -0.116840729074    -0.039211629276    0.000021531402    0.000205245056
            0.000029407823    0.000140479483    0.113013680477    0.032690094542    0.000021531380    0.000205245048    0.121988881477    0.057292693787
0.650     -0.124924731443    -0.013205845452    0.000058737736    0.000131531036    -0.096072939659    -0.016912987592    0.000048966182    0.000139035949
            0.000058737740    0.000131531045    0.132095415961    0.056476239071    0.000048852707    0.000218772999    0.120531147209    0.030798223818
            -0.096072939659    -0.016912987592    0.000048852707    0.000218772999    -0.125349776797    -0.017017488268    0.000049065485    0.000206689560
            0.000048966182    0.000139035949    0.120531150434    0.030798211196    0.000049065485    0.000206689560    0.133141833761    0.055404025442
0.675     -0.129006988374    0.010580735862    0.000076072047    0.000125608177    -0.101900100504    0.002586838929    0.000068498743    0.000134497757
            0.000076072047    0.000125608177    0.143956181261    0.052669043047    0.000077442539    0.000216613958    0.128616085699    0.027541854324
            -0.101900090507    0.002586838675    0.000077442539    0.000216613958    -0.129855506114    0.006595806002    0.000077191011    0.000203908490
            0.000068498734    0.000134497739    0.128616086661    0.027541849834    0.000077191018    0.000203908477    0.144728641214    0.051474865020
0.700     -0.128846701449    0.034918797307    0.000092609274    0.000117092218    -0.104219270405    0.023077148031    0.000087424883    0.000126881786
            0.000092609243    0.000117092179    0.155846503023    0.046601761495    0.000106013749    0.000210201216    0.136980001126    0.022721722238
            -0.104219270405    0.023077148031    0.000106013745    0.000210201263    -0.130152529770    0.030833081146    0.000105138286    0.000196802783
            0.000087424883    0.000126881786    0.136980001166    0.022721721999    0.000105138286    0.000196802783    0.156322952109    0.045356988158
0.725     -0.124418860195    0.058985625105    0.000107879774    0.000106152114    -0.102903346110    0.043867141387    0.000105179006    0.000116335456
            0.000107879774    0.000106152114    0.167287020391    0.038226017657    0.000133811963    0.000199560015    0.145279407611    0.016211074932
            -0.102903336911    0.043867137465    0.000133811960    0.000199560017    -0.126201559680    0.054879421441    0.000132126744    0.000185433107
            0.000105179006    0.000116335456    0.145279408036    0.016211071129    0.000132126744    0.000185433107    0.167463901372    0.037004829699
0.750     -0.115866308964    0.081983434787    0.000121467618    0.000093057875    -0.097972905179    0.064268771187    0.000121252263    0.000103130006
            0.000121467623    0.000093057868    0.177801578594    0.027599670631    0.000160116223    0.000184886182    0.153156884672    0.007966410899
            -0.097972905179    0.064268771187    0.000160116230    0.000184886190    -0.118129227827    0.077940130692    0.000157420962    0.000170041020
            0.000121251353    0.000103129779    0.153156884644    0.007966411434    0.000157420973    0.000170041050    0.177693127500    0.026476261370
0.775     -0.103483991746    0.103167751368    0.000133036221    0.000078167154    -0.089577897290    0.083619272760    0.000135213053    0.000087634641
            0.000133035755    0.000078167078    0.186930674479    0.014887358657    0.000184271881    0.000166510536    0.160239954751    -0.001975366024
            -0.089577897290    0.083619272760    0.000184271425    0.000166510445    -0.106213970714    0.099271889146    0.000180359849    0.000150998546
            0.000135213066    0.000087634639    0.160239954659    -0.001975373491    0.000180359846    0.000150998549    0.186569106488    0.013930420944
