# GHz S RI R 45
0.000     0.014040559000    0.000000000000    -0.000004919818    0.000000000000    0.000517184690    -0.000000000000    -0.000008290778    0.000000000000
            -0.000004919642    0.000000000000    0.014092065000    0.000000000000    -0.000039876415    0.000000000000    0.000245412310    0.000000000000
            0.000517176440    -0.000000000000    -0.000039876318    0.000000000000    0.013913990000    0.000000000000    0.000005197535    -0.000000000000
            -0.000008290581    0.000000000000    0.000245414530    0.000000000000    0.000005197462    -0.000000000000    0.013919773000    0.000000000000
0.025     0.017772599190    0.009454421259    -0.000014577703    -0.000033548324    0.001832731597    0.008459945342    -0.000013545288    -0.000028063185
            -0.000014577519    -0.000033548397    0.017331928040    0.010504705175    -0.000034266759    -0.000028237434    0.001297725538    0.009799647717
            0.001832695474    0.008459993379    -0.000034266665    -0.000028237447    0.017710344252    0.009441673294    -0.000024020776    -0.000048507718
            -0.000013545108    -0.000028063212    0.001297605116    0.009799482193    -0.000024020825    -0.000048507710    0.017347366478    0.010587972199
0.050     0.022966507608    0.015756062021    -0.000031191678    -0.000059912401    0.005518279640    0.016193802331    -0.000026349774    -0.000053289754
            -0.000031191573    -0.000059912429    0.021161241496    0.018111645083    -0.000049726103    -0.000070544372    0.004102622892    0.019052864071
            0.005518257432    0.016193813068    -0.000049726008    -0.000070544394    0.022892367816    0.015738207508    -0.000048240456    -0.000069742526
            -0.000026349586    -0.000053289794    0.004102654095    0.019052852237    -0.000048240456    -0.000069742526    0.021211009208    0.018082276721
0.075     0.029792926571    0.020396715175    -0.000054867724    -0.000080686595    0.011307509757    0.022594573884    -0.000046555252    -0.000073844311
            -0.000054867539    -0.000080686656    0.025769761213    0.024704018493    -0.000082642220    -0.000100326036    0.008478612025    0.027472569082
            0.011307495454    0.022594578806    -0.000082642124    -0.000100326063    0.029701779239    0.020383121596    -0.000072969549    -0.000088133320
            -0.000046555083    -0.000073844416    0.008478619032    0.027472567966    -0.000072969608    -0.000088133297    0.025756028414    0.024606345524
0.100     0.038066157439    0.022887567474    -0.000084119473    -0.000094153723    0.018770247290    0.027174064192    -0.000072266106    -0.000088385050
            -0.000084119387    -0.000094153760    0.031185407090    0.030103908039    -0.000123516007    -0.000116750941    0.014176861211    0.034771173431
            0.018770243684    0.027174069114    -0.000123515917    -0.000116750978    0.037959006496    0.022891209710    -0.000102298460    -0.000101480222
            -0.000072265920    -0.000088385137    0.014176863639    0.034771172441    -0.000102298542    -0.000101480197    0.031074058636    0.029987071572
0.125     0.047172948379    0.022851899976    -0.000116739088    -0.000099208129    0.027388160799    0.029559162886    -0.000101744207    -0.000095912825
            -0.000116738964    -0.000099208198    0.037127881192    0.034185626424    -0.000167626793    -0.000119826286    0.020883652552    0.040740565904
            0.027388157515    0.029559168655    -0.000167626698    -0.000119826351    0.047056509160    0.022885586284    -0.000135503137    -0.000107941230
            -0.000101744037    -0.000095912933    0.020883654685    0.040740564810    -0.000135503217    -0.000107941178    0.036909346369    0.034098026590
0.150     0.056542970327    0.020061870264    -0.000150374083    -0.000095706971    0.036581178504    0.029512043839    -0.000133170939    -0.000096148766
            -0.000150373924    -0.000095707091    0.043225496424    0.036912281968    -0.000211334524    -0.000110626210    0.028264177241    0.045261174393
            0.036581177234    0.029512050192    -0.000211334441    -0.000110626261    0.056429780292    0.020138350178    -0.000170858796    -0.000106745021
            -0.000133170847    -0.000096148841    0.028264169332    0.045261175795    -0.000170858787    -0.000106745015    0.042904951363    0.036899981586
0.175     0.065404297411    0.014474642765    -0.000182918800    -0.000084057526    0.045729332930    0.026935558471    -0.000164899612    -0.000089136043
            -0.000182918654    -0.000084057652    0.049167962754    0.038384118632    -0.000251732345    -0.000090580834    0.035971779950    0.048294288409
            0.045729330814    0.026935567975    -0.000251732267    -0.000090580905    0.065312419587    0.014602519226    -0.000206721516    -0.000097623426
            -0.000164899457    -0.000089136183    0.035971781636    0.048294287153    -0.000206721552    -0.000097623399    0.048767166546    0.038488005348
0.200     0.073043191895    0.006257087624    -0.000212688206    -0.000065210165    0.054212638449    0.021879005099    -0.000195573240    -0.000075301359
            -0.000212688072    -0.000065210327    0.054673976794    0.038771009845    -0.000286836166    -0.000061623109    0.043674506531    0.049888219155
            0.054212639321    0.021879010953    -0.000286836036    -0.000061623238    0.072994990117    0.006440037550    -0.000241504792    -0.000080878183
            -0.000195573099    -0.000075301500    0.043674497801    0.049888221481    -0.000241504867    -0.000080878115    0.054225551217    0.039023687931
0.225     0.078807608319    -0.004276439102    -0.000238401947    -0.000040345655    0.061435594899    0.014529091613    -0.000224034137    -0.000055197042
            -0.000238401830    -0.000040345806    0.059522604958    0.038295214967    -0.000315220006    -0.000025811177    0.051071656390    0.050163370325
            0.061435596509    0.014529102184    -0.000315220006    -0.000025811177    0.078828343529    -0.004041741371    -0.000273890470    -0.000056974985
            -0.000224034021    -0.000055197180    0.051071657265    0.050163369434    -0.000273890470    -0.000056974985    0.059068744437    0.038718109645
0.250     0.082140717564    -0.016666048457    -0.000259290977    -0.000010782194    0.066861044126    0.005201757615    -0.000249426422    -0.000029478568
            -0.000259290879    -0.000010782371    0.063562970556    0.037234921512    -0.000336292276    0.000014789807    0.057912717675    0.049307759865
            0.066861047768    0.005201762360    -0.000336292276    0.000014789807    0.082256489947    -0.016390033340    -0.000302792868    -0.000026632759
            -0.000249426322    -0.000029478733    0.057912719396    0.049307757844    -0.000302792868    -0.000026632759    0.063150930758    0.037837496923
0.275     0.082591941779    -0.030338883612    -0.000274944289    0.000022205628    0.070028175122    -0.005672901815    -0.000271022328    0.000001198932
            -0.000274944074    0.000022205176    0.066728802354    0.035886406287    -0.000349902235    0.000058267441    0.064006859503    0.047555300516
            0.070028180799    -0.005672893664    -0.000349902225    0.000058267440    0.082827534261    -0.030039912127    -0.000327337360    0.000009435135
            -0.000271022338    0.000001198932    0.064006861136    0.047555299996    -0.000327337360    0.000009435135    0.066408294030    0.036664353524
0.300     0.079851815336    -0.044628111946    -0.000285339273    0.000057482873    0.070580999728    -0.017570802647    -0.000288276213    0.000036215708
            -0.000285339273    0.000057482873    0.069039770954    0.034556055486    -0.000356472035    0.000103048571    0.069236127293    0.045175814781
            0.070581005500    -0.017570800159    -0.000356472035    0.000103048571    0.080229186972    -0.044332629370    -0.000346841634    0.000050454496
            -0.000288276213    0.000036215708    0.069236128082    0.045175813573    -0.000346841634    0.000050454496    0.068859008382    0.035491448676
0.325     0.073756250097    -0.058804543221    -0.000290643912    0.000094124044    0.068279615992    -0.029893167494    -0.000300664746    0.000074976849
            -0.000290643893    0.000094124038    0.070598838960    0.033524365339    -0.000356637111    0.000147898613    0.073555337850    0.042449899035
            0.068279622138    -0.029893165924    -0.000356637155    0.000147898558    0.074291672194    -0.058546157088    -0.000360715718    0.000095716973
            -0.000300664756    0.000074976852    0.073555339457    0.042449898251    -0.000360715701    0.000095717036    0.070601262347    0.034586316854
0.350     0.064309372218    -0.072111250399    -0.000291196678    0.000131470002    0.063019556802    -0.041996206379    -0.000307731080    0.000116928892
            -0.000291196669    0.000131469997    0.071587117109    0.033037938236    -0.000351252677    0.000192064896    0.077000357127    0.039657289950
            0.063019563261    -0.041996207506    -0.000351252677    0.000192064896    0.065011531761    -0.071929598897    -0.000368468134    0.000144515268
            -0.000307730917    0.000116927969    0.077000358708    0.039657289064    -0.000368468144    0.000144515272    0.071807827559    0.034184024448
0.375     0.051677653734    -0.083792644676    -0.000287317751    0.000169093982    0.054836296063    -0.053212529196    -0.000308964393    0.000161487390
            -0.000287317751    0.000169093982    0.072247772364    0.033278909951    -0.000341105521    0.000235154724    0.079676331423    0.037049237617
            0.054836302438    -0.053212529806    -0.000341105488    0.000235154262    0.052546014640    -0.083731787651    -0.000369588324    0.000196175146
            -0.000308964393    0.000161487390    0.079676333883    0.037049237070    -0.000369588333    0.000196175151    0.072710822785    0.034457543676
0.400     0.036196363192    -0.093137445220    -0.000279279365    0.000206798462    0.043913278748    -0.062889918370    -0.000303859888    0.000208036955
            -0.000279279357    0.000206798456    0.072874455774    0.034360577084    -0.000326867518    0.000277176451    0.081758710311    0.034838919238
            0.043913284378    -0.062889921756    -0.000326867525    0.000277176457    0.037219545176    -0.093243549092    -0.000363591061    0.000249984620
            -0.000303859896    0.000208036960    0.081758712759    0.034838918595    -0.000363591077    0.000249984631    0.073590488096    0.035513867546
0.425     0.018354860889    -0.099506063944    -0.000267168740    0.000244509232    0.030577230678    -0.070412949083    -0.000291859557    0.000255829448
            -0.000267168725    0.000244509218    0.073786272524    0.036305963557    -0.000308909729    0.000318342912    0.083471826727    0.033175678615
            0.030577235127    -0.070412952602    -0.000308909791    0.000318342866    0.019510064501    -0.099824620281    -0.000349925356    0.000305159552
            -0.000291859557    0.000255829448    0.083471828235    0.033175677528    -0.000349925356    0.000305159552    0.074751061680    0.037373425192
0.450     -0.001217507839    -0.102372640405    -0.000250890876    0.000282217707    0.015289926813    -0.075245468640    -0.000272439377    0.000303984293
            -0.000250891095    0.000282216763    0.075310751619    0.039049866856    -0.000287284748    0.000359016500    0.085080545642    0.032140771241
            0.015289930635    -0.075245473986    -0.000287284761    0.000359016516    0.000034828092    -0.102945864109    -0.000328073570    0.000360784123
            -0.000272439397    0.000303984316    0.085080547138    0.032140770109    -0.000328073541    0.000360784217    0.076504410338    0.039972045554
0.475     -0.021777053067    -0.101348785999    -0.000230122383    0.000319831768    -0.001367371074    -0.076951225331    -0.000245121436    0.000351401308
            -0.000230122333    0.000319831817    0.077753165711    0.042430155602    -0.000261667378    0.000399475734    0.086861056141    0.031729737829
            -0.001367323907    -0.076951217167    -0.000261667378    0.000399475734    -0.020473200083    -0.102212488236    -0.000297515803    0.000415752219
            -0.000245121436    0.000351401308    0.086861059128    0.031729735483    -0.000297515803    0.000415752219    0.079140695390    0.043153306995
0.500     -0.042497968572    -0.096215497289    -0.000204383240    0.000357112839    -0.018720609746    -0.075230464856    -0.000209582746    0.000396792157
            -0.000204383235    0.000357112830    0.081377404202    0.046200650346    -0.000231432512    0.000439830925    0.089086341863    0.031858119174
            -0.018720610953    -0.075230469708    -0.000231432924    0.000439830030    -0.041198532358    -0.097395877980    -0.000257873610    0.000468748222
            -0.000209582778    0.000396792218    0.089086341863    0.031858119174    -0.000257873625    0.000468748248    0.082910270897    0.046679928806
0.525     -0.062509727106    -0.086935765654    -0.000173086446    0.000393546426    -0.036030506210    -0.069933051183    -0.000165718747    0.000438648532
            -0.000173086433    0.000393546398    0.086376710743    0.050036977957    -0.000195725094    0.000479825137    0.091993251203    0.032357158005
            -0.036030508500    -0.069933055628    -0.000195725316    0.000479824722    -0.061278357215    -0.088447472288    -0.000208939337    0.000518223120
            -0.000165718751    0.000438648541    0.091993254219    0.032357155457    -0.000208939091    0.000518223554    0.087995269790    0.050240672260
0.550     -0.080943502357    -0.073668493704    -0.000135676343    0.000428338581    -0.052535263076    -0.061079754053    -0.000113751156    0.000475337657
            -0.000135676268    0.000428338605    0.092859667194    0.053561820439    -0.000153629731    0.000518814193    0.095770011986    0.032992089150
            -0.052535266336    -0.061079757844    -0.000153629822    0.000518814166    -0.079848653613    -0.075511546846    -0.000150824840    0.000562456364
            -0.000113751156    0.000475337657    0.095770023168    0.032992087392    -0.000150824840    0.000562456364    0.094496833978    0.053473440558
0.575     -0.096973441934    -0.056761830945    -0.000091734552    0.000460364770    -0.067483552400    -0.048859423245    -0.000054282620    0.000505143452
            -0.000091734550    0.000460364760    0.100828920247    0.056364178579    -0.000104321614    0.000555674354    0.100527286831    0.033472286015
            -0.067483555640    -0.048859425591    -0.000104321614    0.000555674354    -0.096085253873    -0.058921287486    -0.000084009424    0.000599591992
            -0.000054282618    0.000505143432    0.100527298656    0.033472282156    -0.000084009411    0.000599591974    0.102414568099    0.055984954087
0.600     -0.109866371585    -0.036741627505    -0.000041119609    0.000488270379    -0.080184585969    -0.033626721672    0.000011647559    0.000526432262
            -0.000041119601    0.000488270379    0.110182814872    0.058032251155    -0.000047258544    0.000588906191    0.106296972674    0.033480366464
            -0.080184589658    -0.033626723219    -0.000047258544    0.000588906181    -0.109252580029    -0.039186833936    -0.000009436498    0.000627804594
            0.000011647568    0.000526432272    0.106296985718    0.033480358337    -0.000009436498    0.000627804604    0.111647857510    0.057381177911
0.625     -0.119015569668    -0.014285654009    0.000015942263    0.000510511068    -0.090035738890    -0.015881595464    0.000082577008    0.000537732144
            0.000015942263    0.000510511048    0.120706911272    0.058179901199    0.000017679462    0.000616672175    0.113013679336    0.032690098487
            -0.090035744798    -0.015881596506    0.000017679462    0.000616672195    -0.118738773076    -0.016970078321    0.000071497107    0.000645374513
            0.000082576258    0.000537731571    0.113013680477    0.032690094542    0.000071497111    0.000645374553    0.121988881477    0.057292693787
0.650     -0.123979550079    0.009813076551    0.000078797051    0.000525542425    -0.096565264125    0.003757616534    0.000156666139    0.000537927175
            0.000078796252    0.000525541917    0.132095415961    0.056476239071    0.000090090844    0.000637021627    0.120531147209    0.030798223818
            -0.096565271776    0.003757599952    0.000090090853    0.000637021605    -0.124092189189    0.006949280065    0.000156947334    0.000650906712
            0.000156666164    0.000537927188    0.120531150434    0.030798211196    0.000156947336    0.000650906722    0.133141833761    0.055404025442
0.675     -0.124496914895    0.034685550098    0.000146348575    0.000531894610    -0.099443275629    0.024587142111    0.000231790640    0.000526305106
            0.000146348144    0.000531894387    0.143956181261    0.052669043047    0.000168996372    0.000647994730    0.128616085699    0.027541854324
            -0.099443275629    0.024587142111    0.000168995964    0.000647994506    -0.125039283576    0.031714119964    0.000244721627    0.000643380006
            0.000231790649    0.000526305102    0.128616086661    0.027541849834    0.000244721627    0.000643380006    0.144728641214    0.051474865020
0.700     -0.120501686973    0.059436046753    0.000217121903    0.000528378513    -0.098507049399    0.045859596112    0.000305691149    0.000502692358
            0.000217121033    0.000528378179    0.155846503023    0.046601761495    0.000252889092    0.000647876018    0.136980001126    0.022721722238
            -0.098507058465    0.045859600333    0.000252889107    0.000647875991    -0.121498962811    0.056437071582    0.000332408674    0.000622329054
            0.000305691172    0.000502692356    0.136980001166    0.022721721999    0.000332408663    0.000622329060    0.156322952109    0.045356988158
0.725     -0.112116571156    0.083183047124    0.000289319730    0.000514129059    -0.093750028081    0.066817860505    0.000376097037    0.000467417563
            0.000289319730    0.000514129059    0.167287020391    0.038226017657    0.000339785712    0.000635283626    0.145279407611    0.016211074932
            -0.093750028081    0.066817860505    0.000339785723    0.000635283620    -0.113577261789    0.080242021286    0.000417513696    0.000587807724
            0.000376097037    0.000467417563    0.145279408036    0.016211071129    0.000417513696    0.000587807724    0.167463901372    0.037004829699
0.750     -0.099642055267    0.105105805142    0.000360980379    0.000488735158    -0.085325094317    0.086738403014    0.000440908831    0.000421345812
            0.000360980379    0.000488735158    0.177801578594    0.027599670631    0.000427391785    0.000609347045    0.153156884672    0.007966410899
            -0.085325094317    0.086738403014    0.000427391796    0.000609347038    -0.101557227571    0.102309208403    0.000497646097    0.000540465274
            0.000440908831    0.000421345812    0.153156884644    0.007966411434    0.000497646097    0.000540465274    0.177693127500    0.026476261370
0.775     -0.083531858551    0.124474718801    0.000430055245    0.000452212015    -0.073518781960    0.104954370125    0.000498287815    0.000365750923
            0.000430055277    0.000452211985    0.186930674479    0.014887358657    0.000513209936    0.000569716871    0.160239954751    -0.001975366024
            -0.073518783066    0.104954332723    0.000513209913    0.000569716865    -0.085875494530    0.121906895037    0.000570626716    0.000481412901
            0.000498287821    0.000365750915    0.160239954659    -0.001975373491    0.000570626716    0.000481412901    0.186569106488    0.013930420944
