# GHz S RI R 45
0.000     0.014769629000    0.000000000000    0.000080644990    -0.000000000000    0.000405698020    0.000000000000    0.000059772266    -0.000000000000
            0.000080644992    -0.000000000000    0.014092065000    0.000000000000    0.000050031561    -0.000000000000    0.000245412310    0.000000000000
            0.000405699770    0.000000000000    0.000050031557    -0.000000000000    0.014753796000    0.000000000000    0.000060325658    -0.000000000000
            0.000059772322    -0.000000000000    0.000245414530    0.000000000000    0.000060325586    -0.000000000000    0.013919773000    0.000000000000
0.025     0.018678136032    0.011237889157    0.000098669619    0.000036318579    0.001700628723    0.010459837086    0.000097455525    0.000047861365
            0.000098669620    0.000036318578    0.017331928040    0.010504705175    0.000101069237    0.000057729003    0.001297725538    0.009799647717
            0.001700507895    0.010459671328    0.000101069332    0.000057728978    0.018607061101    0.011189749683    0.000092669615    0.000044926618
            0.000097455572    0.000047861338    0.001297605116    0.009799482193    0.000092669524    0.000044926622    0.017347366478    0.010587972199
0.050     0.023132182064    0.019106204720    0.000116055728    0.000056703211    0.005011438135    0.020173094954    0.000121286098    0.000059393819
            0.000116055728    0.000056703211    0.021161241496    0.018111645083    0.000130512217    0.000065169404    0.004102622892    0.019052864071
            0.005011469563    0.020173083025    0.000130512264    0.000065169399    0.023016817110    0.019019428366    0.000114358415    0.000059070777
            0.000121286148    0.000059393809    0.004102654095    0.019052852237    0.000114358426    0.000059070778    0.021211009208    0.018082276721
0.075     0.028498734368    0.025709669199    0.000135981205    0.000073140046    0.010117371874    0.028816767099    0.000140110277    0.000069778184
            0.000135981206    0.000073140044    0.025769761213    0.024704018493    0.000150642595    0.000072707398    0.008478612025    0.027472569082
            0.010117378241    0.028816765923    0.000150642640    0.000072707397    0.028311934716    0.025607851850    0.000132851473    0.000071612371
            0.000140110326    0.000069778175    0.008478619032    0.027472567966    0.000132851477    0.000071612364    0.025756028414    0.024606345524
0.100     0.034754482788    0.030789391421    0.000159207987    0.000084622675    0.016680507168    0.036020261839    0.000160292761    0.000077583858
            0.000159207988    0.000084622672    0.031185407090    0.030103908039    0.000171215147    0.000078480842    0.014176861211    0.034771173431
            0.016680509054    0.036020260965    0.000171215193    0.000078480838    0.034480122548    0.030705880320    0.000153174896    0.000081279497
            0.000160292809    0.000077583850    0.014176863639    0.034771172441    0.000153174908    0.000081279497    0.031074058636    0.029987071572
0.125     0.041504414206    0.034214370155    0.000184479131    0.000089845037    0.024269373893    0.041530879363    0.000181784506    0.000081133626
            0.000184479131    0.000089845037    0.037127881192    0.034185626424    0.000192705812    0.000080470984    0.020883652552    0.040740565904
            0.024269375343    0.041530878516    0.000192705857    0.000080470979    0.041136793096    0.034186661586    0.000175107534    0.000086500384
            0.000181784553    0.000081133617    0.020883654685    0.040740564810    0.000175107537    0.000086500378    0.036909346369    0.034098026590
0.150     0.048229423390    0.035886170322    0.000209991602    0.000089243389    0.032416385449    0.045228960101    0.000203461210    0.000080360179
            0.000209991602    0.000089243389    0.043225496424    0.036912281968    0.000214179796    0.000078385551    0.028264177241    0.045261174393
            0.032416387027    0.045228958969    0.000214179842    0.000078385542    0.047784127110    0.035954777429    0.000197444631    0.000087274701
            0.000203461259    0.000080360166    0.028264169332    0.045261175795    0.000197444631    0.000087274701    0.042904951363    0.036899981586
0.175     0.054489371402    0.035997375405    0.000234318466    0.000083204279    0.040651853747    0.047117645276    0.000224296029    0.000075390973
            0.000234318466    0.000083204279    0.049167962754    0.038384118632    0.000234665598    0.000072294070    0.035971779950    0.048294288409
            0.040651854569    0.047117644567    0.000234665642    0.000072294061    0.053992951489    0.036196452589    0.000219141337    0.000083722199
            0.000224296076    0.000075390958    0.035971781636    0.048294287153    0.000219141347    0.000083722199    0.048767166546    0.038488005348
0.200     0.059897914629    0.034826587442    0.000256613646    0.000072861242    0.048536190870    0.047324495211    0.000243633477    0.000067021882
            0.000256613646    0.000072861242    0.054673976794    0.038771009845    0.000253545409    0.000062948473    0.043674506531    0.049888219155
            0.048536182225    0.047324498348    0.000253545464    0.000062948463    0.059387308644    0.035181507314    0.000239514269    0.000076637291
            0.000243633523    0.000067021867    0.043674497801    0.049888221481    0.000239514269    0.000076637291    0.054225551217    0.039023687931
0.225     0.064166212694    0.032729841069    0.000276208073    0.000059086317    0.055689323807    0.046079546174    0.000260962186    0.000055873770
            0.000276208073    0.000059086317    0.059522604958    0.038295214967    0.000270333183    0.000050956808    0.051071656390    0.050163370325
            0.055689323840    0.046079544565    0.000270333237    0.000050956793    0.063686688835    0.033254129729    0.000258025810    0.000066623894
            0.000260962230    0.000055873756    0.051071657265    0.050163369434    0.000258025363    0.000066624105    0.059068744437    0.038718109645
0.250     0.067115392136    0.030136920606    0.000293055212    0.000042872604    0.061814107300    0.043702266844    0.000276236748    0.000042705063
            0.000293055212    0.000042872604    0.063562970556    0.037234921512    0.000285007861    0.000037066709    0.057912717675    0.049307759865
            0.061814108063    0.043702265765    0.000285007913    0.000037066694    0.066716625733    0.030830126291    0.000274604583    0.000054438884
            0.000276236791    0.000042705045    0.057912719396    0.049307757844    0.000274604583    0.000054438884    0.063150930758    0.037837496923
0.275     0.068698109868    0.027501372754    0.000307046367    0.000024962046    0.066712897662    0.040570221031    0.000289378465    0.000028067345
            0.000307046357    0.000024962048    0.066728802354    0.035886406287    0.000297510698    0.000021818833    0.064006859503    0.047555300516
            0.066712898370    0.040570219866    0.000297510750    0.000021818815    0.068430118591    0.028348185571    0.000289147766    0.000040628902
            0.000289378517    0.000028067325    0.064006861136    0.047555299996    0.000289147766    0.000040628898    0.066408294030    0.036664353524
0.300     0.068997991441    0.025281294174    0.000318495607    0.000005958594    0.070301785222    0.037099231223    0.000300633659    0.000012426495
            0.000318495596    0.000005958597    0.069039770954    0.034556055486    0.000308103338    0.000005668036    0.069236127293    0.045175814781
            0.070301785870    0.037099229996    0.000308103389    0.000005668014    0.068906929737    0.026251351008    0.000301881517    0.000025665930
            0.000300633710    0.000012426471    0.069236128082    0.045175813573    0.000301881527    0.000025665931    0.068859008382    0.035491448676
0.325     0.068226875288    0.023890058377    0.000327535198    -0.000013673134    0.072612583860    0.033706045890    0.000310115699    -0.000003880775
            0.000327535188    -0.000013673131    0.070598838960    0.033524365339    0.000316912898    -0.000011060248    0.073555337850    0.042449899035
            0.072612584767    0.033706046311    0.000316912947    -0.000011060275    0.068350519937    0.024939442057    0.000312904504    0.000009888990
            0.000310115749    -0.000003880800    0.073555339457    0.042449898251    0.000312904504    0.000009888990    0.070601262347    0.034586316854
0.350     0.066713155871    0.023677322547    0.000334536173    -0.000033668779    0.073797730490    0.030786658435    0.000318123090    -0.000020666024
            0.000334536163    -0.000033668772    0.071587117109    0.033037938236    0.000324243361    -0.000028188893    0.077000357127    0.039657289950
            0.073797731413    0.030786658820    0.000324243409    -0.000028188927    0.067077240524    0.024750967287    0.000322505703    -0.000006504526
            0.000318123138    -0.000020666053    0.077000358708    0.039657289064    0.000322505713    -0.000006504530    0.071807827559    0.034184024448
0.375     0.064879463719    0.024886596311    0.000339673601    -0.000053795784    0.074115118431    0.028675368243    0.000324801620    -0.000037787881
            0.000339673592    -0.000053795777    0.072247772364    0.033278909951    0.000330243028    -0.000045585227    0.079676331423    0.037049237617
            0.074115120296    0.028675368964    0.000330243083    -0.000045585267    0.065494189855    0.025921481431    0.000330825752    -0.000023372269
            0.000324801677    -0.000037787916    0.079676333883    0.037049237070    0.000330825752    -0.000023372269    0.072710822785    0.034457543676
0.400     0.063218493601    0.027641684493    0.000343236403    -0.000074003601    0.073919112324    0.027625192801    0.000330376721    -0.000055242814
            0.000343236404    -0.000074003595    0.072874455774    0.034360577084    0.000335138129    -0.000063251265    0.081758710311    0.034838919238
            0.073919114197    0.027625193501    0.000335138181    -0.000063251311    0.064076720533    0.028571436577    0.000338087764    -0.000040708655
            0.000330376776    -0.000055242852    0.081758712759    0.034838918595    0.000338087765    -0.000040708654    0.073590488096    0.035513867546
0.425     0.062254714793    0.031917363386    0.000345352279    -0.000094204887    0.073627774286    0.027772297488    0.000334938728    -0.000073020278
            0.000345352272    -0.000094204872    0.073786272524    0.036305963557    0.000339017823    -0.000081180350    0.083471826727    0.033175678615
            0.073627776158    0.027772298194    0.000339017871    -0.000081180406    0.063330457776    0.032677584007    0.000344382823    -0.000058512782
            0.000334938779    -0.000073020326    0.083471828235    0.033175677528    0.000344382823    -0.000058512783    0.074751061680    0.037373425192
0.450     0.062509145032    0.037539645868    0.000346186111    -0.000114454739    0.073697764020    0.029126533000    0.000338590354    -0.000091213898
            0.000346186103    -0.000114454730    0.075310751619    0.039049866856    0.000341984946    -0.000099464249    0.085080545642    0.032140771241
            0.073697766388    0.029126532448    0.000341984991    -0.000099464307    0.063758533727    0.038072606534    0.000349809988    -0.000076882418
            0.000338590403    -0.000091213950    0.085080547138    0.032140770109    0.000349809998    -0.000076882420    0.076504410338    0.039972045554
0.475     0.064449897535    0.044178476076    0.000345786030    -0.000134735238    0.074576897017    0.031552857622    0.000341328723    -0.000109874005
            0.000345786040    -0.000134735242    0.077753165711    0.042430155602    0.000344037790    -0.000118147326    0.086861056141    0.031729737829
            0.074576899960    0.031552855798    0.000344038122    -0.000118147776    0.065812902926    0.044438831056    0.000354362323    -0.000095882467
            0.000341328767    -0.000109874065    0.086861059128    0.031729735483    0.000354362321    -0.000095882473    0.079140695390    0.043153306995
0.500     0.068454187512    0.051370004612    0.000344193725    -0.000155124725    0.076669871119    0.034783976970    0.000343124275    -0.000129106372
            0.000344193735    -0.000155124729    0.081377404202    0.046200650346    0.000345150914    -0.000137333167    0.089086341863    0.031858119174
            0.076669872030    0.034783977384    0.000345150953    -0.000137333231    0.069858315134    0.051329211107    0.000357998718    -0.000115633147
            0.000343123784    -0.000129105634    0.089086341863    0.031858119174    0.000357998726    -0.000115633156    0.082910270897    0.046679928806
0.525     0.074762116665    0.058538716247    0.000341374917    -0.000175603101    0.080288843120    0.038428834594    0.000343869245    -0.000148946146
            0.000341374920    -0.000175603095    0.086376710743    0.050036977957    0.000345227678    -0.000157049044    0.091993251203    0.032357158005
            0.080288847838    0.038428831685    0.000345227711    -0.000157049118    0.076127809958    0.058188559098    0.000360597925    -0.000136189517
            0.000343869291    -0.000148946216    0.091993254219    0.032357155457    0.000360597934    -0.000136189520    0.087995269790    0.050240672260
0.550     0.083453881310    0.065044205735    0.000337275519    -0.000196207785    0.085628091300    0.042010411790    0.000343425217    -0.000169438150
            0.000337275531    -0.000196207784    0.092859667194    0.053561820439    0.000344139332    -0.000177338264    0.095770011986    0.032992089150
            0.085628091300    0.042010411790    0.000344139364    -0.000177338334    0.084699838131    0.064398143309    0.000361996109    -0.000157606702
            0.000343425256    -0.000169438229    0.095770023168    0.032992087392    0.000361996118    -0.000157606706    0.094496833978    0.053473440558
0.575     0.094424813878    0.070224950855    0.000331807509    -0.000216865745    0.092730899673    0.044999002154    0.000341616114    -0.000190536489
            0.000331807530    -0.000216865767    0.100828920247    0.056364178579    0.000341723994    -0.000198152621    0.100527286831    0.033472286015
            0.092730882465    0.044998991804    0.000341724003    -0.000198152706    0.095474632363    0.069319098304    0.000361992057    -0.000179852823
            0.000341616158    -0.000190536575    0.100527298656    0.033472282156    0.000361992081    -0.000179852843    0.102414568099    0.055984954087
0.600     0.107394118319    0.073456993874    0.000324870164    -0.000237523360    0.101491984617    0.046865779421    0.000338250086    -0.000212163527
            0.000324870144    -0.000237523319    0.110182814872    0.058032251155    0.000337807406    -0.000219421068    0.106296972674    0.033480366464
            0.101491987889    0.046865772335    0.000337807421    -0.000219421137    0.108182465389    0.072347211651    0.000360361887    -0.000202852532
            0.000338250130    -0.000212163645    0.106296985718    0.033480358337    0.000360361538    -0.000202851665    0.111647857510    0.057381177911
0.625     0.121911831171    0.074200935367    0.000316379535    -0.000258024623    0.111651816607    0.047121231559    0.000333152504    -0.000234153240
            0.000316379519    -0.000258024628    0.120706911272    0.058179901199    0.000332229139    -0.000240984060    0.113013679336    0.032690098487
            0.111651819897    0.047121223764    0.000332229146    -0.000240984135    0.122390176319    0.072959158943    0.000356893946    -0.000226439223
            0.000333152517    -0.000234153292    0.113013680477    0.032690094542    0.000356893796    -0.000226438805    0.121988881477    0.057292693787
0.650     0.137402516091    0.072046358999    0.000306258943    -0.000278215501    0.122832070719    0.045362046634    0.000326170689    -0.000256296199
            0.000306258959    -0.000278215573    0.132095415961    0.056476239071    0.000324849923    -0.000262646045    0.120531147209    0.030798223818
            0.122832070719    0.045362046634    0.000324849922    -0.000262646110    0.137541847366    0.070756275014    0.000351402294    -0.000250391332
            0.000326170686    -0.000256296252    0.120531150434    0.030798211196    0.000351402276    -0.000250391254    0.133141833761    0.055404025442
0.675     0.153193586442    0.066740258234    0.000294491352    -0.000297869885    0.134550883375    0.041295030583    0.000317211148    -0.000278318139
            0.000294491345    -0.000297869920    0.143956181261    0.052669043047    0.000315586788    -0.000284149207    0.128616085699    0.027541854324
            0.134550883375    0.041295030583    0.000315586773    -0.000284149314    0.152988110233    0.065490633170    0.000343759236    -0.000274418558
            0.000317211129    -0.000278318161    0.128616086661    0.027541849834    0.000343759237    -0.000274418589    0.144728641214    0.051474865020
0.700     0.168576575947    0.058201837514    0.000281093090    -0.000316766422    0.146277140150    0.034759502407    0.000306240573    -0.000299921083
            0.000281093095    -0.000316766350    0.155846503023    0.046601761495    0.000304410223    -0.000305214498    0.136980001126    0.022721722238
            0.146277140150    0.034759502407    0.000304410214    -0.000305214564    0.168043234523    0.057081243770    0.000333903902    -0.000298196320
            0.000306240563    -0.000299921136    0.136980001166    0.022721721999    0.000333903897    -0.000298196295    0.156322952109    0.045356988158
0.725     0.182840801325    0.046523426426    0.000266156981    -0.000334661337    0.157450354255    0.025728157178    0.000293305124    -0.000320793392
            0.000266156964    -0.000334661376    0.167287020391    0.038226017657    0.000291372161    -0.000325546304    0.145279407611    0.016211074932
            0.157450345778    0.025728147047    0.000291372127    -0.000325546402    0.182018674457    0.045612552379    0.000321858099    -0.000321385084
            0.000293305083    -0.000320793539    0.145279408036    0.016211071129    0.000321858093    -0.000321385133    0.167463901372    0.037004829699
0.750     0.195327427805    0.031953815829    0.000249814537    -0.000351338024    0.167532289992    0.014303965991    0.000278521951    -0.000340631524
            0.000249814505    -0.000351338095    0.177801578594    0.027599670631    0.000276584344    -0.000344863561    0.153156884672    0.007966410899
            0.167532289992    0.014303965991    0.000276584298    -0.000344863701    0.194274531796    0.031322469064    0.000307723694    -0.000343645152
            0.000278521907    -0.000340631663    0.153156884644    0.007966411434    0.000307723721    -0.000343645074    0.177693127500    0.026476261370
0.775     0.205451525386    0.014880846153    0.000232271914    -0.000366604983    0.176018721359    0.000704199136    0.000262082954    -0.000359171263
            0.000232271920    -0.000366604979    0.186930674479    0.014887358657    0.000260234893    -0.000362917193    0.160239954751    -0.001975366024
            0.176018721359    0.000704199136    0.000260234826    -0.000362917327    0.204241760262    0.014582769015    0.000291683769    -0.000364678507
            0.000262082895    -0.000359171392    0.160239954659    -0.001975373491    0.000291683769    -0.000364678507    0.186569106488    0.013930420944
0.800     0.212735956492    -0.004199376897    0.000213760387    -0.000380316380    0.182475270057    -0.014754444423    0.000244234708    -0.000376187687
