# GHz S RI R 45
0.000     0.014402077000    0.000000000000    -0.000057122134    0.000000000000    0.000281527290    0.000000000000    -0.000028453081    0.000000000000
            -0.000057122371    0.000000000000    0.014092065000    0.000000000000    -0.000040088852    0.000000000000    0.000245412310    0.000000000000
            0.000281525800    0.000000000000    -0.000040088846    0.000000000000    0.014358599000    0.000000000000    -0.000028070328    0.000000000000
            -0.000028452744    0.000000000000    0.000245414530    0.000000000000    -0.000028070334    0.000000000000    0.013919773000    0.000000000000
0.025     0.018159070087    0.011096126674    -0.000011402746    0.000032356489    0.001552284262    0.010261579928    -0.000020556262    0.000011575122
            -0.000011402743    0.000032356480    0.017331928040    0.010504705175    -0.000017991253    0.000018475756    0.001297725538    0.009799647717
            0.001552161016    0.010261415512    -0.000017991254    0.000018475757    0.018072480134    0.011081681662    -0.000017380970    0.000016339866
            -0.000020556263    0.000011575118    0.001297605116    0.009799482193    -0.000017380990    0.000016339862    0.017347366478    0.010587972199
0.050     0.022454593275    0.018893896078    0.000002487874    0.000017800982    0.004693116733    0.019776059164    -0.000019175082    0.000015291099
            0.000002487862    0.000017800983    0.021161241496    0.018111645083    -0.000012435636    0.000014453137    0.004102622892    0.019052864071
            0.004693145838    0.019776048146    -0.000012435639    0.000014453136    0.022335719469    0.018897500832    -0.000014602957    0.000022089230
            -0.000019174989    0.000015291090    0.004102654095    0.019052852237    -0.000014602881    0.000022089224    0.021211009208    0.018082276721
0.075     0.027588389756    0.025506217274    -0.000000132010    0.000010601743    0.009509391239    0.028320019958    -0.000021318823    0.000021608394
            -0.000000132019    0.000010601756    0.025769761213    0.024704018493    -0.000015948688    0.000015160471    0.008478612025    0.027472569082
            0.009509396324    0.028320020360    -0.000015948644    0.000015160461    0.027434249751    0.025541222016    -0.000015978355    0.000030771261
            -0.000021318831    0.000021608395    0.008478619032    0.027472567966    -0.000015978327    0.000030771260    0.025756028414    0.024606345524
0.100     0.033571574169    0.030712430239    -0.000006566425    0.000009406296    0.015717050042    0.035561422092    -0.000023831558    0.000030628300
            -0.000006566406    0.000009406294    0.031185407090    0.030103908039    -0.000021487946    0.000020365890    0.014176861211    0.034771173431
            0.015717048180    0.035561422915    -0.000021487948    0.000020365885    0.033380145231    0.030796164657    -0.000017625555    0.000042388356
            -0.000023831566    0.000030628299    0.014176863639    0.034771172441    -0.000017625480    0.000042388343    0.031074058636    0.029987071572
0.125     0.040059412137    0.034394045113    -0.000013906762    0.000013619282    0.022939642995    0.041266767446    -0.000025507851    0.000042223242
            -0.000013906745    0.000013619280    0.037127881192    0.034185626424    -0.000026813221    0.000029780447    0.020883652552    0.040740565904
            0.022939641555    0.041266768247    -0.000026813222    0.000029780448    0.039833308936    0.034546102045    -0.000018150141    0.000056767421
            -0.000025507853    0.000042223246    0.020883654685    0.040740564810    -0.000018150155    0.000056767430    0.036909346369    0.034098026590
0.150     0.046584073674    0.036460202405    -0.000020244277    0.000021742439    0.030767252422    0.045316771279    -0.000025357075    0.000055802873
            -0.000020244260    0.000021742436    0.043225496424    0.036912281968    -0.000030444255    0.000042401168    0.028264177241    0.045261174393
            0.030767250840    0.045316772353    -0.000030444264    0.000042401164    0.046338152225    0.036701041934    -0.000016499577    0.000073178069
            -0.000025357077    0.000055802877    0.028264169332    0.045261175795    -0.000016499605    0.000073178076    0.042904951363    0.036899981586
0.175     0.052758082177    0.037074760284    -0.000024494801    0.000033004162    0.038784894985    0.047696898256    -0.000022833762    0.000070856003
            -0.000024494781    0.000033004160    0.049167962754    0.038384118632    -0.000031544649    0.000057480792    0.035971779950    0.048294288409
            0.038784903538    0.047696895168    -0.000031544650    0.000057480793    0.052513120369    0.037420763468    -0.000012048645    0.000091077331
            -0.000022833776    0.000070856003    0.035971781636    0.048294287153    -0.000012048663    0.000091077339    0.048767166546    0.038488005348
0.200     0.058234225695    0.036476979357    -0.000026044072    0.000046342971    0.046599856131    0.048500366423    -0.000017551105    0.000086658645
            -0.000026044050    0.000046342969    0.054673976794    0.038771009845    -0.000029578535    0.000074052086    0.043674506531    0.049888219155
            0.046599855285    0.048500367236    -0.000029578536    0.000074052088    0.058016850691    0.036938679227    -0.000004424184    0.000109627634
            -0.000017551121    0.000086658644    0.043674497801    0.049888221481    -0.000004424205    0.000109627643    0.054225551217    0.039023687931
0.225     0.062748810537    0.034972950898    -0.000024641241    0.000060943515    0.053867155507    0.047909919391    -0.000009412329    0.000102648573
            -0.000024641317    0.000060943550    0.059522604958    0.038295214967    -0.000024416631    0.000091348744    0.051071656390    0.050163370325
            0.053867154671    0.047909920331    -0.000024416632    0.000091348747    0.062589939687    0.035552810842    0.000006499623    0.000128223894
            -0.000009412329    0.000102648573    0.051071657265    0.050163369434    0.000006499691    0.000128223860    0.059068744437    0.038718109645
0.250     0.066132417218    0.032936112288    -0.000020185406    0.000076060661    0.060309762480    0.046188106178    0.000001612905    0.000118246330
            -0.000020185473    0.000076060700    0.063562970556    0.037234921512    -0.000016021596    0.000108666947    0.057912717675    0.049307759865
            0.060309762480    0.046188106178    -0.000016021600    0.000108666946    0.066064627023    0.033627512223    0.000020712050    0.000146206805
            0.000001612903    0.000118246330    0.057912719396    0.049307757844    0.000020712031    0.000146206818    0.063150930758    0.037837496923
0.275     0.068329644273    0.030761502348    -0.000012774596    0.000091107452    0.065733419977    0.043650531083    0.000015408750    0.000133016351
            -0.000012774618    0.000091107469    0.066728802354    0.035886406287    -0.000004564889    0.000125480854    0.064006859503    0.047555300516
            0.065733423929    0.043650528748    -0.000004564898    0.000125480854    0.068384500737    0.031548545071    0.000038097516    0.000163104827
            0.000015408750    0.000133016351    0.064006861136    0.047555299996    0.000038097493    0.000163104832    0.066408294030    0.036664353524
0.300     0.069399015481    0.028851739098    -0.000002474472    0.000105602243    0.070039546727    0.040649979812    0.000031894218    0.000146546114
            -0.000002474449    0.000105602234    0.069039770954    0.034556055486    0.000009860349    0.000141359610    0.069236127293    0.045175814781
            0.070039545153    0.040649980533    0.000009860347    0.000141359610    0.069604694701    0.029709025086    0.000058532913    0.000178454250
            0.000031894215    0.000146546114    0.069236128082    0.045175813573    0.000058532894    0.000178454257    0.068859008382    0.035491448676
0.325     0.069511206168    0.027572084220    0.000010541848    0.000119137674    0.073227009254    0.037544332867    0.000050904140    0.000158492347
            0.000010541832    0.000119137685    0.070598838960    0.033524365339    0.000027057455    0.000155960097    0.073555337850    0.042449899035
            0.073227007709    0.037544333689    0.000027057487    0.000155960071    0.069889259971    0.028465994182    0.000081841287    0.000191880746
            0.000050904137    0.000158492348    0.073555339457    0.042449898251    0.000081841271    0.000191880764    0.070601262347    0.034586316854
0.350     0.068939237601    0.027235497391    0.000026204255    0.000131351739    0.075398136403    0.034679606066    0.000072344530    0.000168504643
            0.000026204276    0.000131351725    0.071587117109    0.033037938236    0.000046973366    0.000168962871    0.077000357127    0.039657289950
            0.075398135494    0.034679605648    0.000046973435    0.000168962811    0.069502809194    0.028126146061    0.000107897250    0.000203000074
            0.000072344527    0.000168504645    0.077000358708    0.039657289064    0.000107897305    0.000203000022    0.071807827559    0.034184024448
0.375     0.068038884206    0.028064642568    0.000044343498    0.000141885431    0.076745040388    0.032354235414    0.000096031097    0.000176242835
            0.000044343518    0.000141885415    0.072247772364    0.033278909951    0.000069461135    0.000180050192    0.079676331423    0.037049237617
            0.076745037980    0.032354235977    0.000069461169    0.000180050168    0.068790681100    0.028907772576    0.000136502059    0.000211439347
            0.000096031094    0.000176242837    0.079676333883    0.037049237070    0.000136502076    0.000211439324    0.072710822785    0.034457543676
0.400     0.067229662002    0.030181511719    0.000064879361    0.000150360493    0.077545262179    0.030804231262    0.000121829869    0.000181327600
            0.000064879313    0.000150360547    0.072874455774    0.034360577084    0.000094495571    0.000188855067    0.081758710311    0.034838919238
            0.077545261250    0.030804230893    0.000094495569    0.000188855079    0.068160485746    0.030931785007    0.000167498584    0.000216785657
            0.000121829869    0.000181327600    0.081758712759    0.034838918595    0.000167498562    0.000216785674    0.073590488096    0.035513867546
0.425     0.066960898922    0.033581106032    0.000087596590    0.000156377237    0.078133765653    0.030171463607    0.000149475249    0.000183373359
            0.000087596578    0.000156377255    0.073786272524    0.036305963557    0.000121907938    0.000194970316    0.083471826727    0.033175678615
            0.078133763788    0.030171462886    0.000121907935    0.000194970319    0.068049541848    0.034195272468    0.000200603630    0.000218613283
            0.000149475243    0.000183373364    0.083471828235    0.033175677528    0.000200603611    0.000218613301    0.074751061680    0.037373425192
0.450     0.067683705686    0.038131856820    0.000112311867    0.000159488893    0.078885372806    0.030496727736    0.000178703505    0.000181952886
            0.000112311884    0.000159488869    0.075310751619    0.039049866856    0.000151578014    0.000197905491    0.085080545642    0.032140771241
            0.078885370408    0.030496728392    0.000151578007    0.000197905496    0.068897256213    0.038571968880    0.000235528845    0.000216451338
            0.000178703501    0.000181952889    0.085080547138    0.032140770109    0.000235528841    0.000216451343    0.076504410338    0.039972045554
0.475     0.069808934652    0.043567937442    0.000138656957    0.000159252326    0.080174890056    0.031701073357    0.000209075026    0.000176665051
            0.000138656914    0.000159252389    0.077753165711    0.042430155602    0.000183176185    0.000197153419    0.086861056141    0.031729737829
            0.080174890056    0.031701073357    0.000183176171    0.000197153432    0.071104259007    0.043805153481    0.000271804120    0.000209848018
            0.000209075020    0.000176665058    0.086861059128    0.031729735483    0.000271804120    0.000209848018    0.079140695390    0.043153306995
0.500     0.073675952746    0.049507808602    0.000166228519    0.000155206402    0.082351502030    0.033595301078    0.000240104166    0.000167110012
            0.000166228471    0.000155206439    0.081377404202    0.046200650346    0.000216334302    0.000192153937    0.089086341863    0.031858119174
            0.082351497494    0.033595304257    0.000216334334    0.000192153946    0.075002401080    0.049524334058    0.000308903783    0.000198348885
            0.000240104172    0.000167110004    0.089086341863    0.031858119174    0.000308903741    0.000198348912    0.082910270897    0.046679928806
0.525     0.079512652968    0.055468695983    0.000194408098    0.000146969474    0.085696317052    0.035882746575    0.000271112411    0.000152990155
            0.000194408092    0.000146969465    0.086376710743    0.050036977957    0.000250429933    0.000182416021    0.091993251203    0.032357158005
            0.085696312406    0.035882749903    0.000250429954    0.000182416010    0.080815227740    0.055260774882    0.000346094142    0.000181600724
            0.000271112405    0.000152990145    0.091993254219    0.032357155457    0.000346094102    0.000181600757    0.087995269790    0.050240672260
0.550     0.087415962642    0.060905736472    0.000222522575    0.000134221916    0.090402129926    0.038188693519    0.000301370964    0.000134086430
            0.000222522574    0.000134221937    0.092859667194    0.053561820439    0.000284759805    0.000167485740    0.095770011986    0.032992089150
            0.090402129926    0.038188693519    0.000284759816    0.000167485760    0.088639077776    0.060483784241    0.000382577061    0.000159329111
            0.000301370964    0.000134086430    0.095770023168    0.032992087392    0.000382577072    0.000159329060    0.094496833978    0.053473440558
0.575     0.097326837456    0.065245607254    0.000249711436    0.000116829188    0.096541543997    0.040083097089    0.000329997017    0.000110376668
            0.000249711436    0.000116829188    0.100828920247    0.056364178579    0.000318384843    0.000147103406    0.100527286831    0.033472286015
            0.096541543997    0.040083097089    0.000318384850    0.000147103415    0.098418702380    0.064635443821    0.000417384233    0.000131467046
            0.000329997008    0.000110376664    0.100527298656    0.033472282156    0.000417384221    0.000131467051    0.102414568099    0.055984954087
0.600     0.109035919135    0.067935437185    0.000275107350    0.000094802153    0.104067637201    0.041124760779    0.000356120126    0.000081991809
            0.000275107360    0.000094802092    0.110182814872    0.058032251155    0.000350330548    0.000121155507    0.106296972674    0.033480366464
            0.104067634330    0.041124768044    0.000350330597    0.000121155455    0.109952031654    0.067175889084    0.000449544504    0.000098110196
            0.000356120144    0.000081991820    0.106296985718    0.033480358337    0.000449544482    0.000098110249    0.111647857510    0.057381177911
0.625     0.122182677880    0.068482680891    0.000297762945    0.000068420516    0.112801755714    0.040890695122    0.000378822736    0.000049322789
            0.000297762922    0.000068420527    0.120706911272    0.058179901199    0.000379491400    0.000089825402    0.113013679336    0.032690098487
            0.112801755000    0.040890697091    0.000379491410    0.000089825404    0.122890058944    0.067623063583    0.000478025016    0.000059632307
            0.000378822732    0.000049322821    0.113013680477    0.032690094542    0.000478025012    0.000059632340    0.121988881477    0.057292693787
0.650     0.136290471664    0.066494942625    0.000316835452    0.000038137805    0.122461775839    0.039017758068    0.000397314790    0.000012928842
            0.000316835442    0.000038137801    0.132095415961    0.056476239071    0.000404848654    0.000053496283    0.120531147209    0.030798223818
            0.122461775839    0.039017758068    0.000404848654    0.000053496278    0.136769276430    0.065592829687    0.000501918984    0.000016597720
            0.000397314758    0.000012928910    0.120531150434    0.030798211196    0.000501918962    0.000016597791    0.133141833761    0.055404025442
0.675     0.150784813467    0.061708178960    0.000331547397    0.000004677446    0.132667071023    0.035224198376    0.000410891428    -0.000026384371
            0.000331547386    0.000004677495    0.143956181261    0.052669043047    0.000425410171    0.000012869472    0.128616085699    0.027541854324
            0.132667069178    0.035224205322    0.000425410183    0.000012869428    0.151031049925    0.060824844800    0.000520392823    -0.000030160864
            0.000410891426    -0.000026384410    0.128616086661    0.027541849834    0.000520392823    -0.000030160869    0.144728641214    0.051474865020
0.700     0.165046683111    0.054003525575    0.000341344408    -0.000031119988    0.142985535864    0.029333389746    0.000419086349    -0.000067712754
            0.000341344399    -0.000031119982    0.155846503023    0.046601761495    0.000440409791    -0.000031198719    0.136980001126    0.022721722238
            0.142985535864    0.029333389746    0.000440409791    -0.000031198719    0.165071389526    0.053199973670    0.000532866566    -0.000079689719
            0.000419086361    -0.000067712683    0.136980001166    0.022721721999    0.000532866566    -0.000079689720    0.156322952109    0.045356988158
0.725     0.178437615115    0.043414348892    0.000345854109    -0.000068236421    0.152943952516    0.021277585843    0.000421619646    -0.000110003838
            0.000345854103    -0.000068236451    0.167287020391    0.038226017657    0.000449247928    -0.000077615310    0.145279407611    0.016211074932
            0.152943951922    0.021277590114    0.000449247937    -0.000077615319    0.178267900753    0.042746741705    0.000538946520    -0.000130863313
            0.000421619656    -0.000110003801    0.145279408036    0.016211071129    0.000538946526    -0.000130863245    0.167463901372    0.037004829699
0.750     0.190351169307    0.030115913015    0.000344983784    -0.000105662655    0.162077087299    0.011101177286    0.000418494066    -0.000152232544
            0.000344983758    -0.000105662740    0.177801578594    0.027599670631    0.000451630658    -0.000125258410    0.153156884672    0.007966410899
            0.162077086757    0.011101185207    0.000451630694    -0.000125258318    0.190026903915    0.029633346294    0.000538543907    -0.000182568409
            0.000418494076    -0.000152232548    0.153156884644    0.007966411434    0.000538543904    -0.000182568418    0.177693127500    0.026476261370
0.775     0.200232786100    0.014415805445    0.000338858550    -0.000142349704    0.169934145744    -0.001050061983    0.000409920021    -0.000193358654
            0.000338858540    -0.000142349728    0.186930674479    0.014887358657    0.000447492983    -0.000172908614    0.160239954751    -0.001975366024
            0.169934145745    -0.001050061805    0.000447492956    -0.000172908657    0.199805115082    0.014156186098    0.000531789987    -0.000233659799
            0.000409920017    -0.000193358661    0.160239954659    -0.001975373491    0.000531790003    -0.000233659761    0.186569106488    0.013930420944
0.800     0.207614762456    -0.003271736836    0.000327856859    -0.000177384555    0.176116431660    -0.014938726369    0.000396355744    -0.000232493382
            0.000327856847    -0.000177384556    0.194264762386    0.000345712718    0.000437063859    -0.000219455789    0.166181471813    -0.013496462043
