# GHz S RI R 45
0.000     0.031533376000    0.000000000000    -0.000031876932    0.000000000000    0.001006800700    0.000000000000    -0.000039827565    0.000000000000
            -0.000031876943    0.000000000000    0.031360066000    0.000000000000    -0.000003520057    0.000000000000    0.000886343980    0.000000000000
            0.001006792600    0.000000000000    -0.000003520015    0.000000000000    0.031348610000    0.000000000000    -0.000023889439    0.000000000000
            -0.000039827647    0.000000000000    0.000886309560    0.000000000000    -0.000023889465    0.000000000000    0.031228049000    0.000000000000
0.025     0.061330695386    -0.004879148408    -0.000005338726    0.000020688688    0.010128257251    0.004422314371    0.000000381640    0.000039398153
            -0.000005338729    0.000020688686    0.060960548199    -0.005936642516    -0.000012227685    0.000011548606    0.010477756373    0.004319152040
            0.010128221268    0.004422321811    -0.000012227688    0.000011548601    0.061289497554    -0.004970341132    -0.000010896560    0.000014370218
            0.000000381647    0.000039398152    0.010477731360    0.004319154993    -0.000010896553    0.000014370218    0.061130167384    -0.006075306081
0.050     0.025138581470    -0.011633793726    0.000021998563    -0.000018971882    -0.009225396285    0.010773869966    0.000045053190    -0.000013507109
            0.000021998561    -0.000018971882    0.022460531597    -0.013798707521    0.000017235538    -0.000022221270    -0.009702500476    0.009610038812
            -0.009225426429    0.010773882333    0.000017235558    -0.000022221174    0.024957912761    -0.011766345266    0.000020409276    -0.000017456386
            0.000045053194    -0.000013507111    -0.009702523526    0.009610048223    0.000020409298    -0.000017456393    0.022328084240    -0.013960062052
0.075     0.045453118309    0.034880821430    -0.000035397587    -0.000046986076    0.016628646601    0.052545554200    -0.000018330825    -0.000057803620
            -0.000035397588    -0.000046986077    0.041941205070    0.035980899542    -0.000040757033    -0.000047138132    0.015046426017    0.052726409141
            0.016628621212    0.052545566430    -0.000040757002    -0.000047138112    0.045162817132    0.034954907377    -0.000034649261    -0.000058903379
            -0.000018330789    -0.000057803646    0.015046406772    0.052726421912    -0.000034649243    -0.000058903395    0.041776533374    0.035969564837
0.100     0.084350130606    -0.007419360558    -0.000050548166    0.000014263667    0.054969651515    0.012186007281    -0.000042073366    0.000003729399
            -0.000050548172    0.000014263669    0.084285576064    -0.008496329440    -0.000051945632    0.000012164619    0.054997114420    0.012281732998
            0.054969629050    0.012186025452    -0.000051945627    0.000012164628    0.084347383219    -0.007186760218    -0.000065673042    0.000005287215
            -0.000042073335    0.000003729485    0.054997091923    0.012281751152    -0.000065673012    0.000005287294    0.084264948545    -0.008376761344
0.125     0.031136475718    -0.015463079206    0.000004116461    -0.000010348140    0.000953675440    0.009645070203    0.000012818892    -0.000023089343
            0.000004116457    -0.000010348140    0.023798488286    -0.020481871290    -0.000001798276    -0.000012075105    -0.001051079052    0.008136514528
            0.000953656779    0.009645096366    -0.000001798282    -0.000012075106    0.031305982934    -0.015480506275    -0.000002963097    -0.000010639243
            0.000012818894    -0.000023089349    -0.001051094496    0.008136535724    -0.000002963091    -0.000010639242    0.024043111650    -0.020574661755
0.150     0.069059551192    0.038246132336    -0.000075931643    -0.000050485586    0.046071871179    0.073304450498    -0.000076086597    -0.000069678855
            -0.000075931650    -0.000050485572    0.058298668706    0.044027832805    -0.000074540277    -0.000049366175    0.041283866710    0.075556000767
            0.046071857841    0.073304471872    -0.000074540271    -0.000049366171    0.069072774348    0.038204497269    -0.000086396715    -0.000065184941
            -0.000076086604    -0.000069678861    0.041283851126    0.075556016120    -0.000086396711    -0.000065184962    0.058222673421    0.043820722499
0.175     0.113181194146    -0.030604489425    -0.000101159458    0.000055334592    0.102891735490    -0.001270563706    -0.000112905916    0.000042645733
            -0.000101159448    0.000055334632    0.112851458436    -0.026168551216    -0.000101431300    0.000043878300    0.102612555301    0.001432223145
            0.102891725810    -0.001270537669    -0.000101431288    0.000043878253    0.113460617792    -0.030633778024    -0.000129919370    0.000051488298
            -0.000112905916    0.000042645733    0.102612544935    0.001432249279    -0.000129919389    0.000051488306    0.113016367156    -0.026197695397
0.200     0.042363437476    -0.049001044380    -0.000001559187    0.000051789785    0.021221478827    -0.023045235879    -0.000011269450    0.000047053499
            -0.000001559194    0.000051789783    0.031801899696    -0.053039175546    -0.000013356882    0.000046813560    0.017202856089    -0.024583165025
            0.021221475038    -0.023045206742    -0.000013356891    0.000046813559    0.042505617053    -0.049463932839    -0.000017966216    0.000061254407
            -0.000011269450    0.000047053499    0.017202860357    -0.024583140069    -0.000017966121    0.000061254282    0.031879866046    -0.053567548058
0.225     0.072658964189    0.006447438205    -0.000075608691    -0.000015968440    0.063942562648    0.048135038393    -0.000088078265    -0.000025025098
            -0.000075608691    -0.000015968440    0.055579611524    0.021102059442    -0.000077115015    -0.000018639788    0.056237006062    0.057873910049
            0.063942562664    0.048135071626    -0.000077115015    -0.000018639774    0.072446117453    0.006410367910    -0.000094078605    -0.000020777771
            -0.000088078267    -0.000025025099    0.056237009132    0.057873929376    -0.000094078607    -0.000020777840    0.055161693677    0.021026466044
0.250     0.115064236202    -0.065942318665    -0.000107118224    0.000114604509    0.127818678360    -0.033218128113    -0.000132074639    0.000114480700
            -0.000107118224    0.000114604509    0.117883564311    -0.050202777199    -0.000118644441    0.000099718528    0.128905557166    -0.026381433787
            0.127818677958    -0.033218089904    -0.000118644434    0.000099718521    0.115621583355    -0.065828796208    -0.000144803831    0.000126130960
            -0.000132074647    0.000114480707    0.128905562691    -0.026381406789    -0.000144803846    0.000126130973    0.118256155589    -0.050016433576
0.275     0.036149208904    -0.097987434629    0.000033563490    0.000126766742    0.027995688583    -0.075197350812    0.000015897051    0.000142636398
            0.000033563488    0.000126766743    0.027588455476    -0.098507269925    0.000011892937    0.000129091803    0.024167579961    -0.075092668617
            0.027995693234    -0.075197335208    0.000011892900    0.000129091796    0.036715291200    -0.098772989834    0.000015813566    0.000158690754
            0.000015897072    0.000142636346    0.024167589170    -0.075092647794    0.000015813570    0.000158690764    0.027945478796    -0.099230629846
0.300     0.037696899116    -0.040153109863    -0.000016426667    0.000009189119    0.039747360264    0.012101881459    -0.000026916523    0.000017781426
            -0.000016426666    0.000009189130    0.019709282765    -0.016305582762    -0.000022479051    0.000012089404    0.031895703842    0.023267257488
            0.039747358984    0.012101878795    -0.000022479053    0.000012089410    0.037580117646    -0.040622220553    -0.000027083536    0.000022744560
            -0.000026916529    0.000017781423    0.031895720777    0.023267281783    -0.000027083532    0.000022744549    0.019390139441    -0.016589528502
0.325     0.075894292606    -0.090242303909    -0.000073853546    0.000149348928    0.110942950760    -0.062643579610    -0.000098528199    0.000163924795
            -0.000073853551    0.000149349004    0.087061801584    -0.064364285116    -0.000094601875    0.000144341885    0.115207152972    -0.052948833382
            0.110942940959    -0.062643576629    -0.000094601822    0.000144341860    0.076521434350    -0.090580060428    -0.000105629421    0.000178540959
            -0.000098528240    0.000163924864    0.115207182235    -0.052948817605    -0.000105629446    0.000178541002    0.087583158903    -0.064585807654
0.350     0.004390903797    -0.134051896696    0.000104894247    0.000168998378    0.008954317073    -0.122674465095    0.000092480719    0.000205751040
            0.000104894317    0.000168998358    0.005153498419    -0.131858049576    0.000083799727    0.000189450663    0.006654068439    -0.121110353183
            0.008954314932    -0.122674465252    0.000083799733    0.000189450650    0.004681707750    -0.135353046733    0.000103010599    0.000225018787
            0.000092480802    0.000205751025    0.006654148134    -0.121110298729    0.000103010604    0.000225018807    0.005152553160    -0.133043602561
0.375     -0.024510833245    -0.082159562373    0.000083431007    -0.000004498698    -0.021291309137    -0.028783658875    0.000089919863    0.000018081575
            0.000083430990    -0.000004498728    -0.049561935505    -0.036561911897    0.000084550643    0.000009642721    -0.026514089942    -0.013376866649
            -0.021291267305    -0.028783633845    0.000084550630    0.000009642722    -0.024473326360    -0.082704838640    0.000101620432    0.000021984943
            0.000089919861    0.000018081579    -0.026514089942    -0.013376866649    0.000101620443    0.000021984940    -0.050300202135    -0.036999408383
0.400     0.006454646839    -0.075533686325    -0.000036828926    0.000127116457    0.057113074289    -0.060010086658    -0.000050899207    0.000147385856
            -0.000036828882    0.000127116553    0.028697998961    -0.044675472681    -0.000053231404    0.000135693667    0.066345271844    -0.048176070510
            0.057113071863    -0.060010086206    -0.000053231354    0.000135693611    0.007239179978    -0.075880596131    -0.000047932612    0.000161044609
            -0.000050899207    0.000147385856    0.066345365641    -0.048176051963    -0.000047932612    0.000161044609    0.029409268047    -0.044896995615
0.425     -0.040695197913    -0.129140114554    0.000185636163    0.000161126965    -0.028522913970    -0.135675626503    0.000186654371    0.000210040575
            0.000185636197    0.000161126972    -0.028987692159    -0.128251285950    0.000181994479    0.000196958550    -0.030143519498    -0.133505913551
            -0.028522911913    -0.135675616717    0.000181994482    0.000196958547    -0.040302926067    -0.130908982970    0.000213410890    0.000227538015
            0.000186654372    0.000210040561    -0.030143519498    -0.133505913551    0.000213410966    0.000227538040    -0.028992059482    -0.129785051252
0.450     -0.121365950835    -0.072102316760    0.000168481357    -0.000069863435    -0.101504839359    -0.039848383446    0.000198583399    -0.000045691828
            0.000168481348    -0.000069863432    -0.126418806512    -0.046872127000    0.000190197222    -0.000054466142    -0.104541018718    -0.022269036268
            -0.101504741674    -0.039848385990    0.000190197212    -0.000054466143    -0.122010395782    -0.073123559698    0.000226464920    -0.000053281630
            0.000198583361    -0.000045691903    -0.104541018718    -0.022269036268    0.000226464920    -0.000053281630    -0.127130853464    -0.047371650703
0.475     -0.081366906603    -0.007138515861    -0.000031371221    0.000038900407    -0.011993964523    -0.007734439528    -0.000033481141    0.000049823579
            -0.000031371195    0.000038900430    -0.034934189617    0.035320265882    -0.000032423922    0.000049022795    0.001700391689    0.002109438049
            -0.011993960143    -0.007734442631    -0.000032423917    0.000049022805    -0.080950074720    -0.007940433700    -0.000020445952    0.000051297915
            -0.000033481426    0.000049823833    0.001700438399    0.002109420947    -0.000020445946    0.000051297926    -0.034536329789    0.034442413010
0.500     -0.069011780497    -0.081145996909    0.000237423938    0.000122050500    -0.057361236490    -0.105762438394    0.000250672940    0.000171557942
            0.000237423934    0.000122050508    -0.049868217302    -0.085186964279    0.000260143692    0.000156570660    -0.058949248083    -0.103095473861
            -0.057361236490    -0.105762438394    0.000260143698    0.000156570651    -0.069146858383    -0.083125746846    0.000293157409    0.000176228695
            0.000250672931    0.000171557936    -0.058949248083    -0.103095473861    0.000293157409    0.000176228695    -0.050571354198    -0.086926470948
0.525     -0.180514762365    -0.025284882779    0.000189168062    -0.000171285784    -0.164461410097    -0.009850226470    0.000238611371    -0.000158258397
            0.000189168055    -0.000171285777    -0.178791859344    -0.006690584529    0.000232532370    -0.000172589222    -0.163332017746    0.011215768648
            -0.164461328521    -0.009850250391    0.000232532378    -0.000172589228    -0.181483860830    -0.026184136974    0.000277812650    -0.000188938739
            0.000238611326    -0.000158258374    -0.163331987816    0.011215766593    0.000277812642    -0.000188939088    -0.179851422571    -0.006987786851
0.550     -0.110665891528    0.099803681795    -0.000058763157    -0.000068514206    -0.063973543752    0.082276923685    -0.000055685687    -0.000077167888
            -0.000058763158    -0.000068514207    -0.078782012118    0.121135428166    -0.000045596699    -0.000073954982    -0.047600317284    0.092702764739
            -0.063973543752    0.082276923685    -0.000045596689    -0.000073954967    -0.110402024768    0.099023678146    -0.000038878864    -0.000097447036
            -0.000055685687    -0.000077167888    -0.047600296536    0.092702764151    -0.000038878889    -0.000097447047    -0.078606250963    0.120314332253
0.575     -0.048216535048    0.001755742508    0.000216552572    0.000092631877    -0.058924963517    -0.037275477915    0.000230805026    0.000135265915
            0.000216552575    0.000092631869    -0.027409934668    -0.008059541510    0.000257406136    0.000107594026    -0.054867724036    -0.034955376110
            -0.058924966052    -0.037275479519    0.000257406142    0.000107594012    -0.048439432101    -0.000445206244    0.000278004782    0.000119026173
            0.000230805033    0.000135265903    -0.054867687880    -0.034955460779    0.000278004785    0.000119026192    -0.028365459214    -0.009816228306
0.600     -0.190281283731    0.043922235126    0.000142577987    -0.000273690218    -0.187426585353    0.045264598779    0.000199343145    -0.000278662268
            0.000142577977    -0.000273690212    -0.184372567227    0.054258307783    0.000192811863    -0.000306593666    -0.180636153724    0.070218737969
            -0.187426533110    0.045264516921    0.000192811858    -0.000306593658    -0.191500889671    0.042772533969    0.000235641407    -0.000339052707
            0.000199343128    -0.000278662255    -0.180636153724    0.070218737969    0.000235641419    -0.000339052711    -0.185617506380    0.053812573876
0.625     -0.101109834762    0.200782254794    -0.000116001522    -0.000130143053    -0.071169036163    0.175241526419    -0.000119593628    -0.000159288447
            -0.000116001892    -0.000130142964    -0.073497100390    0.212383258208    -0.000103698965    -0.000162400416    -0.050019507373    0.184090942942
            -0.071168998535    0.175241433768    -0.000103698963    -0.000162400476    -0.101338735860    0.199838157202    -0.000113841058    -0.000204903408
            -0.000119593536    -0.000159288441    -0.050019507373    0.184090942942    -0.000113841689    -0.000204903366    -0.073957150971    0.211407982874
0.650     0.024737718136    0.081061673710    0.000119134372    0.000100928600    0.012503779805    0.039981588985    0.000120847166    0.000137077613
            0.000119134416    0.000100928563    0.042678618875    0.071061270762    0.000156720492    0.000087680368    0.012777013409    0.045259647982
            0.012503764360    0.039981581242    0.000156720499    0.000087680335    0.024052541244    0.079222449544    0.000155092873    0.000098983704
            0.000120847241    0.000137077601    0.012777004645    0.045259641104    0.000155092861    0.000098983723    0.040998550964    0.069804902904
0.675     -0.144889997675    0.092593299563    0.000077739883    -0.000332093410    -0.156767774082    0.094706235491    0.000130063455    -0.000350412931
            0.000077739875    -0.000332093402    -0.136650750578    0.098016462131    0.000112797110    -0.000396279956    -0.143007320042    0.123099790452
            -0.156767773492    0.094706197788    0.000112797108    -0.000396279946    -0.146109916997    0.091715711117    0.000147388348    -0.000435153198
            0.000130063476    -0.000350412913    -0.143007327620    0.123099796976    0.000147388393    -0.000435153204    -0.137992574244    0.098044108598
0.700     -0.040778817179    0.264416727527    -0.000191507527    -0.000121346865    -0.032953104311    0.243323371563    -0.000211810649    -0.000161781845
            -0.000191507527    -0.000121346865    -0.020195202998    0.268296808198    -0.000198716473    -0.000175751620    -0.004733761051    0.248806902177
            -0.032953104311    0.243323371563    -0.000198716473    -0.000175751620    -0.041053347529    0.263469734869    -0.000230435632    -0.000223732540
            -0.000211810649    -0.000161781845    -0.004733761051    0.248806902177    -0.000230435632    -0.000223732540    -0.020917442762    0.267599819371
0.725     0.121285922656    0.136289415145    -0.000010833257    0.000103262950    0.096010701318    0.104529446036    -0.000031351303    0.000136913552
            -0.000010833243    0.000103262941    0.134573510106    0.127877399207    0.000001302262    0.000068707701    0.100693728673    0.107622138255
            0.096010699494    0.104529447711    0.000001302314    0.000068707735    0.120572851851    0.134540815692    -0.000024400154    0.000087492040
            -0.000031351280    0.000136913558    0.100693726794    0.107622140013    -0.000024400208    0.000087492001    0.132859619347    0.127124474319
0.750     -0.068203746019    0.091783734186    0.000052258939    -0.000331545048    -0.097546084762    0.093737849642    0.000094790986    -0.000350670813
            0.000052258941    -0.000331545058    -0.058094037584    0.096839089244    0.000055838865    -0.000410613945    -0.075390929689    0.121911301822
            -0.097546119422    0.093737784709    0.000055838865    -0.000410613945    -0.069436637589    0.090764642596    0.000083809856    -0.000443577357
            0.000094790982    -0.000350670825    -0.075390983002    0.121911245337    0.000083809856    -0.000443577357    -0.059317029745    0.096958071221
0.775     0.039569590687    0.271525789497    -0.000262761409    -0.000068855940    0.029294541290    0.266413501125    -0.000302610698    -0.000108404543
            -0.000262761385    -0.000068856032    0.054655723671    0.270239525482    -0.000300353811    -0.000128265196    0.067486922526    0.265553157388
            0.029294549497    0.266413490162    -0.000300353838    -0.000128265083    0.038887107336    0.270512969508    -0.000350710459    -0.000170564008
