# GHz S RI R 45
0.000     0.031455209000    0.000000000000    0.967934510000    -0.000000000000    0.001006809600    0.000000000000    -0.001249269600    0.000000000000
            0.967934510000    -0.000000000000    0.031360066000    0.000000000000    -0.001273320500    0.000000000000    0.000886343980    0.000000000000
            0.001006753400    0.000000000000    -0.001273338900    0.000000000000    0.031441427000    0.000000000000    0.967977010000    -0.000000000000
            -0.001249292900    0.000000000000    0.000886309560    0.000000000000    0.967977010000    -0.000000000000    0.031228049000    0.000000000000
0.025     0.061296275678    -0.004971578925    0.400515222067    -0.862033788167    0.010128205796    0.004422267279    -0.005033565454    -0.000814625918
            0.400515222067    -0.862033788167    0.060960548199    -0.005936642516    -0.005020148401    -0.000808234561    0.010477756373    0.004319152040
            0.010128172263    0.004422274105    -0.005020164085    -0.000808203827    0.061323547151    -0.004877555976    0.400515385599    -0.862031738418
            -0.005033582253    -0.000814593476    0.010477731360    0.004319154993    0.400515385599    -0.862031738418    0.061130167384    -0.006075306081
0.050     0.024934862334    -0.011733088264    -0.598277296608    -0.726380617509    -0.009225504143    0.010774094890    -0.007814372717    0.007838742033
            -0.598277296608    -0.726380617509    0.022460531597    -0.013798707521    -0.007809033014    0.007827533563    -0.009702500476    0.009610038812
            -0.009225534287    0.010774107257    -0.007809012615    0.007827559564    0.025162961553    -0.011669132053    -0.598263952050    -0.726386374587
            -0.007814350253    0.007838771488    -0.009702523526    0.009610048223    -0.598263952050    -0.726386374587    0.022328084240    -0.013960062052
0.075     0.045177975904    0.034996083686    -0.903518268650    0.220137571487    0.016629169529    0.052545500940    0.007864257229    0.014772823339
            -0.903518268650    0.220137571487    0.041941205070    0.035980899542    0.007852879362    0.014764481400    0.015046426017    0.052726409141
            0.016629144442    0.052545514124    0.007852912100    0.014764476447    0.045436495275    0.034839227882    -0.903527373778    0.220114731588
            0.007864292049    0.014772817264    0.015046406772    0.052726421912    -0.903527373778    0.220114731588    0.041776533374    0.035969564837
0.100     0.084265799085    -0.007195807604    -0.198769495561    0.901080306763    0.054969027180    0.012185219659    0.017680373442    -0.000527474406
            -0.198769495561    0.901080306763    0.084285576064    -0.008496329440    0.017671303707    -0.000516216788    0.054997114420    0.012281732998
            0.054969003738    0.012185237613    0.017671313777    -0.000516248754    0.084438991926    -0.007407813697    -0.198796586549    0.901077515117
            0.017680383467    -0.000527507258    0.054997091923    0.012281751152    -0.198796586549    0.901077515117    0.084264948545    -0.008376761344
0.125     0.031157016839    -0.015311825410    0.721916130370    0.568883289631    0.000953067136    0.009646583171    0.014076375548    -0.019988355186
            0.721916130370    0.568883289631    0.023798488286    -0.020481871290    0.014090033203    -0.019983584210    -0.001051079052    0.008136514528
            0.000953048470    0.009646609333    0.014090008061    -0.019983609279    0.031286868829    -0.015640335532    0.721893806340    0.568922619879
            0.014076352263    -0.019988377700    -0.001051094496    0.008136535724    0.721893806340    0.568922619879    0.024043111650    -0.020574661755
0.150     0.069075614766    0.038337922334    0.814931547913    -0.396117202684    0.046073950985    0.073304033867    -0.020919621530    -0.024854081241
            0.814931547913    -0.396117202684    0.058298668706    0.044027832805    -0.020925433116    -0.024859435813    0.041283866710    0.075556000767
            0.046073937115    0.073304054395    -0.020925466877    -0.024859423080    0.069057543563    0.038112152385    0.814972720116    -0.396099039912
            -0.020919644677    -0.024854073522    0.041283851126    0.075556016120    0.814972720116    -0.396099039912    0.058222673421    0.043820722499
0.175     0.113210788563    -0.030581341456    0.010570054758    -0.897715274154    0.102889628611    -0.001272725622    -0.027284628840    0.010181064110
            0.010570054758    -0.897715274154    0.112851458436    -0.026168551216    -0.027291001949    0.010188440187    0.102612555301    0.001432223145
            0.102889618932    -0.001272699585    -0.027291007206    0.010188474712    0.113448388228    -0.030656658582    0.010591968013    -0.897719786203
            -0.027284634106    0.010181098625    0.102612544935    0.001432249279    0.010591968013    -0.897719786203    0.113016367156    -0.026197695397
0.200     0.042235924978    -0.049017041220    -0.804166103236    -0.405184013847    0.021220012448    -0.023041737172    -0.012198493326    0.029240562869
            -0.804166103236    -0.405184013847    0.031801899696    -0.053039175546    -0.012176434367    0.029260554698    0.017202856089    -0.024583165025
            0.021220008656    -0.023041708036    -0.012176411138    0.029260570864    0.042645996645    -0.049477248471    -0.804144773925    -0.405237853858
            -0.012198465400    0.029240582104    0.017202860357    -0.024583140069    -0.804144773925    -0.405237853858    0.031879866046    -0.053567548058
0.225     0.072486221868    0.006698213959    -0.704524720657    0.543307120152    0.063946980487    0.048134576815    0.032353691946    0.030366151401
            -0.704524720657    0.543307120152    0.055579611524    0.021102059442    0.032370524283    0.030321526717    0.056237006062    0.057873910049
            0.063946981303    0.048134610650    0.032370559702    0.030321507920    0.072604329838    0.006154733921    -0.704580829077    0.543299403828
            0.032353722226    0.030366135212    0.056237009132    0.057873929376    -0.704580829077    0.543299403828    0.055161693677    0.021026466044
0.250     0.115209360402    -0.065628921539    0.167469441779    0.859838701530    0.127814531239    -0.033222396753    0.036459377017    -0.022723684043
            0.167469441779    0.859838701530    0.117883564311    -0.050202777199    0.036416148695    -0.022726230478    0.128905557166    -0.026381433787
            0.127814530838    -0.033222358545    0.036416148099    -0.022726265431    0.115511344204    -0.066139612982    0.167456910706    0.859841620923
            0.036459376825    -0.022723718381    0.128905562691    -0.026381406789    0.167456910706    0.859841620923    0.118256155589    -0.050016433576
0.275     0.036405060320    -0.097944282429    0.847298661147    0.236285945683    0.027993304795    -0.075190691013    0.003395847269    -0.037706400416
            0.847298661147    0.236285945683    0.027588455476    -0.098507269925    0.003393714148    -0.037688134118    0.024167579961    -0.075092668617
            0.027993310758    -0.075190674921    0.003393691275    -0.037688145214    0.036474628231    -0.098875661542    0.847262532707    0.236346953444
            0.003395815440    -0.037706415331    0.024167589170    -0.075092647794    0.847262532707    0.236346953444    0.027945478796    -0.099230629846
0.300     0.037751405537    -0.040143328906    0.577426395507    -0.661967799616    0.039754692844    0.012101106406    -0.039825668104    -0.031794131649
            0.577426407061    -0.661967789538    0.019709282765    -0.016305582762    -0.039827143833    -0.031772951524    0.031895703842    0.023267257488
            0.039754692521    0.012101104034    -0.039827172268    -0.031772928709    0.037494974720    -0.040638133200    0.577498615958    -0.661950487382
            -0.039825696553    -0.031794108837    0.031895720777    0.023267281783    0.577498604405    -0.661950497462    0.019390139441    -0.016589528502
0.325     0.076010989808    -0.090179255071    -0.333917678294    -0.794841418185    0.110936562490    -0.062650174215    -0.047137527221    0.033509843887
            -0.333917678294    -0.794841418185    0.087061801584    -0.064364285116    -0.047116058132    0.033517896966    0.115207152972    -0.052948833382
            0.110936561397    -0.062650176151    -0.047116051990    0.033517929751    0.076455504090    -0.090646457417    -0.333903654262    -0.794844554601
            -0.047137521086    0.033509876680    0.115207182235    -0.052948817605    -0.333903654262    -0.794844554601    0.087583158903    -0.064585807654
0.350     0.004462344228    -0.134109790931    -0.854693568198    -0.061767962150    0.008951174287    -0.122663755448    0.010262105304    0.050679874574
            -0.854693578172    -0.061767962871    0.005153498419    -0.131858049576    0.010286453929    0.050679572784    0.006654068439    -0.121110353183
            0.008951171419    -0.122663745630    0.010286485217    0.050679581739    0.004619242570    -0.135386200938    -0.854624738054    -0.061838407749
            0.010262137272    0.050679882385    0.006654148134    -0.121110298729    -0.854624738054    -0.061838407749    0.005152553160    -0.133043602561
0.375     -0.024075858937    -0.082049759059    -0.434318894340    0.745455371900    -0.021280474375    -0.028785295769    0.049597343471    0.024773824086
            -0.434318894340    0.745455371900    -0.049561935505    -0.036561911897    0.049593313729    0.024736001467    -0.026514089942    -0.013376866649
            -0.021280432552    -0.028785270726    0.049593332977    0.024735980802    -0.024959066463    -0.082822664623    -0.434428855424    0.745375206730
            0.049597367118    0.024773799123    -0.026514089942    -0.013376866649    -0.434428860460    0.745375215370    -0.050300202135    -0.036999408383
0.400     0.006730246397    -0.075274969192    0.481574457530    0.706122622160    0.057104870548    -0.060019092784    0.055763334936    -0.043381120134
            0.481574457530    0.706122622160    0.028697998961    -0.044675472681    0.055695301947    -0.043407694943    0.066345271844    -0.048176070510
            0.057104868122    -0.060019092332    0.055695289317    -0.043407724162    0.007024871338    -0.076151534190    0.481528496777    0.706175618511
            0.055763322322    -0.043381149378    0.066345365641    -0.048176051963    0.481528496777    0.706175618511    0.029409268047    -0.044896995615
0.425     -0.040296688423    -0.129303607378    0.830497406400    -0.114415826224    -0.028527129691    -0.135660750795    -0.026508597185    -0.069311180645
            0.830497406599    -0.114415824774    -0.028987692159    -0.128251285950    -0.026538946996    -0.069257146473    -0.030143519498    -0.133505913551
            -0.028527127634    -0.135660741009    -0.026538976538    -0.069257151216    -0.040708707267    -0.130866070890    0.830430019200    -0.114315310827
            -0.026508626381    -0.069311184468    -0.030143519498    -0.133505913551    0.830430019000    -0.114315312276    -0.028992059482    -0.129785051252
0.450     -0.121345079230    -0.072367907389    0.274032282758    -0.790194269645    -0.101489625585    -0.039851999041    -0.065973766272    -0.006576474990
            0.274032296550    -0.790194264862    -0.126418806512    -0.046872127000    -0.065951845106    -0.006538695508    -0.104541018718    -0.022269036268
            -0.101489527901    -0.039852001573    -0.065951860325    -0.006538673769    -0.122105126904    -0.072866667609    0.274236603379    -0.790082323378
            -0.065973782498    -0.006576453349    -0.104541018718    -0.022269036268    0.274236603379    -0.790082323378    -0.127130853464    -0.047371650703
0.475     -0.081349174376    -0.007181143489    -0.595827401937    -0.594963650972    -0.012004531345    -0.007745573533    -0.051093594102    0.054263058028
            -0.595827401937    -0.594963650972    -0.034934189617    0.035320265882    -0.051056737156    0.054273144845    0.001700391689    0.002109438049
            -0.012004526961    -0.007745576639    -0.051056708859    0.054273190687    -0.080904567326    -0.007918278071    -0.595769765025    -0.595165315703
            -0.051093574601    0.054263094245    0.001700438399    0.002109420947    -0.595769765025    -0.595165315703    -0.034536329789    0.034442413010
0.500     -0.068836236003    -0.081290116330    -0.777446132745    0.280709705499    -0.057367010136    -0.105744016635    0.044575799794    0.085962122973
            -0.777446132745    0.280709705499    -0.049868217302    -0.085186964279    0.044628578482    0.085927205633    -0.058949248083    -0.103095473861
            -0.057367010136    -0.105744016635    0.044628578482    0.085927205633    -0.069355809736    -0.083124972693    -0.777440921173    0.280616413515
            0.044575799794    0.085962122973    -0.058949248083    -0.103095473861    -0.777440921173    0.280616413515    -0.050571354198    -0.086926470948
0.525     -0.180567633133    -0.025429994158    -0.102252726614    0.798186070327    -0.164441262084    -0.009856278196    0.089611243779    -0.021184704832
            -0.102252740545    0.798186068542    -0.178791859344    -0.006690584529    0.089607256217    -0.021262074473    -0.163332017746    0.011215768648
            -0.164441168804    -0.009856330212    0.089607251493    -0.021262068396    -0.181528226461    -0.026043106932    -0.102539621927    0.798076914970
            0.089611276208    -0.021184771950    -0.163331987816    0.011215766593    -0.102539621927    0.798076914970    -0.179851422571    -0.006987786851
0.550     -0.110620438311    0.099871623620    0.669127834810    0.463481026622    -0.063988756839    0.082264395860    0.026286869801    -0.070966048134
            0.669127834810    0.463481026622    -0.078782012118    0.121135428166    0.026198957252    -0.071003512136    -0.047600317284    0.092702764739
            -0.063988750699    0.082264387967    0.026198911906    -0.071003580031    -0.110394018831    0.098932495003    0.669105939299    0.463835978424
            0.026286871039    -0.070966047675    -0.047600296536    0.092702764151    0.669105939299    0.463835978424    -0.078606250963    0.120314332253
0.575     -0.047852836910    0.001447248243    0.703128294622    -0.418358551198    -0.058931806319    -0.037254767154    -0.059890515863    -0.086866252168
            0.703128294622    -0.418358551198    -0.027409934668    -0.008059541510    -0.059997167541    -0.086763373158    -0.054867724036    -0.034955376110
            -0.058931808855    -0.037254768757    -0.059997245176    -0.086763355947    -0.048866060981    -0.000290927170    0.703266060781    -0.418322331206
            -0.059890557538    -0.086866247728    -0.054867687880    -0.034955460779    0.703266060781    -0.418322331206    -0.028365459214    -0.009816228306
0.600     -0.190422225009    0.043446640927    -0.065790620952    -0.775230278203    -0.187402483940    0.045256666603    -0.109319768118    0.053424925583
            -0.065790607422    -0.775230279351    -0.184372567227    0.054258307783    -0.109217983547    0.053560470503    -0.180636153724    0.070218737969
            -0.187402431693    0.045256584755    -0.109218009743    0.053560530642    -0.191478081066    0.043256424770    -0.065469527654    -0.775215512310
            -0.109319785067    0.053425004777    -0.180636153724    0.070218737969    -0.065469541184    -0.775215511167    -0.185617506380    0.053812573876
0.625     -0.101375682288    0.200718987008    -0.703147928142    -0.316303749603    -0.071190342468    0.175228630053    0.014465788487    0.090599624024
            -0.703147928142    -0.316303749603    -0.073497100390    0.212383258208    0.014604511265    0.090538028820    -0.050019507373    0.184090942942
            -0.071190301065    0.175228528142    0.014604531526    0.090538053914    -0.101037637582    0.199882763258    -0.703244552054    -0.316777350708
            0.014465810453    0.090599649884    -0.050019507373    0.184090942942    -0.703244552054    -0.316777350708    -0.073957150971    0.211407982874
0.650     0.024803872923    0.081031798766    -0.617150446018    0.517838046635    0.012499207285    0.040004039755    0.065484499674    0.061936209286
            -0.617150446018    0.517838046635    0.042678618875    0.071061270762    0.065506932199    0.061833628288    0.012777013409    0.045259647982
            0.012499191837    0.040004032010    0.065507011680    0.061833608185    0.023900032289    0.079101960391    -0.617419193199    0.517966414673
            0.065484578123    0.061936190375    0.012777004645    0.045259641104    -0.617419193199    0.517966414673    0.040998550964    0.069804902904
0.675     -0.144995097789    0.092320948431    0.215571835565    0.735345191147    -0.156741822941    0.094698175593    0.114499094430    -0.077619944491
            0.215571835565    0.735345191147    -0.136650750578    0.098016462131    0.114394229169    -0.077770336245    -0.143007320042    0.123099790452
            -0.156741813792    0.094698132723    0.114394239048    -0.077770375074    -0.146137788537    0.092017761001    0.215349419661    0.735447233525
            0.114499104658    -0.077620018511    -0.143007327620    0.123099796976    0.215349406825    0.735447237284    -0.137992574244    0.098044108598
0.700     -0.040960889046    0.264383453411    0.711125771530    0.167348219779    -0.032978543360    0.243311317024    -0.057176293100    -0.103965850576
            0.711125768610    0.167348232191    -0.020195202998    0.268296808198    -0.057373766916    -0.103863836578    -0.004733761051    0.248806902177
            -0.032978543360    0.243311317024    -0.057373771751    -0.103863845331    -0.040853305061    0.263496486069    0.711362587620    0.167802480320
            -0.057176293100    -0.103965850576    -0.004733761051    0.248806902177    0.711362587620    0.167802480320    -0.020917442762    0.267599819371
0.725     0.121373451643    0.136205055633    0.513999597283    -0.576884648756    0.096011597035    0.104554040308    -0.070456544979    -0.015361740621
            0.513999597283    -0.576884648756    0.134573510106    0.127877399207    -0.070429997580    -0.015194671129    0.100693728673    0.107622138255
            0.096011595210    0.104554041984    -0.070429997580    -0.015194671129    0.120390416430    0.134496616493    0.514323600094    -0.577178782496
            -0.070456583560    -0.015361723269    0.100693726794    0.107622140013    0.514323600094    -0.577178782496    0.132859619347    0.127124474319
0.750     -0.068406861721    0.091396834283    -0.343750233552    -0.689519291578    -0.097521196641    0.093731318736    -0.104829270973    0.082298004902
            -0.343750113208    -0.689519351574    -0.058094037584    0.096839089244    -0.104651032129    0.082463266733    -0.075390929689    0.121911301822
            -0.097521238509    0.093731260744    -0.104651032129    0.082463266733    -0.069370500808    0.091206783449    -0.343692453756    -0.689726851427
            -0.104829285337    0.082297986606    -0.075390983002    0.121911245337    -0.343692453756    -0.689726851427    -0.059317029745    0.096958071221
0.775     0.039073163044    0.271523151228    -0.707211324745    -0.025141887264    0.029269583699    0.266402733440    0.087034787635    0.106502141963
            -0.707211324745    -0.025141887264    0.054655723671    0.270239525482    0.087271944762    0.106225620166    0.067486922526    0.265553157388
            0.029269587257    0.266402722988    0.087271946616    0.106225618643    0.039393087197    0.270523898658    -0.707599576579    -0.025435402608
