# GHz S RI R 45
0.000     0.031196965000    0.000000000000    0.000003889815    0.000000000000    0.000897989040    0.000000000000    -0.000024835572    0.000000000000
            0.000003889968    0.000000000000    0.031360066000    0.000000000000    0.000011350659    0.000000000000    0.000886343980    0.000000000000
            0.000897991730    0.000000000000    0.000011352725    0.000000000000    0.031216091000    0.000000000000    -0.000037333087    0.000000000000
            -0.000024835483    0.000000000000    0.000886309560    0.000000000000    -0.000037333225    0.000000000000    0.031228049000    0.000000000000
0.025     0.060784466738    -0.006799015894    -0.000109592495    -0.000039106828    0.010748753944    0.003629668517    -0.000115450846    -0.000023470988
            -0.000109592486    -0.000039106825    0.060960548199    -0.005936642516    -0.000120452107    -0.000042781207    0.010477756373    0.004319152040
            0.010748754067    0.003629671276    -0.000120452036    -0.000042781347    0.060794998038    -0.006840414401    -0.000103999419    -0.000034934859
            -0.000115450846    -0.000023470988    0.010477731360    0.004319154993    -0.000103999471    -0.000034934735    0.061130167384    -0.006075306081
0.050     0.021273142492    -0.013807237818    -0.000168614908    0.000163466164    -0.010687022796    0.008851179616    -0.000173569548    0.000183104814
            -0.000168614887    0.000163466201    0.022460531597    -0.013798707521    -0.000174484473    0.000174134551    -0.009702500476    0.009610038812
            -0.010687022026    0.008851178978    -0.000174484520    0.000174134476    0.021221747835    -0.013953770427    -0.000197863984    0.000167493912
            -0.000173569605    0.000183104747    -0.009702523526    0.009610048223    -0.000197863955    0.000167493946    0.022328084240    -0.013960062052
0.075     0.042567460905    0.036250730904    0.000151022936    0.000306099600    0.015013937399    0.053026442120    0.000175226600    0.000331290328
            0.000151022988    0.000306099597    0.041941205070    0.035980899542    0.000152576273    0.000321975859    0.015046426017    0.052726409141
            0.015013936473    0.053026442382    0.000152576093    0.000321975900    0.042399551792    0.036221784799    0.000143912279    0.000366196115
            0.000175226639    0.000331290318    0.015046406772    0.052726421912    0.000143912401    0.000366196089    0.041776533374    0.035969564837
0.100     0.084185306391    -0.010277034706    0.000377448218    0.000006818464    0.055457701319    0.010572370324    0.000418478970    -0.000008141579
            0.000377448218    0.000006818466    0.084285576064    -0.008496329440    0.000406349511    0.000011079887    0.054997114420    0.012281732998
            0.055457702117    0.010572371479    0.000406349466    0.000011080064    0.084244689444    -0.010199177312    0.000462528889    0.000037019351
            0.000418478970    -0.000008141576    0.054997091923    0.012281751152    0.000462528889    0.000037019351    0.084264948545    -0.008376761344
0.125     0.022814721317    -0.020192074621    0.000295638589    -0.000432966212    -0.002860964787    0.006913740161    0.000302923392    -0.000482933057
            0.000295638583    -0.000432966204    0.023798488286    -0.020481871290    0.000302576450    -0.000453839901    -0.001051079052    0.008136514528
            -0.002860964252    0.006913738868    0.000302576570    -0.000453839773    0.023000762271    -0.020368226558    0.000358046201    -0.000509647836
            0.000302923429    -0.000482933022    -0.001051094496    0.008136535724    0.000358046130    -0.000509647886    0.024043111650    -0.020574661755
0.150     0.060216217540    0.043516614925    -0.000439852805    -0.000509033499    0.040971613278    0.075883093194    -0.000490367642    -0.000543064446
            -0.000439852805    -0.000509033499    0.058298668706    0.044027832805    -0.000435298288    -0.000539938147    0.041283866710    0.075556000767
            0.040971611953    0.075883093909    -0.000435298156    -0.000539938177    0.060257423082    0.043316169610    -0.000476955490    -0.000625786510
            -0.000490367622    -0.000543064424    0.041283851126    0.075556016120    -0.000476955612    -0.000625786443    0.058222673421    0.043820722499
0.175     0.112599282595    -0.028493186441    -0.000579132304    0.000204782270    0.102825055880    0.000083765697    -0.000635322409    0.000243316914
            -0.000579132285    0.000204782263    0.112851458436    -0.026168551216    -0.000640968736    0.000194141606    0.102612555301    0.001432223145
            0.102825055887    0.000083758136    -0.000640968722    0.000194141480    0.112875645097    -0.028705769465    -0.000745678694    0.000203747170
            -0.000635322399    0.000243316910    0.102612544935    0.001432249279    -0.000745678707    0.000203747313    0.113016367156    -0.026197695397
0.200     0.032543033709    -0.052097167634    -0.000256633407    0.000648163156    0.016469782559    -0.025318951862    -0.000243769064    0.000715064504
            -0.000256633403    0.000648163147    0.031801899696    -0.053039175546    -0.000262716146    0.000698139434    0.017202856089    -0.024583165025
            0.016469783105    -0.025318952701    -0.000262716149    0.000698139443    0.032694555391    -0.052739625550    -0.000301028498    0.000805401251
            -0.000243769064    0.000715064504    0.017202860357    -0.024583140069    -0.000301028494    0.000805401242    0.031879866046    -0.053567548058
0.225     0.059671882167    0.018105078740    0.000728816873    0.000616050807    0.056597946287    0.057291317250    0.000796112033    0.000643840160
            0.000728816873    0.000616050807    0.055579611524    0.021102059442    0.000734234351    0.000661201841    0.056237006062    0.057873910049
            0.056597945584    0.057291316539    0.000734233997    0.000661202055    0.059498855605    0.017762832887    0.000826576800    0.000751055746
            0.000796111685    0.000643840431    0.056237009132    0.057873929376    0.000826577237    0.000751055563    0.055161693677    0.021026466044
0.250     0.117128328122    -0.053360084817    0.000740883988    -0.000517805581    0.129029392240    -0.026514089524    0.000802685507    -0.000577693815
            0.000740883979    -0.000517805575    0.117883564311    -0.050202777199    0.000842272225    -0.000510502552    0.128905557166    -0.026381433787
            0.129029392240    -0.026514089524    0.000842272225    -0.000510502552    0.117527265704    -0.053652412039    0.000968643785    -0.000567352057
            0.000802685586    -0.000577693808    0.128905562691    -0.026381406789    0.000968643901    -0.000567352057    0.118256155589    -0.050016433576
0.275     0.032722202775    -0.097274879519    0.000044878275    -0.000807760868    0.027121916826    -0.075315647208    0.000006765265    -0.000881482789
            0.000044877875    -0.000807761050    0.027588455476    -0.098507269925    0.000040161538    -0.000906530739    0.024167579961    -0.075092668617
            0.027121913181    -0.075315645332    0.000040161942    -0.000906530561    0.033036777065    -0.098265100082    0.000041191786    -0.001045979226
            0.000006765633    -0.000881482616    0.024167589170    -0.075092647794    0.000041191768    -0.001045979227    0.027945478796    -0.099230629846
0.300     0.026447020626    -0.024781727078    -0.000942061558    -0.000634479978    0.033656225373    0.019123249487    -0.001012024414    -0.000645052277
            -0.000942061447    -0.000634480142    0.019709282765    -0.016305582762    -0.000979863890    -0.000672566902    0.031895703842    0.023267257488
            0.033656224837    0.019123248406    -0.000979863890    -0.000672566902    0.026211811754    -0.025437696008    -0.001109410440    -0.000743683368
            -0.001012024414    -0.000645052277    0.031895720777    0.023267281783    -0.001109411208    -0.000743682761    0.019390139441    -0.016589528502
0.325     0.085074539048    -0.069463643197    -0.000895971482    0.000850672069    0.115279469084    -0.052589206361    -0.000960533856    0.000923649379
            -0.000895971482    0.000850672069    0.087061801584    -0.064364285116    -0.001023246701    0.000865117122    0.115207152972    -0.052948833382
            0.115279469084    -0.052589206361    -0.001023246701    0.000865117122    0.085476586187    -0.070199337822    -0.001153196840    0.000963903198
            -0.000960533856    0.000923649379    0.115207182235    -0.052948817605    -0.001153196840    0.000963903198    0.087583158903    -0.064585807654
0.350     0.014434921087    -0.132434171529    0.000316301101    0.000981120954    0.015252970336    -0.122373809876    0.000380204750    0.001061164326
            0.000316301066    0.000981120965    0.005153498419    -0.131858049576    0.000347892596    0.001134642130    0.006654068439    -0.121110353183
            0.015252972472    -0.122373809610    0.000347891787    0.001134641750    0.014262548217    -0.133970380336    0.000389528158    0.001293144355
            0.000380204750    0.001061164326    0.006654148134    -0.121110298729    0.000389528210    0.001293144444    0.005152553160    -0.133043602561
0.375     -0.024846723926    -0.069638255569    0.001088844340    0.000468081164    -0.023871194451    -0.025358989384    0.001165118696    0.000461968318
            0.001088844679    0.000468080882    -0.049561935505    -0.036561911897    0.001182023734    0.000471403177    -0.026514089942    -0.013376866649
            -0.023871195136    -0.025358990112    0.001182023734    0.000471403177    -0.025707221875    -0.070237079756    0.001338616797    0.000510664191
            0.001165118357    0.000461968630    -0.026514089942    -0.013376866649    0.001338616797    0.000510664191    -0.050300202135    -0.036999408383
0.400     0.023379410837    -0.053249564855    0.001028714893    -0.001144608569    0.064776773473    -0.049276769186    0.001093426882    -0.001222012198
            0.001028714933    -0.001144608533    0.028697998961    -0.044675472681    0.001145479849    -0.001193563295    0.066345271844    -0.048176070510
            0.064776771817    -0.049276769711    0.001145479870    -0.001193563275    0.023705851141    -0.054011117325    0.001267364930    -0.001323828366
            0.001093426882    -0.001222012198    0.066345365641    -0.048176051963    0.001267364930    -0.001323828366    0.029409268047    -0.044896995615
0.425     -0.017020997480    -0.133013914283    -0.000782209779    -0.001196857628    -0.016585178076    -0.138546599334    -0.000869952341    -0.001288136021
            -0.000782210152    -0.001196857742    -0.028987692159    -0.128251285950    -0.000854372542    -0.001386377138    -0.030143519498    -0.133505913551
            -0.016585175658    -0.138546599623    -0.000854372542    -0.001386377138    -0.017452682153    -0.134801732183    -0.000936444665    -0.001557603378
            -0.000869952341    -0.001288136021    -0.030143519498    -0.133505913551    -0.000936444665    -0.001557603378    -0.028992059482    -0.129785051252
0.450     -0.119830502016    -0.074672966398    -0.001218363279    -0.000037754351    -0.101608971592    -0.043801537262    -0.001292133027    0.000001318614
            -0.001218363279    -0.000037754351    -0.126418806512    -0.046872127000    -0.001370124706    0.000024576066    -0.104541018718    -0.022269036268
            -0.101608971592    -0.043801537262    -0.001370124706    0.000024576066    -0.120844171702    -0.075392190514    -0.001547189677    0.000026957135
            -0.001292133526    0.000001319292    -0.104541018718    -0.022269036268    -0.001547189577    0.000026957133    -0.127130853464    -0.047371650703
0.475     -0.066470436781    0.004524215324    -0.000980702840    0.001289088624    -0.006345048242    -0.001782449195    -0.001044287896    0.001372034038
            -0.000980703065    0.001289088453    -0.034934189617    0.035320265882    -0.001038638565    0.001374300286    0.001700391689    0.002109438049
            -0.006345048242    -0.001782449195    -0.001038638803    0.001374299604    -0.065546570136    0.003448067173    -0.001136245786    0.001526481933
            -0.001044288075    0.001372033776    0.001700438399    0.002109420947    -0.001136245786    0.001526481933    -0.034536329789    0.034442413010
0.500     -0.039448912938    -0.094890432553    0.001305981426    0.001406572128    -0.044175452624    -0.113317909678    0.001411934323    0.001509570105
            0.001305981426    0.001406572128    -0.049868217302    -0.085186964279    0.001415581091    0.001595579049    -0.058949248083    -0.103095473861
            -0.044175452624    -0.113317909678    0.001415581091    0.001595579049    -0.040485368481    -0.096739279728    0.001532852986    0.001773521216
            0.001411935180    0.001509570124    -0.058949248083    -0.103095473861    0.001532852952    0.001773521114    -0.050571354198    -0.086926470948
0.525     -0.179432118673    -0.043166053713    0.001367191147    -0.000595060668    -0.166001365542    -0.020196561846    0.001452248264    -0.000666304876
            0.001367191157    -0.000595060645    -0.178791859344    -0.006690584529    0.001552023489    -0.000732151312    -0.163332017746    0.011215768648
            -0.166001355615    -0.020196560638    0.001552023502    -0.000732151285    -0.180791789659    -0.043497756791    0.001749714688    -0.000779038722
            0.001452248390    -0.000666304842    -0.163331987816    0.011215766593    0.001749714779    -0.000779038762    -0.179851422571    -0.006987786851
0.550     -0.102276527687    0.104338972712    0.000605615969    -0.001332082139    -0.064623406352    0.083513582902    0.000635189725    -0.001412422476
            0.000605615969    -0.001332082139    -0.078782012118    0.121135428166    0.000565507847    -0.001442376037    -0.047600317284    0.092702764739
            -0.064623406352    0.083513582902    0.000565507922    -0.001442376008    -0.102222607372    0.103641761426    0.000627439448    -0.001614884326
            0.000635189248    -0.001412423129    -0.047600296536    0.092702764151    0.000627438449    -0.001614885680    -0.078606250963    0.120314332253
0.575     -0.024935587594    -0.018822580394    -0.001675922848    -0.001532175670    -0.045036164908    -0.048109525418    -0.001796731375    -0.001642842141
            -0.001675922848    -0.001532175670    -0.027409934668    -0.008059541510    -0.001801125888    -0.001676814568    -0.054867724036    -0.034955376110
            -0.045036164908    -0.048109525418    -0.001801125888    -0.001676814568    -0.026088572479    -0.020512324503    -0.001943184528    -0.001851291757
            -0.001796731375    -0.001642842141    -0.054867687880    -0.034955460779    -0.001943184528    -0.001851291757    -0.028365459214    -0.009816228306
0.600     -0.196415896000    0.015502901486    -0.001426331531    0.001322996533    -0.193314719630    0.033553434573    -0.001526994672    0.001429027324
            -0.001426331836    0.001322996352    -0.184372567227    0.054258307783    -0.001610698778    0.001522211860    -0.180636153724    0.070218737969
            -0.193314715633    0.033553399124    -0.001610698778    0.001522211860    -0.197715492198    0.015325051897    -0.001826605412    0.001613655629
            -0.001526994660    0.001429026313    -0.180636153724    0.070218737969    -0.001826605337    0.001613655562    -0.185617506380    0.053812573876
0.625     -0.108600383556    0.196575075453    0.000066190916    0.001332397896    -0.078883987391    0.174659165183    0.000077732280    0.001421309675
            0.000066190916    0.001332397896    -0.073497100390    0.212383258208    0.000201254177    0.001445974460    -0.050019507373    0.184090942942
            -0.078883987391    0.174659165183    0.000201253908    0.001445974195    -0.108662197867    0.195848277883    0.000188358193    0.001643168582
            0.000077732280    0.001421309675    -0.050019507373    0.184090942942    0.000188358182    0.001643168483    -0.073957150971    0.211407982874
0.650     0.035292886518    0.065834366218    0.001660848156    0.001464266504    0.013235797003    0.037748020335    0.001774778423    0.001557996908
            0.001660848156    0.001464266504    0.042678618875    0.071061270762    0.001758361369    0.001526164272    0.012777013409    0.045259647982
            0.013235797003    0.037748020335    0.001758360641    0.001526164501    0.034032605673    0.064371455088    0.001917508174    0.001678714825
            0.001774778423    0.001557996908    0.012777004645    0.045259641104    0.001917508203    0.001678714791    0.040998550964    0.069804902904
0.675     -0.158537709994    0.066101369535    0.001438984811    -0.001967787626    -0.165740338890    0.089629935118    0.001549259623    -0.002103685135
            0.001438984938    -0.001967787657    -0.136650750578    0.098016462131    0.001593353621    -0.002190648009    -0.143007320042    0.123099790452
            -0.165740338890    0.089629935118    0.001593353597    -0.002190647655    -0.159612921475    0.066257944026    0.001821368929    -0.002318918546
            0.001549259442    -0.002103684275    -0.143007327620    0.123099796976    0.001821368952    -0.002318918909    -0.137992574244    0.098044108598
0.700     -0.061994221927    0.260193282555    -0.000760788685    -0.001282203574    -0.043226292747    0.244900284918    -0.000818929082    -0.001384052487
            -0.000760788685    -0.001282203574    -0.020195202998    0.268296808198    -0.000961907203    -0.001377694014    -0.004733761051    0.248806902177
            -0.043226292747    0.244900284918    -0.000961906802    -0.001377693441    -0.061832054954    0.259553445498    -0.000998795829    -0.001599334037
            -0.000818929082    -0.001384052487    -0.004733761051    0.248806902177    -0.000998795829    -0.001599334037    -0.020917442762    0.267599819371
0.725     0.117662731652    0.133489029318    -0.001409631856    -0.000918020764    0.091308190133    0.110812508668    -0.001521323851    -0.000971796242
            -0.001409631856    -0.000918020764    0.134573510106    0.127877399207    -0.001474050029    -0.000889463155    0.100693728673    0.107622138255
            0.091308190133    0.110812508668    -0.001474050029    -0.000889463155    0.116783750662    0.132092848789    -0.001650707778    -0.000997810295
            -0.001521324020    -0.000971795976    0.100693726794    0.107622140013    -0.001650707863    -0.000997810346    0.132859619347    0.127124474319
0.750     -0.082654294029    0.077018760345    -0.001555603714    0.002383535934    -0.100706435278    0.097314749722    -0.001676464689    0.002529768822
            -0.001555603769    0.002383536017    -0.058094037584    0.096839089244    -0.001681625388    0.002578406887    -0.075390929689    0.121911301822
            -0.100706428087    0.097314742773    -0.001681625442    0.002578406971    -0.083359046277    0.076843135822    -0.001911459705    0.002733815161
            -0.001676464744    0.002529768905    -0.075390983002    0.121911245337    -0.001911459762    0.002733815243    -0.059317029745    0.096958071221
0.775     0.014312110031    0.273012556224    0.001355275761    0.001200244914    0.025735738046    0.271034067614    0.001456486380    0.001314194712
            0.001355275761    0.001200244914    0.054655723671    0.270239525482    0.001581431464    0.001271307963    0.067486922526    0.265553157388
            0.025735738046    0.271034067614    0.001581431464    0.001271307963    0.014435892992    0.272022371764    0.001662700721    0.001515275515
