# GHz S RI R 45
0.000     0.031191236000    0.000000000000    -0.000024615652    0.000000000000    0.000898144470    0.000000000000    -0.000026879618    0.000000000000
            -0.000024615805    0.000000000000    0.031360066000    0.000000000000    -0.000021258239    0.000000000000    0.000886343980    0.000000000000
            0.000898139260    0.000000000000    -0.000021257815    0.000000000000    0.031232036000    0.000000000000    -0.000023809600    0.000000000000
            -0.000026879739    0.000000000000    0.000886309560    0.000000000000    -0.000023806027    0.000000000000    0.031228049000    0.000000000000
0.025     0.060775196954    -0.006821764505    0.000035332325    -0.000009430136    0.010748693538    0.003629672362    0.000028140114    0.000026915272
            0.000035332555    -0.000009430128    0.060960548199    -0.005936642516    0.000031585077    0.000014246573    0.010477756373    0.004319152040
            0.010748694929    0.003629671369    0.000031585091    0.000014246601    0.060805036592    -0.006817336652    0.000035165932    0.000025786407
            0.000028140137    0.000026915307    0.010477731360    0.004319154993    0.000035165997    0.000025786513    0.061130167384    -0.006075306081
0.050     0.021209626454    -0.013841773523    -0.000029536705    0.000018764607    -0.010687323388    0.008851268189    0.000004294303    0.000008261270
            -0.000029536666    0.000018764568    0.022460531597    -0.013798707521    -0.000008541516    0.000018923322    -0.009702500476    0.009610038812
            -0.010687324163    0.008851265686    -0.000008541524    0.000018923331    0.021287938070    -0.013921166737    0.000000376891    0.000014456001
            0.000004294249    0.000008261336    -0.009702523526    0.009610048223    0.000000376871    0.000014456060    0.022328084240    -0.013960062052
0.075     0.042429157594    0.036306220893    0.000026784501    0.000089810386    0.015013486220    0.053026681071    0.000017704560    0.000078636346
            0.000026784502    0.000089810419    0.041941205070    0.035980899542    0.000026192309    0.000101888942    0.015046426017    0.052726409141
            0.015013485295    0.053026681333    0.000026192353    0.000101888951    0.042537850708    0.036165499622    0.000030294503    0.000103330807
            0.000017704567    0.000078636343    0.015046406772    0.052726421912    0.000030294526    0.000103330821    0.041776533374    0.035969564837
0.100     0.084146245591    -0.010080479993    0.000092820108    0.000049895127    0.055456678117    0.010572552420    0.000110604671    0.000049870907
            0.000092820105    0.000049895111    0.084285576064    -0.008496329440    0.000128695861    0.000068446933    0.054997114420    0.012281732998
            0.055456678914    0.010572553575    0.000128695856    0.000068446942    0.084294070005    -0.010393959407    0.000142588829    0.000054029155
            0.000110604684    0.000049870903    0.054997091923    0.012281751152    0.000142588799    0.000054029093    0.084264948545    -0.008376761344
0.125     0.022957504351    -0.020044468390    0.000064475440    0.000029265502    -0.002862798662    0.006914585028    0.000059380590    -0.000009530495
            0.000064475456    0.000029265469    0.023798488286    -0.020481871290    0.000086561057    0.000009254509    -0.001051079052    0.008136514528
            -0.002862798165    0.006914583827    0.000086561057    0.000009254513    0.022864165744    -0.020534244605    0.000067454543    -0.000011541386
            0.000059380597    -0.000009530506    -0.001051094496    0.008136535724    0.000067454553    -0.000011541395    0.024043111650    -0.020574661755
0.150     0.060342787682    0.043513756731    0.000107880913    0.000082306310    0.040970130863    0.075884716359    0.000073997424    0.000085025611
            0.000107880930    0.000082306305    0.058298668706    0.044027832805    0.000109169956    0.000099885586    0.041283866710    0.075556000767
            0.040970130863    0.075884716359    0.000109169949    0.000099885594    0.060120495049    0.043315908201    0.000097600416    0.000114767132
            0.000073997427    0.000085025609    0.041283851126    0.075556016120    0.000097600393    0.000114767138    0.058222673421    0.043820722499
0.175     0.112666260487    -0.028485263042    0.000206420466    0.000010046231    0.102822304938    0.000084913351    0.000211475609    0.000014921529
            0.000206420467    0.000010046212    0.112851458436    -0.026168551216    0.000265221149    0.000022882660    0.102612555301    0.001432223145
            0.102822304944    0.000084905791    0.000265221148    0.000022882667    0.112833824657    -0.028711811620    0.000274011945    0.000011827766
            0.000211475609    0.000014921524    0.102612544935    0.001432249279    0.000274011944    0.000011827782    0.113016367156    -0.026197695397
0.200     0.032629612156    -0.052108114399    0.000141654522    -0.000106203700    0.016465889023    -0.025315695127    0.000113947871    -0.000127276503
            0.000141654502    -0.000106203693    0.031801899696    -0.053039175546    0.000173511265    -0.000153457267    0.017202856089    -0.024583165025
            0.016465889568    -0.025315695965    0.000173511263    -0.000153457255    0.032626369737    -0.052766827065    0.000136986977    -0.000162556188
            0.000113947873    -0.000127276514    0.017202860357    -0.024583140069    0.000136986995    -0.000162556198    0.031879866046    -0.053567548058
0.225     0.059716124044    0.018086201805    0.000121170302    -0.000026828656    0.056595704552    0.057295886169    0.000083840112    0.000008275795
            0.000121170250    -0.000026828702    0.055579611524    0.021102059442    0.000120079684    -0.000022701365    0.056237006062    0.057873910049
            0.056595704552    0.057295886169    0.000120079684    -0.000022701365    0.059451539650    0.017771187268    0.000105554981    0.000020443250
            0.000083840110    0.000008275788    0.056237009132    0.057873929376    0.000105555035    0.000020443288    0.055161693677    0.021026466044
0.250     0.117210032546    -0.053308350620    0.000244786089    -0.000101473042    0.129024896673    -0.026510828134    0.000259551637    -0.000075504075
            0.000244786083    -0.000101472979    0.117883564311    -0.050202777199    0.000317853966    -0.000102064558    0.128905557166    -0.026381433787
            0.129024897135    -0.026510825882    0.000317853969    -0.000102064547    0.117493784390    -0.053719897793    0.000338575050    -0.000096974437
            0.000259551637    -0.000075504075    0.128905562691    -0.026381406789    0.000338575044    -0.000096974423    0.118256155589    -0.050016433576
0.275     0.033010241028    -0.097267298459    0.000130844990    -0.000288580450    0.027116578307    -0.075307943267    0.000113271762    -0.000290512602
            0.000130845013    -0.000288580461    0.027588455476    -0.098507269925    0.000168033269    -0.000373917126    0.024167579961    -0.075092668617
            0.027116575001    -0.075307942332    0.000168033276    -0.000373917123    0.032772402261    -0.098348960239    0.000139157223    -0.000371249504
            0.000113271762    -0.000290512602    0.024167589170    -0.075092647794    0.000139157239    -0.000371249509    0.027945478796    -0.099230629846
0.300     0.026632397786    -0.024988587660    -0.000009814814    -0.000140598563    0.033654362840    0.019132488738    -0.000025826456    -0.000084494786
            -0.000009814808    -0.000140598544    0.019709282765    -0.016305582762    -0.000034990013    -0.000164713736    0.031895703842    0.023267257488
            0.033654363508    0.019132487564    -0.000034990013    -0.000164713736    0.026014218708    -0.025257854017    -0.000032606618    -0.000101587085
            -0.000025826457    -0.000084494788    0.031895720777    0.023267281783    -0.000032606624    -0.000101587104    0.019390139441    -0.016589528502
0.325     0.085092890513    -0.069713989978    0.000170670912    -0.000193674271    0.115275043644    -0.052583077388    0.000217051306    -0.000158957293
            0.000170670912    -0.000193674258    0.087061801584    -0.064364285116    0.000232134638    -0.000210796233    0.115207152972    -0.052948833382
            0.115275043644    -0.052583077388    0.000232134649    -0.000210796265    0.085520025407    -0.069989476083    0.000285432674    -0.000197003484
            0.000217051298    -0.000158957287    0.115207182235    -0.052948817605    0.000285432661    -0.000197003468    0.087583158903    -0.064585807654
0.350     0.014364825210    -0.132608765321    0.000006110023    -0.000427066194    0.015247467959    -0.122359853217    0.000017070034    -0.000430661092
            0.000006110000    -0.000427066195    0.005153498419    -0.131858049576    0.000028995495    -0.000549414910    0.006654068439    -0.121110353183
            0.015247467959    -0.122359853217    0.000028995428    -0.000549414914    0.014344881660    -0.133915185621    0.000025738970    -0.000552184861
            0.000017070041    -0.000430661092    0.006654148134    -0.121110298729    0.000025738912    -0.000552184853    0.005152553160    -0.133043602561
0.375     -0.025028090319    -0.069686212141    -0.000244907750    -0.000202856134    -0.023870017892    -0.025344698658    -0.000235096708    -0.000154544059
            -0.000244907735    -0.000202856121    -0.049561935505    -0.036561911897    -0.000317458924    -0.000254615869    -0.026514089942    -0.013376866649
            -0.023870018578    -0.025344699386    -0.000317458945    -0.000254615795    -0.025559673996    -0.070232293125    -0.000294100877    -0.000196497817
            -0.000235096750    -0.000154544086    -0.026514089942    -0.013376866649    -0.000294100869    -0.000196497811    -0.050300202135    -0.036999408383
0.400     0.023324193429    -0.053394168134    0.000038645817    -0.000153450626    0.064775144442    -0.049267918336    0.000114129323    -0.000135469149
            0.000038645690    -0.000153450596    0.028697998961    -0.044675472681    0.000062856493    -0.000165848730    0.066345271844    -0.048176070510
            0.064775142786    -0.049267918861    0.000062856486    -0.000165848722    0.023825606084    -0.053934823004    0.000148638024    -0.000166926924
            0.000114129325    -0.000135469147    0.066345365641    -0.048176051963    0.000148638001    -0.000166926904    0.029409268047    -0.044896995615
0.425     -0.017131105038    -0.133144764839    -0.000186896777    -0.000445242087    -0.016589503890    -0.138526029186    -0.000152466246    -0.000478552958
            -0.000186896773    -0.000445242078    -0.028987692159    -0.128251285950    -0.000197649036    -0.000577462527    -0.030143519498    -0.133505913551
            -0.016589501472    -0.138526029475    -0.000197649036    -0.000577462527    -0.017360098136    -0.134830222041    -0.000176028567    -0.000615042692
            -0.000152466243    -0.000478552948    -0.030143519498    -0.133505913551    -0.000176028562    -0.000615042673    -0.028992059482    -0.129785051252
0.450     -0.119913589238    -0.074801879533    -0.000486566023    -0.000122978820    -0.101600798285    -0.043784094114    -0.000466176491    -0.000109445094
            -0.000486566023    -0.000122978820    -0.126418806512    -0.046872127000    -0.000619062917    -0.000177150538    -0.104541018718    -0.022269036268
            -0.101600798285    -0.043784094114    -0.000619062927    -0.000177150541    -0.120824505191    -0.075319731609    -0.000587562238    -0.000153383528
            -0.000466176491    -0.000109445094    -0.104541018718    -0.022269036268    -0.000587562248    -0.000153383530    -0.127130853464    -0.047371650703
0.475     -0.065840472297    0.004158713941    -0.000093964621    0.000047983905    -0.006342574183    -0.001771631516    -0.000012746950    0.000037694377
            -0.000093964666    0.000047983948    -0.034934189617    0.035320265882    -0.000122224888    0.000071445868    0.001700391689    0.002109438049
            -0.006342574183    -0.001771631516    -0.000122224897    0.000071445873    -0.066125407272    0.003721296706    -0.000025646535    0.000042806972
            -0.000012746953    0.000037694384    0.001700438399    0.002109420947    -0.000025646533    0.000042806969    -0.034536329789    0.034442413010
0.500     -0.039903738857    -0.094914444693    -0.000328370549    -0.000356464819    -0.044177395121    -0.113292390854    -0.000294498618    -0.000431800740
            -0.000328370516    -0.000356464782    -0.049868217302    -0.085186964279    -0.000367223932    -0.000461584872    -0.058949248083    -0.103095473861
            -0.044177391488    -0.113292381537    -0.000367223857    -0.000461584944    -0.040094261793    -0.096903534575    -0.000343749116    -0.000550227470
            -0.000294498630    -0.000431800757    -0.058949248083    -0.103095473861    -0.000343749094    -0.000550227437    -0.050571354198    -0.086926470948
0.525     -0.179671032784    -0.042932473853    -0.000598100813    0.000117700279    -0.165982907548    -0.020178529446    -0.000598743802    0.000088555639
            -0.000598100813    0.000117700279    -0.178791859344    -0.006690584529    -0.000770978288    0.000098058264    -0.163332017746    0.011215768648
            -0.165982907548    -0.020178529446    -0.000770978298    0.000098058266    -0.180651147169    -0.043791096707    -0.000766534552    0.000073721117
            -0.000598743802    0.000088555639    -0.163331987816    0.011215766593    -0.000766534555    0.000073720982    -0.179851422571    -0.006987786851
0.550     -0.102367385751    0.104409096221    -0.000136847342    0.000323230953    -0.064618714135    0.083524685880    -0.000084389839    0.000288131641
            -0.000136847346    0.000323230962    -0.078782012118    0.121135428166    -0.000201660603    0.000412760974    -0.047600317284    0.092702764739
            -0.064618714135    0.083524685880    -0.000201660500    0.000412760947    -0.102112996998    0.103468302644    -0.000133014599    0.000357713060
            -0.000084389839    0.000288131641    -0.047600296536    0.092702764151    -0.000133014589    0.000357713032    -0.078606250963    0.120314332253
0.575     -0.025296158330    -0.018673955902    -0.000302431487    -0.000195589413    -0.045033804100    -0.048082557422    -0.000292204891    -0.000303611444
            -0.000302431487    -0.000195589413    -0.027409934668    -0.008059541510    -0.000338562874    -0.000239112688    -0.054867724036    -0.034955376110
            -0.045033804100    -0.048082557422    -0.000338562882    -0.000239112694    -0.025843780059    -0.020859930655    -0.000338504181    -0.000372059762
            -0.000292204891    -0.000303611444    -0.054867687880    -0.034955460779    -0.000338504167    -0.000372059748    -0.028365459214    -0.009816228306
0.600     -0.196515033242    0.015834180418    -0.000547498207    0.000412931416    -0.193285785649    0.033569437292    -0.000596790439    0.000359485414
            -0.000547498247    0.000412931446    -0.184372567227    0.054258307783    -0.000720828667    0.000446949430    -0.180636153724    0.070218737969
            -0.193285791508    0.033569403558    -0.000720828633    0.000446949409    -0.197750670940    0.014946316559    -0.000778274816    0.000390459618
            -0.000596790456    0.000359485424    -0.180636153724    0.070218737969    -0.000778274780    0.000390459600    -0.185617506380    0.053812573876
0.625     -0.108636465505    0.196660658890    -0.000022290841    0.000494710801    -0.078879768210    0.174668433215    -0.000023940248    0.000462708147
            -0.000022290850    0.000494710800    -0.073497100390    0.212383258208    -0.000082824335    0.000646914257    -0.050019507373    0.184090942942
            -0.078879768210    0.174668433215    -0.000082824334    0.000646914247    -0.108651099765    0.195664832363    -0.000076952395    0.000596367311
            -0.000023940273    0.000462708155    -0.050019507373    0.184090942942    -0.000076952417    0.000596367318    -0.073957150971    0.211407982874
0.650     0.034928651328    0.066101034092    -0.000042769755    -0.000046475311    0.013246072835    0.037773034196    -0.000064243111    -0.000153599409
            -0.000042769740    -0.000046475312    0.042678618875    0.071061270762    -0.000029236949    -0.000018290843    0.012777013409    0.045259647982
            0.013246072835    0.037773034196    -0.000029236961    -0.000018290837    0.034238562756    0.063918319629    -0.000068422635    -0.000158050593
            -0.000064243061    -0.000153599365    0.012777004645    0.045259641104    -0.000068422584    -0.000158050550    0.040998550964    0.069804902904
0.675     -0.158457708459    0.066758714642    -0.000369302182    0.000600100847    -0.165704227488    0.089643078289    -0.000479858292    0.000552611946
            -0.000369302167    0.000600100821    -0.136650750578    0.098016462131    -0.000494392549    0.000675968266    -0.143007320042    0.123099790452
            -0.165704227488    0.089643078289    -0.000494392567    0.000675968290    -0.159858711390    0.065584218085    -0.000633335214    0.000619948950
            -0.000479858298    0.000552611954    -0.143007327620    0.123099796976    -0.000633335178    0.000619948915    -0.137992574244    0.098044108598
0.700     -0.061655386868    0.260441340560    0.000216583553    0.000519732561    -0.043222409262    0.244906250707    0.000163658848    0.000523679280
            0.000216583544    0.000519732564    -0.020195202998    0.268296808198    0.000200616324    0.000707173199    -0.004733761051    0.248806902177
            -0.043222409262    0.244906250707    0.000200616324    0.000707173199    -0.062233842916    0.259231381598    0.000139325500    0.000703379605
            0.000163658799    0.000523679317    -0.004733761051    0.248806902177    0.000139325491    0.000703379627    -0.020917442762    0.267599819371
0.725     0.117691513263    0.133657770544    0.000216144531    0.000074649293    0.091328641868    0.110835267614    0.000176015884    0.000011470196
            0.000216144536    0.000074649307    0.134573510106    0.127877399207    0.000299255386    0.000151317336    0.100693728673    0.107622138255
            0.091328641868    0.110835267614    0.000299255375    0.000151317337    0.116576445798    0.131777603065    0.000233711725    0.000061141170
            0.000176015913    0.000011470218    0.100693726794    0.107622140013    0.000233711775    0.000061141218    0.132859619347    0.127124474319
0.750     -0.082354566170    0.077450147551    -0.000216216285    0.000558764977    -0.100668279445    0.097325117090    -0.000368587977    0.000544829132
            -0.000216216303    0.000558765023    -0.058094037584    0.096839089244    -0.000265481542    0.000625776608    -0.075390929689    0.121911301822
            -0.100668272256    0.097325110139    -0.000265481631    0.000625776515    -0.083841377034    0.076439093955    -0.000466700302    0.000610517364
            -0.000368587983    0.000544829140    -0.075390983002    0.121911245337    -0.000466700196    0.000610517445    -0.059317029745    0.096958071221
0.775     0.014763305763    0.273062447170    0.000467355114    0.000412583368    0.025741489184    0.271035570639    0.000388008864    0.000482115493
            0.000467355144    0.000412583365    0.054655723671    0.270239525482    0.000516221510    0.000587541747    0.067486922526    0.265553157388
            0.025741489184    0.271035570639    0.000516221531    0.000587541729    0.013904277026    0.271934522415    0.000411136449    0.000673917743
