# GHz S RI R 45
0.000     0.032612830000    0.000000000000    -0.000021177514    0.000000000000    0.001005001400    0.000000000000    -0.000013069157    0.000000000000
            -0.000021177182    0.000000000000    0.031360066000    0.000000000000    -0.000057643164    0.000000000000    0.000886343980    0.000000000000
            0.001004955100    0.000000000000    -0.000057643741    0.000000000000    0.032510648000    0.000000000000    0.000002552606    0.000000000000
            -0.000013068305    0.000000000000    0.000886309560    0.000000000000    0.000002546021    0.000000000000    0.031228049000    0.000000000000
0.025     0.061324159958    -0.006219062886    -0.000051460064    -0.000006371459    0.010446180802    0.002818121393    -0.000051382700    -0.000006468477
            -0.000051460001    -0.000006371688    0.060960548199    -0.005936642516    -0.000062373772    0.000013845842    0.010477756373    0.004319152040
            0.010446175483    0.002818121914    -0.000062373744    0.000013845756    0.061153904308    -0.006256534545    -0.000079614639    -0.000013574430
            -0.000051382581    -0.000006468663    0.010477731360    0.004319154993    -0.000079614732    -0.000013574489    0.061130167384    -0.006075306081
0.050     0.023631027584    -0.013874311979    -0.000081285750    0.000086777469    -0.011343651878    0.007650061923    -0.000068304614    0.000081367770
            -0.000081285842    0.000086777355    0.022460531597    -0.013798707521    -0.000087730531    0.000115750470    -0.009702500476    0.009610038812
            -0.011343661182    0.007650062436    -0.000087730600    0.000115750393    0.023612880746    -0.013648616045    -0.000088502379    0.000115818423
            -0.000068304775    0.000081367557    -0.009702523526    0.009610048223    -0.000088502399    0.000115818407    0.022328084240    -0.013960062052
0.075     0.043643023549    0.033630855559    0.000089530471    0.000150213416    0.014158379527    0.051133273338    0.000078268477    0.000132451432
            0.000089530247    0.000150213457    0.041941205070    0.035980899542    0.000122035298    0.000183794626    0.015046426017    0.052726409141
            0.014158374881    0.051133280850    0.000122035211    0.000183794648    0.043991631742    0.033562491217    0.000105614983    0.000174040982
            0.000078268226    0.000132451545    0.015046406772    0.052726421912    0.000105614936    0.000174040987    0.041776533374    0.035969564837
0.100     0.082647221640    -0.010494783528    0.000184409192    -0.000004637714    0.053240729745    0.007977582773    0.000171482391    -0.000006730946
            0.000184409147    -0.000004637529    0.084285576064    -0.008496329440    0.000241421116    -0.000022701504    0.054997114420    0.012281732998
            0.053240730748    0.007977582829    0.000241421094    -0.000022701415    0.082712938488    -0.010948488968    0.000230069734    -0.000011756599
            0.000171482348    -0.000006730772    0.054997091923    0.012281751152    0.000230069734    -0.000011756601    0.084264948545    -0.008376761344
0.125     0.025889259727    -0.018486249781    0.000149538782    -0.000230474059    -0.005911271437    0.005295251315    0.000119853546    -0.000204902530
            0.000149538932    -0.000230473937    0.023798488286    -0.020481871290    0.000160508252    -0.000299020601    -0.001051079052    0.008136514528
            -0.005911277233    0.005295252788    0.000160508321    -0.000299020541    0.025602805251    -0.018763113252    0.000149493100    -0.000267361655
            0.000119853714    -0.000204902374    -0.001051094496    0.008136535724    0.000149493058    -0.000267361678    0.024043111650    -0.020574661755
0.150     0.063803592693    0.038512161556    -0.000251883795    -0.000240470241    0.038628591099    0.073849554845    -0.000207354501    -0.000213033809
            -0.000251883555    -0.000240470348    0.058298668706    0.044027832805    -0.000316386581    -0.000289190695    0.041283866710    0.075556000767
            0.038628592693    0.073849564168    -0.000316386501    -0.000289190723    0.063632254172    0.038565045405    -0.000257715427    -0.000280146228
            -0.000207354318    -0.000213033918    0.041283851126    0.075556016120    -0.000257715420    -0.000280146220    0.058222673421    0.043820722499
0.175     0.109084413892    -0.031386473930    -0.000263171956    0.000117219810    0.097990811725    -0.002604682675    -0.000256018260    0.000099282171
            -0.000263171937    0.000117219581    0.112851458436    -0.026168551216    -0.000345849903    0.000164222865    0.102612555301    0.001432223145
            0.097990816864    -0.002604677506    -0.000345849895    0.000164222788    0.109285185810    -0.031461280693    -0.000347475871    0.000119911247
            -0.000256018226    0.000099281952    0.102612544935    0.001432249279    -0.000347475871    0.000119911247    0.113016367156    -0.026197695397
0.200     0.035287080319    -0.048903059191    -0.000131669325    0.000328335268    0.010937309328    -0.024345671504    -0.000097967406    0.000300586834
            -0.000131669486    0.000328335171    0.031801899696    -0.053039175546    -0.000117288583    0.000423193977    0.017202856089    -0.024583165025
            0.010937314761    -0.024345675641    -0.000117288718    0.000423193888    0.035296374031    -0.049320086592    -0.000126473487    0.000394877553
            -0.000097967548    0.000300586735    0.017202860357    -0.024583140069    -0.000126473424    0.000394877595    0.031879866046    -0.053567548058
0.225     0.066068966108    0.010542116462    0.000397788307    0.000278618001    0.053213503850    0.056985354510    0.000332178251    0.000249615118
            0.000397788174    0.000278618104    0.055579611524    0.021102059442    0.000485930901    0.000321152123    0.056237006062    0.057873910049
            0.053213505390    0.056985368122    0.000485930918    0.000321152134    0.065995611682    0.010461839070    0.000412669558    0.000335278879
            0.000332178065    0.000249615233    0.056237009132    0.057873929376    0.000412669550    0.000335278873    0.055161693677    0.021026466044
0.250     0.111161989994    -0.060695750470    0.000314390789    -0.000268543201    0.122540141023    -0.026863991608    0.000320760980    -0.000229233237
            0.000314390814    -0.000268542957    0.117883564311    -0.050202777199    0.000408489254    -0.000344138351    0.128905557166    -0.026381433787
            0.122540151260    -0.026863991610    0.000408489269    -0.000344138364    0.111576367845    -0.061108537260    0.000443530569    -0.000278606284
            0.000320761002    -0.000229232983    0.128905562691    -0.026381406789    0.000443530565    -0.000278606271    0.118256155589    -0.050016433576
0.275     0.032538087046    -0.093168084960    0.000040010218    -0.000381325830    0.021094020829    -0.070221959917    0.000008199877    -0.000370840215
            0.000040010655    -0.000381325633    0.027588455476    -0.098507269925    -0.000008685798    -0.000489725260    0.024167579961    -0.075092668617
            0.021094022054    -0.070221959549    -0.000008685798    -0.000489725270    0.032044395859    -0.094101448999    0.000017404614    -0.000498205471
            0.000008199948    -0.000370840203    0.024167589170    -0.075092647794    0.000017404656    -0.000498205450    0.027945478796    -0.099230629846
0.300     0.034117542258    -0.033406858330    -0.000491375346    -0.000296690452    0.032035485024    0.022640402997    -0.000425612069    -0.000254198012
            -0.000491375372    -0.000296690468    0.019709282765    -0.016305582762    -0.000586424328    -0.000316543876    0.031895703842    0.023267257488
            0.032035485498    0.022640407524    -0.000586424346    -0.000316543885    0.033576492532    -0.033105553740    -0.000537198974    -0.000341810263
            -0.000425612086    -0.000254198022    0.031895720777    0.023267281783    -0.000537198958    -0.000341810252    0.019390139441    -0.016589528502
0.325     0.076208436524    -0.079634218697    -0.000381909270    0.000419751365    0.110366123772    -0.048532756381    -0.000387146468    0.000368688901
            -0.000381909276    0.000419751373    0.087061801584    -0.064364285116    -0.000479849832    0.000514508068    0.115207152972    -0.052948833382
            0.110366133773    -0.048532758480    -0.000479849853    0.000514508090    0.077071007991    -0.079732201941    -0.000533616859    0.000452388877
            -0.000387146490    0.000368688922    0.115207182235    -0.052948817605    -0.000533616851    0.000452388871    0.087583158903    -0.064585807654
0.350     0.010704504171    -0.126645755655    0.000114959407    0.000444751040    0.013158093956    -0.113297243109    0.000142714638    0.000453729166
            0.000114959380    0.000444751098    0.005153498419    -0.131858049576    0.000199892050    0.000563476459    0.006654068439    -0.121110353183
            0.013158097087    -0.113297252813    0.000199892057    0.000563476477    0.010646347638    -0.127913703139    0.000168156927    0.000613465779
            0.000142713845    0.000453728912    0.006654148134    -0.121110298729    0.000168156924    0.000613465770    0.005152553160    -0.133043602561
0.375     -0.020952431175    -0.077838945693    0.000543304311    0.000250604313    -0.020906555918    -0.019082608625    0.000498829565    0.000182683417
            0.000543304325    0.000250604331    -0.049561935505    -0.036561911897    0.000637317784    0.000229241696    -0.026514089942    -0.013376866649
            -0.020906557396    -0.019082609973    0.000637317500    0.000229241984    -0.021373004336    -0.077834834940    0.000638610559    0.000250972756
            0.000498829580    0.000182683432    -0.026514089942    -0.013376866649    0.000638610549    0.000250972753    -0.050300202135    -0.036999408383
0.400     0.013328976466    -0.064057597397    0.000472172321    -0.000562677539    0.065122082308    -0.042405536801    0.000445664900    -0.000504584898
            0.000472172357    -0.000562677561    0.028697998961    -0.044675472681    0.000566385223    -0.000661400715    0.066345271844    -0.048176070510
            0.065122090394    -0.042405537211    0.000566385231    -0.000661400748    0.014406652162    -0.064564582832    0.000603868888    -0.000617210469
            0.000445664928    -0.000504584912    0.066345365641    -0.048176051963    0.000603868877    -0.000617210480    0.029409268047    -0.044896995615
0.425     -0.022234906851    -0.125981743041    -0.000331066120    -0.000552872444    -0.009081111120    -0.129090470302    -0.000348704540    -0.000559970418
            -0.000331065687    -0.000552872378    -0.028987692159    -0.128251285950    -0.000443568558    -0.000682836328    -0.030143519498    -0.133505913551
            -0.009081109569    -0.129090480436    -0.000443568966    -0.000682836433    -0.022742378021    -0.127649301801    -0.000413317142    -0.000749340818
            -0.000348704556    -0.000559970443    -0.030143519498    -0.133505913551    -0.000413317137    -0.000749340809    -0.028992059482    -0.129785051252
0.450     -0.111518437233    -0.078315394109    -0.000607159631    -0.000083707678    -0.091836147415    -0.040288075682    -0.000581229999    0.000011253955
            -0.000607159143    -0.000083708366    -0.126418806512    -0.046872127000    -0.000703990740    -0.000034923932    -0.104541018718    -0.022269036268
            -0.091836156573    -0.040288079699    -0.000703990790    -0.000034923934    -0.112271214735    -0.077840100251    -0.000746844007    -0.000019850288
            -0.000581229603    0.000011253237    -0.104541018718    -0.022269036268    -0.000746844101    -0.000019850160    -0.127130853464    -0.047371650703
0.475     -0.074492764431    -0.001059597810    -0.000499285899    0.000656248815    0.002479722481    0.004257521543    -0.000415100234    0.000590083926
            -0.000499285923    0.000656248847    -0.034934189617    0.035320265882    -0.000588258686    0.000731530155    0.001700391689    0.002109438049
            0.002479766093    0.004257516972    -0.000588258826    0.000731530068    -0.074442093890    -0.000492192709    -0.000568257663    0.000715557546
            -0.000415100246    0.000590083943    0.001700438399    0.002109420947    -0.000568257657    0.000715557538    -0.034536329789    0.034442413010
0.500     -0.042328444821    -0.088698087863    0.000605276172    0.000676219385    -0.025144104458    -0.110128901623    0.000595781482    0.000654829548
            0.000605276192    0.000676219407    -0.049868217302    -0.085186964279    0.000734124763    0.000819308306    -0.058949248083    -0.103095473861
            -0.025144087463    -0.110128915760    0.000734123972    0.000819308344    -0.042746448705    -0.090887474203    0.000696370078    0.000871956675
            0.000595781495    0.000654829631    -0.058949248083    -0.103095473861    0.000696370001    0.000871956609    -0.050571354198    -0.086926470948
0.525     -0.170764023309    -0.047469281992    0.000698248565    -0.000217997284    -0.151653223080    -0.028513470408    0.000667769080    -0.000320474484
            0.000698248569    -0.000217997272    -0.178791859344    -0.006690584529    0.000804838602    -0.000299705089    -0.163332017746    0.011215768648
            -0.151653242736    -0.028513474104    0.000804838458    -0.000299704731    -0.171477391489    -0.047318757802    0.000861742464    -0.000330590986
            0.000667769101    -0.000320474509    -0.163331987816    0.011215766593    0.000861742627    -0.000330591342    -0.179851422571    -0.006987786851
0.550     -0.104568874968    0.093454847176    0.000344246189    -0.000710772939    -0.051194739865    0.081832348809    0.000207011238    -0.000626737654
            0.000344246643    -0.000710772263    -0.078782012118    0.121135428166    0.000400326039    -0.000796102441    -0.047600317284    0.092702764739
            -0.051194746229    0.081832358983    0.000400326030    -0.000796102423    -0.103159672258    0.092501462387    0.000340587384    -0.000772376451
            0.000207011255    -0.000626737669    -0.047600296536    0.092702764151    0.000340587380    -0.000772376441    -0.078606250963    0.120314332253
0.575     -0.022713913058    -0.018776284430    -0.000832280093    -0.000760598118    -0.018530019608    -0.057469928174    -0.000780774982    -0.000691697725
            -0.000832280167    -0.000760598185    -0.027409934668    -0.008059541510    -0.000968339038    -0.000918298106    -0.054867724036    -0.034955376110
            -0.018530018380    -0.057469924367    -0.000968339111    -0.000918298175    -0.023630969518    -0.021170976991    -0.000905742938    -0.000934355258
            -0.000780774516    -0.000691697799    -0.054867687880    -0.034955460779    -0.000905742938    -0.000934355258    -0.028365459214    -0.009816228306
0.600     -0.190042251708    0.006030852976    -0.000745003958    0.000607634436    -0.181436413872    0.006466718336    -0.000689415626    0.000687020256
            -0.000745004004    0.000607634473    -0.184372567227    0.054258307783    -0.000871313800    0.000714898515    -0.180636153724    0.070218737969
            -0.181436424994    0.006466687026    -0.000871313800    0.000714898515    -0.190711065391    0.006462227988    -0.000916270761    0.000736869923
            -0.000689415668    0.000687020299    -0.180636153724    0.070218737969    -0.000916270839    0.000736869986    -0.185617506380    0.053812573876
0.625     -0.108099613564    0.185781462621    0.000004141324    0.000726433295    -0.070575513457    0.162658314638    0.000154332932    0.000616579162
            0.000004141273    0.000726433306    -0.073497100390    0.212383258208    -0.000019958112    0.000823551881    -0.050019507373    0.184090942942
            -0.070575521418    0.162658332986    -0.000019958085    0.000823551962    -0.106535666721    0.184684157214    0.000051439050    0.000792515422
            0.000154332442    0.000616578573    -0.050019507373    0.184090942942    0.000051439052    0.000792515441    -0.073957150971    0.211407982874
0.650     0.038339452434    0.055212018778    0.000865971886    0.000733896110    0.037802340890    0.011003542887    0.000755958784    0.000620297337
            0.000865971133    0.000733896381    0.042678618875    0.071061270762    0.000989565141    0.000891691074    0.012777013409    0.045259647982
            0.037802358941    0.011003548857    0.000989565126    0.000891691092    0.037441175361    0.052432296089    0.000898403097    0.000875891187
            0.000755958810    0.000620297446    0.012777004645    0.045259641104    0.000898403040    0.000875891101    0.040998550964    0.069804902904
0.675     -0.160004219295    0.047030663793    0.000751927152    -0.000978544521    -0.163918218476    0.044728518122    0.000657764614    -0.001003865320
            0.000751927140    -0.000978544152    -0.136650750578    0.098016462131    0.000900128559    -0.001107346902    -0.143007320042    0.123099790452
            -0.163918228124    0.044728520755    0.000900128442    -0.001107346482    -0.160750557678    0.047067121290    0.000925343080    -0.001092535813
            0.000657764649    -0.001003865297    -0.143007327620    0.123099796976    0.000925342977    -0.001092535769    -0.137992574244    0.098044108598
0.700     -0.065629846297    0.248532477328    -0.000397263893    -0.000689625312    -0.052097580195    0.225155559003    -0.000516629807    -0.000551735892
            -0.000397263328    -0.000689624887    -0.020195202998    0.268296808198    -0.000407308586    -0.000818082462    -0.004733761051    0.248806902177
            -0.052097586958    0.225155588231    -0.000407308600    -0.000818082489    -0.064673266493    0.247015082651    -0.000448380899    -0.000776301496
            -0.000516629889    -0.000551735979    -0.004733761051    0.248806902177    -0.000448380879    -0.000776301462    -0.020917442762    0.267599819371
0.725     0.119104179396    0.113730321945    -0.000724985048    -0.000446668130    0.104473385607    0.074886701855    -0.000579575032    -0.000318353951
            -0.000724985057    -0.000446668136    0.134573510106    0.127877399207    -0.000852041639    -0.000576701422    0.100693728673    0.107622138255
            0.104473395042    0.074886705857    -0.000852041639    -0.000576701422    0.117886499697    0.111233292954    -0.000751528697    -0.000557672834
            -0.000579575032    -0.000318353951    0.100693726794    0.107622140013    -0.000751528689    -0.000557672828    0.132859619347    0.127124474319
0.750     -0.097273830727    0.050707636308    -0.000794953991    0.001230060281    -0.123353416870    0.040028833979    -0.000681109608    0.001187054760
            -0.000794953991    0.001230060281    -0.058094037584    0.096839089244    -0.000976445812    0.001374070950    -0.075390929689    0.121911301822
            -0.123353416870    0.040028833979    -0.000976445870    0.001374071031    -0.097863312023    0.050923012560    -0.000989356272    0.001314397718
            -0.000681109608    0.001187054760    -0.075390983002    0.121911245337    -0.000989356272    0.001314397718    -0.059317029745    0.096958071221
0.775     -0.001116683121    0.263767846225    0.000740993707    0.000611411508    -0.009982585019    0.252286049197    0.000798953516    0.000453501574
            0.000740993734    0.000611411617    0.054655723671    0.270239525482    0.000786248485    0.000780861721    0.067486922526    0.265553157388
            -0.009982624253    0.252286037637    0.000786248512    0.000780861693    -0.000269497090    0.261938971363    0.000772470205    0.000738469228
