# GHz S RI R 45
0.000     0.032407837000    0.000000000000    -0.000101285570    0.000000000000    0.001061843100    0.000000000000    -0.000114829750    0.000000000000
            -0.000101283670    0.000000000000    0.031360066000    0.000000000000    -0.000077218789    0.000000000000    0.000886343980    0.000000000000
            0.001061922600    0.000000000000    -0.000077215966    0.000000000000    0.032317711000    0.000000000000    -0.000073905786    0.000000000000
            -0.000114829190    0.000000000000    0.000886309560    0.000000000000    -0.000073908891    0.000000000000    0.031228049000    0.000000000000
0.025     0.059263563238    -0.007110874328    -0.000404995646    -0.000087603335    0.010206182372    0.003864795334    -0.000309858550    -0.000064305515
            -0.000404995446    -0.000087603736    0.060960548199    -0.005936642516    -0.000518742736    -0.000132751000    0.010477756373    0.004319152040
            0.010206148078    0.003864727763    -0.000518742257    -0.000132751746    0.059364081068    -0.007112302083    -0.000412320049    -0.000104517798
            -0.000309858309    -0.000064306086    0.010477731360    0.004319154993    -0.000412320142    -0.000104517515    0.061130167384    -0.006075306081
0.050     0.021207298541    -0.012691411525    -0.000622916715    0.000637435573    -0.009958167420    0.009546019996    -0.000513121642    0.000504574297
            -0.000622916951    0.000637435370    0.022460531597    -0.013798707521    -0.000785136068    0.000790878379    -0.009702500476    0.009610038812
            -0.009958213453    0.009546077465    -0.000785136620    0.000790877831    0.021186592092    -0.012801451000    -0.000634763349    0.000639349624
            -0.000513122061    0.000504573828    -0.009702523526    0.009610048223    -0.000634763133    0.000639349853    0.022328084240    -0.013960062052
0.075     0.042488232055    0.035337961480    0.000591636840    0.001178331137    0.015185621015    0.052090983987    0.000472345189    0.000965337203
            0.000591636380    0.001178331144    0.041941205070    0.035980899542    0.000709207008    0.001478685215    0.015046426017    0.052726409141
            0.015185688997    0.052091000626    0.000709206104    0.001478685316    0.042478641322    0.035432250263    0.000585307921    0.001191578420
            0.000472344663    0.000965337238    0.015046406772    0.052726421912    0.000585308423    0.001191578285    0.041776533374    0.035969564837
0.100     0.082189520119    -0.009223731330    0.001486584533    0.000012358226    0.054233508235    0.011730846837    0.001215970947    0.000021420311
            0.001486584532    0.000012358333    0.084285576064    -0.008496329440    0.001865624512    0.000049451702    0.054997114420    0.012281732998
            0.054233492017    0.011730779915    0.001865624287    0.000049452667    0.082375684768    -0.009297633819    0.001501895658    0.000023333380
            0.001215970731    0.000021421186    0.054997091923    0.012281751152    0.001501895972    0.000023332439    0.084264948545    -0.008376761344
0.125     0.024393636966    -0.017967575814    0.001127142043    -0.001688983792    -0.001434762058    0.007830758154    0.000933224208    -0.001390130502
            0.001127142511    -0.001688983600    0.023798488286    -0.020481871290    0.001422008759    -0.002080864179    -0.001051079052    0.008136514528
            -0.001434817018    0.007830803694    0.001422009122    -0.002080863931    0.024295512530    -0.018093574566    0.001137879720    -0.001696686214
            0.000933224620    -0.001390130225    -0.001051094496    0.008136535724    0.001137879963    -0.001696685809    0.024043111650    -0.020574661755
0.150     0.061102576840    0.042158700849    -0.001694248143    -0.002008533287    0.042440547565    0.074031330454    -0.001402870646    -0.001644873827
            -0.001694248208    -0.002008533364    0.058298668706    0.044027832805    -0.002017536184    -0.002536170720    0.041283866710    0.075556000767
            0.042440608713    0.074031362254    -0.002017535174    -0.002536171268    0.061184323997    0.042288920662    -0.001683192062    -0.002029579569
            -0.001402870646    -0.001644873827    0.041283851126    0.075556016120    -0.001683191998    -0.002029579492    0.058222673421    0.043820722499
0.175     0.111022249009    -0.026644882190    -0.002334754549    0.000829953839    0.101509163128    0.001797119779    -0.001910344729    0.000691327735
            -0.002334754361    0.000829953772    0.112851458436    -0.026168551216    -0.002967444258    0.000919356172    0.102612555301    0.001432223145
            0.101509164298    0.001797053696    -0.002967444036    0.000919355536    0.111272880084    -0.026858927103    -0.002367323183    0.000811022305
            -0.001910344124    0.000691326762    0.102612544935    0.001432249279    -0.002367323325    0.000811022815    0.113016367156    -0.026197695397
0.200     0.036972568810    -0.048455139781    -0.000919399043    0.002541921357    0.021677099634    -0.021873728823    -0.000745598466    0.002095515460
            -0.000919399896    0.002541920942    0.031801899696    -0.053039175546    -0.001225757050    0.003180121658    0.017202856089    -0.024583165025
            0.021677037464    -0.021873698922    -0.001225757569    0.003180121351    0.036831571728    -0.048685576155    -0.000938144962    0.002564602926
            -0.000745599530    0.002095514976    0.017202860357    -0.024583140069    -0.000938144928    0.002564602832    0.031879866046    -0.053567548058
0.225     0.063377525122    0.015069344957    0.002778231845    0.002422050739    0.062890661166    0.048769009758    0.002314287281    0.001967528792
            0.002778231794    0.002422050950    0.055579611524    0.021102059442    0.003340043656    0.003117334159    0.056237006062    0.057873910049
            0.062890713991    0.048769054236    0.003340043039    0.003117334673    0.063467722296    0.015147400539    0.002774429410    0.002464883677
            0.002314286724    0.001967529293    0.056237009132    0.057873929376    0.002774428842    0.002464883865    0.055161693677    0.021026466044
0.250     0.116576737402    -0.051848318929    0.003051898957    -0.002056294568    0.128176472338    -0.025751773311    0.002476911170    -0.001726065015
            0.003051898782    -0.002056293753    0.117883564311    -0.050202777199    0.003936317748    -0.002361467235    0.128905557166    -0.026381433787
            0.128176490514    -0.025751835148    0.003936317707    -0.002361467304    0.116794953398    -0.052149538793    0.003106772371    -0.002037191064
            0.002476911009    -0.001726064196    0.128905562691    -0.026381406789    0.003106772434    -0.002037191881    0.118256155589    -0.050016433576
0.275     0.040502938792    -0.093455827422    0.000009943975    -0.003227090079    0.036127953750    -0.071203468886    -0.000029240156    -0.002642401223
            0.000009944200    -0.003227090079    0.027588455476    -0.098507269925    0.000188298899    -0.004123622048    0.024167579961    -0.075092668617
            0.036127903232    -0.071203458635    0.000188299393    -0.004123621825    0.040428988578    -0.093675958388    0.000031624264    -0.003274514395
            -0.000029239879    -0.002642401226    0.024167589170    -0.075092647794    0.000031623696    -0.003274514800    0.027945478796    -0.099230629846
0.300     0.035490492159    -0.032259979479    -0.003566550924    -0.002432629618    0.043135762746    0.010250783203    -0.002965875407    -0.001958678056
            -0.003566550582    -0.002432630297    0.019709282765    -0.016305582762    -0.004370592104    -0.003172950896    0.031895703842    0.023267257488
            0.043135803497    0.010250836633    -0.004370585569    -0.003172955471    0.035640413113    -0.032314570180    -0.003581990606    -0.002478154681
            -0.002965875065    -0.001958678573    0.031895720777    0.023267281783    -0.003581990194    -0.002478154396    0.019390139441    -0.016589528502
0.325     0.085025793965    -0.072133248596    -0.003724809041    0.003298738319    0.114629954897    -0.054941726097    -0.002999633403    0.002780926166
            -0.003724809041    0.003298738319    0.087061801584    -0.064364285116    -0.004843862576    0.003857372250    0.115207152972    -0.052948833382
            0.114629992702    -0.054941786041    -0.004843862576    0.003857372250    0.085148748283    -0.072573973973    -0.003797820206    0.003297699350
            -0.002999633476    0.002780926234    0.115207182235    -0.052948817605    -0.003797820130    0.003297699284    0.087583158903    -0.064585807654
0.350     0.026502612488    -0.130050769667    0.001466486733    0.004047788594    0.027688138058    -0.119679611885    0.001278908144    0.003277280701
            0.001466486594    0.004047788432    0.005153498419    -0.131858049576    0.001540725603    0.005257733799    0.006654068439    -0.121110353183
            0.027688079406    -0.119679615190    0.001540725484    0.005257733730    0.026344147036    -0.130312552586    0.001453433820    0.004116693377
            0.001278907993    0.003277280653    0.006654148134    -0.121110298729    0.001453433112    0.004116693203    0.005152553160    -0.133043602561
0.375     -0.030170325348    -0.070596589652    0.004111662007    0.001642693871    -0.009039020740    -0.041405547068    0.003388504856    0.001282604646
            0.004111662171    0.001642694269    -0.049561935505    -0.036561911897    0.005165396581    0.002293440393    -0.026514089942    -0.013376866649
            -0.009038998797    -0.041405481233    0.005165396735    0.002293440785    -0.029954021551    -0.070643410887    0.004151593430    0.001695251510
            0.003388505047    0.001282604989    -0.026514089942    -0.013376866649    0.004151592971    0.001695251576    -0.050300202135    -0.036999408383
0.400     0.020563033113    -0.064052094981    0.004190421202    -0.004298938605    0.060364292456    -0.060382203452    0.003366074091    -0.003634288902
            0.004190421272    -0.004298938677    0.028697998961    -0.044675472681    0.005471578881    -0.005121299983    0.066345271844    -0.048176070510
            0.060364294217    -0.060382203105    0.005471579043    -0.005121299956    0.020502361198    -0.064501550354    0.004284075758    -0.004333665963
            0.003366074222    -0.003634288917    0.066345365641    -0.048176051963    0.004284075688    -0.004333665892    0.029409268047    -0.044896995615
0.425     -0.004231268693    -0.134236609701    -0.003250747081    -0.005076806261    -0.003541755241    -0.139401604842    -0.002802233026    -0.004060249946
            -0.003250746920    -0.005076806009    -0.028987692159    -0.128251285950    -0.003658014169    -0.006646042672    -0.030143519498    -0.133505913551
            -0.003541824127    -0.139401633101    -0.003658009290    -0.006646042047    -0.004352589099    -0.134426452299    -0.003269451338    -0.005158527016
            -0.002802232912    -0.004060249782    -0.030143519498    -0.133505913551    -0.003269451285    -0.005158526932    -0.028992059482    -0.129785051252
0.450     -0.103601784340    -0.100960836002    -0.004869635971    0.000316083034    -0.086189044146    -0.071098045501    -0.003941538112    0.000362663482
            -0.004869635871    0.000316083027    -0.126418806512    -0.046872127000    -0.006291587953    0.000018618158    -0.104541018718    -0.022269036268
            -0.086189030393    -0.071097983598    -0.006291587853    0.000018618157    -0.103503498376    -0.101374323327    -0.004928513872    0.000270247231
            -0.003941538013    0.000362663473    -0.104541018718    -0.022269036268    -0.004928513825    0.000270248091    -0.127130853464    -0.047371650703
0.475     -0.060259394484    -0.008575977969    -0.003819535105    0.004721609043    -0.018201317623    -0.023745457458    -0.003050295052    0.003970916588
            -0.003819535545    0.004721609587    -0.034934189617    0.035320265882    -0.005067277822    0.005764462251    0.001700391689    0.002109438049
            -0.018201256560    -0.023745497964    -0.005067278152    0.005764462627    -0.060507712196    -0.008583026017    -0.003922984078    0.004794339467
            -0.003050295357    0.003970916985    0.001700438399    0.002109420947    -0.003922983888    0.004794339235    -0.034536329789    0.034442413010
0.500     -0.032045846232    -0.099246408217    0.005107798951    0.006057838588    -0.036749131253    -0.117029365475    0.004406746236    0.004798391579
            0.005107799245    0.006057838078    -0.049868217302    -0.085186964279    0.005892409613    0.007942116319    -0.058949248083    -0.103095473861
            -0.036749207509    -0.117029393937    0.005892409851    0.007942116640    -0.032213191523    -0.099332571886    0.005178528070    0.006140666597
            0.004406746436    0.004798391124    -0.058949248083    -0.103095473861    0.005178536310    0.006140667234    -0.050571354198    -0.086926470948
0.525     -0.168032241674    -0.078919860655    0.005737081250    -0.002942604678    -0.155893974611    -0.056566673401    0.004531700499    -0.002569093986
            0.005737080781    -0.002942604059    -0.178791859344    -0.006690584529    0.007567922781    -0.003139274566    -0.163332017746    0.011215768648
            -0.155893985428    -0.056566584953    0.007567922983    -0.003139274340    -0.168019895904    -0.079423609632    0.005792534858    -0.002922862423
            0.004531700151    -0.002569093789    -0.163331987816    0.011215766593    0.005792536962    -0.002922866022    -0.179851422571    -0.006987786851
0.550     -0.127091497557    0.072709712937    0.001817044211    -0.004944100541    -0.090786863602    0.053583636806    0.001382227155    -0.004050894033
            0.001817044901    -0.004944100820    -0.078782012118    0.121135428166    0.002703812902    -0.006310299470    -0.047600317284    0.092702764739
            -0.090786811191    0.053583627238    0.002703813539    -0.006310299741    -0.127665162176    0.072366400438    0.001925648596    -0.005035959101
            0.001382227407    -0.004050895004    -0.047600296536    0.092702764151    0.001925647752    -0.005035959530    -0.078606250963    0.120314332253
0.575     -0.030652924321    -0.021168634242    -0.006242813421    -0.006453843340    -0.053958404137    -0.051484623203    -0.005373411687    -0.005103408571
            -0.006242814756    -0.006453842466    -0.027409934668    -0.008059541510    -0.007315255452    -0.008475800862    -0.054867724036    -0.034955376110
            -0.053958458400    -0.051484674977    -0.007315256932    -0.008475799585    -0.030688079438    -0.021069992038    -0.006349751147    -0.006552583627
            -0.005373411832    -0.005103408709    -0.054867687880    -0.034955460779    -0.006349751147    -0.006552583627    -0.028365459214    -0.009816228306
0.600     -0.194781854015    -0.024103537695    -0.006288946669    0.005853629868    -0.193706766430    -0.005565753481    -0.004805958453    0.005015119006
            -0.006288946376    0.005853629596    -0.184372567227    0.054258307783    -0.008490602732    0.006623542316    -0.180636153724    0.070218737969
            -0.193706797389    -0.005565720534    -0.008490603520    0.006623542931    -0.194744263908    -0.024688773925    -0.006328316178    0.005874261012
            -0.004805958176    0.005015118717    -0.180636153724    0.070218737969    -0.006328315958    0.005874260808    -0.185617506380    0.053812573876
0.625     -0.148501978133    0.163705030129    0.001190455254    0.005199461513    -0.119401078378    0.145149412415    0.001090656038    0.004111015191
            0.001190454778    0.005199461519    -0.073497100390    0.212383258208    0.000912388936    0.006915121489    -0.050019507373    0.184090942942
            -0.119401046692    0.145149425532    0.000912388694    0.006915121520    -0.149188524006    0.163443855745    0.001094466514    0.005285678538
            0.001090655797    0.004111015151    -0.050019507373    0.184090942942    0.001094466585    0.005285678421    -0.073957150971    0.211407982874
0.650     0.012151427532    0.072054315165    0.005798616364    0.005687590242    -0.008494376695    0.044697363799    0.004916239136    0.004524179085
            0.005798617051    0.005687591113    0.042678618875    0.071061270762    0.007087043203    0.007490818302    0.012777013409    0.045259647982
            -0.008494405246    0.044697301371    0.007087044021    0.007490818905    0.012181034886    0.072355656479    0.005954145833    0.005788391559
            0.004916239799    0.004524179694    0.012777004645    0.045259641104    0.005954145517    0.005788391454    0.040998550964    0.069804902904
0.675     -0.166089832992    0.033497790248    0.006550387290    -0.008224984808    -0.176230244653    0.059107238017    0.004875907730    -0.007021690957
            0.006550386716    -0.008224985265    -0.136650750578    0.098016462131    0.009010211422    -0.009488088088    -0.143007320042    0.123099790452
            -0.176230311019    0.059107260276    0.009010210925    -0.009488088559    -0.165986249244    0.032933002551    0.006580418657    -0.008292571194
            0.004875907077    -0.007021690802    -0.143007327620    0.123099796976    0.006580418615    -0.008292569951    -0.137992574244    0.098044108598
0.700     -0.113191751611    0.236369243613    -0.004160020652    -0.005256831784    -0.093775617059    0.225669018535    -0.003474727721    -0.003965422224
            -0.004160021024    -0.005256832254    -0.020195202998    0.268296808198    -0.004556415930    -0.007299407668    -0.004733761051    0.248806902177
            -0.093775667958    0.225669029871    -0.004556416195    -0.007299408092    -0.113812431746    0.236231062291    -0.004084292785    -0.005323548482
            -0.003474728051    -0.003965422600    -0.004733761051    0.248806902177    -0.004084292541    -0.005323548165    -0.020917442762    0.267599819371
0.725     0.081048929341    0.152459232071    -0.004911546842    -0.002818471893    0.056742093798    0.130343587028    -0.004009780583    -0.002201281553
            -0.004911546437    -0.002818472800    0.134573510106    0.127877399207    -0.006365274263    -0.004029266783    0.100693728673    0.107622138255
            0.056742097190    0.130343563738    -0.006365270828    -0.004029267722    0.081286010617    0.152861246241    -0.005059954100    -0.002934986628
            -0.004009780286    -0.002201282300    0.100693726794    0.107622140013    -0.005059953754    -0.002934986428    0.132859619347    0.127124474319
0.750     -0.092466718575    0.062232062603    -0.007018632391    0.009333720433    -0.112379189542    0.083539819073    -0.005292175667    0.007994998876
            -0.007018631442    0.009333712389    -0.058094037584    0.096839089244    -0.009515834307    0.010881528389    -0.075390929689    0.121911301822
            -0.112379245720    0.083539860834    -0.009515834307    0.010881528389    -0.092197457855    0.061509986760    -0.007054691877    0.009444561836
            -0.005292176054    0.007994999460    -0.075390983002    0.121911245337    -0.007054691877    0.009444561836    -0.059317029745    0.096958071221
0.775     -0.038510401762    0.264527641291    0.006558146119    0.005093242275    -0.025933734199    0.267546749423    0.005385240615    0.003645623231
            0.006558146277    0.005093242398    0.054655723671    0.270239525482    0.007537587929    0.007386933546    0.067486922526    0.265553157388
            -0.025933690397    0.267546783810    0.007537587929    0.007386933546    -0.039023168932    0.264308975907    0.006512361526    0.005150723675
