# GHz S RI R 45
0.000     0.034937743000    0.000000000000    0.964455200000    -0.000000000000    0.001060899100    0.000000000000    -0.001301929100    0.000000000000
            0.964455200000    -0.000000000000    0.034825568000    0.000000000000    -0.001325911600    0.000000000000    0.000934155190    0.000000000000
            0.001060843800    0.000000000000    -0.001325930200    0.000000000000    0.034919059000    0.000000000000    0.964501040000    -0.000000000000
            -0.001301952600    0.000000000000    0.000934120210    0.000000000000    0.964501040000    -0.000000000000    0.034691537000    0.000000000000
0.025     0.069594199646    -0.006119671139    0.377757780835    -0.868312371486    0.010176777394    0.004798779425    -0.004989151564    -0.000655534746
            0.377757780835    -0.868312371486    0.054156678532    -0.010787013866    -0.004975673547    -0.000649508036    0.010891885084    0.003620090663
            0.010176744329    0.004798788584    -0.004975688451    -0.000649477303    0.069632184726    -0.006012755206    0.377757059773    -0.868312619750
            -0.004989167542    -0.000655501413    0.010891860099    0.003620092914    0.377757059773    -0.868312619750    0.054350749462    -0.010926600871
0.050     0.031701955556    -0.018036908884    -0.630391173485    -0.693303596589    -0.006093655731    0.014075076169    -0.007303527048    0.008191048179
            -0.630391173485    -0.693303596589    0.015786676673    -0.005785635611    -0.007297747955    0.008179199728    -0.012159987790    0.007784491548
            -0.006093681197    0.014075094565    -0.007297726350    0.008179224365    0.031961584902    -0.017980457591    -0.630385109964    -0.693309569370
            -0.007303504643    0.008191074856    -0.012160012079    0.007784498121    -0.630385109964    -0.693309569370    0.015630408807    -0.005991784549
0.075     0.056254326958    0.024477405561    -0.881138685926    0.283941748563    0.028899210127    0.047584220190    0.008790983462    0.013805449094
            -0.881138685926    0.283941748563    0.042378971794    0.038709160405    0.008775163642    0.013796887015    0.009970155205    0.054893572725
            0.028899189988    0.047584239441    0.008775195497    0.013796878606    0.056513525261    0.024284473213    -0.881147474109    0.283931169608
            0.008791017802    0.013805440267    0.009970134241    0.054893582631    -0.881147474109    0.283931169608    0.042187365229    0.038735490287
0.100     0.087236457962    -0.031814232799    -0.110065014589    0.912123522972    0.054700926881    -0.003024957415    0.017259391761    -0.001912111277
            -0.110065014589    0.912123522972    0.074519054740    -0.002756972765    0.017253973715    -0.001895416875    0.053129708441    0.017063846291
            0.054700912225    -0.003024932663    0.017253980182    -0.001895449587    0.087384351163    -0.032024305357    -0.110081186602    0.912123827620
            0.017259399090    -0.001912145021    0.053129682847    0.017063860575    -0.110081186602    0.912123827620    0.074542969344    -0.002679219848
0.125     0.026890665792    -0.029999263565    0.781558691157    0.474968232894    0.004933304096    0.011422808613    0.011501979477    -0.021370691344
            0.781558691157    0.474968232894    0.023530147863    -0.005620337971    0.011514437376    -0.021366528525    -0.004245531444    0.008499157344
            0.004933300046    0.011422840862    0.011514409168    -0.021366549405    0.027021853736    -0.030282035313    0.781549954755    0.474995816908
            0.011501953499    -0.021370711004    -0.004245552284    0.008499173090    0.781549954755    0.474995816908    0.023646545338    -0.005748659577
0.150     0.080872847287    0.004923617953    0.745685606848    -0.507075098434    0.073076768354    0.044391795775    -0.023406940602    -0.021223477500
            0.745685606848    -0.507075098434    0.053614043947    0.049177353475    -0.023397134474    -0.021228787491    0.026546979890    0.081905535610
            0.073076769392    0.044391819105    -0.023397165592    -0.021228771053    0.080939883078    0.004716831343    0.745710333285    -0.507070462245
            -0.023406962086    -0.021223467204    0.026546960801    0.081905544951    0.745710333285    -0.507070462245    0.053514933629    0.049121096889
0.175     0.083427959269    -0.088632933657    -0.140697263699    -0.882786981274    0.079785068684    -0.054400732125    -0.025564415675    0.013420946678
            -0.140697263699    -0.882786981274    0.101713771278    0.002477510674    -0.025585732804    0.013409281305    0.096783241803    0.026851758134
            0.079785073961    -0.054400703085    -0.025585732048    0.013409315061    0.083764981920    -0.088810711183    -0.140674910615    -0.882787293084
            -0.025564414902    0.013420980421    0.096783225137    0.026851780798    -0.140674910615    -0.882787293084    0.102005880103    0.002407222372
0.200     -0.004334908393    -0.063117613694    -0.862220002933    -0.240977546731    -0.005788186885    -0.024072475510    -0.006610417788    0.031425706355
            -0.862220002933    -0.240977546731    0.054254502472    -0.025799065858    -0.006589479544    0.031452866473    0.029290758691    -0.012168025323
            -0.005788172170    -0.024072451278    -0.006589453326    0.031452878096    -0.003956682037    -0.063739695304    -0.862222764099    -0.241028776159
            -0.006610386320    0.031425720128    0.029290752484    -0.012168001164    -0.862222764099    -0.241028776159    0.054185953691    -0.026427214718
0.225     0.057679785010    -0.031915553886    -0.568017956893    0.679043643899    0.072534368722    0.000670535621    0.037042183129    0.023406528456
            -0.568017956893    0.679043643899    0.054305863983    0.022984632865    0.037027999633    0.023376030363    0.041046306146    0.067154964251
            0.072534393537    0.000670555728    0.037028028081    0.023376004034    0.057704960689    -0.032551140034    -0.568053854116    0.679055009291
            0.037042209149    0.023406505998    0.041046298861    0.067154983940    -0.568053854116    0.679055009291    0.053834042007    0.023067800345
0.250     0.024852033760    -0.129388483358    0.368514456867    0.790199488918    0.046321063699    -0.110531822353    0.032602537964    -0.029988794345
            0.368514456867    0.790199488918    0.111943188780    0.005379044554    0.032619727535    -0.029952869408    0.125377937922    0.028894288770
            0.046321096494    -0.110531808610    0.032619718195    -0.029952901757    0.024998602922    -0.129983707719    0.368489292032    0.790206700339
            0.032602529327    -0.029988827368    0.125377931870    0.028894315029    0.368489292032    0.790206700339    0.112349735864    0.005482392372
0.275     -0.074598127303    -0.067904805195    0.872320037094    0.003440025654    -0.061802317725    -0.044440456284    -0.007736712057    -0.039377451705
            0.872320037089    0.003440026720    0.092763970002    -0.059865462738    -0.007742259503    -0.039419069885    0.073591363893    -0.046244142731
            -0.061802304734    -0.044440446943    -0.007742282070    -0.039419075644    -0.074687503407    -0.068676490771    0.872333454083    0.003506112810
            -0.007736748926    -0.039377457710    0.073591360917    -0.046244121154    0.872333454087    0.003506112049    0.092805872071    -0.060485377622
0.300     -0.007137794987    -0.026391840263    0.361673033217    -0.793964532814    0.027077383634    -0.003759321212    -0.047201888752    -0.019702245381
            0.361673033217    -0.793964532814    0.036638255884    -0.032887390508    -0.047196892216    -0.019693428032    0.031450100245    0.019026444465
            0.027077381443    -0.003759322449    -0.047196913348    -0.019693398163    -0.007232084902    -0.026831989269    0.361731198429    -0.793978858402
            -0.047201910812    -0.019702215895    0.031450100843    0.019026476319    0.361731198429    -0.793978858402    0.036437342222    -0.032779504903
0.325     -0.055868731448    -0.100038659129    -0.561981567167    -0.645475391807    -0.026518034698    -0.109029003593    -0.038160630083    0.049012092996
            -0.561981567167    -0.645475391807    0.094467840434    0.004983758177    -0.038239449957    0.049015305009    0.124039660489    0.023387741689
            -0.026518032335    -0.109028993876    -0.038239432904    0.049015336069    -0.055557510392    -0.100858371617    -0.561953393043    -0.645524925889
            -0.038160613021    0.049012124024    0.124039675653    0.023387769209    -0.561953393043    -0.645524925889    0.095133582178    0.004636333650
0.350     -0.136314250581    -0.005971631650    -0.814401887862    0.224430704032    -0.126841677728    -0.003924645324    0.032323031255    0.046089891320
            -0.814401897503    0.224430706689    0.122331970753    -0.094034515854    0.032418918508    0.046196600430    0.110015403050    -0.085623575769
            -0.126841667732    -0.003924645014    0.032418951423    0.046196599321    -0.136635143526    -0.007094244551    -0.814461191370    0.224365375885
            0.032323064919    0.046089889697    0.110015433174    -0.085623488218    -0.814461191370    0.224365375885    0.122086280862    -0.095022260076
0.375     -0.059386512810    0.035738974295    -0.141963244092    0.841232163194    -0.021332866421    0.049309552482    0.054655396308    0.003152929894
            -0.141963244092    0.841232163194    -0.007121400617    -0.097392724045    0.054679439956    0.003055814616    0.006346434303    -0.053428821073
            -0.021332839152    0.049309513070    0.054679451365    0.003055789694    -0.059796902521    0.035700928787    -0.142064888066    0.841242274567
            0.054655408995    0.003152900956    0.006346433017    -0.053428818204    -0.142064888066    0.841242274567    -0.007358855446    -0.097538669571
0.400     -0.080407135924    -0.006122933858    0.705581185802    0.464455500200    -0.064543614624    -0.038516172678    0.035635514543    -0.066259355380
            0.705581177696    0.464455512514    0.047129905053    0.008101201371    0.035638143581    -0.066315117230    0.086740361605    0.020653088138
            -0.064543612048    -0.038516171141    0.035638121010    -0.066315141848    -0.080418728683    -0.007021230594    0.705602813811    0.464552879117
            0.035635491999    -0.066259379995    0.086740420146    0.020653166066    0.705602813811    0.464552879117    0.047713804785    0.007673240318
0.425     -0.122379056947    0.090788486618    0.700565622143    -0.426317190606    -0.133088445175    0.082771696169    -0.061386785086    -0.048035349229
            0.700565622143    -0.426317190606    0.125436489582    -0.114691121943    -0.061572545668    -0.048064846387    0.121280211827    -0.115358367270
            -0.133088436684    0.082771690888    -0.061572575847    -0.048064835355    -0.122988657676    0.090001564480    0.700662379926    -0.426305843909
            -0.061386816030    -0.048035338894    0.121280217060    -0.115358376279    0.700662379926    -0.426305843909    0.125230326838    -0.115523329520
0.450     -0.024285253458    0.140704644444    -0.073609277764    -0.818681513045    -0.006966685163    0.132746706263    -0.054653043845    0.027372679844
            -0.073609277764    -0.818681513045    -0.045974292868    -0.164847347247    -0.054610465910    0.027570264452    -0.034714810421    -0.123896982434
            -0.006966703615    0.132746615171    -0.054610472354    0.027570291626    -0.024298049017    0.140412274623    -0.073533990571    -0.818776653076
            -0.054653050384    0.027372706983    -0.034714810421    -0.123896982434    -0.073533990571    -0.818776653076    -0.045861410464    -0.165011964650
0.475     -0.006450860991    0.092763527118    -0.786098016936    -0.268968769836    -0.018512406163    0.041758754953    -0.018502346477    0.071441819572
            -0.786098016936    -0.268968769836    -0.038263764448    0.026452060899    -0.018459345049    0.071466209125    0.015957657091    0.021723812261
            -0.018512406163    0.041758754953    -0.018459311881    0.071466235250    -0.006260628975    0.091449756908    -0.786238392982    -0.269107091162
            -0.018502312831    0.071441843781    0.015957702523    0.021723835965    -0.786238392982    -0.269107091162    -0.037750802850    0.025193775099
0.500     -0.034469457981    0.142115067992    -0.549072637813    0.588927623380    -0.066634064707    0.143791511667    0.084384315604    0.042005163609
            -0.549072637813    0.588927623380    0.103378583046    -0.111857254688    0.084642897725    0.041945462636    0.107458489049    -0.121304177946
            -0.066634064707    0.143791511667    0.084642897725    0.041945462636    -0.035329431781    0.141274692930    -0.549159498512    0.589051706623
            0.084384315604    0.042005163609    0.107458489049    -0.121304177946    -0.549159498512    0.589051706623    0.102831015565    -0.112802228544
0.525     0.068491167759    0.173032714045    0.274860748557    0.741379837594    0.070768199874    0.173161861277    0.050248377108    -0.060890855219
            0.274860748557    0.741379837594    -0.093898321766    -0.186367327188    0.050064247424    -0.061200052463    -0.082243075638    -0.160394554117
            0.070768124276    0.173161805750    0.050064249797    -0.061200046646    0.068557022449    0.172751042475    0.274886255115    0.741460586886
            0.050248379590    -0.060890929666    -0.082243029393    -0.160394532877    0.274886255115    0.741460586886    -0.093858522722    -0.186873100097
0.550     0.111570224082    0.081858124091    0.806423008783    0.073133706993    0.082622579536    0.060988589625    -0.010089882155    -0.064558344676
            0.806423008783    0.073133706993    -0.114804250300    0.029508888850    -0.010258763441    -0.064434694597    -0.074691193979    0.029517746149
            0.082622570426    0.060988585129    -0.010258836214    -0.064434731615    0.111645351199    0.080389155372    0.806578557176    0.073179729956
            -0.010089881028    -0.064558344852    -0.074691184177    0.029517757347    0.806578557431    0.073179727141    -0.114912598386    0.028072470611
0.575     0.062420688158    0.092896042432    0.380454843930    -0.705035690957    0.030849313532    0.130828058575    -0.091127104888    -0.029600973242
            0.380454843930    -0.705035690957    0.059999584316    -0.066403363596    -0.091290676622    -0.029348355987    0.069860426035    -0.091688941912
            0.030849318099    0.130828057498    -0.091290736144    -0.029348304802    0.061722651269    0.092196596371    0.380477753511    -0.705216588516
            -0.091127132340    -0.029600946993    0.069860512347    -0.091688939008    0.380477753511    -0.705216588516    0.059432589577    -0.066961858303
0.600     0.151859465988    0.120209546636    -0.452539676013    -0.623948154500    0.154758295119    0.138832739651    -0.043266227667    0.087678244576
            -0.452539676013    -0.623948154500    -0.130501803560    -0.163108626897    -0.042813563385    0.087893188696    -0.124563258832    -0.155841518003
            0.154758201821    0.138832738825    -0.042813544077    0.087893265953    0.152418114822    0.119497747461    -0.452643543840    -0.623960289698
            -0.043266208752    0.087678321933    -0.124563258832    -0.155841518003    -0.452643543840    -0.623960289698    -0.130138461093    -0.164188105093
0.625     0.191835254749    -0.003994591792    -0.770282438981    0.121499304949    0.162711703904    -0.002091854458    0.043717476118    0.054592580017
            -0.770282438981    0.121499304949    -0.177275995030    0.046898420485    0.043783961699    0.054196888976    -0.147277695733    0.047675842773
            0.162711624434    -0.002091812706    0.043783996625    0.054196903183    0.191681192391    -0.006108795401    -0.770370959185    0.121539036338
            0.043717512616    0.054592594348    -0.147277695733    0.047675842773    -0.770370959185    0.121539036338    -0.178031763587    0.044930684884
0.650     0.082967332486    -0.023860828939    -0.202944132537    0.774865630707    0.061131370503    0.026737536422    0.082555945490    0.014264410276
            -0.202944132537    0.774865630707    0.009496960211    0.015598568215    0.082524805568    0.014127301639    0.027525186220    -0.008088516975
            0.061131371351    0.026737546961    0.082524857790    0.014127239565    0.081863630197    -0.024614931292    -0.202896850608    0.775020643563
            0.082555998802    0.014264348409    0.027525181648    -0.008088521894    -0.202896853141    0.775020653237    0.008394854770    0.015118431294
0.675     0.155343890198    0.025762200245    0.601280520301    0.478726528365    0.177760807704    0.048955159413    0.037980138470    -0.102776732425
            0.601280520301    0.478726528365    -0.134004140634    -0.098129622571    0.037478712254    -0.102821626194    -0.142949929800    -0.105827122150
            0.177760788664    0.048955190886    0.037478697404    -0.102821663538    0.155945353563    0.024791125654    0.601425182885    0.478621751444
            0.037980103781    -0.102776798549    -0.142949921763    -0.105827116200    0.601425190710    0.478621757671    -0.133962236338    -0.099605487816
0.700     0.173351892814    -0.123208912737    0.687118850974    -0.309699188658    0.163422208851    -0.108889211351    -0.075549179749    -0.048678308178
            0.687118850974    -0.309699188658    -0.200395704912    0.076136635162    -0.075432713867    -0.048160931408    -0.186454061071    0.079911308080
            0.163422208851    -0.108889211351    -0.075432713867    -0.048160931408    0.172843373089    -0.125599822031    0.687007722415    -0.309741189124
            -0.075549179749    -0.048678308178    -0.186454061071    0.079911308080    0.687007722415    -0.309741189124    -0.202063840206    0.074309142813
0.725     0.002336620488    -0.129338755151    0.016765206283    -0.782482667817    0.010342533143    -0.075469770421    -0.071892394888    0.014110395491
            0.016765206283    -0.782482667817    -0.040948992828    0.112280167169    -0.071709920583    0.014084524706    -0.019069720878    0.087421245044
            0.010342535098    -0.075469765107    -0.071709920583    0.014084524706    0.001203951057    -0.130179432810    0.016814796519    -0.782470891268
            -0.071892413013    0.014110438142    -0.019069720878    0.087421245044    0.016814796519    -0.782470891268    -0.042185004852    0.112294402538
0.750     0.073253217240    -0.024117621969    -0.710764036045    -0.310467706824    0.118171029271    -0.006090568641    -0.032121207150    0.108503631104
            -0.710764036045    -0.310467706824    -0.093098476974    -0.009270506457    -0.031687783529    0.108394738620    -0.107209827127    -0.036341567753
            0.118171053571    -0.006090485728    -0.031687780723    0.108394729021    0.073711705033    -0.025719525332    -0.710898243423    -0.310418035854
            -0.032121207150    0.108503631104    -0.107209767001    -0.036341651680    -0.710898243423    -0.310418035854    -0.093107919138    -0.011121829852
0.775     0.066215813888    -0.184432015551    -0.562218428224    0.480344876498    0.076020768848    -0.179473581333    0.104951432307    0.046894482498
            -0.562218428224    0.480344876498    -0.178034124375    0.106481898200    0.104582215997    0.046388321917    -0.182663474088    0.116788565241
            0.076020758683    -0.179473574779    0.104582215997    0.046388321917    0.064767240785    -0.187066175787    -0.562009575585    0.480326987477
