# GHz S RI R 45
0.000     0.034680636000    0.000000000000    0.000003939830    0.000000000000    0.000953931230    0.000000000000    -0.000020474638    0.000000000000
            0.000003940028    0.000000000000    0.034825568000    0.000000000000    0.000011298776    0.000000000000    0.000934155190    0.000000000000
            0.000953933780    0.000000000000    0.000011300834    0.000000000000    0.034696220000    0.000000000000    -0.000037110030    0.000000000000
            -0.000020474550    0.000000000000    0.000934120210    0.000000000000    -0.000037110168    0.000000000000    0.034691537000    0.000000000000
0.025     0.068927632941    -0.007863655458    -0.000109836978    -0.000036543393    0.010709439860    0.003962198282    -0.000114451363    -0.000025263735
            -0.000109836936    -0.000036543421    0.054156678532    -0.010787013866    -0.000120738755    -0.000039866037    0.010891885084    0.003620090663
            0.010709440906    0.003962201219    -0.000120738716    -0.000039866187    0.068933490265    -0.007899373790    -0.000104021079    -0.000032547634
            -0.000114451372    -0.000025263737    0.010891860099    0.003620092914    -0.000104021113    -0.000032547526    0.054350749462    -0.010926600871
0.050     0.027746672413    -0.019337528352    -0.000158951131    0.000170215222    -0.007870328401    0.012495209209    -0.000165106059    0.000187155526
            -0.000158951174    0.000170215387    0.015786676673    -0.005785635611    -0.000164615095    0.000181823076    -0.012159987790    0.007784491548
            -0.007870327868    0.012495208363    -0.000164615125    0.000181822982    0.027704396515    -0.019458306152    -0.000188018720    0.000175892556
            -0.000165106197    0.000187155617    -0.012160012079    0.007784498121    -0.000188018713    0.000175892549    0.015630408807    -0.005991784549
0.075     0.054174223645    0.026450522944    0.000168295865    0.000291741633    0.027509942926    0.048497754072    0.000187877808    0.000315209894
            0.000168295905    0.000291741609    0.042378971794    0.038709160405    0.000173722558    0.000306617404    0.009970155205    0.054893572725
            0.027509942079    0.048497754552    0.000173722378    0.000306617449    0.054052214263    0.026448234520    0.000167209863    0.000350993252
            0.000187877846    0.000315209883    0.009970134241    0.054893582631    0.000167209988    0.000350993215    0.042187365229    0.038735490287
0.100     0.086062597370    -0.034641734528    0.000377019548    -0.000024939339    0.054567834507    -0.004688728300    0.000417032903    -0.000036366114
            0.000377019539    -0.000024939336    0.074519054740    -0.002756972765    0.000402815422    -0.000025374392    0.053129708441    0.017063846291
            0.054567835593    -0.004688727338    0.000402815393    -0.000025374213    0.086198403857    -0.034581317739    0.000461068448    -0.000003966547
            0.000417032904    -0.000036366112    0.053129682847    0.017063860575    0.000461068448    -0.000003966546    0.074542969344    -0.002679219848
0.125     0.017329199290    -0.030370756949    0.000238958081    -0.000462996257    0.000342465812    0.010789537342    0.000244481180    -0.000511915714
            0.000238958081    -0.000462996257    0.023530147863    -0.005620337971    0.000244088963    -0.000484657665    -0.004245531444    0.008499157344
            0.000342465560    0.010789535349    0.000244089114    -0.000484657566    0.017574224786    -0.030617863845    0.000293074756    -0.000545622263
            0.000244481220    -0.000511915683    -0.004245552284    0.008499173090    0.000293074675    -0.000545622318    0.023646545338    -0.005748659577
0.150     0.076494932489    0.014008463023    -0.000493335097    -0.000442267825    0.070275347671    0.049271379478    -0.000541410141    -0.000473308008
            -0.000493335090    -0.000442267818    0.053614043947    0.049177353475    -0.000500001583    -0.000468369429    0.026546979890    0.081905535610
            0.070275345992    0.049271380130    -0.000500001383    -0.000468369570    0.076575504081    0.013713787222    -0.000551567137    -0.000549106858
            -0.000541410035    -0.000473308083    0.026546960801    0.081905544951    -0.000551567151    -0.000549106873    0.053514933629    0.049121096889
0.175     0.084241625279    -0.086815660010    -0.000552869227    0.000288550355    0.080592644927    -0.053388910821    -0.000608867298    0.000329528023
            -0.000552869218    0.000288550351    0.101713771278    0.002477510674    -0.000601893203    0.000290638596    0.096783241803    0.026851758134
            0.080592640268    -0.053388917854    -0.000601893209    0.000290638469    0.084493431602    -0.087175876292    -0.000705787785    0.000316689735
            -0.000608867280    0.000329528013    0.096783225137    0.026851780798    -0.000705787822    0.000316689751    0.102005880103    0.002407222372
0.200     -0.013359229014    -0.058402335570    -0.000120894102    0.000692151096    -0.010756233779    -0.022316003731    -0.000099172419    0.000758276041
            -0.000120894114    0.000692151094    0.054254502472    -0.025799065858    -0.000122894375    0.000736161492    0.029290758691    -0.012168025323
            -0.010756234214    -0.022316004632    -0.000122894403    0.000736161498    -0.013315040386    -0.059081618654    -0.000141035361    0.000849035496
            -0.000099172419    0.000758276041    0.029290752484    -0.012168001164    -0.000141035359    0.000849035486    0.054185953691    -0.026427214718
0.225     0.058367224469    -0.015096490418    0.000827061987    0.000458566439    0.074808541902    0.012007385241    0.000896111779    0.000478593701
            0.000827061996    0.000458566444    0.054305863983    0.022984632865    0.000848098362    0.000493031425    0.041046306146    0.067154964251
            0.074808541734    0.012007386286    0.000848098060    0.000493031705    0.058271369545    -0.015479403903    0.000957636632    0.000565125155
            0.000896111491    0.000478594029    0.041046298861    0.067154983940    0.000957636935    0.000565124838    0.053834042007    0.023067800345
0.250     0.035700453325    -0.124332628146    0.000638995335    -0.000684842230    0.052460883876    -0.107914802279    0.000694794313    -0.000758955718
            0.000638995329    -0.000684842223    0.111943188780    0.005379044554    0.000713007437    -0.000697085417    0.125377937922    0.028894288770
            0.052460885759    -0.107914801363    0.000713007449    -0.000697085405    0.036031125186    -0.124952353787    0.000826459916    -0.000785376026
            0.000694794421    -0.000758955755    0.125377931870    0.028894315029    0.000826459957    -0.000785375983    0.112349735864    0.005482392372
0.275     -0.075752784139    -0.063950415992    -0.000202831794    -0.000811918168    -0.062337613006    -0.043499663699    -0.000261332671    -0.000877128471
            -0.000202832258    -0.000811918217    0.092763970002    -0.059865462738    -0.000213352256    -0.000892040314    0.073591363893    -0.046244142731
            -0.062337612186    -0.043499663127    -0.000213351907    -0.000892040233    -0.075840763193    -0.065099247882    -0.000250660716    -0.001027947489
            -0.000261332483    -0.000877128402    0.073591360917    -0.046244121154    -0.000250660716    -0.001027947489    0.092805872071    -0.060485377622
0.300     0.002608134746    -0.010622999064    -0.001072700146    -0.000348061259    0.031248829565    0.004261152356    -0.001145573114    -0.000343323611
            -0.001072700146    -0.000348061259    0.036638255884    -0.032887390508    -0.001124616548    -0.000370754351    0.031450100245    0.019026444465
            0.031248828500    0.004261152767    -0.001124616643    -0.000370754382    0.002244128768    -0.011240041520    -0.001271905317    -0.000405188225
            -0.001145573114    -0.000343323611    0.031450100843    0.019026476319    -0.001271905790    -0.000405187398    0.036437342222    -0.032779504903
0.325     -0.034332146072    -0.102503912679    -0.000633366590    0.001136042857    -0.015987616831    -0.110418794138    -0.000676752774    0.001234894638
            -0.000633366590    0.001136042857    0.094467840434    0.004983758177    -0.000719608584    0.001170595440    0.124039660489    0.023387741689
            -0.015987614904    -0.110418794417    -0.000719608584    0.001170595440    -0.034347140922    -0.103441577504    -0.000814426257    0.001312927667
            -0.000676752558    0.001234894756    0.124039675653    0.023387769209    -0.000814426257    0.001312927667    0.095133582178    0.004636333650
0.350     -0.132419836297    -0.014401392831    0.000708468834    0.000815165774    -0.125272335733    -0.009458457342    0.000802453992    0.000866364905
            0.000708468834    0.000815165774    0.122331970753    -0.094034515854    0.000747189041    0.000936040485    0.110015403050    -0.085623575769
            -0.125272335733    -0.009458457342    0.000747188193    0.000936040394    -0.133169297383    -0.015432474111    0.000844482606    0.001068824938
            0.000802453992    0.000866364905    0.110015433174    -0.085623488218    0.000844482668    0.001068825017    0.122086280862    -0.095022260076
0.375     -0.047330330932    0.037056432478    0.001152338224    0.000026978887    -0.018221490010    0.051554935906    0.001220258061    -0.000003643441
            0.001152338433    0.000026978509    -0.007121400617    -0.097392724045    0.001248803073    0.000009590694    0.006346434303    -0.053428821073
            -0.018221490010    0.051554935906    0.001248803073    0.000009590699    -0.047754871694    0.036941934940    0.001410872585    -0.000008600785
            0.001220257862    -0.000003643027    0.006346433017    -0.053428818204    0.001410872585    -0.000008600782    -0.007358855446    -0.097538669571
0.400     -0.059660695110    -0.021461459388    0.000519167301    -0.001522039004    -0.054716930151    -0.045796313312    0.000543709320    -0.001628977326
            0.000519167328    -0.001522038995    0.047129905053    0.008101201371    0.000588540365    -0.001584166240    0.086740361605    0.020653088138
            -0.054716929384    -0.045796312670    0.000588540365    -0.001584166240    -0.059644180266    -0.022473833070    0.000648110992    -0.001760262092
            0.000543709320    -0.001628977326    0.086740420146    0.020653166066    0.000648110992    -0.001760262092    0.047713804785    0.007673240318
0.425     -0.126741578562    0.069676081096    -0.001283921032    -0.000684774666    -0.136421629662    0.072382596209    -0.001402729297    -0.000718662929
            -0.001283921416    -0.000684774583    0.125436489582    -0.114691121943    -0.001366452402    -0.000832050682    0.121280211827    -0.115358367270
            -0.136421629662    0.072382596209    -0.001366452402    -0.000832050682    -0.127755610725    0.068757300041    -0.001514254811    -0.000945435848
            -0.001402729297    -0.000718662929    0.121280217060    -0.115358376279    -0.001514254811    -0.000945435848    0.125230326838    -0.115523329520
0.450     -0.026960275265    0.138434132862    -0.001009328042    0.000495493969    -0.010828978143    0.132635038677    -0.001055898597    0.000558384505
            -0.001009328042    0.000495493969    -0.045974292868    -0.164847347247    -0.001145120417    0.000583594882    -0.034714810421    -0.123896982434
            -0.010828978143    0.132635038677    -0.001145120417    0.000583594882    -0.027369246156    0.138387425717    -0.001300704205    0.000658505367
            -0.001055898835    0.000558385339    -0.034714810421    -0.123896982434    -0.001300704116    0.000658505321    -0.045861410464    -0.165011964650
0.475     0.000180063339    0.077641527202    -0.000285468876    0.001613564146    -0.014895724455    0.036097759534    -0.000295922301    0.001715287628
            -0.000285468876    0.001613564146    -0.038263764448    0.026452060899    -0.000299324237    0.001697866092    0.015957657091    0.021723812261
            -0.014895724455    0.036097759534    -0.000299324908    0.001697865567    -0.000167243316    0.075886946711    -0.000313495738    0.001883134963
            -0.000295922601    0.001715287577    0.015957702523    0.021723835965    -0.000313495689    0.001883134870    -0.037750802850    0.025193775099
0.500     -0.054289581102    0.120661551172    0.001796670838    0.000448277483    -0.076259354190    0.135148154367    0.001925190613    0.000469119301
            0.001796670838    0.000448277483    0.103378583046    -0.111857254688    0.001924160273    0.000590946916    0.107458489049    -0.121304177946
            -0.076259354190    0.135148154367    0.001924160273    0.000590946916    -0.055266979375    0.120152070965    0.002107339836    0.000677948344
            0.001925191319    0.000469118939    0.107458489049    -0.121304177946    0.002107339741    0.000677948313    0.102831015565    -0.112802228544
0.525     0.051886305665    0.177743989092    0.000753690151    -0.001083018230    0.062095442125    0.177418977315    0.000789183494    -0.001171874278
            0.000753690151    -0.001083018230    -0.093898321766    -0.186367327188    0.000899717246    -0.001253468227    -0.082243075638    -0.160394554117
            0.062095439029    0.177418978399    0.000899717246    -0.001253468227    0.052116288429    0.177746055098    0.001042881092    -0.001380733131
            0.000789183535    -0.001171874251    -0.082243029393    -0.160394532877    0.001042881153    -0.001380733211    -0.093858522722    -0.186873100097
0.550     0.111604995528    0.074886595320    -0.000092458595    -0.001425662133    0.084216883076    0.062391278002    -0.000115282295    -0.001507459244
            -0.000092458589    -0.001425662033    -0.114804250300    0.029508888850    -0.000169481895    -0.001515156742    -0.074691193979    0.029517746149
            0.084216883076    0.062391278002    -0.000169481773    -0.001515156856    0.111840564217    0.073376772770    -0.000204412423    -0.001698213976
            -0.000115283036    -0.001507459589    -0.074691184177    0.029517757347    -0.000204414012    -0.001698214691    -0.114912598386    0.028072470611
0.575     0.036289891616    0.084886544226    -0.002097821279    -0.000239168240    0.016644316829    0.124943541468    -0.002229231298    -0.000256548209
            -0.002097821321    -0.000239167873    0.059999584316    -0.066403363596    -0.002251441861    -0.000337922578    0.069860426035    -0.091688941912
            0.016644316829    0.124943541468    -0.002251441762    -0.000337922563    0.035386751678    0.084225494277    -0.002454415533    -0.000396833574
            -0.002229231199    -0.000256548197    0.069860512347    -0.091688939008    -0.002454415533    -0.000396833574    0.059432589577    -0.066961858303
0.600     0.133159367699    0.140798427701    -0.000428542915    0.001623695487    0.148221508657    0.148948743950    -0.000462660697    0.001740185383
            -0.000428542940    0.001623695583    -0.130501803560    -0.163108626897    -0.000548314328    0.001865493108    -0.124563258832    -0.155841518003
            0.148221506057    0.148948746537    -0.000548314328    0.001865493108    0.133695622699    0.140375566438    -0.000677423880    0.002041020206
            -0.000462661125    0.001740184545    -0.124563258832    -0.155841518003    -0.000677423880    0.002041020206    -0.130138461093    -0.164188105093
0.625     0.195269479073    0.005783220437    0.000641865055    0.001087488235    0.168205095837    0.004955597134    0.000702045775    0.001154727375
            0.000641865036    0.001087488246    -0.177275995030    0.046898420485    0.000812594736    0.001158337903    -0.147277695733    0.047675842773
            0.168205095785    0.004955598896    0.000812594341    0.001158337813    0.195339227779    0.003808441963    0.000907303784    0.001335788079
            0.000702045775    0.001154727375    -0.147277695733    0.047675842773    0.000907303728    0.001335787997    -0.178031763587    0.044930684884
0.650     0.066573466735    -0.021724227723    0.002094233191    0.000107065268    0.059522345068    0.025477105369    0.002208893686    0.000112683277
            0.002094233192    0.000107065264    0.009496960211    0.015598568215    0.002225416767    0.000124100193    0.027525186220    -0.008088516975
            0.059522345068    0.025477105369    0.002225416231    0.000124100818    0.065684789003    -0.022572071998    0.002435858299    0.000143805139
            0.002208893687    0.000112683273    0.027525181648    -0.008088521894    0.002435858301    0.000143805101    0.008394854770    0.015118431294
0.675     0.149311843757    0.055329101729    0.000140042887    -0.002098007734    0.179333229555    0.058592835432    0.000174045944    -0.002244960543
            0.000140042967    -0.002098007829    -0.134004140634    -0.098129622571    0.000201798387    -0.002371440844    -0.142949929800    -0.105827122150
            0.179333228532    0.058592838562    0.000201798610    -0.002371440524    0.150035425847    0.054105725280    0.000313631647    -0.002589768080
            0.000174046235    -0.002244959718    -0.142949921763    -0.105827116200    0.000313631445    -0.002589768305    -0.133962236338    -0.099605487816
0.700     0.192156207335    -0.108072116802    -0.001249203870    -0.000732253665    0.174548658212    -0.103490691158    -0.001358304134    -0.000788528352
            -0.001249203870    -0.000732253665    -0.200395704912    0.076136635162    -0.001492161487    -0.000761248450    -0.186454061071    0.079911308080
            0.174548658212    -0.103490691158    -0.001492160731    -0.000761248392    0.191576818732    -0.110782012514    -0.001653611060    -0.000929908390
            -0.001358304221    -0.000788528402    -0.186454061071    0.079911308080    -0.001653611060    -0.000929908390    -0.202063840206    0.074309142813
0.725     0.003900682258    -0.128985042524    -0.001725067479    0.000251095914    0.016212196723    -0.081955761860    -0.001821890238    0.000276174798
            -0.001725067479    0.000251095914    -0.040948992828    0.112280167169    -0.001806517588    0.000332822413    -0.019069720878    0.087421245044
            0.016212197306    -0.081955764803    -0.001806517588    0.000332822413    0.002497571463    -0.130025425122    -0.002013459592    0.000374909684
            -0.001821890238    0.000276174798    -0.019069720878    0.087421245044    -0.002013459624    0.000374910054    -0.042185004852    0.112294402538
0.750     0.081132585956    -0.002952459597    0.000035258968    0.002495621237    0.120788608854    -0.005153803572    -0.000002020084    0.002662209934
            0.000035258879    0.002495621138    -0.093098476974    -0.009270506457    0.000028743296    0.002739681924    -0.107209827127    -0.036341567753
            0.120788598953    -0.005153801038    0.000028743297    0.002739682024    0.081373853409    -0.004563088890    -0.000053876959    0.002990129755
            -0.000002020130    0.002662209934    -0.107209767001    -0.036341651680    -0.000053876961    0.002990129855    -0.093107919138    -0.011121829852
0.775     0.094600642606    -0.181748765820    0.001886167481    0.000330316400    0.084007262689    -0.182978697117    0.002051301537    0.000369332348
            0.001886167356    0.000330316534    -0.178034124375    0.106481898200    0.002164071380    0.000308389084    -0.182663474088    0.116788565241
            0.084007262689    -0.182978697117    0.002164071386    0.000308389039    0.093136695858    -0.184442089805    0.002395147493    0.000457178659
            0.002051301616    0.000369332473    -0.182663474088    0.116788565241    0.002395147493    0.000457178659    -0.180515069494    0.104651659670
