# GHz S RI R 45
0.000     0.035001236000    0.000000000000    -0.000032037905    0.000000000000    0.001055718300    0.000000000000    -0.000040077260    0.000000000000
            -0.000032037915    0.000000000000    0.034825568000    0.000000000000    -0.000003512255    0.000000000000    0.000934155190    0.000000000000
            0.001055709400    0.000000000000    -0.000003512213    0.000000000000    0.034819027000    0.000000000000    -0.000023769665    0.000000000000
            -0.000040077343    0.000000000000    0.000934120210    0.000000000000    -0.000023769692    0.000000000000    0.034691537000    0.000000000000
0.025     0.054435109021    -0.009735124457    -0.000006189931    0.000020329128    0.010495892743    0.003691594796    -0.000001219540    0.000039409218
            -0.000006189935    0.000020329126    0.054156678532    -0.010787013866    -0.000012685318    0.000010723781    0.010891885084    0.003620090663
            0.010495856564    0.003691601215    -0.000012685321    0.000010723776    0.054401126707    -0.009839240226    -0.000011476686    0.000013736342
            -0.000001219534    0.000039409217    0.010891860099    0.003620092914    -0.000011476678    0.000013736342    0.054350749462    -0.010926600871
0.050     0.018135735484    -0.003200597285    0.000023385116    -0.000017062231    -0.011867741197    0.009120148982    0.000045965603    -0.000009517462
            0.000023385114    -0.000017062232    0.015786676673    -0.005785635611    0.000018727769    -0.000020570994    -0.012159987790    0.007784491548
            -0.011867772943    0.009120156906    0.000018727779    -0.000020570895    0.017952455447    -0.003381629060    0.000021476933    -0.000015995329
            0.000045965607    -0.000009517465    -0.012160012079    0.007784498121    0.000021476956    -0.000015995334    0.015630408807    -0.005991784549
0.075     0.046157843018    0.038007071834    -0.000027733420    -0.000051143553    0.011643583054    0.054833699695    -0.000009038690    -0.000059043481
            -0.000027733420    -0.000051143554    0.042378971794    0.038709160405    -0.000032817385    -0.000052148480    0.009970155205    0.054893572725
            0.011643555174    0.054833709704    -0.000032817347    -0.000052148460    0.045818457653    0.038033163570    -0.000025542531    -0.000062284916
            -0.000009038646    -0.000059043503    0.009970134241    0.054893582631    -0.000025542511    -0.000062284930    0.042187365229    0.038735490287
0.100     0.073556473582    -0.001955255781    -0.000051811170    0.000002822200    0.052495537877    0.016813170789    -0.000040128866    -0.000006071113
            -0.000051811177    0.000002822209    0.074519054740    -0.002756972765    -0.000053682082    0.000000095145    0.053129708441    0.017063846291
            0.052495512374    0.016813184846    -0.000053682080    0.000000095145    0.073512703176    -0.001753653563    -0.000064243145    -0.000009365717
            -0.000040128853    -0.000006071025    0.053129682847    0.017063860575    -0.000064243130    -0.000009365635    0.074542969344    -0.002679219848
0.125     0.029114527403    0.001957217548    0.000004494388    -0.000008851878    -0.002875322229    0.011127227015    0.000016036843    -0.000020113406
            0.000004494385    -0.000008851879    0.023530147863    -0.005620337971    -0.000001360110    -0.000010828026    -0.004245531444    0.008499157344
            -0.002875345962    0.011127246704    -0.000001360115    -0.000010828028    0.029195265649    0.001878125577    -0.000003916300    -0.000011493680
            0.000016036846    -0.000020113411    -0.004245552284    0.008499173090    -0.000003916295    -0.000011493677    0.023646545338    -0.005748659577
0.150     0.065797012926    0.045827345981    -0.000055086790    -0.000068555057    0.031831861866    0.080444574081    -0.000048909376    -0.000085540042
            -0.000055086789    -0.000068555056    0.053614043947    0.049177353475    -0.000053554537    -0.000067923901    0.026546979890    0.081905535610
            0.031831841977    0.080444589480    -0.000053554545    -0.000067923887    0.065685364183    0.045814692183    -0.000060827755    -0.000083835373
            -0.000048909366    -0.000085540058    0.026546960801    0.081905544951    -0.000060827761    -0.000083835381    0.053514933629    0.049121096889
0.175     0.100939232283    -0.001864993803    -0.000114347875    0.000014354750    0.096059469227    0.024336511645    -0.000118050083    -0.000002525751
            -0.000114347890    0.000014354792    0.101713771278    0.002477510674    -0.000113645996    0.000002894488    0.096783241803    0.026851758134
            0.096059449710    0.024336531678    -0.000113645977    0.000002894448    0.101215186940    -0.001860771682    -0.000139431070    -0.000000800787
            -0.000118050083    -0.000002525751    0.096783225137    0.026851780798    -0.000139431090    -0.000000800787    0.102005880103    0.002407222372
0.200     0.062295409603    -0.016136784733    -0.000024556890    0.000051328512    0.032324557791    -0.007839430182    -0.000032475674    0.000042212952
            -0.000024556898    0.000051328507    0.054254502472    -0.025799065858    -0.000033968019    0.000044708016    0.029290758691    -0.012168025323
            0.032324543280    -0.007839405158    -0.000033968020    0.000044708017    0.062360661360    -0.016714111944    -0.000047165025    0.000054140765
            -0.000032475682    0.000042212947    0.029290752484    -0.012168001164    -0.000047164886    0.000054140683    0.054185953691    -0.026427214718
0.225     0.075539555104    0.014438563216    -0.000052113169    -0.000045015778    0.051602815298    0.059764651126    -0.000056578941    -0.000055122943
            -0.000052113177    -0.000045015769    0.054305863983    0.022984632865    -0.000052129887    -0.000050826861    0.041046306146    0.067154964251
            0.051602800067    0.059764684095    -0.000052129893    -0.000050826849    0.075101069853    0.014410459677    -0.000065137209    -0.000054346726
            -0.000056578943    -0.000055122944    0.041046298861    0.067154983940    -0.000065137186    -0.000054346784    0.053834042007    0.023067800345
0.250     0.111839286324    -0.009312166569    -0.000153124165    0.000043894286    0.124026342583    0.023047788192    -0.000170301479    0.000029504613
            -0.000153124155    0.000043894283    0.111943188780    0.005379044554    -0.000162305355    0.000025565942    0.125377937922    0.028894288770
            0.124026326315    0.023047820999    -0.000162305345    0.000025565941    0.112265759488    -0.009095319832    -0.000192519751    0.000032422802
            -0.000170301489    0.000029504615    0.125377931870    0.028894315029    -0.000192519776    0.000032422772    0.112349735864    0.005482392372
0.275     0.100216404101    -0.052681549375    -0.000037110323    0.000137459704    0.077216885018    -0.042710816208    -0.000061823982    0.000142765808
            -0.000037110323    0.000137459704    0.092763970002    -0.059865462738    -0.000056265567    0.000132033446    0.073591363893    -0.046244142731
            0.077216878990    -0.042710802314    -0.000056265613    0.000132033426    0.100617084655    -0.053362430027    -0.000074325189    0.000158926581
            -0.000061823941    0.000142765782    0.073591360917    -0.046244121154    -0.000074325165    0.000158926603    0.092805872071    -0.060485377622
0.300     0.062427707358    -0.047429965684    -0.000000372373    -0.000004493809    0.042073695464    0.010888854162    -0.000006690181    0.000002034926
            -0.000000372377    -0.000004493801    0.036638255884    -0.032887390508    -0.000008585485    -0.000011006716    0.031450100245    0.019026444465
            0.042073694496    0.010888853911    -0.000008585493    -0.000011006710    0.062217481620    -0.047689155217    -0.000012347385    0.000003407722
            -0.000006690186    0.000002034923    0.031450100843    0.019026476319    -0.000012347376    0.000003407717    0.036437342222    -0.032779504903
0.325     0.093326831923    -0.019997015501    -0.000162500270    0.000067823493    0.121057258919    0.015441909181    -0.000185634621    0.000060322327
            -0.000162500332    0.000067823552    0.094467840434    0.004983758177    -0.000185650648    0.000054243663    0.124039660489    0.023387741689
            0.121057249377    0.015441904958    -0.000185650600    0.000054243649    0.093951982756    -0.020212162258    -0.000209677980    0.000066691202
            -0.000185634697    0.000060322351    0.124039675653    0.023387769209    -0.000209678027    0.000066691217    0.095133582178    0.004636333650
0.350     0.124102717385    -0.094709505666    -0.000017150553    0.000217513593    0.113495017769    -0.084430946268    -0.000050844422    0.000242801580
            -0.000017150483    0.000217513628    0.122331970753    -0.094034515854    -0.000043713803    0.000223683045    0.110015403050    -0.085623575769
            0.113495016295    -0.084430948249    -0.000043713762    0.000223683043    0.124324125130    -0.095867811940    -0.000059559550    0.000267080045
            -0.000050844341    0.000242801617    0.110015433174    -0.085623488218    -0.000059559552    0.000267080055    0.122086280862    -0.095022260076
0.375     0.036541618649    -0.120851700901    0.000088633255    0.000039052282    0.015934651484    -0.065275448162    0.000090962734    0.000065820472
            0.000088633262    0.000039052244    -0.007121400617    -0.097392724045    0.000074533428    0.000041832992    0.006346434303    -0.053428821073
            0.015934668392    -0.065275398742    0.000074533417    0.000041832984    0.036483939954    -0.120938880262    0.000091309647    0.000070725270
            0.000090962732    0.000065820476    0.006346433017    -0.053428818204    0.000091309654    0.000070725278    -0.007358855446    -0.097538669571
0.400     0.043657812681    -0.024198157678    -0.000144418209    0.000060026237    0.081969639925    0.010436749280    -0.000164435758    0.000058671519
            -0.000144418242    0.000060026339    0.047129905053    0.008101201371    -0.000174015374    0.000061662856    0.086740361605    0.020653088138
            0.081969639370    0.010436745720    -0.000174015288    0.000061662859    0.044227648287    -0.024439519527    -0.000186055015    0.000070425111
            -0.000164435758    0.000058671519    0.086740420146    0.020653166066    -0.000186055015    0.000070425111    0.047713804785    0.007673240318
0.425     0.119194469148    -0.124871234686    0.000032962602    0.000272716547    0.124650181700    -0.116604719822    -0.000000332754    0.000316795295
            0.000032962625    0.000272716585    0.125436489582    -0.114691121943    0.000009158212    0.000295640214    0.121280211827    -0.115358367270
            0.124650179664    -0.116604721998    0.000009158222    0.000295640204    0.119556285761    -0.126062388401    -0.000000011634    0.000349726080
            -0.000000332743    0.000316795295    0.121280217060    -0.115358376279    -0.000000011603    0.000349726150    0.125230326838    -0.115523329520
0.450     -0.033850711588    -0.183191804552    0.000179418454    0.000059893668    -0.027262934835    -0.136366931885    0.000197662132    0.000102875299
            0.000179418444    0.000059893668    -0.045974292868    -0.164847347247    0.000169830231    0.000076546199    -0.034714810421    -0.123896982434
            -0.027262869590    -0.136366853148    0.000169830225    0.000076546189    -0.033964595559    -0.184016252017    0.000210721565    0.000110523502
            0.000197662163    0.000102875219    -0.034714810421    -0.123896982434    0.000210721574    0.000110523506    -0.045861410464    -0.165011964650
0.475     -0.042856926053    -0.028731250675    -0.000087738648    0.000004963020    0.008379085240    0.011548865125    -0.000095301419    0.000005024825
            -0.000087738648    0.000004963051    -0.038263764448    0.026452060899    -0.000108606045    0.000022490875    0.015957657091    0.021723812261
            0.008379091068    0.011548862132    -0.000108606045    0.000022490875    -0.042462229951    -0.029704880740    -0.000106543086    0.000018034186
            -0.000095301802    0.000005024745    0.015957702523    0.021723835965    -0.000106543093    0.000018034206    -0.037750802850    0.025193775099
0.500     0.089144619090    -0.129941211708    0.000085379065    0.000292147800    0.110244077710    -0.125119172835    0.000059822465    0.000347269220
            0.000085379058    0.000292147813    0.103378583046    -0.111857254688    0.000076281275    0.000327099572    0.107458489049    -0.121304177946
            0.110244077710    -0.125119172835    0.000076281286    0.000327099569    0.089113270904    -0.131315677479    0.000074756608    0.000383247010
            0.000059822465    0.000347269220    0.107458489049    -0.121304177946    0.000074756608    0.000383247010    0.102831015565    -0.112802228544
0.525     -0.094683759039    -0.201700235611    0.000247880371    0.000039693130    -0.076483319926    -0.174014566419    0.000283411200    0.000090751960
            0.000247880372    0.000039693128    -0.093898321766    -0.186367327188    0.000252725172    0.000067392145    -0.082243075638    -0.160394554117
            -0.076483222970    -0.174014510724    0.000252725180    0.000067392152    -0.094926415230    -0.202749912910    0.000313311060    0.000097015020
            0.000283411163    0.000090751942    -0.082243029393    -0.160394532877    0.000313311371    0.000097014828    -0.093858522722    -0.186873100097
0.550     -0.121426057187    0.000719696249    0.000002913292    -0.000063383300    -0.080497055788    0.017683079033    0.000013758671    -0.000065664507
            0.000002913291    -0.000063383302    -0.114804250300    0.029508888850    0.000004717059    -0.000037932064    -0.074691193979    0.029517746149
            -0.080497045044    0.017683076673    0.000004717061    -0.000037932047    -0.121488438879    -0.000495661204    0.000019570770    -0.000057639585
            0.000013758671    -0.000065664508    -0.074691184177    0.029517757347    0.000019570773    -0.000057639605    -0.114912598386    0.028072470611
0.575     0.039829436393    -0.088995869431    0.000092751367    0.000254682131    0.068066898930    -0.102456545836    0.000076358349    0.000307411547
            0.000092751371    0.000254682130    0.059999584316    -0.066403363596    0.000103932275    0.000288140837    0.069860426035    -0.091688941912
            0.068066882667    -0.102456544634    0.000103932285    0.000288140833    0.039776971709    -0.090145416972    0.000106067251    0.000335967583
            0.000076358357    0.000307411535    0.069860512347    -0.091688939008    0.000106067233    0.000335967588    0.059432589577    -0.066961858303
0.600     -0.143975490368    -0.173477156751    0.000290685908    -0.000009414420    -0.119147703865    -0.170824851210    0.000339489537    0.000040513490
            0.000290685898    -0.000009414424    -0.130501803560    -0.163108626897    0.000315020968    0.000019079804    -0.124563258832    -0.155841518003
            -0.119147598470    -0.170824827185    0.000315020958    0.000019079805    -0.143916842788    -0.174998271508    0.000386097165    0.000037527829
            0.000339489517    0.000040513489    -0.124563258832    -0.155841518003    0.000386097174    0.000037527835    -0.130138461093    -0.164188105093
0.625     -0.184549177831    0.026418196504    0.000079929725    -0.000121950640    -0.152610871200    0.031833317311    0.000109479839    -0.000130031423
            0.000079929495    -0.000121950921    -0.177275995030    0.046898420485    0.000111242582    -0.000104140848    -0.147277695733    0.047675842773
            -0.152610763517    0.031833294850    0.000111242651    -0.000104140891    -0.185109665218    0.024578890199    0.000134404102    -0.000138193199
            0.000109479856    -0.000130031369    -0.147277695733    0.047675842773    0.000134403803    -0.000138193852    -0.178031763587    0.044930684884
0.650     -0.010659761187    -0.009862141669    0.000036401412    0.000151552897    0.028384672290    -0.017800044820    0.000025905965    0.000188305397
            0.000036401458    0.000151552927    0.009496960211    0.015598568215    0.000064773312    0.000165232748    0.027525186220    -0.008088516975
            0.028384663761    -0.017800054656    0.000064773329    0.000165232742    -0.011378394280    -0.010880829693    0.000065838127    0.000195233081
            0.000025905987    0.000188305464    0.027525181648    -0.008088521894    0.000065838107    0.000195233077    0.008394854770    0.015118431294
0.675     -0.155820721754    -0.104874009090    0.000297719002    -0.000039361985    -0.136771305938    -0.122766573074    0.000349570793    0.000004396621
            0.000297719002    -0.000039361985    -0.134004140634    -0.098129622571    0.000337287863    -0.000021593888    -0.142949929800    -0.105827122150
            -0.136771262186    -0.122766576906    0.000337287863    -0.000021593889    -0.155881177397    -0.106511790870    0.000405878654    -0.000014778608
            0.000349570792    0.000004396655    -0.142949921763    -0.105827116200    0.000405878676    -0.000014778562    -0.133962236338    -0.099605487816
0.700     -0.207420040035    0.062824286823    0.000109340993    -0.000179822279    -0.192261912715    0.056359178107    0.000151732027    -0.000195129236
            0.000109340993    -0.000179822279    -0.200395704912    0.076136635162    0.000165009267    -0.000184739837    -0.186454061071    0.079911308080
            -0.192261912715    0.056359178107    0.000165009267    -0.000184739837    -0.208519202941    0.060930208989    0.000190039335    -0.000228027909
            0.000151732027    -0.000195129236    -0.186454061071    0.079911308080    0.000190039328    -0.000228027902    -0.202063840206    0.074309142813
0.725     -0.061697149368    0.086426095081    -0.000026291257    -0.000008776455    -0.024864230816    0.073139988929    -0.000034087544    0.000000517405
            -0.000026291234    -0.000008776458    -0.040948992828    0.112280167169    0.000006577470    -0.000029134790    -0.019069720878    0.087421245044
            -0.024864229528    0.073139985142    0.000006577463    -0.000029134749    -0.062578403758    0.085759585062    0.000004359923    -0.000024077438
            -0.000034087531    0.000000517417    -0.019069720878    0.087421245044    0.000004359933    -0.000024077488    -0.042185004852    0.112294402538
0.750     -0.118473598606    -0.013871605423    0.000257754912    -0.000009124093    -0.102952766550    -0.055571342828    0.000298613446    0.000028659767
            0.000257754912    -0.000009124094    -0.093098476974    -0.009270506457    0.000300007236    -0.000008368498    -0.107209827127    -0.036341567753
            -0.102952701355    -0.055571400453    0.000300007236    -0.000008368495    -0.118333259526    -0.015802060878    0.000351493577    -0.000008522827
            0.000298613446    0.000028659769    -0.107209767001    -0.036341651680    0.000351493577    -0.000008522826    -0.093107919138    -0.011121829852
0.775     -0.185779748236    0.095290661272    0.000113231470    -0.000242649799    -0.191391409996    0.080592093342    0.000162256508    -0.000263411322
            0.000113231576    -0.000242649805    -0.178034124375    0.106481898200    0.000179250579    -0.000279031428    -0.182663474088    0.116788565241
            -0.191391386714    0.080592122866    0.000179250459    -0.000279031434    -0.187477144633    0.093029513568    0.000203570815    -0.000324306483
            0.000162256494    -0.000263411319    -0.182663474088    0.116788565241    0.000203570816    -0.000324306471    -0.180515069494    0.104651659670
