# GHz S RI R 45
0.000     0.035882472000    0.000000000000    -0.000101236960    0.000000000000    0.001115655200    0.000000000000    -0.000114705310    0.000000000000
            -0.000101235120    0.000000000000    0.034825568000    0.000000000000    -0.000077205716    0.000000000000    0.000934155190    0.000000000000
            0.001115733300    0.000000000000    -0.000077202938    0.000000000000    0.035789113000    0.000000000000    -0.000074034360    0.000000000000
            -0.000114704760    0.000000000000    0.000934120210    0.000000000000    -0.000074037463    0.000000000000    0.034691537000    0.000000000000
0.025     0.067425133037    -0.008008543647    -0.000404053667    -0.000077455357    0.010229762819    0.004244225192    -0.000308905487    -0.000056409140
            -0.000404053478    -0.000077455759    0.054156678532    -0.010787013866    -0.000517751421    -0.000119711002    0.010891885084    0.003620090663
            0.010229721849    0.004244162154    -0.000517750958    -0.000119711847    0.067520534724    -0.008011067423    -0.000411561043    -0.000094035560
            -0.000308905261    -0.000056409711    0.010891860099    0.003620092914    -0.000411560714    -0.000094035787    0.054350749462    -0.010926600871
0.050     0.028043759310    -0.018269440745    -0.000586788423    0.000662971982    -0.006935570283    0.012975435861    -0.000484464048    0.000526144370
            -0.000586788668    0.000662971792    0.015786676673    -0.005785635611    -0.000739794327    0.000823339218    -0.012159987790    0.007784491548
            -0.006935603753    0.012975498478    -0.000739794835    0.000823338627    0.028025567844    -0.018365681488    -0.000598094507    0.000666244667
            -0.000484464493    0.000526143932    -0.012160012079    0.007784498121    -0.000598095219    0.000666244524    0.015630408807    -0.005991784549
0.075     0.054015392063    0.025529820533    0.000667144568    0.001122460297    0.027551750365    0.047539092193    0.000535669219    0.000919005013
            0.000667144113    0.001122460335    0.042378971794    0.038709160405    0.000804605809    0.001407698557    0.009970155205    0.054893572725
            0.027551818181    0.047539088719    0.000804604923    0.001407698718    0.054029854527    0.025618062593    0.000664024707    0.001131822037
            0.000535668685    0.000919005093    0.009970134241    0.054893582631    0.000664025243    0.001131821955    0.042187365229    0.038735490287
0.100     0.085077248171    -0.032941483114    0.001472847700    -0.000123384581    0.054338309292    -0.003247795965    0.001202994607    -0.000089355549
            0.001472847609    -0.000123384469    0.074519054740    -0.002756972765    0.001846901062    -0.000118621313    0.053129708441    0.017063846291
            0.054338271009    -0.003247849831    0.001846900924    -0.000118620337    0.085250305857    -0.033036556527    0.001481807467    -0.000112164303
            0.001202994472    -0.000089354663    0.053129682847    0.017063860575    0.001481807595    -0.000112165259    0.074542969344    -0.002679219848
0.125     0.020417869457    -0.029564811750    0.000910309541    -0.001798564359    0.002485932617    0.010513298346    0.000754753641    -0.001481133280
            0.000910310057    -0.001798564210    0.023530147863    -0.005620337971    0.001155592465    -0.002218676534    -0.004245531444    0.008499157344
            0.002485904951    0.010513362432    0.001155592891    -0.002218676312    0.020336233016    -0.029650140552    0.000920483627    -0.001806407735
            0.000754754100    -0.001481133158    -0.004245552284    0.008499173090    0.000920483915    -0.001806407364    0.023646545338    -0.005748659577
0.150     0.077083699173    0.012089161501    -0.001934123843    -0.001744669715    0.071041108059    0.046809568953    -0.001598142409    -0.001420470704
            -0.001934123917    -0.001744669782    0.053614043947    0.049177353475    -0.002317752329    -0.002210751483    0.026546979890    0.081905535610
            0.071041175173    0.046809561607    -0.002317751412    -0.002210752154    0.077231548865    0.012168625275    -0.001921517915    -0.001751464080
            -0.001598142409    -0.001420470704    0.026546960801    0.081905544951    -0.001921517915    -0.001751464080    0.053514933629    0.049121096889
0.175     0.085565073370    -0.084794824103    -0.002179278741    0.001193388713    0.081963721484    -0.051772668073    -0.001774320363    0.000980088471
            -0.002179278565    0.001193388617    0.101713771278    0.002477510674    -0.002783213278    0.001365310101    0.096783241803    0.026851758134
            0.081963683765    -0.051772720297    -0.002783213157    0.001365309440    0.085747874696    -0.085077129489    -0.002197910509    0.001155493707
            -0.001774319746    0.000980087727    0.096783225137    0.026851780798    -0.002197910573    0.001155494231    0.102005880103    0.002407222372
0.200     -0.006472961535    -0.060304158739    -0.000409714964    0.002664221262    -0.003885052478    -0.024713953993    -0.000332002634    0.002194289624
            -0.000409716018    0.002664220998    0.054254502472    -0.025799065858    -0.000600135683    0.003350062338    0.029290758691    -0.012168025323
            -0.003885076253    -0.024713891544    -0.000600136250    0.003350062135    -0.006634044139    -0.060446340336    -0.000442593920    0.002690991321
            -0.000332003576    0.002194289380    0.029290752484    -0.012168001164    -0.000442593763    0.002690991246    0.054185953691    -0.026427214718
0.225     0.059678969187    -0.020552154454    0.003205471770    0.001807655767    0.073718977416    0.001478338144    0.002653032621    0.001451368909
            0.003205471849    0.001807656034    0.054305863983    0.022984632865    0.003882368318    0.002368689849    0.041046306146    0.067154964251
            0.073719043640    0.001478327630    0.003882367734    0.002368690423    0.059871110943    -0.020542127918    0.003190314005    0.001838859132
            0.002653032116    0.001451369415    0.041046298861    0.067154983940    0.003190313575    0.001838859477    0.053834042007    0.023067800345
0.250     0.039342110069    -0.124571252048    0.002537998706    -0.002763519468    0.055055781950    -0.108492095334    0.002046217953    -0.002276363936
            0.002537998686    -0.002763518672    0.111943188780    0.005379044554    0.003348679492    -0.003234995037    0.125377937922    0.028894288770
            0.055055739874    -0.108492139114    0.003348679436    -0.003234995096    0.039452522761    -0.124975528167    0.002601500626    -0.002693004694
            0.002046218056    -0.002276363171    0.125377931870    0.028894315029    0.002601500456    -0.002693005553    0.112349735864    0.005482392372
0.275     -0.067351586161    -0.071862753233    -0.000901797245    -0.003119349125    -0.053640325982    -0.051745809170    -0.000756988798    -0.002557706841
            -0.000901797245    -0.003119349125    0.092763970002    -0.059865462738    -0.000950058923    -0.004065473507    0.073591363893    -0.046244142731
            -0.053640343395    -0.051745753670    -0.000950058191    -0.004065473575    -0.067482446437    -0.072064012485    -0.000844982740    -0.003213443921
            -0.000756988826    -0.002557706937    0.073591360917    -0.046244121154    -0.000844983301    -0.003213443774    0.092805872071    -0.060485377622
0.300     0.001640289460    -0.023113028928    -0.004109850403    -0.001355131574    0.029430214880    -0.008811681670    -0.003397428959    -0.001067288541
            -0.004109850262    -0.001355132323    0.036638255884    -0.032887390508    -0.005088561469    -0.001848121137    0.031450100245    0.019026444465
            0.029430279491    -0.008811695978    -0.005088556538    -0.001848127389    0.001813531828    -0.023273594653    -0.004132700096    -0.001401874105
            -0.003397428491    -0.001067289697    0.031450100843    0.019026476319    -0.004132699583    -0.001401873127    0.036437342222    -0.032779504903
0.325     -0.033010534230    -0.107319880009    -0.002554692934    0.004464813644    -0.015171736336    -0.114599253197    -0.002035763156    0.003691112458
            -0.002554692983    0.004464813731    0.094467840434    0.004983758177    -0.003508106680    0.005332937841    0.124039660489    0.023387741689
            -0.015171778213    -0.114599308176    -0.003508106735    0.005332937924    -0.033116615408    -0.107792084684    -0.002690254573    0.004413108271
            -0.002035762560    0.003691112901    0.124039675653    0.023387769209    -0.002690254573    0.004413108271    0.095133582178    0.004636333650
0.350     -0.127079996390    -0.030275850603    0.002908673667    0.003210609136    -0.119950627581    -0.024508025643    0.002425847534    0.002607914730
            0.002908673477    0.003210609039    0.122331970753    -0.094034515854    0.003412860698    0.004395963634    0.110015403050    -0.085623575769
            -0.119950650211    -0.024507964838    0.003412860576    0.004395963476    -0.127314855769    -0.030374567796    0.002887243000    0.003409874506
            0.002425847353    0.002607914626    0.110015433174    -0.085623488218    0.002887242261    0.003409874478    0.122086280862    -0.095022260076
0.375     -0.045701436793    0.039250938322    0.004340762560    0.000056157005    -0.028226331566    0.032820575398    0.003571123692    -0.000022944389
            0.004340762855    0.000056157367    -0.007121400617    -0.097392724045    0.005577496098    0.000267018564    0.006346434303    -0.053428821073
            -0.028226260030    0.032820561740    0.005577496385    0.000267018861    -0.045453587972    0.038973535009    0.004455366238    0.000075008661
            0.003571123894    -0.000022944111    0.006346433017    -0.053428818204    0.004455365834    0.000075008871    -0.007358855446    -0.097538669571
0.400     -0.066755849407    -0.026611938472    0.002122612099    -0.005804716914    -0.063092490178    -0.048975488887    0.001658633876    -0.004824569137
            0.002122612234    -0.005804716971    0.047129905053    0.008101201371    0.003048155710    -0.007093682521    0.086740361605    0.020653088138
            -0.063092491758    -0.048975490113    0.003048155749    -0.007093682613    -0.066958190398    -0.026946807994    0.002295294845    -0.005852539777
            0.001658633909    -0.004824569232    0.086740420146    0.020653166066    0.002295294772    -0.005852539590    0.047713804785    0.007673240318
0.425     -0.129902588781    0.051849216809    -0.005142919559    -0.002887879135    -0.139115992175    0.055882645390    -0.004301612517    -0.002279776767
            -0.005142919297    -0.002887878988    0.125436489582    -0.114691121943    -0.006256748692    -0.004196870431    0.121280211827    -0.115358367270
            -0.139116019065    0.055882712588    -0.006256744652    -0.004196870888    -0.130016699675    0.051806312081    -0.005262140901    -0.003147597739
            -0.004301612738    -0.002279775922    0.121280217060    -0.115358376279    -0.005262140816    -0.003147597688    0.125230326838    -0.115523329520
0.450     -0.049546867781    0.122554521235    -0.003923629728    0.002258091131    -0.033892016940    0.117777386071    -0.003166405483    0.001953621380
            -0.003923630035    0.002258090396    -0.045974292868    -0.164847347247    -0.005316864232    0.002679183595    -0.034714810421    -0.123896982434
            -0.033891944210    0.117777365377    -0.005316864143    0.002679183550    -0.049547888209    0.122304250172    -0.004098811540    0.002368629011
            -0.003166405654    0.001953620723    -0.034714810421    -0.123896982434    -0.004098811453    0.002368628960    -0.045861410464    -0.165011964650
0.475     -0.012209015314    0.063854935287    -0.001172633232    0.006010833759    -0.032240719782    0.042502098392    -0.000856370548    0.004987378943
            -0.001172633366    0.006010834446    -0.038263764448    0.026452060899    -0.001815954228    0.007540445156    0.015957657091    0.021723812261
            -0.032240775500    0.042502048595    -0.001815954345    0.007540445642    -0.011998484719    0.063540791177    -0.001267681847    0.006153480387
            -0.000856370633    0.004987379436    0.015957702523    0.021723835965    -0.001267681766    0.006153479995    -0.037750802850    0.025193775099
0.500     -0.062529320204    0.110216986019    0.007060358859    0.002199470022    -0.082974678738    0.126226693876    0.005924203593    0.001611639708
            0.007060358821    0.002199469470    0.103378583046    -0.111857254688    0.008766175245    0.003417931501    0.107458489049    -0.121304177946
            -0.082974689665    0.126226758495    0.008766175678    0.003417931493    -0.062404102547    0.110191245964    0.007356157011    0.002387925458
            0.005924203416    0.001611639215    0.107458489049    -0.121304177946    0.007356164480    0.002387922205    0.102831015565    -0.112802228544
0.525     0.022832895877    0.173632295471    0.003101373717    -0.004753602317    0.033165969847    0.174635838668    0.002366572425    -0.004019536438
            0.003101373804    -0.004753601544    -0.093898321766    -0.186367327188    0.004461772910    -0.005904099688    -0.082243075638    -0.160394554117
            0.033166033855    0.174635826512    0.004461773116    -0.005904099533    0.022849450400    0.173298406835    0.003192803010    -0.005037407263
            0.002366572433    -0.004019535970    -0.082243029393    -0.160394532877    0.003192803125    -0.005037411334    -0.093858522722    -0.186873100097
0.550     0.094866758385    0.095896740766    -0.000711229163    -0.005118899150    0.068883317092    0.085758914589    -0.000693528461    -0.004147230635
            -0.000711228723    -0.005118899918    -0.114804250300    0.029508888850    -0.000666640954    -0.006692804247    -0.074691193979    0.029517746149
            0.068883273531    0.085758872620    -0.000666640653    -0.006692804780    0.094849343588    0.095845180879    -0.000756079355    -0.005234107099
            -0.000693528464    -0.004147231547    -0.074691184177    0.029517757347    -0.000756080163    -0.005234106881    -0.114912598386    0.028072470611
0.575     0.035878294839    0.085125337720    -0.007995932761    -0.001466423303    0.019048105177    0.129679222349    -0.006705870182    -0.000944962260
            -0.007995932958    -0.001466423339    0.059999584316    -0.066403363596    -0.010024844770    -0.002435963507    0.069860426035    -0.091688941912
            0.019048094980    0.129679294598    -0.010024844770    -0.002435963507    0.036182464545    0.084782476426    -0.008360830392    -0.001512071287
            -0.006705870347    -0.000944961090    0.069860512347    -0.091688939008    -0.008360830030    -0.001512072729    0.059432589577    -0.066961858303
0.600     0.108531975614    0.148682843712    -0.002051674389    0.007022894659    0.124891817380    0.158054788604    -0.001320776014    0.005856022477
            -0.002051674277    0.007022894275    -0.130501803560    -0.163108626897    -0.003227044421    0.008813975448    -0.124563258832    -0.155841518003
            0.124891871158    0.158054771599    -0.003227045959    0.008813974885    0.108370297300    0.148151798715    -0.001924243642    0.007389019186
            -0.001320775926    0.005856022087    -0.124563258832    -0.155841518003    -0.001924243591    0.007389018993    -0.130138461093    -0.164188105093
0.625     0.191445850765    0.039329780503    0.003206005420    0.003870119608    0.167238644496    0.039435158245    0.002705752775    0.002964924282
            0.003206005079    0.003870120020    -0.177275995030    0.046898420485    0.003869198986    0.005296135587    -0.147277695733    0.047675842773
            0.167238628471    0.039435139061    0.003869198860    0.005296135803    0.191473950762    0.039276838754    0.003328678268    0.003803434145
            0.002705752703    0.002964924619    -0.147277695733    0.047675842773    0.003328678268    0.003803434011    -0.178031763587    0.044930684884
0.650     0.085982885646    -0.018494470453    0.007523441946    0.000780206576    0.080590452582    0.028027849467    0.006254477192    0.000418926593
            0.007523442929    0.000780206784    0.009496960211    0.015598568215    0.009565588302    0.001337132646    0.027525186220    -0.008088516975
            0.080590439559    0.028027914312    0.009565588729    0.001337132485    0.086340589923    -0.019148890608    0.007799716512    0.000699205114
            0.006254477883    0.000418926748    0.027525181648    -0.008088521894    0.007799716297    0.000699205273    0.008394854770    0.015118431294
0.675     0.136968168354    0.064113322102    0.001151215566    -0.008824574917    0.169645518550    0.067902904424    0.000413114068    -0.007288926866
            0.001151214616    -0.008824574839    -0.134004140634    -0.098129622571    0.002136631120    -0.011032756688    -0.142949929800    -0.105827122150
            0.169645576624    0.067902920798    0.002136630734    -0.011032756763    0.136534771498    0.063490982557    0.000817473218    -0.009113266291
            0.000413113526    -0.007288926296    -0.142949921763    -0.105827116200    0.000817473968    -0.009113265722    -0.133962236338    -0.099605487816
0.700     0.209351758113    -0.075556432073    -0.005847314119    -0.002624075583    0.194831176829    -0.071856259348    -0.004750275822    -0.001766264452
            -0.005847314117    -0.002624076808    -0.200395704912    0.076136635162    -0.007167747225    -0.003890863786    -0.186454061071    0.079911308080
            0.194831209992    -0.071856256127    -0.007167747489    -0.003890863929    0.209412883650    -0.075610257588    -0.005874513891    -0.002357008950
            -0.004750276197    -0.001766264591    -0.186454061071    0.079911308080    -0.005874513613    -0.002357008838    -0.202063840206    0.074309142813
0.725     0.043511682767    -0.139679382268    -0.005850903319    0.001161776811    0.056561076189    -0.094000845440    -0.004715511041    0.001066274128
            -0.005850903515    0.001161776850    -0.040948992828    0.112280167169    -0.007687356826    0.001144369415    -0.019069720878    0.087421245044
            0.056561072440    -0.094000824354    -0.007687354753    0.001144366363    0.043729540008    -0.140597803968    -0.005942107829    0.001169263571
            -0.004715511236    0.001066274172    -0.019069720878    0.087421245044    -0.005942107331    0.001169264550    -0.042185004852    0.112294402538
0.750     0.076844891374    -0.010178921568    -0.000727212961    0.009959542145    0.117827530616    -0.011036956901    -0.000036319472    0.008200808975
            -0.000727216688    0.009959535757    -0.093098476974    -0.009270506457    -0.001559398718    0.012343282989    -0.107209827127    -0.036341567753
            0.117827598404    -0.011036983788    -0.001559398287    0.012343283044    0.076127376282    -0.010629925329    -0.000371017979    0.010091546023
            -0.000036319762    0.008200809674    -0.107209767001    -0.036341651680    -0.000371018331    0.010091546010    -0.093107919138    -0.011121829852
0.775     0.127345516060    -0.167329953610    0.008455542178    0.001280004624    0.119992233346    -0.170550752141    0.006726957548    0.000499823164
            0.008455542360    0.001280004758    -0.178034124375    0.106481898200    0.010380769025    0.002481068588    -0.182663474088    0.116788565241
            0.119992197427    -0.170550789640    0.010380768052    0.002481068355    0.127565767960    -0.167348941124    0.008292882224    0.000967118443
