# GHz S RI R 45
0.000     0.034661925000    0.000000000000    -0.000024913418    0.000000000000    0.000945957080    0.000000000000    -0.000027145573    0.000000000000
            -0.000024913551    0.000000000000    0.034825568000    0.000000000000    -0.000021592939    0.000000000000    0.000934155190    0.000000000000
            0.000945952400    0.000000000000    -0.000021592535    0.000000000000    0.034695765000    0.000000000000    -0.000024107166    0.000000000000
            -0.000027145685    0.000000000000    0.000934120210    0.000000000000    -0.000024103551    0.000000000000    0.034691537000    0.000000000000
0.025     0.053947666719    -0.011707394307    0.000035577543    -0.000007586155    0.011158218167    0.002923414974    0.000026504718    0.000028798363
            0.000035577779    -0.000007586133    0.054156678532    -0.010787013866    0.000030546996    0.000016205704    0.010891885084    0.003620090663
            0.011158218627    0.002923413221    0.000030547009    0.000016205734    0.053987967451    -0.011708981235    0.000033575491    0.000028082099
            0.000026504739    0.000028798397    0.010891860099    0.003620092914    0.000033575550    0.000028082205    0.054350749462    -0.010926600871
0.050     0.014466053528    -0.005780962750    -0.000030364826    0.000016910002    -0.013145669814    0.007055539476    0.000004704984    0.000009517278
            -0.000030364783    0.000016909965    0.015786676673    -0.005785635611    -0.000009004400    0.000019200156    -0.012159987790    0.007784491548
            -0.013145668933    0.007055539003    -0.000009004405    0.000019200167    0.014515751109    -0.005873526670    0.000000372550    0.000015457775
            0.000004704923    0.000009517340    -0.012160012079    0.007784498121    0.000000372523    0.000015457838    0.015630408807    -0.005991784549
0.075     0.042910604723    0.038879514932    0.000013641072    0.000090851983    0.009973504270    0.055061549782    0.000006007042    0.000078491395
            0.000013641064    0.000090852017    0.042378971794    0.038709160405    0.000011118717    0.000102353254    0.009970155205    0.054893572725
            0.009973504270    0.055061549782    0.000011118762    0.000102353269    0.043010694157    0.038795285588    0.000014893318    0.000104590110
            0.000006007049    0.000078491393    0.009970134241    0.054893582631    0.000014893347    0.000104590126    0.042187365229    0.038735490287
0.100     0.073761800099    -0.004525843466    0.000078964108    0.000069808742    0.053245791129    0.015318718474    0.000096942751    0.000073280240
            0.000078964118    0.000069808731    0.074519054740    -0.002756972765    0.000110461594    0.000095722257    0.053129708441    0.017063846291
            0.053245792090    0.015318718750    0.000110461587    0.000095722265    0.073985958301    -0.004837894541    0.000127387989    0.000084025915
            0.000096942755    0.000073280234    0.053129682847    0.017063860575    0.000127387973    0.000084025848    0.074542969344    -0.002679219848
0.125     0.022419813190    -0.004503669560    0.000062253868    0.000046369169    -0.005897950929    0.007566052088    0.000066299298    0.000006776521
            0.000062253891    0.000046369138    0.023530147863    -0.005620337971    0.000089746707    0.000032155420    -0.004245531444    0.008499157344
            -0.005897950498    0.007566051536    0.000089746708    0.000032155422    0.022312934858    -0.005071611356    0.000075533932    0.000006920298
            0.000066299307    0.000006776514    -0.004245552284    0.008499173090    0.000075533943    0.000006920298    0.023646545338    -0.005748659577
0.150     0.055682685730    0.048167386263    0.000076723838    0.000102204281    0.026133591626    0.081383128417    0.000043180366    0.000095630070
            0.000076723851    0.000102204284    0.053614043947    0.049177353475    0.000072120438    0.000118494240    0.026546979890    0.081905535610
            0.026133591320    0.081383127465    0.000072120430    0.000118494245    0.055409700347    0.048009290939    0.000056853846    0.000130235711
            0.000043180371    0.000095630068    0.026546960801    0.081905544951    0.000056853827    0.000130235698    0.053514933629    0.049121096889
0.175     0.099602435635    0.000319788973    0.000188797285    0.000088798061    0.095437306122    0.025721419927    0.000192554823    0.000094532372
            0.000188797302    0.000088798048    0.101713771278    0.002477510674    0.000240100725    0.000122254490    0.096783241803    0.026851758134
            0.095437308366    0.025721411598    0.000240100721    0.000122254499    0.099842127262    0.000094517091    0.000252701838    0.000113809373
            0.000192554827    0.000094532365    0.096783225137    0.026851780798    0.000252701830    0.000113809390    0.102005880103    0.002407222372
0.200     0.054841625168    -0.022905910338    0.000187258527    -0.000047866699    0.028973694265    -0.011768259013    0.000168269096    -0.000078032272
            0.000187258506    -0.000047866701    0.054254502472    -0.025799065858    0.000236915766    -0.000080624666    0.029290758691    -0.012168025323
            0.028973695602    -0.011768258378    0.000236915767    -0.000080624662    0.054775328011    -0.023652279463    0.000204899249    -0.000102705322
            0.000168269102    -0.000078032282    0.029290752484    -0.012168001164    0.000204899263    -0.000102705316    0.054185953691    -0.026427214718
0.225     0.058222362174    0.019269283104    0.000105954163    0.000013329132    0.040788929173    0.064849365773    0.000057742400    0.000030465400
            0.000105954120    0.000013329068    0.054305863983    0.022984632865    0.000101087973    0.000015280010    0.041046306146    0.067154964251
            0.040788928640    0.064849364926    0.000101087973    0.000015280010    0.057889447762    0.019061645543    0.000070638594    0.000049531666
            0.000057742403    0.000030465391    0.041046298861    0.067154983940    0.000070638633    0.000049531717    0.053834042007    0.023067800345
0.250     0.107929099871    0.003709837237    0.000268766833    0.000048106744    0.121955549988    0.029962692199    0.000269970015    0.000076664735
            0.000268766804    0.000048106797    0.111943188780    0.005379044554    0.000334881738    0.000084643659    0.125377937922    0.028894288770
            0.121955549988    0.029962692199    0.000334881735    0.000084643670    0.108338626028    0.003317249279    0.000351017031    0.000096952252
            0.000269970015    0.000076664735    0.125377931870    0.028894315029    0.000351017016    0.000096952268    0.112349735864    0.005482392372
0.275     0.097803819285    -0.054285668709    0.000280872347    -0.000201310271    0.076954668052    -0.043509611244    0.000264969813    -0.000210603046
            0.000280872373    -0.000201310267    0.092763970002    -0.059865462738    0.000359131316    -0.000258839601    0.073591363893    -0.046244142731
            0.076954664681    -0.043509611110    0.000359131320    -0.000258839595    0.097560523507    -0.055525246012    0.000330826222    -0.000269500278
            0.000264969817    -0.000210603041    0.073591360917    -0.046244121154    0.000330826248    -0.000269500262    0.092805872071    -0.060485377622
0.300     0.043538478187    -0.040958844273    0.000033467405    -0.000134012960    0.032413279664    0.013220110923    -0.000008863091    -0.000095183396
            0.000033467400    -0.000134012940    0.036638255884    -0.032887390508    0.000021561294    -0.000169096999    0.031450100245    0.019026444465
            0.032413280817    0.013220108094    0.000021561297    -0.000169096999    0.042838093273    -0.041217956088    -0.000008590264    -0.000114252027
            -0.000008863090    -0.000095183403    0.031450100843    0.019026476319    -0.000008590260    -0.000114252048    0.036437342222    -0.032779504903
0.325     0.089443249629    0.003313897720    0.000278570763    -0.000017032146    0.119049383663    0.026847461299    0.000294722281    0.000036521643
            0.000278570754    -0.000017032132    0.094467840434    0.004983758177    0.000341450703    0.000009376422    0.124039660489    0.023387741689
            0.119049373908    0.026847459099    0.000341450734    0.000009376402    0.089812513299    0.003019029304    0.000375266357    0.000049526451
            0.000294722271    0.000036521647    0.124039675653    0.023387769209    0.000375266326    0.000049526459    0.095133582178    0.004636333650
0.350     0.131487096419    -0.088682128023    0.000286700029    -0.000373889098    0.118543867858    -0.081011573590    0.000296401015    -0.000366516343
            0.000286700016    -0.000373889121    0.122331970753    -0.094034515854    0.000383547376    -0.000460029063    0.110015403050    -0.085623575769
            0.118543869272    -0.081011571521    0.000383547312    -0.000460029117    0.131352690991    -0.089890199274    0.000381440888    -0.000460422416
            0.000296401021    -0.000366516338    0.110015433174    -0.085623488218    0.000381440856    -0.000460422443    0.122086280862    -0.095022260076
0.375     0.025961156517    -0.111440004959    -0.000098880159    -0.000306467285    0.010465949197    -0.064378241919    -0.000120489734    -0.000265010310
            -0.000098880206    -0.000306467248    -0.007121400617    -0.097392724045    -0.000124182466    -0.000393304438    0.006346434303    -0.053428821073
            0.010465950802    -0.064378244697    -0.000124182525    -0.000393304387    0.025522685871    -0.111800766643    -0.000141561366    -0.000335694945
            -0.000120489708    -0.000265010376    0.006346433017    -0.053428818204    -0.000141561366    -0.000335694945    -0.007358855446    -0.097538669571
0.400     0.042114021977    0.004861657707    0.000198484440    -0.000038544277    0.081106261929    0.024337956113    0.000237098178    0.000025934618
            0.000198484334    -0.000038544350    0.047129905053    0.008101201371    0.000230131824    -0.000026189136    0.086740361605    0.020653088138
            0.081106258631    0.024337956666    0.000230131814    -0.000026189141    0.042508678861    0.004269684875    0.000289005445    0.000031480342
            0.000237098168    0.000025934624    0.086740420146    0.020653166066    0.000289005414    0.000031480344    0.047713804785    0.007673240318
0.425     0.137778581566    -0.112276681967    0.000185946599    -0.000514285969    0.134422372199    -0.111004913276    0.000234768117    -0.000506631088
            0.000185946605    -0.000514285956    0.125436489582    -0.114691121943    0.000275981366    -0.000619563099    0.121280211827    -0.115358367270
            0.134422374136    -0.111004910930    0.000275981366    -0.000619563099    0.137530321126    -0.113671260509    0.000319324224    -0.000623690198
            0.000234768117    -0.000506631088    0.121280217060    -0.115358376279    0.000319324236    -0.000623690169    0.125230326838    -0.115523329520
0.450     -0.032612672304    -0.182321324575    -0.000261050735    -0.000411878109    -0.025500034205    -0.138121257199    -0.000254643196    -0.000391521804
            -0.000261050801    -0.000411878055    -0.045974292868    -0.164847347247    -0.000309722884    -0.000546735126    -0.034714810421    -0.123896982434
            -0.025500036020    -0.138121267033    -0.000309722884    -0.000546735126    -0.033261079436    -0.182931519077    -0.000303548937    -0.000511758048
            -0.000254643133    -0.000391521857    -0.034714810421    -0.123896982434    -0.000303548953    -0.000511758073    -0.045861410464    -0.165011964650
0.475     -0.039346944474    -0.008847598398    -0.000002556232    -0.000021261084    0.009023884973    0.020096238690    0.000050259572    0.000038519542
            -0.000002556285    -0.000021261102    -0.038263764448    0.026452060899    -0.000031271033    -0.000026877909    0.015957657091    0.021723812261
            0.009023884973    0.020096238690    -0.000031271049    -0.000026877914    -0.039858537969    -0.010145183199    0.000044952998    0.000033964438
            0.000050259567    0.000038519541    0.015957702523    0.021723835965    0.000044952995    0.000033964439    -0.037750802850    0.025193775099
0.500     0.115313815716    -0.115803587477    0.000043893266    -0.000569569400    0.122422177809    -0.119718302324    0.000129743800    -0.000578957613
            0.000043893282    -0.000569569348    0.103378583046    -0.111857254688    0.000105530630    -0.000670774832    0.107458489049    -0.121304177946
            0.122422181988    -0.119718298051    0.000105530664    -0.000670774816    0.115136763046    -0.116993242098    0.000197044539    -0.000695971476
            0.000129743805    -0.000578957632    0.107458489049    -0.121304177946    0.000197044568    -0.000695971437    0.102831015565    -0.112802228544
0.525     -0.079710052803    -0.207613662303    -0.000428725190    -0.000376106351    -0.068727835398    -0.178941961987    -0.000400932550    -0.000399279353
            -0.000428725190    -0.000376106351    -0.093898321766    -0.186367327188    -0.000506256432    -0.000530912022    -0.082243075638    -0.160394554117
            -0.068727835398    -0.178941961987    -0.000506256418    -0.000530912008    -0.079989693708    -0.208569901016    -0.000479786663    -0.000548117848
            -0.000400932557    -0.000399279360    -0.082243029393    -0.160394532877    -0.000479786676    -0.000548117863    -0.093858522722    -0.186873100097
0.550     -0.117788389324    0.010075288936    -0.000265391907    0.000017812764    -0.079493594463    0.017774080537    -0.000214501396    0.000051458942
            -0.000265391917    0.000017812765    -0.114804250300    0.029508888850    -0.000370015486    0.000004064628    -0.074691193979    0.029517746149
            -0.079493594463    0.017774080537    -0.000370015396    0.000004064627    -0.117925289897    0.008823920173    -0.000294268263    0.000042560002
            -0.000214501396    0.000051458942    -0.074691184177    0.029517757347    -0.000294268246    0.000042560052    -0.114912598386    0.028072470611
0.575     0.065433975318    -0.079396346454    -0.000082630172    -0.000457734619    0.081716038108    -0.095830835499    0.000027852102    -0.000493683559
            -0.000082630174    -0.000457734628    0.059999584316    -0.066403363596    -0.000066930606    -0.000519861793    0.069860426035    -0.091688941912
            0.081716038108    -0.095830835499    -0.000066930624    -0.000519861791    0.065102016950    -0.080555104059    0.000062409338    -0.000576179940
            0.000027852119    -0.000493683558    0.069860512347    -0.091688939008    0.000062409388    -0.000576179935    0.059432589577    -0.066961858303
0.600     -0.119156861754    -0.187161401569    -0.000571483948    -0.000244385981    -0.109460752328    -0.178554104325    -0.000540291599    -0.000321743411
            -0.000571483985    -0.000244385996    -0.130501803560    -0.163108626897    -0.000673412972    -0.000385680825    -0.124563258832    -0.155841518003
            -0.109460757555    -0.178554112850    -0.000673412859    -0.000385680760    -0.119383795365    -0.188539990929    -0.000643175470    -0.000473109326
            -0.000540291573    -0.000321743396    -0.124563258832    -0.155841518003    -0.000643175478    -0.000473109332    -0.130138461093    -0.164188105093
0.625     -0.179747794467    0.015427266593    -0.000431493910    0.000084529596    -0.152349138918    0.022885091227    -0.000408002198    0.000078467226
            -0.000431493910    0.000084529596    -0.177275995030    0.046898420485    -0.000595721358    0.000077833508    -0.147277695733    0.047675842773
            -0.152349138918    0.022885091227    -0.000595721358    0.000077833508    -0.180448540273    0.013889985784    -0.000552643473    0.000072976511
            -0.000408002208    0.000078467228    -0.147277695733    0.047675842773    -0.000552643483    0.000072976513    -0.178031763587    0.044930684884
0.650     0.002541495816    -0.006934561727    -0.000129376913    -0.000128520295    0.027508280220    -0.019349358384    -0.000021242429    -0.000185858311
            -0.000129376883    -0.000128520310    0.009496960211    0.015598568215    -0.000163438599    -0.000114194676    0.027525186220    -0.008088516975
            0.027508280220    -0.019349358384    -0.000163438591    -0.000114194671    0.002058398210    -0.007769868553    -0.000028275852    -0.000199357342
            -0.000021242375    -0.000185858297    0.027525181648    -0.008088521894    -0.000028275824    -0.000199357316    0.008394854770    0.015118431294
0.675     -0.131329449482    -0.121399099272    -0.000602109221    -0.000079915219    -0.131910236630    -0.130231513604    -0.000587698649    -0.000212428089
            -0.000602109191    -0.000079915215    -0.134004140634    -0.098129622571    -0.000708046182    -0.000172247644    -0.142949929800    -0.105827122150
            -0.131910236630    -0.130231513604    -0.000708046221    -0.000172247654    -0.131202625031    -0.123270051112    -0.000694216353    -0.000336096697
            -0.000587698630    -0.000212428083    -0.142949921763    -0.105827116200    -0.000694216281    -0.000336096662    -0.133962236338    -0.099605487816
0.700     -0.205629947083    0.036211372170    -0.000478762254    0.000228636627    -0.194364351720    0.043019147268    -0.000501412005    0.000185069743
            -0.000478762232    0.000228636719    -0.200395704912    0.076136635162    -0.000672046194    0.000248353445    -0.186454061071    0.079911308080
            -0.194364351720    0.043019147268    -0.000672046204    0.000248353449    -0.206846815698    0.034100780473    -0.000689490570    0.000195983917
            -0.000501412033    0.000185069754    -0.186454061071    0.079911308080    -0.000689490580    0.000195983920    -0.202063840206    0.074309142813
0.725     -0.065873332156    0.081276430182    -0.000182116304    0.000238550620    -0.036612462477    0.068572275132    -0.000112964308    0.000178203877
            -0.000182116322    0.000238550644    -0.040948992828    0.112280167169    -0.000255240380    0.000335998442    -0.019069720878    0.087421245044
            -0.036612462477    0.068572275132    -0.000255240398    0.000335998465    -0.066777916476    0.080499718648    -0.000162377704    0.000244504084
            -0.000112964324    0.000178203902    -0.019069720878    0.087421245044    -0.000162377709    0.000244504092    -0.042185004852    0.112294402538
0.750     -0.101517876956    -0.025742123800    -0.000430412238    0.000001806748    -0.103698040465    -0.054978625533    -0.000444948198    -0.000162336553
            -0.000430412238    0.000001806748    -0.093098476974    -0.009270506457    -0.000498010165    -0.000023914435    -0.107209827127    -0.036341567753
            -0.103698040465    -0.054978625533    -0.000498010205    -0.000023914437    -0.101510141239    -0.027953975332    -0.000519388288    -0.000238770792
            -0.000444948198    -0.000162336553    -0.107209767001    -0.036341651680    -0.000519388261    -0.000238770780    -0.093107919138    -0.011121829852
0.775     -0.188998935432    0.063356986617    -0.000444266823    0.000398569957    -0.196220167983    0.072450144247    -0.000529865696    0.000332378841
            -0.000444266761    0.000398570042    -0.178034124375    0.106481898200    -0.000624720149    0.000455455405    -0.182663474088    0.116788565241
            -0.196220167983    0.072450144247    -0.000624720149    0.000455455405    -0.190956035788    0.061133702786    -0.000729937269    0.000366074783
            -0.000529865687    0.000332378835    -0.182663474088    0.116788565241    -0.000729937277    0.000366074788    -0.180515069494    0.104651659670
