!$
! Info: Touchstone file created by Circ.  Input file=Intel_C2M_200G_9p0in_202208016_staggered.circ
!$
# Hz S RI R 50
0	0.02669289	4.3894e-24	8.885182e-05	1.32305e-22	0.0001316316	3.236934e-22	8.884506e-05	1.320963e-22
	8.885183e-05	1.32305e-22	0.02670574	4.777745e-24	8.885617e-05	1.32417e-22	0.0001312309	3.211329e-22
	0.0001316883	3.238182e-22	8.885615e-05	1.324185e-22	0.02668782	4.598729e-24	8.884734e-05	1.321959e-22
	8.884504e-05	1.320979e-22	0.0001312876	3.212579e-22	8.884734e-05	1.321959e-22	0.02670372	4.520526e-24
1e+07	0.03250171	0.003431993	8.328226e-06	3.659802e-05	0.002351001	0.00722056	1.337197e-05	2.570999e-05
	8.328225e-06	3.659801e-05	0.03243742	0.00411887	6.776661e-06	4.376673e-05	0.002357386	0.007279435
	0.002351001	0.00722056	6.776661e-06	4.376673e-05	0.03241775	0.004175654	8.474472e-06	3.825521e-05
	1.337197e-05	2.570999e-05	0.002357386	0.007279435	8.474472e-06	3.825521e-05	0.03253033	0.003444607
2e+07	0.03790761	0.001404513	1.627181e-05	2.915802e-05	0.005517693	0.01312521	9.631693e-06	1.547459e-05
	1.627182e-05	2.915803e-05	0.03862906	0.002465865	3.210372e-05	4.343548e-05	0.005531083	0.01324096
	0.005517701	0.01312519	3.210372e-05	4.343548e-05	0.03862859	0.002578053	1.815153e-05	3.165409e-05
	9.631692e-06	1.547459e-05	0.00553109	0.01324095	1.815153e-05	3.165409e-05	0.03795038	0.001417025
3e+07	0.04114689	-0.003308493	2.724224e-05	2.350384e-05	0.01015474	0.01803209	7.50231e-06	1.323605e-05
	2.724224e-05	2.350384e-05	0.04244135	-0.002329506	5.325958e-05	3.603517e-05	0.0101796	0.01820079
	0.01015472	0.01803213	5.325958e-05	3.603517e-05	0.04246673	-0.002160296	3.042847e-05	2.591046e-05
	7.502313e-06	1.323605e-05	0.01017958	0.01820083	3.042847e-05	2.591046e-05	0.04119268	-0.003296668
4e+07	0.04241814	-0.008974636	3.515292e-05	1.631463e-05	0.01597747	0.02143857	8.632301e-06	1.010659e-05
	3.515292e-05	1.631463e-05	0.04413928	-0.008242999	6.830062e-05	2.349225e-05	0.01601576	0.02165434
	0.01597748	0.0214386	6.830062e-05	2.349225e-05	0.04420701	-0.008029235	3.936249e-05	1.82796e-05
	8.632302e-06	1.010659e-05	0.01601576	0.02165436	3.936249e-05	1.82796e-05	0.04246629	-0.008969785
5e+07	0.04201126	-0.01480127	4.024501e-05	7.966481e-06	0.02254734	0.02313105	1.053551e-05	6.145446e-06
	4.024501e-05	7.96648e-06	0.04403286	-0.01441179	7.768868e-05	7.95537e-06	0.02259854	0.02338734
	0.02254735	0.02313105	7.768868e-05	7.95537e-06	0.04415118	-0.01416777	4.525387e-05	9.263388e-06
	1.053551e-05	6.145446e-06	0.02259855	0.02338735	4.525387e-05	9.263387e-06	0.04205658	-0.01480579
6e+07	0.04017344	-0.02031799	4.271517e-05	-9.456884e-07	0.02940193	0.02297218	1.111348e-05	2.246984e-06
	4.271517e-05	-9.456874e-07	0.04237869	-0.02032731	8.175666e-05	-8.985705e-06	0.02946294	0.02326273
	0.02940193	0.02297216	8.175666e-05	-8.985704e-06	0.04255151	-0.02006884	4.83153e-05	-4.835718e-07
	1.111348e-05	2.246985e-06	0.02946295	0.02326271	4.83153e-05	-4.835707e-07	0.04021126	-0.02033221
7e+07	0.0371781	-0.02517007	4.274415e-05	-9.896004e-06	0.03605408	0.02094499	1.04959e-05	-1.310973e-06
	4.274415e-05	-9.896003e-06	0.03945579	-0.02560908	8.090975e-05	-2.604648e-05	0.03611939	0.02126463
	0.03605408	0.02094499	8.090975e-05	-2.604648e-05	0.03968222	-0.02535305	4.872557e-05	-1.039777e-05
	1.04959e-05	-1.310973e-06	0.03611939	0.02126462	4.872557e-05	-1.039777e-05	0.03720437	-0.02519376
8e+07	0.03334781	-0.02911613	4.050312e-05	-1.844462e-05	0.04202799	0.0171543	8.853998e-06	-4.259584e-06
	4.050312e-05	-1.844462e-05	0.03558963	-0.02999709	7.553324e-05	-4.22193e-05	0.04209003	0.01749976
	0.04202799	0.0171543	7.553324e-05	-4.221931e-05	0.03586386	-0.02975987	4.664251e-05	-2.001275e-05
	8.853998e-06	-4.259585e-06	0.04209003	0.01749976	4.664251e-05	-2.001275e-05	0.0333592	-0.02914875
9e+07	0.0290304	-0.03203061	3.610995e-05	-2.626383e-05	0.046889	0.01181879	6.400369e-06	-6.378745e-06
	3.610995e-05	-2.626383e-05	0.03112466	-0.03335417	6.591672e-05	-5.676135e-05	0.04693897	0.01218944
	0.04688901	0.01181879	6.591672e-05	-5.676135e-05	0.03143572	-0.03314993	4.215508e-05	-2.898776e-05
	6.400368e-06	-6.378745e-06	0.04693897	0.01218944	4.215508e-05	-2.898776e-05	0.02902356	-0.0320714
1e+08	0.02462354	-0.03387009	2.892073e-05	-3.345028e-05	0.05027009	0.005254693	3.15191e-06	-7.492267e-06
	2.892073e-05	-3.345028e-05	0.02640937	-0.03565595	5.087472e-05	-6.967855e-05	0.05029873	0.005653038
	0.05027008	0.005254692	5.087472e-05	-6.967855e-05	0.02674192	-0.03549515	3.448241e-05	-3.748852e-05
	3.15191e-06	-7.492267e-06	0.05029873	0.005653037	3.448241e-05	-3.748852e-05	0.02459502	-0.03391831
1.1e+08	0.02032615	-0.03507704	1.962453e-05	-3.495423e-05	0.05187774	-0.002151661	3.068151e-07	-6.412521e-06
	1.962453e-05	-3.495423e-05	0.02161759	-0.0370353	3.231063e-05	-7.131414e-05	0.05187635	-0.001720502
	0.05187774	-0.002151662	3.231063e-05	-7.131414e-05	0.02196096	-0.03698177	2.410764e-05	-3.971791e-05
	3.068154e-07	-6.412521e-06	0.05187635	-0.001720503	2.410764e-05	-3.971791e-05	0.02027466	-0.03518815
1.2e+08	0.01612127	-0.03544946	1.260617e-05	-3.437345e-05	0.05153607	-0.009883685	-1.395043e-06	-4.92194e-06
	1.260617e-05	-3.437345e-05	0.01702034	-0.03745054	1.854117e-05	-6.937381e-05	0.05149673	-0.009411346
	0.05153607	-0.009883686	1.854118e-05	-6.937381e-05	0.01731647	-0.03745625	1.616542e-05	-3.954665e-05
	-1.395043e-06	-4.92194e-06	0.05149673	-0.009411346	1.616542e-05	-3.954665e-05	0.01600314	-0.03556988
1.3e+08	0.01228621	-0.03511132	8.597254e-06	-3.224096e-05	0.04920906	-0.01746183	-2.583273e-06	-3.489032e-06
	8.597254e-06	-3.224096e-05	0.01284575	-0.03708702	1.455704e-05	-6.344313e-05	0.04912631	-0.01693709
	0.04920906	-0.01746182	1.455705e-05	-6.344313e-05	0.01308807	-0.03711852	1.197824e-05	-3.736541e-05
	-2.583273e-06	-3.489032e-06	0.04912631	-0.01693709	1.197824e-05	-3.736541e-05	0.01210971	-0.0352075
1.4e+08	0.008958805	-0.03424966	6.891342e-06	-2.927622e-05	0.0449723	-0.0244013	-3.358121e-06	-2.082121e-06
	6.891342e-06	-2.927622e-05	0.009223999	-0.03615166	1.081707e-05	-5.78582e-05	0.04484387	-0.02381091
	0.0449723	-0.0244013	1.081707e-05	-5.78582e-05	0.009414546	-0.03619612	9.89767e-06	-3.439322e-05
	-3.35812e-06	-2.082121e-06	0.04484386	-0.02381091	9.89767e-06	-3.439322e-05	0.008739397	-0.03431318
1.5e+08	0.006200688	-0.03306573	5.426579e-06	-2.66778e-05	0.03901427	-0.03024402	-3.629396e-06	-6.285977e-07
	5.426579e-06	-2.66778e-05	0.00621373	-0.03485877	7.56678e-06	-5.23731e-05	0.03884165	-0.02957354
	0.03901427	-0.03024402	7.566781e-06	-5.23731e-05	0.006349652	-0.03491024	8.07419e-06	-3.155538e-05
	-3.629396e-06	-6.285978e-07	0.03884164	-0.02957353	8.07419e-06	-3.155538e-05	0.005946246	-0.03309872
1.6e+08	0.004006448	-0.03175495	4.214802e-06	-2.417363e-05	0.03162858	-0.03458572	-3.487646e-06	6.925607e-07
	4.214803e-06	-2.417363e-05	0.003807484	-0.03341371	4.911625e-06	-4.699209e-05	0.03141739	-0.03382057
	0.03162858	-0.03458572	4.911625e-06	-4.699209e-05	0.003881582	-0.0334654	6.46988e-06	-2.89641e-05
	-3.487646e-06	6.925606e-07	0.03141739	-0.03382057	6.469881e-06	-2.89641e-05	0.003716866	-0.03176112
1.7e+08	0.00231192	-0.03049009	3.271358e-06	-2.177296e-05	0.0231992	-0.03709968	-3.10055e-06	1.74635e-06
	3.271358e-06	-2.177296e-05	0.00193905	-0.03199745	2.872215e-06	-4.176669e-05	0.0229594	-0.03622631
	0.0231992	-0.03709968	2.872215e-06	-4.176669e-05	0.001943333	-0.03203788	5.126694e-06	-2.644977e-05
	-3.10055e-06	1.74635e-06	0.0229594	-0.03622631	5.126694e-06	-2.644977e-05	0.001982131	-0.03046969
1.8e+08	0.00100528	-0.02940561	2.565137e-06	-1.949279e-05	0.01418081	-0.03755639	-2.039155e-06	2.632923e-06
	2.565137e-06	-1.949279e-05	0.0004942584	-0.03075125	1.458236e-06	-3.675167e-05	0.01392645	-0.03656346
	0.01418081	-0.03755639	1.458236e-06	-3.675167e-05	0.0004233481	-0.03076436	4.021189e-06	-2.402197e-05
	-2.039155e-06	2.632923e-06	0.01392645	-0.03656346	4.021189e-06	-2.402197e-05	0.0006285047	-0.02935399
1.9e+08	-5.879805e-05	-0.02858666	2.126538e-06	-1.735436e-05	0.005074734	-0.03583858	-8.049457e-07	3.256784e-06
	2.126538e-06	-1.735436e-05	-0.000674837	-0.02976589	6.834365e-07	-3.201692e-05	0.004823464	-0.03471816
	0.005074734	-0.03583858	6.834365e-07	-3.201692e-05	-0.0008211934	-0.02973238	3.193712e-06	-2.169898e-05
	-8.049457e-07	3.256784e-06	0.004823464	-0.03471816	3.193712e-06	-2.169898e-05	-0.0004881942	-0.02849424
2e+08	-0.001041732	-0.02806098	1.940843e-06	-1.539028e-05	-0.003598406	-0.03194974	4.961711e-07	3.596577e-06
	1.940843e-06	-1.539028e-05	-0.001732434	-0.02907363	5.027274e-07	-2.764288e-05	-0.003826156	-0.03069835
	-0.003598406	-0.03194974	5.027274e-07	-2.764288e-05	-0.001948438	-0.02897415	2.63813e-06	-1.951217e-05
	4.961711e-07	3.596577e-06	-0.003826156	-0.03069835	2.63813e-06	-1.951217e-05	-0.001526492	-0.02791491
2.1e+08	-0.002101601	-0.02779742	1.977062e-06	-1.362897e-05	-0.01132706	-0.02601642	1.810323e-06	3.642304e-06
	1.977062e-06	-1.362897e-05	-0.002839609	-0.02864702	8.490776e-07	-2.370124e-05	-0.01150928	-0.02463594
	-0.01132706	-0.02601642	8.490776e-07	-2.370124e-05	-0.003113554	-0.02846348	2.331938e-06	-1.74912e-05
	1.810323e-06	3.642304e-06	-0.01150928	-0.02463594	2.331938e-06	-1.74912e-05	-0.002640525	-0.02758205
2.2e+08	-0.003375694	-0.02770906	2.197052e-06	-1.209437e-05	-0.01763767	-0.01828397	3.080319e-06	3.395222e-06
	2.197052e-06	-1.209437e-05	-0.004136484	-0.02840195	1.638986e-06	-2.02528e-05	-0.01775218	-0.01678214
	-0.01763767	-0.01828397	1.638986e-06	-2.02528e-05	-0.004451257	-0.02812033	2.244832e-06	-1.566326e-05
	3.080319e-06	3.395222e-06	-0.01775218	-0.01678214	2.244832e-06	-1.566326e-05	-0.003962476	-0.02740804
2.3e+08	-0.004962706	-0.02766282	2.556743e-06	-1.080337e-05	-0.02212221	-0.009105427	4.248537e-06	2.86868e-06
	2.556743e-06	-1.080337e-05	-0.005724468	-0.02820755	2.775919e-06	-1.734288e-05	-0.02214822	-0.007496051
	-0.02212221	-0.009105427	2.775919e-06	-1.734288e-05	-0.00605984	-0.02781923	2.339732e-06	-1.40503e-05
	4.248537e-06	2.86868e-06	-0.02214822	-0.007496051	2.339732e-06	-1.40503e-05	-0.005586495	-0.02726046
2.4e+08	-0.0069094	-0.02749321	3.008279e-06	-9.764564e-06	-0.02446187	0.001075749	5.259823e-06	2.088247e-06
	3.008279e-06	-9.764564e-06	-0.007652761	-0.02790001	4.154652e-06	-1.499871e-05	-0.02438169	0.002773124
	-0.02446187	0.00107575	4.154652e-06	-1.499871e-05	-0.007986611	-0.02740196	2.574463e-06	-1.266771e-05
	5.259823e-06	2.088247e-06	-0.02438169	0.002773124	2.574463e-06	-1.266771e-05	-0.007554189	-0.02697519
2.5e+08	-0.009201374	-0.02701963	3.502061e-06	-8.977362e-06	-0.02444692	0.01174873	6.06437e-06	1.091142e-06
	3.502061e-06	-8.977362e-06	-0.009909135	-0.02730022	5.665566e-06	-1.322767e-05	-0.02424746	0.01350955
	-0.02444692	0.01174873	5.665566e-06	-1.322767e-05	-0.01021997	-0.02669578	2.903579e-06	-1.152285e-05
	6.06437e-06	1.091142e-06	-0.02424746	0.01350955	2.903579e-06	-1.152285e-05	-0.009846988	-0.02637515
2.6e+08	-0.01176012	-0.02606666	3.989067e-06	-8.431596e-06	-0.02199073	0.02236228	6.620495e-06	-7.495303e-08
	3.989067e-06	-8.431596e-06	-0.01241705	-0.02623408	7.199292e-06	-1.201657e-05	-0.02166498	0.02415819
	-0.02199073	0.02236228	7.199292e-06	-1.201657e-05	-0.01268514	-0.02553169	3.280385e-06	-1.061448e-05
	6.620495e-06	-7.495304e-08	-0.02166498	0.02415819	3.280385e-06	-1.061448e-05	-0.01238222	-0.02528888
2.7e+08	-0.01444539	-0.02448397	4.422915e-06	-8.107605e-06	-0.01713582	0.03235431	6.89693e-06	-1.353783e-06
	4.422915e-06	-8.107605e-06	-0.01503818	-0.0245526	8.651139e-06	-1.133175e-05	-0.01668382	0.03415466
	-0.01713582	0.03235431	8.651139e-06	-1.133175e-05	-0.01524716	-0.02376535	3.658905e-06	-9.932334e-06
	6.89693e-06	-1.353783e-06	-0.01668382	0.03415466	3.658905e-06	-9.932334e-06	-0.01501672	-0.02357166
2.8e+08	-0.01706355	-0.02216583	4.762093e-06	-7.976855e-06	-0.01005426	0.04118274	6.87487e-06	-2.682907e-06
	4.762093e-06	-7.976855e-06	-0.0175808	-0.02215138	9.925399e-06	-1.112036e-05	-0.009483694	0.0429565
	-0.01005426	0.04118274	9.925399e-06	-1.112036e-05	-0.017719	-0.02129572	3.996012e-06	-9.45725e-06
	6.87487e-06	-2.682907e-06	-0.009483694	0.0429565	3.996012e-06	-9.45725e-06	-0.01755541	-0.0211244
2.9e+08	-0.01938263	-0.01906682	4.971987e-06	-8.00298e-06	-0.001039725	0.04835513	6.549292e-06	-3.996595e-06
	4.971987e-06	-8.00298e-06	-0.01981509	-0.01898644	1.093946e-05	-1.131243e-05	-0.0003660551	0.05007277
	-0.001039725	0.04835513	1.093946e-05	-1.131243e-05	-0.01987534	-0.01808035	4.253499e-06	-9.161891e-06
	6.549292e-06	-3.996595e-06	-0.0003660551	0.05007277	4.253499e-06	-9.161891e-06	-0.01976583	-0.01790861
3e+08	-0.02115047	-0.01521342	5.026531e-06	-8.143324e-06	0.009507253	0.05345512	5.929524e-06	-5.22899e-06
	5.026531e-06	-8.143324e-06	-0.02149135	-0.01508556	1.162713e-05	-1.18238e-05	0.0102612	0.05509056
	0.009507253	0.05345512	1.162713e-05	-1.18238e-05	-0.02147158	-0.01414726	4.399901e-06	-9.011738e-06
	5.929524e-06	-5.22899e-06	0.0102612	0.05509056	4.399901e-06	-9.011738e-06	-0.02139759	-0.01395814
3.1e+08	-0.02211662	-0.01070939	4.909696e-06	-8.350995e-06	0.02109919	0.05616567	5.039209e-06	-6.317449e-06
	4.909696e-06	-8.350995e-06	-0.02236194	-0.01055365	1.194148e-05	-1.255994e-05	0.0219041	0.05769813
	0.02109919	0.05616567	1.194148e-05	-1.255994e-05	-0.02226416	-0.009600353	4.41212e-06	-8.966829e-06
	5.039209e-06	-6.317449e-06	0.0219041	0.05769813	4.41212e-06	-8.966829e-06	-0.02220322	-0.009384121
3.2e+08	-0.02205443	-0.005735242	4.616236e-06	-8.577135e-06	0.03318663	0.05628593	3.91527e-06	-7.205747e-06
	4.616236e-06	-8.577135e-06	-0.02220342	-0.005572023	1.185661e-05	-1.342004e-05	0.03400801	0.05770142
	0.03318663	0.05628593	1.185661e-05	-1.342004e-05	-0.02203423	-0.004619288	4.276614e-06	-8.983586e-06
	3.91527e-06	-7.205747e-06	0.03400801	0.05770142	4.276614e-06	-8.983586e-06	-0.02196218	-0.004374245
3.3e+08	-0.02078385	-0.0005411133	4.152028e-06	-8.773391e-06	0.04518574	0.05374173	2.606178e-06	-7.84696e-06
	4.152028e-06	-8.773391e-06	-0.02083927	-0.0003911329	1.136845e-05	-1.430167e-05	0.04598558	0.05503424
	0.04518574	0.05374173	1.136845e-05	-1.430167e-05	-0.02060791	0.0005484733	3.989944e-06	-9.017187e-06
	2.606178e-06	-7.84696e-06	0.04598558	0.05503424	3.989944e-06	-9.017187e-06	-0.02050125	0.0008157431
3.4e+08	-0.01819072	0.004565982	3.533727e-06	-8.894561e-06	0.05650795	0.04859066	1.169608e-06	-8.206027e-06
	3.533727e-06	-8.894561e-06	-0.01815908	0.00468234	1.049472e-05	-1.510547e-05	0.05724652	0.04976296
	0.05650795	0.04859066	1.049472e-05	-1.510547e-05	-0.01787735	0.005599969	3.558982e-06	-9.023902e-06
	1.169608e-06	-8.206027e-06	0.05724652	0.04976296	3.558982e-06	-9.023902e-06	-0.01771557	0.00587501
3.5e+08	-0.01424263	0.00924102	2.787743e-06	-8.900924e-06	0.06658848	0.04101904	-3.305723e-07	-8.261412e-06
	2.787743e-06	-8.900924e-06	-0.01413429	0.009304341	9.273524e-06	-1.573957e-05	0.0672264	0.04208304
	0.06658848	0.04101904	9.273524e-06	-1.573957e-05	-0.01381448	0.01019467	3.0002e-06	-8.963377e-06
	-3.305723e-07	-8.261412e-06	0.0672264	0.04208304	3.0002e-06	-8.963377e-06	-0.01358226	0.01045618
3.6e+08	-0.008999085	0.01312258	1.948676e-06	-8.760403e-06	0.07491437	0.03133413	-1.827535e-06	-8.006241e-06
	1.948676e-06	-8.760403e-06	-0.008828185	0.01311517	7.761314e-06	-1.612374e-05	0.07541465	0.03231078
	0.07491437	0.03133413	7.761314e-06	-1.612374e-05	-0.008483106	0.01397681	2.338747e-06	-8.800787e-06
	-1.827535e-06	-8.006241e-06	0.07541465	0.03231078	2.338747e-06	-8.800787e-06	-0.00817221	0.0141982
3.7e+08	-0.00261673	0.01585797	1.057239e-06	-8.450149e-06	0.08104972	0.01994939	-3.255006e-06	-7.448409e-06
	1.057239e-06	-8.450149e-06	-0.002401046	0.01576456	6.029743e-06	-1.619286e-05	0.08137979	0.02086815
	0.08104972	0.01994939	6.029743e-06	-1.619286e-05	-0.002042261	0.0165998	1.606724e-06	-8.508552e-06
	-3.255006e-06	-7.448409e-06	0.08137979	0.02086815	1.606724e-06	-8.508552e-06	-0.00165301	0.01675119
3.8e+08	0.004653317	0.01712811	1.578894e-07	-7.95755e-06	0.08465616	0.007365685	-4.550516e-06	-6.609909e-06
	1.578894e-07	-7.95755e-06	0.004892671	0.01693658	4.162024e-06	-1.589956e-05	0.08478975	0.008263613
	0.08465616	0.007365685	4.162024e-06	-1.589956e-05	0.005255839	0.01775052	8.413025e-07	-8.067554e-06
	-4.550516e-06	-6.609909e-06	0.08478975	0.008263613	8.413025e-07	-8.067554e-06	0.005713598	0.0178012
3.9e+08	0.01247255	0.01667206	-7.036492e-07	-7.28064e-06	0.08551059	-0.005851225	-5.658453e-06	-5.52549e-06
	-7.036492e-07	-7.28064e-06	0.01271153	0.0163741	2.249003e-06	-1.521606e-05	0.08542945	-0.004930842
	0.08551059	-0.005851225	2.249003e-06	-1.521606e-05	0.0130725	0.017175	8.274207e-08	-7.467948e-06
	-5.658453e-06	-5.52549e-06	0.08542945	-0.004930842	8.274207e-08	-7.467948e-06	0.01357902	0.01709606
4e+08	0.0204305	0.01431072	-1.482845e-06	-6.427866e-06	0.08351591	-0.01909746	-6.532608e-06	-4.240451e-06
	-1.482845e-06	-6.427866e-06	0.02064263	0.01390263	3.846469e-07	-1.413501e-05	0.08321128	-0.01810683
	0.08351591	-0.01909746	3.846469e-07	-1.413501e-05	0.02099912	0.0146995	-6.279655e-07	-6.709288e-06
	-6.532608e-06	-4.240451e-06	0.08321128	-0.01810683	-6.279655e-07	-6.709288e-06	0.0215251	0.01446663
4.1e+08	0.02806509	0.009965365	-2.138617e-06	-5.417459e-06	0.07870726	-0.03175805	-7.137748e-06	-2.808114e-06
	-2.138617e-06	-5.417459e-06	0.02822185	0.009448937	-1.340387e-06	-1.267019e-05	0.0781809	-0.03064699
	0.07870726	-0.03175805	-1.340387e-06	-1.267019e-05	0.02857534	0.01025065	-1.253337e-06	-5.801325e-06
	-7.137748e-06	-2.808114e-06	0.0781809	-0.03064699	-1.253337e-06	-5.801325e-06	0.02908316	0.009846743
4.2e+08	0.03488548	0.003670951	-2.635078e-06	-4.275604e-06	0.07125242	-0.04323632	-7.451489e-06	-1.28717e-06
	-2.635078e-06	-4.275604e-06	0.03495771	0.003054033	-2.838527e-06	-1.085295e-05	0.07051729	-0.04195451
	0.07125242	-0.04323632	-2.838527e-06	-1.085295e-05	0.03531374	0.003868268	-1.756658e-06	-4.759643e-06
	-7.451489e-06	-1.28717e-06	0.07051729	-0.04195451	-1.756658e-06	-4.759643e-06	0.03575885	0.003286128
4.3e+08	0.04040274	-0.004414735	-2.943082e-06	-3.035356e-06	0.06144473	-0.05298176	-7.464486e-06	2.616269e-07
	-2.943082e-06	-3.035356e-06	0.0403617	-0.005117834	-4.028587e-06	-8.732741e-06	0.06052511	-0.05148134
	0.06144473	-0.05298176	-4.028587e-06	-8.732741e-06	0.04072966	-0.004286664	-2.103089e-06	-3.607464e-06
	-7.464486e-06	2.616269e-07	0.06052511	-0.05148134	-2.103089e-06	-3.607464e-06	0.04106314	-0.005041766
4.4e+08	0.04415949	-0.01401101	-3.041057e-06	-1.734862e-06	0.04969165	-0.0605163	-7.179746e-06	1.778172e-06
	-3.041057e-06	-1.734862e-06	0.04397815	-0.01477889	-4.843283e-06	-6.375673e-06	0.04862266	-0.0587544
	0.04969165	-0.0605163	-4.843283e-06	-6.375673e-06	0.04436954	-0.01393063	-2.265153e-06	-2.375703e-06
	-7.179746e-06	1.778172e-06	0.04862266	-0.0587544	-2.265153e-06	-2.375703e-06	0.04454154	-0.01483955
4.5e+08	0.04576013	-0.02471983	-2.915406e-06	-4.155582e-07	0.03649677	-0.0654583	-6.611933e-06	3.205521e-06
	-2.915406e-06	-4.155582e-07	0.04541489	-0.02552375	-5.230027e-06	-3.860905e-06	0.03532335	-0.06339953
	0.03649677	-0.0654583	-5.230027e-06	-3.860905e-06	0.04584224	-0.02466381	-2.221841e-06	-1.100533e-06
	-6.611933e-06	3.205521e-06	0.03532335	-0.06339953	-2.221841e-06	-1.100533e-06	0.04580592	-0.0256927
4.6e+08	0.0449017	-0.03604074	-2.560668e-06	8.793658e-07	0.02243714	-0.0675413	-5.785956e-06	4.491941e-06
	-2.560668e-06	8.793658e-07	0.04437439	-0.03684488	-5.153315e-06	-1.277474e-06	0.02121232	-0.06516007
	0.02243714	-0.0675413	-5.153315e-06	-1.277474e-06	0.04484952	-0.03598501	-1.959393e-06	1.778258e-07
	-5.785956e-06	4.491941e-06	0.02121232	-0.06516007	-1.959393e-06	1.778258e-07	0.04456523	-0.03708568
4.7e+08	0.04140164	-0.04739303	-1.979434e-06	2.106312e-06	0.00813644	-0.06662828	-4.735296e-06	5.592485e-06
	-1.979434e-06	2.106312e-06	0.04068173	-0.04815537	-4.596293e-06	1.279087e-06	0.006919155	-0.06391063
	0.00813644	-0.06662828	-4.596293e-06	1.279087e-06	0.04121204	-0.04731267	-1.471748e-06	1.416325e-06
	-4.735296e-06	5.592485e-06	0.006919155	-0.06391063	-1.471748e-06	1.416325e-06	0.0406517	-0.04842418
4.8e+08	0.0352157	-0.05814471	-1.181895e-06	3.222445e-06	-0.005763561	-0.06271896	-3.500216e-06	6.469957e-06
