!$
! Info: Touchstone file created by Circ.  Input file=Intel_C2M_200G_9p0in_202208016_staggered.circ
!$
# Hz S RI R 50
0	0.02669283	4.61121e-24	8.912629e-05	1.325437e-22	0.0001316096	3.235506e-22	8.906176e-05	1.323285e-22
	8.912629e-05	1.325437e-22	0.02670574	4.777745e-24	8.910988e-05	1.324551e-22	0.0001312309	3.211329e-22
	0.0001316663	3.236754e-22	8.910987e-05	1.324566e-22	0.02668776	4.391881e-24	8.907512e-05	1.322435e-22
	8.906175e-05	1.3233e-22	0.0001312876	3.212579e-22	8.907512e-05	1.322435e-22	0.02670372	4.520526e-24
1e+07	0.03335312	0.003811776	7.910195e-05	6.387904e-07	0.001968494	0.007124306	3.50467e-06	1.376263e-05
	7.910195e-05	6.387907e-07	0.03243742	0.00411887	8.610938e-05	2.764666e-05	0.002357386	0.007279435
	0.001968494	0.007124306	8.610938e-05	2.764666e-05	0.0336084	0.003450853	3.415636e-05	1.20864e-05
	3.50467e-06	1.376263e-05	0.002357386	0.007279435	3.415636e-05	1.20864e-05	0.03253033	0.003444607
2e+07	0.03900539	0.001670955	5.710402e-05	3.749691e-05	0.00510344	0.01312186	3.600525e-05	3.717539e-05
	5.710402e-05	3.749691e-05	0.03862906	0.002465865	7.677015e-05	-3.948787e-06	0.005531083	0.01324096
	0.005103447	0.01312185	7.677015e-05	-3.948787e-06	0.03878149	0.001052026	2.151513e-05	2.045834e-05
	3.600525e-05	3.717539e-05	0.00553109	0.01324095	2.151513e-05	2.045834e-05	0.03795038	0.001417025
3e+07	0.04240641	-0.003199834	4.741467e-05	5.110415e-05	0.009726261	0.01809602	6.049483e-05	3.615456e-05
	4.741466e-05	5.110415e-05	0.04244135	-0.002329506	7.205184e-05	-1.048653e-05	0.0101796	0.01820079
	0.009726246	0.01809606	7.205184e-05	-1.048653e-05	0.04182915	-0.003765425	1.475434e-05	2.949561e-05
	6.049484e-05	3.615456e-05	0.01017958	0.01820083	1.475434e-05	2.94956e-05	0.04119268	-0.003296668
4e+07	0.0437722	-0.009058563	3.99669e-05	5.649565e-05	0.01555125	0.02156894	7.947501e-05	2.718261e-05
	3.99669e-05	5.649565e-05	0.04413928	-0.008242999	7.058022e-05	-9.743445e-06	0.01601576	0.02165434
	0.01555126	0.02156896	7.058022e-05	-9.743446e-06	0.04293798	-0.009469127	2.430674e-05	2.876487e-05
	7.947501e-05	2.718261e-05	0.01601576	0.02165436	2.430673e-05	2.876487e-05	0.04246629	-0.008969785
5e+07	0.04339928	-0.01509483	4.943423e-05	4.972489e-05	0.02213888	0.02332549	9.332235e-05	1.328612e-05
	4.943423e-05	4.972489e-05	0.04403286	-0.01441179	7.07541e-05	-1.524062e-05	0.02259854	0.02338734
	0.02213888	0.0233255	7.07541e-05	-1.524062e-05	0.042388	-0.01529426	3.485954e-05	2.212682e-05
	9.332235e-05	1.328611e-05	0.02259855	0.02338735	3.485954e-05	2.212682e-05	0.04205658	-0.01480579
6e+07	0.04153958	-0.020824	6.39752e-05	3.398424e-05	0.02902531	0.02322539	0.0001019048	-3.788777e-06
	6.39752e-05	3.398424e-05	0.04237869	-0.02032731	6.851278e-05	-2.187404e-05	0.02946294	0.02326273
	0.02902531	0.02322537	6.851278e-05	-2.187404e-05	0.04042481	-0.02078173	4.209975e-05	1.31646e-05
	0.0001019048	-3.788776e-06	0.02946295	0.02326271	4.209975e-05	1.31646e-05	0.04021126	-0.02033221
7e+07	0.03847114	-0.02587988	7.251325e-05	1.588495e-05	0.03572149	0.0212488	0.0001055474	-2.253333e-05
	7.251325e-05	1.588495e-05	0.03945579	-0.02560908	6.410149e-05	-2.837606e-05	0.03611939	0.02126463
	0.03572148	0.02124879	6.410149e-05	-2.837606e-05	0.03732151	-0.02558373	4.60875e-05	2.965338e-06
	0.0001055474	-2.253333e-05	0.03611939	0.02126462	4.60875e-05	2.965337e-06	0.03720437	-0.02519376
8e+07	0.03452111	-0.03001197	7.528274e-05	-3.131872e-06	0.04174946	0.01749813	0.0001043189	-4.191703e-05
	7.528274e-05	-3.131872e-06	0.03558963	-0.02999709	5.779217e-05	-3.388671e-05	0.04209003	0.01749976
	0.04174946	0.01749813	5.779217e-05	-3.388671e-05	0.03340136	-0.02946307	4.691555e-05	-7.690234e-06
	0.0001043189	-4.191703e-05	0.04209003	0.01749976	4.691555e-05	-7.690234e-06	0.0333592	-0.02914875
9e+07	0.03004025	-0.03308832	7.23789e-05	-2.203543e-05	0.04667219	0.01219031	9.815261e-05	-6.123245e-05
	7.23789e-05	-2.203543e-05	0.03112466	-0.03335417	5.003526e-05	-3.76833e-05	0.04693897	0.01218944
	0.04667219	0.01219031	5.003526e-05	-3.76833e-05	0.02901357	-0.03229619	4.46398e-05	-1.822257e-05
	9.815261e-05	-6.123245e-05	0.04693897	0.01218944	4.46398e-05	-1.822257e-05	0.02902356	-0.0320714
1e+08	0.02541093	-0.03506836	6.194489e-05	-4.106138e-05	0.05012264	0.005640948	8.520922e-05	-8.092147e-05
	6.194489e-05	-4.106138e-05	0.02640937	-0.03565595	4.127022e-05	-3.875202e-05	0.05029873	0.005653038
	0.05012264	0.005640947	4.127022e-05	-3.875202e-05	0.02456536	-0.034034	3.834793e-05	-2.85873e-05
	8.520922e-05	-8.092147e-05	0.05029873	0.005653037	3.834793e-05	-2.85873e-05	0.02459502	-0.03391831
1.1e+08	0.02085187	-0.03627766	4.584249e-05	-4.773296e-05	0.05179729	-0.001779614	6.568691e-05	-8.915883e-05
	4.584249e-05	-4.773296e-05	0.02161759	-0.0370353	3.489895e-05	-3.722026e-05	0.05187635	-0.001720502
	0.05179729	-0.001779616	3.489895e-05	-3.722026e-05	0.02027807	-0.03523494	2.894669e-05	-3.223851e-05
	6.568691e-05	-8.915883e-05	0.05187635	-0.001720503	2.894669e-05	-3.223851e-05	0.02027466	-0.03518815
1.2e+08	0.01644677	-0.03660022	3.407294e-05	-5.05958e-05	0.05150723	-0.009535728	5.277963e-05	-9.161145e-05
	3.407294e-05	-5.05958e-05	0.01702034	-0.03745054	2.967608e-05	-3.592547e-05	0.05149673	-0.009411346
	0.05150723	-0.009535728	2.967608e-05	-3.592547e-05	0.01603084	-0.03556951	2.176852e-05	-3.390315e-05
	5.277963e-05	-9.161145e-05	0.05149673	-0.009411346	2.176852e-05	-3.390315e-05	0.01600314	-0.03556988
1.3e+08	0.01245049	-0.03618471	2.391351e-05	-5.250305e-05	0.0492206	-0.01714362	4.752806e-05	-8.983323e-05
	2.391351e-05	-5.250305e-05	0.01284575	-0.03708702	2.511145e-05	-3.459149e-05	0.04912631	-0.01693709
	0.0492206	-0.01714362	2.511145e-05	-3.459149e-05	0.01216067	-0.03516943	1.523066e-05	-3.481449e-05
	4.752806e-05	-8.983323e-05	0.04912631	-0.01693709	1.523066e-05	-3.481449e-05	0.01210971	-0.0352075
1.4e+08	0.008996228	-0.03522904	1.472491e-05	-5.364302e-05	0.04501402	-0.02411595	4.159655e-05	-8.86224e-05
	1.472491e-05	-5.364302e-05	0.009223999	-0.03615166	2.101512e-05	-3.32838e-05	0.04484387	-0.02381091
	0.04501402	-0.02411595	2.101512e-05	-3.32838e-05	0.008813838	-0.03424397	9.300028e-06	-3.483534e-05
	4.159655e-05	-8.86224e-05	0.04484386	-0.02381091	9.300028e-06	-3.483534e-05	0.008739397	-0.03431318
1.5e+08	0.006142482	-0.03394257	6.09196e-06	-5.355585e-05	0.03907677	-0.02999245	3.49443e-05	-8.768034e-05
	6.09196e-06	-5.355585e-05	0.00621373	-0.03485877	1.707312e-05	-3.21133e-05	0.03884165	-0.02957354
	0.03907677	-0.02999245	1.707312e-05	-3.21133e-05	0.006044874	-0.03300359	6.006096e-06	-3.372184e-05
	3.49443e-05	-8.768034e-05	0.03884164	-0.02957353	6.006096e-06	-3.372184e-05	0.005946246	-0.03309872
1.6e+08	0.003880749	-0.0325271	-2.064683e-06	-5.242535e-05	0.03170339	-0.03436707	2.770185e-05	-8.661653e-05
	-2.064683e-06	-5.242535e-05	0.003807484	-0.03341371	1.322116e-05	-3.096981e-05	0.03141739	-0.03382057
	0.03170339	-0.03436707	1.322116e-05	-3.096981e-05	0.003840744	-0.03164458	3.272742e-06	-3.241967e-05
	2.770185e-05	-8.661653e-05	0.03141739	-0.03382057	3.272742e-06	-3.241967e-05	0.003716866	-0.03176112
1.7e+08	0.002143458	-0.0311606	-8.098368e-06	-5.03027e-05	0.023279	-0.03691155	1.981574e-05	-8.516346e-05
	-8.098368e-06	-5.03027e-05	0.00193905	-0.03199745	8.943904e-06	-3.008431e-05	0.0229594	-0.03622631
	0.023279	-0.03691155	8.943904e-06	-3.008431e-05	0.002132611	-0.03033605	2.874338e-07	-3.113351e-05
	1.981574e-05	-8.516346e-05	0.0229594	-0.03622631	2.874337e-07	-3.113351e-05	0.001982131	-0.03046969
1.8e+08	0.0008150403	-0.02998157	-1.265972e-05	-4.765096e-05	0.01425948	-0.0373952	1.139163e-05	-8.300951e-05
	-1.265972e-05	-4.765096e-05	0.0004942584	-0.03075125	4.169195e-06	-2.897221e-05	0.01392645	-0.03656346
	0.01425948	-0.0373952	4.169195e-06	-2.897221e-05	0.000807135	-0.02920777	-3.008928e-06	-2.971624e-05
	1.139163e-05	-8.300951e-05	0.01392645	-0.03656346	-3.008928e-06	-2.971624e-05	0.0006285047	-0.02935399
1.9e+08	-0.0002537819	-0.02907817	-1.750423e-05	-4.450256e-05	0.005147578	-0.03569984	2.724038e-06	-7.992803e-05
	-1.750423e-05	-4.450256e-05	-0.000674837	-0.02976589	-7.368056e-07	-2.72569e-05	0.004823464	-0.03471816
	0.005147578	-0.03569984	-7.368056e-07	-2.72569e-05	-0.0002798474	-0.02834047	-6.459866e-06	-2.79216e-05
	2.724038e-06	-7.992803e-05	0.004823464	-0.03471816	-6.459866e-06	-2.79216e-05	-0.0004881942	-0.02849424
2e+08	-0.00122847	-0.02848005	-2.251065e-05	-4.06917e-05	-0.003534626	-0.03182845	-6.000163e-06	-7.575496e-05
	-2.251065e-05	-4.06917e-05	-0.001732434	-0.02907363	-5.681817e-06	-2.485774e-05	-0.003826156	-0.03069835
	-0.003534626	-0.03182845	-5.681817e-06	-2.485774e-05	-0.001287185	-0.02775951	-9.984061e-06	-2.566662e-05
	-6.000163e-06	-7.575496e-05	-0.003826156	-0.03069835	-9.984061e-06	-2.566662e-05	-0.001526492	-0.02791491
2.1e+08	-0.002271137	-0.02815712	-2.752073e-05	-3.606944e-05	-0.0112741	-0.02590734	-1.455305e-05	-7.036563e-05
	-2.752073e-05	-3.606944e-05	-0.002839609	-0.02864702	-1.055071e-05	-2.170397e-05	-0.01150928	-0.02463594
	-0.0112741	-0.02590734	-1.055071e-05	-2.170397e-05	-0.00236978	-0.02743191	-1.348383e-05	-2.288406e-05
	-1.455305e-05	-7.036563e-05	-0.01150928	-0.02463594	-1.348383e-05	-2.288406e-05	-0.002640525	-0.02758205
2.2e+08	-0.00352289	-0.02802259	-3.233128e-05	-3.052743e-05	-0.01759586	-0.01818203	-2.267101e-05	-6.368775e-05
	-3.233128e-05	-3.052743e-05	-0.004136484	-0.02840195	-1.520217e-05	-1.775005e-05	-0.01775218	-0.01678214
	-0.01759586	-0.01818203	-1.520217e-05	-1.775005e-05	-0.003661128	-0.02727104	-1.684578e-05	-1.952574e-05
	-2.267101e-05	-6.368775e-05	-0.01775218	-0.01678214	-1.684578e-05	-1.952574e-05	-0.003962476	-0.02740804
2.3e+08	-0.005085891	-0.02794271	-3.670532e-05	-2.400646e-05	-0.02209062	-0.009006046	-3.00664e-05	-5.570895e-05
	-3.670532e-05	-2.400646e-05	-0.005724468	-0.02820755	-1.947789e-05	-1.29767e-05	-0.02214822	-0.007496051
	-0.02209062	-0.009006046	-1.947789e-05	-1.29767e-05	-0.00525724	-0.02714518	-1.994213e-05	-1.556645e-05
	-3.00664e-05	-5.570895e-05	-0.02214822	-0.007496051	-1.994213e-05	-1.556645e-05	-0.005586495	-0.02726046
2.4e+08	-0.007009925	-0.02775064	-4.038258e-05	-1.650647e-05	-0.02443846	0.00117647	-3.643875e-05	-4.64873e-05
	-4.038258e-05	-1.650647e-05	-0.007652761	-0.02790001	-2.320542e-05	-7.399992e-06	-0.02438169	0.002773124
	-0.02443846	0.00117647	-2.320542e-05	-7.399992e-06	-0.00720213	-0.02689048	-2.263579e-05	-1.100681e-05
	-3.643875e-05	-4.64873e-05	-0.02438169	0.002773124	-2.263579e-05	-1.100681e-05	-0.007554189	-0.02697519
2.5e+08	-0.009283044	-0.02726393	-4.309448e-05	-8.093254e-06	-0.0244288	0.01185369	-4.149309e-05	-3.615201e-05
	-4.309448e-05	-8.093254e-06	-0.009909135	-0.02730022	-2.620724e-05	-1.071781e-06	-0.02424746	0.01350955
	-0.0244288	0.01185369	-2.620724e-05	-1.071781e-06	-0.009479989	-0.02632932	-2.478269e-05	-5.877753e-06
	-4.149309e-05	-3.615201e-05	-0.02424746	0.01350955	-2.478269e-05	-5.877753e-06	-0.009846988	-0.02637515
2.6e+08	-0.01182847	-0.02630489	-4.457926e-05	1.099002e-06	-0.0219745	0.02247327	-4.495599e-05	-2.490336e-05
	-4.457926e-05	1.099002e-06	-0.01241705	-0.02623408	-2.830769e-05	5.916299e-06	-0.02166498	0.02415819
	-0.0219745	0.02247327	-2.830769e-05	5.916299e-06	-0.012011	-0.02528885	-2.62386e-05	-2.412466e-07
	-4.495599e-05	-2.490336e-05	-0.02166498	0.02415819	-2.62386e-05	-2.412466e-07	-0.01238222	-0.02528888
2.7e+08	-0.01450714	-0.02472076	-4.459911e-05	1.087041e-05	-0.01711784	0.03247198	-4.659191e-05	-1.300646e-05
	-4.459911e-05	1.087041e-05	-0.01503818	-0.0245526	-2.934054e-05	1.343351e-05	-0.01668382	0.03415466
	-0.01711784	0.03247198	-2.934054e-05	1.343351e-05	-0.01465468	-0.02362199	-2.686448e-05	5.808153e-06
	-4.659191e-05	-1.300646e-05	-0.01668382	0.03415466	-2.686448e-05	5.808153e-06	-0.01501672	-0.02357166
2.8e+08	-0.01712579	-0.02240324	-4.295472e-05	2.095788e-05	-0.01003099	0.04130659	-4.621706e-05	-7.843576e-07
	-4.295472e-05	2.095788e-05	-0.0175808	-0.02215138	-2.915709e-05	2.13103e-05	-0.009483694	0.0429565
	-0.01003099	0.04130659	-2.915709e-05	2.13103e-05	-0.01721811	-0.02122634	-2.65335e-05	1.214006e-05
	-4.621706e-05	-7.843576e-07	-0.009483694	0.0429565	-2.65335e-05	1.214006e-05	-0.01755541	-0.0211244
2.9e+08	-0.01945222	-0.01930454	-3.949924e-05	3.104676e-05	-0.001008028	0.04848359	-4.371221e-05	1.139435e-05
	-3.949924e-05	3.104676e-05	-0.01981509	-0.01898644	-2.763486e-05	2.933757e-05	-0.0003660551	0.05007277
	-0.001008028	0.04848359	-2.763486e-05	2.933757e-05	-0.01947013	-0.0180592	-2.513889e-05	1.859166e-05
	-4.371221e-05	1.139435e-05	-0.0003660551	0.05007277	-2.513889e-05	1.859166e-05	-0.01976583	-0.01790861
3e+08	-0.02123349	-0.01544891	-3.414819e-05	4.078286e-05	0.009549909	0.05358576	-3.903006e-05	2.312991e-05
	-3.414819e-05	4.078286e-05	-0.02149135	-0.01508556	-2.468731e-05	3.727139e-05	0.0102612	0.05509056
	0.009549909	0.05358576	-2.468731e-05	3.727139e-05	-0.02116053	-0.0141497	-2.260188e-05	2.496907e-05
	-3.903006e-05	2.312991e-05	0.0102612	0.05509056	-2.260188e-05	2.496907e-05	-0.02139759	-0.01395814
3.1e+08	-0.02221781	-0.01093832	-2.68914e-05	4.97795e-05	0.02115445	0.05629538	-3.220277e-05	3.400492e-05
	-2.68914e-05	4.97795e-05	-0.02236194	-0.01055365	-2.026958e-05	4.484042e-05	0.0219041	0.05769813
	0.02115445	0.05629538	-2.026958e-05	4.484042e-05	-0.02204067	-0.009603993	-1.888066e-05	3.105122e-05
	-3.220277e-05	3.400492e-05	0.0219041	0.05769813	-1.888066e-05	3.105122e-05	-0.02220322	-0.009384121
3.2e+08	-0.02217684	-0.005951906	-1.7794e-05	5.763842e-05	0.03325521	0.05641118	-2.334509e-05	4.359866e-05
	-1.7794e-05	5.763842e-05	-0.02220342	-0.005572023	-1.439221e-05	5.174832e-05	0.03400801	0.05770142
	0.03325521	0.05641118	-1.439221e-05	5.174832e-05	-0.02188749	-0.004604928	-1.397548e-05	3.65986e-05
	-2.334509e-05	4.359866e-05	0.03400801	0.05770142	-1.397548e-05	3.65986e-05	-0.02196218	-0.004374245
3.3e+08	-0.02092856	-0.000738936	-7.005391e-06	6.395876e-05	0.0452673	0.05385885	-1.265418e-05	5.150382e-05
	-7.005391e-06	6.395876e-05	-0.02083927	-0.0003911329	-7.122646e-06	5.768881e-05	0.04598558	0.05503424
	0.0452673	0.05385885	-7.122646e-06	5.768881e-05	-0.02052378	0.0005960685	-7.938367e-06	4.135898e-05
	-1.265418e-05	5.150382e-05	0.04598558	0.05503424	-7.938367e-06	4.135898e-05	-0.02050125	0.0008157431
3.4e+08	-0.01835672	0.004393872	5.241289e-06	6.835429e-05	0.05660114	0.0486961	-4.130221e-07	5.733952e-05
	5.241289e-06	6.835429e-05	-0.01815908	0.00468234	1.405127e-06	6.23535e-05	0.05724652	0.04976296
	0.05660114	0.0486961	1.405127e-06	6.23535e-05	-0.0178395	0.005691609	-8.739957e-07	4.507997e-05
	-4.130221e-07	5.733952e-05	0.05724652	0.04976296	-8.739957e-07	4.507997e-05	-0.01771557	0.00587501
3.5e+08	-0.0144268	0.009101244	1.8624e-05	7.046979e-05	0.06669098	0.04110964	1.302059e-05	6.076917e-05
	1.8624e-05	7.046979e-05	-0.01413429	0.009304341	1.098639e-05	6.54481e-05	0.0672264	0.04208304
	0.06669098	0.04110964	1.098639e-05	6.54481e-05	-0.01380552	0.01033649	7.055303e-06	4.751954e-05
	1.302059e-05	6.076917e-05	0.0672264	0.04208304	7.055303e-06	4.751954e-05	-0.01358226	0.01045618
3.6e+08	-0.009196279	0.01302096	3.274189e-05	6.999608e-05	0.075023	0.03140733	2.720914e-05	6.151362e-05
	3.274189e-05	6.999608e-05	-0.008828185	0.01311517	2.135213e-05	6.67069e-05	0.07541465	0.03231078
	0.075023	0.03140733	2.135213e-05	6.67069e-05	-0.008485775	0.01417038	1.562938e-05	4.845886e-05
	2.720914e-05	6.151362e-05	0.07541465	0.03231078	1.562938e-05	4.845886e-05	-0.00817221	0.0141982
3.7e+08	-0.002820077	0.01579901	4.710777e-05	6.669423e-05	0.0811607	0.02000343	4.164801e-05	5.936962e-05
	4.710777e-05	6.669423e-05	-0.002401046	0.01576456	3.21614e-05	6.590984e-05	0.08137979	0.02086815
	0.0811607	0.02000343	3.21614e-05	6.590984e-05	-0.002040452	0.01684243	2.45779e-05	4.77144e-05
	4.164801e-05	5.936962e-05	0.08137979	0.02086815	2.45779e-05	4.77144e-05	-0.00165301	0.01675119
3.8e+08	0.00445208	0.0171146	6.116824e-05	6.040745e-05	0.0847652	0.007399766	5.577617e-05	5.422607e-05
	6.116824e-05	6.040745e-05	0.004892671	0.01693658	4.301933e-05	6.289654e-05	0.08478975	0.008263613
	0.0847652	0.007399766	4.301933e-05	6.289654e-05	0.00527616	0.01803586	3.357736e-05	4.515275e-05
	5.577617e-05	5.422607e-05	0.08478975	0.008263613	3.357736e-05	4.515275e-05	0.005713598	0.0178012
3.9e+08	0.01228263	0.01670462	7.43086e-05	5.108896e-05	0.08561321	-0.005836875	6.899364e-05	4.60762e-05
	7.43086e-05	5.108896e-05	0.01271153	0.0163741	5.348144e-05	5.758184e-05	0.08542945	-0.004930842
	0.08561321	-0.005836875	5.348144e-05	5.758184e-05	0.0131225	0.01749379	4.226864e-05	4.069773e-05
	6.899364e-05	4.60762e-05	0.08542945	-0.004930842	4.226864e-05	4.069773e-05	0.01357902	0.01709606
4e+08	0.02026148	0.01438763	8.587407e-05	3.881944e-05	0.08360764	-0.01910152	8.067328e-05	3.503996e-05
	8.587407e-05	3.881944e-05	0.02064263	0.01390263	6.306691e-05	4.996998e-05	0.08321128	-0.01810683
	0.08360764	-0.01910152	6.306691e-05	4.996998e-05	0.02108666	0.01504046	5.025855e-05	3.434822e-05
	8.067328e-05	3.503996e-05	0.08321128	-0.01810683	5.025855e-05	3.434822e-05	0.0215251	0.01446663
4.1e+08	0.02792609	0.01008265	9.519944e-05	2.381924e-05	0.07878396	-0.03177812	9.01941e-05	2.136339e-05
	9.519944e-05	2.381924e-05	0.02822185	0.009448937	7.128306e-05	4.016464e-05	0.0781809	-0.03064699
	0.07878396	-0.03177812	7.128306e-05	4.016464e-05	0.02870487	0.01060127	5.714174e-05	2.617828e-05
	9.01941e-05	2.136339e-05	0.0781809	-0.03064699	5.714174e-05	2.617828e-05	0.02908316	0.009846743
4.2e+08	0.0347849	0.003822312	0.0001016356	6.466868e-06	0.07131045	-0.04326904	9.696403e-05	5.43801e-06
	0.0001016356	6.466868e-06	0.03495771	0.003054033	7.763577e-05	2.837241e-05	0.07051729	-0.04195451
	0.07131045	-0.04326904	7.763577e-05	2.837241e-05	0.03548595	0.004215874	6.250892e-05	1.635161e-05
	9.696403e-05	5.43801e-06	0.07051729	-0.04195451	6.250892e-05	1.635161e-05	0.03575885	0.003286128
4.3e+08	0.04034769	-0.004238006	0.0001045912	-1.27005e-05	0.06148125	-0.05302289	0.0001004547	-1.220878e-05
	0.0001045912	-1.27005e-05	0.0403617	-0.005117834	8.164862e-05	1.491292e-05	0.06052511	-0.05148134
	0.06148125	-0.05302289	8.164862e-05	1.491292e-05	0.04094161	-0.003953659	6.596956e-05	5.122617e-06
	0.0001004547	-1.220878e-05	0.06052511	-0.05148134	6.596956e-05	5.122617e-06	0.04106314	-0.005041766
4.4e+08	0.04415502	-0.01381951	0.0001035741	-3.299141e-05	0.0497048	-0.06056094	0.0001002362	-3.092283e-05
	0.0001035741	-3.299141e-05	0.04397815	-0.01477889	8.290069e-05	2.183088e-07	0.04862266	-0.0587544
	0.0497048	-0.06056094	8.290069e-05	2.183088e-07	0.04461536	-0.01362205	6.716898e-05	-7.161335e-06
	0.0001002362	-3.092283e-05	0.04862266	-0.0587544	6.716898e-05	-7.161335e-06	0.04454154	-0.01483955
4.5e+08	0.04580867	-0.02452547	9.822811e-05	-5.358105e-05	0.03648582	-0.0655011	9.601077e-05	-4.993046e-05
	9.822811e-05	-5.358105e-05	0.04541489	-0.02552375	8.104688e-05	-1.517216e-05	0.03532335	-0.06339953
	0.03648582	-0.0655011	8.104688e-05	-1.517216e-05	0.04611384	-0.02438708	6.581013e-05	-2.006789e-05
	9.601077e-05	-4.993046e-05	0.03532335	-0.06339953	6.581013e-05	-2.006789e-05	0.04580592	-0.0256927
4.6e+08	0.04500273	-0.03585609	8.837565e-05	-7.353538e-05	0.0224026	-0.06757673	8.764431e-05	-6.837425e-05
	8.837565e-05	-7.353538e-05	0.04437439	-0.03684488	7.583996e-05	-3.062902e-05	0.02121232	-0.06516007
	0.0224026	-0.06757673	7.583996e-05	-3.062902e-05	0.04513735	-0.0357447	6.167801e-05	-3.307857e-05
	8.764431e-05	-6.837425e-05	0.02121232	-0.06516007	6.167801e-05	-3.307857e-05	0.04456523	-0.03708568
4.7e+08	0.04155152	-0.04723052	7.404842e-05	-9.185558e-05	0.008080094	-0.06665095	7.519067e-05	-8.535275e-05
	7.404842e-05	-9.185558e-05	0.04068173	-0.04815537	6.716251e-05	-4.543796e-05	0.006919155	-0.06391063
	0.008080094	-0.06665095	6.716251e-05	-4.543796e-05	0.04150599	-0.04711029	5.465979e-05	-4.560589e-05
	7.519067e-05	-8.535275e-05	0.006919155	-0.06391063	5.465979e-05	-4.560589e-05	0.0406517	-0.04842418
4.8e+08	0.03540775	-0.0580158	5.551258e-05	-0.0001075231	-0.005838677	-0.06272391	5.891278e-05	-9.995212e-05
	5.551258e-05	-0.0001075231	0.03430247	-0.05881847	5.504806e-05	-5.883732e-05	-0.00691107	-0.05966391
