!$
! Info: Touchstone file created by Circ.  Input file=Intel_C2M_200G_4p0in_202208016_staggered.circ
!$
# Hz S RI R 50
0	0.01722347	2.786188e-24	0.982576	-4.927168e-24	9.254583e-05	2.520641e-22	-0.0002237476	2.740118e-20
	0.982576	-4.92528e-24	0.01777876	5.403435e-24	-0.000223803	2.740796e-20	0.0003170327	5.131378e-22
	9.260364e-05	2.521903e-22	-0.0002239401	2.742475e-20	0.01722141	2.642842e-24	0.9825763	-4.979373e-24
	-0.0002238847	2.741797e-20	0.0003171013	5.134948e-22	0.9825763	-4.98127e-24	0.01778017	5.496437e-24
1e+07	0.02081372	0.005704012	0.976288	-0.07776523	0.001269069	0.005035806	-0.0009234895	-0.0007941609
	0.976288	-0.07776523	0.02112238	0.005520966	-0.0009237059	-0.0007940079	0.001209239	0.005055022
	0.001269069	0.005035806	-0.0009237059	-0.0007940079	0.02066709	0.005630128	0.9764402	-0.07766737
	-0.0009234895	-0.0007941609	0.001209239	0.005055022	0.9764402	-0.07766737	0.02096985	0.005450592
2e+07	0.02440102	0.00839967	0.9642101	-0.1519691	0.002631079	0.009482014	-0.00124903	-0.00114915
	0.9642101	-0.1519691	0.02574473	0.007970509	-0.001249481	-0.001148454	0.002344299	0.009617863
	0.00263109	0.009482001	-0.001249478	-0.001148565	0.02418835	0.008345742	0.964444	-0.1518759
	-0.001249026	-0.001149254	0.002344388	0.009617758	0.964444	-0.1518759	0.02550835	0.007939403
3e+07	0.02738422	0.009623114	0.9474349	-0.2236579	0.004624076	0.01374277	-0.001605656	-0.001446591
	0.9474349	-0.2236579	0.02991208	0.008375353	-0.001606165	-0.001444951	0.004107975	0.01392794
	0.004624047	0.01374281	-0.001606208	-0.00144495	0.02712032	0.009616452	0.9477277	-0.2235976
	-0.001605669	-0.001446597	0.004107952	0.01392791	0.9477277	-0.2235976	0.02962954	0.008411119
4e+07	0.02980717	0.01011519	0.9258199	-0.2932874	0.00728063	0.01759453	-0.001991513	-0.001669257
	0.9258199	-0.2932874	0.03403213	0.007842584	-0.001991648	-0.001666525	0.006386928	0.01796402
	0.007280624	0.01759455	-0.001991653	-0.001666522	0.02951232	0.01016403	0.9261562	-0.2932742
	-0.001991515	-0.001669243	0.006386927	0.01796402	0.9261562	-0.2932742	0.03372286	0.007960229
5e+07	0.03180581	0.01023027	0.8994183	-0.360716	0.01051135	0.02098284	-0.002397491	-0.001815096
	0.8994183	-0.360716	0.03809407	0.006438133	-0.002396814	-0.001811405	0.00916658	0.0216399
	0.01051135	0.02098285	-0.002396811	-0.001811405	0.03149244	0.01033951	0.8997858	-0.3607602
	-0.002397488	-0.001815097	0.009166583	0.02163991	0.8997858	-0.3607602	0.03777903	0.006645779
6e+07	0.03345193	0.01011887	0.86836	-0.4257034	0.01424875	0.02383346	-0.002811713	-0.00188878
	0.86836	-0.4257034	0.04201952	0.004269607	-0.002809857	-0.001884334	0.01238972	0.02489618
	0.01424877	0.02383345	-0.002809855	-0.001884335	0.03313079	0.01029199	0.8687461	-0.4258118
	-0.00281171	-0.00188878	0.01238971	0.02489618	0.8687461	-0.4258118	0.04171946	0.004570375
7e+07	0.0347879	0.009900059	0.8328113	-0.4879844	0.01841083	0.02608036	-0.003225348	-0.00189626
	0.8328113	-0.4879844	0.04575875	0.00141655	-0.003221927	-0.001891475	0.01599426	0.02768427
	0.01841083	0.02608036	-0.003221877	-0.001891525	0.03446921	0.01013913	0.8332021	-0.4881625
	-0.003225345	-0.001896262	0.01599427	0.02768427	0.8332021	-0.4881625	0.04549346	0.001809231
8e+07	0.03586825	0.009675347	0.7929632	-0.5472892	0.02290783	0.02766936	-0.003631256	-0.001843383
	0.7929632	-0.5472892	0.04926012	-0.002068103	-0.003626045	-0.001838789	0.01991231	0.02996425
	0.02290783	0.02766937	-0.003626046	-0.001838787	0.03556213	0.009981984	0.7933469	-0.5475413
	-0.003631257	-0.00184338	0.01991231	0.02996425	0.7933469	-0.5475413	0.04904882	-0.001588092
9e+07	0.03676464	0.009524765	0.7490264	-0.6033543	0.02764455	0.02855848	-0.004023988	-0.001735798
	0.7490264	-0.6033543	0.05246638	-0.006133779	-0.00401691	-0.001732049	0.0240725	0.03170641
	0.02764455	0.02855849	-0.00401691	-0.00173204	0.03648113	0.00990103	0.7493866	-0.6036836
	-0.00402399	-0.001735789	0.0240725	0.03170641	0.7493866	-0.6036836	0.05232873	-0.005573046
1e+08	0.03758698	0.009536261	0.7011948	-0.6559602	0.03252402	0.02871721	-0.004402031	-0.001578538
	0.7011948	-0.6559602	0.05535302	-0.01069577	-0.004393279	-0.00157653	0.02840423	0.03289078
	0.03252403	0.02871721	-0.004393279	-0.001576531	0.03734013	0.009992063	0.7015099	-0.6563759
	-0.00440203	-0.001578539	0.02840423	0.03289078	0.7015099	-0.6563759	0.05531682	-0.01006039
1.1e+08	0.03846452	0.009482374	0.6496605	-0.7045989	0.03744944	0.02811638	-0.004752782	-0.00136193
	0.6496605	-0.7045989	0.05793868	-0.01591505	-0.004743445	-0.001360989	0.03282116	0.03349511
	0.03744944	0.02811638	-0.004743444	-0.001360991	0.03835165	0.009973777	0.6498981	-0.705063
	-0.004752782	-0.001361931	0.03282116	0.03349511	0.6498981	-0.705063	0.05802608	-0.01524211
1.2e+08	0.03922044	0.009520207	0.5949591	-0.7491338	0.04227009	0.02677422	-0.005065681	-0.00111624
	0.5949591	-0.7491338	0.0599175	-0.02164211	-0.005055688	-0.001117066	0.03724085	0.03353439
	0.04227009	0.02677422	-0.005055688	-0.001117068	0.03917603	0.010012	0.5951258	-0.7496303
	-0.005065681	-0.001116241	0.03724085	0.03353439	0.5951258	-0.7496303	0.06011805	-0.02096662
1.3e+08	0.03997303	0.009698137	0.5373564	-0.7894178	0.04689858	0.02470903	-0.005347117	-0.0008466169
	0.5373564	-0.7894178	0.06128692	-0.02774522	-0.005337201	-0.0008499135	0.04159292	0.03302322
	0.04689858	0.02470903	-0.005337201	-0.0008499149	0.03997281	0.01019617	0.5374536	-0.7899374
	-0.005347117	-0.0008466183	0.04159292	0.03302322	0.5374536	-0.7899374	0.06159012	-0.02708979
1.4e+08	0.04079601	0.01001193	0.4771624	-0.8252838	0.05124088	0.02195182	-0.005600105	-0.0005581906
	0.4771624	-0.8252838	0.06202381	-0.0341306	-0.005591291	-0.0005635885	0.04580776	0.03198527
	0.05124088	0.02195182	-0.005591292	-0.0005635897	0.04083799	0.01052147	0.4771898	-0.8258151
	-0.005600105	-0.0005581917	0.04580776	0.03198527	0.4771898	-0.8258151	0.06241703	-0.03351055
1.5e+08	0.0417509	0.01044202	0.4147011	-0.8565806	0.05520472	0.01854542	-0.005827633	-0.0002547666
	0.4147011	-0.8565806	0.06211012	-0.04071127	-0.005820506	-0.0002618618	0.04982058	0.03045285
	0.05520472	0.01854542	-0.005820506	-0.0002618626	0.04183909	0.01096126	0.414661	-0.8571145
	-0.005827634	-0.0002547674	0.04982058	0.03045285	0.414661	-0.8571145	0.06258091	-0.04013703
1.6e+08	0.04289042	0.01095697	0.3503079	-0.8831753	0.05870303	0.01454452	-0.006032689	6.078951e-05
	0.3503079	-0.8831753	0.06153496	-0.04740285	-0.006027603	5.266396e-05	0.05357249	0.02846676
	0.05870302	0.01454452	-0.006027604	5.266333e-05	0.04302891	0.01147891	0.3502016	-0.8837048
	-0.00603269	6.078888e-05	0.05357249	0.02846676	0.3502016	-0.8837048	0.06207128	-0.04688166
1.7e+08	0.04425907	0.0115148	0.2843264	-0.904961	0.06165604	0.01001477	-0.006218227	0.0003865546
	0.2843264	-0.904961	0.06029565	-0.05412311	-0.006215305	0.0003781689	0.05701132	0.02607445
	0.06165604	0.01001477	-0.006215305	0.0003781685	0.04444945	0.01202987	0.2841561	-0.905479
	-0.006218228	0.0003865541	0.05701132	0.02607445	0.2841561	-0.905479	0.06088641	-0.05365983
1.8e+08	0.04589204	0.01206407	0.2171059	-0.9218543	0.06399314	0.00503184	-0.006387184	0.000721519
	0.2171059	-0.9218543	0.05839851	-0.0607915	-0.006386298	0.0007134948	0.06009318	0.02332954
	0.06399314	0.005031839	-0.006386298	0.0007134945	0.04613269	0.01256195	0.2168744	-0.9223535
	-0.006387184	0.0007215187	0.06009318	0.02332954	0.2168744	-0.9223535	0.05903257	-0.06038918
1.9e+08	0.04781395	0.01254527	0.1490021	-0.933794	0.06565446	-0.0003196515	-0.006542217	0.001065894
	0.1490021	-0.933794	0.05585775	-0.06732979	-0.006543092	0.001058745	0.06278263	0.02029095
	0.06565446	-0.0003196518	-0.006543092	0.001058745	0.04810028	0.0130162	0.1487138	-0.9342703
	-0.006542218	0.001065894	0.06278263	0.02029095	0.1487138	-0.9342703	0.05652526	-0.06698996
2e+08	0.05003689	0.01289274	0.08037226	-0.9407456	0.06659178	-0.005947908	-0.00668554	0.001420516
	0.08037226	-0.9407456	0.05269708	-0.07366291	-0.006687816	0.001414483	0.0650531	0.01702051
	0.06659178	-0.005947908	-0.006687817	0.001414483	0.05036281	0.01332838	0.08002917	-0.9411922
	-0.00668554	0.001420515	0.0650531	0.01702051	0.08002917	-0.9411922	0.05338751	-0.07338557
2.1e+08	0.05255974	0.01303771	0.01157341	-0.9427006	0.06676934	-0.01175549	-0.006819018	0.001786643
	0.01157341	-0.9427006	0.04894761	-0.07971999	-0.00682226	0.001782205	0.06688824	0.0135827
	0.06676934	-0.01175549	-0.00682226	0.001782204	0.05291731	0.01343099	0.01118012	-0.9431125
	-0.006819018	0.001786643	0.06688824	0.0135827	0.01118012	-0.9431125	0.04965216	-0.07950389
2.2e+08	0.0553675	0.01290946	-0.05703824	-0.9396737	0.06616441	-0.01764102	-0.006943664	0.00216657
	-0.05703824	-0.9396737	0.04464923	-0.08543502	-0.006947426	0.002163741	0.06828087	0.01004257
	0.06616441	-0.01764102	-0.006947426	0.002163741	0.05574791	0.01325543	-0.05747767	-0.9400463
	-0.006943664	0.00216657	0.06828087	0.01004257	-0.05747767	-0.9400463	0.04535897	-0.08527748
2.3e+08	0.05843135	0.01243894	-0.1251073	-0.9317037	0.06476798	-0.02350118	-0.007059984	0.002562263
	-0.1251073	-0.9317037	0.03984875	-0.09074758	-0.00706383	0.002561335	0.06923348	0.006464343
	0.06476798	-0.02350118	-0.00706383	0.002561335	0.05882571	0.0127341	-0.1255898	-0.9320331
	-0.007059984	0.002562263	0.06923348	0.006464343	-0.1255898	-0.9320331	0.04055572	-0.09064485
2.4e+08	0.06170884	0.01156097	-0.1922876	-0.9188563	0.06258447	-0.02923214	-0.007167802	0.00297685
	-0.1922876	-0.9188563	0.03459947	-0.09560451	-0.007171272	0.002977563	0.06975824	0.002910427
	0.06258447	-0.02923214	-0.007171272	0.002977563	0.06210755	0.01180323	-0.1928075	-0.9191399
	-0.007167802	0.00297685	0.06975824	0.002910427	-0.1928075	-0.9191399	0.03529699	-0.0955517
2.5e+08	0.06514431	0.01021656	-0.2582351	-0.9012213	0.05963157	-0.03473153	-0.007266203	0.003413049
	-0.2582351	-0.9012213	0.02896106	-0.09995996	-0.007268772	0.003415232	0.06987596	-0.0005603767
	0.05963157	-0.03473153	-0.007268772	0.003415232	0.06553835	0.01040527	-0.2587888	-0.9014539
	-0.007266203	0.003413049	0.06987596	-0.0005603767	-0.2587888	-0.9014539	0.02964318	-0.0999509
2.6e+08	0.06867062	0.00835518	-0.3226172	-0.878909	0.05594043	-0.03990041	-0.007353786	0.003873562
	-0.3226172	-0.878909	0.02299684	-0.1037757	-0.007354932	0.003877169	0.06961563	-0.003894091
	0.05594043	-0.03990041	-0.007354932	0.003877169	0.06905067	0.008490723	-0.3231979	-0.8790881
	-0.007353786	0.003873562	0.06961563	-0.003894091	-0.3231979	-0.8790881	0.02365945	-0.1038039
2.7e+08	0.0722102	0.005936608	-0.3851089	-0.8520526	0.05155419	-0.04464418	-0.007428268	0.004361319
	-0.3851089	-0.8520526	0.01677466	-0.1070224	-0.007427707	0.004365733	0.0690136	-0.007042197
	0.05155419	-0.04464418	-0.007427707	0.004365733	0.07256732	0.006020512	-0.3857126	-0.8521768
	-0.007428268	0.004361319	0.0690136	-0.007042197	-0.3857126	-0.8521768	0.01741473	-0.1070809
2.8e+08	0.07567654	0.002933184	-0.4453971	-0.8208088	0.04652785	-0.04887483	-0.007486771	0.004878832
	-0.4453971	-0.8208088	0.01036475	-0.1096798	-0.007484109	0.004883804	0.06811274	-0.009963336
	0.04652785	-0.04887483	-0.007484109	0.004883804	0.0760024	0.002968101	-0.4460186	-0.8208763
	-0.007486771	0.004878832	0.06811274	-0.009963336	-0.4460186	-0.8208763	0.01098077	-0.1097609
2.9e+08	0.07897684	-0.0006691997	-0.5031805	-0.7853548	0.04092726	-0.05251211	-0.007525428	0.005428993
	-0.5031805	-0.7853548	0.003838426	-0.1117363	-0.007520695	0.005433819	0.06696095	-0.01262342
	0.04092726	-0.05251211	-0.007520695	0.005433819	0.07926308	-0.0006798418	-0.5038147	-0.7853645
	-0.007525428	0.005428993	0.06696095	-0.01262342	-0.5038147	-0.7853645	0.004430564	-0.1118328
3e+08	0.08201385	-0.004869689	-0.5581717	-0.7458859	0.03482761	-0.05548433	-0.007540249	0.006013752
	-0.5581717	-0.7458859	-0.002732269	-0.1131895	-0.007533451	0.00601786	0.06560999	-0.01499708
	0.03482761	-0.05548433	-0.007533451	0.00601786	0.08225267	-0.004921689	-0.5588132	-0.745836
	-0.007540249	0.006013752	0.06560999	-0.01499708	-0.5588132	-0.745836	-0.002162451	-0.1132941
3.1e+08	0.08468842	-0.009651851	-0.6100994	-0.7026174	0.0283126	-0.05773022	-0.007526342	0.006635005
	-0.6100994	-0.7026174	-0.009276434	-0.1140464	-0.007517304	0.006637836	0.06411476	-0.01706704
	0.0283126	-0.05773022	-0.007517304	0.006637836	0.08487197	-0.009740185	-0.6107411	-0.7025074
	-0.007526341	0.006635005	0.06411476	-0.01706704	-0.6107411	-0.7025074	-0.008725882	-0.1141524
3.2e+08	0.08690143	-0.01498323	-0.6587049	-0.6557828	0.02147283	-0.05919939	-0.007478042	0.007294185
	-0.6587049	-0.6557828	-0.01572478	-0.1143224	-0.007467045	0.007295214	0.06253124	-0.01882558
	0.02147283	-0.05919939	-0.007467045	0.007295214	0.08702304	-0.01510155	-0.6593445	-0.6556124
	-0.007478042	0.007294185	0.06253124	-0.01882558	-0.6593445	-0.6556124	-0.01518966	-0.1144242
3.3e+08	0.08855712	-0.02081526	-0.7037495	-0.6056295	0.01440452	-0.05985271	-0.007388747	0.007992357
	-0.7037495	-0.6056295	-0.02201156	-0.1140416	-0.007376715	0.007990735	0.06091509	-0.02027368
	0.01440452	-0.05985271	-0.007376715	0.007990735	0.08861016	-0.02095648	-0.7043805	-0.6054
	-0.007388747	0.007992357	0.06091509	-0.02027368	-0.7043805	-0.6054	-0.02148612	-0.1141342
3.4e+08	0.08956513	-0.02708323	-0.7450095	-0.5524249	0.007207739	-0.05966373	-0.007251897	0.008729325
	-0.7450095	-0.5524249	-0.0280744	-0.1132359	-0.007238911	0.008724904	0.0593212	-0.02142112
	0.007207739	-0.05966373	-0.007238911	0.008724904	0.08954416	-0.02723957	-0.7456299	-0.5521359
	-0.007251897	0.008729325	0.0593212	-0.02142112	-0.7456299	-0.5521359	-0.02755288	-0.1133157
3.5e+08	0.08984329	-0.03370764	-0.7822847	-0.4964468	-1.481835e-05	-0.05861801	-0.007059636	0.009504714
	-0.7822847	-0.4964468	-0.03385695	-0.1119448	-0.00704635	0.009497121	0.05780135	-0.02228666
	-1.481835e-05	-0.05861801	-0.00704635	0.009497121	0.08974302	-0.03387043	-0.7828857	-0.4961001
	-0.007059636	0.009504714	0.05780135	-0.02228666	-0.7828857	-0.4961001	-0.03333163	-0.1120096
3.6e+08	0.08931954	-0.04059495	-0.8153896	-0.4379892	-0.007159461	-0.05671407	-0.006803628	0.01031686
	-0.8153896	-0.4379892	-0.03930786	-0.1102147	-0.006791134	0.01030594	0.05640338	-0.02289671
	-0.007159461	-0.05671407	-0.006791134	0.01030594	0.08913618	-0.04075463	-0.8159673	-0.4375857
	-0.006803628	0.01031686	0.05640338	-0.02289671	-0.8159673	-0.4375857	-0.03877123	-0.1102632
3.7e+08	0.08793505	-0.04763925	-0.8441613	-0.3773554	-0.01412353	-0.05396292	-0.006475393	0.01116288
	-0.8441613	-0.3773554	-0.04438286	-0.1080971	-0.006464209	0.01114878	0.05517014	-0.02328506
	-0.01412353	-0.05396292	-0.006464209	0.01114878	0.08766574	-0.04778564	-0.8447125	-0.3768963
	-0.006475393	0.01116288	0.05517014	-0.02328506	-0.8447125	-0.3768963	-0.0438273	-0.10813
3.8e+08	0.08564516	-0.05472396	-0.8684592	-0.3148601	-0.02080613	-0.05038754	-0.006064997	0.01203895
	-0.8684592	-0.3148601	-0.04904498	-0.1056486	-0.006056614	0.01202168	0.05413816	-0.02349207
	-0.02080613	-0.05038754	-0.006056614	0.01202168	0.0852879	-0.05484619	-0.8689767	-0.3143475
	-0.006064997	0.01203895	0.05413816	-0.02349207	-0.8689767	-0.3143475	-0.0484622	-0.1056684
3.9e+08	0.08242179	-0.06172304	-0.8881619	-0.2508298	-0.02711012	-0.04602344	-0.005563887	0.01293917
	-0.8881619	-0.2508298	-0.05326508	-0.1029305	-0.005558133	0.01291934	0.05333706	-0.02356369
	-0.02711012	-0.04602344	-0.005558133	0.01291934	0.08197669	-0.06181023	-0.8886444	-0.2502666
	-0.005563887	0.01293917	0.05333706	-0.02356369	-0.8886444	-0.2502666	-0.05264796	-0.1029408
4e+08	0.0782549	-0.06850501	-0.9031737	-0.185599	-0.03294335	-0.04091681	-0.004961808	0.01385629
	-0.9031737	-0.185599	-0.05702255	-0.1000068	-0.004959933	0.01383455	0.05278843	-0.02355016
	-0.03294335	-0.04091681	-0.004959933	0.01383455	0.07772264	-0.06854602	-0.9036146	-0.1849857
	-0.004961808	0.01385629	0.05278843	-0.02355016	-0.9036146	-0.1849857	-0.05636364	-0.1000126
4.1e+08	0.07315334	-0.07493532	-0.9134199	-0.1195028	-0.03821966	-0.03512464	-0.004249306	0.01478113
	-0.9134199	-0.1195028	-0.06030514	-0.09694215	-0.004252018	0.01475818	0.05250555	-0.02350423
	-0.03821966	-0.03512464	-0.004252018	0.01475818	0.07253623	-0.07491861	-0.9138159	-0.1188417
	-0.004249306	0.01478113	0.05250555	-0.02350423	-0.9138159	-0.1188417	-0.05959844	-0.09695026
4.2e+08	0.06714589	-0.0808771	-0.918852	-0.05288925	-0.04286068	-0.02871371	-0.003418035	0.01570259
	-0.918852	-0.05288925	-0.06310984	-0.09380338	-0.003425421	0.01567928	0.05249261	-0.02348166
	-0.04286068	-0.02871371	-0.003425421	0.01567928	0.06644784	-0.08079136	-0.9191979	-0.05218464
	-0.003418035	0.01570259	0.05249261	-0.02348166	-0.9191979	-0.05218464	-0.0623498	-0.09382191
4.3e+08	0.06028123	-0.08619676	-0.9194439	0.01389567	-0.04679621	-0.02175912	-0.00245929	0.01660733
	-0.9194439	0.01389567	-0.06544199	-0.09065583	-0.00247184	0.01658499	0.05274492	-0.02353736
	-0.04679621	-0.02175912	-0.00247184	0.01658499	0.05950735	-0.08603119	-0.9197358	0.01464138
	-0.00245929	0.01660733	0.05274492	-0.02353736	-0.9197358	0.01464138	-0.06462506	-0.09069387
4.4e+08	0.05262758	-0.09076578	-0.9151954	0.08050295	-0.04996524	-0.0143439	-0.001366506	0.01748015
	-0.9151954	0.08050295	-0.06731595	-0.08756336	-0.001383939	0.01745965	0.05324844	-0.02372598
	-0.04996524	-0.0143439	-0.001383939	0.01745965	0.05178463	-0.09050967	-0.9154288	0.08128539
	-0.001366506	0.01748015	0.05324844	-0.02372598	-0.9154288	0.08128539	-0.0664394	-0.08763105
4.5e+08	0.04427325	-0.09446292	-0.9061308	0.1465801	-0.05231708	-0.006557496	-0.0001344789	0.01830374
	-0.9061308	0.1465801	-0.0687544	-0.08458753	-0.0001564584	0.01828631	0.0539805	-0.02409961
	-0.05231708	-0.006557496	-0.0001564584	0.01828631	0.04336929	-0.09410629	-0.9063015	0.1473953
	-0.0001344789	0.01830374	0.0539805	-0.02409961	-0.9063015	0.1473953	-0.0678173	-0.08469561
4.6e+08	0.03532449	-0.09717793	-0.8923001	0.2117784	-0.05381158	0.001505491	0.001240331	0.01905872
	-0.8923001	0.2117784	-0.06978805	-0.08178604	0.001214022	0.01904564	0.05490986	-0.02470687
	-0.05381158	0.001505491	0.001214022	0.01904564	0.03436851	-0.09671209	-0.8924033	0.212623
	0.001240331	0.01905872	0.05490986	-0.02470687	-0.8924033	0.212623	-0.06879122	-0.08194546
4.7e+08	0.02590421	-0.09881581	-0.8737807	0.2757568	-0.05441991	0.009746741	0.002757787	0.01972455
	-0.8737807	0.2757568	-0.0704554	-0.07921037	0.002728226	0.01971669	0.05599714	-0.0255907
	-0.05441991	0.009746741	0.002728226	0.01971669	0.02490694	-0.09823198	-0.8738114	0.2766237
	0.002757787	0.01972455	0.05599714	-0.0255907	-0.8738114	0.2766237	-0.06940118	-0.07943285
4.8e+08	0.01615006	-0.0992957	-0.8506688	0.3381738	-0.05412446	0.01806489	0.004416309	0.02027882
	-0.8506688	0.3381738	-0.07080041	-0.07690766	0.004384069	0.02027722	0.05719628	-0.02678841
	-0.05412446	0.01806489	0.004384069	0.02027722	0.01512354	-0.09858743	-0.8506264	0.3390583
	0.004416309	0.02027882	0.05719628	-0.02678841	-0.8506264	0.3390583	-0.06969368	-0.07720418
4.9e+08	0.006213618	-0.0985562	-0.8230941	0.3986947	-0.05291984	0.02635775	0.006209482	0.02069889
	-0.8230941	0.3986947	-0.07087442	-0.07491774	0.006176243	0.02070399	0.05845468	-0.02832991
	-0.05291984	0.02635775	0.006176243	0.02070399	0.005170331	-0.09771786	-0.8229735	0.3995924
	0.006209482	0.02069889	0.05845468	-0.02832991	-0.8229735	0.3995924	-0.06972129	-0.07529897
5e+08	-0.003744977	-0.09655734	-0.7912064	0.4570027	-0.05081166	0.03452299	0.008128541	0.0209607
	-0.7912064	0.4570027	-0.0707329	-0.07327228	0.008095393	0.02097337	0.05971507	-0.03023653
	-0.05081166	0.03452299	0.008095393	0.02097337	-0.004790986	-0.09558439	-0.791005	0.4579033
	0.008128541	0.0209607	0.05971507	-0.03023653	-0.791005	0.4579033	-0.06954146	-0.07374881
5.1e+08	-0.01355721	-0.09327929	-0.7551788	0.5127822	-0.04781757	0.04245904	0.01015974	0.02104177
	-0.7551788	0.5127822	-0.070435	-0.07199598	0.01012822	0.02106205	0.06091626	-0.03252106
	-0.04781757	0.04245904	0.01012822	0.02106205	-0.01459176	-0.09216964	-0.754896	0.5136804
	0.01015974	0.02104177	0.06091626	-0.03252106	-0.754896	0.5136804	-0.0692151	-0.07257647
5.2e+08	-0.02305083	-0.08872696	-0.7152119	0.5657358	-0.04396667	0.05006813	0.01228613	0.02091925
	-0.7152119	0.5657358	-0.07004298	-0.07110409	0.01225816	0.02094679	0.06199505	-0.0351866
