!$
! Info: Touchstone file created by Circ.  Input file=Intel_C2M_200G_4p0in_202208016_staggered.circ
!$
# Hz S RI R 50
0	0.01777876	5.402996e-24	-7.143821e-05	8.748657e-21	0.0003170345	5.131328e-22	-6.710891e-05	8.218471e-21
	-7.14383e-05	8.748669e-21	0.01722347	2.786188e-24	-7.861898e-05	9.628048e-21	9.254583e-05	2.520641e-22
	0.0003171031	5.134922e-22	-7.861907e-05	9.628059e-21	0.01777998	5.497919e-24	-7.146367e-05	8.751775e-21
	-6.71089e-05	8.21847e-21	9.260364e-05	2.521903e-22	-7.146357e-05	8.751764e-21	0.01722141	2.642842e-24
1e+07	0.02158012	0.005405317	-0.0005622526	-8.684109e-05	0.0009935715	0.005031262	-5.561775e-05	-0.0001031466
	-0.0005622526	-8.684109e-05	0.02081372	0.005704012	-0.0004096292	-5.208766e-05	0.001269069	0.005035806
	0.0009935715	0.005031262	-0.0004096292	-5.208766e-05	0.02123328	0.005551074	-0.0002646365	-0.0001097242
	-5.561775e-05	-0.0001031466	0.001269069	0.005035806	-0.0002646365	-0.0001097242	0.02066709	0.005630128
2e+07	0.02595765	0.007642399	-0.0005157327	-0.0003039466	0.002147691	0.009659644	-8.160896e-05	-0.000163554
	-0.0005157326	-0.0003039466	0.02440102	0.00839967	-0.0004230752	-0.0002573903	0.002631079	0.009482014
	0.00214778	0.009659538	-0.0004230752	-0.0002573903	0.02580818	0.008010185	-0.0002733027	-0.0002274746
	-8.160894e-05	-0.0001635539	0.00263109	0.009482001	-0.0002733028	-0.0002274746	0.02418835	0.008345742
3e+07	0.029936	0.008029619	-0.0005103414	-0.0004337554	0.003929139	0.01399914	-0.0001186879	-0.0002250046
	-0.0005103414	-0.0004337555	0.02738422	0.009623114	-0.0004611228	-0.0003752466	0.004624076	0.01374277
	0.003929115	0.01399911	-0.0004611228	-0.0003752466	0.02995656	0.008464405	-0.0003079184	-0.0003292876
	-0.0001186879	-0.0002250046	0.004624047	0.01374281	-0.0003079184	-0.0003292876	0.02712032	0.009616452
4e+07	0.03390547	0.007544358	-0.0005321685	-0.0005297345	0.006226426	0.01805631	-0.0001693359	-0.0002796556
	-0.0005321685	-0.0005297345	0.02980717	0.01011519	-0.0005194424	-0.0004668869	0.00728063	0.01759453
	0.006226426	0.01805632	-0.0005194424	-0.0004668869	0.03407078	0.007993738	-0.0003611325	-0.000410587
	-0.0001693359	-0.0002796556	0.007280624	0.01759455	-0.0003611326	-0.0004105869	0.02951232	0.01016403
5e+07	0.03785254	0.006226983	-0.0005741476	-0.0006036152	0.009025135	0.02174832	-0.0002296713	-0.0003283771
	-0.0005741476	-0.0006036152	0.03180581	0.01023027	-0.0005936194	-0.0005391939	0.01051135	0.02098284
	0.009025138	0.02174833	-0.0005936194	-0.0005391939	0.03814277	0.006656979	-0.0004293348	-0.0004751735
	-0.0002296713	-0.0003283771	0.01051135	0.02098285	-0.0004293348	-0.0004751735	0.03149244	0.01033951
6e+07	0.04169882	0.004171801	-0.0006312448	-0.0006586114	0.01226791	0.02501679	-0.0002975609	-0.0003675494
	-0.0006312448	-0.0006586114	0.03345193	0.01011887	-0.0006802863	-0.0005941665	0.01424875	0.02383346
	0.01226791	0.02501679	-0.0006802863	-0.0005941665	0.04209453	0.004557027	-0.0005093457	-0.00052352
	-0.0002975609	-0.0003675494	0.01424877	0.02383345	-0.0005093456	-0.00052352	0.03313079	0.01029199
7e+07	0.0453954	0.001449009	-0.0007099074	-0.0006891947	0.01589242	0.02781352	-0.0003716946	-0.0003965144
	-0.0007099074	-0.0006891947	0.0347879	0.009900059	-0.0007763858	-0.0006323382	0.01841083	0.02608036
	0.01589242	0.02781353	-0.0007763858	-0.0006323383	0.04587566	0.001769313	-0.0005981728	-0.0005553728
	-0.0003716947	-0.0003965144	0.01841083	0.02608036	-0.0005981728	-0.0005553728	0.03446921	0.01013913
8e+07	0.04889212	-0.00189603	-0.0008059339	-0.0006921267	0.01983044	0.03009881	-0.0004507073	-0.0004147728
	-0.0008059339	-0.0006921267	0.03586825	0.009675347	-0.0008793093	-0.000654096	0.02290783	0.02766936
	0.01983044	0.03009881	-0.0008793093	-0.000654096	0.04943397	-0.001656538	-0.0006928546	-0.0005703531
	-0.0004507073	-0.0004147728	0.02290783	0.02766937	-0.0006928546	-0.0005703531	0.03556213	0.009981984
9e+07	0.0521349	-0.005818984	-0.0009004133	-0.0006742721	0.02401032	0.0318431	-0.0005331934	-0.0004220125
	-0.0009004133	-0.0006742721	0.03676464	0.009524765	-0.0009872869	-0.0006601241	0.02764455	0.02855848
	0.02401032	0.0318431	-0.0009872869	-0.0006601241	0.05271235	-0.005672544	-0.0007932896	-0.0005656136
	-0.0005331934	-0.0004220125	0.02764455	0.02855849	-0.0007932896	-0.0005656135	0.03648113	0.00990103
1e+08	0.05511788	-0.01023652	-0.0009832115	-0.0006296087	0.02836103	0.03302635	-0.000617367	-0.0004181535
	-0.0009832115	-0.0006296087	0.03758698	0.009536261	-0.001098907	-0.0006511442	0.03252402	0.02871721
	0.02836103	0.03302635	-0.001098907	-0.0006511442	0.0556921	-0.01019808	-0.0008982305	-0.00053496
	-0.000617367	-0.0004181535	0.03252403	0.02871721	-0.0008982305	-0.00053496	0.03734013	0.009992063
1.1e+08	0.05784582	-0.0154071	-0.001071409	-0.0005633259	0.03279499	0.03362704	-0.0007004021	-0.0004043764
	-0.001071409	-0.0005633259	0.03846452	0.009482374	-0.001208205	-0.0006285739	0.03744944	0.02811638
	0.03279499	0.03362704	-0.001208205	-0.0006285739	0.05837179	-0.01540627	-0.0009983615	-0.0004906088
	-0.0007004021	-0.0004043764	0.03744944	0.02811638	-0.0009983615	-0.0004906089	0.03835165	0.009973777
1.2e+08	0.05993782	-0.02111759	-0.001165538	-0.0004958899	0.03723029	0.0336608	-0.000783877	-0.0003797722
	-0.001165538	-0.0004958899	0.03922044	0.009520207	-0.001315926	-0.0005909353	0.04227009	0.02677422
	0.03723029	0.0336608	-0.001315926	-0.0005909353	0.0604379	-0.02114626	-0.001097138	-0.0004356089
	-0.000783877	-0.0003797722	0.04227009	0.02677422	-0.001097138	-0.0004356089	0.03917603	0.010012
1.3e+08	0.06140806	-0.02722336	-0.001257347	-0.0004195078	0.04159642	0.03314238	-0.0008671336	-0.000345052
	-0.001257347	-0.0004195078	0.03997303	0.009698137	-0.00142134	-0.0005394407	0.04689858	0.02470903
	0.04159642	0.03314238	-0.00142134	-0.0005394407	0.06188577	-0.02728	-0.001190933	-0.0003683503
	-0.0008671336	-0.000345052	0.04689858	0.02470903	-0.001190933	-0.0003683503	0.03997281	0.01019617
1.4e+08	0.06223552	-0.03362649	-0.001344134	-0.0003332324	0.04582356	0.03209565	-0.0009478778	-0.0002996109
	-0.001344134	-0.0003332324	0.04079601	0.01001193	-0.001523329	-0.0004748788	0.05124088	0.02195182
	0.04582356	0.03209565	-0.001523329	-0.0004748788	0.06268967	-0.03370793	-0.001277893	-0.0002895875
	-0.0009478778	-0.0002996109	0.05124088	0.02195182	-0.001277893	-0.0002895875	0.04083799	0.01052147
1.5e+08	0.06240248	-0.04023718	-0.00142411	-0.0002372313	0.04984681	0.03055324	-0.001025059	-0.0002438941
	-0.00142411	-0.0002372313	0.0417509	0.01044202	-0.001620865	-0.0003979034	0.05520472	0.01854542
	0.04984681	0.03055324	-0.001620865	-0.0003979034	0.06283154	-0.04033893	-0.001356618	-0.000200447
	-0.001025059	-0.0002438941	0.05520472	0.01854542	-0.001356618	-0.000200447	0.04183909	0.01096126
1.6e+08	0.06189796	-0.04696881	-0.001495903	-0.0001322188	0.05360716	0.02855623	-0.001097678	-0.0001784918
	-0.001495903	-0.0001322188	0.04289042	0.01095697	-0.001713007	-0.0003090084	0.05870303	0.01454452
	0.05360716	0.02855623	-0.001713007	-0.0003090084	0.06230077	-0.04708584	-0.001426071	-0.0001022959
	-0.001097678	-0.0001784918	0.05870302	0.01454452	-0.001426071	-0.0001022959	0.04302891	0.01147891
1.7e+08	0.0607191	-0.05373724	-0.00155802	-1.917932e-05	0.05705243	0.02615239	-0.001164874	-0.0001040212
	-0.00155802	-1.917932e-05	0.04425907	0.0115148	-0.001804632	-0.0001886883	0.06165604	0.01001477
	0.05705243	0.02615239	-0.001804632	-0.0001886883	0.06109544	-0.05386426	-0.001484615	2.695905e-06
	-0.001164874	-0.0001040212	0.06165604	0.01001477	-0.001484615	2.695905e-06	0.04444945	0.01202987
1.8e+08	0.05887203	-0.06046005	-0.001610198	0.0001007738	0.06013868	0.02339567	-0.001225828	-2.111977e-05
	-0.001610198	0.0001007738	0.04589204	0.01206407	-0.001885773	-5.797964e-05	0.06399314	0.00503184
	0.06013868	0.02339567	-0.001885773	-5.797964e-05	0.05922188	-0.0605921	-0.001532972	0.0001135282
	-0.001225828	-2.111977e-05	0.06399314	0.005031839	-0.001532972	0.0001135282	0.04613269	0.01256195
1.9e+08	0.05637082	-0.06705728	-0.001651947	0.0002265547	0.06283053	0.02034523	-0.00127986	6.953966e-05
	-0.001651947	0.0002265547	0.04781395	0.01254527	-0.001955741	8.220028e-05	0.06565446	-0.0003196515
	0.06283053	0.02034523	-0.001955741	8.220028e-05	0.05669565	-0.06718973	-0.001571021	0.0002288442
	-0.00127986	6.953966e-05	0.06565446	-0.0003196518	-0.001571021	0.0002288442	0.04810028	0.0130162
2e+08	0.05323938	-0.07345225	-0.001682666	0.0003566231	0.06510146	0.01706327	-0.001326334	0.0001672179
	-0.001682666	0.0003566231	0.05003689	0.01289274	-0.002014993	0.0002390796	0.06659178	-0.005947908
	0.06510146	0.01706327	-0.002014993	0.0002390796	0.05353963	-0.0735806	-0.00159881	0.000347393
	-0.001326334	0.0001672179	0.06659178	-0.005947908	-0.00159881	0.000347393	0.05036281	0.01332838
2.1e+08	0.04950893	-0.07957254	-0.001702675	0.0004903167	0.06693525	0.01361449	-0.001364733	0.0002712163
	-0.001702675	0.0004903167	0.05255974	0.01303771	-0.002060695	0.0004031442	0.06676934	-0.01175549
	0.06693525	0.0136145	-0.002060695	0.0004031442	0.04978684	-0.07969268	-0.001616836	0.0004680969
	-0.001364733	0.0002712163	0.06676934	-0.01175549	-0.001616836	0.0004680969	0.05291731	0.01343099
2.2e+08	0.04521973	-0.0853507	-0.001712004	0.0006267434	0.06832484	0.01006419	-0.001394596	0.0003808302
	-0.001712004	0.0006267434	0.0553675	0.01290946	-0.002092391	0.0005733278	0.06616441	-0.01764102
	0.06832484	0.01006419	-0.002092391	0.0005733278	0.04547702	-0.08545861	-0.001625575	0.0005901011
	-0.001394596	0.0003808302	0.06616441	-0.01764102	-0.001625575	0.0005901011	0.05574791	0.01325543
2.3e+08	0.0404191	-0.09072499	-0.001710779	0.0007650529	0.06927292	0.006476829	-0.001415543	0.0004953465
	-0.001710779	0.0007650529	0.05843135	0.01243894	-0.002109712	0.0007484201	0.06476798	-0.02350118
	0.06927293	0.006476829	-0.002109712	0.0007484201	0.04065808	-0.09081692	-0.001625614	0.0007127296
	-0.001415543	0.0004953465	0.06476798	-0.02350118	-0.001625614	0.0007127296	0.05882571	0.0127341
2.4e+08	0.03516103	-0.09564104	-0.001699148	0.0009046561	0.06979189	0.002915023	-0.001427249	0.0006140647
	-0.001699148	0.0009046561	0.06170884	0.01156097	-0.002112361	0.0009272893	0.06258447	-0.02923214
	0.06979189	0.002915023	-0.002112361	0.0009272893	0.03538468	-0.09571336	-0.001617522	0.0008355543
	-0.001427249	0.0006140647	0.06258447	-0.02923214	-0.001617522	0.0008355543	0.06210755	0.01180323
2.5e+08	0.0295059	-0.1000519	-0.001677312	0.001044948	0.06990272	-0.0005622887	-0.001429385	0.0007363544
	-0.001677312	0.001044948	0.06514431	0.01021656	-0.002100079	0.001108793	0.05963157	-0.03473153
	0.06990272	-0.0005622887	-0.002100079	0.001108793	0.02971727	-0.1001009	-0.001601902	0.0009583424
	-0.001429385	0.0007363544	0.05963157	-0.03473153	-0.001601902	0.0009583424	0.06553835	0.01040527
2.6e+08	0.02351794	-0.1039184	-0.001645398	0.00118548	0.06963469	-0.003901	-0.001421729	0.0008615347
	-0.001645398	0.00118548	0.06867062	0.00835518	-0.002072731	0.001291799	0.05594043	-0.03990041
	0.06963469	-0.003901	-0.002072731	0.001291799	0.02372116	-0.103941	-0.001579227	0.001081079
	-0.001421729	0.0008615347	0.05594043	-0.03990041	-0.001579227	0.001081079	0.06905067	0.008490723
2.7e+08	0.01726599	-0.1072105	-0.001603494	0.001325901	0.06902441	-0.007052512	-0.001403975	0.0009890345
	-0.001603494	0.001325901	0.0722102	0.005936608	-0.002030292	0.001475099	0.05155419	-0.04464418
	0.06902441	-0.007052512	-0.002030292	0.001475099	0.01746539	-0.1072038	-0.001549845	0.001203917
	-0.001403975	0.0009890345	0.05155419	-0.04464418	-0.001549845	0.001203917	0.07256732	0.006020512
2.8e+08	0.01082125	-0.1099072	-0.001551612	0.001465915	0.068115	-0.009975417	-0.001375895	0.001118191
	-0.001551612	0.001465915	0.07567654	0.002933184	-0.001972734	0.001657628	0.04652785	-0.04887483
	0.068115	-0.009975417	-0.001972734	0.001657628	0.01102182	-0.1098687	-0.00151397	0.00132712
	-0.001375895	0.001118191	0.04652785	-0.04887483	-0.00151397	0.00132712	0.0760024	0.002968101
2.9e+08	0.004256157	-0.1119966	-0.001489674	0.001605212	0.06695463	-0.01263562	-0.001337238	0.001248396
	-0.001489674	0.001605212	0.07897684	-0.0006691997	-0.001900144	0.00183831	0.04092726	-0.05251211
	0.06695463	-0.01263562	-0.001900144	0.00183831	0.004463578	-0.1119245	-0.001471551	0.001451094
	-0.001337238	0.001248396	0.04092726	-0.05251211	-0.001471551	0.001451094	0.07926308	-0.0006798418
3e+08	-0.002356193	-0.113476	-0.00141748	0.001743508	0.06559534	-0.0150078	-0.001287746	0.001379036
	-0.00141748	0.001743508	0.08201385	-0.004869689	-0.001812697	0.002016068	0.03482761	-0.05548433
	0.06559534	-0.0150078	-0.001812697	0.002016068	-0.002135764	-0.1133689	-0.001422344	0.001576229
	-0.001287746	0.001379036	0.03482761	-0.05548433	-0.001422344	0.001576229	0.08225267	-0.004921689
3.1e+08	-0.008943811	-0.1143521	-0.001334757	0.001880489	0.06409225	-0.01707474	-0.001227087	0.001509484
	-0.001334757	0.001880489	0.08468842	-0.009651851	-0.001710531	0.002189913	0.0283126	-0.05773022
	0.06409225	-0.01707474	-0.001710531	0.002189913	-0.008703709	-0.1142097	-0.001365943	0.00170287
	-0.001227087	0.001509484	0.0283126	-0.05773022	-0.001365943	0.00170287	0.08487197	-0.009740185
3.2e+08	-0.01543636	-0.1146406	-0.001241094	0.00201575	0.06250161	-0.01882884	-0.001155014	0.001639005
	-0.001241094	0.00201575	0.08690143	-0.01498323	-0.001593983	0.002358817	0.02147283	-0.05919939
	0.06250161	-0.01882884	-0.001593983	0.002358817	-0.0151701	-0.1144634	-0.001301614	0.001831316
	-0.001155014	0.001639005	0.02147283	-0.05919939	-0.001301614	0.001831316	0.08702304	-0.01510155
3.3e+08	-0.02176707	-0.1143655	-0.00113599	0.002148804	0.06087926	-0.02027121	-0.001071192	0.00176686
	-0.00113599	0.002148804	0.08855712	-0.02081526	-0.001463229	0.002521914	0.01440452	-0.05985271
	0.06087926	-0.02027121	-0.001463229	0.002521914	-0.02146714	-0.1141551	-0.001228441	0.001961732
	-0.001071192	0.00176686	0.01440452	-0.05985271	-0.001228441	0.001961732	0.08861016	-0.02095648
3.4e+08	-0.02787258	-0.1135594	-0.001018025	0.002279614	0.05928031	-0.02141183	-0.0009753839	0.001892231
	-0.001018025	0.002279614	0.08956513	-0.02708323	-0.001318656	0.002678209	0.007207739	-0.05966373
	0.05928031	-0.02141183	-0.001318656	0.002678209	-0.02753243	-0.1133182	-0.001145313	0.002094097
	-0.0009753839	0.001892231	0.007207739	-0.05966373	-0.001145313	0.002094097	0.08954416	-0.02723957
3.5e+08	-0.03369573	-0.1122618	-0.0008875559	0.002406535	0.05775671	-0.02226964	-0.0008672308	0.002014216
	-0.0008875559	0.002406535	0.08984329	-0.03370764	-0.001160612	0.002826914	-1.481835e-05	-0.05861801
	0.05775671	-0.02226964	-0.001160612	0.002826914	-0.0333076	-0.1119939	-0.001051018	0.002228088
	-0.0008672308	0.002014216	-1.481835e-05	-0.05861801	-0.001051018	0.002228088	0.08974302	-0.03387043
3.6e+08	-0.03918437	-0.1105199	-0.0007440834	0.002528595	0.0563564	-0.0228713	-0.0007464831	0.002131826
	-0.0007440834	0.002528595	0.08931954	-0.04059495	-0.0009893061	0.002967201	-0.007159461	-0.05671407
	0.0563564	-0.0228713	-0.0009893061	0.002967201	-0.0387415	-0.1102297	-0.0009442228	0.002363148
	-0.0007464831	0.002131826	-0.007159461	-0.05671407	-0.0009442228	0.002363148	0.08913618	-0.04075463
3.7e+08	-0.04429357	-0.1083858	-0.0005871043	0.002644601	0.05512231	-0.02325082	-0.0006128402	0.002243967
	-0.0005871043	0.002644601	0.08793505	-0.04763925	-0.0008050399	0.003098244	-0.01412353	-0.05396292
	0.05512231	-0.02325082	-0.0008050399	0.003098244	-0.04378975	-0.1080794	-0.0008234547	0.002498407
	-0.0006128402	0.002243967	-0.01412353	-0.05396292	-0.0008234547	0.002498407	0.08766574	-0.04778564
3.8e+08	-0.04898583	-0.1059169	-0.0004163146	0.002753177	0.05409106	-0.02344884	-0.0004662163	0.002349396
	-0.0004163146	0.002753177	0.08564516	-0.05472396	-0.0006081777	0.003219184	-0.02080613	-0.05038754
	0.05409106	-0.02344884	-0.0006081777	0.003219184	-0.04841478	-0.1056016	-0.000687392	0.002632612
	-0.0004662163	0.002349396	-0.02080613	-0.05038754	-0.000687392	0.002632612	0.0852879	-0.05484619
3.9e+08	-0.05323157	-0.1031752	-0.0002315015	0.002852774	0.05329226	-0.02351155	-0.0003065167	0.002446774
	-0.0002315015	0.002852774	0.08242179	-0.06172304	-0.0003989999	0.003329176	-0.02711012	-0.04602344
	0.05329226	-0.02351155	-0.0003989999	0.003329176	-0.05258871	-0.102859	-0.0005347408	0.002764198
	-0.0003065167	0.002446774	-0.02711012	-0.04602344	-0.0005347408	0.002764198	0.08197669	-0.06181023
4e+08	-0.05700991	-0.1002254	-3.264435e-05	0.002941676	0.05274747	-0.02348944	-0.0001338232	0.002534634
	-3.264435e-05	0.002941676	0.0782549	-0.06850501	-0.0001776911	0.003427293	-0.03294335	-0.04091681
	0.05274747	-0.02348944	-0.0001776911	0.003427293	-0.0562907	-0.09991736	-0.0003643099	0.002891224
	-0.0001338232	0.002534634	-0.03294335	-0.04091681	-0.0003643099	0.002891224	0.07772264	-0.06854602
4.1e+08	-0.06030843	-0.09713317	0.0001800729	0.003018026	0.05246992	-0.02343552	5.163843e-05	0.002611432
	0.0001800729	0.003018026	0.07315334	-0.07493532	5.529416e-05	0.003512582	-0.03821966	-0.03512464
	0.05246992	-0.02343552	5.529416e-05	0.003512582	-0.05951016	-0.09684328	-0.0001753126	0.003011447
	5.163843e-05	0.002611432	-0.03821966	-0.03512464	-0.0001753126	0.003011447	0.07253623	-0.07491861
4.2e+08	-0.06312409	-0.09396606	0.0004061647	0.003079875	0.05246365	-0.02340581	0.0002494218	0.00267556
	0.0004061647	0.003079875	0.06714589	-0.0808771	0.0002998045	0.00358397	-0.04286068	-0.02871371
	0.05246365	-0.02340581	0.0002998045	0.00358397	-0.06224473	-0.09370514	3.289824e-05	0.003122309
	0.0002494218	0.00267556	-0.04286068	-0.02871371	3.289824e-05	0.003122309	0.06644784	-0.08079136
4.3e+08	-0.06546233	-0.09079021	0.0006448919	0.003125207	0.05272385	-0.02345543	0.0004590138	0.002725261
	0.0006448919	0.003125207	0.06028123	-0.08619676	0.0005553056	0.003640335	-0.04679621	-0.02175912
	0.05272385	-0.02345543	0.0005553056	0.003640335	-0.06450199	-0.09056948	0.0002606167	0.003220987
	0.0004590138	0.002725261	-0.04679621	-0.02175912	0.0002606167	0.003220987	0.05950735	-0.08603119
4.4e+08	-0.06733772	-0.08767022	0.0008951675	0.003151991	0.05323628	-0.02363918	0.0006795	0.002758818
	0.0008951675	0.003151991	0.05262758	-0.09076578	0.0008214306	0.0036804	-0.04996524	-0.0143439
	0.05323628	-0.02363918	0.0008214306	0.0036804	-0.06629739	-0.0875014	0.0005075116	0.003304498
	0.0006795	0.002758818	-0.04996524	-0.0143439	0.0005075116	0.003304498	0.05178463	-0.09050967
4.5e+08	-0.06877327	-0.08466841	0.001155613	0.003158251	0.0539781	-0.02400939	0.0009097325	0.002774524
	0.001155613	0.003158251	0.04427325	-0.09446292	0.001097689	0.003702793	-0.05231708	-0.006557496
	0.0539781	-0.02400939	0.001097689	0.003702793	-0.06765575	-0.08456319	0.0007729238	0.003369745
	0.0009097325	0.002774524	-0.05231708	-0.006557496	0.0007729238	0.003369745	0.04336929	-0.09410629
4.6e+08	-0.06980015	-0.08184304	0.001424412	0.003142122	0.05491775	-0.02461475	0.001148375	0.00277066
	0.001424412	0.003142122	0.03532449	-0.09717793	0.001383206	0.003706103	-0.05381158	0.001505491
	0.05491775	-0.02461475	0.001383206	0.003706103	-0.06860984	-0.08181285	0.001055779	0.003413463
	0.001148375	0.00277066	-0.05381158	0.001505491	0.001055779	0.003413463	0.03436851	-0.09671209
4.7e+08	-0.0704573	-0.07924615	0.001699577	0.003101843	0.05601569	-0.02549831	0.001393718	0.002745648
	0.001699577	0.003101843	0.02590421	-0.09881581	0.001677063	0.003688788	-0.05441991	0.009746741
	0.05601569	-0.02549831	0.001677063	0.003688788	-0.06920006	-0.0793027	0.001354233	0.003432617
	0.001393718	0.002745648	-0.05441991	0.009746741	0.001354233	0.003432617	0.02490694	-0.09823198
4.8e+08	-0.07078928	-0.07692533	0.00197874	0.003035908	0.05722552	-0.0266974	0.001643868	0.002697988
	0.00197874	0.003035908	0.01615006	-0.0992957	0.001978277	0.003649204	-0.05412446	0.01806489
	0.05722552	-0.0266974	0.001978277	0.003649204	-0.06947324	-0.07707911	0.001666083	0.003424154
	0.001643868	0.002697988	-0.05412446	0.01806489	0.001666083	0.003424154	0.01512354	-0.09858743
4.9e+08	-0.07084808	-0.07492072	0.002259168	0.002943113	0.05849437	-0.02824194	0.001896629	0.002626397
	0.002259168	0.002943113	0.006213618	-0.0985562	0.002285306	0.003585798	-0.05291984	0.02635775
