!$
! Info: Touchstone file created by Circ.  Input file=Intel_C2M_200G_4p0in_202208016_staggered.circ
!$
# Hz S RI R 50
0	0.01721037	2.496826e-24	4.934012e-05	6.076696e-23	9.295317e-05	2.536428e-22	4.933264e-05	6.064815e-23
	4.934011e-05	6.076696e-23	0.01722347	2.786188e-24	4.93448e-05	6.082402e-23	9.254583e-05	2.520641e-22
	9.301097e-05	2.5377e-22	4.934479e-05	6.082506e-23	0.0172052	2.59302e-24	4.933524e-05	6.069724e-23
	4.933264e-05	6.064919e-23	9.260364e-05	2.521903e-22	4.933524e-05	6.069724e-23	0.01722141	2.642842e-24
1e+07	0.02063723	0.005595325	3.997717e-06	2.041441e-05	0.001263532	0.004977399	7.247073e-06	1.642597e-05
	3.997718e-06	2.041442e-05	0.02081372	0.005704012	3.415303e-06	3.099462e-05	0.001269069	0.005035806
	0.001263532	0.004977399	3.415303e-06	3.099462e-05	0.0207893	0.005750251	4.004981e-06	2.096022e-05
	7.247073e-06	1.642597e-05	0.001269069	0.005035806	4.004981e-06	2.096022e-05	0.02066709	0.005630128
2e+07	0.02414469	0.008282692	6.946474e-06	1.712025e-05	0.002619181	0.009366692	3.715749e-06	1.249717e-05
	6.94648e-06	1.712026e-05	0.02440102	0.00839967	2.605983e-05	3.875666e-05	0.002631079	0.009482014
	0.002619191	0.00936668	2.605983e-05	3.875666e-05	0.02438073	0.008493615	7.44927e-06	1.803805e-05
	3.715749e-06	1.249717e-05	0.00263109	0.009482001	7.449269e-06	1.803805e-05	0.02418835	0.008345742
3e+07	0.02706698	0.009522824	1.282405e-05	1.535841e-05	0.004602549	0.0135729	4.643814e-06	1.160879e-05
	1.282405e-05	1.535841e-05	0.02738422	0.009623114	4.415309e-05	3.852684e-05	0.004624076	0.01374277
	0.00460252	0.01357294	4.415309e-05	3.852684e-05	0.02736393	0.009771662	1.371163e-05	1.638224e-05
	4.643816e-06	1.160879e-05	0.004624047	0.01374281	1.371163e-05	1.638224e-05	0.02712032	0.009616452
4e+07	0.02944132	0.01004426	1.75192e-05	1.292324e-05	0.007246907	0.01737311	7.774951e-06	9.926105e-06
	1.75192e-05	1.292324e-05	0.02980717	0.01011519	5.878109e-05	3.383441e-05	0.00728063	0.01759453
	0.007246901	0.01737313	5.878109e-05	3.383441e-05	0.02979669	0.01031646	1.873966e-05	1.396763e-05
	7.774952e-06	9.926104e-06	0.007280624	0.01759455	1.873966e-05	1.396763e-05	0.02951232	0.01016403
5e+07	0.03140076	0.01019687	2.122954e-05	9.841461e-06	0.01046347	0.0207134	1.02804e-05	7.859826e-06
	2.122954e-05	9.84146e-06	0.03180581	0.01023027	7.061465e-05	2.622648e-05	0.01051135	0.02098284
	0.01046347	0.02071341	7.061465e-05	2.622648e-05	0.0318097	0.01048177	2.275352e-05	1.084928e-05
	1.02804e-05	7.859826e-06	0.01051135	0.02098285	2.275352e-05	1.084928e-05	0.03149244	0.01033951
6e+07	0.03301547	0.01012893	2.403065e-05	6.233847e-06	0.01418548	0.02352007	1.215374e-05	5.47333e-06
	2.403065e-05	6.233847e-06	0.03345193	0.01011887	7.992541e-05	1.647723e-05	0.01424875	0.02383346
	0.0141855	0.02352006	7.992541e-05	1.647723e-05	0.03347396	0.01041791	2.584151e-05	7.157964e-06
	1.215374e-05	5.47333e-06	0.01424877	0.02383345	2.584151e-05	7.157964e-06	0.03313079	0.01029199
7e+07	0.03432688	0.009958347	2.594669e-05	2.211214e-06	0.01833182	0.02572745	1.340478e-05	2.84165e-06
	2.594669e-05	2.211214e-06	0.0347879	0.009900059	8.678529e-05	5.023311e-06	0.01841083	0.02608036
	0.01833182	0.02572744	8.678529e-05	5.023312e-06	0.0348314	0.01024301	2.803531e-05	3.006344e-06
	1.340478e-05	2.84165e-06	0.01841083	0.02608036	2.803531e-05	3.006344e-06	0.03446921	0.01013913
8e+07	0.03538897	0.009786313	2.697583e-05	-2.139378e-06	0.02281368	0.0272816	1.402621e-05	3.364231e-08
	2.697583e-05	-2.139378e-06	0.03586825	0.009675347	9.116152e-05	-7.877677e-06	0.02290783	0.02766936
	0.02281368	0.02728161	9.116152e-05	-7.877677e-06	0.03593584	0.01005806	2.932901e-05	-1.530051e-06
	1.402621e-05	3.364221e-08	0.02290783	0.02766937	2.932901e-05	-1.530051e-06	0.03556213	0.009981984
9e+07	0.03627345	0.009693902	2.705733e-05	-6.79989e-06	0.02753688	0.02814057	1.39757e-05	-2.911362e-06
	2.705733e-05	-6.799891e-06	0.03676464	0.009524765	9.284423e-05	-2.223368e-05	0.02764455	0.02855848
	0.02753688	0.02814058	9.284423e-05	-2.223368e-05	0.03685745	0.009942554	2.966015e-05	-6.447279e-06
	1.39757e-05	-2.911362e-06	0.02764455	0.02855849	2.966015e-05	-6.44728e-06	0.03648113	0.00990103
1e+08	0.03709401	0.009777244	2.57343e-05	-1.220132e-05	0.0324055	0.02827372	1.294974e-05	-6.183579e-06
	2.57343e-05	-1.220132e-05	0.03758698	0.009536261	9.040325e-05	-3.966562e-05	0.03252402	0.02871721
	0.0324055	0.02827372	9.040325e-05	-3.966562e-05	0.03770444	0.009984299	2.855252e-05	-1.224972e-05
	1.294974e-05	-6.183579e-06	0.03252403	0.02871721	2.855252e-05	-1.224972e-05	0.03734013	0.009992063
1.1e+08	0.03800657	0.009776406	2.181976e-05	-1.53396e-05	0.037324	0.02765119	1.049951e-05	-7.877442e-06
	2.181976e-05	-1.53396e-05	0.03846452	0.009482374	7.899382e-05	-5.07482e-05	0.03744944	0.02811638
	0.037324	0.02765118	7.899382e-05	-5.07482e-05	0.03866582	0.009937086	2.456824e-05	-1.576083e-05
	1.049951e-05	-7.877442e-06	0.03744944	0.02811638	2.456824e-05	-1.576083e-05	0.03835165	0.009973777
1.2e+08	0.03879051	0.009849154	1.863345e-05	-1.716435e-05	0.04214231	0.02629061	8.538534e-06	-8.762717e-06
	1.863345e-05	-1.716435e-05	0.03922044	0.009520207	7.077453e-05	-5.59284e-05	0.04227009	0.02677422
	0.04214231	0.02629061	7.077454e-05	-5.59284e-05	0.03944463	0.00996407	2.131948e-05	-1.785313e-05
	8.538535e-06	-8.762716e-06	0.04227009	0.02677422	2.131948e-05	-1.785313e-05	0.03917603	0.010012
1.3e+08	0.03956708	0.01005431	1.657539e-05	-1.754604e-05	0.04677384	0.02420968	6.813096e-06	-9.398779e-06
	1.657539e-05	-1.754604e-05	0.03997303	0.009698137	6.815705e-05	-5.356488e-05	0.04689858	0.02470903
	0.04677384	0.02420967	6.815705e-05	-5.356488e-05	0.04019587	0.0101451	1.941012e-05	-1.813955e-05
	6.813096e-06	-9.398779e-06	0.04689858	0.02470903	1.941012e-05	-1.813955e-05	0.03997281	0.01019617
1.4e+08	0.04041024	0.01039042	1.533019e-05	-1.672719e-05	0.05112527	0.0214385	5.242692e-06	-9.852386e-06
	1.533019e-05	-1.672719e-05	0.04079601	0.01001193	6.537982e-05	-5.196658e-05	0.05124088	0.02195182
	0.05112526	0.02143849	6.537982e-05	-5.196658e-05	0.04101453	0.01047364	1.823376e-05	-1.73312e-05
	5.242692e-06	-9.852386e-06	0.05124088	0.02195182	1.823376e-05	-1.73312e-05	0.04083799	0.01052147
1.5e+08	0.04138149	0.01083968	1.435337e-05	-1.606862e-05	0.05510484	0.01801891	4.278382e-06	-9.426578e-06
	1.435337e-05	-1.606862e-05	0.0417509	0.01044202	6.248819e-05	-5.074536e-05	0.05520472	0.01854542
	0.05510484	0.01801891	6.248819e-05	-5.074536e-05	0.04196779	0.01092263	1.708399e-05	-1.6643e-05
	4.278382e-06	-9.426578e-06	0.05520472	0.01854542	1.708399e-05	-1.6643e-05	0.04183909	0.01096126
1.6e+08	0.04253353	0.01137206	1.337424e-05	-1.546811e-05	0.05862587	0.01400451	3.543921e-06	-8.879046e-06
	1.337424e-05	-1.546811e-05	0.04289042	0.01095697	5.953461e-05	-4.974956e-05	0.05870303	0.01454452
	0.05862587	0.01400451	5.953461e-05	-4.974956e-05	0.04310831	0.01145549	1.610588e-05	-1.606515e-05
	3.543921e-06	-8.879045e-06	0.05870302	0.01454452	1.610588e-05	-1.606515e-05	0.04302891	0.01147891
1.7e+08	0.04391115	0.01194677	1.240409e-05	-1.489013e-05	0.06160884	0.009459754	3.030946e-06	-8.411235e-06
	1.240409e-05	-1.489013e-05	0.04425907	0.0115148	5.655269e-05	-4.888125e-05	0.06165604	0.01001477
	0.06160884	0.009459753	5.655269e-05	-4.888125e-05	0.0444781	0.012028	1.513264e-05	-1.552581e-05
	3.030946e-06	-8.411235e-06	0.06165604	0.01001477	1.513264e-05	-1.552581e-05	0.04444945	0.01202987
1.8e+08	0.0455495	0.01251353	1.145701e-05	-1.431582e-05	0.0639831	0.00445909	2.537327e-06	-7.944691e-06
	1.145701e-05	-1.431582e-05	0.04589204	0.01206407	5.356751e-05	-4.807548e-05	0.06399314	0.00503184
	0.0639831	0.00445909	5.356751e-05	-4.807548e-05	0.0461097	0.01258844	1.417632e-05	-1.500169e-05
	2.537327e-06	-7.944691e-06	0.06399314	0.005031839	1.417632e-05	-1.500169e-05	0.04613269	0.01256195
1.9e+08	0.04747355	0.01301387	1.0542e-05	-1.373412e-05	0.06568866	-0.0009141361	2.069147e-06	-7.474092e-06
	1.0542e-05	-1.373412e-05	0.04781395	0.01254527	5.059829e-05	-4.728699e-05	0.06565446	-0.0003196515
	0.06568866	-0.0009141364	5.059829e-05	-4.728699e-05	0.04802534	0.01307839	1.324549e-05	-1.447951e-05
	2.069147e-06	-7.474092e-06	0.06565446	-0.0003196518	1.324549e-05	-1.447951e-05	0.04810028	0.0130162
2e+08	0.04969595	0.0133831	9.667325e-06	-1.313773e-05	0.06667692	-0.006569408	1.631489e-06	-6.996447e-06
	9.667326e-06	-1.313773e-05	0.05003689	0.01289274	4.766101e-05	-4.648347e-05	0.06659178	-0.005947908
	0.06667692	-0.006569408	4.766101e-05	-4.648347e-05	0.05023639	0.01343409	1.234748e-05	-1.395032e-05
	1.631489e-06	-6.996447e-06	0.06659178	-0.005947908	1.234748e-05	-1.395032e-05	0.05036281	0.01332838
2.1e+08	0.05221621	0.01355339	8.839177e-06	-1.252381e-05	0.0669115	-0.01241048	1.228314e-06	-6.510736e-06
	8.839177e-06	-1.252381e-05	0.05255974	0.01303771	4.476937e-05	-4.564226e-05	0.06676934	-0.01175549
	0.0669115	-0.01241048	4.476937e-05	-4.564226e-05	0.05274085	0.01358844	1.14879e-05	-1.340955e-05
	1.228314e-06	-6.510736e-06	0.06676934	-0.01175549	1.14879e-05	-1.340955e-05	0.05291731	0.01343099
2.2e+08	0.05502024	0.01345474	8.063032e-06	-1.189134e-05	0.06636894	-0.01833711	8.627908e-07	-6.017245e-06
	8.063032e-06	-1.189134e-05	0.0553675	0.01290946	4.193587e-05	-4.474705e-05	0.06616441	-0.01764102
	0.06636894	-0.01833711	4.193587e-05	-4.474705e-05	0.05552405	0.01347318	1.067177e-05	-1.285453e-05
	8.627908e-07	-6.017245e-06	0.06616441	-0.01764102	1.067177e-05	-1.285453e-05	0.05574791	0.01325543
2.3e+08	0.05808022	0.01301874	7.341926e-06	-1.124215e-05	0.06503924	-0.02424712	5.37434e-07	-5.517117e-06
	7.341926e-06	-1.124215e-05	0.05843135	0.01243894	3.916846e-05	-4.379085e-05	0.06476798	-0.02350118
	0.06503924	-0.02424712	3.916846e-05	-4.379085e-05	0.05855835	0.01302081	9.903396e-06	-1.228408e-05
	5.37434e-07	-5.517117e-06	0.06476798	-0.02350118	9.903396e-06	-1.228408e-05	0.05882571	0.0127341
2.4e+08	0.06135487	0.01218061	6.680709e-06	-1.057704e-05	0.0629257	-0.03003754	2.540566e-07	-5.012428e-06
	6.680709e-06	-1.057704e-05	0.06170884	0.01156097	3.648049e-05	-4.276158e-05	0.06258447	-0.02923214
	0.0629257	-0.03003754	3.648049e-05	-4.276158e-05	0.06180205	0.01216754	9.186252e-06	-1.169922e-05
	2.540566e-07	-5.012428e-06	0.06258447	-0.02923214	9.186252e-06	-1.169922e-05	0.06210755	0.01180323
2.5e+08	0.06478978	0.01088158	6.082537e-06	-9.898828e-06	0.06004469	-0.03560684	1.397768e-08	-4.505589e-06
	6.082537e-06	-9.898828e-06	0.06514431	0.01021656	3.387944e-05	-4.165732e-05	0.05963157	-0.03473153
	0.06004469	-0.03560684	3.387944e-05	-4.165732e-05	0.06520157	0.01085548	8.521906e-06	-1.110232e-05
	1.397768e-08	-4.505589e-06	0.05963157	-0.03473153	8.521906e-06	-1.110232e-05	0.06553835	0.01040527
2.6e+08	0.06831918	0.009071082	5.549287e-06	-9.211689e-06	0.05642589	-0.04085665	-1.821435e-07	-3.999469e-06
	5.549287e-06	-9.211689e-06	0.06867062	0.00835518	3.137694e-05	-4.047385e-05	0.05594043	-0.03990041
	0.05642589	-0.04085665	3.137694e-05	-4.047385e-05	0.06869108	0.009034584	7.913266e-06	-1.049512e-05
	-1.821435e-07	-3.999469e-06	0.05594043	-0.03990041	7.913266e-06	-1.049512e-05	0.06905067	0.008490723
2.7e+08	0.07186688	0.006708607	5.082083e-06	-8.520156e-06	0.05211091	-0.04569281	-3.341121e-07	-3.497106e-06
	5.082083e-06	-8.520156e-06	0.0722102	0.005936608	2.898246e-05	-3.921141e-05	0.05155419	-0.04464418
	0.05211091	-0.04569281	2.898246e-05	-3.921141e-05	0.07219491	0.00666491	7.361963e-06	-9.880599e-06
	-3.341121e-07	-3.497106e-06	0.05155419	-0.04464418	7.361963e-06	-9.880599e-06	0.07256732	0.006020512
2.8e+08	0.07534772	0.00376598	4.681286e-06	-7.829051e-06	0.04715309	-0.05002747	-4.421883e-07	-3.001657e-06
	4.681286e-06	-7.829051e-06	0.07567654	0.002933184	2.670439e-05	-3.787281e-05	0.04652785	-0.04887483
	0.04715309	-0.05002747	2.670439e-05	-3.787281e-05	0.07562871	0.003718766	6.86881e-06	-9.262297e-06
	-4.421883e-07	-3.001657e-06	0.04652785	-0.04887483	6.86881e-06	-9.262297e-06	0.0760024	0.002968101
2.9e+08	0.07867028	0.0002282297	4.34647e-06	-7.143336e-06	0.04161651	-0.05378034	-5.070675e-07	-2.516303e-06
	4.34647e-06	-7.143336e-06	0.07897684	-0.0006691997	2.455035e-05	-3.646246e-05	0.04092726	-0.05251211
	0.04161651	-0.05378034	2.455035e-05	-3.646246e-05	0.07890104	0.0001813623	6.433979e-06	-8.644001e-06
	-5.070675e-07	-2.516303e-06	0.04092726	-0.05251211	6.433979e-06	-8.644001e-06	0.07926308	-0.0006798418
3e+08	0.08173853	-0.003904859	4.076496e-06	-6.468026e-06	0.03557468	-0.05687942	-5.298194e-07	-2.044198e-06
	4.076496e-06	-6.468026e-06	0.08201385	-0.004869689	2.252713e-05	-3.498621e-05	0.03482761	-0.05548433
	0.03557468	-0.05687942	2.252713e-05	-3.498621e-05	0.08191644	-0.003947439	6.057046e-06	-8.029617e-06
	-5.298194e-07	-2.044198e-06	0.03482761	-0.05548433	6.057046e-06	-8.029617e-06	0.08225267	-0.004921689
3.1e+08	0.08445445	-0.008618235	3.869577e-06	-5.807998e-06	0.02910953	-0.05926288	-5.118801e-07	-1.588406e-06
	3.869577e-06	-5.807998e-06	0.08468842	-0.009651851	2.064068e-05	-3.345108e-05	0.0283126	-0.05773022
	0.02910953	-0.05926288	2.064068e-05	-3.345108e-05	0.08457672	-0.008652429	5.737065e-06	-7.423034e-06
	-5.118801e-07	-1.588406e-06	0.0283126	-0.05773022	5.737065e-06	-7.423034e-06	0.08487197	-0.009740185
3.2e+08	0.08671979	-0.01388106	3.723344e-06	-5.167902e-06	0.02231003	-0.06087951	-4.550013e-07	-1.151855e-06
	3.723344e-06	-5.167902e-06	0.08690143	-0.01498323	1.889605e-05	-3.186525e-05	0.02147283	-0.05919939
	0.02231003	-0.06087951	1.889605e-05	-3.186525e-05	0.08678467	-0.0139021	5.472625e-06	-6.828137e-06
	-4.550013e-07	-1.151855e-06	0.02147283	-0.05919939	5.472625e-06	-6.828137e-06	0.08702304	-0.01510155
3.3e+08	0.08843948	-0.01964664	3.634926e-06	-4.552122e-06	0.01527079	-0.0616891	-3.611924e-07	-7.373201e-07
	3.634926e-06	-4.552122e-06	0.08855712	-0.02081526	1.729741e-05	-3.023772e-05	0.01440452	-0.05985271
	0.01527079	-0.0616891	1.729741e-05	-3.023772e-05	0.08844495	-0.01964966	5.261915e-06	-6.248622e-06
	-3.611924e-07	-7.373201e-07	0.01440452	-0.05985271	5.261915e-06	-6.248622e-06	0.08861016	-0.02095648
3.4e+08	0.08952348	-0.02585229	3.601027e-06	-3.964645e-06	0.00809044	-0.06166388	-2.327223e-07	-3.473649e-07
	3.601027e-06	-3.964645e-06	0.08956513	-0.02708323	1.584781e-05	-2.857824e-05	0.007207739	-0.05966373
	0.00809044	-0.06166388	1.584781e-05	-2.857824e-05	0.08946838	-0.02583241	5.102745e-06	-5.687982e-06
	-2.327222e-07	-3.473648e-07	0.007207739	-0.05966373	5.102745e-06	-5.687982e-06	0.08954416	-0.02723957
3.5e+08	0.08988966	-0.03242075	3.618027e-06	-3.409092e-06	0.0008703962	-0.06078785	-7.204178e-08	1.562975e-08
	3.618027e-06	-3.409092e-06	0.08984329	-0.03370764	1.454938e-05	-2.689715e-05	-1.481835e-05	-0.05861801
	0.0008703962	-0.06078785	1.454938e-05	-2.689715e-05	0.08977251	-0.03237269	4.992658e-06	-5.149487e-06
	-7.204178e-08	1.562976e-08	-1.481835e-05	-0.05861801	4.992658e-06	-5.149487e-06	0.08974302	-0.03387043
3.6e+08	0.08946559	-0.03926072	3.682043e-06	-2.888619e-06	-0.006286707	-0.05905782	1.182053e-07	3.495226e-07
	3.682043e-06	-2.888619e-06	0.08931954	-0.04059495	1.340313e-05	-2.520521e-05	-0.007159461	-0.05671407
	-0.006286707	-0.05905782	1.340313e-05	-2.520521e-05	0.08928589	-0.03917889	4.928932e-06	-4.636116e-06
	1.182053e-07	3.495226e-07	-0.007159461	-0.05671407	4.928932e-06	-4.636116e-06	0.08913618	-0.04075463
3.7e+08	0.08819166	-0.04626862	3.789047e-06	-2.405981e-06	-0.01327905	-0.05648288	3.3526e-07	6.523955e-07
	3.789047e-06	-2.405981e-06	0.08793505	-0.04763925	1.240901e-05	-2.351344e-05	-0.01412353	-0.05396292
	-0.01327905	-0.05648288	1.240901e-05	-2.351344e-05	0.08794922	-0.04614728	4.9087e-06	-4.150582e-06
	3.3526e-07	6.523955e-07	-0.01412353	-0.05396292	4.9087e-06	-4.150582e-06	0.08766574	-0.04778564
3.8e+08	0.08602202	-0.05333016	3.934906e-06	-1.963505e-06	-0.02000631	-0.05308398	5.762517e-07	9.225423e-07
	3.934906e-06	-1.963505e-06	0.08564516	-0.05472396	1.156595e-05	-2.183304e-05	-0.02080613	-0.05038754
	-0.02000631	-0.05308398	1.156595e-05	-2.183304e-05	0.08571682	-0.05316318	4.928983e-06	-3.695353e-06
	5.762517e-07	9.225423e-07	-0.02080613	-0.05038754	4.928983e-06	-3.695353e-06	0.0852879	-0.05484619
3.9e+08	0.08292696	-0.06032149	4.115442e-06	-1.563133e-06	-0.02637163	-0.04889449	8.381851e-07	1.158484e-06
	4.115442e-06	-1.563133e-06	0.08242179	-0.06172304	1.087174e-05	-2.017535e-05	-0.02711012	-0.04602344
	-0.02637163	-0.04889449	1.087174e-05	-2.017535e-05	0.08256035	-0.06010296	4.986669e-06	-3.272663e-06
	8.381851e-07	1.158484e-06	-0.02711012	-0.04602344	4.986669e-06	-3.272663e-06	0.08197669	-0.06181023
4e+08	0.07889439	-0.06711301	4.326496e-06	-1.206457e-06	-0.03228286	-0.04395843	1.118029e-06	1.358947e-06
	4.326496e-06	-1.206457e-06	0.0782549	-0.06850501	1.032318e-05	-1.855158e-05	-0.03294335	-0.04091681
	-0.03228286	-0.04395843	1.032318e-05	-1.855158e-05	0.07846752	-0.06683703	5.078654e-06	-2.884489e-06
	1.118029e-06	1.358947e-06	-0.03294335	-0.04091681	5.078654e-06	-2.884489e-06	0.07772264	-0.06854602
4.1e+08	0.07393069	-0.0735719	4.563947e-06	-8.94751e-07	-0.03765356	-0.03833061	1.412672e-06	1.522871e-06
	4.563947e-06	-8.94751e-07	0.07315334	-0.07493532	9.916044e-06	-1.697271e-05	-0.03821966	-0.03512464
	-0.03765356	-0.03833061	9.916044e-06	-1.697271e-05	0.07344554	-0.07323211	5.201759e-06	-2.532657e-06
	1.412672e-06	1.522871e-06	-0.03821966	-0.03512464	5.201759e-06	-2.532657e-06	0.07253623	-0.07491861
4.2e+08	0.06806184	-0.07956261	4.82375e-06	-6.290219e-07	-0.04240477	-0.03207572	1.718944e-06	1.649395e-06
	4.82375e-06	-6.290219e-07	0.06714589	-0.0808771	9.645023e-06	-1.544969e-05	-0.04286068	-0.02871371
	-0.04240477	-0.03207572	9.645023e-06	-1.544969e-05	0.06752119	-0.07915286	5.352785e-06	-2.218818e-06
	1.718944e-06	1.649395e-06	-0.04286068	-0.02871371	5.352785e-06	-2.218818e-06	0.06644784	-0.08079136
4.3e+08	0.06133336	-0.08495244	5.101927e-06	-4.100832e-07	-0.04646541	-0.02526675	2.033643e-06	1.737845e-06
	5.101927e-06	-4.100832e-07	0.06028123	-0.08619676	9.503896e-06	-1.399296e-05	-0.04679621	-0.02175912
	-0.04646541	-0.02526675	9.503896e-06	-1.399296e-05	0.06074039	-0.08446684	5.528513e-06	-1.944498e-06
	2.033643e-06	1.737845e-06	-0.04679621	-0.02175912	5.528513e-06	-1.944498e-06	0.05950735	-0.08603119
4.4e+08	0.05381015	-0.08961327	5.394535e-06	-2.385348e-07	-0.04977338	-0.0179848	2.353482e-06	1.787748e-06
	5.394535e-06	-2.385348e-07	0.05262758	-0.09076578	9.485439e-06	-1.261253e-05	-0.04996524	-0.0143439
	-0.04977338	-0.0179848	9.485439e-06	-1.261253e-05	0.05316892	-0.08904573	5.725626e-06	-1.711115e-06
	2.353481e-06	1.787748e-06	-0.04996524	-0.0143439	5.725626e-06	-1.711115e-06	0.05178463	-0.09050967
4.5e+08	0.04557696	-0.09342369	5.697665e-06	-1.148549e-07	-0.05227663	-0.01031752	2.675124e-06	1.798823e-06
	5.697665e-06	-1.148549e-07	0.04427325	-0.09446292	9.581469e-06	-1.131804e-05	-0.05231708	-0.006557496
	-0.05227663	-0.01031752	9.581469e-06	-1.131804e-05	0.04489214	-0.09276847	5.940739e-06	-1.51999e-06
	2.675124e-06	1.798823e-06	-0.05231708	-0.006557496	5.940739e-06	-1.51999e-06	0.04336929	-0.09410629
4.6e+08	0.03673644	-0.09627274	6.007396e-06	-3.940027e-08	-0.0539334	-0.002357884	2.995172e-06	1.770993e-06
	6.007396e-06	-3.940027e-08	0.03532449	-0.09717793	9.782912e-06	-1.011847e-05	-0.05381158	0.001505491
	-0.0539334	-0.002357884	9.782912e-06	-1.011847e-05	0.03601302	-0.0955248	6.170341e-06	-1.372346e-06
	2.995172e-06	1.770993e-06	-0.05381158	0.001505491	6.170341e-06	-1.372346e-06	0.03436851	-0.09671209
4.7e+08	0.027408	-0.09806408	6.319768e-06	-1.234696e-08	-0.05471309	0.005797233	3.310164e-06	1.70442e-06
	6.319768e-06	-1.234696e-08	0.02590421	-0.09881581	1.007977e-05	-9.022016e-06	-0.05441991	0.009746741
	-0.05471309	0.005797233	1.007977e-05	-9.022016e-06	0.02665202	-0.09721769	6.41076e-06	-1.269295e-06
	3.310164e-06	1.70442e-06	-0.05441991	0.009746741	6.41076e-06	-1.269295e-06	0.02490694	-0.09823198
4.8e+08	0.01772585	-0.09871493	6.630736e-06	-3.379781e-08	-0.05459623	0.01404766	3.616558e-06	1.599485e-06
	6.630736e-06	-3.379781e-08	0.01615006	-0.0992957	1.046122e-05	-8.036264e-06	-0.05412446	0.01806489
	-0.05459623	0.01404766	1.046122e-05	-8.036264e-06	0.01694426	-0.09776598	6.6581e-06	-1.211807e-06
