# GHz S RI R 45
0.000     0.029485831871    0.001867291038    0.970195657308    -0.008293005981    0.000944506287    0.001596479334    -0.000930780624    -0.000543671782
            0.970195657308    -0.008293005981    0.029535191052    0.001573578994    -0.000930632507    -0.000543654325    0.000943423553    0.001639843941
            0.000944506176    0.001596479400    -0.000930632680    -0.000543654425    0.029427511534    0.001855195631    0.970234377218    -0.008296691100
            -0.000930780805    -0.000543671670    0.000943423332    0.001639843953    0.970234377218    -0.008296691100    0.029507351851    0.001561112284
0.025     0.036578771343    0.008244868074    0.941356383586    -0.218041743748    0.004112564648    0.010827867595    -0.001479356224    -0.001784256636
            0.941356329852    -0.218041887103    0.034864242187    0.008234155742    -0.001476283529    -0.001783725226    0.002907634996    0.011354481111
            0.004110628065    0.010830977476    -0.001476090262    -0.001784571339    0.036504134979    0.008216735461    0.941498796235    -0.217705665283
            -0.001480632535    -0.001783403276    0.002899712398    0.011352294992    0.941498874859    -0.217705458422    0.034791307216    0.008181376140
0.050     0.045950942110    0.008043945307    0.866766049059    -0.419340254575    0.012653847706    0.018246929153    -0.002983408448    -0.002984767792
            0.866766049059    -0.419340254575    0.040067017555    0.010256878155    -0.002981195350    -0.002985055476    0.008367885204    0.020916908977
            0.012653828145    0.018246968274    -0.002981175704    -0.002985088946    0.045846622143    0.008008483994    0.867135993956    -0.418747891202
            -0.002983415238    -0.002984782920    0.008367945551    0.020916841753    0.867135993956    -0.418747891202    0.039947466292    0.010222702052
0.075     0.055028397141    0.001887333843    0.750844752843    -0.598385159414    0.023977039041    0.019899887116    -0.004903645160    -0.003304459433
            0.750844752843    -0.598385159414    0.044083503777    0.009719667898    -0.004898843847    -0.003306315127    0.015980062058    0.027418535445
            0.023977032639    0.019899891697    -0.004898843276    -0.003306318475    0.054917297848    0.001880563396    0.751546608937    -0.597633199355
            -0.004903640610    -0.003304460100    0.015980060286    0.027418587405    0.751546608937    -0.597633199355    0.043935580061    0.009720801834
0.100     0.061064455341    -0.010048453403    0.599203648987    -0.746924219635    0.034801327070    0.015042408261    -0.006827608879    -0.002847818459
            0.599203648987    -0.746924219635    0.046114303653    0.007268262530    -0.006819867724    -0.002853921598    0.024061729983    0.030475254969
            0.034801327070    0.015042408261    -0.006819865491    -0.002853924860    0.060981658256    -0.010013124698    0.600312930591    -0.746139254996
            -0.006827608403    -0.002847822457    0.024061729983    0.030475254969    0.600312930591    -0.746139254996    0.045965533653    0.007327521466
0.125     0.061105525833    -0.026039723582    0.419419653414    -0.858208349160    0.041855113405    0.004518174750    -0.008581565122    -0.001820134404
            0.419419653414    -0.858208349160    0.045303206668    0.004101951865    -0.008572474281    -0.001833729566    0.031021919039    0.030493381961
            0.041855113405    0.004518174750    -0.008572475036    -0.001833731293    0.061097541729    -0.025968979483    0.420972959346    -0.857540167178
            -0.008581564609    -0.001820135860    0.031021919039    0.030493381961    0.420972959346    -0.857540167178    0.045193748180    0.004221952777
0.150     0.053227195241    -0.043109172006    0.220240331129    -0.927186156279    0.042581744960    -0.009365766788    -0.010193167174    -0.000359875525
            0.220240331129    -0.927186156279    0.041371285337    0.001767348665    -0.010186235005    -0.000383829065    0.035673111272    0.028565928478
            0.042581744960    -0.009365766788    -0.010186235005    -0.000383829065    0.053340970268    -0.043035861615    0.222226632122    -0.926796937944
            -0.010193167174    -0.000359875525    0.035673111272    0.028565928478    0.222226632122    -0.926796937944    0.041350915391    0.001933621347
0.175     0.036969713902    -0.057341696662    0.011249997459    -0.950750873126    0.035683096805    -0.023287858558    -0.011742479155    0.001604277141
            0.011249997459    -0.950750873126    0.034893640638    0.001937699579    -0.011743956431    0.001568995742    0.037481597888    0.026201071772
            0.035683097642    -0.023287859105    -0.011743956431    0.001568995742    0.037236562716    -0.057328027211    0.013609023518    -0.950802250645
            -0.011742479155    0.001604277141    0.037481597888    0.026201071772    0.013609023518    -0.950802250645    0.035002353644    0.002103506598
0.200     0.013791353055    -0.064818561183    -0.197445456115    -0.927790654759    0.021516766157    -0.033536131026    -0.013162516211    0.004322310684
            -0.197445456115    -0.927790654759    0.027201194479    0.005926934079    -0.013179738781    0.004278544867    0.036707291319    0.025001763504
            0.021516766157    -0.033536131026    -0.013179738781    0.004278544867    0.014211708710    -0.064947390657    -0.194824530885    -0.928433468600
            -0.013162516211    0.004322310684    0.036707291319    0.025001763504    -0.194824530885    -0.928433468600    0.027452544721    0.006021907652
0.225     -0.013086993685    -0.062468611271    -0.395542302176    -0.859387811348    0.002169082782    -0.036790005560    -0.014092095198    0.008059866823
            -0.395542302176    -0.859387811348    0.020207431648    0.014337171262    -0.014130782373    0.008015094731    0.034375981639    0.026266477349
            0.002169082782    -0.036790005560    -0.014130782373    0.008015094731    -0.012555716509    -0.062826377519    -0.392822891814    -0.860738723980
            -0.014092095198    0.008059866823    0.034375981639    0.026266477349    -0.392822891814    -0.860738723980    0.020578176899    0.014283095515
0.250     -0.039148801801    -0.048860606570    -0.573049104120    -0.748990841345    -0.018832704960    -0.030920756160    -0.013885780089    0.012845652891
            -0.573049104120    -0.748990841345    0.016039103519    0.026837842111    -0.013947505711    0.012810301748    0.032065717064    0.030650862314
            -0.018832704960    -0.030920756160    -0.013947505711    0.012810301748    -0.038592881020    -0.049514967256    -0.570436752772    -0.751123516866
            -0.013885780089    0.012845652891    0.032065717064    0.030650862314    -0.570436752772    -0.751123516866    0.016466032255    0.026568233260
0.275     -0.059431268077    -0.024710570856    -0.720926243815    -0.602424334345    -0.037185917199    -0.015593043962    -0.011809125914    0.018258272652
            -0.720926243815    -0.602424334345    0.016571495241    0.042085335258    -0.011889367948    0.018243320066    0.031527324578    0.037944934847
            -0.037185917199    -0.015593043962    -0.011889367948    0.018243320066    -0.058970859854    -0.025687888599    -0.718653471533    -0.605348726481
            -0.011809125914    0.018258272652    0.031527324578    0.037944934847    -0.718653471533    -0.605348726481    0.016959900896    0.041565233058
0.300     -0.069582719489    0.007027062136    -0.831816204446    -0.427627974663    -0.048744661558    0.007500073751    -0.007370260840    0.023388959868
            -0.831816204446    -0.427627974663    0.022947347225    0.057932007454    -0.007459623617    0.023401838731    0.034238386479    0.047087615541
            -0.048744661558    0.007500073751    -0.007459623617    0.023401838731    -0.069349939349    0.005757831265    -0.830123729648    -0.431274728175
            -0.007370260840    0.023388959868    0.034238386479    0.047087615541    -0.830123729648    -0.431274728175    0.023188897907    0.057172496716
0.325     -0.066863525863    0.041639088789    -0.900637975844    -0.234083541164    -0.050462029129    0.034908987218    -0.000630721937    0.027039681957
            -0.900637975844    -0.234083541164    0.035239609074    0.071828194473    -0.000716529753    0.027082158818    0.041006348897    0.056395211877
            -0.050462029129    0.034908987218    -0.000716529753    0.027082158818    -0.066973276869    0.040168982151    -0.899742991010    -0.238314806243
            -0.000630721937    0.027039681957    0.041006348897    0.056395211877    -0.899742991010    -0.238314806243    0.035234359078    0.070889275065
0.350     -0.050820271435    0.073564159657    -0.924933191452    -0.032016209262    -0.041091208731    0.062133820096    0.007664979329    0.028109246952
            -0.924933191452    -0.032016209262    0.052363213752    0.081389143124    0.007593733522    0.028176371927    0.051762538743    0.063975719164
            -0.041091208731    0.062133820096    0.007593733522    0.028176371927    -0.051342927037    0.072033302158    -0.925008560069    -0.036627137734
            0.007664979329    0.028109246952    0.051762538743    0.063975719164    -0.925008560069    -0.036627137734    0.052043665466    0.080372572034
0.375     -0.023403813572    0.097508115046    -0.904816967430    0.168444836568    -0.021422734363    0.084549437147    0.016229948835    0.025994223156
            -0.904816967430    0.168444836568    0.072271528931    0.084901353759    0.016179953317    0.026076516912    0.065577035818    0.068156983296
            -0.021422734363    0.084549437147    0.016179953317    0.026076516912    -0.024345475119    0.096081634681    -0.905972656861    0.163698525831
            0.016229948835    0.025994223156    0.065577035818    0.068156983296    -0.905972656861    0.163698525831    0.071618037319    0.083932171274
0.400     0.011420239244    0.109443461916    -0.842635595589    0.357944738323    0.005922005981    0.098286489818    0.023603867689    0.020837591591
            -0.842635595589    0.357944738323    0.092373954957    0.081686019870    0.023574581022    0.020924951885    0.080887298513    0.067845617727
            0.005922005981    0.098286489818    0.023574581022    0.020924951885    0.010124359535    0.108282237530    -0.844912289056    0.353331202902
            0.023603867689    0.020837591591    0.080887298513    0.067845617727    -0.844912289056    0.353331202902    0.091421652660    0.080889116313
0.425     0.048429992014    0.107261950230    -0.742450209957    0.528307176693    0.037026537277    0.100842635145    0.028596114164    0.013509985414
            -0.742450209957    0.528307176693    0.110036120463    0.072196711488    0.028581856766    0.013595449056    0.095815581704    0.062704540808
            0.037026537277    0.100842635145    0.028581856766    0.013595449056    0.046909314882    0.106492534390    -0.745822304102    0.524093161334
            0.028596114164    0.013509985414    0.095815581704    0.062704540808    -0.745822304102    0.524093161334    0.108869916014    0.071673641467
0.450     0.082019235312    0.091035436516    -0.609534126599    0.672670148052    0.067330849814    0.091403043417    0.030644036550    0.005342057892
            -0.609534126599    0.672670148052    0.123052347658    0.057912649195    0.030636797472    0.005425176529    0.108515562483    0.053192238576
            0.067330849814    0.091403043417    0.030636797472    0.005425176529    0.080450141441    0.090725892530    -0.613918060380    0.669106707155
            0.030644036550    0.005342057892    0.108515562483    0.053192238576    -0.613918060380    0.669106707155    0.121792956181    0.057722546755
0.475     0.107009837520    0.062924599075    -0.450016146486    0.785419935251    0.092261779705    0.070889256086    0.029953500396    -0.002293955636
            -0.450016146486    0.785419935251    0.129989552093    0.041058081413    0.029947427052    -0.002207037241    0.117456111466    0.040466036879
            0.092261779705    0.070889256086    0.029947427052    -0.002207037241    0.105590560508    0.063068561559    -0.455280619404    0.782735528929
            0.029953500396    -0.002293955636    0.117456111466    0.040466036879    -0.455280619404    0.782735528929    0.128773866061    0.041206104393
0.500     0.119332879962    0.026873158356    -0.270698400837    0.862087795034    0.107808805845    0.041861775454    0.027390699458    -0.008412293716
            -0.270698400837    0.862087795034    0.130407766259    0.024252345462    0.027386717675    -0.008311093196    0.121669936066    0.026226578873
            0.107808805845    0.041861775454    0.027386717675    -0.008311093196    0.118253603153    0.027383434474    -0.276672566965    0.860485813120
            0.027390699458    -0.008412293716    0.121669936066    0.026226578873    -0.276672566965    0.860485813120    0.129365691470    0.024686081151
0.525     0.116564683607    -0.011852446111    -0.079039198082    0.899296181840    0.111038296090    0.008291379197    0.024150209610    -0.012717050382
            -0.079039198082    0.899296181840    0.124934535355    0.010111729455    0.024158037231    -0.012591723019    0.120925601892    0.012480108876
            0.111038296090    0.008291379197    0.024158037231    -0.012591723019    0.115976235123    -0.011139912348    -0.085507997771    0.898955899540
            0.024150209610    -0.012717050382    0.120925601892    0.012480108876    -0.085507997771    0.898955899540    0.124165967041    0.010726169651
0.550     0.098358114898    -0.047255895987    0.116809562978    0.894865565007    0.100611434233    -0.024809410899    0.021296351030    -0.015676799595
            0.116809562978    0.894865565007    0.115230940513    0.000846538811    0.021333784677    -0.015524386109    0.115856779188    0.001246079437
            0.100611434233    -0.024809410899    0.021333784677    -0.015524386109    0.098340090071    -0.046565392039    0.110101617005    0.895934070027
            0.021296351030    -0.015676799595    0.115856779188    0.001246079437    0.110101617005    0.895934070027    0.114783805410    0.001499538749
0.575     0.066716856109    -0.073370435253    0.307976953506    0.848095672609    0.077217779785    -0.051971696175    0.019314161533    -0.018315641456
            0.307976953506    0.848095672609    0.103800760849    -0.002144939260    0.019402391699    -0.018143983315    0.107956185050    -0.005822014426
            0.077217779785    -0.051971696175    0.019402391699    -0.018143983315    0.067252828942    -0.072956975914    0.301337078465    0.850680507247
            0.019314161533    -0.018315641456    0.107956185050    -0.005822014426    0.301337078465    0.850680507247    0.103656588886    -0.001609263382
0.600     0.026016484862    -0.085214732761    0.485080846623    0.760215212327    0.043825493141    -0.068138116195    0.017845060091    -0.021749103757
            0.485080846623    0.760215212327    0.093642004801    0.001371506968    0.018001245713    -0.021580107744    0.099416233691    -0.007833940774
            0.043825493141    -0.068138116195    0.018001245713    -0.021580107744    0.026980113947    -0.085321225480    0.478861974786    0.764356792654
            0.017845060091    -0.021749103757    0.099416233691    -0.007833940774    0.478861974786    0.764356792654    0.093711978973    0.001651377550
0.625     -0.017419119095    -0.079830509800    0.638718181640    0.634827656076    0.005497301914    -0.069702085971    0.015756880047    -0.026601679075
            0.638718181640    0.634827656076    0.087697731659    0.010256997977    0.015986616223    -0.026467155258    0.092720010555    -0.004998473850
            0.005497301914    -0.069702085971    0.015986616223    -0.026467155258    -0.016257028267    -0.080638660034    0.633313307513    0.640476566702
            0.015756880047    -0.026601679075    0.092720010555    -0.004998473850    0.633313307513    0.640476566702    0.087833846145    0.010192113834
0.650     -0.056301043409    -0.057156469507    0.760327320876    0.478144975766    -0.031369150883    -0.055496234742    0.011600462252    -0.032552306202
            0.760327320876    0.478144975766    0.088203251399    0.022071347184    0.011891335353    -0.032486951290    0.090077327231    0.001282588742
            -0.031369150883    -0.055496234742    0.011891335920    -0.032486951082    -0.055239964588    -0.058740564387    0.756132578680    0.485137945571
            0.011600462252    -0.032552306202    0.090077327231    0.001282588742    0.756132578680    0.485137945571    0.088225462945    0.021648170845
0.675     -0.083815289641    -0.020338273850    0.843195582121    0.298749094121    -0.060322120341    -0.027285788167    0.004305132252    -0.038259353496
            0.843195582121    0.298749094121    0.096071551864    0.033503053076    0.004627725481    -0.038289958325    0.092807427643    0.008650838404
            -0.060322120341    -0.027285788167    0.004627725481    -0.038289958325    -0.083171608562    -0.022638834845    0.840571500709    0.306803707516
            0.004305132252    -0.038259353496    0.092807427643    0.008650838404    0.840571500709    0.306803707516    0.095806870135    0.032792964907
0.700     -0.095137521607    0.024777390034    0.883329208728    0.106817022056    -0.076309410189    0.010490268834    -0.006195359312    -0.041777188943
            0.883329208728    0.106817022056    0.110583305580    0.041105527414    -0.005882005606    -0.041913769105    0.100960482194    0.014357955142
            -0.076309410189    0.010490268834    -0.005882005606    -0.041913769105    -0.095181378493    0.021950976984    0.882553955855    0.115539042655
            -0.006195359312    -0.041777188943    0.100960482194    0.014357955142    0.882553955855    0.115539042655    0.109905697367    0.040253417213
0.725     -0.088470069058    0.070908926209    0.879825919919    -0.087026363090    -0.076747519471    0.051745731968    -0.018738159354    -0.041301547292
            0.879825919919    -0.087026363090    0.129502179967    0.042116172305    -0.018474985075    -0.041533766719    0.113282659468    0.015956632998
            -0.076747519471    0.051745731968    -0.018474985075    -0.041533766719    -0.089371603261    0.067844631255    0.881056668858    -0.078103662835
            -0.018738159768    -0.041301548202    0.113282659496    0.015956632800    0.881056668858    -0.078103662835    0.128361246484    0.041310225854
0.750     -0.065250313095    0.110929762732    0.834626854607    -0.272853377342    -0.061875519337    0.090127636776    -0.031230641532    -0.035902235291
            0.834626854607    -0.272853377342    0.149614961845    0.035073387438    -0.031048749144    -0.036202365345    0.127589033014    0.011868221733
            -0.061875519337    0.090127636776    -0.031048749144    -0.036202365345    -0.067049564661    0.107958755539    0.837885652240    -0.264220377952
            -0.031230641532    -0.035902235291    0.127589033014    0.011868221733    0.837885652240    -0.264220377952    0.148046590991    0.034506304251
0.775     -0.029539006978    0.139222787354    0.751823871056    -0.442199390036    -0.034344080478    0.120240078649    -0.041323308409    -0.025905452297
            0.751823871056    -0.442199390036    0.167455137664    0.020056936958    -0.041236759913    -0.026236678360    0.141294580171    0.001642793161
            -0.034344080478    0.120240078649    -0.041236759913    -0.026236678360    -0.032145017629    0.136662112109    0.757005122086    -0.434328569140
            -0.041323308409    -0.025905452297    0.141294580171    0.001642793161    0.757005122086    -0.434328569140    0.165572460099    0.019887899610
