# GHz S RI R 45
0.000     0.029485831871    0.001867291038    -0.000014522632    -0.000038289226    0.000944506287    0.001596479334    -0.000020589040    -0.000052937490
            -0.000014522579    -0.000038289228    0.029749339694    0.001448342398    -0.000010924409    -0.000028608814    0.000991631438    0.001466381767
            0.000944506176    0.001596479400    -0.000010924420    -0.000028608813    0.029427511534    0.001855195631    -0.000014644131    -0.000038259738
            -0.000020588997    -0.000052937489    0.000991631729    0.001466381811    -0.000014644222    -0.000038259736    0.029726623421    0.001439176979
0.025     0.036578771343    0.008244868074    -0.000042489868    -0.000080194389    0.004112564648    0.010827867595    -0.000059182867    -0.000111507934
            -0.000042489861    -0.000080194341    0.035164832669    0.008079003037    -0.000031837654    -0.000059809152    0.002957841364    0.011152509339
            0.004110628065    0.010830977476    -0.000031837639    -0.000059809125    0.036504134979    0.008216735461    -0.000042370442    -0.000080225120
            -0.000059183396    -0.000111508038    0.002957855453    0.011151736913    -0.000042370448    -0.000080225064    0.035060917519    0.007978612879
0.050     0.045950942110    0.008043945307    -0.000103920482    -0.000129624412    0.012653847706    0.018246929153    -0.000143466799    -0.000181051983
            -0.000103920482    -0.000129624412    0.040484507324    0.009902155420    -0.000077866411    -0.000096656311    0.008539791778    0.020458063193
            0.012653828145    0.018246968274    -0.000077866435    -0.000096656305    0.045846622143    0.008008483994    -0.000103461780    -0.000130354561
            -0.000143466806    -0.000181051991    0.008539815184    0.020458061008    -0.000103461780    -0.000130354561    0.040285742852    0.009754366277
0.075     0.055028397141    0.001887333843    -0.000182669077    -0.000149265504    0.023977039041    0.019899887116    -0.000252433839    -0.000210777235
            -0.000182669077    -0.000149265504    0.044664105161    0.009008525015    -0.000137025396    -0.000111104792    0.016273294957    0.026545992416
            0.023977032639    0.019899891697    -0.000137025404    -0.000111104799    0.054917297848    0.001880563396    -0.000182729754    -0.000151320200
            -0.000252433847    -0.000210777242    0.016273310840    0.026545994409    -0.000182729754    -0.000151320200    0.044347016580    0.008880509523
0.100     0.061064455341    -0.010048453403    -0.000268970244    -0.000137789939    0.034801327070    0.015042408261    -0.000373910578    -0.000197836196
            -0.000268970244    -0.000137789939    0.046776951265    0.006001797508    -0.000201929351    -0.000101979340    0.024368641355    0.029007156271
            0.034801327070    0.015042408261    -0.000201929351    -0.000101979340    0.060981658256    -0.010013124698    -0.000271002313    -0.000140837500
            -0.000373910578    -0.000197836196    0.024368641355    0.029007156271    -0.000271002313    -0.000140837500    0.046362128689    0.005967967484
0.125     0.061105525833    -0.026039723582    -0.000354093010    -0.000095518422    0.041855113405    0.004518174750    -0.000495828999    -0.000140897114
            -0.000354093010    -0.000095518422    0.045788870583    0.002080525334    -0.000265872127    -0.000069370515    0.031117614210    0.028300114982
            0.041855113405    0.004518174750    -0.000265872137    -0.000069370518    0.061097541729    -0.025968979483    -0.000359203813    -0.000097910600
            -0.000495828999    -0.000140897114    0.031117596477    0.028300069084    -0.000359203813    -0.000097910600    0.045336331421    0.002193680610
0.150     0.053227195241    -0.043109172006    -0.000431154483    -0.000023888715    0.042581744960    -0.009365766788    -0.000607282058    -0.000040628825
            -0.000431154483    -0.000023888715    0.041429172244    -0.001005567596    -0.000323378996    -0.000014270583    0.035244022846    0.025621309504
            0.042581744960    -0.009365766788    -0.000323378996    -0.000014270583    0.053340970268    -0.043035861615    -0.000439049947    -0.000023115134
            -0.000607282058    -0.000040628825    0.035244022399    0.025621310119    -0.000439049947    -0.000023115134    0.041027878550    -0.000728458157
0.175     0.036969713902    -0.057341696662    -0.000493688125    0.000076583752    0.035683096805    -0.023287858558    -0.000697211615    0.000102201499
            -0.000493688125    0.000076583752    0.034181606764    -0.001496634727    -0.000369198598    0.000062805098    0.036189785988    0.022633449052
            0.035683097642    -0.023287859105    -0.000369198598    0.000062805098    0.037236562716    -0.057328027211    -0.000502159057    0.000082719000
            -0.000697211615    0.000102201499    0.036189785988    0.022633449052    -0.000502159057    0.000082719000    0.033921305425    -0.001091073699
0.200     0.013791353055    -0.064818561183    -0.000533438018    0.000205564849    0.021516766157    -0.033536131026    -0.000752598815    0.000285428479
            -0.000533438018    0.000205564849    0.025403963352    0.002085199375    -0.000396764886    0.000161205192    0.034267997031    0.021097853023
            0.021516766157    -0.033536131026    -0.000396764886    0.000161205192    0.014211708710    -0.064947390657    -0.000538776620    0.000217551041
            -0.000752598815    0.000285428479    0.034267997883    0.021097853547    -0.000538776620    0.000217551041    0.025348965290    0.002537288999
0.225     -0.013086993685    -0.062468611271    -0.000538703375    0.000360518022    0.002169082782    -0.036790005560    -0.000757367786    0.000502933914
            -0.000538703375    0.000360518022    0.017131761638    0.010487283780    -0.000397144217    0.000278334776    0.030634654878    0.022440255730
            0.002169082782    -0.036790005560    -0.000397144217    0.000278334776    -0.012555716509    -0.062826377519    -0.000537087295    0.000376221092
            -0.000757367786    0.000502933914    0.030634654878    0.022440255730    -0.000537087295    0.000376221092    0.017298220145    0.010874421253
0.250     -0.039148801801    -0.048860606570    -0.000495731137    0.000532856875    -0.018832704960    -0.030920756160    -0.000694629408    0.000740871164
            -0.000495731137    0.000532856875    0.011680605565    0.023453205915    -0.000360276909    0.000406912906    0.027054337899    0.027373244177
            -0.018832704960    -0.030920756160    -0.000360276909    0.000406912906    -0.038592881020    -0.049514967256    -0.000485065587    0.000547722886
            -0.000694629408    0.000740871164    0.027054337899    0.027373244177    -0.000485065587    0.000547722886    0.012025726995    0.023661884185
0.275     -0.059431268077    -0.024710570856    -0.000392703570    0.000705562392    -0.037185917199    -0.015593043962    -0.000551384214    0.000975778716
            -0.000392703570    0.000705562392    0.011136565380    0.039616256785    -0.000278092283    0.000533437654    0.025483039954    0.035650031936
            -0.037185917199    -0.015593043962    -0.000278092283    0.000533437654    -0.058970859854    -0.025687888599    -0.000374069424    0.000714092675
            -0.000551384214    0.000975778716    0.025483039954    0.035650031936    -0.000374069424    0.000714092675    0.011561465949    0.039562117570
0.300     -0.069582719489    0.007027062136    -0.000225822489    0.000854209997    -0.048744661558    0.007500073751    -0.000325145734    0.001176551222
            -0.000225822489    0.000854209997    0.016823664414    0.056705443803    -0.000149017379    0.000639324711    0.027569778940    0.046075357136
            -0.048744661558    0.007500073751    -0.000149017379    0.000639324711    -0.069349939349    0.005757831265    -0.000203710200    0.000852193656
            -0.000325145734    0.001176551222    0.027569778940    0.046075357136    -0.000203710200    0.000852193656    0.017193440532    0.056358670648
0.325     -0.066863525863    0.041639088789    -0.000003693936    0.000952124724    -0.050462029129    0.034908987218    -0.000028128352    0.001310674004
            -0.000003693936    0.000952124724    0.028920285277    0.071974738700    0.000019105963    0.000705091919    0.034215635968    0.056762103723
            -0.050462029129    0.034908987218    0.000019105963    0.000705091919    -0.066973276869    0.040168982151    0.000015326943    0.000938707171
            -0.000028128352    0.001310674004    0.034215635968    0.056762103723    0.000015326943    0.000938707171    0.029094182357    0.071373886684
0.350     -0.050820271435    0.073564159657    0.000252323621    0.000978141536    -0.041091208731    0.062133820096    0.000312950301    0.001352948049
            0.000252323621    0.000978141536    0.046345447331    0.082816568499    0.000209209211    0.000716210437    0.045340811067    0.065591579935
            -0.041091208731    0.062133820096    0.000209209211    0.000716210437    -0.051342927037    0.072033302158    0.000262068621    0.000956650580
            0.000312950301    0.001352948049    0.045340811067    0.065591579935    0.000262068621    0.000956650580    0.046210889097    0.082064825513
0.375     -0.023403813572    0.097508115046    0.000512709523    0.000922921614    -0.021422734363    0.084549437147    0.000662479163    0.001292120206
            0.000512709523    0.000922921614    0.066958355685    0.087317878303    0.000399088445    0.000667496935    0.059905198163    0.070694462767
            -0.021422734363    0.084549437147    0.000399088445    0.000667496935    -0.024345475119    0.096081634681    0.000509967106    0.000899981768
            0.000662479163    0.001292120206    0.059905198163    0.070694462767    0.000509967106    0.000899981768    0.066459348320    0.086563634091
0.400     0.011420239244    0.109443461916    0.000747448513    0.000791556735    0.005922005981    0.098286489818    0.000984627086    0.001133410065
            0.000747448513    0.000791556735    0.088000926260    0.084662242356    0.000567196829    0.000564398220    0.076161621629    0.070848629227
            0.005922005981    0.098286489818    0.000567196829    0.000564398220    0.010124359535    0.108282237530    0.000733589839    0.000774709010
            0.000984627086    0.001133410065    0.076161621629    0.070848629227    0.000733589839    0.000774709010    0.087152483022    0.084068751056
0.425     0.048429992014    0.107261950230    0.000933232123    0.000601091884    0.037026537277    0.100842635145    0.001251133406    0.000895420010
            0.000933232123    0.000601091884    0.106633370933    0.075246550439    0.000697808747    0.000420455310    0.092013794544    0.065677255111
            0.037026537277    0.100842635145    0.000697808747    0.000420455310    0.046909314882    0.106492534390    0.000914035832    0.000595855168
            0.001251133390    0.000895420032    0.092013795690    0.065677253505    0.000914035832    0.000595855168    0.105522341721    0.074959027966
0.450     0.082019235312    0.091035436516    0.001058032284    0.000375026804    0.067330849814    0.091403043417    0.001446109168    0.000603908223
            0.001058032284    0.000375026804    0.120437974520    0.060577317111    0.000783724365    0.000252852360    0.105396994852    0.055689922678
            0.067330849814    0.091403043417    0.000783724365    0.000252852360    0.080450141441    0.090725892530    0.001041814059    0.000382429058
            0.001446109168    0.000603908223    0.105396994852    0.055689922678    0.001041814059    0.000382429058    0.119209285408    0.060693852864
0.475     0.107009837520    0.062924599075    0.001121677241    0.000136571598    0.092261779705    0.070889256086    0.001566377491    0.000284437798
            0.001121677241    0.000136571598    0.127791683082    0.042985257959    0.000825934383    0.000077612764    0.114595104149    0.042178017492
            0.092261779705    0.070889256086    0.000825934383    0.000077612764    0.105590560508    0.063068561559    0.001116225214    0.000152207060
            0.001566377491    0.000284437798    0.114595104149    0.042178017492    0.001116225214    0.000152207060    0.126623977617    0.043535748244
0.500     0.119332879962    0.026873158356    0.001133440620    -0.000097011909    0.107808805845    0.041861775454    0.001618406147    -0.000043464821
            0.001133440620    -0.000097011909    0.128108652874    0.025267934898    0.000831339818    -0.000094028628    0.118512716901    0.027045249894
            0.107808805845    0.041861775454    0.000831339818    -0.000094028628    0.118253603153    0.027383434474    0.001142636585    -0.000081981499
            0.001618406147    -0.000043464821    0.118512716901    0.027045249894    0.001142636585    -0.000081981499    0.127184412258    0.026202945226
0.525     0.116564683607    -0.011852446111    0.001106765757    -0.000318141298    0.111038296090    0.008291379197    0.001612717500    -0.000369778592
            0.001106765757    -0.000318141298    0.121941974805    0.010278905506    0.000808894481    -0.000257593004    0.116874733600    0.012552421788
            0.111038296090    0.008291379197    0.000808894481    -0.000257593004    0.115976235123    -0.011139912348    0.001128281073    -0.000314076709
            0.001612717500    -0.000369778592    0.116874733600    0.012552421788    0.001128281073    -0.000314076709    0.121414194773    0.011472159967
0.550     0.098358114898    -0.047255895987    0.001052947045    -0.000529313502    0.100611434233    -0.024809410899    0.001557282217    -0.000693887893
            0.001052947045    -0.000529313502    0.110978496621    0.000503768049    0.000765335646    -0.000415109563    0.110377597149    0.000995911860
            0.100611434233    -0.024809410899    0.000765335646    -0.000415109563    0.098340090071    -0.046565392039    0.001077839540    -0.000544034758
            0.001557282217    -0.000693887893    0.110377597149    0.000995911860    0.001077839540    -0.000544034758    0.110937286065    0.001766529754
0.575     0.066716856109    -0.073370435253    0.000974609837    -0.000739869433    0.077217779785    -0.051971696175    0.001451333930    -0.001020574323
            0.000974609837    -0.000739869433    0.097873387344    -0.002390488913    0.000701076861    -0.000572437761    0.100703706433    -0.005717981352
            0.077217779785    -0.051971696175    0.000701076861    -0.000572437761    0.067252828942    -0.072956975914    0.000989617584    -0.000774594192
            0.001451333930    -0.001020574323    0.100703706433    -0.005717981352    0.000989617584    -0.000774594192    0.098320926854    -0.001279277753
0.600     0.026016484862    -0.085214732761    0.000862114228    -0.000958448064    0.043825493141    -0.068138116195    0.001282657324    -0.001352052925
            0.000862114228    -0.000958448064    0.085906614116    0.002029088241    0.000608284819    -0.000733910927    0.090355182548    -0.006532802993
            0.043825493141    -0.068138116195    0.000608284819    -0.000733910927    0.026980113947    -0.085321225480    0.000854197581    -0.001005674445
            0.001282657324    -0.001352052925    0.090355182548    -0.006532802993    0.000854197581    -0.001005674445    0.086743836598    0.002777019419
0.625     -0.017419119095    -0.079830509800    0.000695370274    -0.001183223668    0.005497301914    -0.069702085971    0.001030490963    -0.001678382381
            0.000695370274    -0.001183223668    0.078397386229    0.012679546572    0.000472788715    -0.000895616852    0.082204465315    -0.001645660632
            0.005497301914    -0.069702085971    0.000472788715    -0.000895616852    -0.016257028267    -0.080638660034    0.000657381555    -0.001227692475
            0.001030490963    -0.001678382381    0.082204465315    -0.001645660632    0.000657381555    -0.001227692475    0.079433157712    0.012909334101
0.650     -0.056301043409    -0.057156469507    0.000453045799    -0.001394688982    -0.031369150883    -0.055496234742    0.000676046927    -0.001971084217
            0.000453045799    -0.001394688982    0.077967167690    0.026985962188    0.000281231647    -0.001040975478    0.078838959525    0.007359578892
            -0.031369150883    -0.055496234742    0.000281231647    -0.001040975478    -0.055239964588    -0.058740564387    0.000388067560    -0.001417965790
            0.000676046927    -0.001971084217    0.078838960521    0.007359578985    0.000388067560    -0.001417965790    0.078950479074    0.026641374295
0.675     -0.083815289641    -0.020338273850    0.000126372032    -0.001556106973    -0.060322120341    -0.027285788167    0.000216406285    -0.002185352135
            0.000126372032    -0.001556106973    0.085817686999    0.041322022350    0.000030943376    -0.001142171422    0.081839047556    0.017768080694
            -0.060322120341    -0.027285788167    0.000030943376    -0.001142171422    -0.083171608562    -0.022638834845    0.000048472046    -0.001543418840
            0.000216406285    -0.002185352135    0.081839047556    0.017768080694    0.000048472046    -0.001543418840    0.086490887194    0.040466757197
0.700     -0.095137521607    0.024777390034    -0.000270055684    -0.001624598683    -0.076309410189    0.010490268834    -0.000324945192    -0.002272686949
            -0.000270055684    -0.001624598683    0.101335992908    0.051825490478    -0.000263003040    -0.001169320125    0.091315571433    0.026388197195
            -0.076309410189    0.010490268834    -0.000263003040    -0.001169320125    -0.095181378493    0.021950976984    -0.000339577918    -0.001571090639
            -0.000324945192    -0.002272686949    0.091315571433    0.026388197195    -0.000339577918    -0.001571090639    0.101492137417    0.050635131504
0.725     -0.088470069058    0.070908926209    -0.000697408163    -0.001567414390    -0.076747519471    0.051745731968    -0.000899003615    -0.002198313627
            -0.000697408163    -0.001567414390    0.122190597695    0.055327821319    -0.000568966696    -0.001102644576    0.105866777017    0.030358883462
            -0.076747519471    0.051745731968    -0.000568966696    -0.001102644576    -0.089371603261    0.067844631255    -0.000736922866    -0.001481034527
            -0.000899003615    -0.002198313627    0.105866777017    0.030358883462    -0.000736922866    -0.001481034527    0.121721902698    0.054052681075
0.750     -0.065250313095    0.110929762732    -0.001102938012    -0.001375099838    -0.061875519337    0.090127636776    -0.001443120382    -0.001954472619
            -0.001102938012    -0.001375099838    0.144922039467    0.050065861425    -0.000847986918    -0.000941029897    0.123003537271    0.027815744312
            -0.061875519337    0.090127636776    -0.000847986918    -0.000941029897    -0.067049564661    0.107958755539    -0.001097946728    -0.001274795357
            -0.001443120382    -0.001954472619    0.123003537271    0.027815744312    -0.001097946728    -0.001274795357    0.143838962778    0.048977977409
0.775     -0.029539006978    0.139222787354    -0.001435606345    -0.001064576478    -0.034344080478    0.120240078649    -0.001898286461    -0.001562559834
            -0.001435606345    -0.001064576478    0.165746005992    0.035958000338    -0.001065772670    -0.000702231818    0.139774339699    0.018187842068
            -0.034344080478    0.120240078649    -0.001065772670    -0.000702231818    -0.032145017629    0.136662112109    -0.001383722079    -0.000974580512
            -0.001898286461    -0.001562559834    0.139774339699    0.018187842068    -0.001383722079    -0.000974580512    0.164172120525    0.035296318907
