# GHz S RI R 45
0.000     0.029485831871    0.001867291038    0.000000604123    0.000000368486    0.000944506287    0.001596479334    0.000000222343    0.000000434065
            0.000000604123    0.000000368486    0.028071506030    0.001705374516    0.000029414933    0.000000336391    0.000811702052    0.001438737728
            0.000944506176    0.001596479400    0.000029414933    0.000000336391    0.029427511534    0.001855195631    0.000000636850    0.000000418881
            0.000000222343    0.000000434065    0.000811702252    0.001438737730    0.000000636850    0.000000418881    0.028021452710    0.001718216567
0.025     0.036578771343    0.008244868074    0.000001445890    0.000001886186    0.004112564648    0.010827867595    0.000000697854    0.000000804461
            0.000001445959    0.000001886083    0.034593958463    0.006979566052    0.000056024331    0.000135315818    0.003582625459    0.009253964236
            0.004110628065    0.010830977476    0.000056024340    0.000135315825    0.036504134979    0.008216735461    0.000001503947    0.000002011334
            0.000000697863    0.000000804461    0.003580891568    0.009252851181    0.000001504004    0.000002011373    0.034532900031    0.006933431112
0.050     0.045950942110    0.008043945307    0.000003229253    0.000003176969    0.012653847706    0.018246929153    0.000001630886    0.000000948214
            0.000003229254    0.000003176967    0.043225451410    0.006397659171    0.000133267901    0.000260592339    0.011159184398    0.015679304468
            0.012653828145    0.018246968274    0.000133267901    0.000260592339    0.045846622143    0.008008483994    0.000003334163    0.000003407877
            0.000001630886    0.000000948214    0.011159146036    0.015679267946    0.000003334164    0.000003407879    0.043178226974    0.006312999956
0.075     0.055028397141    0.001887333843    0.000005124721    0.000003242901    0.023977039041    0.019899887116    0.000002521691    0.000000443536
            0.000005124722    0.000003242901    0.051946033345    0.000621990425    0.000248757891    0.000346943755    0.021475637960    0.017226473622
            0.023977032639    0.019899891697    0.000248757891    0.000346943755    0.054917297848    0.001880563396    0.000005310890    0.000003532860
            0.000002521692    0.000000443536    0.021475631411    0.017226476993    0.000005310890    0.000003532860    0.051928250532    0.000491447260
0.100     0.061064455341    -0.010048453403    0.000006605398    0.000002635785    0.034801327070    0.015042408261    0.000003070584    -0.000000505358
            0.000006605398    0.000002635785    0.058558597488    -0.010421754006    0.000385764668    0.000387681542    0.031894111511    0.013081967249
            0.034801327070    0.015042408261    0.000385764668    0.000387681542    0.060981658256    -0.010013124698    0.000006857674    0.000002882362
            0.000003070584    -0.000000505358    0.031894111283    0.013081967806    0.000006857674    0.000002882362    0.058583399938    -0.010614667938
0.125     0.061105525833    -0.026039723582    0.000007778449    0.000001835159    0.041855113405    0.004518174750    0.000003196622    -0.000001644935
            0.000007778449    0.000001835159    0.060485472735    -0.025600782597    0.000528441746    0.000380851336    0.039676825386    0.003650148907
            0.041855113405    0.004518174750    0.000528441739    0.000380851345    0.061097541729    -0.025968979483    0.000007966293    0.000001942163
            0.000003196623    -0.000001644935    0.039676822601    0.003650135522    0.000007966293    0.000001942164    0.060566399929    -0.025881885817
0.150     0.053227195241    -0.043109172006    0.000009002122    0.000000841005    0.042581744960    -0.009365766788    0.000002965832    -0.000002838793
            0.000009002122    0.000000841005    0.055869215962    -0.042747930541    0.000662521255    0.000328199651    0.042507816208    -0.009488562520
            0.042581744960    -0.009365766788    0.000662521255    0.000328199651    0.053340970268    -0.043035861615    0.000008894559    0.000000836005
            0.000002965832    -0.000002838793    0.042507816208    -0.009488562520    0.000008894559    0.000000836005    0.055990749533    -0.043149912920
0.175     0.036969713902    -0.057341696662    0.000010328858    -0.000000788322    0.035683096805    -0.023287858558    0.000002386953    -0.000004108751
            0.000010328858    -0.000000788322    0.043811828226    -0.058796053820    0.000774476984    0.000234874653    0.038922049066    -0.023850958695
            0.035683097642    -0.023287859105    0.000774476984    0.000234874653    0.037236562716    -0.057328027211    0.000009711656    -0.000000673467
            0.000002386953    -0.000004108751    0.038922049066    -0.023850958695    0.000009711656    -0.000000673467    0.043953659383    -0.059348679940
0.200     0.013791353055    -0.064818561183    0.000011226897    -0.000003464188    0.021516766157    -0.033536131026    0.000001278993    -0.000005463687
            0.000011226897    -0.000003464187    0.024881538653    -0.070440671129    0.000852552792    0.000109790242    0.028642534943    -0.036467866026
            0.021516766157    -0.033536131026    0.000852552792    0.000109790242    0.014211708710    -0.064947390657    0.000010073709    -0.000002822760
            0.000001278993    -0.000005463687    0.028642534943    -0.036467866026    0.000010073709    -0.000002822760    0.025007899084    -0.071170490244
0.225     -0.013086993685    -0.062468611271    0.000010765827    -0.000007021145    0.002169082782    -0.036790005560    -0.000000656899    -0.000006662159
            0.000010765827    -0.000007021145    0.001061692133    -0.074765341193    0.000888030215    -0.000034549539    0.012707350497    -0.044415231107
            0.002169082782    -0.036790005560    0.000888030215    -0.000034549539    -0.012555716509    -0.062826377519    0.000009360344    -0.000005437827
            -0.000000656899    -0.000006662159    0.012707350497    -0.044415231107    0.000009360344    -0.000005437827    0.001119143008    -0.075685139166
0.250     -0.039148801801    -0.048860606570    0.000008221250    -0.000010474277    -0.018832704960    -0.030920756160    -0.000003545320    -0.000007113177
            0.000008221250    -0.000010474277    -0.024474597054    -0.069834123526    0.000876719147    -0.000182983150    -0.006625304543    -0.045384384613
            -0.018832704960    -0.030920756160    0.000876719147    -0.000182983150    -0.038592881020    -0.049514967256    0.000007127697    -0.000007763713
            -0.000003545320    -0.000007113177    -0.006625304543    -0.045384384613    0.000007127697    -0.000007763713    -0.024549826388    -0.070932542021
0.275     -0.059431268077    -0.024710570856    0.000003734887    -0.000012340983    -0.037185917199    -0.015593043962    -0.000007015053    -0.000006069255
            0.000003734887    -0.000012340983    -0.047853609659    -0.055136641838    0.000820053751    -0.000319530771    -0.026216407648    -0.038166097749
            -0.037185917199    -0.015593043962    0.000820053751    -0.000319530771    -0.058970859854    -0.025687888599    0.000003589103    -0.000008721778
            -0.000007015053    -0.000006069255    -0.026216407648    -0.038166097749    0.000003589103    -0.000008721778    -0.048124661381    -0.056373231579
0.300     -0.069582719489    0.007027062136    -0.000001442028    -0.000011435839    -0.048744661558    0.007500073751    -0.000010112888    -0.000003075918
            -0.000001442028    -0.000011435839    -0.065151785712    -0.031832775609    0.000725178023    -0.000429804936    -0.042583293589    -0.022970106493
            -0.048744661558    0.007500073751    0.000725178023    -0.000429804936    -0.069349939349    0.005757831265    -0.000000232182    -0.000007513555
            -0.000010112888    -0.000003075918    -0.042583293589    -0.022970106493    -0.000000232182    -0.000007513555    -0.065667720560    -0.033136461750
0.325     -0.066863525863    0.041639088789    -0.000005399173    -0.000007665324    -0.050462029129    0.034908987218    -0.000011613217    0.000001601230
            -0.000005399173    -0.000007665324    -0.073112740933    -0.002663429935    0.000603753427    -0.000503248728    -0.052531668286    -0.001470076709
            -0.050462029129    0.034908987218    0.000603753427    -0.000503248728    -0.066973276869    0.040168982151    -0.000002875502    -0.000004199922
            -0.000011613217    0.000001601230    -0.052531668286    -0.001470076709    -0.000002875502    -0.000004199922    -0.073893199152    -0.003939260152
0.350     -0.050820271435    0.073564159657    -0.000006520456    -0.000002279380    -0.041091208731    0.062133820096    -0.000010605735    0.000006886503
            -0.000006520456    -0.000002279380    -0.069786139779    0.028428413917    0.000469824049    -0.000534435330    -0.053766445285    0.023428768029
            -0.041091208731    0.062133820096    0.000469824049    -0.000534435330    -0.051342927037    0.072033302158    -0.000003177931    0.000000149952
            -0.000010605735    0.000006886503    -0.053766445285    0.023428768029    -0.000003177931    0.000000149952    -0.070811218154    0.027287133655
0.375     -0.023403813572    0.097508115046    -0.000004370698    0.000002655423    -0.021422734363    0.084549437147    -0.000007007848    0.000011271660
            -0.000004370698    0.000002655423    -0.054926525352    0.056936142146    0.000337526146    -0.000523086777    -0.045326248489    0.048067000164
            -0.021422734363    0.084549437147    0.000337526146    -0.000523086777    -0.024345475119    0.096081634681    -0.000000926894    0.000003902470
            -0.000007007848    0.000011271660    -0.045326248489    0.048067000164    -0.000000926894    0.000003902470    -0.056130654042    0.056029878281
0.400     0.011420239244    0.109443461916    0.000000034512    0.000005276292    0.005922005981    0.098286489818    -0.000001680264    0.000013467372
            0.000000034512    0.000005276292    -0.030099143967    0.078533299310    0.000219401904    -0.000473109452    -0.027782963030    0.068646141874
            0.005922005981    0.098286489818    0.000219401904    -0.000473109452    0.010124359535    0.108282237530    0.000002981315    0.000005654490
            -0.000001680264    0.000013467372    -0.027782963030    0.068646141874    0.000002981315    0.000005654490    -0.031374484942    0.077937073721
0.425     0.048429992014    0.107261950230    0.000004746665    0.000004847037    0.037026537277    0.100842635145    0.000003938472    0.000012957799
            0.000004746665    0.000004847037    0.001548160952    0.089776917336    0.000125629345    -0.000391325708    -0.003153336330    0.081840767283
            0.037026537277    0.100842635145    0.000125629345    -0.000391325708    0.046909314882    0.106492534390    0.000006983964    0.000004915862
            0.000003938472    0.000012957799    -0.003153336330    0.081840767283    0.000006983964    0.000004915862    0.000340977904    0.089522523635
0.450     0.082019235312    0.091035436516    0.000007882592    0.000002076355    0.067330849814    0.091403043417    0.000008461328    0.000010164064
            0.000007882592    0.000002076355    0.035756430100    0.088650361616    0.000063923653    -0.000286503394    0.025405773054    0.085316740140
            0.067330849814    0.091403043417    0.000063923653    -0.000286503394    0.080450141441    0.090725892530    0.000009630181    0.000002301997
            0.000008461328    0.000010164064    0.025405773054    0.085316740140    0.000009630181    0.000002301997    0.034770363688    0.088714354222
0.475     0.107009837520    0.062924599075    0.000008563618    -0.000001318555    0.092261779705    0.070889256086    0.000011111517    0.000006154447
            0.000008563618    -0.000001318555    0.067781224816    0.074856732293    0.000039598303    -0.000168891737    0.054056883351    0.078061087743
            0.092261779705    0.070889256086    0.000039598303    -0.000168891737    0.105590560508    0.063068561559    0.000010269313    -0.000000845680
            0.000011111517    0.000006154447    0.054056883351    0.078061087743    0.000010269313    -0.000000845680    0.067160323496    0.075155779647
0.500     0.119332879962    0.026873158356    0.000007322295    -0.000003557183    0.107808805845    0.041861775454    0.000011941647    0.000002080230
            0.000007322295    -0.000003557183    0.093058485639    0.049869673824    0.000055349367    -0.000050049340    0.078810254386    0.060536312056
            0.107808805845    0.041861775454    0.000055349367    -0.000050049340    0.118253603153    0.027383434474    0.000009301034    -0.000003187719
            0.000011941647    0.000002080230    0.078810254386    0.060536312056    0.000009301034    -0.000003187719    0.092915447887    0.050264339152
0.525     0.116564683607    -0.011852446111    0.000005773660    -0.000003783884    0.111038296090    0.008291379197    0.000011624395    -0.000001377659
            0.000005773660    -0.000003783884    0.107819500908    0.016743881902    0.000110631902    0.000057465347    0.096043759095    0.034636185236
            0.111038296090    0.008291379197    0.000110631902    0.000057465347    0.115976235123    -0.011139912348    0.000007875887    -0.000004089036
            0.000011624395    -0.000001377659    0.096043759095    0.034636185236    0.000007875887    -0.000004089036    0.108214729496    0.017051285495
0.550     0.098358114898    -0.047255895987    0.000005680925    -0.000002604485    0.100611434233    -0.024809410899    0.000010925697    -0.000004272268
            0.000005680925    -0.000002604485    0.109609085839    -0.020256388576    0.000200847293    0.000140948493    0.102997210077    0.003490253499
            0.100611434233    -0.024809410899    0.000200847293    0.000140948493    0.098340090071    -0.046565392039    0.000007193997    -0.000003940690
            0.000010925697    -0.000004272268    0.102997210077    0.003490253499    0.000007193997    -0.000003940690    0.110533457781    -0.020243150349
0.575     0.066716856109    -0.073370435253    0.000007840477    -0.000001842599    0.077217779785    -0.051971696175    0.000010122735    -0.000007207533
            0.000007840477    -0.000001842599    0.097644207480    -0.056180419746    0.000316821016    0.000189126790    0.098166997393    -0.028887991075
            0.077217779785    -0.051971696175    0.000316821016    0.000189126790    0.067252828942    -0.072956975914    0.000007747256    -0.000003911101
            0.000010122735    -0.000007207533    0.098166997393    -0.028887991075    0.000007747256    -0.000003911101    0.099010447232    -0.056665704410
0.600     0.026016484862    -0.085214732761    0.000011377324    -0.000003524874    0.043825493141    -0.068138116195    0.000008707257    -0.000010755125
            0.000011377324    -0.000003524874    0.072998753187    -0.086022959808    0.000445144478    0.000194258142    0.081602201432    -0.058088296422
            0.043825493141    -0.068138116195    0.000445144478    0.000194258142    0.026980113947    -0.085321225480    0.000008920151    -0.000005200506
            0.000008707257    -0.000010755125    0.081602201432    -0.058088296422    0.000008920151    -0.000005200506    0.074641548004    -0.087178678376
0.625     -0.017419119095    -0.079830509800    0.000013954920    -0.000008543489    0.005497301914    -0.069702085971    0.000005627284    -0.000014768925
            0.000013954920    -0.000008543489    0.038555072831    -0.105406815028    0.000569770424    0.000154133090    0.055003333263    -0.079890802760
            0.005497301914    -0.069702085971    0.000569770424    0.000154133090    -0.016257028267    -0.080638660034    0.000009248232    -0.000008166551
            0.000005627284    -0.000014768925    0.055003333263    -0.079890802760    0.000009248232    -0.000008166551    0.040243116114    -0.107341958989
0.650     -0.056301043409    -0.057156469507    0.000012971877    -0.000015769034    -0.031369150883    -0.055496234742    0.000000044993    -0.000018057141
            0.000012971877    -0.000015769034    -0.001298695380    -0.111251070063    0.000674747458    0.000073094544    0.021604432990    -0.090909962412
            -0.031369150883    -0.055496234742    0.000674747458    0.000073094544    -0.055239964588    -0.058740564387    0.000007295673    -0.000011857319
            0.000000044993    -0.000018057141    0.021604433221    -0.090909963384    0.000007295673    -0.000011857319    0.000162921535    -0.113985273566
0.675     -0.083815289641    -0.020338273850    0.000007165920    -0.000022292096    -0.060322120341    -0.027285788167    -0.000007806209    -0.000018757476
            0.000007165920    -0.000022292096    -0.041232518916    -0.102300010514    0.000747294846    -0.000038613287    -0.014218394019    -0.089161934163
            -0.060322120341    -0.027285788167    0.000747294846    -0.000038613287    -0.083171608562    -0.022638834845    0.000002680749    -0.000014347133
            -0.000007806209    -0.000018757476    -0.014218394019    -0.089161934163    0.000002680749    -0.000014347133    -0.040274081763    -0.105747802701
0.700     -0.095137521607    0.024777390034    -0.000002364846    -0.000024828866    -0.076309410189    0.010490268834    -0.000016268600    -0.000015325945
            -0.000002364846    -0.000024828866    -0.075749128963    -0.079409880565    0.000780037957    -0.000167122340    -0.047573585417    -0.074467750356
            -0.076309410189    0.010490268834    0.000780037957    -0.000167122340    -0.095181378493    0.021950976984    -0.000003426418    -0.000013782901
            -0.000016268602    -0.000015325942    -0.047573585417    -0.074467750356    -0.000003426418    -0.000013782901    -0.075531695554    -0.083380681166
0.725     -0.088470069058    0.070908926209    -0.000012457197    -0.000021505032    -0.076747519471    0.051745731968    -0.000022767585    -0.000007555584
            -0.000012457197    -0.000021505032    -0.100036618675    -0.045483884278    0.000771541928    -0.000297914501    -0.073812412151    -0.048536569803
            -0.076747519471    0.051745731968    0.000771541928    -0.000297914501    -0.089371603261    0.067844631255    -0.000008737029    -0.000009517495
            -0.000022767585    -0.000007555584    -0.073812412151    -0.048536569803    -0.000008737029    -0.000009517495    -0.100718559319    -0.049700741698
0.750     -0.065250313095    0.110929762732    -0.000019367148    -0.000012925729    -0.061875519337    0.090127636776    -0.000024946981    0.000003043319
            -0.000019367148    -0.000012925729    -0.110742314196    -0.005045435686    0.000725219182    -0.000418239336    -0.089281829641    -0.014726259541
            -0.061875519337    0.090127636776    0.000725219182    -0.000418239336    -0.067049564661    0.107958755539    -0.000010981022    -0.000002600009
            -0.000024946981    0.000003043319    -0.089281829641    -0.014726259541    -0.000010981021    -0.000002600009    -0.112370304625    -0.009180769381
0.775     -0.029539006978    0.139222787354    -0.000020543046    -0.000001919905    -0.034344080478    0.120240078649    -0.000021756319    0.000013762444
            -0.000020543046    -0.000001919905    -0.106483920262    0.036479792275    0.000647516554    -0.000518222522    -0.091873134194    0.022503103693
            -0.034344080478    0.120240078649    0.000647516554    -0.000518222522    -0.032145017629    0.136662112109    -0.000009043239    0.000004674148
            -0.000021756319    0.000013762444    -0.091873134194    0.022503103693    -0.000009043239    0.000004674148    -0.108978425451    0.032757342712
