# GHz S RI R 45
0.000     0.029485831871    0.001867291038    0.000001825007    0.000003650464    0.000944506287    0.001596479334    0.000001985574    0.000004269437
            0.000001824942    0.000003650463    0.028965763079    0.001861381733    0.000002198061    0.000004290945    0.000910565729    0.001595156625
            0.000944506176    0.001596479400    0.000002198000    0.000004290946    0.029427511534    0.001855195631    0.000002400285    0.000005088195
            0.000001985498    0.000004269436    0.000910565918    0.001595156632    0.000002399994    0.000005088194    0.028930370990    0.001871882963
0.025     0.036578771343    0.008244868074    0.000005622295    0.000007347235    0.004112564648    0.010827867595    0.000006367084    0.000008080795
            0.000005622292    0.000007347222    0.035915194667    0.007910414638    0.000006716644    0.000009198477    0.003977683555    0.010442515047
            0.004110628065    0.010830977476    0.000006716652    0.000009198476    0.036504134979    0.008216735461    0.000007620013    0.000009857260
            0.000006367090    0.000008080786    0.003976915594    0.010442639540    0.000007620020    0.000009857260    0.035849066991    0.007855409489
0.050     0.045950942110    0.008043945307    0.000013763919    0.000009725574    0.012653847706    0.018246929153    0.000015771721    0.000010417256
            0.000013763921    0.000009725574    0.045125834041    0.007637133814    0.000016270493    0.000012496619    0.012293980357    0.017624012440
            0.012653828145    0.018246968274    0.000016270494    0.000012496620    0.045846622143    0.008008483994    0.000018796172    0.000012885992
            0.000015771721    0.000010417256    0.012293968090    0.017624011243    0.000018796172    0.000012885992    0.045063805916    0.007527392290
0.075     0.055028397141    0.001887333843    0.000022944894    0.000006257689    0.023977039041    0.019899887116    0.000026396000    0.000006011908
            0.000022944895    0.000006257686    0.054191989429    0.001607403271    0.000027021908    0.000008991792    0.023414364929    0.019271251797
            0.023977032639    0.019899891697    0.000027021908    0.000008991793    0.054917297848    0.001880563396    0.000031431875    0.000007954374
            0.000026396001    0.000006011908    0.023414357903    0.019271255611    0.000031431875    0.000007954375    0.054141341646    0.001446786538
0.100     0.061064455341    -0.010048453403    0.000029972046    -0.000003037256    0.034801327070    0.015042408261    0.000034575026    -0.000005137308
            0.000029972046    -0.000003037256    0.060530105988    -0.010097298267    0.000035292838    -0.000001298048    0.034235891373    0.014594347749
            0.034801327070    0.015042408261    0.000035292838    -0.000001298048    0.060981658256    -0.010013124698    0.000041238525    -0.000004952769
            0.000034575026    -0.000005137308    0.034235892038    0.014594348739    0.000041238525    -0.000004952769    0.060501573341    -0.010317556238
0.125     0.061105525833    -0.026039723582    0.000031835236    -0.000016665902    0.041855113405    0.004518174750    0.000036835504    -0.000021348982
            0.000031835238    -0.000016665900    0.061284740956    -0.025996635245    0.000037593640    -0.000016664773    0.041622397459    0.004290755951
            0.041855113405    0.004518174750    0.000037593640    -0.000016664773    0.061097541729    -0.025968979483    0.000044124329    -0.000023894171
            0.000036835504    -0.000021348982    0.041622398454    0.004290756053    0.000044124329    -0.000023894171    0.061284178105    -0.026293200534
0.150     0.053227195241    -0.043109172006    0.000026512658    -0.000031745371    0.042581744960    -0.009365766788    0.000030818964    -0.000039341527
            0.000026512658    -0.000031745371    0.054488541780    -0.043274964636    0.000031561625    -0.000033789625    0.043051254917    -0.009561869584
            0.042581744960    -0.009365766788    0.000031561625    -0.000033789625    0.053340970268    -0.043035861615    0.000037284883    -0.000045045002
            0.000030818964    -0.000039341527    0.043051254917    -0.009561869584    0.000037284883    -0.000045045002    0.054518341839    -0.043674592511
0.175     0.036969713902    -0.057341696662    0.000013451044    -0.000044616444    0.035683096805    -0.023287858558    0.000015831676    -0.000054928827
            0.000013451044    -0.000044616444    0.039551683882    -0.058327748226    0.000016519004    -0.000048447549    0.037131019270    -0.023882657835
            0.035683097642    -0.023287859105    0.000016519004    -0.000048447549    0.037236562716    -0.057328027211    0.000019849974    -0.000063505329
            0.000015831676    -0.000054928827    0.037131019270    -0.023882657835    0.000019849974    -0.000063505329    0.039595962835    -0.058862493607
0.200     0.013791353055    -0.064818561183    -0.000006097273    -0.000051513091    0.021516766157    -0.033536131026    -0.000006764218    -0.000063776037
            -0.000006097273    -0.000051513091    0.017590921298    -0.067419647278    -0.000006134572    -0.000056274828    0.023982785585    -0.035152965107
            0.021516766157    -0.033536131026    -0.000006134572    -0.000056274828    0.014211708710    -0.064947390657    -0.000006651850    -0.000074178120
            -0.000006764219    -0.000063776037    0.023982785585    -0.035152965107    -0.000006651850    -0.000074178120    0.017615230463    -0.068116951143
0.225     -0.013086993685    -0.062468611271    -0.000029104223    -0.000049413624    0.002169082782    -0.036790005560    -0.000033576609    -0.000062361919
            -0.000029104223    -0.000049413624    -0.008610555643    -0.067463684598    -0.000032954828    -0.000053743151    0.005339464039    -0.040113819989
            0.002169082782    -0.036790005560    -0.000032954828    -0.000053743151    -0.012555716509    -0.062826377519    -0.000038321671    -0.000072887213
            -0.000033576609    -0.000062361919    0.005339464039    -0.040113819989    -0.000038321671    -0.000072887213    -0.008658249183    -0.068337251720
0.250     -0.039148801801    -0.048860606570    -0.000051185333    -0.000036923605    -0.018832704960    -0.030920756160    -0.000059641176    -0.000048978676
            -0.000051185333    -0.000036923605    -0.034964803195    -0.056776175538    -0.000058924579    -0.000039166966    -0.015665689519    -0.036496894688
            -0.018832704960    -0.030920756160    -0.000058924579    -0.000039166966    -0.038592881020    -0.049514967256    -0.000069409716    -0.000057531025
            -0.000059641176    -0.000048978676    -0.015665689519    -0.036496894688    -0.000069409716    -0.000057531025    -0.035147736229    -0.057816190096
0.275     -0.059431268077    -0.024710570856    -0.000067502528    -0.000014862959    -0.037185917199    -0.015593043962    -0.000079420496    -0.000024407173
            -0.000067502527    -0.000014862959    -0.056805739340    -0.035589384195    -0.000078468743    -0.000013375783    -0.035045872167    -0.023603033514
            -0.037185917199    -0.015593043962    -0.000078468743    -0.000013375783    -0.058970859854    -0.025687888599    -0.000093450405    -0.000028866314
            -0.000079420496    -0.000024407173    -0.035045872167    -0.023603033514    -0.000093450405    -0.000028866314    -0.057186622787    -0.036755006001
0.300     -0.069582719489    0.007027062136    -0.000073959013    0.000013643989    -0.048744661558    0.007500073751    -0.000088134871    0.000007949298
            -0.000073959013    0.000013643989    -0.069813934891    -0.006219330273    -0.000086798278    0.000020163446    -0.048761152420    -0.002592143440
            -0.048744661558    0.007500073751    -0.000086798278    0.000020163446    -0.069349939349    0.005757831265    -0.000104772692    0.000009311381
            -0.000088134871    0.000007949298    -0.048761152420    -0.002592143440    -0.000104772692    0.000009311381    -0.070440103226    -0.007438495517
0.325     -0.066863525863    0.041639088789    -0.000068288151    0.000043801463    -0.050462029129    0.034908987218    -0.000082996064    0.000042729911
            -0.000068288151    0.000043801463    -0.070943762426    0.027257168540    -0.000081146687    0.000056027795    -0.053576158597    0.023655842360
            -0.050462029129    0.034908987218    -0.000081146687    0.000056027795    -0.066973276869    0.040168982151    -0.000099915816    0.000050882834
            -0.000082996064    0.000042729911    -0.053576158597    0.023655842360    -0.000099915816    0.000050882834    -0.071830755578    0.026080910813
0.350     -0.050820271435    0.073564159657    -0.000050664939    0.000070274261    -0.041091208731    0.062133820096    -0.000063937777    0.000073845872
            -0.000050664939    0.000070274261    -0.059123327398    0.059724648017    -0.000061495669    0.000088082600    -0.047769648806    0.051076395275
            -0.041091208731    0.062133820096    -0.000061495669    0.000088082600    -0.051342927037    0.072033302158    -0.000078510621    0.000088762588
            -0.000063937777    0.000073845872    -0.047769648806    0.051076395275    -0.000078510621    0.000088762588    -0.060242708442    0.058695972373
0.375     -0.023403813572    0.097508115046    -0.000023554863    0.000088421277    -0.021422734363    0.084549437147    -0.000033517061    0.000095859531
            -0.000023554863    0.000088421276    -0.035506644871    0.085998264716    -0.000030462411    0.000110866785    -0.031478478841    0.075210168586
            -0.021422734363    0.084549437147    -0.000030462411    0.000110866785    -0.024345475119    0.096081634681    -0.000043237564    0.000116455247
            -0.000033517061    0.000095859531    -0.031478478841    0.075210168586    -0.000043237564    0.000116455247    -0.036783606415    0.085209912701
0.400     0.011420239244    0.109443461916    0.000008986863    0.000095190545    0.005922005981    0.098286489818    0.000003807710    0.000105022056
            0.000008986863    0.000095190545    -0.003277098911    0.101776564089    0.000007427948    0.000120633210    -0.006652575970    0.092034010227
            0.005922005981    0.098286489818    0.000007427948    0.000120633210    0.010124359535    0.108282237530    0.000000904571    0.000129277935
            0.000003807710    0.000105022056    -0.006652575970    0.092034010227    0.000000904571    0.000129277935    -0.004596611397    0.101288713593
0.425     0.048429992014    0.107261950230    0.000042258851    0.000089423659    0.037026537277    0.100842635145    0.000042697728    0.000099685866
            0.000042258849    0.000089423660    0.032936940793    0.104356776062    0.000046773783    0.000115760409    0.023334743411    0.098616429790
            0.037026537277    0.100842635145    0.000046773783    0.000115760409    0.046909314882    0.106492534390    0.000047712594    0.000124917368
            0.000042697728    0.000099685866    0.023334743411    0.098616429790    0.000047712594    0.000124917368    0.031715219933    0.104180596004
0.450     0.082019235312    0.091035436516    0.000071687378    0.000071727420    0.067330849814    0.091403043417    0.000077810730    0.000080240093
            0.000071687378    0.000071727420    0.067827468511    0.093022553907    0.000082177934    0.000096683593    0.054249026975    0.093535438734
            0.067330849814    0.091403043417    0.000082177934    0.000096683593    0.080450141441    0.090725892530    0.000090782683    0.000103461897
            0.000077810730    0.000080240093    0.054249026975    0.093535438734    0.000090782683    0.000103461897    0.066847751780    0.093110683090
0.475     0.107009837520    0.062924599075    0.000093292494    0.000044106581    0.092261779705    0.070889256086    0.000104368193    0.000048749810
            0.000093292494    0.000044106581    0.096190585668    0.069089408863    0.000108823066    0.000065538533    0.081600264434    0.077026912416
            0.092261779705    0.070889256086    0.000108823066    0.000065538533    0.105590560508    0.063068561559    0.000124217485    0.000067075170
            0.000104368193    0.000048749810    0.081600264434    0.077026912416    0.000124217485    0.000067075170    0.095578109615    0.069336044099
0.500     0.119332879962    0.026873158356    0.000103920046    0.000009673295    0.107808805845    0.041861775454    0.000118473530    0.000008659225
            0.000103920046    0.000009673295    0.113628715274    0.035708971962    0.000122800021    0.000025860022    0.101224340378    0.050961391503
            0.107808805845    0.041861775454    0.000122800021    0.000025860022    0.118253603153    0.027383434474    0.000143085467    0.000019706758
            0.000118473530    0.000008659224    0.101224340378    0.050961391503    0.000143085467    0.000019706758    0.113466790983    0.035956849066
0.525     0.116564683607    -0.011852446111    0.000101396867    -0.000027524661    0.111038296090    0.008291379197    0.000117341540    -0.000035409685
            0.000101396867    -0.000027524661    0.117120229149    -0.002515970310    0.000121351075    -0.000017627778    0.109802442903    0.018664163278
            0.111038296090    0.008291379197    0.000121351075    -0.000017627778    0.115976235123    -0.011139912348    0.000143778632    -0.000033158108
            0.000117341540    -0.000035409685    0.109802442903    0.018664163278    0.000143778632    -0.000033158108    0.117430008591    -0.002458920593
0.550     0.098358114898    -0.047255895987    0.000084861490    -0.000062615878    0.100611434233    -0.024809410899    0.000099701916    -0.000077798899
            0.000084861490    -0.000062615878    0.105476043185    -0.040053075226    0.000103286025    -0.000059174658    0.105363511554    -0.015393420844
            0.100611434233    -0.024809410899    0.000103286025    -0.000059174658    0.098340090071    -0.046565392039    0.000124540843    -0.000084712264
            0.000099701916    -0.000077798899    0.105363511554    -0.015393420844    0.000124540843    -0.000084712264    0.106201633465    -0.040390048301
0.575     0.066716856109    -0.073370435253    0.000055232941    -0.000090196457    0.077217779785    -0.051971696175    0.000066350113    -0.000112163157
            0.000055232939    -0.000090196458    0.079642453439    -0.071105124911    0.000069527598    -0.000092384141    0.087704639228    -0.046079622517
            0.077217779785    -0.051971696175    0.000069527598    -0.000092384141    0.067252828942    -0.072956975914    0.000086126561    -0.000127297926
            0.000066350113    -0.000112163157    0.087704639228    -0.046079622517    0.000086126561    -0.000127297926    0.080645130145    -0.072019570452
0.600     0.026016484862    -0.085214732761    0.000015736533    -0.000105062053    0.043825493141    -0.068138116195    0.000020754219    -0.000132299911
            0.000015736533    -0.000105062053    0.042802700926    -0.090432335653    0.000023695935    -0.000111072149    0.058684700275    -0.068309894469
            0.043825493141    -0.068138116195    0.000023695935    -0.000111072149    0.026980113947    -0.085321225480    0.000032477450    -0.000153408091
            0.000020754219    -0.000132299911    0.058684700275    -0.068309894469    0.000032477450    -0.000153408091    0.043867126950    -0.092052441169
0.625     -0.017419119095    -0.079830509800    -0.000028000213    -0.000103399548    0.005497301914    -0.069702085971    -0.000030803945    -0.000133494361
            -0.000028000213    -0.000103399548    0.000141353287    -0.094262511015    -0.000027799130    -0.000110621249    0.022203185814    -0.077920175140
            0.005497301914    -0.069702085971    -0.000027799130    -0.000110621249    -0.016257028267    -0.080638660034    -0.000029142356    -0.000157243749
            -0.000030803945    -0.000133494361    0.022203185814    -0.077920175140    -0.000029142356    -0.000157243749    0.000998365014    -0.096627446531
0.650     -0.056301043409    -0.057156469507    -0.000068660787    -0.000084174714    -0.031369150883    -0.055496234742    -0.000079977976    -0.000114111201
            -0.000068660787    -0.000084174714    -0.041828313688    -0.081142553847    -0.000076547246    -0.000089548061    -0.016252433615    -0.072585363124
            -0.031369150883    -0.055496234742    -0.000076547246    -0.000089548061    -0.055239964588    -0.058740564387    -0.000088993557    -0.000136528445
            -0.000079977976    -0.000114111201    -0.016252433615    -0.072585363124    -0.000088993557    -0.000136528445    -0.041461324494    -0.084179003751
0.675     -0.083815289641    -0.020338273850    -0.000098875265    -0.000049951880    -0.060322120341    -0.027285788167    -0.000118145297    -0.000076587588
            -0.000098875265    -0.000049951880    -0.076361366744    -0.052445536672    -0.000113947116    -0.000050448022    -0.050530995738    -0.052460485644
            -0.060322120341    -0.027285788167    -0.000113947116    -0.000050448022    -0.083171608562    -0.022638834845    -0.000136864921    -0.000093660817
            -0.000118145297    -0.000076587588    -0.050530995738    -0.052460485644    -0.000136864921    -0.000093660817    -0.076730191233    -0.055963613601
0.700     -0.095137521607    0.024777390034    -0.000113255142    -0.000006572296    -0.076309410189    0.010490268834    -0.000138697446    -0.000027197330
            -0.000113255142    -0.000006572296    -0.097800785271    -0.012290709973    -0.000133479614    0.000000286036    -0.075037974319    -0.020310979838
            -0.076309410189    0.010490268834    -0.000133479614    0.000000286036    -0.095181378493    0.021950976984    -0.000164646515    -0.000035535005
            -0.000138697446    -0.000027197330    -0.075037974319    -0.020310979838    -0.000164646515    -0.000035535005    -0.099063334471    -0.016006027713
0.725     -0.088470069058    0.070908926209    -0.000109833057    0.000038433918    -0.076747519471    0.051745731968    -0.000138743061    0.000025615758
            -0.000109833057    0.000038433918    -0.102723791624    0.033214542393    -0.000132371705    0.000054155422    -0.085863533178    0.019028254775
            -0.076747519471    0.051745731968    -0.000132371705    0.000054155422    -0.089371603261    0.067844631255    -0.000168314649    0.000028227762
            -0.000138743061    0.000025615758    -0.085863533178    0.019028254775    -0.000168314649    0.000028227762    -0.104913854538    0.029636708763
0.750     -0.065250313095    0.110929762732    -0.000090259673    0.000077927024    -0.061875519337    0.090127636776    -0.000119489417    0.000073522541
            -0.000090259673    0.000077927024    -0.090561465494    0.077210958886    -0.000111936757    0.000102827583    -0.081491406558    0.059673430198
            -0.061875519337    0.090127636776    -0.000111936757    0.000102827583    -0.067049564661    0.107958755539    -0.000148511023    0.000087783734
            -0.000119489417    0.000073522541    -0.081491406558    0.059673430198    -0.000148511023    0.000087783734    -0.093577328036    0.074097660531
0.775     -0.029539006978    0.139222787354    -0.000058733863    0.000106765203    -0.034344080478    0.120240078649    -0.000085209064    0.000110169657
            -0.000058733863    0.000106765203    -0.063512390391    0.113406051309    -0.000076530977    0.000139975008    -0.062856672883    0.095853531477
            -0.034344080478    0.120240078649    -0.000076530977    0.000139975008    -0.032145017629    0.136662112109    -0.000109565154    0.000135200346
