# GHz S RI R 45
0.000     0.029485831871    0.001867291038    -0.000005056301    -0.000010537036    0.000944506287    0.001596479334    -0.000005898946    -0.000012723877
            -0.000005056070    -0.000010537036    0.030248355320    0.001557501392    -0.000003813244    -0.000008941780    0.001053969821    0.001633818772
            0.000944506176    0.001596479400    -0.000003813517    -0.000008941780    0.029427511534    0.001855195631    -0.000004795270    -0.000010604549
            -0.000005898973    -0.000012723877    0.001053969120    0.001633818748    -0.000004795254    -0.000010604549    0.030184201195    0.001544054911
0.025     0.036578771343    0.008244868074    -0.000012855581    -0.000022224370    0.004112564648    0.010827867595    -0.000015208347    -0.000026370639
            -0.000012855587    -0.000022224364    0.035799500334    0.008351104339    -0.000010413225    -0.000018641119    0.003192789213    0.011775886316
            0.004110628065    0.010830977476    -0.000010413230    -0.000018641127    0.036504134979    0.008216735461    -0.000012222025    -0.000020694796
            -0.000015208355    -0.000026370633    0.003193355526    0.011774893500    -0.000012222009    -0.000020694792    0.035738615127    0.008304783093
0.050     0.045950942110    0.008043945307    -0.000029982421    -0.000036040167    0.012653847706    0.018246929153    -0.000035391885    -0.000042651401
            -0.000029982421    -0.000036040167    0.041400997706    0.010234149482    -0.000024768623    -0.000030150243    0.009240020790    0.021509366131
            0.012653828145    0.018246968274    -0.000024768624    -0.000030150244    0.045846622143    0.008008483994    -0.000028308936    -0.000033281549
            -0.000035391885    -0.000042651402    0.009240084352    0.021509387803    -0.000028308936    -0.000033281548    0.041271275654    0.010167781427
0.075     0.055028397141    0.001887333843    -0.000052059053    -0.000041566007    0.023977039041    0.019899887116    -0.000061389832    -0.000049287587
            -0.000052059053    -0.000041566007    0.045797362581    0.009171498132    -0.000043261389    -0.000034696846    0.017551579091    0.027686187033
            0.023977032639    0.019899891697    -0.000043261389    -0.000034696846    0.054917297848    0.001880563396    -0.000048845512    -0.000038065874
            -0.000061389833    -0.000049287587    0.017551584511    0.027686185966    -0.000048845512    -0.000038065874    0.045616089629    0.009135426149
0.100     0.061064455341    -0.010048453403    -0.000076395681    -0.000038348276    0.034801327070    0.015042408261    -0.000090167778    -0.000045697244
            -0.000076395681    -0.000038348276    0.047926623942    0.005835786642    -0.000063604558    -0.000031890705    0.026114871151    0.029903439584
            0.034801327070    0.015042408261    -0.000063604558    -0.000031890705    0.060981658256    -0.010013124698    -0.000071349180    -0.000034707616
            -0.000090167778    -0.000045697244    0.026114870107    0.029903440496    -0.000071349180    -0.000034707616    0.047724135357    0.005868050088
0.125     0.061105525833    -0.026039723582    -0.000100569764    -0.000026338606    0.041855113405    0.004518174750    -0.000118910414    -0.000031711206
            -0.000100569764    -0.000026338606    0.046699463802    0.001621061760    -0.000083744333    -0.000021706635    0.033034749534    0.028745367196
            0.041855113405    0.004518174750    -0.000083744333    -0.000021706635    0.061097541729    -0.025968979483    -0.000093587736    -0.000023188828
            -0.000118910414    -0.000031711206    0.033034749534    0.028745367196    -0.000093587736    -0.000023188828    0.046526831597    0.001734551708
0.150     0.053227195241    -0.043109172006    -0.000122509831    -0.000005839221    0.042581744960    -0.009365766788    -0.000145120029    -0.000007557417
            -0.000122509831    -0.000005839221    0.041730886523    -0.001612583881    -0.000101938430    -0.000004434311    0.036950323553    0.025634701356
            0.042581744960    -0.009365766788    -0.000101938430    -0.000004434311    0.053340970268    -0.043035861615    -0.000113641111    -0.000003802190
            -0.000145120029    -0.000007557417    0.036950323553    0.025634701356    -0.000113641111    -0.000003802190    0.041653666971    -0.001431858263
0.175     0.036969713902    -0.057341696662    -0.000140256956    0.000023096018    0.035683096805    -0.023287858558    -0.000166360314    0.000026724099
            -0.000140256956    0.000023096018    0.033690907286    -0.001827527073    -0.000116543952    0.000019864388    0.037351869865    0.022480807188
            0.035683097642    -0.023287859105    -0.000116543952    0.000019864388    0.037236562716    -0.057328027211    -0.000129677074    0.000023406945
            -0.000166360314    0.000026724099    0.037351869865    0.022480807188    -0.000129677074    0.000023406945    0.033761838269    -0.001635898413
0.200     0.013791353055    -0.064818561183    -0.000151231619    0.000060363234    0.021516766157    -0.033536131026    -0.000179485592    0.000070936865
            -0.000151231619    0.000060363234    0.024203784336    0.002578156270    -0.000125395930    0.000051071523    0.034743468597    0.021247885676
            0.021516766157    -0.033536131026    -0.000125395930    0.000051071523    0.014211708710    -0.064947390657    -0.000139249260    0.000058327116
            -0.000179485592    0.000070936865    0.034743468597    0.021247885676    -0.000139249260    0.000058327116    0.024441494549    0.002693672381
0.225     -0.013086993685    -0.062468611271    -0.000151875073    0.000105024872    0.002169082782    -0.036790005560    -0.000180278948    0.000123852863
            -0.000151875073    0.000105024872    0.015624569810    0.012317241670    -0.000125513387    0.000088364650    0.030580690619    0.023439619932
            0.002169082782    -0.036790005560    -0.000125513387    0.000088364650    -0.012555716509    -0.062826377519    -0.000138978749    0.000100022397
            -0.000180278948    0.000123852863    0.030580690210    0.023439620466    -0.000138978749    0.000100022397    0.015998466811    0.012259761238
0.250     -0.039148801801    -0.048860606570    -0.000138199336    0.000154247804    -0.018832704960    -0.030920756160    -0.000164129105    0.000182027160
            -0.000138199336    0.000154247804    0.010559923305    0.026918355470    -0.000113575977    0.000129307218    0.026956638649    0.029667096184
            -0.018832704960    -0.030920756160    -0.000113575977    0.000129307218    -0.038592881020    -0.049514967256    -0.000125119521    0.000145712530
            -0.000164129105    0.000182027160    0.026956638649    0.029667096184    -0.000125119521    0.000145712530    0.010988283137    0.026608801957
0.275     -0.059431268077    -0.024710570856    -0.000107073417    0.000202729919    -0.037185917199    -0.015593043962    -0.000127490736    0.000239212789
            -0.000107073417    0.000202729919    0.011258298049    0.044641677605    -0.000087020064    0.000169387883    0.026075748144    0.039398191331
            -0.037185917199    -0.015593043962    -0.000087020064    0.000169387883    -0.058970859854    -0.025687888599    -0.000094814627    0.000190265179
            -0.000127490736    0.000239212789    0.026075748144    0.039398191331    -0.000094814627    0.000190265179    0.011620101106    0.044045509163
0.300     -0.069582719489    0.007027062136    -0.000057978058    0.000243246641    -0.048744661558    0.007500073751    -0.000069855193    0.000287022066
            -0.000057978058    0.000243246641    0.018991281436    0.062772232472    -0.000045528063    0.000202508903    0.029656718379    0.051034559325
            -0.048744661558    0.007500073751    -0.000045528063    0.000202508903    -0.069349939349    0.005757831265    -0.000047765429    0.000226771283
            -0.000069855193    0.000287022066    0.029656718379    0.051034559325    -0.000047765429    0.000226771283    0.019152729706    0.061916390750
0.325     -0.066863525863    0.041639088789    0.000005920939    0.000268346327    -0.050462029129    0.034908987218    0.000005062406    0.000316855461
            0.000005920939    0.000268346327    0.033648835605    0.078178749284    0.000008083880    0.000222452765    0.038444391900    0.062283588884
            -0.050462029129    0.034908987218    0.000008083880    0.000222452765    -0.066973276869    0.040168982151    0.000012756068    0.000248207481
            0.000005062406    0.000316855461    0.038444391900    0.062283588884    0.000012756068    0.000248207481    0.033495473043    0.077154296300
0.350     -0.050820271435    0.073564159657    0.000077977729    0.000272624898    -0.041091208731    0.062133820096    0.000089588689    0.000322479493
            0.000077977729    0.000272624898    0.053688719726    0.088052823412    0.000068100541    0.000224820169    0.052010490149    0.070744487634
            -0.041091208731    0.062133820096    0.000068100541    0.000224820169    -0.051342927037    0.072033302158    0.000080188103    0.000249647698
            0.000089588689    0.000322479493    0.052010490149    0.070744487634    0.000080188103    0.000249647698    0.053155301287    0.086998954276
0.375     -0.023403813572    0.097508115046    0.000149707100    0.000254338140    -0.021422734363    0.084549437147    0.000173940229    0.000301846616
            0.000149707100    0.000254338140    0.076455080678    0.090528730492    0.000127347870    0.000208362940    0.068866047769    0.074466589765
            -0.021422734363    0.084549437147    0.000127347870    0.000208362940    -0.024345475119    0.096081634681    0.000146324451    0.000229774248
            0.000173940229    0.000301846616    0.068866047769    0.074466589765    0.000146324451    0.000229774248    0.075544357528    0.089606336610
0.400     0.011420239244    0.109443461916    0.000213063275    0.000215767418    0.005922005981    0.098286489818    0.000248823154    0.000257528933
            0.000213063275    0.000215767418    0.098754761335    0.085073780647    0.000179153074    0.000175214828    0.086829821079    0.072361219274
            0.005922005981    0.098286489818    0.000179153074    0.000175214828    0.010124359535    0.108282237530    0.000203535024    0.000191179598
            0.000248823154    0.000257528933    0.086829821079    0.072361219274    0.000203535024    0.000191179598    0.097540934181    0.084431728019
0.425     0.048429992014    0.107261950230    0.000262324592    0.000162163547    0.037026537277    0.100842635145    0.000307612126    0.000195512519
            0.000262324592    0.000162163547    0.117485589009    0.072530465190    0.000218896930    0.000129924834    0.103472730182    0.064356826934
            0.037026537277    0.100842635145    0.000218896930    0.000129924834    0.046909314882    0.106492534390    0.000246619285    0.000139237418
            0.000307612126    0.000195512519    0.103472730182    0.064356826934    0.000246619285    0.000139237418    0.116102713904    0.072275042105
0.450     0.082019235312    0.091035436516    0.000295057431    0.000100015812    0.067330849814    0.091403043417    0.000347444179    0.000123218353
            0.000295057431    0.000100015812    0.130179756814    0.054916155903    0.000244746022    0.000077960448    0.116550854070    0.051376801655
            0.067330849814    0.091403043417    0.000244746022    0.000077960448    0.080450141441    0.090725892530    0.000273656507    0.000080369214
            0.000347444179    0.000123218353    0.116550854070    0.051376801655    0.000273656507    0.000080369214    0.128800060475    0.055088789292
0.475     0.107009837520    0.062924599075    0.000311926476    0.000035212017    0.092261779705    0.070889256086    0.000369027232    0.000047354731
            0.000311926476    0.000035212017    0.135372734589    0.035051523490    0.000257421004    0.000024175886    0.124341084197    0.035171889774
            0.092261779705    0.070889256086    0.000257421004    0.000024175886    0.105590560508    0.063068561559    0.000285745603    0.000020215810
            0.000369027232    0.000047354731    0.124341084197    0.035171889774    0.000285745603    0.000020215810    0.134176348098    0.035617483461
0.500     0.119332879962    0.026873158356    0.000315762825    -0.000028332790    0.107808805845    0.041861775454    0.000375512829    -0.000027680709
            0.000315762825    -0.000028332790    0.132821957464    0.016136033271    0.000259366042    -0.000028271207    0.125923596326    0.018095119012
            0.107808805845    0.041861775454    0.000259366042    -0.000028271207    0.118253603153    0.027383434474    0.000285997250    -0.000037684197
            0.000375512829    -0.000027680709    0.125923596326    0.018095119012    0.000285997250    -0.000037684197    0.131964361031    0.016983336450
0.525     0.116564683607    -0.011852446111    0.000310004800    -0.000089423100    0.111038296090    0.008291379197    0.000370653129    -0.000100593137
            0.000310004800    -0.000089423100    0.123575800835    0.001280020597    0.000253449418    -0.000078455269    0.121383583142    0.002784643693
            0.111038296090    0.008291379197    0.000253449418    -0.000078455269    0.115976235123    -0.011139912348    0.000277936552    -0.000092508533
            0.000370653129    -0.000100593137    0.121383583142    0.002784643693    0.000277936552    -0.000092508533    0.123156787341    0.002232484671
0.550     0.098358114898    -0.047255895987    0.000296963534    -0.000149405573    0.100611434233    -0.024809410899    0.000356791814    -0.000172948711
            0.000296963534    -0.000149405573    0.109928138056    -0.006981636606    0.000241567360    -0.000127548208    0.111954394331    -0.008239965539
            0.100611434233    -0.024809410899    0.000241567360    -0.000127548208    0.098340090071    -0.046565392039    0.000263806316    -0.000145902036
            0.000356791814    -0.000172948711    0.111954394331    -0.008239965539    0.000263806316    -0.000145902036    0.109962695976    -0.006137981331
0.575     0.066716856109    -0.073370435253    0.000276175314    -0.000210955473    0.077217779785    -0.051971696175    0.000333051684    -0.000247610825
            0.000276175314    -0.000210955473    0.095176553104    -0.007207505148    0.000223305681    -0.000177749052    0.099972896953    -0.013103566013
            0.077217779785    -0.051971696175    0.000223305681    -0.000177749052    0.067252828942    -0.072956975914    0.000243036394    -0.000200649953
            0.000333051684    -0.000247610825    0.099972896953    -0.013103566013    0.000243036394    -0.000200649953    0.095580121736    -0.006685266579
0.600     0.026016484862    -0.085214732761    0.000243751983    -0.000275754425    0.043825493141    -0.068138116195    0.000294727505    -0.000326119679
            0.000243751983    -0.000275754425    0.083144367424    0.000488251617    0.000195423453    -0.000230401382    0.088585157130    -0.011121172307
            0.043825493141    -0.068138116195    0.000195423453    -0.000230401382    0.026980113947    -0.085321225480    0.000211735383    -0.000258407573
            0.000294727505    -0.000326119679    0.088585157130    -0.011121172307    0.000211735383    -0.000258407573    0.083735558050    0.000526299974
0.625     -0.017419119095    -0.079830509800    0.000193442248    -0.000341757426    0.005497301914    -0.069702085971    0.000234647394    -0.000405636968
            0.000193442248    -0.000341757426    0.077406669709    0.014190513663    0.000152764367    -0.000283705690    0.081091754762    -0.003203357145
            0.005497301914    -0.069702085971    0.000152764367    -0.000283705690    -0.016257028267    -0.080638660034    0.000163872986    -0.000317092815
            0.000234647394    -0.000405636968    0.081091754762    -0.003203357145    0.000163872986    -0.000317092815    0.077936110337    0.013676780683
0.650     -0.056301043409    -0.057156469507    0.000119822898    -0.000401616305    -0.031369150883    -0.055496234742    0.000146852300    -0.000477311170
            0.000119822898    -0.000401616305    0.080380826172    0.030377949229    0.000090971231    -0.000331431488    0.080091606957    0.008153043507
            -0.031369150883    -0.055496234742    0.000090971231    -0.000331431488    -0.055239964588    -0.058740564387    0.000094417100    -0.000369518826
            0.000146852300    -0.000477311170    0.080091606957    0.008153043507    0.000094417100    -0.000369518826    0.080582606555    0.029368800554
0.675     -0.083815289641    -0.020338273850    0.000022294369    -0.000443750660    -0.060322120341    -0.027285788167    0.000030986393    -0.000527658606
            0.000022294369    -0.000443750660    0.092558534074    0.044651980425    0.000009823837    -0.000363902163    0.086670263445    0.019393499809
            -0.060322120341    -0.027285788167    0.000009823837    -0.000363902163    -0.083171608562    -0.022638834845    0.000003158237    -0.000404581703
            0.000030986393    -0.000527658606    0.086670263445    0.019393499809    0.000003158237    -0.000404581703    0.092214331122    0.043324770281
0.700     -0.095137521607    0.024777390034    -0.000092541503    -0.000456370445    -0.076309410189    0.010490268834    -0.000105017458    -0.000543111119
            -0.000092541503    -0.000456370445    0.112272993006    0.052835140348    -0.000084811091    -0.000371471174    0.100054498615    0.026852496237
            -0.076309410189    0.010490268834    -0.000084811091    -0.000371471174    -0.095181378493    0.021950976984    -0.000103128216    -0.000411257742
            -0.000105017458    -0.000543111119    0.100054498615    0.026852496237    -0.000103128216    -0.000411257742    0.111265535502    0.051452711853
0.725     -0.088470069058    0.070908926209    -0.000211856558    -0.000432223121    -0.076747519471    0.051745731968    -0.000246215178    -0.000515376975
            -0.000211856558    -0.000432223121    0.136110393313    0.052027240119    -0.000181971163    -0.000348541757    0.117844946648    0.027714300726
            -0.076747519471    0.051745731968    -0.000181971163    -0.000348541757    -0.089371603261    0.067844631255    -0.000211795239    -0.000383192376
            -0.000246215178    -0.000515376975    0.117844956383    0.027714303015    -0.000211795239    -0.000383192376    0.134452093989    0.050878825099
0.750     -0.065250313095    0.110929762732    -0.000320600862    -0.000371474460    -0.061875519337    0.090127636776    -0.000375094698    -0.000444701216
            -0.000320600862    -0.000371474460    0.159817425869    0.041217145506    -0.000269134429    -0.000295880468    0.136739166158    0.020622853206
            -0.061875519337    0.090127636776    -0.000269134429    -0.000295880468    -0.067049564661    0.107958755539    -0.000308405447    -0.000321374784
            -0.000375094698    -0.000444701216    0.136739166158    0.020622853206    -0.000308405447    -0.000321374784    0.157643921715    0.040557190036
0.775     -0.029539006978    0.139222787354    -0.000405978963    -0.000281259634    -0.034344080478    0.120240078649    -0.000476752684    -0.000339384892
            -0.000405978963    -0.000281259634    0.179276715734    0.021314607274    -0.000336053373    -0.000219995132    0.153327213003    0.005784004160
            -0.034344080478    0.120240078649    -0.000336053373    -0.000219995132    -0.032145017629    0.136662112109    -0.000381097899    -0.000233517971
            -0.000476752684    -0.000339384892    0.153327213003    0.005784004160    -0.000381097899    -0.000233517971    0.176816057031    0.021314463946
