# GHz S RI R 45
0.000     0.029485831871    0.001867291038    -0.000000014202    -0.000000093555    0.000944506287    0.001596479334    -0.000000017205    -0.000000097455
            -0.000000014202    -0.000000093555    0.027936763361    0.001523138136    -0.000000000847    -0.000000072233    0.000805808119    0.001354641019
            0.000944506176    0.001596479400    -0.000000000847    -0.000000072233    0.029427511534    0.001855195631    -0.000000003805    -0.000000076272
            -0.000000017205    -0.000000097455    0.000805807851    0.001354640946    -0.000000003805    -0.000000076272    0.027919378157    0.001507424253
0.025     0.036578771343    0.008244868074    -0.000000103965    -0.000000191589    0.004112564648    0.010827867595    -0.000000112100    -0.000000200213
            -0.000000103966    -0.000000191589    0.034379991143    0.006705621801    -0.000000066413    -0.000000155912    0.003518909733    0.009124647190
            0.004110628065    0.010830977476    -0.000000066414    -0.000000155912    0.036504134979    0.008216735461    -0.000000074259    -0.000000164190
            -0.000000112100    -0.000000200213    0.003519127543    0.009123871020    -0.000000074259    -0.000000164192    0.034315720355    0.006643745267
0.050     0.045950942110    0.008043945307    -0.000000314845    -0.000000266370    0.012653847706    0.018246929153    -0.000000332984    -0.000000277073
            -0.000000314845    -0.000000266370    0.042759737228    0.006050961442    -0.000000233584    -0.000000230214    0.010969533089    0.015490381487
            0.012653828145    0.018246968274    -0.000000233584    -0.000000230214    0.045846622143    0.008008483994    -0.000000251248    -0.000000240245
            -0.000000332984    -0.000000277073    0.010969556992    0.015490368236    -0.000000251248    -0.000000240245    0.042658813441    0.005984589593
0.075     0.055028397141    0.001887333843    -0.000000566286    -0.000000196019    0.023977039041    0.019899887116    -0.000000595214    -0.000000201930
            -0.000000566286    -0.000000196019    0.051234887819    0.000343158319    -0.000000443992    -0.000000189524    0.021145473611    0.017051031120
            0.023977032639    0.019899891697    -0.000000443992    -0.000000189524    0.054917297848    0.001880563396    -0.000000472120    -0.000000194523
            -0.000000595214    -0.000000201930    0.021145470818    0.017051036176    -0.000000472120    -0.000000194523    0.051110335001    0.000291454918
0.100     0.061064455341    -0.010048453403    -0.000000782112    0.000000029500    0.034801327070    0.015042408261    -0.000000819406    0.000000034797
            -0.000000782112    0.000000029500    0.057640848949    -0.010513778016    -0.000000635568    -0.000000018723    0.031429028574    0.012991238039
            0.034801327070    0.015042408261    -0.000000635568    -0.000000018723    0.060981658256    -0.010013124698    -0.000000671627    -0.000000012540
            -0.000000819406    0.000000034797    0.031429029271    0.012991238970    -0.000000671627    -0.000000012540    0.057520876592    -0.010526801652
0.125     0.061105525833    -0.026039723582    -0.000000883152    0.000000384266    0.041855113405    0.004518174750    -0.000000923346    0.000000405700
            -0.000000883152    0.000000384266    0.059451319080    -0.025409279749    -0.000000740384    0.000000266609    0.039111479750    0.003711878611
            0.041855113405    0.004518174750    -0.000000740384    0.000000266609    0.061097541729    -0.025968979483    -0.000000779140    0.000000288675
            -0.000000923346    0.000000405700    0.039111479730    0.003711878816    -0.000000779140    0.000000288675    0.059385482613    -0.025375185523
0.150     0.053227195241    -0.043109172006    -0.000000807211    0.000000805505    0.042581744960    -0.009365766788    -0.000000842777    0.000000845314
            -0.000000807211    0.000000805505    0.054833655066    -0.042209133106    -0.000000702440    0.000000617553    0.041902530334    -0.009221311949
            0.042581744960    -0.009365766788    -0.000000702440    0.000000617553    0.053340970268    -0.043035861615    -0.000000736559    0.000000657521
            -0.000000842777    0.000000845314    0.041902530334    -0.009221311949    -0.000000736559    0.000000657521    0.054864129112    -0.042146347270
0.175     0.036969713902    -0.057341696662    -0.000000525871    0.000001204394    0.035683096805    -0.023287858558    -0.000000548257    0.000001261342
            -0.000000525871    0.000001204394    0.042919264621    -0.057894471367    -0.000000493021    0.000000961697    0.038359302675    -0.023346980101
            0.035683097642    -0.023287859105    -0.000000493021    0.000000961697    0.037236562716    -0.057328027211    -0.000000514353    0.000001018361
            -0.000000548257    0.000001261342    0.038359302675    -0.023346980101    -0.000000514353    0.000001018361    0.043088843325    -0.057844434092
0.200     0.013791353055    -0.064818561183    -0.000000054008    0.000001483052    0.021516766157    -0.033536131026    -0.000000055169    0.000001552061
            -0.000000054008    0.000001483052    0.024281469545    -0.069216860804    -0.000000119393    0.000001216651    0.028220192165    -0.035727349271
            0.021516766157    -0.033536131026    -0.000000119393    0.000001216651    0.014211708710    -0.064947390657    -0.000000120192    0.000001285237
            -0.000000055169    0.000001552061    0.028220192165    -0.035727349271    -0.000000120192    0.000001285237    0.024614158350    -0.069246329301
0.225     -0.013086993685    -0.062468611271    0.000000548488    0.000001555323    0.002169082782    -0.036790005560    0.000000574426    0.000001627703
            0.000000548488    0.000001555323    0.000889225227    -0.073316238658    0.000000372724    0.000001308241    0.012527085510    -0.043477057700
            0.002169082782    -0.036790005560    0.000000372724    0.000001308241    -0.012555716509    -0.062826377519    0.000000398287    0.000001380452
            0.000000574426    0.000001627703    0.012527085510    -0.043477057700    0.000000398287    0.000001380452    0.001375100783    -0.073506265942
0.250     -0.039148801801    -0.048860606570    0.000001184624    0.000001366934    -0.018832704960    -0.030920756160    0.000001239753    0.000001431260
            0.000001184624    0.000001366934    -0.024118852153    -0.068307780951    0.000000905917    0.000001187536    -0.006473440943    -0.044328830710
            -0.018832704960    -0.030920756160    0.000000905917    0.000001187536    -0.038592881020    -0.049514967256    0.000000960120    0.000001252232
            0.000001239753    0.000001431260    -0.006473440943    -0.044328830710    0.000000960120    0.000001252232    -0.023529377013    -0.068735117022
0.275     -0.059431268077    -0.024710570856    0.000001738459    0.000000910805    -0.037185917199    -0.015593043962    0.000001819795    0.000000954636
            0.000001738459    0.000000910805    -0.046922707080    -0.053720447783    0.000001386078    0.000000843898    -0.025670699256    -0.037111284434
            -0.037185917199    -0.015593043962    0.000001386078    0.000000843898    -0.058970859854    -0.025687888599    0.000001466124    0.000000888775
            0.000001819795    0.000000954636    -0.025670699256    -0.037111284434    0.000001466124    0.000000888775    -0.046315681849    -0.054438623129
0.300     -0.069582719489    0.007027062136    0.000002097695    0.000000231556    -0.048744661558    0.007500073751    0.000002196685    0.000000243927
            0.000002097695    0.000000231556    -0.063667671691    -0.030733174779    0.000001720740    0.000000308043    -0.041626622503    -0.022060695697
            -0.048744661558    0.007500073751    0.000001720740    0.000000308043    -0.069349939349    0.005757831265    0.000001818201    0.000000322099
            0.000002196685    0.000000243927    -0.041626622503    -0.022060695697    0.000001818201    0.000000322099    -0.063154045302    -0.031755718320
0.325     -0.066863525863    0.041639088789    0.000002176992    -0.000000581098    -0.050462029129    0.034908987218    0.000002280414    -0.000000607227
            0.000002176992    -0.000000581098    -0.071172874375    -0.002080222845    0.000001837356    -0.000000353090    -0.051201655065    -0.000859822604
            -0.050462029129    0.034908987218    0.000001837356    -0.000000353090    -0.066973276869    0.040168982151    0.000001938979    -0.000000376722
            0.000002280414    -0.000000607227    -0.051201655065    -0.000859822604    0.000001938979    -0.000000376722    -0.070868300446    -0.003370105300
0.350     -0.050820271435    0.073564159657    0.000001933484    -0.000001408395    -0.041091208731    0.062133820096    0.000002025563    -0.000001473918
            0.000001933484    -0.000001408395    -0.067560435001    0.028330705053    0.000001694510    -0.000001048512    -0.052158220179    0.023598686326
            -0.041091208731    0.062133820096    0.000001694510    -0.000001048512    -0.051342927037    0.072033302158    0.000001784577    -0.000001110461
            0.000002025563    -0.000001473918    -0.052158220179    0.023598686326    0.000001784577    -0.000001110461    -0.067562642436    0.026860983229
0.375     -0.023403813572    0.097508115046    0.000001374379    -0.000002122907    -0.021422734363    0.084549437147    0.000001439784    -0.000002222020
            0.000001374379    -0.000002122907    -0.052643095386    0.056053379756    0.000001288151    -0.000001677682    -0.043587100098    0.047688831308
            -0.021422734363    0.084549437147    0.000001288151    -0.000001677682    -0.024345475119    0.096081634681    0.000001351597    -0.000001771769
            0.000001439784    -0.000002222019    -0.043587100098    0.047688831308    0.000001351597    -0.000001771769    -0.053009648011    0.054532341163
0.400     0.011420239244    0.109443461916    0.000000554621    -0.000002607354    0.005922005981    0.098286489818    0.000000581378    -0.000002728357
            0.000000554621    -0.000002607354    -0.028021723163    0.076842173923    0.000000650479    -0.000002143252    -0.026098802933    0.067663983493
            0.005922005981    0.098286489818    0.000000650479    -0.000002143252    0.010124359535    0.108282237530    0.000000676040    -0.000002257453
            0.000000581378    -0.000002728357    -0.026098802933    0.067663983493    0.000000676040    -0.000002257453    -0.028754121880    0.075419610665
0.425     0.048429992014    0.107261950230    -0.000000430618    -0.000002771172    0.037026537277    0.100842635145    -0.000000449030    -0.000002898538
            -0.000000430618    -0.000002771172    0.003148475963    0.087344950720    -0.000000152861    -0.000002363205    -0.001731138136    0.080262492181
            0.037026537277    0.100842635145    -0.000000152861    -0.000002363205    0.046909314882    0.106492534390    -0.000000170810    -0.000002482101
            -0.000000449030    -0.000002898538    -0.001731138136    0.080262492181    -0.000000170810    -0.000002482101    0.002111688039    0.086167752622
0.450     0.082019235312    0.091035436516    -0.000001457282    -0.000002560935    0.067330849814    0.091403043417    -0.000001521171    -0.000002677869
            -0.000001457282    -0.000002560935    0.036632217424    0.085637370733    -0.000001028553    -0.000002279430    0.026359212331    0.083220948536
            0.067330849814    0.091403043417    -0.000001028553    -0.000002279430    0.080450141441    0.090725892530    -0.000001089351    -0.000002386912
            -0.000001521171    -0.000002677869    0.026359212331    0.083220948536    -0.000001089351    -0.000002386912    0.035411012179    0.084823042904
0.475     0.107009837520    0.062924599075    -0.000002385562    -0.000001969121    0.092261779705    0.070889256086    -0.000002489313    -0.000002059914
            -0.000002385562    -0.000001969121    0.067738525111    0.071506863996    -0.000001863100    -0.000001867684    0.054357897314    0.075598040516
            0.092261779705    0.070889256086    -0.000001863100    -0.000001867684    0.105590560508    0.063068561559    -0.000001960551    -0.000001949339
            -0.000002489313    -0.000002059914    0.054357897314    0.075598040516    -0.000001960551    -0.000001949339    0.066497607893    0.071121876959
0.500     0.119332879962    0.026873158356    -0.000003073919    -0.000001038183    0.107808805845    0.041861775454    -0.000003207056    -0.000001089898
            -0.000003073919    -0.000001038183    0.091984743451    0.046494108219    -0.000002532469    -0.000001144679    0.078321830706    0.057922559971
            0.107808805845    0.041861775454    -0.000002532469    -0.000001144679    0.118253603153    0.027383434474    -0.000002656296    -0.000001189119
            -0.000003207056    -0.000001089898    0.078321830706    0.057922559971    -0.000002656296    -0.000001189119    0.090911968966    0.046537190741
0.525     0.116564683607    -0.011852446111    -0.000003396760    0.000000136940    0.111038296090    0.008291379197    -0.000003545087    0.000000133271
            -0.000003396760    0.000000136940    0.105707777683    0.013695655259    -0.000002917546    -0.000000175045    0.094700397914    0.032141821273
            0.111038296090    0.008291379197    -0.000002917546    -0.000000175045    0.115976235123    -0.011139912348    -0.000003054564    -0.000000174616
            -0.000003545087    0.000000133271    0.094700397914    0.032141821273    -0.000003054564    -0.000000174616    0.104986659725    0.014091336627
0.550     0.098358114898    -0.047255895987    -0.000003263376    0.000001412028    0.100611434233    -0.024809410899    -0.000003410145    0.000001460960
            -0.000003263376    0.000001412028    0.106574219881    -0.022617424409    -0.000002922337    0.000000928021    0.100826950393    0.001416501362
            0.100611434233    -0.024809410899    -0.000002922337    0.000000928021    0.098340090071    -0.046565392039    -0.000003057398    0.000000977000
            -0.000003410145    0.000001460960    0.100826950393    0.001416501362    -0.000003057398    0.000000977000    0.106354978239    -0.022016117553
0.575     0.066716856109    -0.073370435253    -0.000002641043    0.000002605697    0.077217779785    -0.051971696175    -0.000002767838    0.000002706330
            -0.000002641043    0.000002605697    0.093930005720    -0.057529634329    -0.000002497767    0.000002010265    0.095308460097    -0.030241830444
            0.077217779785    -0.051971696175    -0.000002497767    0.000002010265    0.067252828942    -0.072956975914    -0.000002614367    0.000002106971
            -0.000002767838    0.000002706330    0.095308460097    -0.030241830444    -0.000002614367    0.000002106971    0.094302290846    -0.056926582333
0.600     0.026016484862    -0.085214732761    -0.000001572808    0.000003522752    0.043825493141    -0.068138116195    -0.000001661045    0.000003667790
            -0.000001572808    0.000003522752    0.068968587426    -0.086119870052    -0.000001661098    0.000002896435    0.078307825821    -0.058467806243
            0.043825493141    -0.068138116195    -0.000001661098    0.000002896435    0.026980113947    -0.085321225480    -0.000001742295    0.000003034536
            -0.000001661045    0.000003667790    0.078307825821    -0.058467806243    -0.000001742295    0.000003034536    0.069939796047    -0.085749999394
0.625     -0.017419119095    -0.079830509800    -0.000000185658    0.000003990892    0.005497301914    -0.069702085971    -0.000000218817    0.000004165863
            -0.000000185658    0.000003990892    0.034663599834    -0.104142190576    -0.000000507199    0.000003423749    0.051625350149    -0.079133352391
            0.005497301914    -0.069702085971    -0.000000507199    0.000003423749    -0.016257028267    -0.080638660034    -0.000000537489    0.000003590340
            -0.000000218817    0.000004165863    0.051625350149    -0.079133352391    -0.000000537489    0.000003590340    0.036147378900    -0.104238894456
0.650     -0.056301043409    -0.057156469507    0.000001322929    0.000003899917    -0.031369150883    -0.055496234742    0.000001355992    0.000004083386
            0.000001322929    0.000003899917    -0.004555623734    -0.108684595133    0.000000801289    0.000003478893    0.018558646614    -0.088986787951
            -0.031369150883    -0.055496234742    0.000000801289    0.000003478893    -0.055239964588    -0.058740564387    0.000000832748    0.000003654291
            0.000001355992    0.000004083386    0.018558646614    -0.088986787951    0.000000832748    0.000003654291    -0.002735229299    -0.109440454743
0.675     -0.083815289641    -0.020338273850    0.000002720110    0.000003233753    -0.060322120341    -0.027285788167    0.000002821523    0.000003399485
            0.000002720110    0.000003233753    -0.043384568085    -0.098677222193    0.000002063929    0.000003029211    -0.016507836372    -0.086204539186
            -0.060322120341    -0.027285788167    0.000002063929    0.000003029211    -0.083171608562    -0.022638834845    0.000002159494    0.000003188876
            0.000002821523    0.000003399485    -0.016507836372    -0.086204539186    0.000002159494    0.000003188876    -0.041473960580    -0.100209155627
0.700     -0.095137521607    0.024777390034    0.000003786072    0.000002076733    -0.076309410189    0.010490268834    0.000003946591    0.000002198130
            0.000003786072    0.000002076733    -0.076425015965    -0.075149182044    0.000003085339    0.000002130113    -0.048740678264    -0.070766911619
            -0.076309410189    0.010490268834    0.000003085339    0.000002130113    -0.095181378493    0.021950976984    0.000003236712    0.000002248849
            0.000003946591    0.000002198130    -0.048740678264    -0.070766911619    0.000003236712    0.000002248849    -0.074707170214    -0.077472623075
0.725     -0.088470069058    0.070908926209    0.000004359464    0.000000594513    -0.076747519471    0.051745731968    0.000004558872    0.000000650089
            0.000004359464    0.000000594513    -0.099030577419    -0.041132785742    0.000003715904    0.000000910080    -0.073611569316    -0.044513208104
            -0.076747519471    0.051745731968    0.000003715904    0.000000910080    -0.089371603261    0.067844631255    0.000003904063    0.000000967445
            0.000004558872    0.000000650089    -0.073611569316    -0.044513208104    0.000003904063    0.000000967445    -0.097781380450    -0.044152163990
0.750     -0.065250313095    0.110929762732    0.000004361289    -0.000001004715    -0.061875519337    0.090127636776    0.000004571594    -0.000001026388
            0.000004361289    -0.000001004715    -0.108056973637    -0.001210170390    0.000003872772    -0.000000462686    -0.087632201965    -0.010876852386
            -0.061875519337    0.090127636776    0.000003872772    -0.000000462686    -0.067049564661    0.107958755539    0.000004071176    -0.000000477406
            0.000004571594    -0.000001026388    -0.087632201965    -0.010876852386    0.000004071176    -0.000000477406    -0.107500944873    -0.004729234560
0.775     -0.029539006978    0.139222787354    0.000003797530    -0.000002510288    -0.034344080478    0.120240078649    0.000003988378    -0.000002608331
            0.000003797530    -0.000002510288    -0.102341882712    0.039215622282    0.000003542524    -0.000001813388    -0.088877128627    0.025673819613
            -0.034344080478    0.120240078649    0.000003542524    -0.000001813388    -0.032145017629    0.136662112109    0.000003722546    -0.000001898929
