# GHz S RI R 45
0.000     0.029485831871    0.001867291038    0.000000576062    0.000001128887    0.000944506287    0.001596479334    0.000000648712    0.000001256947
            0.000000576062    0.000001128887    0.028832354214    0.001698520575    0.000000656885    0.000001260789    0.000886031560    0.001432049821
            0.000944506176    0.001596479400    0.000000656883    0.000001260789    0.029427511534    0.001855195631    0.000000745402    0.000001416036
            0.000000648713    0.000001256947    0.000886032167    0.001432049798    0.000000745413    0.000001416036    0.028761986538    0.001712737277
0.025     0.036578771343    0.008244868074    0.000001755619    0.000002075378    0.004112564648    0.010827867595    0.000001962458    0.000002311555
            0.000001755619    0.000002075378    0.035383490791    0.007358734236    0.000001975011    0.000002316531    0.003742200270    0.009818488470
            0.004110628065    0.010830977476    0.000001975011    0.000002316531    0.036504134979    0.008216735461    0.000002226451    0.000002601846
            0.000001962458    0.000002311554    0.003739702655    0.009817274196    0.000002226454    0.000002601850    0.035325661236    0.007371018489
0.050     0.045950942110    0.008043945307    0.000004200970    0.000002567300    0.012653847706    0.018246929153    0.000004682913    0.000002860356
            0.000004200970    0.000002567300    0.044073836119    0.006929678703    0.000004701493    0.000002864023    0.011511997171    0.016676578722
            0.012653828145    0.018246968274    0.000004701493    0.000002864023    0.045846622143    0.008008483994    0.000005285654    0.000003217224
            0.000004682913    0.000002860356    0.011511976688    0.016676577065    0.000005285654    0.000003217224    0.044064360423    0.006959545578
0.075     0.055028397141    0.001887333843    0.000006874324    0.000001321622    0.023977039041    0.019899887116    0.000007657005    0.000001481184
            0.000006874324    0.000001321622    0.052664707586    0.001160717495    0.000007679459    0.000001479341    0.022014498348    0.018428809630
            0.023977032639    0.019899891697    0.000007679459    0.000001479341    0.054917297848    0.001880563396    0.000008627019    0.000001671106
            0.000007657005    0.000001481184    0.022014492312    0.018428813725    0.000008627019    0.000001671106    0.052724331058    0.001189040928
0.100     0.061064455341    -0.010048453403    0.000008859714    -0.000001613628    0.034801327070    0.015042408261    0.000009873184    -0.000001773804
            0.000008859714    -0.000001613628    0.058817248435    -0.009933157872    0.000009895905    -0.000001782987    0.032417954335    0.014292358114
            0.034801327070    0.015042408261    0.000009895905    -0.000001782987    0.060981658256    -0.010013124698    0.000011123281    -0.000001977136
            0.000009873184    -0.000001773804    0.032417954335    0.014292358114    0.000011123281    -0.000001977136    0.058969859065    -0.009939097002
0.125     0.061105525833    -0.026039723582    0.000009295994    -0.000005782913    0.041855113405    0.004518174750    0.000010377001    -0.000006404337
            0.000009295994    -0.000005782913    0.059883403503    -0.025021736201    0.000010396116    -0.000006420662    0.039840447602    0.004812505552
            0.041855113405    0.004518174750    0.000010396116    -0.000006420662    0.061097541729    -0.025968979483    0.000011707478    -0.000007172112
            0.000010377001    -0.000006404337    0.039840447602    0.004812505552    0.000011707478    -0.000007172112    0.060141150124    -0.025105298573
0.150     0.053227195241    -0.043109172006    0.000007617857    -0.000010334505    0.042581744960    -0.009365766788    0.000008538626    -0.000011470584
            0.000007617857    -0.000010334505    0.053996298035    -0.041689650614    0.000008551363    -0.000011491864    0.041909907766    -0.008209286719
            0.042581744960    -0.009365766788    0.000008551363    -0.000011491864    0.053340970268    -0.043035861615    0.000009672937    -0.000012866487
            0.000008538626    -0.000011470584    0.041909907766    -0.008209286719    0.000009672937    -0.000012866487    0.054349600720    -0.041905638092
0.175     0.036969713902    -0.057341696662    0.000003682913    -0.000014209708    0.035683096805    -0.023287858558    0.000004194183    -0.000015802460
            0.000003682913    -0.000014209708    0.040446931709    -0.056609663332    0.000004199429    -0.000015826012    0.037231331066    -0.022037573337
            0.035683097642    -0.023287859105    0.000004199429    -0.000015826012    0.037236562716    -0.057328027211    0.000004830697    -0.000017756048
            0.000004194183    -0.000015802460    0.037231331066    -0.022037573337    0.000004830697    -0.000017756048    0.040863522295    -0.057009853116
0.200     0.013791353055    -0.064818561183    -0.000002136808    -0.000016325617    0.021516766157    -0.033536131026    -0.000002252857    -0.000018199886
            -0.000002136808    -0.000016325617    0.020117257155    -0.066308072796    -0.000002254994    -0.000018223886    0.025737653986    -0.033483778005
            0.021516766157    -0.033536131026    -0.000002254994    -0.000018223886    0.014211708710    -0.064947390657    -0.000002377587    -0.000020501050
            -0.000002252857    -0.000018199886    0.025737653986    -0.033483778005    -0.000002377587    -0.000020501050    0.020540844190    -0.066933183096
0.225     -0.013086993685    -0.062468611271    -0.000008967002    -0.000015814623    0.002169082782    -0.036790005560    -0.000009843748    -0.000017696734
            -0.000008967002    -0.000015814623    -0.004595348188    -0.067848388380    -0.000009853409    -0.000017720648    0.008803602117    -0.039510762509
            0.002169082782    -0.036790005560    -0.000009853409    -0.000017720648    -0.012555716509    -0.062826377519    -0.000010893545    -0.000020018007
            -0.000009843748    -0.000017696735    0.008803602806    -0.039510762355    -0.000010893545    -0.000020018007    -0.004242857385    -0.068717157564
0.250     -0.039148801801    -0.048860606570    -0.000015548513    -0.000012269058    -0.018832704960    -0.030920756160    -0.000017192080    -0.000013830199
            -0.000015548513    -0.000012269058    -0.030073140613    -0.059486371686    -0.000017211088    -0.000013853582    -0.010903556548    -0.037875928247
            -0.018832704960    -0.030920756160    -0.000017211088    -0.000013853582    -0.038592881020    -0.049514967256    -0.000019181431    -0.000015776634
            -0.000017192080    -0.000013830199    -0.010903556548    -0.037875928247    -0.000019181431    -0.000015776634    -0.029881557161    -0.060583620792
0.275     -0.059431268077    -0.024710570856    -0.000020487443    -0.000005904837    -0.037185917199    -0.015593043962    -0.000022757018    -0.000006821835
            -0.000020487443    -0.000005904837    -0.052078536382    -0.041140618378    -0.000022788734    -0.000006841990    -0.029861490072    -0.027659198049
            -0.037185917199    -0.015593043962    -0.000022788734    -0.000006841990    -0.058970859854    -0.025687888599    -0.000025526706    -0.000008000265
            -0.000022757018    -0.000006821835    -0.029861490072    -0.027659198049    -0.000025526706    -0.000008000265    -0.052134465835    -0.042411063947
0.300     -0.069582719489    0.007027062136    -0.000022582175    0.000002407881    -0.048744661558    0.007500073751    -0.000025200172    0.000002385361
            -0.000022582175    0.000002407881    -0.066538932833    -0.014596738147    -0.000025247420    0.000002375074    -0.044357598382    -0.009567261777
            -0.048744661558    0.007500073751    -0.000025247420    0.000002375074    -0.069349939349    0.005757831265    -0.000028426036    0.000002288957
            -0.000025200172    0.000002385361    -0.044357598382    -0.009567261777    -0.000028426036    0.000002288957    -0.066906989190    -0.015945441288
0.325     -0.066863525863    0.041639088789    -0.000021129663    0.000011306869    -0.050462029129    0.034908987218    -0.000023723233    0.000012300192
            -0.000021129663    0.000011306869    -0.070367985067    0.016700735023    -0.000023783901    0.000012309956    -0.051233116953    0.014113413835
            -0.050462029129    0.034908987218    -0.000023783901    0.000012309956    -0.066973276869    0.040168982151    -0.000026958471    0.000013452585
            -0.000023723233    0.000012300192    -0.051233116953    0.014113413835    -0.000026958471    0.000013452585    -0.071072274725    0.015398223164
0.350     -0.050820271435    0.073564159657    -0.000016109816    0.000019239015    -0.041091208731    0.062133820096    -0.000018274070    0.000021208552
            -0.000016109816    0.000019239015    -0.062136763194    0.048206309053    -0.000018338692    0.000021248023    -0.048542853282    0.039904816838
            -0.041091208731    0.062133820096    -0.000018338692    0.000021248023    -0.051342927037    0.072033302158    -0.000021019682    0.000023585103
            -0.000018274070    0.000021208552    -0.048542853282    0.039904816838    -0.000021019682    0.000023585103    -0.063147971912    0.047085577248
0.375     -0.023403813572    0.097508115046    -0.000008172161    0.000024804297    -0.021422734363    0.084549437147    -0.000009539457    0.000027549568
            -0.000008172161    0.000024804297    -0.042394058622    0.075088399267    -0.000009591775    0.000027621617    -0.035941394305    0.063777708539
            -0.021422734363    0.084549437147    -0.000009591775    0.000027621617    -0.024345475119    0.096081634681    -0.000011327082    0.000030924023
            -0.000009539457    0.000027549568    -0.035941394305    0.063777708539    -0.000011327082    0.000030924023    -0.043625520030    0.074272544709
0.400     0.011420239244    0.109443461916    0.000001535501    0.000027022920    0.005922005981    0.098286489818    0.000001234618    0.000030210802
            0.000001535501    0.000027022920    -0.013606601970    0.093088024573    0.000001211663    0.000030307832    -0.014747990400    0.081880932954
            0.005922005981    0.098286489818    0.000001211663    0.000030307832    0.010124359535    0.108282237530    0.000000762316    0.000034181087
            0.000001234618    0.000030210802    -0.014747990400    0.081880932954    0.000000762316    0.000034181087    -0.014921324907    0.092663225878
0.425     0.048429992014    0.107261950230    0.000011619565    0.000025456623    0.037026537277    0.100842635145    0.000012514620    0.000028669092
            0.000011619565    0.000025456623    0.020268150821    0.099227164820    0.000012531525    0.000028773499    0.012308388126    0.091172510495
            0.037026537277    0.100842635145    0.000012531525    0.000028773499    0.046909314882    0.106492534390    0.000013542325    0.000032712244
            0.000012514620    0.000028669092    0.012308388126    0.091172510495    0.000013542325    0.000032712244    0.019041482859    0.099223144915
0.450     0.082019235312    0.091035436516    0.000020670105    0.000020205336    0.067330849814    0.091403043417    0.000022730139    0.000022995929
            0.000020670105    0.000020205336    0.054419943323    0.092260807360    0.000022785376    0.000023086428    0.041537141560    0.089873900843
            0.067330849814    0.091403043417    0.000022785376    0.000023086428    0.080450141441    0.090725892530    0.000025234684    0.000026542031
            0.000022730139    0.000022995929    0.041537141560    0.089873900843    0.000025234684    0.000026542031    0.053463108632    0.092638753611
0.475     0.107009837520    0.062924599075    0.000027422110    0.000011827337    0.092261779705    0.070889256086    0.000030454925    0.000013777840
            0.000027422110    0.000011827337    0.083899699238    0.072823222090    0.000030534347    0.000013837808    0.068822123089    0.077686954953
            0.092261779705    0.070889256086    0.000030534347    0.000013837808    0.105590560508    0.063068561559    0.000034199459    0.000016289636
            0.000030454925    0.000013777840    0.068822123089    0.077686954953    0.000034199459    0.000016289636    0.083378286072    0.073472735146
0.500     0.119332879962    0.026873158356    0.000030854433    0.000001257251    0.107808805845    0.041861775454    0.000034521864    0.000002031537
            0.000030854433    0.000001257251    0.104297114856    0.043330090054    0.000034604884    0.000002056689    0.090165281455    0.055839430576
            0.107808805845    0.041861775454    0.000034604884    0.000002056689    0.118253603153    0.027383434474    0.000039078860    0.000003081320
            0.000034521864    0.000002031537    0.090165281455    0.055839430576    0.000039078860    0.000003081320    0.104333210045    0.044076571254
0.525     0.116564683607    -0.011852446111    0.000030263758    -0.000010259458    0.111038296090    0.008291379197    0.000034111618    -0.000010866508
            0.000030263758    -0.000010259458    0.112315264781    0.007677306184    0.000034180712    -0.000010866826    0.102186155094    0.026963335674
            0.111038296090    0.008291379197    0.000034180712    -0.000010866826    0.115976235123    -0.011139912348    0.000038909825    -0.000011532606
            0.000034111618    -0.000010866508    0.102186155094    0.026963335674    0.000038909825    -0.000011532606    0.112963330817    0.008298466730
0.550     0.098358114898    -0.047255895987    0.000025364686    -0.000021225165    0.100611434233    -0.024809410899    0.000028869711    -0.000023245622
            0.000025364686    -0.000021225165    0.106236548717    -0.029206815688    0.000028919377    -0.000023254113    0.102598322100    -0.005151100006
            0.100611434233    -0.024809410899    0.000028919377    -0.000023254113    0.098340090071    -0.046565392039    0.000033262036    -0.000025660718
            0.000028869711    -0.000023245622    0.102598322100    -0.005151100006    0.000033262036    -0.000025660718    0.107464581614    -0.028955547801
0.575     0.066716856109    -0.073370435253    0.000016419395    -0.000029996227    0.077217779785    -0.051971696175    0.000019053828    -0.000033261173
            0.000016419395    -0.000029996227    0.086241333660    -0.061945173491    0.000019093072    -0.000033263688    0.090606465410    -0.035956630314
            0.077217779785    -0.051971696175    0.000019093072    -0.000033263688    0.067252828942    -0.072956975914    0.000022400506    -0.000037214668
            0.000019053828    -0.000033261173    0.090606465410    -0.035956630314    0.000022400506    -0.000037214668    0.087921265610    -0.062296407417
0.600     0.026016484862    -0.085214732761    0.000004366077    -0.000034996274    0.043825493141    -0.068138116195    0.000005679055    -0.000039131834
            0.000004366077    -0.000034996274    0.054550830735    -0.085424379775    0.000005724607    -0.000039127928    0.067206033026    -0.060726252468
            0.043825493141    -0.068138116195    0.000005724607    -0.000039127928    0.026980113947    -0.085321225480    0.000007439746    -0.000044177548
            0.000005679055    -0.000039131834    0.067206033026    -0.060726252468    0.000007439746    -0.000044177548    0.056461767815    -0.086559894737
0.625     -0.017419119095    -0.079830509800    -0.000009160779    -0.000035045001    0.005497301914    -0.069702085971    -0.000009456847    -0.000039505829
            -0.000009160779    -0.000035045001    0.015298921613    -0.095586060087    -0.000009393991    -0.000039511583    0.035244764513    -0.075274934334
            0.005497301914    -0.069702085971    -0.000009393991    -0.000039511583    -0.016257028267    -0.080638660034    -0.000009633725    -0.000045005064
            -0.000009456847    -0.000039505829    0.035244764513    -0.075274934334    -0.000009633725    -0.000045005064    0.017148186306    -0.097598241062
0.650     -0.056301043409    -0.057156469507    -0.000022018603    -0.000029735350    -0.031369150883    -0.055496234742    -0.000023976439    -0.000033881066
            -0.000022018603    -0.000029735350    -0.025939734267    -0.090202001302    -0.000023904067    -0.000033919785    -0.000839634056    -0.076755468726
            -0.031369150883    -0.055496234742    -0.000023904067    -0.000033919785    -0.055239964588    -0.058740564387    -0.000026182270    -0.000039083481
            -0.000023976439    -0.000033881066    -0.000839634056    -0.076755468726    -0.000026182270    -0.000039083481    -0.024477948504    -0.093063276834
0.675     -0.083815289641    -0.020338273850    -0.000031987252    -0.000019680697    -0.060322120341    -0.027285788167    -0.000035394693    -0.000022884965
            -0.000031987252    -0.000019680697    -0.062982183277    -0.069425329097    -0.000035341015    -0.000022969565    -0.035670251322    -0.064300329007
            -0.060322120341    -0.027285788167    -0.000035341015    -0.000022969565    -0.083171608562    -0.022638834845    -0.000039424736    -0.000027037444
            -0.000035394693    -0.000022884965    -0.035670251322    -0.064300329007    -0.000039424736    -0.000027037444    -0.062214946044    -0.072976395343
0.700     -0.095137521607    0.024777390034    -0.000037324896    -0.000006470283    -0.076309410189    0.010490268834    -0.000041731805    -0.000008237206
            -0.000037324896    -0.000006470283    -0.090119948026    -0.035926867733    -0.000041732504    -0.000008355279    -0.063883609569    -0.039327792011
            -0.076309410189    0.010490268834    -0.000041732504    -0.000008355279    -0.095181378493    0.021950976984    -0.000047099344    -0.000010705541
            -0.000041731805    -0.000008237206    -0.063883609569    -0.039327792011    -0.000047099344    -0.000010705541    -0.090278510989    -0.039890090188
0.725     -0.088470069058    0.070908926209    -0.000037207723    0.000007711383    -0.076747519471    0.051745731968    -0.000042006057    0.000007659146
            -0.000037207723    0.000007711383    -0.103183738969    0.005513169718    -0.000042083028    0.000007545759    -0.081136309240    -0.005326402470
            -0.076747519471    0.051745731968    -0.000042083028    0.000007545759    -0.089371603261    0.067844631255    -0.000048008271    0.000007283659
            -0.000042006057    0.000007659146    -0.081136309240    -0.005326402470    -0.000048008271    0.000007283659    -0.104377646043    0.001495563438
0.750     -0.065250313095    0.110929762732    -0.000031862764    0.000020642296    -0.061875519337    0.090127636776    -0.000036395177    0.000022325551
            -0.000031862764    0.000020642296    -0.100304639459    0.048887302635    -0.000036540303    0.000022265134    -0.084900586767    0.032816994185
            -0.061875519337    0.090127636776    -0.000036540303    0.000022265134    -0.067049564661    0.107958755539    -0.000042220813    0.000024156764
            -0.000036395177    0.000022325551    -0.084900586767    0.032816994185    -0.000042220813    0.000024156764    -0.102496260607    0.045195831049
0.775     -0.029539006978    0.139222787354    -0.000022360186    0.000030549732    -0.034344080478    0.120240078649    -0.000026024895    0.000033748384
            -0.000022360186    0.000030549732    -0.082147933286    0.088071945528    -0.000026199313    0.000033775817    -0.074795452695    0.069755576315
            -0.034344080478    0.120240078649    -0.000026199313    0.000033775817    -0.032145017629    0.136662112109    -0.000030877398    0.000037589396
