# GHz S RI R 45
0.000     0.029485831871    0.001867291038    0.000000425363    0.000000931359    0.000944506287    0.001596479334    0.000000447588    0.000001006418
            0.000000425359    0.000000931358    0.028472392027    0.001861381095    0.000000472642    0.000001014401    0.000881908695    0.001593565576
            0.000944506176    0.001596479400    0.000000472650    0.000001014402    0.029427511534    0.001855195631    0.000000485841    0.000001100031
            0.000000447628    0.000001006418    0.000881908536    0.001593565550    0.000000485828    0.000001100031    0.028424419152    0.001869863072
0.025     0.036578771343    0.008244868074    0.000001367860    0.000001779597    0.004112564648    0.010827867595    0.000001462039    0.000001898733
            0.000001367859    0.000001779590    0.035156139692    0.007586001795    0.000001499719    0.000001986088    0.003841089656    0.009905086155
            0.004110628065    0.010830977476    0.000001499719    0.000001986093    0.036504134979    0.008216735461    0.000001588519    0.000002060671
            0.000001462040    0.000001898732    0.003839867797    0.009905008622    0.000001588522    0.000002060673    0.035092453196    0.007567561130
0.050     0.045950942110    0.008043945307    0.000003401431    0.000002336459    0.012653847706    0.018246929153    0.000003649845    0.000002482695
            0.000003401431    0.000002336459    0.044228917932    0.007266211448    0.000003710752    0.000002639970    0.011908302847    0.016731871294
            0.012653828145    0.018246968274    0.000003710752    0.000002639970    0.045846622143    0.008008483994    0.000003970844    0.000002693727
            0.000003649845    0.000002482695    0.011908299626    0.016731876041    0.000003970844    0.000002693727    0.044188664567    0.007268857543
0.075     0.055028397141    0.001887333843    0.000005726853    0.000001446084    0.023977039041    0.019899887116    0.000006157391    0.000001513954
            0.000005726853    0.000001446084    0.053347985481    0.001377587067    0.000006239705    0.000001726647    0.022811078035    0.018275447077
            0.023977032639    0.019899891697    0.000006239705    0.000001726647    0.054917297848    0.001880563396    0.000006705481    0.000001639325
            0.000006157391    0.000001513954    0.022811030510    0.018275431226    0.000006705481    0.000001639325    0.053366917983    0.001381333380
0.100     0.061064455341    -0.010048453403    0.000007558508    -0.000000908884    0.034801327070    0.015042408261    0.000008144176    -0.000001031269
            0.000007558508    -0.000000908884    0.060081894249    -0.010107207558    0.000008239964    -0.000000771967    0.033641563843    0.013705543107
            0.034801327070    0.015042408261    0.000008239964    -0.000000771967    0.060981658256    -0.010013124698    0.000008882300    -0.000001129711
            0.000008144176    -0.000001031269    0.033641564769    0.013705543484    0.000008882300    -0.000001129711    0.060189633340    -0.010128014412
0.125     0.061105525833    -0.026039723582    0.000008146092    -0.000004385775    0.041855113405    0.004518174750    0.000008803838    -0.000004792400
            0.000008146092    -0.000004385775    0.061671966050    -0.025926121032    0.000008903224    -0.000004489429    0.041416345232    0.003557266011
            0.041855113405    0.004518174750    0.000008903224    -0.000004489429    0.061097541729    -0.025968979483    0.000009627584    -0.000005227812
            0.000008803838    -0.000004792400    0.041416345232    0.003557266011    0.000009627584    -0.000005227812    0.061889360939    -0.026011719057
0.150     0.053227195241    -0.043109172006    0.000006970321    -0.000008296277    0.042581744960    -0.009365766788    0.000007573681    -0.000009036836
            0.000006970321    -0.000008296277    0.056107346781    -0.043529573124    0.000007667374    -0.000008687897    0.043663367250    -0.010339043591
            0.042581744960    -0.009365766788    0.000007667374    -0.000008687897    0.053340970268    -0.043035861615    0.000008327845    -0.000009866951
            0.000007573681    -0.000009036836    0.043663367250    -0.010339043591    0.000008327845    -0.000009866951    0.056439651182    -0.043728797878
0.175     0.036969713902    -0.057341696662    0.000003858216    -0.000011756858    0.035683096805    -0.023287858558    0.000004259171    -0.000012820121
            0.000003858216    -0.000011756858    0.042617402517    -0.059583167528    0.000004339795    -0.000012419821    0.038898323060    -0.025179171471
            0.035683097642    -0.023287859105    0.000004339795    -0.000012419821    0.037236562716    -0.057328027211    0.000004764186    -0.000014029586
            0.000004259171    -0.000012820121    0.038898323060    -0.025179171471    0.000004764186    -0.000014029586    0.043048522144    -0.059952834980
0.200     0.013791353055    -0.064818561183    -0.000000933996    -0.000013840211    0.021516766157    -0.033536131026    -0.000000875860    -0.000015147223
            -0.000000933996    -0.000013840211    0.021977516310    -0.070527342748    -0.000000814202    -0.000014687258    0.026992839629    -0.037673571690
            0.021516766157    -0.033536131026    -0.000000814202    -0.000014687258    0.014211708710    -0.064947390657    -0.000000790597    -0.000016639405
            -0.000000875860    -0.000015147223    0.026992839629    -0.037673571690    -0.000000790597    -0.000016639405    0.022465739959    -0.071120839561
0.225     -0.013086993685    -0.062468611271    -0.000006721046    -0.000013774297    0.002169082782    -0.036790005560    -0.000007108503    -0.000015183851
            -0.000006721046    -0.000013774297    -0.003480216293    -0.073275711442    -0.000007069618    -0.000014652666    0.009296465568    -0.044660451608
            0.002169082782    -0.036790005560    -0.000007069618    -0.000014652666    -0.012555716509    -0.062826377519    -0.000007569281    -0.000016786576
            -0.000007108503    -0.000015183851    0.009296465568    -0.044660451608    -0.000007569281    -0.000016786576    -0.003002463170    -0.074131488243
0.250     -0.039148801801    -0.048860606570    -0.000012474844    -0.000011148502    -0.018832704960    -0.030920756160    -0.000013346471    -0.000012477322
            -0.000012474844    -0.000011148502    -0.030135322038    -0.065905323403    -0.000013330171    -0.000011859695    -0.011503941488    -0.043759514831
            -0.018832704960    -0.030920756160    -0.000013330171    -0.000011859695    -0.038592881020    -0.049514967256    -0.000014402826    -0.000013965238
            -0.000013346471    -0.000012477322    -0.011503941488    -0.043759514831    -0.000014402826    -0.000013965238    -0.029755539337    -0.067033512697
0.275     -0.059431268077    -0.024710570856    -0.000017020562    -0.000006061483    -0.037185917199    -0.015593043962    -0.000018335134    -0.000007114421
            -0.000017020562    -0.000006061483    -0.053675963579    -0.048154634195    -0.000018334049    -0.000006392148    -0.031812692329    -0.033912583137
            -0.037185917199    -0.015593043962    -0.000018334049    -0.000006392148    -0.058970859854    -0.025687888599    -0.000019938518    -0.000008243817
            -0.000018335134    -0.000007114421    -0.031812692329    -0.033912583137    -0.000019938518    -0.000008243817    -0.053488578381    -0.049527394602
0.300     -0.069582719489    0.007027062136    -0.000019304030    0.000000834913    -0.048744661558    0.007500073751    -0.000020939769    0.000000229417
            -0.000019304030    0.000000834913    -0.069879461268    -0.021655660014    -0.000020936477    0.000001073122    -0.047784873764    -0.015710294127
            -0.048744661558    0.007500073751    -0.000020936477    0.000001073122    -0.069349939349    0.005757831265    -0.000022939076    -0.000000323843
            -0.000020939769    0.000000229417    -0.047784873764    -0.015710294127    -0.000022939076    -0.000000323843    -0.069968786269    -0.023202813909
0.325     -0.066863525863    0.041639088789    -0.000018653107    0.000008449463    -0.050462029129    0.034908987218    -0.000020422587    0.000008406710
            -0.000018653107    0.000008449463    -0.075440644841    0.010243244907    -0.000020389700    0.000009381275    -0.056072473962    0.008627824532
            -0.050462029129    0.034908987218    -0.000020389700    0.000009381275    -0.066973276869    0.040168982151    -0.000022579827    0.000008578079
            -0.000020422587    0.000008406710    -0.056072473962    0.008627824532    -0.000022579827    0.000008578079    -0.075861077119    0.008628672473
0.350     -0.050820271435    0.073564159657    -0.000014951446    0.000015488295    -0.041091208731    0.062133820096    -0.000016628998    0.000016044230
            -0.000014951446    0.000015488295    -0.068666306166    0.042999294233    -0.000016533339    0.000017145183    -0.054506909247    0.035609668748
            -0.041091208731    0.062133820096    -0.000016533339    0.000017145183    -0.051342927037    0.072033302158    -0.000018653691    0.000016985727
            -0.000016628998    0.000016044230    -0.054506909247    0.035609668748    -0.000018653691    0.000016985727    -0.069425921422    0.041447289077
0.375     -0.023403813572    0.097508115046    -0.000008650078    0.000020740645    -0.021422734363    0.084549437147    -0.000010005760    0.000021842358
            -0.000008650078    0.000020740645    -0.049839298915    0.071668001456    -0.000009816798    0.000023048417    -0.042522569649    0.061093000756
            -0.021422734363    0.084549437147    -0.000009816798    0.000023048417    -0.024345475119    0.096081634681    -0.000011600737    0.000023481087
            -0.000010005760    0.000021842358    -0.042522569649    0.061093000756    -0.000011600737    0.000023481087    -0.050891173084    0.070310580291
0.400     0.011420239244    0.109443461916    -0.000000644596    0.000023315546    0.005922005981    0.098286489818    -0.000001477952    0.000024825685
            -0.000000644596    0.000023315546    -0.021215642850    0.091765116221    -0.000001177377    0.000026101222    -0.021272258180    0.081020094635
            0.005922005981    0.098286489818    -0.000001177377    0.000026101222    0.010124359535    0.108282237530    -0.000002387925    0.000026975614
            -0.000001477952    0.000024825685    -0.021272258180    0.081020094635    -0.000002387925    0.000026975614    -0.022458747678    0.090712481149
0.425     0.048429992014    0.107261950230    0.000007930252    0.000022761004    0.037026537277    0.100842635145    0.000007761716    0.000024473610
            0.000007930252    0.000022761004    0.013355271545    0.100006573061    0.000008172969    0.000025776714    0.006588207225    0.092078994366
            0.037026537277    0.100842635145    0.000008172969    0.000025776714    0.046909314882    0.106492534390    0.000007709184    0.000026859506
            0.000007761716    0.000024473610    0.006588207225    0.092078994366    0.000007709184    0.000026859506    0.012064943209    0.099325657567
0.450     0.082019235312    0.091035436516    0.000015897269    0.000019077056    0.067330849814    0.091403043417    0.000016456682    0.000020741330
            0.000015897269    0.000019077056    0.049041244815    0.094814799962    0.000016957226    0.000022035123    0.037328036465    0.092207427313
            0.067330849814    0.091403043417    0.000016957226    0.000022035123    0.080450141441    0.090725892530    0.000017323427    0.000023036232
            0.000016456682    0.000020741330    0.037328036465    0.092207427313    0.000017323427    0.000023036232    0.047872087257    0.094512993156
0.475     0.107009837520    0.062924599075    0.000022180529    0.000012653264    0.092261779705    0.070889256086    0.000023439617    0.000014002268
            0.000022180529    0.000012653264    0.080745102071    0.076518945340    0.000023992576    0.000015264693    0.066685908209    0.080856538858
            0.092261779705    0.070889256086    0.000023992576    0.000015264693    0.105590560508    0.063068561559    0.000025164933    0.000015870394
            0.000023439617    0.000014002268    0.066685908209    0.080856538858    0.000025164933    0.000015870394    0.079865270082    0.076537428117
0.500     0.119332879962    0.026873158356    0.000025894737    0.000004198373    0.107808805845    0.041861775454    0.000027729996    0.000004980558
            0.000025894737    0.000004198373    0.103807613449    0.047303572991    0.000028293280    0.000006210853    0.090440866712    0.059072412731
            0.107808805845    0.041861775454    0.000028293280    0.000006210853    0.118253603153    0.027383434474    0.000030134528    0.000006121618
            0.000027729996    0.000004980558    0.090440866712    0.059072412731    0.000030134528    0.000006121618    0.103360097692    0.047518039727
0.525     0.116564683607    -0.011852446111    0.000026402426    -0.000005321136    0.111038296090    0.008291379197    0.000028601229    -0.000005308847
            0.000026402426    -0.000005321136    0.114618449443    0.010929560542    0.000029138961    -0.000004091069    0.104944162981    0.029387750288
            0.111038296090    0.008291379197    0.000029138961    -0.000004091069    0.115976235123    -0.011139912348    0.000031404222    -0.000005120697
            0.000028601229    -0.000005308847    0.104944162981    0.029387750288    0.000031404222    -0.000005120697    0.114696607888    0.011160992542
0.550     0.098358114898    -0.047255895987    0.000023387374    -0.000014728290    0.100611434233    -0.024809410899    0.000025664817    -0.000015608307
            0.000023387374    -0.000014728290    0.111117207270    -0.027705589235    0.000026156845    -0.000014369872    0.107624083766    -0.004423465501
            0.100611434233    -0.024809410899    0.000026156845    -0.000014369872    0.098340090071    -0.046565392039    0.000028513605    -0.000016491301
            0.000025664817    -0.000015608307    0.107624083766    -0.004423465501    0.000028513605    -0.000016491301    0.111743463280    -0.027671445555
0.575     0.066716856109    -0.073370435253    0.000016946435    -0.000022710673    0.077217779785    -0.051971696175    0.000018975366    -0.000024496621
            0.000016946435    -0.000022710673    0.093134838547    -0.063151203802    0.000019421118    -0.000023201628    0.097395202812    -0.037752113168
            0.077217779785    -0.051971696175    0.000019421118    -0.000023201628    0.067252828942    -0.072956975914    0.000021484556    -0.000026438972
            0.000018975366    -0.000024496621    0.097395202812    -0.037752113168    0.000021484556    -0.000026438972    0.094247537802    -0.063536672776
0.600     0.026016484862    -0.085214732761    0.000007693289    -0.000027967867    0.043825493141    -0.068138116195    0.000009147573    -0.000030547448
            0.000007693289    -0.000027967867    0.062558043217    -0.090112258997    0.000009562511    -0.000029168435    0.074969566163    -0.065725862824
            0.043825493141    -0.068138116195    0.000009562511    -0.000029168435    0.026980113947    -0.085321225480    0.000010946596    -0.000033397940
            0.000009147573    -0.000030547448    0.074969566163    -0.065725862824    0.000010946596    -0.000033397940    0.064007593720    -0.091113390986
0.625     -0.017419119095    -0.079830509800    -0.000003206238    -0.000029446127    0.005497301914    -0.069702085971    -0.000002599546    -0.000032582960
            -0.000003206238    -0.000029446127    0.023226888482    -0.104228867390    -0.000002193546    -0.000031106788    0.042931230426    -0.083913228236
            0.005497301914    -0.069702085971    -0.000002193546    -0.000031106788    -0.016257028267    -0.080638660034    -0.000001815612    -0.000036058489
            -0.000002599546    -0.000032582960    0.042931230426    -0.083913228236    -0.000001815612    -0.000036058489    0.024786292503    -0.105979994255
0.650     -0.056301043409    -0.057156469507    -0.000014138680    -0.000026629245    -0.031369150883    -0.055496234742    -0.000014548486    -0.000029989301
            -0.000014138680    -0.000026629245    -0.019486816648    -0.102842763067    -0.000014133401    -0.000028414895    0.005519250318    -0.089101873796
            -0.031369150883    -0.055496234742    -0.000014133401    -0.000028414895    -0.055239964588    -0.058740564387    -0.000014969760    -0.000033702766
            -0.000014548486    -0.000029989301    0.005519250318    -0.089101873796    -0.000014969760    -0.000033702766    -0.018094415678    -0.105383917897
0.675     -0.083815289641    -0.020338273850    -0.000023333444    -0.000019756057    -0.060322120341    -0.027285788167    -0.000024788663    -0.000022957704
            -0.000023333444    -0.000019756057    -0.059440604706    -0.085567600438    -0.000024355806    -0.000021287058    -0.031954282824    -0.079945626145
            -0.060322120341    -0.027285788167    -0.000024355806    -0.000021287058    -0.083171608562    -0.022638834845    -0.000026453578    -0.000026464902
            -0.000024788663    -0.000022957704    -0.031954282824    -0.079945626145    -0.000026453578    -0.000026464902    -0.058501178089    -0.088825624483
0.700     -0.095137521607    0.024777390034    -0.000029272401    -0.000009848982    -0.076309410189    0.010490268834    -0.000031653379    -0.000012525456
            -0.000029272401    -0.000009848982    -0.090732038789    -0.054498732023    -0.000031199237    -0.000010754680    -0.063981693166    -0.057332066809
            -0.076309410189    0.010490268834    -0.000031199237    -0.000010754680    -0.095181378493    0.021950976984    -0.000034432146    -0.000015387720
            -0.000031653379    -0.000012525456    -0.063981693166    -0.057332066809    -0.000034432146    -0.000015387720    -0.090491382191    -0.058287566339
0.725     -0.088470069058    0.070908926209    -0.000031054592    0.000001514884    -0.076747519471    0.051745731968    -0.000034113837    -0.000000342920
            -0.000031054592    0.000001514884    -0.108736409942    -0.013926137585    -0.000033630274    0.000001540305    -0.085828172709    -0.024278123505
            -0.076747519471    0.051745731968    -0.000033630274    0.000001540305    -0.089371603261    0.067844631255    -0.000037719529    -0.000002192524
            -0.000034113837    -0.000000342920    -0.085828172709    -0.024278123505    -0.000037719529    -0.000002192524    -0.109354101261    -0.017969766796
0.750     -0.065250313095    0.110929762732    -0.000028565971    0.000012594926    -0.061875519337    0.090127636776    -0.000031971758    0.000011735391
            -0.000028565971    0.000012594926    -0.110920445775    0.030410205420    -0.000031437224    0.000013744754    -0.094369416522    0.014606745808
            -0.061875519337    0.090127636776    -0.000031437224    0.000013744754    -0.067049564661    0.107958755539    -0.000035998677    0.000011138722
            -0.000031971758    0.000011735391    -0.094369416522    0.014606745808    -0.000035998677    0.000011138722    -0.112438038954    0.026435113214
0.775     -0.029539006978    0.139222787354    -0.000022391739    0.000021874917    -0.034344080478    0.120240078649    -0.000025778875    0.000022064031
            -0.000022391739    0.000021874917    -0.097204528421    0.072340366790    -0.000025158042    0.000024202201    -0.088535137937    0.053968932456
            -0.034344080478    0.120240078649    -0.000025158042    0.000024202201    -0.032145017629    0.136662112109    -0.000029759505    0.000022798159
