# GHz S RI R 45
0.000     0.029485831871    0.001867291038    -0.000009020601    -0.000020569418    0.000944506287    0.001596479334    -0.000037574959    -0.000021276155
            -0.000009019862    -0.000020569421    0.029333305757    0.001132800856    -0.000007755994    -0.000018555090    0.000874444328    0.001226398400
            0.000944506176    0.001596479400    -0.000007754022    -0.000018555104    0.029427511534    0.001855195631    -0.000009331481    -0.000021067579
            -0.000037574840    -0.000021276157    0.000874444206    0.001226398365    -0.000009331458    -0.000021067578    0.029334528785    0.001145502757
0.025     0.036578771343    0.008244868074    -0.000026340739    -0.000047938913    0.004112564648    0.010827867595    -0.000056945540    -0.000041452099
            -0.000026340449    -0.000047939118    0.034357499418    0.007258342760    -0.000022941227    -0.000043815000    0.002667639203    0.010353660624
            0.004110628065    0.010830977476    -0.000022941263    -0.000043815011    0.036504134979    0.008216735461    -0.000027674695    -0.000048999508
            -0.000056945632    -0.000041452135    0.002664405087    0.010353895499    -0.000027674183    -0.000048999340    0.034297628099    0.007287383654
0.050     0.045950942110    0.008043945307    -0.000064186734    -0.000077243182    0.012653847706    0.018246929153    -0.000101280215    -0.000068617088
            -0.000064186734    -0.000077243182    0.039196955001    0.008620275102    -0.000056363630    -0.000071261401    0.007723174550    0.019089379603
            0.012653828145    0.018246968274    -0.000056363631    -0.000071261403    0.045846622143    0.008008483994    -0.000067486871    -0.000077412314
            -0.000101280215    -0.000068617088    0.007723219523    0.019089335518    -0.000067486865    -0.000077412307    0.039108399379    0.008707897022
0.075     0.055028397141    0.001887333843    -0.000112330653    -0.000087382718    0.023977039041    0.019899887116    -0.000153549036    -0.000066415963
            -0.000112330653    -0.000087382718    0.042890446302    0.007565134895    -0.000099547476    -0.000082598841    0.014802992512    0.024958875203
            0.023977032639    0.019899891697    -0.000099547476    -0.000082598841    0.054917297848    0.001880563396    -0.000116486061    -0.000084545878
            -0.000153549036    -0.000066415963    0.014802997155    0.024958870124    -0.000116486061    -0.000084545878    0.042793492221    0.007736369497
0.100     0.061064455341    -0.010048453403    -0.000163947308    -0.000077702012    0.034801327070    0.015042408261    -0.000200426066    -0.000039944832
            -0.000163947308    -0.000077702012    0.044685036321    0.004634038440    -0.000147285424    -0.000076799635    0.022340464952    0.027563809900
            0.034801327070    0.015042408261    -0.000147285424    -0.000076799635    0.060981658256    -0.010013124698    -0.000166208045    -0.000071030377
            -0.000200426066    -0.000039944832    0.022340464952    0.027563809900    -0.000166208045    -0.000071030377    0.044606692923    0.004905126683
0.125     0.061105525833    -0.026039723582    -0.000212960713    -0.000049111439    0.041855113405    0.004518174750    -0.000234658689    0.000002587070
            -0.000212960713    -0.000049111439    0.043715397818    0.000880337191    -0.000194664831    -0.000053737676    0.028824474149    0.027236500187
            0.041855113405    0.004518174750    -0.000194664841    -0.000053737679    0.061097541729    -0.025968979483    -0.000210160343    -0.000040044386
            -0.000234658689    0.000002587070    0.028824474149    0.027236500187    -0.000210160343    -0.000040044386    0.043696838100    0.001245890654
0.150     0.053227195241    -0.043109172006    -0.000254837538    -0.000003664935    0.042581744960    -0.009365766788    -0.000255150100    0.000053118361
            -0.000254837538    -0.000003664935    0.039629750204    -0.002211902842    -0.000237461452    -0.000014025752    0.033086502930    0.024951768255
            0.042581744960    -0.009365766788    -0.000237461452    -0.000014025752    0.053340970268    -0.043035861615    -0.000245068897    0.000004112457
            -0.000255150100    0.000053118361    0.033086502930    0.024951768255    -0.000245068897    0.000004112457    0.039707010800    -0.001758907405
0.175     0.036969713902    -0.057341696662    -0.000286001766    0.000056831639    0.035683096805    -0.023287858558    -0.000264606370    0.000107203011
            -0.000286001766    0.000056831639    0.032851583347    -0.003055238753    -0.000271673277    0.000041761659    0.034533285403    0.022108426256
            0.035683097642    -0.023287859105    -0.000271673277    0.000041761659    0.037236562716    -0.057328027211    -0.000270026228    0.000058466593
            -0.000264606370    0.000107203011    0.034533285017    0.022108426859    -0.000270026228    0.000058466593    0.033061650849    -0.002552507982
0.200     0.013791353055    -0.064818561183    -0.000302772419    0.000130817159    0.021516766157    -0.033536131026    -0.000266006843    0.000164803993
            -0.000302772419    0.000130817159    0.024516865278    -0.000320187893    -0.000292644625    0.000112798950    0.033294189677    0.020244041828
            0.021516766157    -0.033536131026    -0.000292644625    0.000112798950    0.014211708710    -0.064947390657    -0.000284538648    0.000122203215
            -0.000266006843    0.000164803993    0.033294189677    0.020244041828    -0.000284538648    0.000122203215    0.024875303327    0.000173874846
0.225     -0.013086993685    -0.062468611271    -0.000300336613    0.000216206489    0.002169082782    -0.036790005560    -0.000259211279    0.000228988702
            -0.000300336621    0.000216206495    0.016346665926    0.006731152581    -0.000294435088    0.000197033818    0.030224559385    0.020680260846
            0.002169082782    -0.036790005560    -0.000294435088    0.000197033818    -0.012555716509    -0.062826377519    -0.000286200295    0.000195981133
            -0.000259211279    0.000228988702    0.030224559385    0.020680260846    -0.000286200295    0.000195981133    0.016838994530    0.007151988117
0.250     -0.039148801801    -0.048860606570    -0.000272933342    0.000308762483    -0.018832704960    -0.030920756160    -0.000239372780    0.000302577656
            -0.000272933342    0.000308762483    0.010343581887    0.018016995968    -0.000270456838    0.000289595840    0.026744919462    0.024203378425
            -0.018832704960    -0.030920756160    -0.000270456838    0.000289595840    -0.038592881020    -0.049514967256    -0.000269704418    0.000279548366
            -0.000239372780    0.000302577656    0.026744919462    0.024203378425    -0.000269704418    0.000279548366    0.010923625975    0.018310077140
0.275     -0.059431268077    -0.024710570856    -0.000215285637    0.000400721744    -0.037185917199    -0.015593043962    -0.000197826867    0.000384277585
            -0.000215285637    0.000400721744    0.008392754915    0.032519488220    -0.000215199805    0.000381793940    0.024528958307    0.030830443053
            -0.037185917199    -0.015593043962    -0.000215199805    0.000381793940    -0.058970859854    -0.025687888599    -0.000227691684    0.000369013360
            -0.000197826867    0.000384277585    0.024528958307    0.030830443053    -0.000227691684    0.000369013360    0.008989324215    0.032655528082
0.300     -0.069582719489    0.007027062136    -0.000125214517    0.000480801568    -0.048744661558    0.007500073751    -0.000125754931    0.000466202104
            -0.000125214517    0.000480801568    0.011819974569    0.048411444068    -0.000126930921    0.000461518507    0.025108140067    0.039768056688
            -0.048744661558    0.007500073751    -0.000126930921    0.000461518507    -0.069349939349    0.005757831265    -0.000153813293    0.000455245533
            -0.000125754931    0.000466202104    0.025108140067    0.039768056688    -0.000153813293    0.000455245533    0.012351398253    0.048397605106
0.325     -0.066863525863    0.041639088789    -0.000005909035    0.000536059723    -0.050462029129    0.034908987218    -0.000018829973    0.000534325443
            -0.000005909035    0.000536059723    0.021046051800    0.063363627365    -0.000009725492    0.000515513169    0.029490575969    0.049561964763
            -0.050462029129    0.034908987218    -0.000009725492    0.000515513169    -0.066973276869    0.040168982151    -0.000046368022    0.000524721424
            -0.000018829973    0.000534325443    0.029490575969    0.049561964763    -0.000046368022    0.000524721424    0.021437382746    0.063246432298
0.350     -0.050820271435    0.073564159657    0.000133266341    0.000555279506    -0.041091208731    0.062133820096    0.000119173033    0.000572118524
            0.000133266341    0.000555279506    0.035428825269    0.075025887471    0.000126132267    0.000532905592    0.037914783359    0.058431043211
            -0.041091208731    0.062133820096    0.000126132267    0.000532905592    -0.051342927037    0.072033302158    0.000089165956    0.000562903275
            0.000119173033    0.000572118524    0.037914783359    0.058431043211    0.000089165956    0.000562903275    0.035631472452    0.074885256541
0.375     -0.023403813572    0.097508115046    0.000278409623    0.000532184436    -0.021422734363    0.084549437147    0.000275921786    0.000565650731
            0.000278409623    0.000532184436    0.053354700577    0.081502311307    0.000266190892    0.000508312138    0.049791447967    0.064654791651
            -0.021422734363    0.084549437147    0.000266190892    0.000508312138    -0.024345475119    0.096081634681    0.000240322881    0.000558516387
            0.000275921786    0.000565650731    0.049791447967    0.064654791651    0.000240322881    0.000558516387    0.053360108575    0.081437347084
0.400     0.011420239244    0.109443461916    0.000414339962    0.000467196572    0.005922005981    0.098286489818    0.000433120878    0.000508079904
            0.000414339962    0.000467196572    0.072547613780    0.081742313215    0.000395285304    0.000443293613    0.063844772392    0.066937230899
            0.005922005981    0.098286489818    0.000395285304    0.000443293613    0.010124359535    0.108282237530    0.000390357568    0.000506997331
            0.000433120878    0.000508079904    0.063844772392    0.066937230899    0.000390357568    0.000506997331    0.072392373169    0.081851595554
0.425     0.048429992014    0.107261950230    0.000528104105    0.000366811876    0.037026537277    0.100842635145    0.000571114736    0.000401574981
            0.000528104105    0.000366811876    0.090495409719    0.075718382249    0.000501126181    0.000345389576    0.078370927694    0.064631301740
            0.037026537277    0.100842635145    0.000501126181    0.000345389576    0.046909314882    0.106492534390    0.000522332938    0.000411517767
            0.000571114736    0.000401574981    0.078370927694    0.064631301740    0.000522332938    0.000411517767    0.090258667984    0.076080051970
0.450     0.082019235312    0.091035436516    0.000611396163    0.000241373757    0.067330849814    0.091403043417    0.000673512652    0.000256562518
            0.000611396163    0.000241373757    0.104896084258    0.064415127911    0.000576572484    0.000225573416    0.091551860130    0.057839068621
            0.067330849814    0.091403043417    0.000576572484    0.000225573416    0.080450141441    0.090725892530    0.000622820108    0.000281817994
            0.000673512652    0.000256562518    0.091551860130    0.057839068621    0.000622820108    0.000281817994    0.104687660723    0.065069796624
0.475     0.107009837520    0.062924599075    0.000661184329    0.000102095601    0.092261779705    0.070889256086    0.000730448302    0.000088740433
            0.000661184329    0.000102095601    0.114021526711    0.049638931373    0.000619998787    0.000095101355    0.101742108412    0.047373999668
            0.092261779705    0.070889256086    0.000619998787    0.000095101355    0.105590560508    0.063068561559    0.000684216048    0.000131330363
            0.000730448302    0.000088740433    0.101742108412    0.047373999668    0.000684216048    0.000131330363    0.113964978228    0.050579694857
0.500     0.119332879962    0.026873158356    0.000678873385    -0.000041470092    0.107808805845    0.041861775454    0.000739871820    -0.000084724472
            0.000678873385    -0.000041470092    0.116981735005    0.033736459222    0.000634174451    -0.000037086425    0.107725265285    0.034652352184
            0.107808805845    0.041861775454    0.000634174451    -0.000037086425    0.118253603153    0.027383434474    0.000705299851    -0.000026010387
            0.000739871820    -0.000084724472    0.107725265285    0.034652352184    0.000705299851    -0.000026010387    0.117193476197    0.034904228915
0.525     0.116564683607    -0.011852446111    0.000668324238    -0.000183045286    0.111038296090    0.008291379197    0.000706795291    -0.000249079228
            0.000668324241    -0.000183045275    0.113859699093    0.019245556082    0.000623983950    -0.000165903364    0.108910813013    0.021501805472
            0.111038296090    0.008291379197    0.000623983950    -0.000165903364    0.115976235123    -0.011139912348    0.000690182996    -0.000178769231
            0.000706795291    -0.000249079228    0.108910813013    0.021501805472    0.000690182996    -0.000178769231    0.114428166975    0.020534622951
0.550     0.098358114898    -0.047255895987    0.000633544960    -0.000319971962    0.100611434233    -0.024809410899    0.000640844160    -0.000394936960
            0.000633544960    -0.000319971962    0.105746391619    0.008528772377    0.000593858991    -0.000290310242    0.105490266247    0.009917610231
            0.100611434233    -0.024809410899    0.000593858991    -0.000290310242    0.098340090071    -0.046565392039    0.000646057601    -0.000320071063
            0.000640844160    -0.000394936960    0.105490266247    0.009917610231    0.000646057601    -0.000320071063    0.106712701350    0.009799236242
0.575     0.066716856109    -0.073370435253    0.000576334417    -0.000452266000    0.077217779785    -0.051971696175    0.000552443260    -0.000519517095
            0.000576334417    -0.000452266000    0.094640558723    0.003386150649    0.000545282314    -0.000411966933    0.098495404959    0.001732510379
            0.077217779785    -0.051971696175    0.000545282314    -0.000411966933    0.067252828942    -0.072956975914    0.000579998429    -0.000448188212
            0.000552443260    -0.000519517095    0.098495404959    0.001732510379    0.000579998429    -0.000448188212    0.095985173565    0.004485612421
0.600     0.026016484862    -0.085214732761    0.000494859351    -0.000580252013    0.043825493141    -0.068138116195    0.000448767883    -0.000625581720
            0.000494859351    -0.000580252013    0.083214311846    0.004692337695    0.000475391300    -0.000532574050    0.089734654307    -0.001750672563
            0.043825493141    -0.068138116195    0.000475391300    -0.000532574050    0.026980113947    -0.085321225480    0.000495790493    -0.000565208658
            0.000448767883    -0.000625581720    0.089734654307    -0.001750672563    0.000495790493    -0.000565208658    0.084853010422    0.005482936306
0.625     -0.017419119095    -0.079830509800    0.000383867770    -0.000701302826    0.005497301914    -0.069702085971    0.000330953872    -0.000717684274
            0.000383867770    -0.000701302826    0.074393743604    0.012112854517    0.000377435626    -0.000650257592    0.081521326929    -0.000125804391
            0.005497301914    -0.069702085971    0.000377435626    -0.000650257592    -0.016257028267    -0.080638660034    0.000392001712    -0.000673559230
            0.000330953872    -0.000717684274    0.081521326929    -0.000125804392    0.000392001712    -0.000673559230    0.076186126857    0.012499868998
0.650     -0.056301043409    -0.057156469507    0.000237506660    -0.000807031550    -0.031369150883    -0.055496234742    0.000194424327    -0.000797204169
            0.000237506660    -0.000807031550    0.070801516767    0.024016729835    0.000243992497    -0.000756620102    0.076225219744    0.005904465398
            -0.031369150883    -0.055496234742    0.000243992497    -0.000756620102    -0.055239964588    -0.058740564387    0.000262936568    -0.000771674509
            0.000194424327    -0.000797204169    0.076225219744    0.005904465398    0.000262936568    -0.000771674509    0.072573702472    0.023973095467
0.675     -0.083815289641    -0.020338273850    0.000054060564    -0.000882847658    -0.060322120341    -0.027285788167    0.000032888029    -0.000858453288
            0.000054060564    -0.000882847658    0.074142710803    0.037680217323    0.000072030969    -0.000836433039    0.075697896403    0.014563195383
            -0.060322120341    -0.027285788167    0.000072030969    -0.000836433039    -0.083171608562    -0.022638834845    0.000102706543    -0.000851036230
            0.000032888029    -0.000858453288    0.075697896403    0.014563195383    0.000102706543    -0.000851036230    0.075720945723    0.037258048967
0.700     -0.095137521607    0.024777390034    -0.000159622660    -0.000911370728    -0.076309410189    0.010490268834    -0.000155693144    -0.000888767434
            -0.000159622660    -0.000911370728    0.084746776063    0.049810647737    -0.000132367679    -0.000871290929    0.080790024838    0.023364311436
            -0.076309410189    0.010490268834    -0.000132367679    -0.000871290929    -0.095181378493    0.021950976984    -0.000089096763    -0.000896993540
            -0.000155693144    -0.000888767434    0.080790024838    0.023364311436    -0.000089096763    -0.000896993540    0.085993546839    0.049135185218
0.725     -0.088470069058    0.070908926209    -0.000386829571    -0.000878461552    -0.076747519471    0.051745731968    -0.000364560902    -0.000872772408
            -0.000386829571    -0.000878461552    0.101420167787    0.057266241733    -0.000352691444    -0.000845980532    0.091108697536    0.029687147545
            -0.076747519471    0.051745731968    -0.000352691444    -0.000845980532    -0.089371603261    0.067844631255    -0.000303639337    -0.000893490409
            -0.000364560902    -0.000872772408    0.091108697536    0.029687147545    -0.000303639337    -0.000893490409    0.102266135377    0.056512064229
0.750     -0.065250313095    0.110929762732    -0.000604235541    -0.000779045952    -0.061875519337    0.090127636776    -0.000577794458    -0.000798849953
            -0.000604235541    -0.000779045952    0.121710593876    0.057750153093    -0.000565404516    -0.000754549804    0.105144081173    0.031390164447
            -0.061875519337    0.090127636776    -0.000565404516    -0.000754549804    -0.067049564661    0.107958755539    -0.000523294908    -0.000829402064
            -0.000577794458    -0.000798849953    0.105144081173    0.031390164447    -0.000523294908    -0.000829402064    0.122167957111    0.057106572824
0.775     -0.029539006978    0.139222787354    -0.000788097169    -0.000619410622    -0.034344080478    0.120240078649    -0.000774108772    -0.000663893964
            -0.000788097169    -0.000619410622    0.142453630865    0.050258897143    -0.000746244669    -0.000602746547    0.120650955972    0.027228802402
            -0.034344080478    0.120240078649    -0.000746244669    -0.000602746547    -0.032145017629    0.136662112109    -0.000725920191    -0.000702822707
            -0.000774108772    -0.000663893964    0.120650955972    0.027228802402    -0.000725920191    -0.000702822707    0.142614539422    0.049892455053
