# GHz S RI R 45
0.000     0.029485831871    0.001867291038    -0.000001704498    -0.000003717675    0.000944506287    0.001596479334    -0.000001892817    -0.000004056315
            -0.000001704498    -0.000003717675    0.030189086378    0.001445396498    -0.000001539242    -0.000003402414    0.000960226013    0.001468572939
            0.000944506176    0.001596479400    -0.000001539242    -0.000003402414    0.029427511534    0.001855195631    -0.000001690583    -0.000003676045
            -0.000001892817    -0.000004056315    0.000960226144    0.001468572973    -0.000001690583    -0.000003676045    0.030150173291    0.001434233183
0.025     0.036578771343    0.008244868074    -0.000004520591    -0.000007640460    0.004112564648    0.010827867595    -0.000004960862    -0.000008339751
            -0.000004520597    -0.000007640467    0.036010397442    0.008482964898    -0.000004113448    -0.000006999358    0.003209801750    0.011672162737
            0.004110628065    0.010830977476    -0.000004113441    -0.000006999341    0.036504134979    0.008216735461    -0.000004468298    -0.000007564021
            -0.000004960856    -0.000008339737    0.003208428331    0.011672165946    -0.000004468292    -0.000007564011    0.035923945702    0.008439442317
0.050     0.045950942110    0.008043945307    -0.000010428043    -0.000012108535    0.012653847706    0.018246929153    -0.000011399254    -0.000013229822
            -0.000010428043    -0.000012108535    0.041944714240    0.010143705821    -0.000009523842    -0.000011102180    0.009432681823    0.021123743294
            0.012653828145    0.018246968274    -0.000009523842    -0.000011102180    0.045846622143    0.008008483994    -0.000010309619    -0.000012009078
            -0.000011399254    -0.000013229822    0.009432687758    0.021123648649    -0.000010309619    -0.000012009078    0.041792564004    0.010103230901
0.075     0.055028397141    0.001887333843    -0.000017831970    -0.000013769981    0.023977039041    0.019899887116    -0.000019483042    -0.000015074589
            -0.000017831970    -0.000013769981    0.046627778020    0.008614388915    -0.000016314804    -0.000012633000    0.017879984881    0.026844223512
            0.023977032639    0.019899891697    -0.000016314804    -0.000012633000    0.054917297848    0.001880563396    -0.000017653887    -0.000013686362
            -0.000019483043    -0.000015074590    0.017879989394    0.026844218102    -0.000017653887    -0.000013686362    0.046424276155    0.008631030006
0.100     0.061064455341    -0.010048453403    -0.000025903132    -0.000012545676    0.034801327070    0.015042408261    -0.000028328539    -0.000013768867
            -0.000025903131    -0.000012545675    0.048867410469    0.004585870355    -0.000023722932    -0.000011513113    0.026436741859    0.028440163223
            0.034801327070    0.015042408261    -0.000023722932    -0.000011513113    0.060981658256    -0.010013124698    -0.000025691823    -0.000012495617
            -0.000028328539    -0.000013768867    0.026436764055    0.028440156243    -0.000025691824    -0.000012495617    0.048650928478    0.004700252595
0.125     0.061105525833    -0.026039723582    -0.000033876445    -0.000008444111    0.041855113405    0.004518174750    -0.000037091721    -0.000009289479
            -0.000033876445    -0.000008444111    0.047401453065    -0.000502171944    -0.000031044666    -0.000007746135    0.033113344716    0.026560380307
            0.041855113405    0.004518174750    -0.000031044666    -0.000007746135    0.061097541729    -0.025968979483    -0.000033653634    -0.000008415235
            -0.000037091721    -0.000009289479    0.033113344716    0.026560380307    -0.000033653634    -0.000008415235    0.047229775058    -0.000269332572
0.150     0.053227195241    -0.043109172006    -0.000041102016    -0.000001546911    0.042581744960    -0.009365766788    -0.000045030518    -0.000001708214
            -0.000041102016    -0.000001546911    0.041895140582    -0.004546205861    -0.000037674672    -0.000001406100    0.036482365610    0.022729728051
            0.042581744960    -0.009365766788    -0.000037674672    -0.000001406100    0.053340970268    -0.043035861615    -0.000040857836    -0.000001510878
            -0.000045030518    -0.000001708214    0.036482365610    0.022729728051    -0.000040857836    -0.000001510878    0.041848926665    -0.004224446961
0.175     0.036969713902    -0.057341696662    -0.000046933004    0.000008145910    0.035683096805    -0.023287858558    -0.000051395276    0.000008957452
            -0.000046933004    0.000008145910    0.032955325869    -0.005410740761    -0.000043014552    0.000007504959    0.036024227580    0.018997903619
            0.035683097642    -0.023287859105    -0.000043014552    0.000007504959    0.037236562716    -0.057328027211    -0.000046620917    0.000008199049
            -0.000051395276    0.000008957452    0.036024227580    0.018997903619    -0.000046620917    0.000008199049    0.033096411935    -0.005065304523
0.200     0.013791353055    -0.064818561183    -0.000050500735    0.000020610757    0.021516766157    -0.033536131026    -0.000055218030    0.000022632042
            -0.000050500735    0.000020610757    0.022266608036    -0.001326917450    -0.000046260591    0.000018959497    0.032299874457    0.017470330590
            0.021516766157    -0.033536131026    -0.000046260591    0.000018959497    0.014211708710    -0.064947390657    -0.000050058132    0.000020641499
            -0.000055218030    0.000022632042    0.032299874457    0.017470330590    -0.000050058132    0.000020641499    0.022618715529    -0.001056260545
0.225     -0.013086993685    -0.062468611271    -0.000050600463    0.000035532778    0.002169082782    -0.036790005560    -0.000055209188    0.000038912112
            -0.000050600463    0.000035532778    0.012339064868    0.008552186804    -0.000046303751    0.000032657773    0.026888636308    0.019762167253
            0.002169082782    -0.036790005560    -0.000046303751    0.000032657773    -0.012555716509    -0.062826377519    -0.000049992589    0.000035442162
            -0.000055209188    0.000038912112    0.026888636308    0.019762167253    -0.000049992589    0.000035442162    0.012872596298    0.008637297314
0.250     -0.039148801801    -0.048860606570    -0.000045892601    0.000051941031    -0.018832704960    -0.030920756160    -0.000049975052    0.000056708929
            -0.000045892601    0.000051941031    0.005996549521    0.023805012953    -0.000041919924    0.000047692738    0.022057825325    0.026531915555
            -0.018832704960    -0.030920756160    -0.000041919924    0.000047692738    -0.038592881020    -0.049514967256    -0.000045158122    0.000051596007
            -0.000049975052    0.000056708929    0.022057825325    0.026531915555    -0.000045158122    0.000051596007    0.006624684885    0.023610257118
0.275     -0.059431268077    -0.024710570856    -0.000035349480    0.000068032736    -0.037185917199    -0.015593043962    -0.000038477571    0.000074082781
            -0.000035349480    0.000068032736    0.005714085502    0.042632475399    -0.000032180537    0.000062398260    0.020200795789    0.037207455158
            -0.037185917199    -0.015593043962    -0.000032180537    0.000062398260    -0.058970859854    -0.025687888599    -0.000034621195    0.000067323674
            -0.000038477571    0.000074082781    0.020200795789    0.037207455158    -0.000034621195    0.000067323674    0.006304707364    0.042109612163
0.300     -0.069582719489    0.007027062136    -0.000018844814    0.000081377959    -0.048744661558    0.007500073751    -0.000020631215    0.000088468210
            -0.000018844814    0.000081377959    0.012943234566    0.062154032697    -0.000016994243    0.000074540194    0.023191244699    0.050061454110
            -0.048744661558    0.007500073751    -0.000016994243    0.000074540194    -0.069349939349    0.005757831265    -0.000018327230    0.000080281551
            -0.000020631215    0.000088468210    0.023191244699    0.050061454110    -0.000018327230    0.000080281551    0.013346311496    0.061321381853
0.325     -0.066863525863    0.041639088789    0.000002499251    0.000089509093    -0.050462029129    0.034908987218    0.000002362405    0.000097286089
            0.000002499251    0.000089509093    0.027658792725    0.079003020161    0.000002583840    0.000081867329    0.031854142512    0.062611819661
            -0.050462029129    0.034908987218    0.000002583840    0.000081867329    -0.066973276869    0.040168982151    0.000002598656    0.000088129077
            0.000002362405    0.000097286089    0.031854142512    0.062611819661    0.000002598656    0.000088129077    0.027740539861    0.077949170491
0.350     -0.050820271435    0.073564159657    0.000026419103    0.000090688252    -0.041091208731    0.062133820096    0.000028124573    0.000098721769
            0.000026419103    0.000090688252    0.048284530360    0.090119938552    0.000024459749    0.000082813161    0.045744833479    0.072252128875
            -0.041091208731    0.062133820096    0.000024459749    0.000082813161    -0.051342927037    0.072033302158    0.000025964734    0.000089241913
            0.000028124573    0.000098721769    0.045744833479    0.072252128875    0.000025964734    0.000089241913    0.047960530301    0.088989966890
0.375     -0.023403813572    0.097508115046    0.000050083895    0.000084427002    -0.021422734363    0.084549437147    0.000053701610    0.000092252567
            0.000050083895    0.000084427002    0.072024830690    0.093431441825    0.000046037115    0.000076967034    0.063271479136    0.076857708739
            -0.021422734363    0.084549437147    0.000046037115    0.000076967034    -0.024345475119    0.096081634681    0.000049077582    0.000083186177
            0.000053701610    0.000092252567    0.063271479136    0.076857708739    0.000049077582    0.000083186177    0.071281027452    0.092398196192
0.400     0.011420239244    0.109443461916    0.000070866537    0.000071574447    0.005922005981    0.098286489818    0.000076349782    0.000078729664
            0.000070866537    0.000071574447    0.095471962261    0.088277242335    0.000064933451    0.000065137710    0.082089284275    0.075227942053
            0.005922005981    0.098286489818    0.000064933451    0.000065137710    0.010124359535    0.108282237530    0.000069454985    0.000070778997
            0.000076349782    0.000078729664    0.082089284275    0.075227942053    0.000069454985    0.000070778997    0.094371714500    0.087507316875
0.425     0.048429992014    0.107261950230    0.000086968946    0.000053931029    0.037026537277    0.100842635145    0.000094165186    0.000059982469
            0.000086968946    0.000053931029    0.115277204565    0.075470327758    0.000079534372    0.000048988745    0.099578326833    0.067254382676
            0.037026537277    0.100842635145    0.000079534372    0.000048988745    0.046909314882    0.106492534390    0.000085409197    0.000053707118
            0.000094165186    0.000059982469    0.099578326833    0.067254382676    0.000085409197    0.000053707118    0.113950588520    0.075091363653
0.450     0.082019235312    0.091035436516    0.000097707393    0.000033645566    0.067330849814    0.091403043417    0.000106381920    0.000038200116
            0.000097707393    0.000033645566    0.128732482773    0.057097719395    0.000089253252    0.000030474586    0.113302774465    0.053897506639
            0.067330849814    0.091403043417    0.000089253252    0.000030474586    0.080450141441    0.090725892530    0.000096281964    0.000033962242
            0.000106381920    0.000038200116    0.113302774465    0.053897506639    0.000096281964    0.000033962242    0.127354851560    0.057172723432
0.475     0.107009837520    0.062924599075    0.000103423888    0.000012592289    0.092261779705    0.070889256086    0.000113264506    0.000015304544
            0.000103423888    0.000012592289    0.134169420968    0.036139348100    0.000094422602    0.000011285097    0.121368701791    0.037015701606
            0.092261779705    0.070889256086    0.000094422602    0.000011285097    0.105590560508    0.063068561559    0.000102349165    0.000013271120
            0.000113264506    0.000015304544    0.121368701791    0.037015701606    0.000102349165    0.000013271120    0.132931841814    0.036653523398
0.500     0.119332879962    0.026873158356    0.000105129908    -0.000008073939    0.107808805845    0.041861775454    0.000115752767    -0.000007495707
            0.000105129908    -0.000008073939    0.131205930466    0.016031889696    0.000095965695    -0.000007562046    0.122724850303    0.019136252280
            0.107808805845    0.041861775454    0.000095965695    -0.000007562046    0.118253603153    0.027383434474    0.000104476002    -0.000007305507
            0.000115752767    -0.000007495707    0.122724850303    0.019136252280    0.000104476002    -0.000007305507    0.130281894853    0.016888761276
0.525     0.116564683607    -0.011852446111    0.000103956285    -0.000028146005    0.111038296090    0.008291379197    0.000114902294    -0.000029929564
            0.000103956285    -0.000028146005    0.120847341057    0.000183253527    0.000094893460    -0.000025897447    0.117394785518    0.003130960158
            0.111038296090    0.008291379197    0.000094893460    -0.000025897447    0.115976235123    -0.011139912348    0.000103612312    -0.000027545875
            0.000114902294    -0.000029929564    0.117394785518    0.003130960158    0.000103612312    -0.000027545875    0.120359553430    0.001215412353
0.550     0.098358114898    -0.047255895987    0.000100547967    -0.000048259488    0.100611434233    -0.024809410899    0.000111281180    -0.000052541317
            0.000100547967    -0.000048259488    0.105472742716    -0.008547869206    0.000091760070    -0.000044306521    0.106651518849    -0.008208909688
            0.100611434233    -0.024809410899    0.000091760070    -0.000044306521    0.098340090071    -0.046565392039    0.000100250296    -0.000047959702
            0.000111281180    -0.000052541317    0.106651518849    -0.008208909688    0.000100250296    -0.000047959702    0.105462005797    -0.007554735161
0.575     0.066716856109    -0.073370435253    0.000094514715    -0.000069414379    0.077217779785    -0.051971696175    0.000104435480    -0.000076207993
            0.000094514715    -0.000069414379    0.088618253244    -0.008428943092    0.000086179742    -0.000063682480    0.093005610374    -0.012747587123
            0.077217779785    -0.051971696175    0.000086179742    -0.000063682480    0.067252828942    -0.072956975914    0.000093951496    -0.000069337547
            0.000104435480    -0.000076207993    0.093005610374    -0.012747587123    0.000093951496    -0.000069337547    0.089024626768    -0.007697643386
0.600     0.026016484862    -0.085214732761    0.000084254312    -0.000092140258    0.043825493141    -0.068138116195    0.000092731918    -0.000101298269
            0.000084254312    -0.000092140258    0.074489130179    0.000601785211    0.000076672359    -0.000084467810    0.079910277584    -0.009625072308
            0.043825493141    -0.068138116195    0.000076672359    -0.000084467810    0.026980113947    -0.085321225480    0.000083217281    -0.000091984189
            0.000092731918    -0.000101298269    0.079910277584    -0.009625072308    0.000083217281    -0.000091984189    0.075150441743    0.000889268914
0.625     -0.017419119095    -0.079830509800    0.000067414971    -0.000115525972    0.005497301914    -0.069702085971    0.000073839344    -0.000126718675
            0.000067414971    -0.000115525972    0.067123110628    0.016606666864    0.000061102640    -0.000105781894    0.071058294688    0.000256601969
            0.005497301914    -0.069702085971    0.000061102640    -0.000105781894    -0.016257028267    -0.080638660034    0.000065935408    -0.000114868200
            0.000073839344    -0.000126718675    0.071058294688    0.000256601969    0.000065935408    -0.000114868200    0.067799858190    0.016357543309
0.650     -0.056301043409    -0.057156469507    0.000042087890    -0.000136736301    -0.031369150883    -0.055496234742    0.000045938048    -0.000149454018
            0.000042087890    -0.000136736301    0.069359720202    0.035808160745    0.000037775569    -0.000124990878    0.069416895124    0.014202528253
            -0.031369150883    -0.055496234742    0.000037775569    -0.000124990878    -0.055239964588    -0.058740564387    0.000040491729    -0.000135212494
            0.000045938048    -0.000149454018    0.069416895124    0.014202528253    0.000040491729    -0.000135212494    0.069785122990    0.035052319295
0.675     -0.083815289641    -0.020338273850    0.000008227453    -0.000151508725    -0.060322120341    -0.027285788167    0.000009141193    -0.000165096966
            0.000008227453    -0.000151508725    0.081943794759    0.053365648692    0.000006723274    -0.000138191617    0.076299545068    0.028293917171
            -0.060322120341    -0.027285788167    0.000006723274    -0.000138191617    -0.083171608562    -0.022638834845    0.000007060504    -0.000149000470
            0.000009141193    -0.000165096966    0.076299545068    0.028293917171    0.000007060504    -0.000149000470    0.081889313059    0.052257775238
0.700     -0.095137521607    0.024777390034    -0.000031570444    -0.000155677639    -0.076309410189    0.010490268834    -0.000033760973    -0.000169400421
            -0.000031570444    -0.000155677639    0.103217671169    0.064598313003    -0.000029601003    -0.000141619031    0.090949987372    0.038444981453
            -0.076309410189    0.010490268834    -0.000029601003    -0.000141619031    -0.095181378493    0.021950976984    -0.000031738704    -0.000152412513
            -0.000033760973    -0.000169400421    0.090949987372    0.038444981453    -0.000031738704    -0.000152412513    0.102548802837    0.063385268765
0.725     -0.088470069058    0.070908926209    -0.000072577749    -0.000146875084    -0.076747519471    0.051745731968    -0.000077838709    -0.000159986710
            -0.000072577749    -0.000146875084    0.129552464605    0.066177887368    -0.000066825884    -0.000133204114    0.110796287463    0.041485348824
            -0.076747519471    0.051745731968    -0.000066825884    -0.000133204114    -0.089371603261    0.067844631255    -0.000071367076    -0.000143388682
            -0.000077838709    -0.000159986710    0.110796287463    0.041485348824    -0.000071367076    -0.000143388682    0.128261620224    0.065141024144
0.750     -0.065250313095    0.110929762732    -0.000109453871    -0.000125459338    -0.061875519337    0.090127636776    -0.000117556641    -0.000137270028
            -0.000109453871    -0.000125459338    0.156345141880    0.056826177575    -0.000100087730    -0.000113391728    0.132254553515    0.035844568431
            -0.061875519337    0.090127636776    -0.000100087730    -0.000113391728    -0.067049564661    0.107958755539    -0.000106809168    -0.000122437087
            -0.000117556641    -0.000137270028    0.132254553515    0.035844568431    -0.000106809168    -0.000122437087    0.154547694589    0.056219464207
0.775     -0.029539006978    0.139222787354    -0.000137852932    -0.000094222986    -0.034344080478    0.120240078649    -0.000148430003    -0.000104141043
            -0.000137852932    -0.000094222986    0.179093689992    0.037356998190    -0.000125501723    -0.000084829197    0.151616187873    0.021652539001
            -0.034344080478    0.120240078649    -0.000125501723    -0.000084829197    -0.032145017629    0.136662112109    -0.000134079747    -0.000092295586
            -0.000148430003    -0.000104141043    0.151616187873    0.021652539001    -0.000134079747    -0.000092295586    0.176999602702    0.037358742965
