# GHz S RI R 45
0.000     0.029485831871    0.001867291038    -0.000002093404    -0.000004606773    0.000944506287    0.001596479334    -0.000003007702    -0.000006687530
            -0.000002093406    -0.000004606772    0.029727896665    0.001261772814    -0.000001426268    -0.000003034820    0.000975614063    0.001384637011
            0.000944506176    0.001596479400    -0.000001426268    -0.000003034820    0.029427511534    0.001855195631    -0.000002142593    -0.000004679393
            -0.000003007697    -0.000006687531    0.000975613754    0.001384636984    -0.000002142592    -0.000004679392    0.029684840130    0.001271595125
0.025     0.036578771343    0.008244868074    -0.000005651973    -0.000009550078    0.004112564648    0.010827867595    -0.000008096342    -0.000013899819
            -0.000005651888    -0.000009550112    0.034859289537    0.007565403815    -0.000003807460    -0.000006276382    0.002882371854    0.010924954607
            0.004110628065    0.010830977476    -0.000003807519    -0.000006276360    0.036504134979    0.008216735461    -0.000005736239    -0.000009717395
            -0.000008096340    -0.000013899815    0.002884729656    0.010923355906    -0.000005736237    -0.000009717398    0.034801903485    0.007631661182
0.050     0.045950942110    0.008043945307    -0.000013134182    -0.000015012933    0.012653847706    0.018246929153    -0.000018820603    -0.000022028682
            -0.000013134182    -0.000015012933    0.039884136599    0.009127456726    -0.000008806063    -0.000009803208    0.008328326195    0.020086030160
            0.012653828145    0.018246968274    -0.000008806065    -0.000009803207    0.045846622143    0.008008483994    -0.000013313886    -0.000015353177
            -0.000018820603    -0.000022028682    0.008328458611    0.020086088924    -0.000013313885    -0.000015353176    0.039847378382    0.009270544534
0.075     0.055028397141    0.001887333843    -0.000022373201    -0.000016884629    0.023977039041    0.019899887116    -0.000032226133    -0.000025126813
            -0.000022373201    -0.000016884629    0.043776766238    0.008114179443    -0.000014948258    -0.000010892635    0.015910813481    0.026105752599
            0.023977032639    0.019899891697    -0.000014948258    -0.000010892635    0.054917297848    0.001880563396    -0.000022776681    -0.000017397646
            -0.000032226134    -0.000025126814    0.015910811918    0.026105758236    -0.000022776681    -0.000017397646    0.043791876263    0.008327735033
0.100     0.061064455341    -0.010048453403    -0.000032329356    -0.000015125142    0.034801327070    0.015042408261    -0.000046937757    -0.000022992305
            -0.000032329356    -0.000015125142    0.045664526079    0.005097559086    -0.000021510496    -0.000009530397    0.023879830915    0.028566800704
            0.034801327070    0.015042408261    -0.000021510496    -0.000009530397    0.060981658256    -0.010013124698    -0.000033125156    -0.000015701939
            -0.000046937757    -0.000022992305    0.023879808689    0.028566807553    -0.000033125156    -0.000015701939    0.045752793324    0.005358436174
0.125     0.061105525833    -0.026039723582    -0.000041998324    -0.000009790912    0.041855113405    0.004518174750    -0.000061484508    -0.000015505699
            -0.000041998324    -0.000009790912    0.044540307537    0.001224052157    -0.000027804674    -0.000005774460    0.030559529232    0.027895202783
            0.041855113405    0.004518174750    -0.000027804674    -0.000005774460    0.061097541729    -0.025968979483    -0.000043290088    -0.000010183989
            -0.000061484508    -0.000015505699    0.030559529232    0.027895202783    -0.000043290088    -0.000010183989    0.044713412861    0.001503038497
0.150     0.053227195241    -0.043109172006    -0.000050581727    -0.000001091977    0.042581744960    -0.009365766788    -0.000074538178    -0.000002827327
            -0.000050581727    -0.000001091977    0.040172981999    -0.001861756193    -0.000033290165    0.000000211414    0.034684925085    0.025240277412
            0.042581744960    -0.009365766788    -0.000033290165    0.000000211414    0.053340970268    -0.043035861615    -0.000052299911    -0.000000970049
            -0.000074538178    -0.000002827327    0.034684925085    0.025240277412    -0.000052299911    -0.000000970049    0.040429210666    -0.001600137659
0.175     0.036969713902    -0.057341696662    -0.000057313368    0.000010868837    0.035683096805    -0.023287858558    -0.000084758348    0.000014864569
            -0.000057313368    0.000010868837    0.032993898157    -0.002457780891    -0.000037445946    0.000008341461    0.035678300418    0.022214689780
            0.035683097642    -0.023287859105    -0.000037445946    0.000008341461    0.037236562716    -0.057328027211    -0.000059166376    0.000011783739
            -0.000084758348    0.000014864569    0.035678300418    0.022214689780    -0.000059166377    0.000011783739    0.033316920164    -0.002247465992
0.200     0.013791353055    -0.064818561183    -0.000061239321    0.000025971986    0.021516766157    -0.033536131026    -0.000090614766    0.000037195606
            -0.000061239321    0.000025971986    0.024277029212    0.000866165599    -0.000039618923    0.000018506396    0.033803669901    0.020545242647
            0.021516766157    -0.033536131026    -0.000039618923    0.000018506396    0.014211708710    -0.064947390657    -0.000062769198    0.000027755669
            -0.000090614766    0.000037195606    0.033803669901    0.020545242647    -0.000062769198    0.000027755669    0.024635355146    0.000999979621
0.225     -0.013086993685    -0.062468611271    -0.000061058430    0.000043824907    0.002169082782    -0.036790005560    -0.000090271829    0.000063328862
            -0.000061058430    0.000043824907    0.015952183185    0.008855720550    -0.000038924213    0.000030392629    0.030148880534    0.021654921296
            0.002169082782    -0.036790005560    -0.000038924213    0.000030392629    -0.012555716509    -0.062826377519    -0.000061795222    0.000046255484
            -0.000090271829    0.000063328862    0.030148880534    0.021654921296    -0.000061795222    0.000046255484    0.016302999968    0.008903748414
0.250     -0.039148801801    -0.048860606570    -0.000055297423    0.000063363440    -0.018832704960    -0.030920756160    -0.000081859288    0.000091551286
            -0.000055297423    0.000063363440    0.010232971042    0.021312200715    -0.000034385447    0.000043206262    0.026411369272    0.026295815022
            -0.018832704960    -0.030920756160    -0.000034385447    0.000043206262    -0.038592881020    -0.049514967256    -0.000054957960    0.000065950000
            -0.000081859288    0.000091551286    0.026411369272    0.026295815022    -0.000054957960    0.000065950000    0.010529910648    0.021286269095
0.275     -0.059431268077    -0.024710570856    -0.000042749393    0.000082614145    -0.037185917199    -0.015593043962    -0.000063990788    0.000119089209
            -0.000042749393    0.000082614145    0.009141454416    0.036984767837    -0.000025260072    0.000055525654    0.024506111714    0.034299199344
            -0.037185917199    -0.015593043962    -0.000025260072    0.000055525654    -0.058970859854    -0.025687888599    -0.000041395106    0.000084754025
            -0.000063990788    0.000119089209    0.024506111714    0.034299199344    -0.000041395106    0.000084754025    0.009345300876    0.036919152317
0.300     -0.069582719489    0.007027062136    -0.000023133478    0.000098841592    -0.048744661558    0.007500073751    -0.000036505531    0.000142348590
            -0.000023133478    0.000098841592    0.014005187756    0.053747476705    -0.000011500987    0.000065444586    0.026088911515    0.044567994948
            -0.048744661558    0.007500073751    -0.000011500987    0.000065444586    -0.069349939349    0.005757831265    -0.000021186620    0.000100065370
            -0.000036505531    0.000142348590    0.026088911515    0.044567994948    -0.000021186620    0.000100065370    0.014094883849    0.053694650223
0.325     -0.066863525863    0.041639088789    0.000002463241    0.000109130354    -0.050462029129    0.034908987218    -0.000000908670    0.000157629661
            0.000002463241    0.000109130354    0.025084803146    0.068989764007    0.000005964905    0.000071018700    0.032122421697    0.055303076718
            -0.050462029129    0.034908987218    0.000005964905    0.000071018700    -0.066973276869    0.040168982151    0.000004362205    0.000109316789
            -0.000000908670    0.000157629661    0.032122421697    0.055303076718    0.000004362205    0.000109316789    0.025064727425    0.069010256161
0.350     -0.050820271435    0.073564159657    0.000031579283    0.000111235233    -0.041091208731    0.062133820096    0.000039670840    0.000162098365
            0.000031579283    0.000111235233    0.041444251176    0.080185847976    0.000025288221    0.000070876059    0.042630267714    0.064433317847
            -0.041091208731    0.062133820096    0.000025288221    0.000070876059    -0.051342927037    0.072033302158    0.000032831163    0.000110695541
            0.000039670840    0.000162098365    0.042630267714    0.064433317847    0.000032831163    0.000110695541    0.041348059174    0.080336034673
0.375     -0.023403813572    0.097508115046    0.000060921198    0.000104244286    -0.021422734363    0.084549437147    0.000081150261    0.000154521753
            0.000060921198    0.000104244286    0.061115471111    0.085427019128    0.000044154311    0.000064646212    0.056690123843    0.070080171375
            -0.021422734363    0.084549437147    0.000044154311    0.000064646212    -0.024345475119    0.096081634681    0.000061246523    0.000103619513
            0.000081150261    0.000154521753    0.056690123843    0.070080171375    0.000061246523    0.000103619513    0.061001162940    0.085745268134
0.400     0.011420239244    0.109443461916    0.000087206287    0.000088822969    0.005922005981    0.098286489818    0.000119441545    0.000135515981
            0.000087206287    0.000088822969    0.081497688796    0.083819480956    0.000060400318    0.000053051871    0.072655848880    0.070957537894
            0.005922005981    0.098286489818    0.000060400318    0.000053051871    0.010124359535    0.108282237530    0.000086807268    0.000088826786
            0.000119441545    0.000135515981    0.072655848880    0.070957537894    0.000086807268    0.000088826786    0.081438675962    0.084316551830
0.425     0.048429992014    0.107261950230    0.000107936985    0.000066899964    0.037026537277    0.100842635145    0.000151332097    0.000107170250
            0.000107936985    0.000066899964    0.099859266096    0.075621908674    0.000072528158    0.000037597819    0.088493978110    0.066586437930
            0.037026537277    0.100842635145    0.000072528158    0.000037597819    0.046909314882    0.106492534390    0.000107470138    0.000067995014
            0.000151332097    0.000107170250    0.088493978110    0.066586437930    0.000107470138    0.000067995014    0.099931073879    0.076275544748
0.450     0.082019235312    0.091035436516    0.000121855106    0.000041048197    0.067330849814    0.091403043417    0.000174979843    0.000072346232
            0.000121855106    0.000041048197    0.113822869896    0.062169161563    0.000079940016    0.000020093879    0.102154354964    0.057357150448
            0.067330849814    0.091403043417    0.000079940016    0.000020093879    0.080450141441    0.090725892530    0.000122210153    0.000043191546
            0.000174979843    0.000072346232    0.102154354964    0.057357150448    0.000122210153    0.000043191546    0.114088450095    0.062924557042
0.475     0.107009837520    0.062924599075    0.000128963054    0.000013753934    0.092261779705    0.070889256086    0.000189913517    0.000033865062
            0.000128963054    0.000013753934    0.121733826287    0.045616814198    0.000082862777    0.000002154443    0.111888390500    0.044443873065
            0.092261779705    0.070889256086    0.000082862777    0.000002154443    0.105590560508    0.063068561559    0.000130916658    0.000016307406
            0.000189913517    0.000033865062    0.111888390500    0.044443873065    0.000130916658    0.000016307406    0.122230082918    0.046394290557
0.500     0.119332879962    0.026873158356    0.000130222895    -0.000013156277    0.107808805845    0.041861775454    0.000196674002    -0.000006086855
            0.000130222895    -0.000013156277    0.122905912194    0.028608946175    0.000082075156    -0.000015132654    0.116523413361    0.029649587642
            0.107808805845    0.041861775454    0.000082075156    -0.000015132654    0.118253603153    0.027383434474    0.000134072155    -0.000011300109
            0.000196674002    -0.000006086855    0.116523413361    0.029649587642    0.000134072155    -0.000011300109    0.123633773689    0.029314288187
0.525     0.116564683607    -0.011852446111    0.000126978700    -0.000038871361    0.111038296090    0.008291379197    0.000196199535    -0.000046307966
            0.000126978700    -0.000038871361    0.117732455252    0.013889484672    0.000078503389    -0.000031372224    0.115666592214    0.015163655282
            0.111038296090    0.008291379197    0.000078503389    -0.000031372224    0.115976235123    -0.011139912348    0.000132292693    -0.000038941467
            0.000196199535    -0.000046307966    0.115666592214    0.015163655282    0.000132292693    -0.000038941467    0.118652006286    0.014431026630
0.550     0.098358114898    -0.047255895987    0.000120310260    -0.000063592043    0.100611434233    -0.024809410899    0.000189146245    -0.000086515235
            0.000120310260    -0.000063592043    0.107693635262    0.003903338939    0.000072806965    -0.000046791612    0.109862940123    0.003259763342
            0.100611434233    -0.024809410899    0.000072806965    -0.000046791612    0.098340090071    -0.046565392039    0.000125902935    -0.000066480703
            0.000189146245    -0.000086515235    0.109862940123    0.003259763342    0.000125902935    -0.000066480703    0.108724213200    0.004209428486
0.575     0.066716856109    -0.073370435253    0.000110382294    -0.000088142690    0.077217779785    -0.051971696175    0.000175279378    -0.000126886396
            0.000110382294    -0.000088142690    0.095217886183    0.000369985099    0.000064999907    -0.000061943467    0.100626035171    -0.004109381697
            0.077217779785    -0.051971696175    0.000064999907    -0.000061943467    0.067252828942    -0.072956975914    0.000114583311    -0.000093958072
            0.000175279378    -0.000126886396    0.100626035171    -0.004109381697    0.000114583311    -0.000093958072    0.096248213151    0.000407548967
0.600     0.026016484862    -0.085214732761    0.000096132397    -0.000113193045    0.043825493141    -0.068138116195    0.000153249260    -0.000167233325
            0.000096132397    -0.000113193045    0.083380641386    0.003885810231    0.000054303407    -0.000077171508    0.090306198929    -0.005754585225
            0.043825493141    -0.068138116195    0.000054303407    -0.000077171508    0.026980113947    -0.085321225480    0.000097313943    -0.000121015523
            0.000153249260    -0.000167233325    0.090306198929    -0.005754585225    0.000097313943    -0.000121015523    0.084287280530    0.003675043249
0.625     -0.017419119095    -0.079830509800    0.000075511106    -0.000138264138    0.005497301914    -0.069702085971    0.000120958710    -0.000206028651
            0.000075511106    -0.000138264138    0.075381898069    0.013636068013    0.000039382584    -0.000091964906    0.081692932765    -0.001656766836
            0.005497301914    -0.069702085971    0.000039382584    -0.000091964906    -0.016257028267    -0.080638660034    0.000072734877    -0.000146263273
            0.000120958710    -0.000206028651    0.081692932765    -0.001656766836    0.000072734877    -0.000146263273    0.076054933043    0.013254549974
0.650     -0.056301043409    -0.057156469507    0.000046496121    -0.000161033764    -0.031369150883    -0.055496234742    0.000076717226    -0.000239802835
            0.000046496124    -0.000161033763    0.073869136875    0.027370402482    0.000019083612    -0.000104571779    0.077411172298    0.006858327864
            -0.031369150883    -0.055496234742    0.000019083612    -0.000104571779    -0.055239964588    -0.058740564387    0.000039998396    -0.000166996821
            0.000076717226    -0.000239802835    0.077411172298    0.006858327864    0.000039998396    -0.000166996821    0.074240131089    0.026945247471
0.675     -0.083815289641    -0.020338273850    0.000008499951    -0.000177474418    -0.060322120341    -0.027285788167    0.000020690199    -0.000263478819
            0.000008499951    -0.000177474418    0.080243226394    0.041754905328    -0.000006592972    -0.000112211542    0.079220260869    0.017299459462
            -0.060322120341    -0.027285788167    -0.000006592972    -0.000112211542    -0.083171608562    -0.022638834845    -0.000000206500    -0.000179579241
            0.000020690199    -0.000263478819    0.079220260869    0.017299459462    -0.000000206500    -0.000179579241    0.080307531401    0.041439456402
0.700     -0.095137521607    0.024777390034    -0.000036540536    -0.000183083535    -0.076309410189    0.010490268834    -0.000044057931    -0.000271793655
            -0.000036540536    -0.000183083535    0.094227103001    0.053089401353    -0.000035849705    -0.000112056818    0.087515413207    0.026581731128
            -0.076309410189    0.010490268834    -0.000035849705    -0.000112056818    -0.095181378493    0.021950976984    -0.000045086774    -0.000180613322
            -0.000044057931    -0.000271793655    0.087515413207    0.026581731128    -0.000045086774    -0.000180613322    0.094051809821    0.053030802360
0.725     -0.088470069058    0.070908926209    -0.000084168387    -0.000174607444    -0.076747519471    0.051745731968    -0.000111757776    -0.000261171298
            -0.000084168387    -0.000174607444    0.113870608818    0.058178852390    -0.000065306675    -0.000102454626    0.101201712507    0.031789878157
            -0.076747519471    0.051745731968    -0.000065306675    -0.000102454626    -0.089371603261    0.067844631255    -0.000090118365    -0.000168289741
            -0.000111757776    -0.000261171298    0.101201712507    0.031789878157    -0.000090118365    -0.000168289741    0.113586783260    0.058483964361
0.750     -0.065250313095    0.110929762732    -0.000128617051    -0.000151389213    -0.061875519337    0.090127636776    -0.000175313642    -0.000231109718
            -0.000128617051    -0.000151389213    0.136032589158    0.055054087338    -0.000091045622    -0.000083731769    0.118027218146    0.030863187699
            -0.061875519337    0.090127636776    -0.000091045622    -0.000083731769    -0.067049564661    0.107958755539    -0.000130302082    -0.000143199616
            -0.000175313642    -0.000231109718    0.118027218146    0.030863187699    -0.000130302082    -0.000143199616    0.135809344328    0.055765446309
0.775     -0.029539006978    0.139222787354    -0.000164480325    -0.000115582455    -0.034344080478    0.120240078649    -0.000228219085    -0.000184296093
            -0.000164480325    -0.000115582455    0.157110130087    0.043314691136    -0.000109840089    -0.000058074078    0.135152458002    0.022956928723
            -0.034344080478    0.120240078649    -0.000109840089    -0.000058074078    -0.032145017629    0.136662112109    -0.000161574283    -0.000108108698
            -0.000228219085    -0.000184296093    0.135152458002    0.022956928723    -0.000161574283    -0.000108108698    0.157123870068    0.044399563454
