# GHz S RI R 45
0.000     0.029485831871    0.001867291038    0.000000318190    0.000001102479    0.000944506287    0.001596479334    0.000000309694    0.000001095088
            0.000000318190    0.000001102479    0.030238046633    0.001250284191    0.000000343766    0.000001137510    0.000944414875    0.001382883840
            0.000944506176    0.001596479400    0.000000343766    0.000001137510    0.029427511534    0.001855195631    0.000000345505    0.000001146458
            0.000000309694    0.000001095088    0.000944414295    0.001382883872    0.000000345505    0.000001146458    0.030174224855    0.001254676880
0.025     0.036578771343    0.008244868074    0.000001117887    0.000002326716    0.004112564648    0.010827867595    0.000001095895    0.000002315616
            0.000001117840    0.000002326627    0.035691774219    0.007943006926    0.000001174282    0.000002399401    0.003128450725    0.011437046618
            0.004110628065    0.010830977476    0.000001174279    0.000002399403    0.036504134979    0.008216735461    0.000001176001    0.000002421283
            0.000001095893    0.000002315616    0.003130846891    0.011436719573    0.000001176002    0.000002421282    0.035652914009    0.008014436427
0.050     0.045950942110    0.008043945307    0.000002859102    0.000003756942    0.012653847706    0.018246929153    0.000002823750    0.000003755747
            0.000002859098    0.000003756946    0.041307663994    0.009320717317    0.000002971718    0.000003865444    0.009209015567    0.020746620080
            0.012653828145    0.018246968274    0.000002971718    0.000003865444    0.045846622143    0.008008483994    0.000002985310    0.000003914116
            0.000002823750    0.000003755747    0.009209049390    0.020746626948    0.000002985310    0.000003914116    0.041312717771    0.009456562047
0.075     0.055028397141    0.001887333843    0.000005080548    0.000004384341    0.023977039041    0.019899887116    0.000005041070    0.000004398458
            0.000005080516    0.000004384385    0.045693341815    0.007670972017    0.000005256054    0.000004504336    0.017501878556    0.026410085521
            0.023977032639    0.019899891697    0.000005256055    0.000004504336    0.054917297848    0.001880563396    0.000005295423    0.000004574446
            0.000005041070    0.000004398458    0.017501893760    0.026410087442    0.000005295423    0.000004574446    0.045773115090    0.007847538769
0.100     0.061064455341    -0.010048453403    0.000007553544    0.000004160659    0.034801327070    0.015042408261    0.000007518273    0.000004191243
            0.000007553550    0.000004160673    0.047714996676    0.003636365693    0.000007795281    0.000004270573    0.025941654113    0.028020864953
            0.034801327070    0.015042408261    0.000007795281    0.000004270572    0.060981658256    -0.010013124698    0.000007871682    0.000004352294
            0.000007518273    0.000004191243    0.025941654113    0.028020864953    0.000007871682    0.000004352294    0.047882486045    0.003810109061
0.125     0.061105525833    -0.026039723582    0.000010051458    0.000003068915    0.041855113405    0.004518174750    0.000010028363    0.000003113007
            0.000010051466    0.000003068885    0.046149051097    -0.001409867037    0.000010357726    0.000003148322    0.032573855264    0.026185608015
            0.041855113405    0.004518174750    0.000010357726    0.000003148322    0.061097541729    -0.025968979483    0.000010479159    0.000003226882
            0.000010028364    0.000003113007    0.032573855264    0.026185608015    0.000010479160    0.000003226882    0.046392249254    -0.001287554965
0.150     0.053227195241    -0.043109172006    0.000012375512    0.000001114677    0.042581744960    -0.009365766788    0.000012370003    0.000001165825
            0.000012375512    0.000001114677    0.040674986125    -0.005487621122    0.000012743946    0.000001144010    0.035978644755    0.022370392961
            0.042581744960    -0.009365766788    0.000012743946    0.000001144010    0.053340970268    -0.043035861615    0.000012912524    0.000001200809
            0.000012370003    0.000001165825    0.035978675727    0.022370379132    0.000012912524    0.000001200809    0.040962314137    -0.005454816166
0.175     0.036969713902    -0.057341696662    0.000014325919    -0.000001711709    0.035683096805    -0.023287858558    0.000014339366    -0.000001661948
            0.000014325919    -0.000001711709    0.031839180410    -0.006532854429    0.000014749869    -0.000001753957    0.035605774408    0.018565903376
            0.035683097642    -0.023287859105    0.000014749869    -0.000001753957    0.037236562716    -0.057328027211    0.000014960222    -0.000001738656
            0.000014339366    -0.000001661948    0.035605792501    0.018565894631    0.000014960222    -0.000001738656    0.032118499922    -0.006612242587
0.200     0.013791353055    -0.064818561183    0.000015639451    -0.000005412528    0.021516766157    -0.033536131026    0.000015668933    -0.000005372024
            0.000015639451    -0.000005412528    0.021217488097    -0.002826294902    0.000016106839    -0.000005549520    0.031949782335    0.016840461241
            0.021516766157    -0.033536131026    0.000016106839    -0.000005549520    0.014211708710    -0.064947390657    0.000016345871    -0.000005593322
            0.000015668933    -0.000005372024    0.031949782335    0.016840461241    0.000016345871    -0.000005593322    0.021425173178    -0.003014216920
0.225     -0.013086993685    -0.062468611271    0.000015957510    -0.000009908239    0.002169082782    -0.036790005560    0.000015996973    -0.000009882241
            0.000015957510    -0.000009908239    0.011185182007    0.006491759465    0.000016447513    -0.000010164011    0.026502951751    0.018815901984
            0.002169082782    -0.036790005560    0.000016447513    -0.000010164011    -0.012555716509    -0.062826377519    0.000016695442    -0.000010279235
            0.000015996973    -0.000009882241    0.026502951751    0.018815901984    0.000016695442    -0.000010279235    0.011259623268    0.006230629669
0.250     -0.039148801801    -0.048860606570    0.000014874897    -0.000014935349    -0.018832704960    -0.030920756160    0.000014916887    -0.000014925087
            0.000014874897    -0.000014935349    0.004442621121    0.021089920664    0.000015355064    -0.000015330641    0.021451928820    0.025210936425
            -0.018832704960    -0.030920756160    0.000015355064    -0.000015330641    -0.038592881020    -0.049514967256    0.000015588055    -0.000015521651
            0.000014916887    -0.000014925087    0.021451928820    0.025210936425    0.000015588055    -0.000015521651    0.004339815666    0.020821170296
0.275     -0.059431268077    -0.024710570856    0.000012062136    -0.000019991770    -0.037185917199    -0.015593043962    0.000012100263    -0.000019994762
            0.000012062118    -0.000019991776    0.003399212757    0.039329742782    0.000012487876    -0.000020536879    0.019149598065    0.035561118284
            -0.037185917199    -0.015593043962    0.000012487875    -0.000020536880    -0.058970859854    -0.025687888599    0.000012681831    -0.000020799651
            0.000012100263    -0.000019994762    0.019149598065    0.035561118284    0.000012681831    -0.000020799651    0.003107324143    0.039139746736
0.300     -0.069582719489    0.007027062136    0.000007429721    -0.000024379868    -0.048744661558    0.007500073751    0.000007460372    -0.000024391381
            0.000007429721    -0.000024379868    0.009535297913    0.058519240308    0.000007749373    -0.000025067843    0.021495827051    0.048264826578
            -0.048744661558    0.007500073751    0.000007749373    -0.000025067843    -0.069349939349    0.005757831265    0.000007882963    -0.000025390368
            0.000007460372    -0.000024391381    0.021495827051    0.048264826578    0.000007882963    -0.000025390368    0.009083922400    0.058498991980
0.325     -0.066863525863    0.041639088789    0.000001237864    -0.000027363840    -0.050462029129    0.034908987218    0.000001260711    -0.000027378880
            0.000001237864    -0.000027363840    0.022955859013    0.075453795772    0.000001401440    -0.000028166355    0.029411071808    0.060941166865
            -0.050462029129    0.034908987218    0.000001401440    -0.000028166355    -0.066973276869    0.040168982151    0.000001458546    -0.000028531112
            0.000001260711    -0.000027378880    0.029411071808    0.060941166865    0.000001458546    -0.000028531112    0.022416385122    0.075678378335
0.350     -0.050820271435    0.073564159657    -0.000005912152    -0.000028380338    -0.041091208731    0.062133820096    -0.000005895176    -0.000028395442
            -0.000005912152    -0.000028380338    0.042287709668    0.087153890904    -0.000005942290    -0.000029250091    0.042592083514    0.071023140695
            -0.041091208731    0.062133820096    -0.000005942290    -0.000029250091    -0.051342927037    0.072033302158    -0.000005971660    -0.000029636101
            -0.000005895176    -0.000028395442    0.042592083514    0.071023140695    -0.000005971660    -0.000029636101    0.041763155940    0.087663827087
0.375     -0.023403813572    0.097508115046    -0.000013223808    -0.000027203843    -0.021422734363    0.084549437147    -0.000013209765    -0.000027217469
            -0.000013223812    -0.000027203841    0.064956947082    0.091519003426    -0.000013465087    -0.000028081728    0.059593207317    0.076349963543
            -0.021422734363    0.084549437147    -0.000013465087    -0.000028081728    -0.024345475119    0.096081634681    -0.000013584717    -0.000028467141
            -0.000013209765    -0.000027217469    0.059593207317    0.076349963543    -0.000013584717    -0.000028467141    0.064565546324    0.092308125521
0.400     0.011420239244    0.109443461916    -0.000019916394    -0.000023990622    0.005922005981    0.098286489818    -0.000019902356    -0.000024003251
            -0.000019916394    -0.000023990622    0.087742982809    0.087762121320    -0.000020363323    -0.000024816967    0.078181126240    0.075619601933
            0.005922005981    0.098286489818    -0.000020363323    -0.000024816967    0.010124359535    0.108282237530    -0.000020571447    -0.000025180544
            -0.000019902356    -0.000024003251    0.078181126240    0.075619601933    -0.000020571447    -0.000025180544    0.087595927066    0.088773517418
0.425     0.048429992014    0.107261950230    -0.000025414989    -0.000019193363    0.037026537277    0.100842635145    -0.000025399212    -0.000019207078
            -0.000025414986    -0.000019193368    0.107410690849    0.076502224024    -0.000026042661    -0.000019917889    0.095791923411    0.068585086235
            0.037026537277    0.100842635145    -0.000026042662    -0.000019917890    0.046909314882    0.106492534390    -0.000026333038    -0.000020240268
            -0.000025399212    -0.000019207078    0.095791923411    0.068585086235    -0.000026333038    -0.000020240268    0.107591378658    0.077633825794
0.450     0.082019235312    0.091035436516    -0.000029448557    -0.000013396007    0.067330849814    0.091403043417    -0.000029430617    -0.000013413645
            -0.000029448557    -0.000013396007    0.121275027910    0.059602246190    -0.000030220812    -0.000013984546    0.109983675568    0.056058521850
            0.067330849814    0.091403043417    -0.000030220812    -0.000013984546    0.080450141441    0.090725892530    -0.000030583674    -0.000014248919
            -0.000029430617    -0.000013413645    0.109983675568    0.056058521850    -0.000030583674    -0.000014248919    0.121822225079    0.060720028180
0.475     0.107009837520    0.062924599075    -0.000032045184    -0.000007134941    0.092261779705    0.070889256086    -0.000032026382    -0.000007159731
            -0.000032045184    -0.000007134941    0.127601915501    0.039824685055    -0.000032924432    -0.000007570481    0.118801107667    0.039761278780
            0.092261779705    0.070889256086    -0.000032924432    -0.000007570481    0.105590560508    0.063068561559    -0.000033347619    -0.000007762854
            -0.000032026382    -0.000007159731    0.118801107667    0.039761278780    -0.000033347619    -0.000007762854    0.128497342966    0.040781906062
0.500     0.119332879962    0.026873158356    -0.000033437550    -0.000000757730    0.107808805845    0.041861775454    -0.000033421031    -0.000000792431
            -0.000033437550    -0.000000757730    0.125861237002    0.020421936081    -0.000034393063    -0.000001035987    0.121080820091    0.022108283489
            0.107808805845    0.041861775454    -0.000034393063    -0.000001035987    0.118253603153    0.027383434474    -0.000034863033    -0.000001144946
            -0.000033421031    -0.000000792431    0.121080820091    0.022108283489    -0.000034863033    -0.000001144946    0.127024670802    0.021081739293
0.525     0.116564683607    -0.011852446111    -0.000033911167    0.000005651142    0.111038296090    0.008291379197    -0.000033902177    0.000005605095
            -0.000033911167    0.000005651142    0.116836777989    0.004678221164    -0.000034924121    0.000005529882    0.116686865712    0.005900388359
            0.111038296090    0.008291379197    -0.000034924121    0.000005529882    0.115976235123    -0.011139912348    -0.000035426607    0.000005513912
            -0.000033902177    0.000005605095    0.116686865712    0.005900388359    -0.000035426607    0.000005513912    0.118131199753    0.004940122641
0.550     0.098358114898    -0.047255895987    -0.000033623113    0.000012252249    0.100611434233    -0.024809410899    -0.000033628467    0.000012196163
            -0.000033623117    0.000012252250    0.102628419766    -0.004578097581    -0.000034685249    0.000012293565    0.106691745020    -0.006077119069
            0.100611434233    -0.024809410899    -0.000034685248    0.000012293565    0.098340090071    -0.046565392039    -0.000035204842    0.000012379228
            -0.000033628467    0.000012196163    0.106691745020    -0.006077119069    -0.000035204842    0.000012379228    0.103873699061    -0.004753111985
0.575     0.066716856109    -0.073370435253    -0.000032440938    0.000019321510    0.077217779785    -0.051971696175    -0.000032467559    0.000019260631
            -0.000032440938    0.000019321518    0.086471374770    -0.005514873720    -0.000033546583    0.000019545010    0.093389691731    -0.011596954396
            0.077217779785    -0.051971696175    -0.000033546583    0.000019545010    0.067252828942    -0.072956975914    -0.000034066025    0.000019740775
            -0.000032467559    0.000019260631    0.093389691731    -0.011596954396    -0.000034066025    0.000019740775    0.087472377409    -0.006084467878
0.600     0.026016484862    -0.085214732761    -0.000029875392    0.000027009277    0.043825493141    -0.068138116195    -0.000029928139    0.000026953225
            -0.000029875392    0.000027009277    0.072314357007    0.002183983546    -0.000031008120    0.000027450845    0.080054991486    -0.009588274626
            0.043825493141    -0.068138116195    -0.000031008120    0.000027450845    0.026980113947    -0.085321225480    -0.000031505990    0.000027764395
            -0.000029928139    0.000026953225    0.080054991486    -0.009588274626    -0.000031505990    0.000027764395    0.072899380544    0.001351318332
0.625     -0.017419119095    -0.079830509800    -0.000025199727    0.000035059963    0.005497301914    -0.069702085971    -0.000025277854    0.000035021959
            -0.000025199727    0.000035059963    0.064076718260    0.016971535851    -0.000026318201    0.000035763601    0.070318432377    -0.000637050446
            0.005497301914    -0.069702085971    -0.000026318201    0.000035763601    -0.016257028267    -0.080638660034    -0.000026766981    0.000036200170
            -0.000025277854    0.000035021959    0.070318433388    -0.000637049302    -0.000026766981    0.000036200170    0.064140273049    0.016083581103
0.650     -0.056301043409    -0.057156469507    -0.000017777932    0.000042643000    -0.031369150883    -0.055496234742    -0.000017873565    0.000042636071
            -0.000017777932    0.000042643000    0.064699444049    0.035511311483    -0.000018808355    0.000043643468    0.067269396293    0.012905204827
            -0.031369150883    -0.055496234742    -0.000018808355    0.000043643468    -0.055239964588    -0.058740564387    -0.000019173969    0.000044201035
            -0.000017873565    0.000042636071    0.067269396293    0.012905204827    -0.000019173969    0.000044201035    0.064238202664    0.034816556497
0.675     -0.083815289641    -0.020338273850    -0.000007488526    0.000048463830    -0.060322120341    -0.027285788167    -0.000007586434    0.000048496229
            -0.000007488531    0.000048463835    0.075265468464    0.053312968276    -0.000008329971    0.000049764854    0.072533213596    0.027368291036
            -0.060322120341    -0.027285788167    -0.000008329972    0.000049764854    -0.083171608562    -0.022638834845    -0.000008573887    0.000050429356
            -0.000007586435    0.000048496229    0.072533213596    0.027368291036    -0.000008573887    0.000050429356    0.074391530428    0.053047707950
0.700     -0.095137521607    0.024777390034    0.000005009185    0.000051173322    -0.076309410189    0.010490268834    0.000004928206    0.000051244732
            0.000005009185    0.000051173322    0.094603404636    0.065826422611    0.000004465185    0.000052731964    0.085769189362    0.038713971408
            -0.076309410189    0.010490268834    0.000004465185    0.000052731964    -0.095181378493    0.021950976984    0.000004379889    0.000053474164
            0.000004928206    0.000051244732    0.085769189362    0.038713971408    0.000004379889    0.000053474164    0.093529094565    0.066159997317
0.725     -0.088470069058    0.070908926209    0.000018358029    0.000049885482    -0.076747519471    0.051745731968    0.000018311472    0.000049985231
            0.000018358029    0.000049885482    0.119569008888    0.069588112237    0.000018201503    0.000051611389    0.104787113539    0.043593722939
            -0.076747519471    0.051745731968    0.000018201503    0.000051611389    -0.089371603261    0.067844631255    0.000018302197    0.000052386541
            0.000018311472    0.000049985231    0.104787113539    0.043593722939    0.000018302197    0.000052386541    0.118565761735    0.070582998348
0.750     -0.065250313095    0.110929762732    0.000030910781    0.000044504007    -0.061875519337    0.090127636776    0.000030908796    0.000044613273
            0.000030910781    0.000044504007    0.145902559828    0.062978260898    0.000031190359    0.000046273577    0.126234145665    0.040102731345
            -0.061875519337    0.090127636776    0.000031190359    0.000046273577    -0.067049564661    0.107958755539    0.000031488091    0.000047026614
            0.000030908796    0.000044613273    0.126234145665    0.040102731345    0.000031488091    0.000047026614    0.145245951871    0.064576671759
0.775     -0.029539006978    0.139222787354    0.000041223714    0.000035712631    -0.034344080478    0.120240078649    0.000041265873    0.000035809689
            0.000041223714    0.000035712631    0.169240954396    0.046378079878    0.000041937063    0.000037392911    0.146445093718    0.027992817941
            -0.034344080478    0.120240078649    0.000041937063    0.000037392911    -0.032145017629    0.136662112109    0.000042422576    0.000038066320
            0.000041265873    0.000035809689    0.146445093718    0.027992817941    0.000042422576    0.000038066320    0.169162035874    0.048413364452
