# GHz S RI R 45
0.000     0.029485831871    0.001867291038    -0.000000016082    -0.000000109488    0.000944506287    0.001596479334    -0.000000012571    -0.000000108538
            -0.000000016082    -0.000000109488    0.028290174624    0.001384508983    0.000000003199    -0.000000080174    0.000821090353    0.001192014792
            0.000944506176    0.001596479400    0.000000003199    -0.000000080174    0.029427511534    0.001855195631    0.000000009202    -0.000000076298
            -0.000000012571    -0.000000108538    0.000821090353    0.001192014792    0.000000009202    -0.000000076298    0.028214291720    0.001376445732
0.025     0.036578771343    0.008244868074    -0.000000119495    -0.000000222681    0.004112564648    0.010827867595    -0.000000113608    -0.000000221994
            -0.000000119495    -0.000000222681    0.034527335374    0.006821167843    -0.000000066643    -0.000000172409    0.003412864440    0.009084369200
            0.004110628065    0.010830977476    -0.000000066643    -0.000000172408    0.036504134979    0.008216735461    -0.000000054508    -0.000000166855
            -0.000000113608    -0.000000221994    0.003412707628    0.009084432917    -0.000000054508    -0.000000166855    0.034442672896    0.006715998607
0.050     0.045950942110    0.008043945307    -0.000000364201    -0.000000311355    0.012653847706    0.018246929153    -0.000000356253    -0.000000313542
            -0.000000364201    -0.000000311355    0.042686663945    0.006354066558    -0.000000251164    -0.000000257838    0.010562853932    0.015533736490
            0.012653828145    0.018246968274    -0.000000251164    -0.000000257838    0.045846622143    0.008008483994    -0.000000230088    -0.000000255429
            -0.000000356253    -0.000000313542    0.010562828387    0.015533750232    -0.000000230088    -0.000000255429    0.042561499022    0.006176548458
0.075     0.055028397141    0.001887333843    -0.000000657683    -0.000000230573    0.023977039041    0.019899887116    -0.000000649712    -0.000000237049
            -0.000000657683    -0.000000230573    0.050824107921    0.000958586417    -0.000000486085    -0.000000215048    0.020318131522    0.017363072507
            0.023977032639    0.019899891697    -0.000000486085    -0.000000215048    0.054917297848    0.001880563396    -0.000000457813    -0.000000221773
            -0.000000649712    -0.000000237049    0.020318125456    0.017363076527    -0.000000457813    -0.000000221773    0.050656883648    0.000734133428
0.100     0.061064455341    -0.010048453403    -0.000000910007    0.000000031037    0.034801327070    0.015042408261    -0.000000904416    0.000000019933
            -0.000000910007    0.000000031037    0.056841267885    -0.009401315103    -0.000000701040    -0.000000027910    0.030154532193    0.013807724355
            0.034801327070    0.015042408261    -0.000000701040    -0.000000027910    0.060981658256    -0.010013124698    -0.000000669824    -0.000000048513
            -0.000000904416    0.000000019933    0.030154532193    0.013807724355    -0.000000669824    -0.000000048513    0.056645922316    -0.009647083775
0.125     0.061105525833    -0.026039723582    -0.000001029508    0.000000443201    0.041855113405    0.004518174750    -0.000001029036    0.000000428368
            -0.000001029508    0.000000443201    0.058320058083    -0.023641746751    -0.000000822141    0.000000286186    0.037472366529    0.005277337431
            0.041855113405    0.004518174750    -0.000000822141    0.000000286186    0.061097541729    -0.025968979483    -0.000000794721    0.000000249131
            -0.000001029036    0.000000428368    0.037472366520    0.005277337496    -0.000000794721    0.000000249131    0.058123913040    -0.023894221505
0.150     0.053227195241    -0.043109172006    -0.000000944599    0.000000933917    0.042581744960    -0.009365766788    -0.000000951404    0.000000917770
            -0.000000944599    0.000000933917    0.053445220040    -0.039538659845    -0.000000788328    0.000000675695    0.040089261823    -0.006705981572
            0.042581744960    -0.009365766788    -0.000000788328    0.000000675695    0.053340970268    -0.043035861615    -0.000000772541    0.000000623479
            -0.000000951404    0.000000917770    0.040089261823    -0.006705981572    -0.000000772541    0.000000623479    0.053285439844    -0.039801287696
0.175     0.036969713902    -0.057341696662    -0.000000621070    0.000001401846    0.035683096805    -0.023287858558    -0.000000636259    0.000001387981
            -0.000000621070    0.000001401846    0.041499802566    -0.054170354198    -0.000000565881    0.000001063676    0.036644022136    -0.019760742467
            0.035683097642    -0.023287859105    -0.000000565881    0.000001063676    0.037236562716    -0.057328027211    -0.000000568751    0.000001001424
            -0.000000636260    0.000001387981    0.036644022136    -0.019760742467    -0.000000568751    0.000001001424    0.041409351761    -0.054469627839
0.200     0.013791353055    -0.064818561183    -0.000000073204    0.000001733780    0.021516766157    -0.033536131026    -0.000000095944    0.000001726524
            -0.000000073204    0.000001733780    0.023100971796    -0.064393689571    -0.000000157898    0.000001360268    0.026922815125    -0.031056899463
            0.021516766157    -0.033536131026    -0.000000157898    0.000001360268    0.014211708710    -0.064947390657    -0.000000183720    0.000001296406
            -0.000000095944    0.000001726524    0.026922815125    -0.031056899463    -0.000000183720    0.000001296406    0.023097293446    -0.064774705454
0.225     -0.013086993685    -0.062468611271    0.000000632980    0.000001827280    0.002169082782    -0.036790005560    0.000000605742    0.000001830599
            0.000000632980    0.000001827280    0.000227816536    -0.067442435226    0.000000390765    0.000001480380    0.011974933052    -0.037830846909
            0.002169082782    -0.036790005560    0.000000390765    0.000001480380    -0.012555716509    -0.062826377519    0.000000341871    0.000001425128
            0.000000605742    0.000001830599    0.011974933052    -0.037830846909    0.000000341871    0.000001425128    0.000303132715    -0.067960455953
0.250     -0.039148801801    -0.048860606570    0.000001386135    0.000001613789    -0.018832704960    -0.030920756160    0.000001359540    0.000001630035
            0.000001386135    0.000001613789    -0.023989998487    -0.061526849040    0.000000997255    0.000001362396    -0.005987651364    -0.037937783374
            -0.018832704960    -0.030920756160    0.000000997255    0.000001362396    -0.038592881020    -0.049514967256    0.000000929998    0.000001325531
            0.000001359540    0.000001630035    -0.005987651364    -0.037937783374    0.000000929998    0.000001325531    -0.023872811166    -0.062233390093
0.275     -0.059431268077    -0.024710570856    0.000002048009    0.000001078899    -0.037185917199    -0.015593043962    0.000002028300    0.000001107777
            0.000002048009    0.000001078899    -0.045770681857    -0.046278779636    0.000001554011    0.000000985803    -0.023931043405    -0.030320165506
            -0.037185917199    -0.015593043962    0.000001554011    0.000000985803    -0.058970859854    -0.025687888599    0.000001477271    0.000000974401
            0.000002028300    0.000001107777    -0.023931043405    -0.030320165506    0.000001477271    0.000000974401    -0.045675497747    -0.047206849097
0.300     -0.069582719489    0.007027062136    0.000002480048    0.000000271727    -0.048744661558    0.007500073751    0.000002473099    0.000000309760
            0.000002480048    0.000000271727    -0.061339830856    -0.022977510210    0.000001949199    0.000000379745    -0.038537452411    -0.015306386203
            -0.048744661558    0.007500073751    0.000001949199    0.000000379745    -0.069349939349    0.005757831265    0.000001874361    0.000000396425
            0.000002473099    0.000000309760    -0.038537452411    -0.015306386203    0.000001874361    0.000000396425    -0.061347459562    -0.024128543932
0.325     -0.066863525863    0.041639088789    0.000002573896    -0.000000699753    -0.050462029129    0.034908987218    0.000002583616    -0.000000658505
            0.000002573896    -0.000000699753    -0.067646992348    0.005565993163    0.000002091178    -0.000000378774    -0.046831243137    0.005368387307
            -0.050462029129    0.034908987218    0.000002091178    -0.000000378774    -0.066973276869    0.040168982151    0.000002029866    -0.000000336318
            0.000002583616    -0.000000658505    -0.046831243137    0.005368387307    0.000002029866    -0.000000336318    -0.067838339713    0.004229538186
0.350     -0.050820271435    0.073564159657    0.000002274763    -0.000001687474    -0.041091208731    0.062133820096    0.000002302080    -0.000001650494
            0.000002274763    -0.000001687474    -0.062986916195    0.035421756632    0.000001927121    -0.000001178781    -0.046769475428    0.028824356425
            -0.041091208731    0.062133820096    0.000001927121    -0.000001178781    -0.051342927037    0.072033302158    0.000001889119    -0.000001117334
            0.000002302080    -0.000001650494    -0.046769475428    0.028824356425    0.000001889119    -0.000001117334    -0.063424265212    0.033974976882
0.375     -0.023403813572    0.097508115046    0.000001594035    -0.000002531513    -0.021422734363    0.084549437147    0.000001636529    -0.000002506193
            0.000001594035    -0.000002531513    -0.047359932409    0.062200500900    0.000001454139    -0.000001896177    -0.037638624899    0.051533718403
            -0.021422734363    0.084549437147    0.000001454139    -0.000001896177    -0.024345475119    0.096081634681    0.000001445964    -0.000001825802
            0.000001636529    -0.000002506194    -0.037638624899    0.051533718403    0.000001445964    -0.000001825802    -0.048070446658    0.060745581674
0.400     0.011420239244    0.109443461916    0.000000605796    -0.000003088257    0.005922005981    0.098286489818    0.000000658219    -0.000003080440
            0.000000605796    -0.000003088257    -0.022525926367    0.081799376853    0.000000717520    -0.000002414688    -0.020201275995    0.069934993200
            0.005922005981    0.098286489818    0.000000717520    -0.000002414688    0.010124359535    0.108282237530    0.000000741602    -0.000002347224
            0.000000658219    -0.000003080440    -0.020201275995    0.069934993200    0.000000741602    -0.000002347224    -0.023490509648    0.080448382778
0.425     0.048429992014    0.107261950230    -0.000000566351    -0.000003253174    0.037026537277    0.100842635145    -0.000000511258    -0.000003266310
            -0.000000566351    -0.000003253174    0.008272014848    0.091074173490    -0.000000197509    -0.000002643491    0.003438014509    0.081013715552
            0.037026537277    0.100842635145    -0.000000197509    -0.000002643491    0.046909314882    0.106492534390    -0.000000142939    -0.000002591094
            -0.000000511258    -0.000003266310    0.003438014509    0.081013715552    -0.000000142939    -0.000002591094    0.007120743486    0.089928882363
0.450     0.082019235312    0.091035436516    -0.000001768812    -0.000002972908    0.067330849814    0.091403043417    -0.000001719188    -0.000003007604
            -0.000001768812    -0.000002972908    0.040806880391    0.088332144877    -0.000001178682    -0.000002526181    0.030166191520    0.082768130434
            0.067330849814    0.091403043417    -0.000001178682    -0.000002526181    0.080450141441    0.090725892530    -0.000001099721    -0.000002500150
            -0.000001719188    -0.000003007604    0.030166191520    0.082768130434    -0.000001099721    -0.000002500150    0.039578261465    0.087462949988
0.475     0.107009837520    0.062924599075    -0.000002837298    -0.000002250975    0.092261779705    0.070889256086    -0.000002801256    -0.000002304914
            -0.000002837298    -0.000002250975    0.070489132149    0.073565870885    -0.000002099196    -0.000002047116    0.056315147128    0.074479451853
            0.092261779705    0.070889256086    -0.000002099196    -0.000002047116    0.105590560508    0.063068561559    -0.000002005913    -0.000002056553
            -0.000002801256    -0.000002304913    0.056315147128    0.074479451853    -0.000002005913    -0.000002056553    0.069319860125    0.072996942136
0.500     0.119332879962    0.026873158356    -0.000003613363    -0.000001146787    0.107808805845    0.041861775454    -0.000003598107    -0.000001214957
            -0.000003613363    -0.000001146787    0.093001623790    0.048459559215    -0.000002828172    -0.000001233021    0.078157739075    0.056820295300
            0.107808805845    0.041861775454    -0.000002828172    -0.000001233021    0.118253603153    0.027383434474    -0.000002734249    -0.000001283247
            -0.000003598107    -0.000001214957    0.078157739075    0.056820295300    -0.000002734249    -0.000001283247    0.092037035178    0.048158070775
0.525     0.116564683607    -0.011852446111    -0.000003961328    0.000000225969    0.111038296090    0.008291379197    -0.000003972545    0.000000151344
            -0.000003961328    0.000000225969    0.104871854302    0.016180278079    -0.000003243565    -0.000000156239    0.092383182563    0.031791049017
            0.111038296090    0.008291379197    -0.000003243565    -0.000000156239    0.115976235123    -0.011139912348    -0.000003164911    -0.000000247357
            -0.000003972545    0.000000151344    0.092383182563    0.031791049017    -0.000003164911    -0.000000247357    0.104242913665    0.016054835239
0.550     0.098358114898    -0.047255895987    -0.000003784634    0.000001704022    0.100611434233    -0.024809410899    -0.000003825351    0.000001633029
            -0.000003784634    0.000001704022    0.103950692153    -0.018989334403    -0.000003245816    0.000001064613    0.096550600748    0.002528168317
            0.100611434233    -0.024809410899    -0.000003245816    0.000001064613    0.098340090071    -0.046565392039    -0.000003198554    0.000000939151
            -0.000003825351    0.000001633029    0.096550600748    0.002528168317    -0.000003198554    0.000000939151    0.103750916599    -0.019083297139
0.575     0.066716856109    -0.073370435253    -0.000003047474    0.000003085212    0.077217779785    -0.051971696175    -0.000003116992    0.000003029646
            -0.000003047474    0.000003085212    0.089753128893    -0.052158030146    -0.000002779376    0.000002268623    0.089463423673    -0.027030404134
            0.077217779785    -0.051971696175    -0.000002779376    0.000002268623    0.067252828942    -0.072956975914    -0.000002776873    0.000002122266
            -0.000003116992    0.000003029646    0.089463423673    -0.027030404134    -0.000002776873    0.000002122266    0.090017869800    -0.052403037133
0.600     0.026016484862    -0.085214732761    -0.000001794475    0.000004149035    0.043825493141    -0.068138116195    -0.000001886955    0.000004121172
            -0.000001794475    0.000004149035    0.063640170447    -0.078450572316    -0.000001853820    0.000003267543    0.071459397814    -0.052622642647
            0.043825493141    -0.068138116195    -0.000001853820    0.000003267543    0.026980113947    -0.085321225480    -0.000001903201    0.000003119544
            -0.000001886955    0.000004121172    0.071459397814    -0.052622642647    -0.000001903201    0.000003119544    0.064330108068    -0.079043187094
0.625     -0.017419119095    -0.079830509800    -0.000000163902    0.000004693934    0.005497301914    -0.069702085971    -0.000000268023    0.000004703767
            -0.000000163902    0.000004693934    0.028770888767    -0.093700460200    -0.000000561482    0.000003876995    0.044511997643    -0.070257815817
            0.005497301914    -0.069702085971    -0.000000561482    0.000003876995    -0.016257028267    -0.080638660034    -0.000000660886    0.000003749220
            -0.000000268023    0.000004703767    0.044511997643    -0.070257815817    -0.000000660886    0.000003749220    0.029766556808    -0.094821115240
0.650     -0.056301043409    -0.057156469507    0.000001619680    0.000004581408    -0.031369150883    -0.055496234742    0.000001520203    0.000004633921
            0.000001619680    0.000004581408    -0.010221863837    -0.095147443467    0.000000924328    0.000003956883    0.012088903235    -0.076886595114
            -0.031369150883    -0.055496234742    0.000000924328    0.000003956883    -0.055239964588    -0.058740564387    0.000000786633    0.000003869091
            0.000001520203    0.000004633921    0.012088903235    -0.076886595114    0.000000786633    0.000003869091    -0.009111964059    -0.096925545607
0.675     -0.083815289641    -0.020338273850    0.000003279708    0.000003779186    -0.060322120341    -0.027285788167    0.000003203287    0.000003871697
            0.000003279708    0.000003779186    -0.047852596990    -0.081986091420    0.000002375109    0.000003453053    -0.021293022484    -0.070986798968
            -0.060322120341    -0.027285788167    0.000002375109    0.000003453053    -0.083171608562    -0.022638834845    0.000002218922    0.000003418201
            0.000003203287    0.000003871697    -0.021293022484    -0.070986798968    0.000002218922    0.000003418201    -0.046869758505    -0.084470773854
0.700     -0.095137521607    0.024777390034    0.000004543230    0.000002378792    -0.076309410189    0.010490268834    0.000004506314    0.000002500137
            0.000004543230    0.000002378792    -0.078645393807    -0.055629224366    0.000003555004    0.000002416628    -0.050781424982    -0.052940377167
            -0.076309410189    0.010490268834    0.000003555004    0.000002416628    -0.095181378493    0.021950976984    0.000003403928    0.000002437654
            0.000004506314    0.000002500137    -0.050781424982    -0.052940377167    0.000003403928    0.000002437654    -0.078043785144    -0.058770626140
0.725     -0.088470069058    0.070908926209    0.000005202076    0.000000580975    -0.076747519471    0.051745731968    0.000005215118    0.000000713040
            0.000005202076    0.000000580975    -0.098061476301    -0.019555089501    0.000004274354    0.000000995719    -0.072018135895    -0.025031318350
            -0.076747519471    0.051745731968    0.000004274354    0.000000995719    -0.089371603261    0.067844631255    0.000004150594    0.000001065218
            0.000005215118    0.000000713040    -0.072018135895    -0.025031318350    0.000004150594    0.000001065219    -0.098066334082    -0.023203171105
0.750     -0.065250313095    0.110929762732    0.000005152401    -0.000001349766    -0.061875519337    0.090127636776    0.000005216986    -0.000001228152
            0.000005152401    -0.000001349766    -0.103288164602    0.021260091657    0.000004425603    -0.000000601862    -0.081905335531    0.008934854025
            -0.061875519337    0.090127636776    0.000004425603    -0.000000601862    -0.067049564661    0.107958755539    0.000004345705    -0.000000499550
            0.000005216986    -0.000001228152    -0.081905335531    0.008934854025    0.000004345705    -0.000000499550    -0.104054529752    0.017336444628
0.775     -0.029539006978    0.139222787354    0.000004406011    -0.000003141256    -0.034344080478    0.120240078649    0.000004514739    -0.000003049937
            0.000004406011    -0.000003141256    -0.093673638755    0.061197115693    0.000003995146    -0.000002154840    -0.079079310059    0.044313034198
            -0.034344080478    0.120240078649    0.000003995146    -0.000002154840    -0.032145017629    0.136662112109    0.000003967579    -0.000002039587
