# GHz S RI R 45
0.000     0.029485831871    0.001867291038    0.000000048502    -0.000000036410    0.000944506287    0.001596479334    0.000000075872    -0.000000005037
            0.000000048502    -0.000000036410    0.028798296750    0.001525637063    0.000000097928    0.000000036138    0.000879611590    0.001354818239
            0.000944506176    0.001596479400    0.000000097928    0.000000036138    0.029427511534    0.001855195631    0.000000137133    0.000000083054
            0.000000075872    -0.000000005037    0.000879612006    0.001354818208    0.000000137133    0.000000083054    0.028671233811    0.001516183480
0.025     0.036578771343    0.008244868074    0.000000034552    -0.000000098785    0.004112564648    0.010827867595    0.000000098727    -0.000000045917
            0.000000034552    -0.000000098785    0.035206507834    0.007118173443    0.000000164680    0.000000026754    0.003668019891    0.009691761900
            0.004110628065    0.010830977476    0.000000164680    0.000000026754    0.036504134979    0.008216735461    0.000000259376    0.000000105677
            0.000000098727    -0.000000045917    0.003669434515    0.009691388923    0.000000259376    0.000000105677    0.035131971246    0.007097655579
0.050     0.045950942110    0.008043945307    -0.000000053516    -0.000000192948    0.012653847706    0.018246929153    0.000000078176    -0.000000142985
            -0.000000053516    -0.000000192948    0.043698750799    0.006652256324    0.000000230669    -0.000000058249    0.011337760550    0.016488204527
            0.012653828145    0.018246968274    0.000000230669    -0.000000058249    0.045846622143    0.008008483994    0.000000423845    0.000000020385
            0.000000078176    -0.000000142985    0.011337753518    0.016488226353    0.000000423845    0.000000020385    0.043606544363    0.006663387798
0.075     0.055028397141    0.001887333843    -0.000000203603    -0.000000226679    0.023977039041    0.019899887116    -0.000000011475    -0.000000224342
            -0.000000203603    -0.000000226679    0.052125249916    0.000945366327    0.000000230320    -0.000000187044    0.021712630325    0.018243833061
            0.023977032639    0.019899891697    0.000000230320    -0.000000187044    0.054917297848    0.001880563396    0.000000515055    -0.000000175441
            -0.000000011475    -0.000000224342    0.021712624336    0.018243837080    0.000000515055    -0.000000175441    0.052036003833    0.001000745153
0.100     0.061064455341    -0.010048453403    -0.000000377646    -0.000000170513    0.034801327070    0.015042408261    -0.000000151708    -0.000000253990
            -0.000000377646    -0.000000170513    0.058163889079    -0.010006179623    0.000000153886    -0.000000320842    0.031992234505    0.014174340944
            0.034801327070    0.015042408261    0.000000153886    -0.000000320842    0.060981658256    -0.010013124698    0.000000494168    -0.000000433408
            -0.000000151708    -0.000000253990    0.031992234505    0.014174340944    0.000000494168    -0.000000433408    0.058110801181    -0.009897152341
0.125     0.061105525833    -0.026039723582    -0.000000528960    -0.000000016057    0.041855113405    0.004518174750    -0.000000313951    -0.000000207908
            -0.000000528960    -0.000000016057    0.059198600327    -0.024896528451    0.000000000641    -0.000000418396    0.039319922450    0.004823305130
            0.041855113405    0.004518174750    0.000000000641    -0.000000418396    0.061097541729    -0.025968979483    0.000000331996    -0.000000690999
            -0.000000313951    -0.000000207908    0.039319920684    0.004823303102    0.000000331996    -0.000000690999    0.059223435851    -0.024740227319
0.150     0.053227195241    -0.043109172006    -0.000000607830    0.000000224848    0.042581744960    -0.009365766788    -0.000000458401    -0.000000073815
            -0.000000607830    0.000000224848    0.053379261441    -0.041343852162    -0.000000207679    -0.000000438286    0.041347029883    -0.008019180948
            0.042581744960    -0.009365766788    -0.000000207679    -0.000000438286    0.053340970268    -0.043035861615    0.000000035167    -0.000000873160
            -0.000000458401    -0.000000073815    0.041347029883    -0.008019180948    0.000000035167    -0.000000873160    0.053524823725    -0.041171598579
0.175     0.036969713902    -0.057341696662    -0.000000573165    0.000000516731    0.035683096805    -0.023287858558    -0.000000542221    0.000000139045
            -0.000000573165    0.000000516731    0.040007119177    -0.056060185236    -0.000000431101    -0.000000353134    0.036700766181    -0.021635529241
            0.035683097642    -0.023287859105    -0.000000431101    -0.000000353134    0.037236562716    -0.057328027211    -0.000000356124    -0.000000913336
            -0.000000542221    0.000000139045    0.036700766181    -0.021635529241    -0.000000356124    -0.000000913336    0.040302681915    -0.055926961106
0.200     0.013791353055    -0.064818561183    -0.000000399556    0.000000806230    0.021516766157    -0.033536131026    -0.000000525645    0.000000402845
            -0.000000399556    0.000000806230    0.019958830861    -0.065614470160    -0.000000615853    -0.000000154780    0.025331503358    -0.032865501148
            0.021516766157    -0.033536131026    -0.000000615853    -0.000000154780    0.014211708710    -0.064947390657    -0.000000769354    -0.000000766536
            -0.000000525645    0.000000402845    0.025331503358    -0.032865501148    -0.000000769354    -0.000000766536    0.020408135030    -0.065592820011
0.225     -0.013086993685    -0.062468611271    -0.000000086561    0.000001029256    0.002169082782    -0.036790005560    -0.000000382835    0.000000670688
            -0.000000086561    0.000001029256    -0.004388613097    -0.067112274739    -0.000000705409    0.000000136874    0.008620784865    -0.038710010197
            0.002169082782    -0.036790005560    -0.000000705409    0.000000136874    -0.012555716509    -0.062826377519    -0.000001112448    -0.000000425255
            -0.000000382835    0.000000670688    0.008620784865    -0.038710010197    -0.000001112448    -0.000000425255    -0.003817386470    -0.067279729622
0.250     -0.039148801801    -0.048860606570    0.000000337481    0.000001120328    -0.018832704960    -0.030920756160    -0.000000108546    0.000000881927
            0.000000337481    0.000001120328    -0.029454166662    -0.058844569547    -0.000000653049    0.000000473614    -0.010774018288    -0.036968713552
            -0.018832704960    -0.030920756160    -0.000000653049    0.000000473614    -0.038592881020    -0.049514967256    -0.000001292197    0.000000071663
            -0.000000108546    0.000000881927    -0.010774018288    -0.036968713552    -0.000001292197    0.000000071663    -0.028830720000    -0.059265869411
0.275     -0.059431268077    -0.024710570856    0.000000814004    0.000001027726    -0.037185917199    -0.015593043962    0.000000272324    0.000000973522
            0.000000814004    0.000001027726    -0.051052018691    -0.040752204990    -0.000000439059    0.000000784572    -0.029359102748    -0.026760792281
            -0.037185917199    -0.015593043962    -0.000000439059    0.000000784572    -0.058970859854    -0.025687888599    -0.000001239336    0.000000640862
            0.000000272324    0.000000973522    -0.029359102748    -0.026760792281    -0.000001239336    0.000000640862    -0.050477397910    -0.041460507042
0.300     -0.069582719489    0.007027062136    0.000001259836    0.000000726072    -0.048744661558    0.007500073751    0.000000703944    0.000000893049
            0.000001259836    0.000000726072    -0.065170814597    -0.014622492940    -0.000000079433    0.000000990733    -0.043467450481    -0.008819332366
            -0.048744661558    0.007500073751    -0.000000079433    0.000000990733    -0.069349939349    0.005757831265    -0.000000929032    0.000001168913
            0.000000703944    0.000000893049    -0.043467450481    -0.008819332366    -0.000000929032    0.000001168913    -0.064761981079    -0.015604161718
0.325     -0.066863525863    0.041639088789    0.000001581820    0.000000229720    -0.050462029129    0.034908987218    0.000001105651    0.000000617424
            0.000001581820    0.000000229720    -0.068786630527    0.016123512089    0.000000370243    0.000001026096    -0.049995676662    0.014562707451
            -0.050462029129    0.034908987218    0.000000370243    0.000001026096    -0.066973276869    0.040168982151    -0.000000393627    0.000001538499
            0.000001105651    0.000000617424    -0.049995676662    0.014562707451    -0.000000393627    0.000001538499    -0.068653413731    0.014934338246
0.350     -0.050820271435    0.073564159657    0.000001694699    -0.000000404375    -0.041091208731    0.062133820096    0.000001386959    0.000000162608
            0.000001694699    -0.000000404375    -0.060521753680    0.046987202561    0.000000825942    0.000000854822    -0.047054644790    0.039922384500
            -0.041091208731    0.062133820096    0.000000825942    0.000000854822    -0.051342927037    0.072033302158    0.000000281861    0.000001656268
            0.000001386959    0.000000162608    -0.047054644790    0.039922384500    0.000000281861    0.000001656268    -0.060742923449    0.045703884428
0.375     -0.023403813572    0.097508115046    0.000001543512    -0.000001083074    -0.021422734363    0.084549437147    0.000001470312    -0.000000412690
            0.000001543512    -0.000001083074    -0.040957175721    0.073201653620    0.000001193267    0.000000484604    -0.034346851610    0.063265693164
            -0.021422734363    0.084549437147    0.000001193267    0.000000484604    -0.024345475119    0.096081634681    0.000000977422    0.000001476570
            0.000001470312    -0.000000412690    -0.034346851610    0.063265693164    0.000000977422    0.000001476570    -0.041560938435    0.071969382320
0.400     0.011420239244    0.109443461916    0.000001116113    -0.000001693160    0.005922005981    0.098286489818    0.000001308345    -0.000001017754
            0.000001116113    -0.000001693160    -0.012568339989    0.090581752665    0.000001388207    -0.000000036005    -0.013225895004    0.080791314677
            0.005922005981    0.098286489818    0.000001388207    -0.000000036005    0.010124359535    0.108282237530    0.000001563956    0.000001009531
            0.000001308345    -0.000001017754    -0.013225895004    0.080791314677    0.000001563956    0.000001009531    -0.013520468947    0.089553158727
0.425     0.048429992014    0.107261950230    0.000000449342    -0.000002123858    0.037026537277    0.100842635145    0.000000897472    -0.000001547823
            0.000000449342    -0.000002123858    0.020703144094    0.096223598572    0.000001355257    -0.000000625742    0.013560436746    0.089517016987
            0.037026537277    0.100842635145    0.000001355257    -0.000000625742    0.046909314882    0.106492534390    0.000001928602    0.000000318526
            0.000000897472    -0.000001547823    0.013560436746    0.089517016987    0.000001928602    0.000000318526    0.019499283199    0.095533225468
0.450     0.082019235312    0.091035436516    -0.000000377882    -0.000002284469    0.067330849814    0.091403043417    0.000000276666    -0.000001902747
            -0.000000377882    -0.000002284469    0.054085338002    0.088951018512    0.000001074699    -0.000001186789    0.042320063691    0.087730985285
            0.067330849814    0.091403043417    0.000001074699    -0.000001186789    0.080450141441    0.090725892530    0.000001991868    -0.000000493750
            0.000000276666    -0.000001902747    0.042320063691    0.087730985285    0.000001991868    -0.000000493750    0.052778349515    0.088689417612
0.475     0.107009837520    0.062924599075    -0.000001256277    -0.000002120333    0.092261779705    0.070889256086    -0.000000477881    -0.000002004682
            -0.000001256277    -0.000002120333    0.082688098448    0.069456375000    0.000000567184    -0.000001619405    0.068955411723    0.075206278167
            0.092261779705    0.070889256086    0.000000567184    -0.000001619405    0.105590560508    0.063068561559    0.000001719455    -0.000001300511
            -0.000000477881    -0.000002004682    0.068955411723    0.075206278167    0.000001719455    -0.000001300511    0.081459564557    0.069652213696
0.500     0.119332879962    0.026873158356    -0.000002059979    -0.000001618026    0.107808805845    0.041861775454    -0.000001264304    -0.000001806348
            -0.000002059979    -0.000001618026    0.102180307296    0.040199038151    -0.000000110367    -0.000001834456    0.089512556967    0.053241760567
            0.107808805845    0.041861775454    -0.000000110367    -0.000001834456    0.118253603153    0.027383434474    0.000001125593    -0.000001967237
            -0.000001264304    -0.000001806348    0.089512556967    0.053241760567    0.000001125593    -0.000001967237    0.101218732552    0.040807089926
0.525     0.116564683607    -0.011852446111    -0.000002661702    -0.000000810488    0.111038296090    0.008291379197    -0.000001966284    -0.000001299656
            -0.000002661702    -0.000000810488    0.109363634692    0.005096234881    -0.000000867104    -0.000001766718    0.100685225741    0.024531803287
            0.111038296090    0.008291379197    -0.000000867104    -0.000001766718    0.115976235123    -0.011139912348    0.000000276376    -0.000002368403
            -0.000001966284    -0.000001299656    0.100685225741    0.024531803287    0.000000276376    -0.000002368403    0.108835849073    0.005997087415
0.550     0.098358114898    -0.047255895987    -0.000002944825    0.000000223402    0.100611434233    -0.024809410899    -0.000002463514    -0.000000518142
            -0.000002944825    0.000000223402    0.102634891273    -0.030934920736    -0.000001586026    -0.000001385112    0.100293229801    -0.007095484065
            0.100611434233    -0.024809410899    -0.000001586026    -0.000001385112    0.098340090071    -0.046565392039    -0.000000713355    -0.000002404735
            -0.000002463514    -0.000000518142    0.100293229801    -0.007095484065    -0.000000713355    -0.000002404735    0.102656582566    -0.029925963201
0.575     0.066716856109    -0.073370435253    -0.000002821577    0.000001359617    0.077217779785    -0.051971696175    -0.000002646967    0.000000457821
            -0.000002821577    0.000001359617    0.082294301869    -0.062572537594    -0.000002135734    -0.000000707626    0.087672106212    -0.037097768556
            0.077217779785    -0.051971696175    -0.000002135734    -0.000000707626    0.067252828942    -0.072956975914    -0.000001687278    -0.000002025525
            -0.000002646967    0.000000457821    0.087672106212    -0.037097768556    -0.000001687278    -0.000002025525    0.082904949466    -0.061683401157
0.600     0.026016484862    -0.085214732761    -0.000002250004    0.000002435414    0.043825493141    -0.068138116195    -0.000002435220    0.000001501386
            -0.000002250004    0.000002435414    0.050669198325    -0.084811647814    -0.000002389700    0.000000191068    0.063952741591    -0.060811802132
            0.043825493141    -0.068138116195    -0.000002389700    0.000000191068    0.026980113947    -0.085321225480    -0.000002466966    -0.000001247478
            -0.000002435220    0.000001501386    0.063952741591    -0.060811802132    -0.000002466966    -0.000001247478    0.051814281222    -0.084281899756
0.625     -0.017419119095    -0.079830509800    -0.000001256466    0.000003267558    0.005497301914    -0.069702085971    -0.000001800015    0.000002447527
            -0.000001256466    0.000003267558    0.011958504569    -0.093753618773    -0.000002256027    0.000001177644    0.032091724063    -0.074181130908
            0.005497301914    -0.069702085971    -0.000002256027    0.000001177644    -0.016257028267    -0.080638660034    -0.000002884567    -0.000000169095
            -0.000001800015    0.000002447527    0.032091724063    -0.074181130908    -0.000002884567    -0.000000169095    0.013486200974    -0.093795417598
0.650     -0.056301043409    -0.057156469507    0.000000051876    0.000003681386    -0.031369150883    -0.055496234742    -0.000000786363    0.000003115033
            0.000000051876    0.000003681386    -0.028268213299    -0.087363386755    -0.000001705729    0.000002077366    -0.003425139333    -0.074537267434
            -0.031369150883    -0.055496234742    -0.000001705729    0.000002077366    -0.055239964588    -0.058740564387    -0.000002822962    0.000001036239
            -0.000000786363    0.000003115033    -0.003425139379    -0.074537268433    -0.000002822962    0.000001036239    -0.026592140351    -0.088119270852
0.675     -0.083815289641    -0.020338273850    0.000001489678    0.000003554434    -0.060322120341    -0.027285788167    0.000000475944    0.000003346523
            0.000001489678    0.000003554434    -0.063920243251    -0.065983268612    -0.000000795491    0.000002709013    -0.037257386463    -0.061207656363
            -0.060322120341    -0.027285788167    -0.000000795491    0.000002709013    -0.083171608562    -0.022638834845    -0.000002254544    0.000002149450
            0.000000475944    0.000003346523    -0.037257386463    -0.061207656363    -0.000002254544    0.000002149450    -0.062379786546    -0.067494195508
0.700     -0.095137521607    0.024777390034    0.000002821669    0.000002853029    -0.076309410189    0.010490268834    0.000001787604    0.000003050476
            0.000002821669    0.000002853029    -0.089462901113    -0.032425636737    0.000000336581    0.000002929139    -0.064165100588    -0.035775806498
            -0.076309410189    0.010490268834    0.000000336581    0.000002929139    -0.095181378493    0.021950976984    -0.000001255548    0.000002955981
            0.000001787604    0.000003050476    -0.064165100588    -0.035775806498    -0.000001255548    0.000002955981    -0.088344985793    -0.034614728792
0.725     -0.088470069058    0.070908926209    0.000003813452    0.000001653652    -0.076747519471    0.051745731968    0.000002920241    0.000002235550
            0.000003813452    0.000001653652    -0.100951616130    0.008472317810    0.000001498176    0.000002672081    -0.079988540603    -0.001827178350
            -0.076747519471    0.051745731968    0.000001498176    0.000002672081    -0.089371603261    0.067844631255    0.000000007440    0.000003298838
            0.000002920241    0.000002235550    -0.079988540603    -0.001827178350    0.000000007440    0.000003298838    -0.100496238879    0.005793415193
0.750     -0.065250313095    0.110929762732    0.000004283893    0.000000129171    -0.061875519337    0.090127636776    0.000003669301    0.000001011854
            0.000004283893    0.000000129171    -0.096747320416    0.050745045539    0.000002488961    0.000001963111    -0.082403283890    0.035741042267
            -0.061875519337    0.090127636776    0.000002488961    0.000001963111    -0.067049564661    0.107958755539    0.000001320486    0.000003111386
            0.000003669301    0.000001011854    -0.082403283890    0.035741042267    0.000001320486    0.000003111386    -0.097104554322    0.047846704392
0.775     -0.029539006978    0.139222787354    0.000004145257    -0.000001489952    -0.034344080478    0.120240078649    0.000003901261    -0.000000434493
            0.000004145257    -0.000001489952    -0.077705442877    0.088396623516    0.000003144229    0.000000908505    -0.071210327372    0.071649161600
            -0.034344080478    0.120240078649    0.000003144229    0.000000908505    -0.032145017629    0.136662112109    0.000002470756    0.000002423539
