!$
! Info: Touchstone file created by Circ.  Input file=Tx_NPC_250mm_32AWG_BPK_1400mm_27AWG_BPK_250mm_32AWG_NPC_Rx.circ
!$
# Hz S RI R 50
0	0.1037928	-1.879175e-17	-6.65577e-05	1.324348e-19	0.003661336	1.130523e-15	-1.207705e-05	-1.193301e-18
	-4.532479e-05	1.447311e-19	0.04952451	-1.910093e-16	-5.697914e-05	2.954018e-19	0.003719229	-4.406122e-16
	0.00290948	1.588338e-17	-8.887209e-05	2.595494e-20	0.07675534	-5.268953e-16	-2.989693e-05	1.444623e-18
	-3.864272e-06	-3.051105e-18	0.003805893	-2.528436e-16	-1.58586e-05	4.528182e-18	0.07319197	5.509967e-16
1e+07	0.08137393	-0.01463769	-9.221892e-05	9.814561e-06	0.03370402	0.03908023	-4.403421e-05	3.757386e-05
	-7.694795e-05	-2.990082e-06	0.078561	-0.01561836	-5.597154e-05	-3.64236e-06	0.03316003	0.03904385
	0.03304448	0.03910527	-8.639731e-05	1.50517e-05	0.07653413	-0.01375876	-3.388538e-05	-1.435543e-05
	-4.017796e-05	3.177155e-05	0.03319087	0.03902521	-2.289254e-05	-2.312777e-05	0.07940786	-0.01689684
2e+07	0.0721492	-0.03717035	-8.702449e-05	5.95055e-05	0.07900534	0.02644339	1.733613e-05	0.0001091322
	-8.257214e-05	4.20749e-05	0.06752928	-0.03735313	-7.442271e-05	1.515727e-05	0.07851419	0.02679143
	0.07834522	0.02676832	-8.829151e-05	5.223241e-05	0.06763866	-0.03532191	-5.140843e-05	-2.024847e-06
	1.777989e-05	0.0001069933	0.07846343	0.02675205	-4.788908e-05	-1.498861e-05	0.0669169	-0.03874978
3e+07	0.04427217	-0.04837558	-6.122961e-05	0.000103887	0.08126084	-0.01918387	6.002059e-05	0.000113847
	-6.584297e-05	8.770745e-05	0.03884961	-0.0461187	-8.9566e-05	6.038673e-05	0.0807979	-0.01854982
	0.08073254	-0.01855717	-7.423814e-05	9.849184e-05	0.04006494	-0.04570793	-7.629958e-05	2.95451e-05
	6.521416e-05	0.0001110676	0.08066511	-0.01851811	-8.050861e-05	1.706222e-05	0.03753124	-0.04632453
4e+07	0.01644788	-0.03145029	-8.203852e-06	0.0001511956	0.03796696	-0.03474467	0.0001199008	0.0001127672
	-2.082967e-05	0.0001388445	0.01256298	-0.02661556	-6.272729e-05	0.0001371924	0.03771494	-0.03415403
	0.03773479	-0.0341329	-2.8011e-05	0.0001537499	0.01266497	-0.02772935	-7.012606e-05	0.0001026582
	0.0001219903	0.0001006603	0.03764783	-0.03401006	-8.090307e-05	9.428772e-05	0.0119077	-0.02561948
5e+07	0.01717448	0.00171524	0.000102702	0.0001584418	0.009294696	0.004361372	0.0002134845	5.394825e-05
	8.346984e-05	0.0001553687	0.01630359	0.007401706	4.260459e-05	0.0001841766	0.009103093	0.004688806
	0.009157199	0.004738316	7.493849e-05	0.0001773436	0.01447129	0.006652831	2.300535e-05	0.0001598815
	0.0002013059	4.325913e-05	0.009163805	0.004820307	8.407105e-06	0.0001593771	0.01703408	0.008328358
6e+07	0.04791141	0.01580732	0.0001977823	5.79189e-05	0.03920645	0.04803616	0.0002408377	-9.926422e-05
	0.00018027	6.842586e-05	0.0493344	0.01984769	0.0001608521	0.0001309731	0.03878795	0.04835869
	0.03889183	0.04839966	0.0001835175	0.0001119658	0.04690678	0.02115739	0.0001344902	0.000108032
	0.0002255703	-9.408561e-05	0.0389297	0.04839526	0.0001219593	0.0001172141	0.0506976	0.01952453
7e+07	0.07473204	-0.005910347	0.0001805907	-6.943954e-05	0.09509306	0.03734115	0.0001389959	-0.0002220315
	0.0001744261	-5.096025e-05	0.07619025	-0.004016506	0.0002104158	2.417452e-05	0.09458814	0.03802606
	0.09470479	0.0379798	0.0002232409	-5.50394e-06	0.0752108	-0.001083574	0.0001584243	1.140766e-05
	0.0001365121	-0.0002105571	0.09469157	0.03794651	0.0001544265	2.697621e-05	0.07676861	-0.005564064
8e+07	0.06818434	-0.04008732	0.0001214842	-0.0001298987	0.110025	-0.0192204	2.65906e-05	-0.0002440599
	0.0001268401	-0.0001135757	0.06817505	-0.03874311	0.0002148705	-8.20674e-05	0.1099207	-0.01815622
	0.1099271	-0.01827326	0.0002064211	-0.0001196626	0.06925476	-0.03605374	0.0001549254	-4.644827e-05
	2.919257e-05	-0.0002409754	0.1099063	-0.01826199	0.0001617307	-3.176364e-05	0.06725307	-0.04027416
9e+07	0.03488297	-0.04972868	8.290326e-05	-0.0002018324	0.06497198	-0.05563457	-5.598349e-05	-0.0002741882
	9.407427e-05	-0.0001913785	0.0341535	-0.04684634	0.0001765717	-0.0002170642	0.06555509	-0.05463436
	0.06538986	-0.05472346	0.0001409886	-0.0002408957	0.03607683	-0.04583917	0.0001614561	-0.0001492777
	-6.086327e-05	-0.0002712343	0.06546308	-0.05465052	0.000175669	-0.0001420539	0.03242569	-0.04705772
1e+08	0.012776	-0.02210185	-6.663726e-05	-0.0002885763	0.01565835	-0.02607053	-0.0002448552	-0.0002978742
	-5.142459e-05	-0.000283679	0.01378519	-0.01740295	9.818473e-06	-0.0003398751	0.01669652	-0.02572993
	0.01634636	-0.02561161	-3.121712e-05	-0.0003310651	0.01473552	-0.01772959	2.852021e-05	-0.0002902573
	-0.0002455506	-0.0002830006	0.01665779	-0.02563586	4.399375e-05	-0.0002927374	0.01278348	-0.0162111
1.1e+08	0.03253386	0.01096319	-0.0002855201	-0.0001845775	0.02908962	0.03260799	-0.0004395994	-9.796559e-05
	-0.0002674747	-0.0001893959	0.0368237	0.0151655	-0.0002354097	-0.0002849385	0.02983709	0.03216753
	0.02956233	0.03268151	-0.0002560718	-0.0002556104	0.03630247	0.01515183	-0.0002144908	-0.0002354204
	-0.0004217912	-8.68647e-05	0.02993068	0.03226658	-0.0002027888	-0.0002464386	0.03737893	0.01640652
1.2e+08	0.07523278	0.006087169	-0.0003082439	5.717592e-05	0.0939348	0.04212072	-0.0003719972	0.0002050143
	-0.0002963457	4.037236e-05	0.08144337	0.007119738	-0.0003488357	-7.496553e-05	0.09390658	0.04161583
	0.09406412	0.04228093	-0.0003504712	-4.630903e-05	0.08061577	0.008578157	-0.0002790153	-1.601457e-05
	-0.0003526562	0.0001944901	0.09407002	0.04158977	-0.0002756138	-3.311564e-05	0.08274512	0.007058816
1.3e+08	0.09373305	-0.03603991	-0.0001848497	0.0001634754	0.1338084	-0.01541748	-0.0001568884	0.0002944572
	-0.0001869155	0.000143111	0.09889027	-0.03843645	-0.0003194623	0.0001061288	0.1335345	-0.01527414
	0.1339853	-0.01489157	-0.000311016	0.0001326994	0.09919233	-0.03591779	-0.000195587	9.044451e-05
	-0.000156127	0.0002766649	0.1336267	-0.01543074	-0.0002044623	7.343044e-05	0.09939945	-0.03970662
1.4e+08	0.06815655	-0.07492705	-0.0001443666	0.0001957506	0.1022247	-0.07922967	-7.331979e-05	0.000277732
	-0.0001572961	0.0001822706	0.07048263	-0.07849061	-0.0002594311	0.0002506019	0.1025359	-0.07867857
	0.1028747	-0.07858559	-0.0002342966	0.0002743971	0.07232705	-0.07622496	-0.0001908423	0.0001384445
	-8.074282e-05	0.0002720708	0.1024796	-0.0788474	-0.0002100039	0.0001311872	0.06952428	-0.07958327
1.5e+08	0.02300819	-0.07243563	-6.678976e-05	0.0003444556	0.03308088	-0.08034124	2.240793e-05	0.000388822
	-8.290207e-05	0.0003401352	0.02349862	-0.07455388	-0.0001125092	0.0004243095	0.03408909	-0.08019637
	0.03416948	-0.08011367	-7.044411e-05	0.0004259103	0.02608735	-0.07359098	-0.0001394463	0.0003225258
	2.342184e-05	0.0003862753	0.03394816	-0.0802497	-0.0001584636	0.0003302824	0.02199923	-0.07413778
1.6e+08	0.008016689	-0.03076833	0.0002472561	0.000382417	0.007134979	-0.0193614	0.0003574681	0.000377953
	0.0002307472	0.0003855638	0.00942418	-0.03119416	0.0002158639	0.0004683512	0.008236541	-0.02013189
	0.008126176	-0.01978867	0.000247873	0.0004367711	0.0115507	-0.03146584	0.0001763648	0.0004093374
	0.0003548858	0.0003639792	0.008152085	-0.02006736	0.0001676299	0.0004263035	0.009123837	-0.02945376
1.7e+08	0.04467926	-0.001781188	0.0004575731	6.851296e-05	0.05695069	0.02427626	0.0005439191	-1.473277e-05
	0.0004431151	8.120388e-05	0.04836091	-0.003022807	0.0004856611	0.0002082652	0.05733204	0.02280652
	0.05738	0.02360739	0.0004849612	0.0001667936	0.04944123	-0.003581205	0.0004214079	0.0001294718
	0.0005222743	-2.309917e-05	0.05736429	0.02286599	0.0004235024	0.0001469452	0.04991004	-0.001723437
1.8e+08	0.09052866	-0.02651153	0.0003076536	-0.0002024817	0.1182737	-0.00872058	0.0003008337	-0.0003134177
	0.0003032914	-0.0001813338	0.09468541	-0.03092592	0.000471142	-0.0001142866	0.1176831	-0.01001151
	0.1183382	-0.009070939	0.0004488759	-0.000140001	0.09511808	-0.03089663	0.0003136319	-0.0001403935
	0.0002795083	-0.0002971049	0.1177506	-0.01005466	0.0003247782	-0.0001258789	0.09676285	-0.03142566
1.9e+08	0.09317174	-0.08296495	0.0001671149	-0.000219907	0.1157282	-0.08156054	9.760769e-05	-0.00026405
	0.0001774259	-0.0001998471	0.09481327	-0.09012489	0.000339442	-0.0003044747	0.1148655	-0.08205923
	0.1159718	-0.0815629	0.0003130513	-0.0003147182	0.09540854	-0.08931304	0.0001997567	-0.0001763221
	9.919445e-05	-0.0002393219	0.1148557	-0.08217731	0.0002197779	-0.0001702135	0.09566048	-0.09187435
2e+08	0.04710013	-0.1183027	0.0001569136	-0.0003113941	0.05106316	-0.1157172	0.0001220491	-0.0002938624
	0.0001771505	-0.00030182	0.04491705	-0.125447	0.0001896852	-0.0004636999	0.05070676	-0.1158013
	0.05172486	-0.1158303	0.0001597068	-0.000462863	0.04632897	-0.1243084	0.0002033507	-0.0002892223
	0.0001367822	-0.0002836676	0.05059055	-0.1158921	0.0002248161	-0.0002990783	0.04420294	-0.1266757
2.1e+08	-0.005982183	-0.09896936	-7.800346e-05	-0.0005067606	-0.007431947	-0.07722616	-7.580487e-05	-0.0005157624
	-5.635505e-05	-0.0005104284	-0.01045269	-0.1035139	-0.0001128845	-0.0005955415	-0.007319753	-0.07765434
	-0.006674243	-0.07788698	-0.0001431378	-0.0005743981	-0.008084655	-0.1028476	-2.404075e-05	-0.000511209
	-6.728121e-05	-0.0005151349	-0.00747563	-0.07764674	-1.554928e-05	-0.0005343614	-0.01126809	-0.1030455
2.2e+08	-0.01070741	-0.04607179	-0.0005091253	-0.0003377917	0.003627189	-0.01289224	-0.0005506041	-0.000358623
	-0.00049285	-0.0003527499	-0.01449139	-0.04794889	-0.0005378735	-0.0004315572	0.003641661	-0.01394786
	0.003903514	-0.0139871	-0.0005470073	-0.000389925	-0.01175982	-0.04856645	-0.0004657498	-0.0003761514
	-0.000542611	-0.0003529489	0.003529442	-0.01385563	-0.0004753897	-0.000397056	-0.01357095	-0.04668257
2.3e+08	0.03726242	-0.02526236	-0.0005492777	0.0001393265	0.0654153	-0.003715835	-0.0005873633	0.000186298
	-0.0005436382	0.0001168545	0.0354613	-0.02702809	-0.0006835486	3.161167e-05	0.06478878	-0.00517723
	0.06507264	-0.004649791	-0.0006597246	6.812843e-05	0.03733556	-0.02895656	-0.0005423222	8.212624e-05
	-0.0005672845	0.0001860669	0.06475038	-0.005062843	-0.000559929	7.323195e-05	0.03802418	-0.02716828
2.4e+08	0.07670298	-0.06562597	-0.0002794317	0.0003268547	0.09441404	-0.05998681	-0.000230621	0.0003610392
	-0.0002882153	0.0003039574	0.07512973	-0.069356	-0.0004938945	0.0003827668	0.09293322	-0.06121949
	0.09391774	-0.06042095	-0.0004549185	0.0003920451	0.07530477	-0.07145844	-0.0003092135	0.0002851386
	-0.0002139062	0.0003396915	0.09294681	-0.06112932	-0.0003273647	0.0002859615	0.07720312	-0.07172606
2.5e+08	0.05904584	-0.1250806	-0.0001768654	0.0003478589	0.05417857	-0.1109187	-0.0001498144	0.0002759729
	-0.0001983185	0.0003338408	0.05515367	-0.1300593	-0.0002500594	0.0005521463	0.05233299	-0.1113441
	0.05396558	-0.111109	-0.0002184754	0.0005377742	0.05413658	-0.1308506	-0.0002160005	0.0003365434
	-0.0001567766	0.0002477239	0.05236543	-0.1112919	-0.0002327877	0.0003473857	0.05509254	-0.1331079
2.6e+08	-0.003145186	-0.1447772	-3.940587e-05	0.0005357993	-0.009161359	-0.1002701	-0.0001446753	0.0004898779
	-6.604053e-05	0.0005370105	-0.01001145	-0.1484436	4.339375e-05	0.0006743552	-0.0106708	-0.1000585
	-0.009145963	-0.1006669	6.127706e-05	0.0006486511	-0.01055268	-0.1474266	-7.03091e-05	0.0005423317
	-0.0001682067	0.0004779825	-0.01064773	-0.1000427	-7.783162e-05	0.0005641362	-0.01158058	-0.1500155
2.7e+08	-0.05294023	-0.1044132	0.0004201806	0.0005691476	-0.02900436	-0.04289111	0.0003323971	0.000679459
	0.0003984432	0.0005865519	-0.0609523	-0.1047083	0.0004946147	0.0006212984	-0.0300045	-0.04260307
	-0.02918356	-0.04362201	0.0004978744	0.0005889761	-0.05947828	-0.1032212	0.000394651	0.0005853726
	0.0003129295	0.0006848338	-0.03002567	-0.04260233	0.0004051415	0.0006080906	-0.06179806	-0.1043928
2.8e+08	-0.04165161	-0.04685133	0.0007630386	9.122781e-05	0.01161384	-0.004860155	0.0008306493	0.0001999177
	0.0007557686	0.0001192601	-0.04802684	-0.04416373	0.0008529596	0.000168595	0.01088709	-0.004895436
	0.0109406	-0.005567117	0.0008351966	0.0001366746	-0.04504285	-0.04455436	0.0007472491	0.0001229819
	0.0008192274	0.000208861	0.01081373	-0.004842961	0.0007701963	0.000131271	-0.04676617	-0.04390812
2.9e+08	0.01080908	-0.03794928	0.000550245	-0.0004056088	0.05710264	-0.0296117	0.0006159192	-0.000416697
	0.0005616586	-0.000378149	0.007138428	-0.03476949	0.0007482388	-0.0004064678	0.05614959	-0.03014545
	0.05615603	-0.02986819	0.0007109125	-0.0004203979	0.008945866	-0.03773178	0.000562283	-0.0003683482
	0.0006048695	-0.0004042639	0.0561078	-0.0299841	0.0005822149	-0.0003763927	0.009162296	-0.03673079
3e+08	0.03631672	-0.08463555	0.0002331642	-0.0005174254	0.04721287	-0.0795921	0.0002270934	-0.0004864633
	0.0002591476	-0.0005021332	0.03386049	-0.08285849	0.0003687119	-0.0007077704	0.04546113	-0.08016733
	0.04644159	-0.07943341	0.0003312973	-0.0006926121	0.03246125	-0.08607146	0.0002672205	-0.0005042697
	0.0002233205	-0.0004632272	0.04556713	-0.07996384	0.0002775812	-0.0005197986	0.03402528	-0.0866044
3.1e+08	0.002394907	-0.1312248	3.861853e-05	-0.0006062724	-0.003280969	-0.08887204	0.0001508877	-0.0005216413
	6.874932e-05	-0.0006093766	-0.000899695	-0.1304392	-2.55993e-05	-0.000801451	-0.005606165	-0.08863799
	-0.003757011	-0.08865882	-4.264033e-05	-0.0007673571	-0.004354182	-0.130796	6.234883e-05	-0.0006209408
	0.0001672028	-0.000497961	-0.005357835	-0.08855022	6.358372e-05	-0.0006390044	-0.003268635	-0.1333633
3.2e+08	-0.0587178	-0.1259714	-0.0003670056	-0.0006768835	-0.03289062	-0.04795506	-0.0001655529	-0.0007832709
	-0.0003441232	-0.0006970539	-0.06338584	-0.1243377	-0.0004817343	-0.0007450712	-0.03490171	-0.04672723
	-0.03331004	-0.0478895	-0.0004749858	-0.0007110832	-0.06536932	-0.1212618	-0.0003648281	-0.0006930059
	-0.0001356629	-0.0007783371	-0.03466654	-0.04684321	-0.0003743534	-0.0007100024	-0.06624664	-0.1247019
3.3e+08	-0.08671861	-0.07238321	-0.0008427559	-0.0003036782	-0.01007634	-0.005763808	-0.0008522592	-0.000565406
	-0.0008354886	-0.0003339827	-0.09141491	-0.06849924	-0.0009295897	-0.0003540172	-0.01115165	-0.004159936
	-0.01067833	-0.005700355	-0.0009068509	-0.0003310574	-0.08955686	-0.06502426	-0.0008445723	-0.0003092751
	-0.0008291545	-0.000581421	-0.01110742	-0.004380242	-0.0008639817	-0.0003172058	-0.09230893	-0.06738524
3.4e+08	-0.05757529	-0.02665293	-0.0008224524	0.0003577307	0.03435122	-0.0103936	-0.001025974	0.0002603809
	-0.0008346221	0.0003277852	-0.06028487	-0.02092094	-0.0009913282	0.0003270857	0.034115	-0.009311401
	0.03363345	-0.01005613	-0.0009594462	0.0003343743	-0.0563351	-0.02080068	-0.0008217794	0.0003506031
	-0.001018672	0.0002377292	0.03397188	-0.009402416	-0.0008418807	0.0003575044	-0.05918443	-0.02103669
3.5e+08	-0.01216586	-0.03306393	-0.0003926468	0.0006991155	0.0435081	-0.05145806	-0.0005034968	0.0007604168
	-0.0004214757	0.0006816716	-0.01204417	-0.02740728	-0.0005773246	0.0008443596	0.04318572	-0.05139308
	0.04296898	-0.05081515	-0.000545216	0.0008306791	-0.01039903	-0.03067812	-0.0004013443	0.0006922261
	-0.0005068213	0.0007395155	0.043097	-0.05124813	-0.0004115543	0.0007096008	-0.01148472	-0.02982211
3.6e+08	-0.004224814	-0.07306313	-2.059362e-05	0.000762009	0.007947224	-0.07184329	-7.419735e-05	0.0007598329
	-5.507829e-05	0.0007660708	-0.00225836	-0.06921416	-1.559256e-05	0.0009986336	0.006571218	-0.07209023
	0.007717805	-0.07114656	9.038291e-07	0.0009662339	-0.004910834	-0.07174344	-2.994187e-05	0.0007705838
	-8.743894e-05	0.0007407821	0.006747627	-0.07190476	-2.762392e-05	0.0007887905	-0.004191048	-0.07193714
3.7e+08	-0.03900893	-0.09429134	0.0004015562	0.0007627917	-0.02279792	-0.04472668	0.0002353312	0.0008083596
	0.0003769878	0.000787482	-0.03699061	-0.09257028	0.0005315065	0.0008840801	-0.02494814	-0.04405828
	-0.02288209	-0.04415309	0.0005228738	0.000849678	-0.04099043	-0.0905794	0.0004113725	0.0007748893
	0.0002096623	0.0007989241	-0.02460161	-0.04412497	0.0004224421	0.0007874769	-0.04030752	-0.09300976
3.8e+08	-0.07416381	-0.07123737	0.0008996535	0.0004108465	-0.008077894	-0.005919077	0.0008205511	0.0006652941
	0.0008953593	0.000444492	-0.07332024	-0.07049172	0.00100811	0.0004662725	-0.00977801	-0.004061217
	-0.008184937	-0.005371719	0.000982079	0.0004465556	-0.07377558	-0.06498588	0.000917793	0.0004026905
	0.0007926414	0.0006759618	-0.009583702	-0.004429405	0.0009330892	0.0004074679	-0.07519928	-0.06865053
3.9e+08	-0.07096462	-0.03082401	0.0009798021	-0.0002973278	0.03418051	-0.005279655	0.001176982	-8.550887e-05
	0.0009952934	-0.0002685277	-0.07099855	-0.02951457	0.001146531	-0.0002463911	0.03377231	-0.003153328
	0.0341242	-0.004592357	0.001116502	-0.0002479447	-0.06660968	-0.02546423	0.000981207	-0.0003194187
	0.001163479	-5.945625e-05	0.03360821	-0.003546177	0.0009971614	-0.0003234237	-0.07034522	-0.02795084
4e+08	-0.03896244	-0.01624601	0.0005413729	-0.0007833658	0.05075127	-0.04466467	0.0007738131	-0.0008290911
	0.0005699356	-0.0007682113	-0.03840983	-0.01389171	0.0007731597	-0.0008928115	0.05128373	-0.04352391
	0.05095002	-0.04388117	0.0007468697	-0.0008782634	-0.03314036	-0.01465088	0.000527516	-0.0007983719
	0.0007784702	-0.0008028201	0.05091864	-0.04361605	0.0005390259	-0.0008116486	-0.03713803	-0.01451045
4.1e+08	-0.0176874	-0.03377825	5.92239e-05	-0.0008857647	0.02060118	-0.07415413	0.0001289421	-0.001000104
	9.231109e-05	-0.0008893456	-0.01530312	-0.03145808	0.0001252846	-0.001164683	0.02073597	-0.07433391
	0.02109246	-0.07351592	0.0001114109	-0.001135679	-0.01383066	-0.03486667	4.072712e-05	-0.0008936995
	0.0001452381	-0.0009812616	0.02053961	-0.07412161	4.141947e-05	-0.0009118896	-0.01578164	-0.03314796
4.2e+08	-0.02508003	-0.05285824	-0.0004057863	-0.0008632758	-0.01627332	-0.0564293	-0.0003553664	-0.0009169357
	-0.0003802221	-0.000886761	-0.02108715	-0.05246889	-0.0005487165	-0.001063523	-0.01747257	-0.05687528
	-0.01571056	-0.05607402	-0.0005401777	-0.001031073	-0.02341285	-0.05339369	-0.0004344528	-0.000862005
	-0.0003304477	-0.000908195	-0.01733771	-0.0566919	-0.0004450594	-0.0008758305	-0.02300478	-0.05265592
4.3e+08	-0.04094274	-0.04876217	-0.0009533884	-0.0005207485	-0.01064546	-0.01601226	-0.0008832018	-0.0006517499
	-0.0009477513	-0.000555493	-0.03728202	-0.05135321	-0.001111744	-0.000590058	-0.01267162	-0.01545309
	-0.01021302	-0.01578392	-0.00108485	-0.0005723135	-0.03867722	-0.04768378	-0.0009823254	-0.0004925381
	-0.0008548991	-0.0006602492	-0.01243778	-0.01558629	-0.0009970354	-0.0004970177	-0.03804961	-0.04952792
4.4e+08	-0.03764366	-0.03273037	-0.001108799	0.0002518258	0.03222601	-0.008464413	-0.001182392	7.029988e-05
	-0.00112516	0.0002218846	-0.03647314	-0.03721867	-0.001287655	0.0002025055	0.03066336	-0.006762099
	0.03262686	-0.0081341	-0.001259342	0.000199944	-0.03309006	-0.03249424	-0.001107385	0.0002992429
	-0.001165887	4.403047e-05	0.03063559	-0.007123917	-0.00112124	0.0003015281	-0.03474508	-0.03576927
4.5e+08	-0.01939707	-0.033006	-0.0006342361	0.0008366928	0.05721602	-0.04940821	-0.0008076295	0.0007854005
	-0.0006633048	0.0008225194	-0.02105374	-0.0369536	-0.0009005249	0.0009239491	0.05683774	-0.04759305
	0.05784907	-0.04902467	-0.0008802414	0.0009090972	-0.01462547	-0.03604571	-0.0006008102	0.0008684746
	-0.0008122952	0.0007565807	0.0564712	-0.04781945	-0.0006139376	0.0008775153	-0.01873097	-0.03796578
4.6e+08	-0.01378698	-0.05153151	-8.855052e-05	0.0009195647	0.02904976	-0.09189391	-0.0002041925	0.0009693283
	-0.000119831	0.0009232684	-0.01643884	-0.0533646	-0.0002215435	0.001235828	0.02929806	-0.09108394
	0.02995896	-0.0917649	-0.0002101381	0.001212725	-0.01193515	-0.05657576	-4.867817e-05	0.0009270006
	-0.0002220195	0.0009514587	0.02888081	-0.09094805	-5.510254e-05	0.0009454826	-0.01615189	-0.05564734
4.7e+08	-0.02939821	-0.06230281	0.0003195592	0.0008899284	-0.02119735	-0.08532953	0.0002401728	0.0009449629
	0.0002947014	0.0009106293	-0.0307984	-0.06279272	0.0004740763	0.001181277	-0.02154032	-0.08556114
	-0.02030656	-0.08564818	0.0004700909	0.001152202	-0.03035771	-0.06589318	0.0003621094	0.0008815336
	0.0002183756	0.0009376494	-0.02168993	-0.08520865	0.0003712529	0.0009012379	-0.03218588	-0.06337041
4.8e+08	-0.04256607	-0.04870793	0.0008839552	0.0006853904	-0.03437495	-0.03901635	0.0008153141	0.0007875663
	0.0008755273	0.0007180651	-0.04236606	-0.0503137	0.001121076	0.0007717068	-0.03590701	-0.039322
