!$
! Info: Touchstone file created by Circ.  Input file=Tx_NPC_250mm_32AWG_BPK_1200mm_27AWG_BPK_250mm_32AWG_NPC_Rx.circ
!$
# Hz S RI R 50
0	0.04522322	-1.861524e-17	8.541223e-07	1.936612e-19	0.004453358	1.12998e-15	-1.341244e-06	-5.782535e-20
	6.037927e-06	6.287063e-22	0.04404272	-1.940426e-16	-3.926806e-07	1.831031e-19	0.003554744	-4.432333e-16
	0.003758755	1.85551e-17	-1.677682e-06	-6.90823e-21	0.06280853	-5.274319e-16	-4.679216e-06	-3.636318e-20
	1.008142e-05	-2.901181e-19	0.003644596	-2.541589e-16	3.201606e-07	2.649713e-19	0.06790106	5.359043e-16
1e+07	0.07693223	-0.009812736	7.82353e-07	-4.789109e-07	0.02962894	0.0378488	-1.953264e-07	1.602975e-06
	4.144773e-06	-3.806496e-06	0.07477346	-0.0109471	-5.343899e-07	-5.731609e-08	0.02908726	0.03780152
	0.02898513	0.03785893	-1.593209e-06	3.20553e-07	0.07209843	-0.00896533	-3.046889e-06	3.155195e-06
	6.694393e-06	-7.068339e-06	0.02912208	0.03778869	-2.341213e-07	-9.269728e-07	0.07576236	-0.01214561
2e+07	0.07390495	-0.02947392	3.662726e-07	-9.365699e-07	0.0736238	0.03322378	1.756506e-06	1.282374e-06
	2.751041e-07	-4.826466e-06	0.06980812	-0.03011659	-6.612033e-07	8.404713e-08	0.07308994	0.03356834
	0.07295478	0.03351147	-1.454681e-06	4.998255e-07	0.06937408	-0.02763577	2.591134e-07	3.706546e-06
	-7.044979e-07	-8.879183e-06	0.07305412	0.03352225	-1.399357e-06	-9.763866e-07	0.06949317	-0.03164502
3e+07	0.05378931	-0.04552671	-4.056656e-07	-9.839489e-07	0.08799231	-0.00734782	2.477547e-06	-5.754591e-07
	-2.755918e-06	-2.582552e-06	0.04854133	-0.04394186	-5.94657e-07	3.746958e-07	0.08742327	-0.006691918
	0.08739938	-0.0067306	-1.403973e-06	6.781926e-07	0.04972774	-0.04286329	2.502953e-06	1.592681e-06
	-6.562341e-06	-4.334537e-06	0.08729499	-0.006701717	-2.267512e-06	8.02561e-08	0.04730686	-0.04462105
4e+07	0.02546082	-0.04081504	-1.011964e-06	-2.931522e-07	0.05689565	-0.03710305	1.401235e-06	-2.127339e-06
	-2.695544e-06	1.048669e-06	0.021093	-0.03647007	-2.093973e-07	5.775649e-07	0.05651383	-0.03640741
	0.05660779	-0.03640491	-1.302893e-06	1.013035e-06	0.02181829	-0.03737946	2.187083e-06	-1.199485e-06
	-6.405761e-06	3.035622e-06	0.05640329	-0.03630253	-1.928149e-06	1.678822e-06	0.01997552	-0.03591775
5e+07	0.01180049	-0.01419884	-6.995427e-07	7.197106e-07	0.01618808	-0.01959754	-2.146555e-07	-2.118052e-06
	4.293007e-07	2.937231e-06	0.01006289	-0.008101634	3.152658e-07	3.420109e-07	0.01599382	-0.01908798
	0.0161254	-0.01909563	-9.109673e-07	1.392497e-06	0.008839218	-0.009677169	-5.948401e-08	-2.443317e-06
	-1.018958e-07	7.178941e-06	0.01599282	-0.01894389	-2.406877e-07	2.492669e-06	0.01001329	-0.006998758
6e+07	0.02751897	0.0125371	4.852676e-07	9.375713e-07	0.01541331	0.02820925	-8.380314e-07	-1.101515e-06
	3.792536e-06	1.163507e-06	0.02879178	0.01800565	4.14445e-07	-2.982473e-07	0.01518781	0.02854882
	0.01528817	0.02855166	-2.518947e-07	1.452298e-06	0.02589828	0.0178682	-2.190076e-06	-1.39571e-06
	7.112265e-06	4.110378e-06	0.01529848	0.02865975	1.492587e-06	1.56462e-06	0.02981982	0.01856893
7e+07	0.05981714	0.01328592	1.31389e-06	-1.348967e-07	0.06127601	0.05327874	-4.378329e-07	-5.038288e-07
	4.189354e-06	-2.793778e-06	0.06260408	0.01656385	-1.197907e-07	-6.756601e-07	0.0608404	0.05365171
	0.06097829	0.05369599	2.271956e-07	1.061186e-06	0.05995911	0.01870726	-2.608768e-06	8.044649e-07
	8.74922e-06	-3.840762e-06	0.06099383	0.05365212	1.696898e-06	-3.04202e-07	0.06381664	0.01590665
8e+07	0.07912893	-0.0139794	7.267656e-07	-1.525435e-06	0.109369	0.02530696	-1.298707e-07	-6.893153e-07
	1.193123e-06	-5.594184e-06	0.08137426	-0.01273158	-6.792935e-07	-3.092828e-07	0.1089212	0.02602287
	0.1090844	0.02602573	2.032622e-07	6.59148e-07	0.08068165	-0.009365358	-1.285605e-06	2.530221e-06
	3.20863e-06	-1.004082e-05	0.1090153	0.02592057	3.440378e-07	-1.371319e-06	0.08169922	-0.01429232
9e+07	0.06809501	-0.04583893	-9.117884e-07	-1.785192e-06	0.1116595	-0.03147056	-3.908978e-07	-8.350833e-07
	-2.950382e-06	-5.087985e-06	0.06874545	-0.04494846	-5.705062e-07	4.752258e-07	0.1116184	-0.03044907
	0.1117204	-0.03049504	9.787404e-09	7.520718e-07	0.07016859	-0.04228189	8.803341e-07	2.885567e-06
	-5.234233e-06	-9.466012e-06	0.1115992	-0.03056896	-1.202766e-06	-7.115473e-07	0.06777563	-0.0463597
1e+08	0.03588554	-0.05438763	-2.100796e-06	-4.489653e-07	0.06479479	-0.06224223	-5.349693e-07	-4.246455e-07
	-5.217346e-06	-1.560032e-06	0.03577845	-0.05198439	3.577717e-07	9.309566e-07	0.06537915	-0.06134339
	0.06535149	-0.06136766	3.122956e-07	1.208e-06	0.0379025	-0.05127537	2.855493e-06	1.682056e-06
	-9.977442e-06	-2.313185e-06	0.06528592	-0.06137917	-1.329777e-06	1.172347e-06	0.03409648	-0.05224249
1.1e+08	0.01233818	-0.03038561	-1.564028e-06	1.328617e-06	0.0165908	-0.0351352	8.350588e-08	-1.569349e-07
	-3.758911e-06	2.253556e-06	0.01375218	-0.02614726	1.559509e-06	3.415886e-07	0.0176528	-0.03484563
	0.01742621	-0.03470962	1.270905e-06	1.248794e-06	0.01476652	-0.02699989	3.576362e-06	-7.111579e-07
	-6.863218e-06	5.698527e-06	0.01759023	-0.03477181	6.071228e-07	2.395021e-06	0.01255173	-0.02509354
1.2e+08	0.02415785	0.003610374	2.176601e-07	1.721574e-06	0.02119577	0.02145074	7.426757e-07	-9.897516e-07
	-5.393592e-08	2.973357e-06	0.02872815	0.007607754	1.840396e-06	-1.241682e-06	0.02211267	0.02088939
	0.02185417	0.02143003	2.111093e-06	3.56495e-07	0.02798533	0.006945652	2.294806e-06	-3.051263e-06
	1.356694e-06	7.359286e-06	0.02216602	0.0209916	2.969702e-06	1.16165e-06	0.02887606	0.009053251
1.3e+08	0.06381388	0.01048325	1.300304e-06	4.142499e-07	0.07784237	0.04402815	3.619375e-08	-2.356389e-06
	2.089856e-06	3.841771e-07	0.07061787	0.0115724	5.802681e-07	-2.404929e-06	0.07798791	0.04308702
	0.07811869	0.04395931	1.973541e-06	-8.753682e-07	0.069235	0.01247547	-4.044822e-07	-3.613058e-06
	6.771727e-06	1.512105e-06	0.07813248	0.04310121	3.154556e-06	-1.599053e-06	0.0718314	0.01219247
1.4e+08	0.09476819	-0.02104534	6.587364e-07	-1.003789e-06	0.1299421	0.004254166	-1.979296e-06	-2.461743e-06
	9.799754e-07	-2.440902e-06	0.1010788	-0.02368897	-1.00745e-06	-1.894293e-06	0.1294625	0.003759681
	0.1300861	0.004487378	1.078838e-06	-1.39271e-06	0.1006726	-0.02141706	-2.537388e-06	-1.774441e-06
	4.827397e-06	-5.756485e-06	0.129588	0.003641967	1.077973e-06	-3.108188e-06	0.1022299	-0.02433483
1.5e+08	0.08947651	-0.06695404	-8.279077e-07	-1.043804e-06	0.1266843	-0.06370807	-3.451088e-06	-4.703673e-07
	-1.858714e-06	-3.023024e-06	0.09301981	-0.07174098	-1.281161e-06	-2.970586e-07	0.1263604	-0.06352966
	0.1271088	-0.06321993	4.489665e-07	-9.157178e-07	0.09431219	-0.0694305	-2.293235e-06	1.202446e-06
	-1.99893e-06	-8.159082e-06	0.1263661	-0.06371527	-1.007288e-06	-2.240382e-06	0.09313761	-0.07300487
1.6e+08	0.0506725	-0.09204255	-1.536626e-06	2.966416e-07	0.06977091	-0.1002235	-2.464452e-06	2.287424e-06
	-4.06056e-06	-1.110523e-06	0.05130989	-0.09636166	6.15484e-08	7.584949e-07	0.07014833	-0.09992237
	0.07066855	-0.0998756	8.841932e-07	-1.856346e-07	0.05370197	-0.09525256	6.007282e-07	2.951777e-06
	-7.884082e-06	-4.101135e-06	0.07002716	-0.1000595	-1.215505e-06	-1.694563e-07	0.05033163	-0.09704991
1.7e+08	0.009107091	-0.07556372	-6.035566e-07	1.578335e-06	0.01072473	-0.07339831	8.344891e-07	2.996259e-06
	-3.965078e-06	1.832014e-06	0.008798759	-0.07781288	1.888925e-06	8.046503e-08	0.01164783	-0.07368884
	0.01184498	-0.07360053	2.147513e-06	-4.477409e-07	0.01102961	-0.07819092	4.263103e-06	1.378784e-06
	-8.088262e-06	3.003867e-06	0.01148763	-0.07370316	6.455973e-07	9.615743e-07	0.007742007	-0.07715496
1.8e+08	0.003819282	-0.03232535	9.500774e-07	1.26289e-06	0.00683796	-0.01173184	3.289324e-06	1.511592e-07
	-1.724197e-06	3.471118e-06	0.004884411	-0.03335225	2.37267e-06	-2.114565e-06	0.007646193	-0.01295067
	0.007656447	-0.01249783	2.717989e-06	-2.133005e-06	0.006102631	-0.03442327	5.169006e-06	-3.154302e-06
	-2.606817e-06	7.102129e-06	0.007553804	-0.01287274	2.721891e-06	-3.906735e-07	0.00505263	-0.03180405
1.9e+08	0.04242693	-0.008399321	1.218072e-06	-1.510325e-07	0.06072986	0.01719568	1.735828e-06	-3.557293e-06
	4.41348e-07	2.805231e-06	0.04521302	-0.01062797	6.117134e-07	-3.827283e-06	0.06068106	0.01537889
	0.06095995	0.01632423	1.460981e-06	-3.711991e-06	0.04558651	-0.01144837	1.60172e-06	-6.698648e-06
	3.200688e-06	5.094966e-06	0.06068407	0.01545064	2.432272e-06	-3.105629e-06	0.04692989	-0.009621273
2e+08	0.08618641	-0.03309256	1.735151e-07	-7.515643e-07	0.1124216	-0.01955414	-2.439186e-06	-3.859252e-06
	9.599562e-07	1.385625e-06	0.08873888	-0.03802368	-1.784778e-06	-3.161091e-06	0.1113485	-0.02109511
	0.1123102	-0.02007742	-4.412204e-07	-3.508406e-06	0.08892385	-0.03830661	-3.383378e-06	-5.675715e-06
	4.54353e-06	1.751929e-07	0.1113847	-0.02109494	-9.56088e-08	-4.13367e-06	0.09094597	-0.03861087
2.1e+08	0.09234306	-0.08782271	-5.776466e-07	-1.676718e-08	0.1077923	-0.08535261	-4.846564e-06	-2.286717e-07
	5.594481e-07	7.066647e-07	0.09234693	-0.09468454	-2.36211e-06	-8.272446e-07	0.1063548	-0.08603126
	0.1078058	-0.08552798	-1.100383e-06	-2.006223e-06	0.09273634	-0.09466967	-5.31217e-06	-1.107048e-06
	1.978749e-06	-2.9429e-06	0.1063498	-0.08608625	-2.029422e-06	-2.556272e-06	0.09362357	-0.09654539
2.2e+08	0.05255964	-0.1299812	-6.463608e-08	9.600921e-07	0.05099834	-0.1198165	-2.939906e-06	3.978782e-06
	2.913732e-07	6.215453e-07	0.04916737	-0.1364779	-6.517291e-07	7.848917e-07	0.04996009	-0.1198766
	0.05135385	-0.1200119	-1.106343e-07	-8.963758e-07	0.04985271	-0.136431	-2.710366e-06	3.031491e-06
	-1.217194e-06	-2.776057e-06	0.04988922	-0.1199273	-1.575982e-06	-3.915096e-07	0.04899667	-0.1383117
2.3e+08	-0.005426474	-0.1268217	1.28326e-06	8.318042e-07	-0.008175833	-0.09489957	1.981019e-06	4.714223e-06
	1.866365e-07	5.41718e-07	-0.01103091	-0.1308709	1.636055e-06	8.031999e-08	-0.008656534	-0.09502283
	-0.007682377	-0.0954909	1.44335e-06	-1.441475e-06	-0.01004376	-0.1309474	2.294978e-06	3.193622e-06
	-2.740276e-06	-6.206516e-07	-0.008766764	-0.09502353	4.152311e-07	4.799339e-08	-0.01185618	-0.1315176
2.4e+08	-0.03541926	-0.08041128	1.857063e-06	-7.728536e-07	-0.01870028	-0.03589665	5.386412e-06	6.332366e-07
	-1.544824e-07	5.349777e-07	-0.04097812	-0.08161181	2.159062e-06	-2.361048e-06	-0.01903153	-0.03651544
	-0.01852406	-0.0369061	1.670183e-06	-3.494082e-06	-0.03962417	-0.08206139	5.219482e-06	-1.182843e-06
	-2.27069e-06	1.594934e-06	-0.0191425	-0.03645584	1.556591e-06	-1.634204e-06	-0.04098679	-0.08112774
2.5e+08	-0.01137506	-0.03503658	4.010572e-07	-2.164787e-06	0.02514442	-0.001938473	3.371167e-06	-4.452541e-06
	-5.441432e-07	1.181317e-06	-0.01532791	-0.03482803	1.966515e-07	-4.017599e-06	0.02444799	-0.003011757
	0.02473689	-0.002958838	-3.959417e-07	-4.896701e-06	-0.01386344	-0.03614741	2.790253e-06	-6.071785e-06
	-7.044391e-07	2.893256e-06	0.02436524	-0.002896892	3.503428e-07	-3.388829e-06	-0.01379253	-0.0346233
2.6e+08	0.03895027	-0.03780899	-1.585096e-06	-1.272485e-06	0.07202074	-0.02719785	-1.988181e-06	-4.895291e-06
	1.648392e-08	2.412303e-06	0.03625062	-0.03805845	-2.161031e-06	-3.029455e-06	0.07063763	-0.02834739
	0.07124897	-0.02779656	-2.787861e-06	-3.650285e-06	0.03697169	-0.04040575	-2.619141e-06	-6.339267e-06
	1.351582e-06	3.249594e-06	0.07061308	-0.02819206	-1.823853e-06	-2.9242e-06	0.03839706	-0.03952323
2.7e+08	0.06144748	-0.08672511	-1.486528e-06	9.589275e-07	0.06938575	-0.08073318	-4.642358e-06	-4.468266e-07
	1.97726e-06	2.907598e-06	0.05843791	-0.0879814	-2.363955e-06	-5.363952e-07	0.06736752	-0.0814291
	0.06869399	-0.08088869	-2.838978e-06	-1.025049e-06	0.05756229	-0.09052947	-5.461497e-06	-2.043764e-06
	3.710656e-06	2.362159e-06	0.06742777	-0.08127222	-2.298632e-06	-7.022986e-07	0.05946149	-0.09099539
2.8e+08	0.03142503	-0.1373421	6.889868e-07	1.794341e-06	0.02127361	-0.1056914	-1.990026e-06	3.881069e-06
	4.15392e-06	1.374816e-06	0.02693659	-0.1386185	-2.981884e-07	8.212524e-07	0.01908288	-0.105612
	0.02086664	-0.1057249	-7.12663e-07	1.960394e-07	0.02466486	-0.1399378	-3.52107e-06	2.375964e-06
	5.411328e-06	-3.42631e-07	0.01921916	-0.105515	-4.623064e-07	6.946567e-07	0.02604431	-0.1416327
2.9e+08	-0.03015153	-0.1461663	2.603181e-06	6.588072e-08	-0.02527209	-0.08000126	3.133958e-06	3.706984e-06
	4.453503e-06	-1.846926e-06	-0.03598541	-0.145985	1.906531e-06	-3.203231e-07	-0.02710898	-0.07930098
	-0.02555046	-0.08020265	1.294872e-06	-1.069803e-06	-0.03816603	-0.145259	9.574713e-07	3.171268e-06
	4.632255e-06	-4.225021e-06	-0.02695876	-0.07931041	1.627909e-06	-4.24885e-07	-0.03792573	-0.147513
3e+08	-0.07556506	-0.1041843	1.948551e-06	-2.852112e-06	-0.02960435	-0.02995188	5.601654e-06	-9.16396e-07
	1.731037e-06	-4.383558e-06	-0.08152307	-0.1016757	1.92283e-06	-2.808615e-06	-0.03088285	-0.0290748
	-0.03006204	-0.03031912	1.03814e-06	-3.542597e-06	-0.08182849	-0.09977134	3.849099e-06	2.109611e-08
	4.863439e-07	-6.550469e-06	-0.03081432	-0.02916891	1.357196e-06	-2.906161e-06	-0.08279891	-0.1016531
3.1e+08	-0.06895466	-0.04737815	-1.365686e-06	-3.873292e-06	0.007942983	-0.003046895	2.713988e-06	-5.306362e-06
	-2.220523e-06	-3.385877e-06	-0.07358345	-0.04282768	-3.071115e-07	-3.815775e-06	0.007085529	-0.002392053
	0.007163332	-0.003295517	-1.572145e-06	-4.452733e-06	-0.07171557	-0.04202119	2.625512e-06	-3.686168e-06
	-4.503886e-06	-4.13792e-06	0.007024827	-0.00245768	-1.29491e-06	-3.51683e-06	-0.07323953	-0.04272117
3.2e+08	-0.02308618	-0.02664593	-4.126263e-06	-1.199283e-06	0.04534684	-0.02329504	-2.313961e-06	-4.65616e-06
	-3.26952e-06	7.955146e-07	-0.02554589	-0.02122765	-1.98738e-06	-2.114946e-06	0.04455516	-0.02310078
	0.04443911	-0.02315759	-3.729551e-06	-2.258321e-06	-0.02358368	-0.02316197	-7.581948e-07	-4.09688e-06
	-5.058614e-06	2.162187e-06	0.04445653	-0.02301503	-2.930047e-06	-9.403059e-07	-0.02445157	-0.02263155
3.3e+08	0.0121084	-0.05569432	-3.011718e-06	2.652142e-06	0.04164835	-0.0637574	-3.651695e-06	-6.852921e-08
	1.970241e-07	3.743647e-06	0.01161658	-0.05070983	-9.798839e-07	6.785732e-08	0.04040282	-0.06390549
	0.04093356	-0.0632753	-2.684938e-06	8.507359e-07	0.01093408	-0.05431481	-2.18225e-06	-1.549881e-06
	7.927382e-07	6.238869e-06	0.04044443	-0.06369285	-1.003555e-06	1.885748e-06	0.01157718	-0.05359555
3.4e+08	0.001738663	-0.1001541	9.417486e-07	3.455855e-06	0.003596775	-0.07702923	-8.786358e-08	2.822077e-06
	4.782105e-06	1.935861e-06	0.002331629	-0.0963118	1.520809e-06	6.689108e-08	0.001668417	-0.07690715
	0.003178849	-0.07646877	5.842887e-07	1.452495e-06	-0.001565181	-0.0984315	-5.819846e-07	4.506144e-07
	8.121564e-06	3.024704e-06	0.001927247	-0.07675498	2.727435e-06	1.468248e-06	0.0002619191	-0.09894861
3.5e+08	-0.0441748	-0.1151391	3.5135e-06	2.771456e-07	-0.02566175	-0.04934527	4.005709e-06	7.137525e-07
	5.726764e-06	-3.449828e-06	-0.04347325	-0.1123923	2.769393e-06	-2.252487e-06	-0.02781236	-0.04838444
	-0.02593652	-0.04887971	2.693692e-06	-1.043458e-06	-0.04805277	-0.1106578	1.65293e-06	-1.50353e-07
	9.648534e-06	-5.782353e-06	-0.02746284	-0.0484748	4.356141e-06	-2.235955e-06	-0.04649659	-0.1131108
3.6e+08	-0.08409687	-0.08540012	1.79145e-06	-3.658172e-06	-0.0157689	-0.01071103	3.813185e-06	-4.038607e-06
	1.309347e-06	-7.621015e-06	-0.08389055	-0.08305514	1.234692e-06	-4.542991e-06	-0.01739347	-0.008987158
	-0.01607412	-0.01027565	1.497264e-06	-4.018752e-06	-0.08554946	-0.0783394	1.910448e-06	-2.194422e-06
	2.564574e-06	-1.265097e-05	-0.01719352	-0.009319505	1.736418e-06	-5.676696e-06	-0.08587134	-0.08193972
3.7e+08	-0.08391922	-0.03765538	-2.835864e-06	-3.973417e-06	0.02221591	-0.0009179786	-7.140331e-07	-5.923027e-06
	-5.068107e-06	-6.094238e-06	-0.08403626	-0.03479071	-1.583722e-06	-4.055926e-06	0.02152349	0.0009398471
	0.02189169	-0.0003434116	-1.73754e-06	-4.15995e-06	-0.08146726	-0.03081535	2.352044e-07	-2.835205e-06
	-7.830005e-06	-1.037362e-05	0.02142442	0.0005782621	-2.800371e-06	-4.757185e-06	-0.08405403	-0.03358622
3.8e+08	-0.04955253	-0.01347546	-5.469474e-06	2.513959e-07	0.04797822	-0.0295172	-4.307901e-06	-2.485406e-06
	-7.157272e-06	3.072722e-07	-0.04901496	-0.009633305	-2.139599e-06	-1.095784e-06	0.04801917	-0.02828253
	0.04781577	-0.02875379	-3.194561e-06	-1.059941e-06	-0.04480144	-0.009616469	-4.882269e-07	-1.169297e-06
	-1.157294e-05	1.000264e-07	0.04772198	-0.02841285	-3.874216e-06	1.434279e-07	-0.048138	-0.009970016
3.9e+08	-0.01775362	-0.02688729	-2.938734e-06	4.768485e-06	0.03408462	-0.06450744	-2.479236e-06	2.202839e-06
	-2.713418e-06	5.193097e-06	-0.01539702	-0.02267625	6.418082e-07	6.27272e-07	0.03406887	-0.0642682
	0.03422199	-0.06371479	-8.034475e-07	1.778378e-06	-0.01374985	-0.02604803	1.516147e-06	6.597077e-08
	-4.353606e-06	8.843821e-06	0.0338617	-0.06411214	4.893199e-07	3.471944e-06	-0.01553976	-0.02433288
4e+08	-0.01595254	-0.05476097	2.276023e-06	4.769888e-06	-0.002605636	-0.0668668	2.746677e-06	2.303697e-06
	3.504908e-06	3.622025e-06	-0.01141991	-0.05177164	3.660678e-06	-1.323719e-06	-0.003507559	-0.06714402
	-0.002247804	-0.06625005	3.069584e-06	9.650536e-07	-0.01405802	-0.05452051	3.996767e-06	-1.802071e-06
	7.002381e-06	6.986665e-06	-0.003423633	-0.06692687	5.918187e-06	9.899165e-07	-0.01321104	-0.05291171
4.1e+08	-0.03784584	-0.06499713	4.762257e-06	2.291609e-07	-0.01979401	-0.03464111	5.109407e-06	-2.805537e-06
	4.98096e-06	-2.660819e-06	-0.0322936	-0.06478487	3.388617e-06	-5.227314e-06	-0.02160872	-0.0344535
	-0.01942332	-0.03421966	4.342992e-06	-2.902969e-06	-0.03657571	-0.06328388	3.410759e-06	-5.558775e-06
	1.12319e-05	-4.063905e-06	-0.02132536	-0.03446773	6.569899e-06	-5.373839e-06	-0.03431438	-0.06402573
4.2e+08	-0.05416484	-0.04887458	1.846932e-06	-4.03852e-06	0.003315937	-0.004594003	1.136052e-06	-7.535225e-06
	-1.449317e-07	-7.111446e-06	-0.04980912	-0.05160644	-4.089183e-07	-7.022364e-06	0.001368733	-0.003414764
	0.003614445	-0.004195559	1.576446e-06	-5.867485e-06	-0.05110554	-0.04626632	-7.066215e-07	-7.093043e-06
	3.532426e-06	-1.366847e-05	0.001547788	-0.003737746	1.131749e-06	-9.351609e-06	-0.05012269	-0.04962399
4.3e+08	-0.04566295	-0.02802874	-3.329172e-06	-3.210457e-06	0.04353069	-0.01266059	-5.389633e-06	-5.894068e-06
	-6.917342e-06	-4.609637e-06	-0.0441209	-0.03196075	-3.940524e-06	-4.322964e-06	0.04229566	-0.01080604
	0.04390012	-0.01215572	-2.218922e-06	-4.637554e-06	-0.04039325	-0.02709157	-4.372764e-06	-3.808765e-06
	-9.065053e-06	-1.184065e-05	0.04213786	-0.01121641	-5.161213e-06	-6.367581e-06	-0.0424645	-0.0308552
4.4e+08	-0.02411739	-0.02716761	-4.811217e-06	1.957017e-06	0.05709137	-0.05494568	-6.904337e-06	1.115183e-06
	-8.148322e-06	2.723512e-06	-0.02497123	-0.02992823	-2.981533e-06	2.417085e-07	0.0568339	-0.05328656
	0.05772653	-0.05443995	-2.529054e-06	-6.152134e-07	-0.01890975	-0.02946877	-2.911668e-06	1.451394e-06
	-1.397972e-05	3.259216e-08	0.05640106	-0.05346455	-5.324494e-06	7.459226e-07	-0.02314168	-0.03087153
4.5e+08	-0.0151142	-0.0447788	-7.578837e-07	5.692696e-06	0.02683373	-0.08981668	-1.066722e-06	5.849218e-06
	-2.568114e-06	7.414794e-06	-0.01620713	-0.0453459	1.767935e-06	1.439254e-06	0.0269786	-0.08912108
	0.02772873	-0.08957124	1.228401e-06	1.400356e-06	-0.01246675	-0.0489816	3.026369e-06	2.665911e-06
	-6.496747e-06	1.020371e-05	0.02656955	-0.08894557	1.109217e-06	4.177761e-06	-0.01603502	-0.04718718
4.6e+08	-0.02672816	-0.05787426	4.565134e-06	3.876098e-06	-0.01802326	-0.08222953	6.166878e-06	2.703591e-06
	3.951681e-06	5.085044e-06	-0.02597386	-0.05751659	5.260211e-06	-2.383867e-06	-0.01846121	-0.08245616
	-0.01712244	-0.08239702	5.03134e-06	-1.169552e-06	-0.02658354	-0.06119955	7.431608e-06	-2.427982e-06
	5.697234e-06	9.110248e-06	-0.01859033	-0.08210446	7.426992e-06	4.204041e-09	-0.02715227	-0.05806487
4.7e+08	-0.04096154	-0.04988167	5.556502e-06	-1.757926e-06	-0.03234144	-0.04116386	6.77444e-06	-5.676203e-06
	4.929125e-06	-1.442683e-06	-0.03834261	-0.05122603	3.579292e-06	-7.639827e-06	-0.03388144	-0.0415172
	-0.03171971	-0.04160564	4.687899e-06	-6.040141e-06	-0.04083952	-0.05122887	5.098001e-06	-9.508434e-06
	1.074233e-05	-1.66554e-06	-0.03373939	-0.04128368	6.931301e-06	-7.937466e-06	-0.0385849	-0.04981974
4.8e+08	-0.03374247	-0.03176067	9.413226e-07	-5.244151e-06	-0.001554156	-0.01136892	-9.392865e-07	-1.038445e-05
