!$
! Info: Touchstone file created by Circ.  Input file=Tx_NPC_250mm_32AWG_BPK_1400mm_27AWG_BPK_250mm_32AWG_NPC_Rx.circ
!$
# Hz S RI R 50
0	0.1016743	9.320694e-17	-2.945388e-05	-2.870246e-19	0.002553223	3.652906e-16	-3.687719e-05	-3.00124e-18
	-4.072583e-05	4.686327e-20	0.04952451	-1.910093e-16	-3.187259e-05	1.138726e-20	0.003719229	-4.406122e-16
	0.00379978	7.45388e-16	-3.334533e-05	1.42573e-19	0.07863465	-3.249811e-16	-4.811577e-05	2.935561e-18
	-3.212422e-05	-1.525007e-18	0.003805893	-2.528436e-16	-3.832122e-05	1.278197e-19	0.07319197	5.509967e-16
1e+07	0.07861892	-0.01492898	-8.989984e-05	3.493535e-05	0.03296997	0.03917078	-5.049926e-05	-1.819974e-06
	-0.0001050087	3.939009e-05	0.078561	-0.01561836	6.555626e-06	2.150299e-05	0.03316003	0.03904385
	0.03363775	0.03858156	7.348894e-06	2.369358e-05	0.07762063	-0.01507895	-0.0001077571	4.326267e-05
	-4.943159e-05	-5.389642e-06	0.03319087	0.03902521	-9.92678e-05	3.784825e-05	0.07940786	-0.01689684
2e+07	0.06839997	-0.03666555	-9.357496e-05	3.778015e-05	0.07840037	0.02698377	-6.965405e-05	1.049388e-05
	-0.0001050599	5.549688e-05	0.06752928	-0.03735313	4.136341e-05	7.179109e-05	0.07851419	0.02679143
	0.07820073	0.02619044	4.454586e-05	7.138606e-05	0.06700326	-0.03657499	-0.0001059678	5.718662e-05
	-7.082436e-05	9.581657e-06	0.07846343	0.02675205	-0.0001018682	4.647088e-05	0.0669169	-0.03874978
3e+07	0.04038742	-0.04614416	-9.953196e-05	7.175961e-05	0.08090475	-0.0183755	-8.970558e-05	5.278644e-05
	-9.327815e-05	9.376075e-05	0.03884961	-0.0461187	8.360484e-05	6.91612e-05	0.0807979	-0.01854982
	0.08007888	-0.01857603	8.469252e-05	6.613041e-05	0.03873506	-0.0454227	-9.708726e-05	9.719206e-05
	-8.846273e-05	5.170402e-05	0.08066511	-0.01851811	-0.0001018507	8.501676e-05	0.03753124	-0.04632453
4e+07	0.0138581	-0.02775071	-7.557347e-05	0.0001422982	0.03787588	-0.03408145	-6.738735e-05	0.0001286463
	-5.776436e-05	0.0001507489	0.01256298	-0.02661556	0.0001212641	6.161004e-05	0.03771494	-0.03415403
	0.03749531	-0.03346911	0.0001201776	5.949969e-05	0.01251054	-0.02619685	-5.707199e-05	0.0001607964
	-6.906936e-05	0.0001236455	0.03764783	-0.03401006	-7.009711e-05	0.000155527	0.0119077	-0.02561948
5e+07	0.01642131	0.005676204	2.900395e-05	0.000190883	0.009177052	0.004746957	3.142488e-05	0.0001776402
	4.17594e-05	0.0001882676	0.01630359	0.007401706	0.0001911618	8.346383e-06	0.009103093	0.004688806
	0.00967329	0.005240318	0.0001900934	6.62501e-06	0.01594777	0.007642171	5.38897e-05	0.0001939992
	2.273218e-05	0.0001773399	0.009163805	0.004820307	4.160364e-05	0.0002001474	0.01703408	0.008328358
6e+07	0.04824476	0.01881137	0.0001434349	0.0001317821	0.03881274	0.04850407	0.00014556	0.0001322214
	0.0001534618	0.0001298021	0.0493344	0.01984769	0.0002009591	-0.0001298235	0.03878795	0.04835869
	0.03967422	0.04816296	0.0001977818	-0.0001318078	0.04863716	0.02045888	0.0001642382	0.0001212362
	0.0001412024	0.0001425017	0.0389297	0.04839526	0.0001608765	0.0001326687	0.0506976	0.01952453
7e+07	0.07502508	-0.003684236	0.000168704	3.455787e-05	0.09473196	0.03830271	0.0001979078	3.219285e-05
	0.0001839175	2.620087e-05	0.07619025	-0.004016506	8.786671e-05	-0.0002326766	0.09458814	0.03802606
	0.09497201	0.037208	8.257622e-05	-0.0002308622	0.07563872	-0.002736727	0.0001809887	1.564508e-05
	0.0002065357	4.076651e-05	0.09469157	0.03794651	0.0001846525	2.423878e-05	0.07676861	-0.005564064
8e+07	0.06812071	-0.03774128	0.0001695088	-3.870976e-05	0.1102969	-0.01792341	0.0002050172	-6.956666e-05
	0.000176756	-6.289663e-05	0.06817505	-0.03874311	-2.847887e-05	-0.000224978	0.1099207	-0.01815622
	0.1095336	-0.01890043	-3.016518e-05	-0.0002185691	0.06834195	-0.03712576	0.0001708444	-6.218845e-05
	0.0002156117	-7.411109e-05	0.1099063	-0.01826199	0.000176747	-5.714757e-05	0.06725307	-0.04027416
9e+07	0.03513486	-0.04660167	0.0001676771	-0.0001514454	0.06604142	-0.05467564	0.0001724747	-0.0001997956
	0.0001508262	-0.0001755893	0.0341535	-0.04684634	-9.305575e-05	-0.0002246111	0.06555509	-0.05463436
	0.06478923	-0.05475153	-8.872611e-05	-0.0002198596	0.0350173	-0.04558858	0.0001547162	-0.0001739307
	0.0001719511	-0.0002089317	0.06546308	-0.05465052	0.000162985	-0.0001715111	0.03242569	-0.04705772
1e+08	0.01440461	-0.01852428	2.310159e-05	-0.0002848916	0.0169638	-0.02603463	1.44616e-05	-0.0003187374
	-4.913478e-06	-0.0002859593	0.01378519	-0.01740295	-0.0002469137	-0.0002349745	0.01669652	-0.02572993
	0.01620951	-0.02523422	-0.0002421975	-0.000235372	0.01473598	-0.01681677	-3.121461e-06	-0.0002954254
	9.343724e-06	-0.0003194948	0.01665779	-0.02563586	6.982553e-06	-0.000299378	0.01278348	-0.0162111
1.1e+08	0.03579559	0.01374577	-0.0002079396	-0.0002185496	0.02972959	0.03197287	-0.0002144279	-0.0002678058
	-0.0002225137	-0.0002034304	0.0368237	0.0151655	-0.0004024512	-4.734066e-05	0.02983709	0.03216753
	0.02990483	0.03280322	-0.0004001085	-4.839559e-05	0.03727939	0.01545723	-0.0002347535	-0.0002094061
	-0.0002127832	-0.0002665316	0.02993068	0.03226658	-0.0002304729	-0.0002210774	0.03737893	0.01640652
1.2e+08	0.07919445	0.007153731	-0.0002580849	-5.755914e-06	0.09377457	0.04184586	-0.0003205842	-7.601444e-05
	-0.0002619739	6.143282e-06	0.08144337	0.007119738	-0.000314008	0.0002229747	0.09390658	0.04161583
	0.0943541	0.04191538	-0.0003100634	0.0002215296	0.08151521	0.007822953	-0.0002718187	1.60087e-05
	-0.0003200895	-8.216908e-05	0.09407002	0.04158977	-0.0002783784	5.844201e-06	0.08274512	0.007058816
1.3e+08	0.0972316	-0.03649505	-0.000168929	8.704771e-05	0.1338227	-0.01483563	-0.0002989564	9.063294e-05
	-0.0001743	9.98621e-05	0.09889027	-0.03843645	-0.0001000051	0.0002791016	0.1335345	-0.01527414
	0.1339052	-0.01542682	-9.697146e-05	0.0002723292	0.09927909	-0.03712652	-0.0001691264	0.0001092768
	-0.0003086933	8.701035e-05	0.1336267	-0.01543074	-0.000178852	0.0001085372	0.09939945	-0.03970662
1.4e+08	0.07068714	-0.07602121	-0.0001649921	0.0001181351	0.1032496	-0.07855338	-0.0002471142	0.0002290635
	-0.000161515	0.0001413814	0.07048263	-0.07849061	-2.970463e-05	0.0002338426	0.1025359	-0.07867857
	0.1024741	-0.07899781	-3.505726e-05	0.0002254682	0.07166196	-0.07713511	-0.0001565696	0.0001379025
	-0.0002558731	0.000239055	0.1024796	-0.0788474	-0.0001609431	0.00014207	0.06952428	-0.07958327
1.5e+08	0.02496784	-0.07334101	-0.0001283677	0.0002827376	0.03473002	-0.08069118	-0.000109975	0.0003937892
	-0.0001015009	0.0002998727	0.02349862	-0.07455388	3.624134e-05	0.0003201526	0.03408909	-0.08019637
	0.03361705	-0.0802205	2.517841e-05	0.0003207903	0.02519204	-0.07380193	-0.0001087241	0.0002988825
	-0.0001030667	0.0004063839	0.03394816	-0.0802497	-0.0001100898	0.000300664	0.02199923	-0.07413778
1.6e+08	0.01026619	-0.03148273	0.0001556982	0.0003663886	0.008182344	-0.02089476	0.0001948361	0.0004362842
	0.0001881168	0.0003535655	0.00942418	-0.03119416	0.0003212668	0.0003089619	0.008236541	-0.02013189
	0.00770288	-0.01957003	0.0003172775	0.0003182952	0.01102149	-0.0310945	0.0001860014	0.0003667335
	0.0002076662	0.0004335135	0.008152085	-0.02006736	0.0001815743	0.000368813	0.009123837	-0.02945376
1.7e+08	0.04758365	-0.003174586	0.0003772319	0.0001102489	0.05665583	0.02261708	0.0004459905	0.0001988944
	0.0003849777	8.036245e-05	0.04836091	-0.003022807	0.0004705201	-4.284632e-05	0.05733204	0.02280652
	0.05727168	0.02387284	0.0004749816	-3.768324e-05	0.04957942	-0.003187089	0.0003999108	8.849043e-05
	0.0004456705	0.0001890128	0.05736429	0.02286599	0.0003973976	9.727185e-05	0.04991004	-0.001723437
1.8e+08	0.09338436	-0.02937363	0.0002691869	-0.0001323324	0.1172564	-0.009349563	0.0004382665	-9.822655e-05
	0.0002575067	-0.0001506484	0.09468541	-0.03092592	0.0002320051	-0.0002925591	0.1176831	-0.01001151
	0.1183789	-0.008990632	0.0002339841	-0.0002926032	0.09564511	-0.03102001	0.0002711375	-0.0001599204
	0.0004317976	-9.750171e-05	0.1177506	-0.01005466	0.0002786807	-0.0001514585	0.09676285	-0.03142566
1.9e+08	0.09485216	-0.0871548	0.0001627259	-0.0001487885	0.1152966	-0.08121648	0.000320118	-0.0002792339
	0.0001522457	-0.0001559882	0.09481327	-0.09012489	5.288212e-05	-0.0002159161	0.1148655	-0.08205923
	0.1159817	-0.08166203	5.342379e-05	-0.0002124419	0.09575998	-0.09008439	0.0001524297	-0.0001684595
	0.0003230639	-0.0002739541	0.1148557	-0.08217731	0.0001632189	-0.0001703727	0.09566048	-0.09187435
2e+08	0.04694316	-0.1228224	0.0001806289	-0.0002392646	0.05170674	-0.115618	0.0001785188	-0.0004298905
	0.0001692547	-0.000248263	0.04491705	-0.125447	0.0001026093	-0.000228213	0.05070676	-0.1158013
	0.05155795	-0.1160601	0.0001101816	-0.0002248121	0.0459777	-0.1253826	0.0001653165	-0.0002537329
	0.0001853511	-0.0004346553	0.05059055	-0.1158921	0.0001683856	-0.0002614821	0.04420294	-0.1266757
2.1e+08	-0.007663488	-0.1026389	-9.437472e-06	-0.0004466217	-0.006669639	-0.07832182	-0.0001017982	-0.0005496691
	-3.326622e-05	-0.0004489403	-0.01045269	-0.1035139	-5.458264e-05	-0.0004389539	-0.007319753	-0.07765434
	-0.007170197	-0.07800467	-4.515681e-05	-0.0004465721	-0.009237227	-0.1034678	-3.460233e-05	-0.0004544201
	-0.0001065444	-0.0005590574	-0.00747563	-0.07764674	-3.700638e-05	-0.0004573462	-0.01126809	-0.1030455
2.2e+08	-0.01272129	-0.04838359	-0.0004073584	-0.0003346993	0.003249358	-0.01464807	-0.0004915009	-0.0004007323
	-0.0004295474	-0.0003129296	-0.01449139	-0.04794889	-0.000477543	-0.0003067295	0.003641661	-0.01394786
	0.003356425	-0.01361099	-0.0004812348	-0.0003203278	-0.01296166	-0.04808475	-0.000436632	-0.0003221859
	-0.0005021654	-0.0003974061	0.003529442	-0.01385563	-0.0004343488	-0.000322192	-0.01357095	-0.04668257
2.3e+08	0.03593244	-0.02705535	-0.0004746803	7.769667e-05	0.06387456	-0.004812875	-0.0006302016	2.242269e-05
	-0.0004701209	0.000109364	0.0354613	-0.02702809	-0.0004979962	0.0001771088	0.06478878	-0.00517723
	0.06502333	-0.003987721	-0.0005112173	0.0001755527	0.03718369	-0.02783009	-0.0004867846	0.0001072688
	-0.0006281889	3.240118e-05	0.06475038	-0.005062843	-0.0004834751	9.950596e-05	0.03802418	-0.02716828
2.4e+08	0.07563753	-0.06814495	-0.0002569821	0.0002501473	0.09277254	-0.05982932	-0.0004604392	0.0003507417
	-0.0002338552	0.0002637778	0.07512973	-0.069356	-0.0001707277	0.0003053553	0.09293322	-0.06121949
	0.09433112	-0.06004596	-0.0001754341	0.0003140892	0.07626569	-0.07097294	-0.0002493804	0.0002763046
	-0.0004516747	0.0003489685	0.09294681	-0.06112932	-0.0002573807	0.0002662431	0.07720312	-0.07172606
2.5e+08	0.05689593	-0.1284013	-0.0001815658	0.0002779838	0.05344117	-0.1100682	-0.0002311336	0.0005116887
	-0.0001634456	0.0002740535	0.05515367	-0.1300593	-0.000127126	0.000204218	0.05233299	-0.1113441
	0.05441224	-0.1112103	-0.0001237852	0.0002079407	0.05508704	-0.1316791	-0.0001657901	0.0002957509
	-0.0002331905	0.00050285	0.05236543	-0.1112919	-0.0001802997	0.0002975507	0.05509254	-0.1331079
2.6e+08	-0.007163877	-0.1476833	-7.251728e-05	0.0004602597	-0.009009168	-0.09987167	4.339226e-05	0.0006184648
	-6.24467e-05	0.0004542544	-0.01001145	-0.1484436	-0.0001571849	0.0004120892	-0.0106708	-0.1000585
	-0.009047438	-0.1010903	-0.0001578928	0.0004113752	-0.01079669	-0.1489486	-4.838746e-05	0.0004717298
	3.308043e-05	0.0006197924	-0.01064773	-0.1000427	-5.470037e-05	0.0004839599	-0.01158058	-0.1500155
2.7e+08	-0.05822886	-0.1053829	0.0003320931	0.0005129698	-0.02900479	-0.04337479	0.0004510071	0.0005651939
	0.0003437828	0.0005050542	-0.0609523	-0.1047083	0.0002732015	0.0006114074	-0.0300045	-0.04260307
	-0.02960146	-0.04386215	0.0002706486	0.0006170431	-0.06103335	-0.1039594	0.0003644454	0.0005073772
	0.0004498908	0.0005764825	-0.03002567	-0.04260233	0.0003687222	0.000516941	-0.06179806	-0.1043928
2.8e+08	-0.046412	-0.04543643	0.0006485881	0.0001099461	0.01075448	-0.005425821	0.0007753413	0.0001575749
	0.0006560277	9.026487e-05	-0.04802684	-0.04416373	0.0007329566	0.0001803068	0.01088709	-0.004895436
	0.01054348	-0.005151508	0.0007407593	0.0001878441	-0.04647065	-0.04359029	0.0006698749	8.164022e-05
	0.000785019	0.0001614729	0.01081373	-0.004842961	0.0006745912	8.479521e-05	-0.04676617	-0.04390812
2.9e+08	0.007984165	-0.03556314	0.0004809907	-0.0003219014	0.05582882	-0.02945378	0.0006871499	-0.0003656943
	0.0004696016	-0.0003438795	0.007138428	-0.03476949	0.0005261806	-0.0003707123	0.05614959	-0.03014545
	0.05648043	-0.02926736	0.0005384433	-0.0003764633	0.009243933	-0.03610875	0.0004786901	-0.0003533827
	0.0006916099	-0.0003712856	0.0561078	-0.0299841	0.0004822826	-0.0003486708	0.009162296	-0.03673079
3e+08	0.03480206	-0.08311784	0.0002208657	-0.0004259752	0.0462582	-0.07871873	0.0003418696	-0.0006489438
	0.0001979958	-0.0004316073	0.03386049	-0.08285849	0.0001814827	-0.0004006438	0.04546113	-0.08016733
	0.04721695	-0.0794395	0.0001806883	-0.0004142361	0.03415151	-0.08574805	0.0002070911	-0.000448612
	0.0003398943	-0.0006503876	0.04556713	-0.07996384	0.0002178894	-0.000444473	0.03402528	-0.0866044
3.1e+08	0.0004061813	-0.1307304	5.972887e-05	-0.0005194879	-0.003533324	-0.08778805	-2.628224e-05	-0.0007347096
	4.328047e-05	-0.0005101715	-0.000899695	-0.1304392	0.000156115	-0.0004249086	-0.005606165	-0.08863799
	-0.003239626	-0.08932219	0.0001454225	-0.0004287002	-0.003140417	-0.1323167	3.659728e-05	-0.0005381289
	-2.280053e-05	-0.000732382	-0.005357835	-0.08855022	5.091063e-05	-0.0005457408	-0.003268635	-0.1333633
3.2e+08	-0.06204059	-0.1250171	-0.0002983129	-0.0005943716	-0.03263137	-0.04723789	-0.000441497	-0.0006746753
	-0.0003053051	-0.00058257	-0.06338584	-0.1243377	-0.0001070967	-0.0006978636	-0.03490171	-0.04672723
	-0.03344932	-0.04873611	-0.0001120246	-0.000692397	-0.0660103	-0.1232752	-0.0003369425	-0.0005976515
	-0.0004341528	-0.0006809374	-0.03466654	-0.04684321	-0.000333432	-0.0006160409	-0.06624664	-0.1247019
3.3e+08	-0.0904118	-0.06941579	-0.0007178448	-0.0002737532	-0.009836784	-0.005466509	-0.0008400895	-0.0003197501
	-0.0007217731	-0.0002615907	-0.09141491	-0.06849924	-0.0007467544	-0.0005248097	-0.01115165	-0.004159936
	-0.01132404	-0.006073847	-0.0007454662	-0.0005229344	-0.09152606	-0.06560445	-0.0007525926	-0.0002451144
	-0.0008437061	-0.0003333286	-0.01110742	-0.004380242	-0.0007645748	-0.0002595709	-0.09230893	-0.06738524
3.4e+08	-0.05958737	-0.02173328	-0.0007018177	0.0002949489	0.03444821	-0.01018346	-0.0008976087	0.0002901039
	-0.0006996183	0.000311626	-0.06028487	-0.02092094	-0.0009111224	0.0002282584	0.034115	-0.009311401
	0.03325999	-0.009788214	-0.0009143983	0.0002274957	-0.05755967	-0.0195264	-0.0007049866	0.0003382355
	-0.0009132537	0.000286385	0.03397188	-0.009402416	-0.0007214297	0.000337183	-0.05918443	-0.02103669
3.5e+08	-0.01142309	-0.02815637	-0.0003398979	0.0005823861	0.04358373	-0.05129105	-0.0005309984	0.0007612646
	-0.0003248082	0.0005959204	-0.01204417	-0.02740728	-0.0004278953	0.000665618	0.04318572	-0.05139308
	0.04328935	-0.05066433	-0.0004318903	0.0006726355	-0.009592353	-0.02933105	-0.0003203387	0.0006111644
	-0.0005417423	0.000771884	0.043097	-0.05124813	-0.0003314105	0.0006183976	-0.01148472	-0.02982211
3.6e+08	-0.001898084	-0.07006607	-3.410696e-05	0.0006440596	0.007926711	-0.07169697	-2.053399e-05	0.0009095539
	-1.35998e-05	0.000643517	-0.00225836	-0.06921416	-6.428093e-05	0.0006362395	0.006571218	-0.07209023
	0.008144381	-0.07170679	-5.741522e-05	0.0006447955	-0.003168802	-0.07221537	-1.007661e-05	0.0006617833
	-1.947259e-05	0.0009212207	0.006747627	-0.07190476	-1.662293e-05	0.000671871	-0.004191048	-0.07193714
3.7e+08	-0.03716944	-0.09315485	0.0003322844	0.000659862	-0.02285102	-0.04442901	0.0004810688	0.0008053733
	0.0003461627	0.0006480767	-0.03699061	-0.09257028	0.0001709167	0.0006945252	-0.02494814	-0.04405828
	-0.02303805	-0.04515837	0.0001820167	0.0006913594	-0.04043529	-0.09273125	0.0003692234	0.0006695046
	0.0004857506	0.0008116864	-0.02460161	-0.04412497	0.00036765	0.0006837164	-0.04030752	-0.09300976
3.8e+08	-0.07366594	-0.07025565	0.0007701591	0.0003547896	-0.007924216	-0.005454953	0.0009114007	0.0004247682
	0.0007758638	0.0003399439	-0.07332024	-0.07049172	0.0006941528	0.0006075937	-0.00977801	-0.004061217
	-0.009054548	-0.006154072	0.0006953549	0.0005978923	-0.07525229	-0.06690195	0.0008151128	0.000333887
	0.0009170354	0.0004306172	-0.009583702	-0.004429405	0.0008245218	0.0003488743	-0.07519928	-0.06865053
3.9e+08	-0.07068164	-0.02856293	0.0008312095	-0.0002583685	0.03477223	-0.004886293	0.001036793	-0.0002158217
	0.000830611	-0.0002752714	-0.07099855	-0.02951457	0.001037042	-5.414059e-05	0.03377231	-0.003153328
	0.03305626	-0.004665009	0.001031806	-5.703909e-05	-0.06880153	-0.02553299	0.0008485117	-0.0003096619
	0.001048953	-0.0002126257	0.03360821	-0.003546177	0.0008678516	-0.0003051312	-0.07034522	-0.02795084
4e+08	-0.03709319	-0.01314647	0.0004498072	-0.0006609427	0.05169307	-0.04486647	0.0007070701	-0.0007999229
	0.0004381333	-0.00067809	-0.03840983	-0.01389171	0.0006793	-0.0007213382	0.05128373	-0.04352391
	0.05037894	-0.04352504	0.0006787362	-0.0007205469	-0.0340634	-0.01335925	0.0004282824	-0.0007053586
	0.0007208898	-0.0008089383	0.05091864	-0.04361605	0.0004450795	-0.000715908	-0.03713803	-0.01451045
4.1e+08	-0.01378438	-0.03171687	5.319458e-05	-0.0007406045	0.02116883	-0.07518183	0.0001251269	-0.00105456
	3.014633e-05	-0.0007467112	-0.01530312	-0.03145808	0.0001104841	-0.0008568122	0.02073597	-0.07433391
	0.02098037	-0.07345988	0.000109901	-0.0008610148	-0.013122	-0.03413175	1.800575e-05	-0.0007611403
	0.0001269135	-0.001072498	0.02053961	-0.07412161	2.317889e-05	-0.0007785546	-0.01578164	-0.03314796
4.2e+08	-0.02055327	-0.05323152	-0.0003373379	-0.0007350429	-0.01671364	-0.05761744	-0.00048909	-0.0009692776
	-0.0003587066	-0.0007235191	-0.02108715	-0.05246889	-0.0002873199	-0.0007807548	-0.01747257	-0.05687528
	-0.01599583	-0.05651369	-0.0002954075	-0.0007825738	-0.02254422	-0.05430307	-0.0003769103	-0.0007402068
	-0.0005008391	-0.000981546	-0.01733771	-0.0566919	-0.0003821128	-0.0007561126	-0.02300478	-0.05265592
4.3e+08	-0.03772234	-0.05114976	-0.000816451	-0.0004430215	-0.0117653	-0.01641285	-0.001001754	-0.0005426803
	-0.0008245246	-0.0004224551	-0.03728202	-0.05135321	-0.0007375897	-0.0005782473	-0.01267162	-0.01545309
	-0.01108364	-0.01627231	-0.0007433996	-0.000569685	-0.0392127	-0.04944266	-0.0008606315	-0.0004237829
	-0.001015961	-0.0005434356	-0.01243778	-0.01558629	-0.0008739912	-0.000434829	-0.03804961	-0.04952792
4.4e+08	-0.03635456	-0.03537304	-0.0009408486	0.0002298753	0.0314857	-0.007896914	-0.001165563	0.0001701114
	-0.0009373337	0.0002488544	-0.03647314	-0.03721867	-0.001018352	3.452764e-05	0.03066336	-0.006762099
	0.03135582	-0.00809281	-0.001012556	4.254441e-05	-0.03499819	-0.03340057	-0.0009636444	0.0002790605
	-0.001176086	0.0001757631	0.03063559	-0.007123917	-0.0009829464	0.0002785902	-0.03474508	-0.03576927
4.5e+08	-0.01894601	-0.03466581	-0.0005167985	0.0007150966	0.05756956	-0.04881812	-0.0008270001	0.0008241864
	-0.0005055733	0.000731015	-0.02105374	-0.0369536	-0.0007049811	0.0006601741	0.05683774	-0.04759305
	0.05679744	-0.04834635	-0.0006983946	0.0006576735	-0.01642766	-0.03545657	-0.0005010602	0.000764246
	-0.0008342937	0.0008344823	0.0564712	-0.04781945	-0.0005158393	0.0007780245	-0.01873097	-0.03796578
4.6e+08	-0.01279073	-0.05259117	-6.468323e-05	0.0007625667	0.02988075	-0.09244373	-0.0002183696	0.001119929
	-4.350094e-05	0.0007721523	-0.01643884	-0.0533646	-0.0001905143	0.0008178036	0.02929806	-0.09108394
	0.02946345	-0.09095201	-0.0001922844	0.0008151134	-0.01256406	-0.05547064	-3.000423e-05	0.0007900279
	-0.000218035	0.00113499	0.02888081	-0.09094805	-3.044399e-05	0.0008085065	-0.01615189	-0.05564734
4.7e+08	-0.02762888	-0.06405515	0.0002625938	0.0007473604	-0.02131147	-0.08695562	0.0004195487	0.00108089
	0.0002891365	0.0007402139	-0.0307984	-0.06279272	0.0001747533	0.000807278	-0.02154032	-0.08556114
	-0.02052118	-0.08514202	0.0001752002	0.0008118827	-0.03017363	-0.06545976	0.0003051334	0.0007585739
	0.0004315957	0.00109255	-0.02168993	-0.08520865	0.0003141266	0.0007699681	-0.03218588	-0.06337041
4.8e+08	-0.04108531	-0.05198778	0.0007544922	0.0005850935	-0.03608255	-0.04034656	0.001012794	0.0007092885
	0.0007696944	0.000559693	-0.04236606	-0.0503137	0.0006729879	0.0006999959	-0.03590701	-0.039322
