!$
! Info: Touchstone file created by Circ.  Input file=Tx_NPC_250mm_32AWG_BPK_100mm_27AWG_BPK_250mm_32AWG_NPC_Rx.circ
!$
# Hz S RI R 50
0	0.01303263	-1.176568e-16	2.630826e-06	2.23978e-19	0.002678122	-3.436382e-15	2.527961e-07	-4.198534e-21
	2.827632e-07	-1.536914e-21	0.01272697	-2.117958e-16	-7.519511e-07	1.929368e-19	0.002573747	-4.583924e-16
	0.002724257	-9.732215e-16	6.908703e-07	4.039888e-20	0.03319445	3.480666e-15	1.403474e-06	-1.843824e-19
	1.150024e-06	-1.099743e-21	0.002682354	-2.626335e-16	-4.327383e-08	2.003247e-21	0.03767701	4.539912e-16
1e+07	0.04570886	0.005920321	2.847962e-06	1.629386e-07	0.008571801	0.02367517	2.446296e-07	2.337298e-07
	5.62307e-07	7.121996e-07	0.04542374	0.005968833	-5.950597e-07	5.44368e-07	0.01009562	0.02303001
	0.01000121	0.02312039	7.898476e-07	1.170682e-07	0.04256102	0.006599778	1.38036e-06	-2.455623e-07
	1.152866e-06	1.602821e-08	0.01014109	0.02305238	-7.757494e-09	1.168095e-07	0.04697917	0.005449366
2e+07	0.05324566	0.00709665	3.153676e-06	1.567554e-08	0.02590737	0.04197509	3.470061e-07	3.866494e-07
	1.052081e-06	1.080955e-06	0.05302468	0.007066336	-1.771156e-07	8.752734e-07	0.02686024	0.04122683
	0.02680781	0.04124849	1.023153e-06	5.842205e-08	0.0503558	0.008448657	1.317838e-06	-4.950401e-07
	1.18063e-06	-4.563431e-08	0.02690344	0.0412047	8.598331e-08	1.86099e-07	0.05431391	0.006034422
3e+07	0.06141604	0.003539654	3.303129e-06	-5.130625e-07	0.05001325	0.04967409	4.192878e-07	4.449728e-07
	1.498362e-06	1.018227e-06	0.06112595	0.003372314	3.017296e-07	9.023599e-07	0.04981232	0.04956406
	0.0498887	0.04957258	1.21304e-06	-2.336953e-07	0.05890283	0.005436353	1.19573e-06	-7.406127e-07
	1.126256e-06	-1.811389e-07	0.04987652	0.04948067	1.941085e-07	1.913158e-07	0.06203696	0.001987865
4e+07	0.06812037	-0.004326675	3.02566e-06	-1.30366e-06	0.07513264	0.04554809	4.044765e-07	4.443524e-07
	1.617628e-06	6.250994e-07	0.06763722	-0.004549841	6.569847e-07	6.549882e-07	0.07479501	0.0454607
	0.07493935	0.04547938	1.198053e-06	-7.043811e-07	0.06608749	-0.001996969	1.007391e-06	-9.624557e-07
	9.341881e-07	-3.354756e-07	0.07483696	0.04535757	2.817062e-07	1.372882e-07	0.06807708	-0.006108762
5e+07	0.07160668	-0.01505628	2.152019e-06	-2.094038e-06	0.09602833	0.03056538	2.764855e-07	4.497089e-07
	1.229949e-06	1.37658e-07	0.07081298	-0.01520177	7.52966e-07	2.535914e-07	0.09560551	0.03052309
	0.09577977	0.03059092	8.738085e-07	-1.21414e-06	0.0700841	-0.01234959	7.594164e-07	-1.139424e-06
	5.921532e-07	-4.378891e-07	0.0956212	0.03042813	3.238404e-07	3.933514e-08	0.07079486	-0.01682792
6e+07	0.07091405	-0.02734435	6.708273e-07	-2.543098e-06	0.1084641	0.007612776	4.134474e-08	5.191154e-07
	3.071203e-07	-1.239396e-07	0.06981118	-0.02725054	5.397634e-07	-1.273715e-07	0.1079363	0.007633715
	0.1081996	0.007728237	2.241917e-07	-1.578518e-06	0.06995518	-0.02443898	4.645951e-07	-1.250508e-06
	1.209819e-07	-4.097514e-07	0.1079189	0.007529353	3.038052e-07	-6.871808e-08	0.06936135	-0.02876138
7e+07	0.06579953	-0.03903868	-1.228945e-06	-2.321474e-06	0.1098234	-0.01851446	-2.588595e-07	7.157676e-07
	-9.893051e-07	1.482416e-07	0.06445488	-0.0384911	6.949515e-08	-3.07315e-07	0.1092282	-0.01837903
	0.1095892	-0.01829749	-6.639592e-07	-1.617078e-06	0.06540918	-0.03599611	1.417256e-07	-1.287409e-06
	-4.196545e-07	-1.906219e-07	0.1091817	-0.01847471	2.207244e-07	-1.654531e-07	0.06365151	-0.03978843
8e+07	0.05669723	-0.04844469	-3.190544e-06	-1.217151e-06	0.09987369	-0.04260959	-5.551072e-07	1.073737e-06
	-2.334518e-06	1.150214e-06	0.05527946	-0.04727046	-5.115588e-07	-1.539651e-07	0.09926067	-0.04231667
	0.09970882	-0.04230466	-1.609992e-06	-1.205328e-06	0.05688322	-0.04534977	-1.8981e-07	-1.23951e-06
	-9.400414e-07	2.56562e-07	0.0991851	-0.04239303	8.25234e-08	-2.16669e-07	0.05421213	-0.04828699
9e+07	0.04468564	-0.05401084	-4.755238e-06	7.796889e-07	0.0806796	-0.05984643	-7.584707e-07	1.592031e-06
	-3.310273e-06	2.883743e-06	0.04345775	-0.05211766	-9.939815e-07	3.722242e-07	0.08011291	-0.05936797
	0.08061425	-0.05948442	-2.37253e-06	-3.204725e-07	0.04544751	-0.05095739	-5.044185e-07	-1.101075e-06
	-1.330526e-06	9.241045e-07	0.0800132	-0.05941651	-8.536245e-08	-1.94262e-07	0.04222337	-0.05280489
1e+08	0.03153808	-0.05456997	-5.475316e-06	3.429395e-06	0.05627222	-0.06669878	-7.742765e-07	2.217522e-06
	-3.515627e-06	5.114022e-06	0.03082732	-0.05196698	-1.157667e-06	1.188349e-06	0.05584706	-0.06606424
	0.05632822	-0.06632184	-2.703902e-06	9.288391e-07	0.03288812	-0.05162993	-7.689888e-07	-8.788817e-07
	-1.481703e-06	1.744434e-06	0.05573822	-0.06607631	-2.434516e-07	-8.73807e-08	0.02952312	-0.05230396
1.1e+08	0.0193027	-0.04978427	-5.063005e-06	6.269169e-06	0.03185135	-0.06184349	-5.431754e-07	2.849682e-06
	-2.710358e-06	7.395026e-06	0.01941649	-0.04662982	-8.462235e-07	2.08538e-06	0.03162213	-0.06109156
	0.0320235	-0.06149367	-2.425408e-06	2.299824e-06	0.02123404	-0.04706026	-9.423512e-07	-5.934311e-07
	-1.316684e-06	2.598716e-06	0.03151394	-0.06106371	-3.322895e-07	9.368075e-08	0.01812582	-0.04662028
1.2e+08	0.01038712	-0.04016199	-3.486453e-06	8.691391e-06	0.01283856	-0.04637399	-6.080815e-08	3.337603e-06
	-9.052302e-07	9.158853e-06	0.01159176	-0.03675622	-3.294626e-08	2.772844e-06	0.01285578	-0.04558716
	0.01311005	-0.04609301	-1.499683e-06	3.460211e-06	0.01289603	-0.03776028	-1.007554e-06	-2.992215e-07
	-8.297949e-07	3.312185e-06	0.01276582	-0.04552205	-3.219718e-07	2.960644e-07	0.01040802	-0.03641971
1.3e+08	0.006781351	-0.02725606	-1.050374e-06	1.011675e-05	0.003611168	-0.02381436	5.811293e-07	3.537533e-06
	1.564743e-06	9.878147e-06	0.009214581	-0.02400498	1.130327e-06	2.96084e-06	0.003892451	-0.02308556
	0.003949025	-0.02363116	-8.003779e-08	4.073914e-06	0.009847779	-0.02530225	-9.798545e-07	-5.662908e-08
	-1.140026e-07	3.716247e-06	0.003834518	-0.02299321	-2.134417e-07	4.502808e-07	0.008212246	-0.02337766
1.4e+08	0.00979652	-0.01348195	1.643433e-06	1.017661e-05	0.006519351	0.0006143763	1.207016e-06	3.368583e-06
	4.087736e-06	9.247963e-06	0.01342637	-0.01084746	2.327379e-06	2.472126e-06	0.007046234	0.0011894
	0.006883076	0.0006890841	1.499606e-06	3.917516e-06	0.01336564	-0.01211836	-9.178245e-07	9.341902e-08
	6.426651e-07	3.707067e-06	0.007028519	0.001294319	-6.016042e-08	5.004816e-07	0.01267126	-0.009975766
1.5e+08	0.01965494	-0.001801429	3.843775e-06	8.867278e-06	0.02127387	0.02110778	1.605156e-06	2.862586e-06
	5.928036e-06	7.330032e-06	0.02425863	-0.0002386242	3.164453e-06	1.334458e-06	0.02198101	0.02143178
	0.02162296	0.02107792	2.81083e-06	2.979272e-06	0.02362601	-0.001178666	-9.003702e-07	1.617939e-07
	1.207271e-06	3.301545e-06	0.0220047	0.02153011	5.427865e-08	4.441574e-07	0.02382049	0.0008179929
1.6e+08	0.0351493	0.004964769	4.884525e-06	6.59674e-06	0.04488727	0.03261359	1.607007e-06	2.176264e-06
	6.45456e-06	4.587587e-06	0.04035211	0.005127622	3.3057e-06	-1.964206e-07	0.04569445	0.03263659
	0.04519341	0.03250273	3.470108e-06	1.488651e-06	0.03938195	0.004706365	-9.773936e-07	2.118661e-07
	1.387048e-06	2.646097e-06	0.04575225	0.0327135	6.470875e-08	3.299399e-07	0.04027333	0.006295376
1.7e+08	0.05402597	0.004573272	4.392115e-06	4.08056e-06	0.07241669	0.03198942	1.155074e-06	1.540374e-06
	5.350387e-06	1.773036e-06	0.05931972	0.003143245	2.602238e-06	-1.707027e-06	0.07321396	0.03168207
	0.07266276	0.03182537	3.272644e-06	-1.478289e-07	0.05830863	0.003321381	-1.145342e-06	3.344494e-07
	1.097909e-06	1.977351e-06	0.07329192	0.03172555	-4.230782e-08	2.498251e-07	0.0596442	0.004328458
1.8e+08	0.07319631	-0.004022929	2.420852e-06	2.134592e-06	0.09806072	0.01871439	3.287109e-07	1.18127e-06
	2.729639e-06	-2.83628e-07	0.07804217	-0.007034627	1.148869e-06	-2.76003e-06	0.09874599	0.01808973
	0.09824667	0.01852623	2.258435e-06	-1.479403e-06	0.0772791	-0.006327491	-1.336017e-06	5.924144e-07
	3.970531e-07	1.532918e-06	0.09882712	0.01809658	-2.186826e-07	2.727593e-07	0.07878626	-0.005937925
1.9e+08	0.08941424	-0.02058104	-5.705662e-07	1.437082e-06	0.1164898	-0.005105872	-6.908621e-07	1.244287e-06
	-8.914186e-07	-9.121315e-07	0.09331138	-0.02497344	-7.493554e-07	-3.030195e-06	0.1169764	-0.006006421
	0.1166286	-0.005296624	6.866629e-07	-2.148828e-06	0.09301229	-0.02392747	-1.456908e-06	9.912111e-07
	-5.499133e-07	1.477835e-06	0.117045	-0.006031044	-3.864627e-07	4.200928e-07	0.09445913	-0.02408068
2e+08	0.0997609	-0.0436703	-3.854028e-06	2.351926e-06	0.1239444	-0.03532311	-1.687956e-06	1.760879e-06
	-4.73759e-06	2.258233e-07	0.1022905	-0.04907971	-2.675121e-06	-2.387564e-06	0.1241536	-0.03643573
	0.1240538	-0.03550642	-1.056457e-06	-1.98081e-06	0.1025715	-0.04795298	-1.434563e-06	1.48174e-06
	-1.533e-06	1.867658e-06	0.1241981	-0.03648079	-4.76837e-07	6.630338e-07	0.103797	-0.04850931
2.1e+08	0.1020483	-0.07082958	-6.620795e-06	4.847893e-06	0.1188864	-0.06669987	-2.474731e-06	2.662909e-06
	-7.968691e-06	3.066882e-06	0.1029759	-0.0767898	-4.212093e-06	-9.082917e-07	0.1187749	-0.06795102
	0.1189866	-0.06688065	-2.567283e-06	-1.000098e-06	0.1038051	-0.07586356	-1.242414e-06	1.986644e-06
	-2.364013e-06	2.656883e-06	0.1187925	-0.06800132	-4.654894e-07	9.473172e-07	0.1047538	-0.07663798
2.2e+08	0.09504808	-0.09903129	-8.173359e-06	8.530653e-06	0.102129	-0.09401603	-2.926025e-06	3.823508e-06
	-9.868778e-06	7.178024e-06	0.09427734	-0.1050158	-5.028145e-06	1.163707e-06	0.1016604	-0.09531551
	0.1022309	-0.09420845	-3.508873e-06	6.002794e-07	0.09552184	-0.1045281	-8.927043e-07	2.445178e-06
	-2.905246e-06	3.740384e-06	0.1016546	-0.09535773	-3.51987e-07	1.230054e-06	0.09621665	-0.1053652
2.3e+08	0.07866022	-0.1248884	-8.063441e-06	1.272939e-05	0.07651258	-0.1130013	-2.97842e-06	5.095682e-06
	-9.983288e-06	1.185469e-05	0.07628409	-0.1303898	-4.923897e-06	3.476702e-06	0.07567987	-0.114254
	0.07661569	-0.1132266	-3.660979e-06	2.513077e-06	0.07771029	-0.130491	-4.125125e-07	2.819981e-06
	-3.076953e-06	4.986737e-06	0.07566126	-0.1142792	-1.501025e-07	1.489927e-06	0.07824721	-0.131284
2.4e+08	0.05397932	-0.1450703	-6.180568e-06	1.663448e-05	0.04625115	-0.1210179	-2.616028e-06	6.330996e-06
	-8.203227e-06	1.625707e-05	0.05024232	-0.1496534	-3.851843e-06	5.625944e-06	0.04507589	-0.1221284
	0.04634079	-0.1212973	-2.943394e-06	4.367259e-06	0.05157292	-0.1503718	1.825999e-07	3.090571e-06
	-2.841193e-06	6.256555e-06	0.04505776	-0.1221349	1.431455e-07	1.71595e-06	0.05207912	-0.1510926
2.5e+08	0.0232937	-0.1567051	-2.781559e-06	1.94469e-05	0.01612944	-0.1173982	-1.862076e-06	7.379268e-06
	-4.792266e-06	1.956021e-05	0.0185492	-0.1600284	-1.927053e-06	7.203158e-06	0.01466342	-0.1182719
	0.01617757	-0.1177438	-1.431154e-06	5.775334e-06	0.01952787	-0.161282	8.924344e-07	3.225921e-06
	-2.196133e-06	7.399597e-06	0.01465667	-0.1182658	5.472388e-07	1.878181e-06	0.02011095	-0.1619818
2.6e+08	-0.01001039	-0.1578102	1.530009e-06	2.052608e-05	-0.009317098	-0.1034292	-7.882409e-07	8.084604e-06
	-3.617152e-07	2.11038e-05	-0.0153334	-0.1597078	5.665158e-07	7.853448e-06	-0.01099111	-0.1040055
	-0.009348865	-0.1038404	6.349878e-07	6.388209e-06	-0.01490626	-0.1612842	1.705251e-06	3.164765e-06
	-1.190385e-06	8.252992e-06	-0.01097951	-0.1039994	1.069337e-06	1.916015e-06	-0.01418323	-0.1620802
2.7e+08	-0.04185168	-0.1478094	5.887306e-06	1.954345e-05	-0.0265343	-0.08205643	4.605646e-07	8.303814e-06
	4.210344e-06	2.054e-05	-0.04731703	-0.1482262	3.185067e-06	7.34772e-06	-0.02831436	-0.08229948
	-0.02668561	-0.08251189	2.851737e-06	5.969391e-06	-0.04752353	-0.1498655	2.56915e-06	2.824792e-06
	5.245137e-08	8.654847e-06	-0.02828779	-0.08230771	1.673024e-06	1.736042e-06	-0.04668926	-0.1508978
2.8e+08	-0.06798836	-0.1278079	9.30009e-06	1.659256e-05	-0.03349233	-0.05735884	1.654311e-06	7.951666e-06
	7.922894e-06	1.794653e-05	-0.07319549	-0.1268389	5.374076e-06	5.670836e-06	-0.03527475	-0.05727958
	-0.03379635	-0.05781694	4.699132e-06	4.483579e-06	-0.07398927	-0.1282623	3.362117e-06	2.140655e-06
	1.315749e-06	8.495713e-06	-0.03524499	-0.05731358	2.248757e-06	1.263416e-06	-0.07315815	-0.1296488
2.9e+08	-0.08482787	-0.1006747	1.086599e-05	1.224992e-05	-0.03001491	-0.03384807	2.505122e-06	7.0669e-06
	9.860555e-06	1.388448e-05	-0.08945687	-0.09851739	6.578373e-06	3.09081e-06	-0.03171596	-0.03349749
	-0.03048765	-0.03424956	5.646204e-06	2.169845e-06	-0.09066944	-0.09950136	3.908728e-06	1.119371e-06
	2.315581e-06	7.7843e-06	-0.03170152	-0.03356055	2.629147e-06	4.924938e-07	-0.0900267	-0.1012892
3e+08	-0.09023374	-0.07067561	1.001932e-05	7.520702e-06	-0.01783035	-0.015683	2.749897e-06	5.855785e-06
	9.441135e-06	9.344838e-06	-0.09405098	-0.06757279	6.404296e-06	1.615325e-07	-0.01939706	-0.01513338
	-0.01846122	-0.01595907	5.311506e-06	-4.51049e-07	-0.09543054	-0.06800488	4.035686e-06	-1.228106e-07
	2.78013e-06	6.695206e-06	-0.0194177	-0.01521596	2.643198e-06	-4.734271e-07	-0.09518633	-0.07013168
3.1e+08	-0.08406224	-0.04270042	6.746584e-06	3.642687e-06	-0.0002878335	-0.005873579	2.261595e-06	4.668792e-06
	6.633631e-06	5.552846e-06	-0.08696005	-0.03893008	4.784582e-06	-2.381461e-06	-0.001715621	-0.005206325
	-0.00103718	-0.005957532	3.626889e-06	-2.677013e-06	-0.08822423	-0.03882819	3.64742e-06	-1.3687e-06
	2.562832e-06	5.552592e-06	-0.001785607	-0.005289136	2.198948e-06	-1.426601e-06	-0.08855536	-0.04112187
3.2e+08	-0.06836956	-0.02126449	1.690294e-06	1.76249e-06	0.01828152	-0.005630313	1.134018e-06	3.896576e-06
	2.056215e-06	3.645818e-06	-0.07029125	-0.01706107	2.06079e-06	-3.831208e-06	0.01696955	-0.004907528
	0.01748316	-0.005472744	9.229233e-07	-3.828055e-06	-0.07122032	-0.01658696	2.784616e-06	-2.371867e-06
	1.725429e-06	4.728647e-06	0.01684875	-0.004961543	1.334013e-06	-2.129691e-06	-0.07220748	-0.01878262
3.3e+08	-0.04696274	-0.00951559	-3.967222e-06	2.580496e-06	0.0334784	-0.0140609	-3.259518e-07	3.821756e-06
	-3.134449e-06	4.319046e-06	-0.04791017	-0.005079676	-1.077627e-06	-3.746626e-06	0.03223409	-0.01331759
	0.03272032	-0.01364138	-2.129234e-06	-3.482108e-06	-0.04839552	-0.00448225	1.615945e-06	-2.943898e-06
	5.388646e-07	4.501844e-06	0.03207661	-0.01331436	2.186569e-07	-2.400213e-06	-0.04998508	-0.006283022
3.4e+08	-0.02458699	-0.008572475	-8.809776e-06	6.100012e-06	0.04186552	-0.02835103	-1.704418e-06	4.5063e-06
	-7.551528e-06	7.576789e-06	-0.02457389	-0.004064004	-3.798584e-06	-2.1153e-06	0.04063535	-0.02758827
	0.04124314	-0.02768606	-4.717556e-06	-1.635591e-06	-0.02465357	-0.003614191	3.730151e-07	-3.019783e-06
	-6.186951e-07	4.944509e-06	0.04047026	-0.02750773	-9.133282e-07	-2.179386e-06	-0.02664906	-0.004760714
3.5e+08	-0.005891706	-0.01735264	-1.159721e-05	1.159617e-05	0.04176998	-0.04445166	-2.634497e-06	5.777163e-06
	-9.98606e-06	1.27035e-05	-0.004905351	-0.01292166	-5.38954e-06	6.414741e-07	0.04051461	-0.0436415
	0.04136844	-0.04359579	-6.146483e-06	1.289488e-06	-0.004766757	-0.0128257	-7.360241e-07	-2.657513e-06
	-1.409265e-06	5.907382e-06	0.04038154	-0.04347948	-1.850694e-06	-1.532281e-06	-0.006856464	-0.01316549
3.6e+08	0.005553824	-0.03293005	-1.161969e-05	1.782243e-05	0.03365333	-0.05809889	-2.915054e-06	7.311413e-06
	-9.757511e-06	1.846909e-05	0.00751086	-0.02872772	-5.461445e-06	3.812678e-06	0.03235182	-0.05718563
	0.03353238	-0.05713608	-6.039536e-06	4.586226e-06	0.007596707	-0.02906698	-1.578686e-06	-1.984945e-06
	-1.647928e-06	7.098092e-06	0.03228914	-0.05695762	-2.453863e-06	-6.00254e-07	0.005776964	-0.02859769
3.7e+08	0.007872409	-0.05119672	-8.873068e-06	2.335428e-05	0.01989971	-0.06585549	-2.542763e-06	8.760472e-06
	-6.889069e-06	2.34775e-05	0.01081739	-0.0474292	-4.029985e-06	6.616136e-06	0.01857163	-0.06477729
	0.02008305	-0.06488796	-4.417858e-06	7.477213e-06	0.01055709	-0.04811357	-2.102457e-06	-1.144331e-06
	-1.335366e-06	8.202527e-06	0.01861014	-0.06451761	-2.66946e-06	4.586442e-07	0.009352149	-0.04700147
3.8e+08	0.001203638	-0.06776335	-4.030615e-06	2.696051e-05	0.004146664	-0.0658806	-1.668013e-06	9.849272e-06
	-2.073111e-06	2.653342e-05	0.005101828	-0.06467782	-1.467678e-06	8.39567e-06	0.002850219	-0.06458101
	0.004618465	-0.06501169	-1.656372e-06	9.308662e-06	0.004278676	-0.06546929	-2.306202e-06	-2.592208e-07
	-6.138312e-07	8.975092e-06	0.003002376	-0.06433649	-2.498087e-06	1.497544e-06	0.003938464	-0.06402342
3.9e+08	-0.0124136	-0.07881718	1.74819e-06	2.788055e-05	-0.009628572	-0.05825966	-5.232818e-07	1.041612e-05
	3.522102e-06	2.692027e-05	-0.00767295	-0.07669645	1.611104e-06	8.751601e-06	-0.01079647	-0.05671274
	-0.008920413	-0.05757848	1.629605e-06	9.67935e-06	-0.00913266	-0.07725117	-2.219134e-06	5.649727e-07
	2.999498e-07	9.276876e-06	-0.01054037	-0.05653356	-1.980851e-06	2.385835e-06	-0.008509423	-0.07587241
4e+08	-0.02946681	-0.08187221	7.091148e-06	2.597501e-05	-0.0180062	-0.04486877	6.326431e-07	1.041119e-05
	8.530144e-06	2.454736e-05	-0.0241019	-0.08101729	4.487385e-06	7.601278e-06	-0.01892882	-0.04310447
	-0.01714148	-0.04443794	4.718045e-06	8.500965e-06	-0.02608559	-0.08096175	-1.899119e-06	1.236895e-06
	1.166704e-06	9.072865e-06	-0.01860046	-0.04303458	-1.198209e-06	3.00996e-06	-0.02458343	-0.08007088
4.1e+08	-0.04568313	-0.07633737	1.070722e-05	2.174932e-05	-0.0188122	-0.02889909	1.545926e-06	9.887239e-06
	1.168155e-05	1.996544e-05	-0.04003362	-0.07697757	6.471711e-06	5.188706e-06	-0.01938025	-0.02700615
	-0.0178843	-0.02874655	6.911322e-06	6.011279e-06	-0.04224549	-0.07601528	-1.438324e-06	1.690445e-06
	1.750473e-06	8.422906e-06	-0.01902914	-0.02707185	-2.756932e-07	3.28423e-06	-0.04012284	-0.07597087
4.2e+08	-0.05693245	-0.06365163	1.165738e-05	1.625777e-05	-0.01152071	-0.01417167	1.994527e-06	9.000865e-06
	1.207582e-05	1.426955e-05	-0.05145257	-0.06594065	7.03969e-06	2.058811e-06	-0.01167124	-0.01230327
	-0.01062339	-0.01428957	7.671353e-06	2.749408e-06	-0.05345335	-0.06392101	-9.563079e-07	1.910063e-06
	1.846108e-06	7.487135e-06	-0.01135583	-0.01250893	6.257776e-07	3.19036e-06	-0.0511132	-0.06494844
4.3e+08	-0.0601903	-0.04711665	9.582145e-06	1.091351e-05	0.002642671	-0.004402024	1.836757e-06	8.011683e-06
	9.404961e-06	8.897377e-06	-0.05540798	-0.05104111	5.965062e-06	-1.02731e-06	0.002898463	-0.002741077
	0.003430083	-0.004750526	6.752813e-06	-5.22606e-07	-0.05669515	-0.0480298	-5.633911e-07	1.950323e-06
	1.324911e-06	6.527069e-06	0.003121446	-0.003064852	1.350519e-06	2.791399e-06	-0.05461221	-0.05016727
4.4e+08	-0.0543269	-0.03118467	4.840327e-06	7.19082e-06	0.02088445	-0.002462548	1.075934e-06	7.244775e-06
	4.087156e-06	5.329325e-06	-0.05078238	-0.03653918	3.423901e-06	-3.247948e-06	0.02144813	-0.001183509
	0.02150756	-0.00297945	4.310959e-06	-2.973412e-06	-0.05089492	-0.03283528	-3.11868e-07	1.921245e-06
	2.027973e-07	5.870677e-06	0.02153511	-0.001580404	1.803484e-06	2.224322e-06	-0.04953154	-0.03591379
4.5e+08	-0.04050427	-0.02043413	-1.499134e-06	6.258272e-06	0.03930401	-0.009751674	-9.814135e-08	6.997679e-06
	-2.748739e-06	4.718321e-06	-0.0386819	-0.02681561	9.651731e-09	-3.944348e-06	0.03999736	-0.008977307
	0.03973857	-0.01036509	9.212627e-07	-3.924234e-06	-0.03730662	-0.02292048	-1.662022e-07	1.934682e-06
	-1.31546e-06	5.819165e-06	0.03992695	-0.009387029	1.98836e-06	1.644428e-06	-0.03702378	-0.02657954
4.6e+08	-0.02205252	-0.01843186	-7.866944e-06	8.623468e-06	0.05362304	-0.02576891	-1.343234e-06	7.417672e-06
	-9.485579e-06	7.534277e-06	-0.02226407	-0.02525229	-3.395232e-06	-2.846344e-06	0.054229	-0.02553778
	0.05387541	-0.0264122	-2.541581e-06	-3.075593e-06	-0.0193309	-0.02178943	-2.38331e-08	2.03807e-06
	-2.868849e-06	6.523596e-06	0.05400847	-0.0258953	1.988117e-06	1.152601e-06	-0.02030725	-0.0255441
4.7e+08	-0.003686644	-0.02675043	-1.2609e-05	1.392244e-05	0.06013381	-0.04806265	-2.288404e-06	8.42323e-06
	-1.443558e-05	1.336212e-05	-0.006041059	-0.03331928	-5.877432e-06	-1.946292e-07	0.06042767	-0.04831842
	0.06023235	-0.04868538	-5.159451e-06	-6.361495e-07	-0.001748029	-0.03091855	2.134345e-07	2.182852e-06
	-4.061258e-06	7.900148e-06	0.0600907	-0.04856819	1.906948e-06	7.613253e-07	-0.00394181	-0.03423911
4.8e+08	0.009583297	-0.04453258	-1.446981e-05	2.098256e-05	0.05658204	-0.0726571	-2.691194e-06	9.732878e-06
	-1.63344e-05	2.097097e-05	0.00524707	-0.05014475	-6.793514e-06	3.323773e-06	0.05637925	-0.07325834
	0.05656618	-0.0732329	-6.268397e-06	2.735207e-06	0.01043517	-0.04930768	5.688219e-07	2.261823e-06
