!$
! Info: Touchstone file created by Circ.  Input file=Tx_NPC_250mm_32AWG_BPK_700mm_27AWG_BPK_250mm_32AWG_NPC_Rx.circ
!$
# Hz S RI R 50
0	0.02922476	1.527827e-16	3.850824e-06	5.447603e-20	0.003045704	3.659225e-16	-1.738563e-06	-3.873296e-21
	-3.593029e-07	-1.257235e-20	0.03005796	-2.018816e-16	4.204484e-06	4.567957e-20	0.003126035	-4.499641e-16
	0.004299634	7.432534e-16	6.006246e-06	2.743696e-19	0.0511794	-3.32964e-16	-8.429659e-07	-6.478583e-21
	-9.710275e-07	3.48273e-21	0.003224148	-2.577401e-16	7.587295e-06	-1.218604e-19	0.05440402	4.984201e-16
1e+07	0.06219026	-0.0006138432	3.552787e-06	-1.102379e-06	0.01922491	0.03285681	-1.850986e-06	2.579786e-07
	1.028483e-07	9.948553e-07	0.06299893	-0.001160424	3.154714e-06	-2.476832e-06	0.0195168	0.0326795
	0.02008044	0.03247526	5.459621e-06	-1.999382e-06	0.06143025	-0.0006355547	-1.06967e-06	-1.520467e-07
	-4.273459e-07	1.276752e-06	0.01955871	0.03268227	6.115011e-06	-4.158715e-06	0.06429513	-0.002093983
2e+07	0.06790764	-0.01008089	2.823992e-06	-1.943104e-06	0.05368116	0.04438212	-2.065825e-06	7.346347e-07
	1.066869e-06	1.412003e-06	0.06819475	-0.01103942	7.37081e-07	-3.765304e-06	0.05387532	0.04417441
	0.05404531	0.04348901	3.994769e-06	-3.41419e-06	0.06693502	-0.01002671	-1.598881e-06	1.354806e-08
	8.210685e-07	1.863981e-06	0.05387936	0.04412729	2.412757e-06	-6.504795e-06	0.06868208	-0.01259245
3e+07	0.06607005	-0.02530809	1.83486e-06	-2.346454e-06	0.08479294	0.02729452	-2.15051e-06	1.48581e-06
	2.046979e-06	1.055323e-06	0.06558036	-0.02624505	-2.105603e-06	-3.255349e-06	0.08475445	0.0270468
	0.08451013	0.02613484	2.082503e-06	-3.898555e-06	0.06492947	-0.02497531	-2.154314e-06	6.362919e-07
	2.178144e-06	1.452638e-06	0.08469275	0.02695764	-1.93263e-06	-6.132433e-06	0.06514494	-0.02776753
4e+07	0.05352296	-0.0383509	8.47206e-07	-2.269401e-06	0.09303578	-0.007475338	-1.906925e-06	2.372804e-06
	2.539198e-06	1.220797e-07	0.05236956	-0.03873245	-4.228462e-06	-1.076553e-06	0.09281099	-0.007704372
	0.09218295	-0.008225324	2.770224e-07	-3.418378e-06	0.05232246	-0.03764581	-2.437345e-06	1.660321e-06
	2.966894e-06	1.899512e-07	0.09269255	-0.007742081	-5.185938e-06	-3.275477e-06	0.05121925	-0.03968256
5e+07	0.03394344	-0.04085393	9.715116e-08	-1.831213e-06	0.07299192	-0.03643679	-1.285795e-06	3.165996e-06
	2.303735e-06	-9.514819e-07	0.03254662	-0.04022248	-4.773789e-06	1.998166e-06	0.07263811	-0.03659149
	0.07203097	-0.03653809	-9.530643e-07	-2.242359e-06	0.03286682	-0.03971458	-2.229897e-06	2.878466e-06
	2.75875e-06	-1.392611e-06	0.07252972	-0.03655421	-6.125178e-06	8.959441e-07	0.03118582	-0.04037693
6e+07	0.01637334	-0.02922258	-2.936111e-07	-1.24619e-06	0.03771265	-0.04016956	-3.845135e-07	3.675413e-06
	1.433644e-06	-1.683895e-06	0.01546678	-0.02754352	-3.496532e-06	4.890723e-06	0.03733091	-0.04012245
	0.0369579	-0.03969378	-1.374168e-06	-8.356418e-07	0.01559323	-0.02765873	-1.457113e-06	3.986825e-06
	1.548547e-06	-2.599008e-06	0.03725259	-0.04001115	-4.447703e-06	4.737535e-06	0.01441637	-0.02693257
7e+07	0.0113031	-0.007217801	-3.534363e-07	-7.76904e-07	0.01123211	-0.01458163	6.233117e-07	3.790487e-06
	3.036128e-07	-1.798793e-06	0.01152788	-0.00492283	-8.575163e-07	6.472408e-06	0.01100168	-0.01440262
	0.01100837	-0.01383813	-1.060379e-06	2.707684e-07	0.01103414	-0.005342848	-2.259442e-07	4.663282e-06
	-2.197544e-07	-2.885824e-06	0.01100233	-0.01425399	-8.862501e-07	6.722541e-06	0.01116272	-0.003920898
8e+07	0.02400749	0.01397034	-2.864651e-07	-6.064472e-07	0.01341585	0.02494559	1.52979e-06	3.518658e-06
	-6.687549e-07	-1.347013e-06	0.02561304	0.01606307	2.043934e-06	6.163346e-06	0.01339738	0.02507224
	0.01374159	0.02554508	-4.105536e-07	6.939425e-07	0.02439714	0.01592618	1.159259e-06	4.684143e-06
	-1.868803e-06	-2.129831e-06	0.01348897	0.02520249	3.004706e-06	6.076997e-06	0.02599714	0.01695197
9e+07	0.05012349	0.02175326	-3.825607e-07	-7.195607e-07	0.04651122	0.05277413	2.176917e-06	2.992311e-06
	-1.262054e-06	-5.995506e-07	0.05274737	0.02280628	3.962188e-06	4.227886e-06	0.04659327	0.05268294
	0.04715181	0.05291887	3.477418e-09	4.035215e-07	0.05119081	0.02349431	2.298207e-06	4.065659e-06
	-2.828601e-06	-6.466355e-07	0.04675442	0.05274457	5.51919e-06	3.191294e-06	0.05363681	0.02317112
1e+08	0.07734508	0.01008087	-8.325778e-07	-8.914247e-07	0.09323881	0.04958293	2.54852e-06	2.389187e-06
	-1.487269e-06	1.757161e-07	0.08015799	0.009679941	4.131401e-06	1.649112e-06	0.09320524	0.04923727
	0.09378809	0.04917614	-2.648559e-07	-2.385588e-07	0.07894263	0.0113156	2.899734e-06	3.068647e-06
	-2.855305e-06	1.001309e-06	0.09337874	0.04919735	5.620776e-06	-5.772704e-07	0.08112784	0.009347595
1.1e+08	0.09267802	-0.0172908	-1.615508e-06	-8.344659e-07	0.1279084	0.014181	2.729389e-06	1.793107e-06
	-1.470697e-06	8.299963e-07	0.09478503	-0.01893123	2.597599e-06	-3.847454e-07	0.1276013	0.01373013
	0.1280441	0.01339172	-1.321129e-06	-6.761963e-07	0.09450505	-0.01674212	2.886323e-06	2.035964e-06
	-2.097976e-06	2.238027e-06	0.1277303	0.01359773	3.334441e-06	-3.625789e-06	0.09537386	-0.01986371
1.2e+08	0.0888346	-0.04916749	-2.549266e-06	-3.450446e-07	0.1314816	-0.0365628	2.750032e-06	1.183064e-06
	-1.355712e-06	1.336683e-06	0.08967782	-0.05131915	1.519821e-08	-1.019369e-06	0.1308622	-0.03691979
	0.1310117	-0.03738175	-2.92081e-06	-4.103683e-07	0.09055453	-0.04928725	2.355818e-06	1.270591e-06
	-1.019267e-06	2.72615e-06	0.1308948	-0.03709865	-4.563521e-07	-4.740217e-06	0.0896122	-0.05248229
1.3e+08	0.06691356	-0.07248452	-3.357689e-06	6.618332e-07	0.1014397	-0.07743623	2.553594e-06	5.893965e-07
	-1.218557e-06	1.763247e-06	0.06654643	-0.07423848	-2.619646e-06	1.117258e-07	0.1006043	-0.07749393
	0.1004354	-0.07789282	-4.559537e-06	8.572465e-07	0.06825653	-0.07307042	1.528007e-06	1.007184e-06
	-1.730074e-07	2.527918e-06	0.1005349	-0.07765296	-4.406158e-06	-3.385176e-06	0.06581029	-0.0751737
1.4e+08	0.03601026	-0.07696675	-3.708892e-06	2.100312e-06	0.05316618	-0.08772714	2.141272e-06	1.487819e-07
	-1.011628e-06	2.172422e-06	0.03507874	-0.07767883	-4.218943e-06	2.785415e-06	0.05235311	-0.08736141
	0.05192022	-0.08753442	-5.575203e-06	3.087649e-06	0.03687727	-0.07769311	7.697488e-07	1.350807e-06
	1.290378e-07	2.05177e-06	0.05221767	-0.08744461	-7.030018e-06	1.923022e-07	0.03393224	-0.07798987
1.5e+08	0.01106993	-0.0599639	-3.341548e-06	3.631777e-06	0.013047	-0.06253634	1.664975e-06	-4.481936e-08
	-6.391032e-07	2.4743e-06	0.01048461	-0.05961215	-3.929989e-06	6.100118e-06	0.01256727	-0.06181992
	0.01200441	-0.0616233	-5.381893e-06	5.773237e-06	0.01159843	-0.06051305	5.073028e-07	2.114126e-06
	-2.387295e-08	1.727855e-06	0.01243061	-0.06180791	-7.110935e-06	4.853562e-06	0.009408437	-0.05912801
1.6e+08	0.006446884	-0.03031733	-2.30619e-06	4.749774e-06	0.004477954	-0.0175182	1.29302e-06	-7.589632e-08
	-1.887118e-07	2.447301e-06	0.006886283	-0.02953566	-1.644005e-06	8.653153e-06	0.004540309	-0.01676616
	0.004032129	-0.01610967	-3.86025e-06	8.04091e-06	0.006988106	-0.03056172	9.248973e-07	2.793274e-06
	-3.384394e-07	1.712283e-06	0.004460954	-0.0166874	-4.362888e-06	8.757231e-06	0.006378721	-0.02840825
1.7e+08	0.02684769	-0.006164745	-1.04944e-06	5.13064e-06	0.03272453	0.01841668	1.0317e-06	-1.031084e-07
	-1.248283e-08	2.044928e-06	0.02831989	-0.005879698	1.681166e-06	9.26388e-06	0.03324234	0.01880031
	0.03307557	0.01987902	-1.567292e-06	9.141619e-06	0.02774488	-0.006291265	1.748375e-06	2.883992e-06
	-6.195817e-07	1.936259e-06	0.03324254	0.01888608	1.541124e-07	1.019744e-05	0.02870747	-0.004570488
1.8e+08	0.06190774	-0.00429969	-7.739743e-08	4.890499e-06	0.07990181	0.02135598	8.019194e-07	-2.019745e-07
	-3.901799e-07	1.599422e-06	0.06377579	-0.005164758	4.534613e-06	7.743669e-06	0.08051917	0.02113552
	0.08092213	0.02240739	6.126015e-07	8.934774e-06	0.06325953	-0.004729344	2.434052e-06	2.257591e-06
	-7.921976e-07	2.324777e-06	0.0805743	0.02117441	4.467082e-06	8.613783e-06	0.06501786	-0.004239175
1.9e+08	0.09241816	-0.02919493	3.836104e-07	4.404652e-06	0.1168243	-0.01184804	5.201984e-07	-4.133064e-07
	-1.22069e-06	1.555989e-06	0.09379441	-0.03124778	5.751166e-06	4.920683e-06	0.1171287	-0.0126077
	0.1181409	-0.01148246	2.007753e-06	7.849746e-06	0.09396583	-0.03032951	2.536432e-06	1.161206e-06
	-7.936227e-07	2.798718e-06	0.1171881	-0.01263483	6.785203e-06	4.839229e-06	0.09551095	-0.03111707
2e+08	0.1019254	-0.07144237	3.790696e-07	4.023603e-06	0.1219388	-0.06328	1.922637e-08	-7.391251e-07
	-2.143079e-06	2.142151e-06	0.1021323	-0.07413755	4.973924e-06	2.043067e-06	0.1216612	-0.06427677
	0.1231087	-0.06359754	2.373667e-06	6.540734e-06	0.1031686	-0.07341139	1.842224e-06	2.505179e-08
	-6.369852e-07	3.243581e-06	0.1216792	-0.0643512	6.255861e-06	5.322951e-07	0.1037973	-0.07489184
2.1e+08	0.08408633	-0.1141141	1.090931e-07	3.995497e-06	0.09237267	-0.1067261	-8.97604e-07	-9.746403e-07
	-2.762131e-06	3.348209e-06	0.08296599	-0.1166348	2.588382e-06	2.439181e-07	0.09148099	-0.1075638
	0.0930733	-0.1074744	1.863952e-06	5.641245e-06	0.08451202	-0.1166786	3.989055e-07	-6.341224e-07
	-4.227117e-07	3.65035e-06	0.09144037	-0.1076453	3.131057e-06	-2.515174e-06	0.08412628	-0.118023
2.2e+08	0.04377287	-0.1401498	-8.407768e-08	4.430569e-06	0.04268865	-0.1219291	-2.173468e-06	-7.055251e-07
	-2.685528e-06	4.978207e-06	0.0417006	-0.1417695	-4.696495e-07	2.667398e-07	0.04140196	-0.1222542
	0.04280126	-0.1227317	9.920611e-07	5.584181e-06	0.04311542	-0.1427663	-1.389838e-06	-3.604039e-07
	-1.187731e-07	4.143294e-06	0.04131314	-0.1223067	-1.346277e-06	-2.953093e-06	0.04217194	-0.1433504
2.3e+08	-0.004438599	-0.1381648	1.993162e-07	5.142155e-06	-0.003632467	-0.1032405	-3.345005e-06	3.353722e-07
	-1.599496e-06	6.538859e-06	-0.006728511	-0.1385807	-2.942381e-06	2.180297e-06	-0.004886863	-0.1029015
	-0.003978865	-0.103731	4.801391e-07	6.348398e-06	-0.006037632	-0.1401992	-2.811156e-06	9.3741e-07
	5.38599e-07	4.712476e-06	-0.004997443	-0.1029078	-5.268438e-06	-3.969543e-07	-0.006813218	-0.1399095
2.4e+08	-0.04043332	-0.1081098	1.111864e-06	5.611345e-06	-0.02513409	-0.06165221	-3.833921e-06	1.914488e-06
	4.001397e-07	7.239987e-06	-0.04222289	-0.107574	-3.723339e-06	5.198606e-06	-0.0258901	-0.06083849
	-0.02560951	-0.06161526	8.451524e-07	7.34786e-06	-0.04242181	-0.109147	-3.227213e-06	2.751731e-06
	1.760462e-06	4.94496e-06	-0.02599967	-0.0608008	-6.775265e-06	4.200232e-06	-0.04247654	-0.1084105
2.5e+08	-0.04741927	-0.06447533	2.280302e-06	5.323743e-06	-0.01300196	-0.0202703	-3.463842e-06	3.396787e-06
	2.501447e-06	6.455608e-06	-0.04839278	-0.06361752	-2.495033e-06	7.92532e-06	-0.01303293	-0.01948467
	-0.01319282	-0.01974688	1.950652e-06	7.772747e-06	-0.0490894	-0.0645959	-2.6022e-06	4.214001e-06
	3.216263e-06	4.235431e-06	-0.01313159	-0.0194087	-5.033302e-06	8.783594e-06	-0.04837461	-0.06406927
2.6e+08	-0.02313533	-0.03110846	3.009761e-06	4.27698e-06	0.02261293	-0.002573246	-2.611274e-06	4.277072e-06
	3.510913e-06	4.423802e-06	-0.02352836	-0.03052381	-3.357593e-09	9.1198e-06	0.02309638	-0.002366621
	0.02300133	-0.001881116	3.074925e-06	7.24726e-06	-0.02403711	-0.03088663	-1.576937e-06	4.760248e-06
	4.023659e-06	2.469374e-06	0.02301548	-0.002251859	-8.263905e-07	1.121648e-05	-0.02299546	-0.03097954
2.7e+08	0.01641788	-0.02709548	2.889562e-06	3.020764e-06	0.05719153	-0.01750275	-1.818339e-06	4.522141e-06
	2.805628e-06	2.294137e-06	0.01608874	-0.02694125	2.429045e-06	8.408238e-06	0.05764557	-0.01812966
	0.05818019	-0.01709713	3.542698e-06	6.079164e-06	0.01614948	-0.02724654	-9.226701e-07	4.512901e-06
	3.441721e-06	3.560018e-07	0.05760162	-0.01797041	3.855292e-06	1.04446e-05	0.01700227	-0.0278728
2.8e+08	0.04660018	-0.05434923	2.051332e-06	2.153624e-06	0.06797284	-0.05294852	-1.438406e-06	4.424535e-06
	8.263285e-07	1.270165e-06	0.04596644	-0.05435166	3.640861e-06	6.333124e-06	0.06782191	-0.05423393
	0.06927199	-0.05319541	3.156485e-06	4.86153e-06	0.04633422	-0.05523674	-1.017315e-06	4.037277e-06
	1.505936e-06	-1.028977e-06	0.06784738	-0.05404166	6.884351e-06	6.960526e-06	0.04681121	-0.05598994
2.9e+08	0.0491295	-0.09775541	9.253068e-07	1.981574e-06	0.04908074	-0.08502231	-1.560787e-06	4.415151e-06
	-1.35709e-06	1.854825e-06	0.0482026	-0.09751633	3.100289e-06	3.97283e-06	0.04799618	-0.08646513
	0.05023526	-0.08602475	2.101843e-06	4.086277e-06	0.04816618	-0.09914055	-1.774291e-06	3.945251e-06
	-1.025725e-06	-9.205393e-07	0.04811775	-0.08627978	6.984343e-06	2.444239e-06	0.04848507	-0.09970045
3e+08	0.0205845	-0.1349615	5.917785e-09	2.498249e-06	0.01308847	-0.09458813	-1.933567e-06	4.92336e-06
	-2.688717e-06	3.777952e-06	0.01966678	-0.1342716	1.049684e-06	2.461148e-06	0.01112937	-0.0955889
	0.01367447	-0.09616257	7.905801e-07	4.037064e-06	0.01861511	-0.1361338	-2.722464e-06	4.655942e-06
	-3.05883e-06	8.055911e-07	0.0113436	-0.09547119	4.232728e-06	-1.054201e-06	0.01913829	-0.1365347
3.1e+08	-0.02756541	-0.1471764	-2.954498e-07	3.37488e-06	-0.01926184	-0.07756185	-1.977181e-06	6.073056e-06
	-2.488617e-06	6.215378e-06	-0.02813499	-0.1461375	-1.628061e-06	2.504441e-06	-0.02166384	-0.07768646
	-0.01947864	-0.0793183	-2.468057e-07	4.665089e-06	-0.03024097	-0.1473752	-3.158456e-06	6.147824e-06
	-3.581208e-06	3.529544e-06	-0.0214042	-0.07769173	-2.903747e-08	-2.051226e-06	-0.02932785	-0.1479766
3.2e+08	-0.07448215	-0.1272287	1.02418e-07	4.016575e-06	-0.03134957	-0.04457722	-1.132087e-06	7.426394e-06
	-7.025836e-07	8.031476e-06	-0.07455115	-0.1261608	-3.855923e-06	4.051648e-06	-0.03358335	-0.0437799
	-0.03235787	-0.04606655	-6.558302e-07	5.50493e-06	-0.07705889	-0.1260888	-2.555367e-06	7.82295e-06
	-2.159152e-06	6.004011e-06	-0.0333622	-0.04392595	-3.903944e-06	-2.998878e-07	-0.07597966	-0.1273182
3.3e+08	-0.09919787	-0.08349273	7.459947e-07	3.910955e-06	-0.01845013	-0.01400462	6.134043e-07	8.165738e-06
	1.912761e-06	8.22873e-06	-0.09891147	-0.08273312	-4.939849e-06	6.416565e-06	-0.02004216	-0.01265231
	-0.019991	-0.01485551	-6.282645e-07	5.951907e-06	-0.1007794	-0.08132251	-1.037946e-06	8.797102e-06
	6.412554e-07	6.853722e-06	-0.01994799	-0.01289374	-5.890079e-06	3.20983e-06	-0.1001053	-0.08331907
3.4e+08	-0.09163436	-0.03674063	8.75995e-07	3.107089e-06	0.01036795	-0.002322813	2.572346e-06	7.708069e-06
	4.002319e-06	6.574963e-06	-0.09136316	-0.036396	-4.830636e-06	8.780865e-06	0.009507124	-0.0009747653
	0.008719469	-0.002370621	-8.281696e-07	5.85173e-06	-0.09175668	-0.03443769	5.660402e-07	8.579034e-06
	3.308889e-06	5.400359e-06	0.009432039	-0.001206034	-5.538791e-06	6.910462e-06	-0.09208634	-0.03681069
3.5e+08	-0.05894041	-0.00905553	4.853828e-08	2.286371e-06	0.0367922	-0.01490836	3.815231e-06	6.204767e-06
	4.379667e-06	3.918357e-06	-0.05900783	-0.008872792	-3.886342e-06	1.063116e-05	0.03636953	-0.01399593
	0.0354789	-0.0142626	-1.748916e-06	5.744949e-06	-0.05792553	-0.007626681	1.333305e-06	7.529487e-06
	4.150666e-06	2.274877e-06	0.03617181	-0.01409784	-3.414186e-06	9.485702e-06	-0.05941673	-0.009542166
3.6e+08	-0.02130907	-0.01087499	-1.470802e-06	2.234846e-06	0.04406475	-0.0419072	3.829696e-06	4.451039e-06
	2.827743e-06	1.724872e-06	-0.02169418	-0.01038985	-2.518684e-06	1.177482e-05	0.04361606	-0.04153736
	0.04336824	-0.04091861	-3.179148e-06	6.376362e-06	-0.020123	-0.01079661	9.748325e-07	6.581756e-06
	2.368681e-06	-7.760668e-07	0.04342204	-0.04145248	-5.999983e-07	1.031346e-05	-0.0222249	-0.01146016
3.7e+08	0.0006250837	-0.03564769	-2.933835e-06	3.2694e-06	0.02840612	-0.06417393	2.829931e-06	3.355191e-06
	2.152343e-07	1.1523e-06	0.000385587	-0.03457862	-1.098073e-06	1.219106e-05	0.02754517	-0.06412948
	0.02833609	-0.06327305	-4.379455e-06	8.032905e-06	0.0009697723	-0.03653647	-2.729251e-09	6.541704e-06
	-1.359817e-06	-1.867601e-06	0.02749561	-0.06390998	1.809646e-06	9.51154e-06	-0.000682193	-0.03576095
3.8e+08	-0.002657818	-0.06538267	-3.592937e-06	5.111541e-06	0.001592845	-0.06644691	1.622953e-06	3.410584e-06
	-2.080047e-06	2.421449e-06	-0.0021545	-0.06395011	6.322323e-08	1.201228e-05	0.0001905781	-0.06632148
	0.00190144	-0.06596143	-4.619116e-06	1.037532e-05	-0.003552653	-0.06623862	-6.640391e-07	7.581678e-06
	-5.174595e-06	-8.120078e-08	0.000352159	-0.06611049	3.096785e-06	7.737737e-06	-0.003798302	-0.06468661
3.9e+08	-0.02572965	-0.08166208	-3.050977e-06	7.036804e-06	-0.01757649	-0.04744348	1.161599e-06	4.359431e-06
	-2.942392e-06	4.775001e-06	-0.02421139	-0.08056279	7.95284e-07	1.146066e-05	-0.01933004	-0.04686642
	-0.01726845	-0.04747296	-3.551019e-06	1.262502e-05	-0.02738678	-0.08150963	-1.961511e-07	9.116049e-06
	-7.03849e-06	3.947083e-06	-0.01901033	-0.0468206	3.118292e-06	5.801882e-06	-0.02598562	-0.08039989
4e+08	-0.05248804	-0.07560799	-1.511429e-06	8.166772e-06	-0.01570188	-0.01985338	1.917172e-06	5.261327e-06
	-2.089791e-06	6.924858e-06	-0.0503079	-0.07563284	1.023021e-06	1.071183e-05	-0.01742342	-0.01871334
	-0.0157484	-0.02024921	-1.442634e-06	1.386e-05	-0.05384188	-0.07413677	1.546815e-06	1.004953e-05
	-5.893144e-06	8.311472e-06	-0.01709752	-0.0189162	2.144185e-06	4.267009e-06	-0.05150592	-0.07458036
4.1e+08	-0.06586181	-0.05244666	1.828244e-07	7.970335e-06	0.00731727	-0.00203425	3.456933e-06	5.077613e-06
	-2.090941e-07	7.770123e-06	-0.06391902	-0.05396181	6.180643e-07	9.951332e-06	0.005939143	-0.0005229897
	0.006725717	-0.002457294	7.499949e-07	1.350955e-05	-0.06592297	-0.05025133	3.763961e-06	9.429911e-06
	-2.301504e-06	1.087584e-05	0.006094931	-0.0009323006	4.903636e-07	3.388617e-06	-0.0640061	-0.05258395
4.2e+08	-0.05829898	-0.02785203	9.888529e-07	6.727774e-06	0.03823628	-0.007100616	4.638206e-06	3.429943e-06
	1.454784e-06	7.040512e-06	-0.05760181	-0.03049372	-5.247557e-07	9.595547e-06	0.03725178	-0.005524546
	0.03715148	-0.007148151	1.805711e-06	1.190469e-05	-0.05681105	-0.02612064	5.075772e-06	7.221096e-06
	1.85872e-06	1.049544e-05	0.03712857	-0.0059863	-1.627506e-06	3.38392e-06	-0.05660112	-0.02961036
4.3e+08	-0.03631266	-0.01738401	4.103615e-07	5.451113e-06	0.05780058	-0.03471338	4.360399e-06	9.488948e-07
	1.883639e-06	5.425389e-06	-0.03740299	-0.02013167	-2.108825e-06	1.023815e-05	0.05705549	-0.03325666
	0.05652695	-0.03407654	1.099949e-06	1.028088e-05	-0.03399995	-0.01717119	4.457426e-06	4.508251e-06
	4.460577e-06	7.63371e-06	0.05667497	-0.03357744	-3.84299e-06	4.573498e-06	-0.03594762	-0.02032784
4.4e+08	-0.01524838	-0.0261118	-1.123617e-06	5.187891e-06	0.05248896	-0.07024681	2.300715e-06	-1.081287e-06
	8.830838e-07	4.08844e-06	-0.017829	-0.02778593	-3.319352e-06	1.216979e-05	0.05181248	-0.06890607
	0.05148269	-0.06885558	-8.403992e-07	9.983801e-06	-0.01342532	-0.0276282	2.01567e-06	2.852731e-06
	4.306389e-06	4.067495e-06	0.05132083	-0.06895454	-5.428712e-06	7.109602e-06	-0.01680357	-0.02899859
4.5e+08	-0.008337244	-0.04619553	-2.5731e-06	6.343169e-06	0.02364175	-0.09337613	-8.42748e-07	-1.463191e-06
	-8.685638e-07	3.942045e-06	-0.0113623	-0.04610432	-3.224036e-06	1.499061e-05	0.02297273	-0.09204562
	0.02333631	-0.09144929	-2.655384e-06	1.156316e-05	-0.008097053	-0.04860968	-1.022364e-06	3.30101e-06
	1.761725e-06	1.880975e-06	0.02256331	-0.09182094	-5.483006e-06	1.059709e-05	-0.01132679	-0.04760823
4.6e+08	-0.01838416	-0.06311239	-2.903327e-06	8.488441e-06	-0.01301741	-0.09086516	-3.65523e-06	2.062942e-07
	-2.263854e-06	5.120866e-06	-0.02058425	-0.06145814	-1.311801e-06	1.768486e-05	-0.01360428	-0.08945933
	-0.01238403	-0.08885185	-2.958236e-06	1.445975e-05	-0.01988043	-0.06503346	-2.992323e-06	5.744521e-06
	-1.460199e-06	2.293466e-06	-0.01379138	-0.08908488	-3.396824e-06	1.398137e-05	-0.02136556	-0.06231972
4.7e+08	-0.03649089	-0.0652208	-1.621428e-06	1.056247e-05	-0.03703891	-0.06466468	-4.763968e-06	3.177348e-06
	-2.448011e-06	6.902374e-06	-0.03706358	-0.06304471	2.187734e-06	1.89981e-05	-0.03738438	-0.06322892
	-0.03551608	-0.06308493	-1.065195e-06	1.725347e-05	-0.03880572	-0.06555936	-2.702995e-06	8.882065e-06
	-3.299914e-06	4.930352e-06	-0.03732838	-0.06287965	6.742658e-07	1.579014e-05	-0.03778382	-0.06273821
4.8e+08	-0.04755022	-0.05146635	8.816971e-07	1.135325e-05	-0.03511632	-0.03053846	-3.723691e-06	5.849175e-06
	-1.405105e-06	8.140787e-06	-0.04663603	-0.05011741	6.174394e-06	1.791594e-05	-0.03513522	-0.02931782
	-0.03304729	-0.02981583	2.538319e-06	1.828638e-05	-0.04921314	-0.05014627	-2.275153e-07	1.081434e-05
