!$
! Info: Touchstone file created by Circ.  Input file=Tx_NPC_250mm_32AWG_BPK_300mm_27AWG_BPK_250mm_32AWG_NPC_Rx.circ
!$
# Hz S RI R 50
0	0.01732859	-3.883878e-16	9.462964e-07	-2.151773e-20	0.003459309	-4.477575e-16	-1.378683e-06	-9.8111e-21
	2.57384e-06	-3.287866e-19	0.01857136	-2.084274e-16	-4.899457e-06	8.309979e-20	0.002762973	-4.555383e-16
	0.00455965	8.194624e-16	-6.406049e-08	-8.040512e-20	0.04006961	-2.405539e-17	-4.035236e-08	-2.618435e-20
	-2.601561e-06	-7.708384e-21	0.002868009	-2.609257e-16	1.826801e-06	-1.888973e-19	0.04331838	4.687244e-16
1e+07	0.05024236	0.004667574	1.114639e-06	-7.879678e-08	0.01314777	0.02656904	-1.26934e-06	4.949212e-07
	2.322943e-06	-1.280322e-06	0.05160926	0.004229019	-4.493374e-06	2.085335e-06	0.01291265	0.02663516
	0.01396807	0.02653243	7.296625e-08	4.657704e-07	0.05022358	0.004930351	-7.139868e-11	2.065008e-07
	-2.495399e-06	8.253552e-07	0.0129575	0.02665096	1.681481e-06	-7.468118e-07	0.05309273	0.00356197
2e+07	0.05850758	0.002994129	1.175446e-06	-2.166317e-07	0.03581982	0.04383362	-9.937932e-07	8.907555e-07
	1.48312e-06	-2.320951e-06	0.05946879	0.002147832	-3.211455e-06	3.746291e-06	0.03569846	0.04424576
	0.03659077	0.04342781	4.72322e-07	7.909711e-07	0.05855849	0.003504136	1.407743e-07	3.671394e-07
	-2.108394e-06	1.552559e-06	0.03573055	0.04421269	1.196621e-06	-1.361201e-06	0.06053287	0.00088444
3e+07	0.06552587	-0.0049058	1.212162e-06	-4.254502e-07	0.06398936	0.04539826	-6.223194e-07	1.130898e-06
	2.344553e-07	-2.911957e-06	0.06596894	-0.005934378	-1.406407e-06	4.697457e-06	0.06397313	0.0460633
	0.06482456	0.04458284	1.028934e-06	8.634871e-07	0.06571237	-0.004101483	3.384946e-07	4.450738e-07
	-1.533529e-06	2.10304e-06	0.06399636	0.04596375	4.771053e-07	-1.707527e-06	0.06645784	-0.007515216
4e+07	0.0679938	-0.01701076	1.182272e-06	-6.916417e-07	0.08862539	0.03026696	-2.405219e-07	1.204435e-06
	-1.205763e-06	-2.91172e-06	0.06790278	-0.01801543	5.59823e-07	4.820165e-06	0.08886124	0.03086458
	0.08924455	0.02924778	1.609326e-06	6.308669e-07	0.06842838	-0.01613786	5.502131e-07	4.268801e-07
	-8.513585e-07	2.437029e-06	0.0888413	0.03075816	-3.352515e-07	-1.706036e-06	0.06774552	-0.01962407
5e+07	0.06417748	-0.02985469	1.053939e-06	-9.858998e-07	0.1010697	0.004275755	7.987963e-08	1.144566e-06
	-2.576538e-06	-2.278405e-06	0.06356859	-0.03059647	2.337881e-06	4.163722e-06	0.1014612	0.004584174
	0.1013924	0.003226729	2.071788e-06	1.003312e-07	0.06489444	-0.02903849	7.361076e-07	3.200671e-07
	-1.399785e-07	2.551213e-06	0.1014114	0.004506844	-1.080067e-06	-1.34915e-06	0.06285158	-0.03203487
6e+07	0.05426399	-0.04017663	8.097135e-07	-1.259753e-06	0.09721899	-0.02435881	2.988853e-07	1.01284e-06
	-3.617138e-06	-1.083048e-06	0.05329269	-0.04044692	3.65479e-06	2.895479e-06	0.0976769	-0.02429124
	0.09726752	-0.02548126	2.286677e-06	-6.621647e-07	0.05524689	-0.03952136	8.679567e-07	1.385922e-07
	5.388738e-07	2.463853e-06	0.09758816	-0.0243437	-1.599384e-06	-7.167087e-07	0.05215241	-0.0414848
7e+07	0.04033604	-0.04459144	4.527775e-07	-1.465193e-06	0.0784214	-0.04589997	4.167713e-07	8.742596e-07
	-4.115262e-06	5.063556e-07	0.0392175	-0.04423589	4.336044e-06	1.267842e-06	0.07882869	-0.04607605
	0.07819271	-0.04697686	2.158842e-06	-1.54032e-06	0.04147438	-0.04423523	9.233504e-07	-8.987767e-08
	1.137792e-06	2.205328e-06	0.07872443	-0.04608484	-1.809541e-06	6.809057e-08	0.03785395	-0.04477594
8e+07	0.02577438	-0.04138847	1.329973e-08	-1.549124e-06	0.05094056	-0.05303381	4.702678e-07	7.795644e-07
	-3.937743e-06	2.244932e-06	0.02481782	-0.04034067	4.321313e-06	-4.440601e-07	0.05123816	-0.05339879
	0.05045962	-0.05399661	1.64693e-06	-2.381472e-06	0.0269328	-0.04139922	8.921353e-07	-3.395225e-07
	1.623492e-06	1.80829e-06	0.05113803	-0.05335748	-1.681961e-06	8.499913e-07	0.0234337	-0.04036369
9e+07	0.01477331	-0.03065218	-4.531652e-07	-1.47953e-06	0.02429899	-0.04291954	5.154658e-07	7.43332e-07
	-3.056154e-06	3.847024e-06	0.01432614	-0.02900462	3.656479e-06	-1.975108e-06	0.02447488	-0.0434297
	0.02360184	-0.04372448	7.783486e-07	-3.023346e-06	0.01578506	-0.03102693	7.710953e-07	-5.830778e-07
	1.971101e-06	1.307054e-06	0.02440023	-0.0433406	-1.262921e-06	1.485204e-06	0.01310946	-0.02855452
1e+08	0.01137718	-0.01476347	-8.817768e-07	-1.25506e-06	0.008395101	-0.01855775	6.027804e-07	7.394087e-07
	-1.561113e-06	5.028638e-06	0.01172061	-0.01277169	2.478454e-06	-3.105724e-06	0.008418539	-0.01919527
	0.007549783	-0.01914278	-3.515766e-07	-3.324397e-06	0.01205661	-0.01540561	5.664498e-07	-7.927087e-07
	2.16085e-06	7.378015e-07	0.008394234	-0.01907726	-6.524864e-07	1.87626e-06	0.01082519	-0.0119461
1.1e+08	0.01781761	0.001811702	-1.211547e-06	-9.06121e-07	0.009855495	0.01187008	7.526282e-07	7.132847e-07
	3.394108e-07	5.552584e-06	0.01914764	0.003739719	9.830441e-07	-3.693549e-06	0.009709642	0.0111137
	0.00890792	0.01151101	-1.595076e-06	-3.192264e-06	0.01800819	0.001073643	2.842875e-07	-9.48961e-07
	2.173325e-06	1.417172e-07	0.009746617	0.01124025	1.783042e-08	1.970384e-06	0.01867345	0.004783878
1.2e+08	0.03381692	0.01364317	-1.411993e-06	-4.850214e-07	0.02972419	0.03750251	9.407211e-07	6.09022e-07
	2.34685e-06	5.293773e-06	0.03604632	0.0150133	-6.021577e-07	-3.681451e-06	0.02935756	0.03669058
	0.02874747	0.03738097	-2.777005e-06	-2.604628e-06	0.03353484	0.01313555	-5.762215e-08	-1.027477e-06
	2.00048e-06	-4.279189e-07	0.02945502	0.03679046	6.216686e-07	1.792096e-06	0.03603495	0.01611444
1.3e+08	0.05604772	0.01614855	-1.474615e-06	-4.706804e-08	0.06269107	0.04872474	1.110585e-06	3.9697e-07
	4.129428e-06	4.26268e-06	0.05886146	0.016563	-2.061414e-06	-3.097525e-06	0.06207136	0.04793526
	0.06174129	0.04882668	-3.727913e-06	-1.609864e-06	0.05548015	0.01611189	-4.420849e-07	-1.009636e-06
	1.651381e-06	-9.072929e-07	0.06221227	0.04798133	1.056503e-06	1.405739e-06	0.05929038	0.0175644
1.4e+08	0.07923642	0.007047022	-1.414137e-06	3.60282e-07	0.099028	0.04043943	1.196572e-06	8.758619e-08
	5.392315e-06	2.612816e-06	0.08215706	0.006303705	-3.21328e-06	-2.035736e-06	0.09815711	0.0397731
	0.0981454	0.04073844	-4.313428e-06	-3.170442e-07	0.07867497	0.007588581	-8.420662e-07	-8.783493e-07
	1.165195e-06	-1.233227e-06	0.09831241	0.03974919	1.263516e-06	9.080438e-07	0.08295884	0.007072411
1.5e+08	0.09770401	-0.0130345	-1.259563e-06	7.03126e-07	0.1279152	0.0136226	1.147875e-06	-2.738154e-07
	5.938047e-06	6.028749e-07	0.1002027	-0.01488485	-3.923885e-06	-6.341038e-07	0.1268539	0.01318423
	0.1271373	0.01408832	-4.453491e-06	1.126833e-06	0.09748704	-0.01196942	-1.220505e-06	-6.253726e-07
	6.096208e-07	-1.362564e-06	0.1269878	0.01308936	1.231596e-06	4.028186e-07	0.1012884	-0.01445081
1.6e+08	0.1068479	-0.04090173	-1.050364e-06	9.592882e-07	0.1409108	-0.02528742	9.393861e-07	-6.215635e-07
	5.688178e-06	-1.459793e-06	0.1085003	-0.04357619	-4.111161e-06	9.42196e-07	0.1397558	-0.02543385
	0.1402475	-0.02468249	-4.127936e-06	2.56362e-06	0.1071854	-0.03952761	-1.543378e-06	-2.500774e-07
	6.992116e-08	-1.284583e-06	0.1398392	-0.02558256	9.808371e-07	-1.299188e-08	0.109728	-0.04353956
1.7e+08	0.1039716	-0.07175775	-8.284837e-07	1.133364e-06	0.1341609	-0.06667087	5.798195e-07	-8.809496e-07
	4.694892e-06	-3.27153e-06	0.1045176	-0.07480625	-3.740777e-06	2.517157e-06	0.1330378	-0.06651032
	0.1336298	-0.06595068	-3.367983e-06	3.848542e-06	0.1049918	-0.07037666	-1.765492e-06	2.33073e-07
	-3.747927e-07	-1.029566e-06	0.1330511	-0.06668454	5.722795e-07	-2.595147e-07	0.1057574	-0.07518284
1.8e+08	0.08865558	-0.1001075	-6.271028e-07	1.249072e-06	0.1091679	-0.1005206	1.116368e-07	-9.819845e-07
	3.112694e-06	-4.574987e-06	0.0880789	-0.103024	-2.826883e-06	3.906519e-06	0.1081898	-0.1000897
	0.1087808	-0.09970275	-2.240189e-06	4.860657e-06	0.0903077	-0.09903373	-1.84584e-06	7.999844e-07
	-6.652131e-07	-6.582706e-07	0.1081302	-0.100256	9.195096e-08	-2.795037e-07	0.08919577	-0.1037811
1.9e+08	0.06281372	-0.1206144	-4.535255e-07	1.345877e-06	0.07206047	-0.1190258	-3.866749e-07	-8.754364e-07
	1.180711e-06	-5.191427e-06	0.06133185	-0.1229553	-1.436404e-06	4.925335e-06	0.0713163	-0.1183964
	0.07183262	-0.1181246	-8.323989e-07	5.502903e-06	0.06491098	-0.1200931	-1.742295e-06	1.405576e-06
	-7.757004e-07	-2.499122e-07	0.07119666	-0.1185254	-3.469956e-07	-5.579319e-08	0.06221201	-0.1240091
2e+08	0.03067142	-0.1289511	-2.815272e-07	1.455299e-06	0.03193223	-0.1183971	-8.10073e-07	-5.547281e-07
	-8.114939e-07	-5.048536e-06	0.02867291	-0.130434	3.015262e-07	5.398249e-06	0.03146767	-0.1176728
	0.03188988	-0.1174328	7.499954e-07	5.69463e-06	0.03294415	-0.1291335	-1.424737e-06	1.974823e-06
	-7.170648e-07	1.146872e-07	0.03131087	-0.1177455	-6.232802e-07	3.694744e-07	0.02924993	-0.1316731
2.1e+08	-0.001617864	-0.1229289	-6.570804e-08	1.576529e-06	-0.001460761	-0.09982558	-1.051226e-06	-7.271149e-08
	-2.569537e-06	-4.189153e-06	-0.00367227	-0.1235154	2.177215e-06	5.183367e-06	-0.001619392	-0.09910874
	-0.001291525	-0.09882289	2.373043e-06	5.369051e-06	0.0005358592	-0.1237925	-8.969844e-07	2.411713e-06
	-5.342798e-07	3.651317e-07	-0.001785487	-0.09912112	-6.441622e-07	8.902518e-07	-0.003422924	-0.1247978
2.2e+08	-0.0269237	-0.1035718	2.308191e-07	1.661992e-06	-0.02016163	-0.06923815	-1.042554e-06	4.549681e-07
	-3.844158e-06	-2.776561e-06	-0.02864285	-0.1034422	3.910363e-06	4.216912e-06	-0.02001652	-0.06865252
	-0.01974813	-0.06824409	3.861086e-06	4.48948e-06	-0.02513908	-0.1050028	-2.229809e-07	2.604584e-06
	-3.008868e-07	4.598114e-07	-0.02017045	-0.06861209	-3.880574e-07	1.351459e-06	-0.02867665	-0.1046424
2.3e+08	-0.03908769	-0.07568981	5.941665e-07	1.637782e-06	-0.0203017	-0.0359406	-7.941925e-07	8.832159e-07
	-4.477792e-06	-1.051391e-06	-0.04025614	-0.07518756	5.172382e-06	2.565634e-06	-0.01990038	-0.03562238
	-0.01962306	-0.03502107	4.994283e-06	3.087417e-06	-0.03782446	-0.07747736	4.649832e-07	2.483644e-06
	-1.060505e-07	3.949693e-07	-0.02002988	-0.03554331	7.060379e-08	1.606975e-06	-0.04047733	-0.0762057
2.4e+08	-0.03511869	-0.04712253	9.487362e-07	1.450136e-06	-0.003515009	-0.01004632	-4.063098e-07	1.095145e-06
	-4.426021e-06	7.12526e-07	-0.03575093	-0.04661886	5.666651e-06	4.609429e-07	-0.002970996	-0.01012291
	-0.002573047	-0.009285197	5.547281e-06	1.306918e-06	-0.03441187	-0.04903819	9.930767e-07	2.065217e-06
	-3.295939e-08	2.146075e-07	-0.003073898	-0.01001781	5.830854e-07	1.581534e-06	-0.03602493	-0.04741219
2.5e+08	-0.01674068	-0.02652912	1.18752e-06	1.113189e-06	0.02326621	0.0007529607	-3.234596e-08	1.059326e-06
	-3.753014e-06	2.258396e-06	-0.01704032	-0.02628313	5.225192e-06	-1.724458e-06	0.02377076	0.000206509
	0.02443529	0.001260148	5.366628e-06	-5.847308e-07	-0.01654626	-0.02838559	1.213658e-06	1.475143e-06
	-1.325235e-07	2.541671e-09	0.02369249	0.0003331769	9.911648e-07	1.301894e-06	-0.01723188	-0.02689218
2.6e+08	0.009773214	-0.02037453	1.232986e-06	7.146299e-07	0.05001402	-0.006057778	1.8996e-07	8.422615e-07
	-2.605952e-06	3.381666e-06	0.009514401	-0.02046482	3.880508e-06	-3.556813e-06	0.05026458	-0.007064397
	0.05133327	-0.005882357	4.449503e-06	-2.249524e-06	0.009570612	-0.02205379	1.085615e-06	9.125033e-07
	-4.063525e-07	-1.401563e-07	0.05021177	-0.006915387	1.192703e-06	8.737834e-07	0.009504054	-0.020985
2.7e+08	0.03564205	-0.03081592	1.081518e-06	3.748318e-07	0.06718271	-0.02695715	1.948797e-07	5.756882e-07
	-1.197581e-06	3.952394e-06	0.03518269	-0.03113027	1.869459e-06	-4.669369e-06	0.06697523	-0.02830968
	0.06854145	-0.02716782	2.968406e-06	-3.384198e-06	0.03513859	-0.03226269	6.892255e-07	5.622674e-07
	-8.051734e-07	-1.227402e-07	0.06695793	-0.02813513	1.165855e-06	4.190235e-07	0.03537848	-0.03170743
2.8e+08	0.05242191	-0.05508394	8.000979e-07	1.88816e-07	0.06911581	-0.05388163	3.198928e-09	3.945822e-07
	2.312286e-07	3.935082e-06	0.05165415	-0.05540443	-4.297562e-07	-4.84417e-06	0.06830777	-0.05538086
	0.07038534	-0.05448488	1.219403e-06	-3.811623e-06	0.05169106	-0.05627992	1.945003e-07	5.212722e-07
	-1.241158e-06	1.150853e-07	0.06834336	-0.05518564	9.440991e-07	3.375663e-08	0.05199759	-0.05616887
2.9e+08	0.05438501	-0.08667286	4.906357e-07	1.953115e-07	0.0556975	-0.07742135	-2.985639e-07	3.951977e-07
	1.449874e-06	3.397295e-06	0.05336105	-0.0867779	-2.591475e-06	-4.055603e-06	0.05424098	-0.07881423
	0.05675289	-0.07837456	-4.69513e-07	-3.517559e-06	0.05347185	-0.08760029	-2.192519e-07	7.753386e-07
	-1.602219e-06	5.900664e-07	0.05434791	-0.0786163	5.824885e-07	-2.215649e-07	0.05373352	-0.08780891
3e+08	0.03976254	-0.1172857	2.541275e-07	3.776432e-07	0.03179669	-0.0901098	-5.895858e-07	6.137653e-07
	2.286365e-06	2.495085e-06	0.03865799	-0.1170404	-4.230015e-06	-2.458834e-06	0.0297611	-0.09113227
	0.03253318	-0.09132956	-1.819009e-06	-2.627425e-06	0.0387123	-0.1178914	-4.213149e-07	1.228274e-06
	-1.770041e-06	1.265443e-06	0.02994966	-0.09096379	1.422533e-07	-3.088499e-07	0.03891239	-0.118339
3.1e+08	0.01100626	-0.1388627	1.678822e-07	6.807087e-07	0.005131257	-0.08856864	-7.471666e-07	1.021544e-06
	2.661817e-06	1.431117e-06	0.01003797	-0.1382701	-5.060889e-06	-3.520728e-07	0.002699358	-0.08900379
	0.005486722	-0.08993731	-2.641211e-06	-1.35761e-06	0.009898416	-0.1390897	-3.487866e-07	1.742612e-06
	-1.646302e-06	2.045172e-06	0.002961844	-0.0889047	-3.001295e-07	-2.06616e-07	0.01006033	-0.1397619
3.2e+08	-0.02590049	-0.1454478	2.838483e-07	1.01755e-06	-0.01642177	-0.07397404	-6.733156e-07	1.526415e-06
	2.595169e-06	4.019356e-07	-0.02655645	-0.1446431	-4.953347e-06	1.878494e-06	-0.01897283	-0.07370445
	-0.01646999	-0.0753644	-2.857195e-06	3.221913e-08	-0.02691999	-0.1452537	-8.019155e-09	2.179892e-06
	-1.183329e-06	2.785496e-06	-0.0186662	-0.07371281	-6.560754e-07	7.054083e-08	-0.0268348	-0.1462129
3.3e+08	-0.06265987	-0.1346848	6.137154e-07	1.281071e-06	-0.02703419	-0.05125835	-3.294968e-07	1.990985e-06
	2.175286e-06	-4.474658e-07	-0.06294236	-0.1338881	-3.949753e-06	3.824032e-06	-0.02939541	-0.05030937
	-0.02746099	-0.0525459	-2.49775e-06	1.279182e-06	-0.0633994	-0.1341043	5.368036e-07	2.416381e-06
	-4.113086e-07	3.323122e-06	-0.0290955	-0.05044762	-8.432154e-07	4.546804e-07	-0.06351989	-0.1354069
3.4e+08	-0.09069779	-0.1086563	1.115193e-06	1.353351e-06	-0.02434239	-0.02742756	2.418325e-07	2.266854e-06
	1.515238e-06	-1.037819e-06	-0.09069324	-0.1080917	-2.267849e-06	5.131366e-06	-0.02624906	-0.02597192
	-0.02508313	-0.02850848	-1.70009e-06	2.157764e-06	-0.09097055	-0.107841	1.169215e-06	2.367074e-06
	5.560082e-07	3.52113e-06	-0.02601859	-0.02623528	-8.324548e-07	8.290623e-07	-0.09151215	-0.1094559
3.5e+08	-0.1035388	-0.07362555	1.677897e-06	1.135583e-06	-0.009913042	-0.009599205	9.162166e-07	2.244394e-06
	7.156315e-07	-1.336263e-06	-0.1034606	-0.07342839	-2.636002e-07	5.581096e-06	-0.01121553	-0.007918627
	-0.01087819	-0.0104011	-6.892956e-07	2.524021e-06	-0.1032433	-0.07285029	1.737218e-06	2.011424e-06
	1.543493e-06	3.314424e-06	-0.01111315	-0.008268574	-6.807268e-07	1.075662e-06	-0.104436	-0.07457911
3.6e+08	-0.09886152	-0.03846071	2.136976e-06	5.984404e-07	0.01116109	-0.003049521	1.521233e-06	1.900631e-06
	-1.378344e-07	-1.323251e-06	-0.09898739	-0.03860812	1.646332e-06	5.143215e-06	0.01045662	-0.00145771
	0.01007917	-0.00354246	2.638093e-07	2.354867e-06	-0.09806556	-0.03804836	2.088494e-06	1.411008e-06
	2.362078e-06	2.738341e-06	0.01039541	-0.001826294	-5.166582e-07	1.140319e-06	-0.1000268	-0.0395414
3.7e+08	-0.07939829	-0.01187748	2.3087e-06	-1.914604e-07	0.0316872	-0.009516745	1.894722e-06	1.314046e-06
	-9.541309e-07	-9.793999e-07	-0.07994761	-0.01216733	3.089838e-06	3.987939e-06	0.03142714	-0.008283836
	0.03058622	-0.009707415	9.093984e-07	1.764145e-06	-0.07836502	-0.01210942	2.124971e-06	7.074905e-07
	2.871494e-06	1.918307e-06	0.03120637	-0.008588131	-4.774097e-07	1.077073e-06	-0.08099266	-0.01291305
3.8e+08	-0.05204995	0.0003135741	2.06672e-06	-1.059631e-06	0.04456053	-0.02645443	1.947159e-06	6.424904e-07
	-1.610677e-06	-3.050488e-07	-0.05308274	0.0002060036	3.834142e-06	2.429216e-06	0.0444848	-0.02574173
	0.04352011	-0.02638272	1.089736e-06	9.764807e-07	-0.05119781	-0.0006653314	1.841899e-06	7.485925e-08
	3.019649e-06	1.026567e-06	0.04415271	-0.02590856	-6.262107e-07	1.024441e-06	-0.0541173	-0.0003929214
3.9e+08	-0.02549269	-0.002971268	1.396143e-06	-1.773179e-06	0.04530273	-0.04767919	1.692372e-06	6.378473e-08
	-1.965008e-06	6.431171e-07	-0.02684642	-0.002568305	3.830445e-06	8.273071e-07	0.04510716	-0.04750541
	0.04437221	-0.04740204	7.865136e-07	2.619975e-07	-0.02527168	-0.00454392	1.332373e-06	-3.433518e-07
	2.846842e-06	2.219133e-07	0.04474593	-0.04749555	-9.118114e-07	1.132427e-06	-0.02788964	-0.003034231
4e+08	-0.007248353	-0.01806588	4.143549e-07	-2.115176e-06	0.03377681	-0.06553704	1.236821e-06	-2.865128e-07
	-1.894539e-06	1.73421e-06	-0.008560336	-0.01696767	3.194437e-06	-5.081815e-07	0.03318196	-0.06577178
	0.03297557	-0.06510845	1.216719e-07	-1.453594e-07	-0.007997389	-0.01981962	7.469921e-07	-4.848535e-07
	2.454105e-06	-3.917644e-07	0.03288452	-0.06559501	-1.191535e-06	1.482438e-06	-0.00963935	-0.01725424
4.1e+08	-0.001431725	-0.03811243	-6.501745e-07	-1.964616e-06	0.01422821	-0.0736802	7.385192e-07	-3.56632e-07
	-1.339771e-06	2.77489e-06	-0.002255756	-0.03637562	2.144522e-06	-1.378433e-06	0.01305449	-0.07406752
	0.01355376	-0.07314544	-6.862549e-07	-1.144191e-07	-0.003213877	-0.03947742	2.32015e-07	-3.807528e-07
	1.9644e-06	-7.765771e-07	0.01289509	-0.07378059	-1.297807e-06	2.045855e-06	-0.003349585	-0.03639647
4.2e+08	-0.007696429	-0.05547362	-1.541196e-06	-1.331126e-06	-0.006300165	-0.06938609	3.510736e-07	-1.874043e-07
	-3.331733e-07	3.553329e-06	-0.007658708	-0.05343609	9.330665e-07	-1.711477e-06	-0.008078756	-0.06961081
	-0.006856966	-0.06876675	-1.392816e-06	3.545332e-07	-0.01025976	-0.05587496	-1.151068e-07	-1.299266e-07
	1.490093e-06	-9.575593e-07	-0.00806621	-0.06930138	-1.10829e-06	2.697683e-06	-0.00866198	-0.05308779
4.3e+08	-0.02166216	-0.06417875	-2.038668e-06	-3.629271e-07	-0.02053843	-0.0543095	1.79087e-07	1.041641e-07
	1.000528e-06	3.875287e-06	-0.02062076	-0.06237412	-2.114612e-07	-1.547757e-06	-0.02277833	-0.05409107
	-0.02098193	-0.05361356	-1.79725e-06	1.140217e-06	-0.02445181	-0.06322607	-2.713418e-07	1.412795e-07
	1.109707e-06	-1.009158e-06	-0.02261062	-0.05385057	-5.900533e-07	3.257511e-06	-0.02134006	-0.06161236
4.4e+08	-0.03642942	-0.06182714	-2.02953e-06	7.02195e-07	-0.02336601	-0.03382218	2.438736e-07	3.621752e-07
	2.454705e-06	3.60486e-06	-0.03456505	-0.0608323	-1.124838e-06	-1.007631e-06	-0.02580347	-0.03300491
	-0.02368765	-0.03305141	-1.794926e-06	2.044695e-06	-0.03871826	-0.05945926	-2.86073e-07	3.195355e-07
	8.429914e-07	-1.036037e-06	-0.02554198	-0.03290182	1.847692e-07	3.545972e-06	-0.03475749	-0.05973035
4.5e+08	-0.04495135	-0.05047244	-1.536566e-06	1.604872e-06	-0.01338332	-0.01525985	4.717425e-07	4.425881e-07
	3.764175e-06	2.698289e-06	-0.04276142	-0.0507224	-1.729028e-06	-2.466414e-07	-0.01573106	-0.01385366
	-0.01355983	-0.01442113	-1.398419e-06	2.856193e-06	-0.04602821	-0.04701479	-2.654265e-07	3.394193e-07
	6.349291e-07	-1.134505e-06	-0.01546323	-0.01391424	1.050265e-06	3.439788e-06	-0.04220968	-0.04949735
4.6e+08	-0.04263974	-0.03605137	-7.144843e-07	2.126956e-06	0.006615185	-0.005706237	7.108964e-07	2.665084e-07
	4.639594e-06	1.231451e-06	-0.04081791	-0.03766862	-2.026543e-06	5.9406e-07	0.004573635	-0.003861024
	0.006610305	-0.004822623	-7.229281e-07	3.412778e-06	-0.042031	-0.03219669	-3.420364e-07	2.142094e-07
	3.690432e-07	-1.340057e-06	0.00476092	-0.004061294	1.782243e-06	2.919758e-06	-0.03942638	-0.03666985
4.7e+08	-0.02936654	-0.02634816	2.003134e-07	2.170483e-06	0.03022976	-0.009813079	7.821255e-07	-1.369064e-07
	4.835362e-06	-5.757863e-07	-0.02862152	-0.02907505	-2.069511e-06	1.426299e-06	0.02858617	-0.007739752
	0.03042054	-0.008924346	6.517777e-08	3.646806e-06	-0.02699588	-0.02297172	-6.20374e-07	4.116995e-08
	-8.132214e-08	-1.588438e-06	0.02863222	-0.008014307	2.167429e-06	2.098698e-06	-0.02647912	-0.02869979
4.8e+08	-0.009874453	-0.02792882	9.522466e-07	1.768603e-06	0.04923177	-0.0280356	5.488181e-07	-6.306833e-07
	4.221381e-06	-2.388077e-06	-0.01071199	-0.03115963	-1.906816e-06	2.219942e-06	0.04796155	-0.02593166
