!$
! Info: Touchstone file created by Circ.  Input file=Tx_NPC_250mm_32AWG_BPK_900mm_27AWG_BPK_250mm_32AWG_NPC_Rx.circ
!$
# Hz S RI R 50
0	0.0344588	-3.612838e-16	9.999791e-07	-2.149911e-20	0.003915883	-4.330804e-16	-1.332196e-06	-1.401369e-20
	2.368713e-06	-3.197399e-19	0.03569992	-1.987013e-16	-4.712719e-06	8.4484e-20	0.003300824	-4.472412e-16
	0.005023965	7.918067e-16	6.675214e-08	-8.03803e-20	0.05671455	-1.970688e-17	-5.121729e-08	-2.54603e-20
	-2.592208e-06	-1.499e-20	0.003395581	-2.562562e-16	1.808291e-06	-1.822067e-19	0.05984993	5.133688e-16
1e+07	0.06700175	-0.003841104	1.243255e-06	-7.471619e-09	0.02330386	0.03487219	-1.126642e-06	5.907632e-07
	1.378446e-06	-2.368251e-06	0.06807738	-0.004711364	-3.404286e-06	3.363355e-06	0.02320791	0.03506735
	0.02413742	0.03482779	6.735546e-07	1.144075e-06	0.06708856	-0.003530701	1.25537e-07	4.22423e-07
	-2.312435e-06	1.097208e-06	0.02324746	0.03506374	1.350238e-06	-1.186599e-06	0.06925859	-0.005760923
2e+07	0.07009171	-0.01738811	1.448571e-06	-2.278567e-07	0.06204871	0.04075242	-6.780523e-07	9.000718e-07
	-1.15524e-06	-3.303769e-06	0.07012523	-0.01860709	-1.463544e-07	4.808442e-06	0.06232854	0.04119838
	0.06281894	0.04033348	2.129422e-06	1.383388e-06	0.07039983	-0.01690905	5.698176e-07	5.864825e-07
	-1.531646e-06	1.81807e-06	0.06231674	0.04114898	1.683453e-07	-1.708326e-06	0.0702918	-0.02020396
3e+07	0.06153496	-0.03430692	1.521615e-06	-6.736786e-07	0.08862363	0.01346452	-2.674243e-07	8.792327e-07
	-3.80371e-06	-2.141834e-06	0.0605575	-0.03504716	3.131609e-06	3.65062e-06	0.08926614	0.0137896
	0.08941643	0.01265333	3.535491e-06	3.492593e-07	0.06217574	-0.03378556	1.029269e-06	3.945056e-07
	-6.317603e-07	2.000977e-06	0.0891697	0.01372538	-1.037403e-06	-1.262241e-06	0.05972071	-0.0363173
4e+07	0.04108818	-0.04244415	1.302394e-06	-1.192258e-06	0.08160476	-0.02393817	-9.522741e-08	7.033078e-07
	-5.103495e-06	6.697322e-07	0.03967252	-0.04213256	4.7073e-06	6.358896e-07	0.08230765	-0.0241613
	0.0821781	-0.02491336	3.996817e-06	-1.630147e-06	0.0418401	-0.04221334	1.275404e-06	-7.977521e-08
	6.031714e-08	1.750024e-06	0.08217315	-0.02414129	-1.588828e-06	-1.371142e-07	0.03832817	-0.04249109
5e+07	0.0191168	-0.03310856	7.900441e-07	-1.548178e-06	0.04676894	-0.03897282	-1.482935e-07	6.205954e-07
	-4.2639e-06	3.837755e-06	0.01805734	-0.03159871	3.831032e-06	-2.600899e-06	0.04710875	-0.03964109
	0.04707648	-0.0399495	3.045629e-06	-3.707439e-06	0.01975421	-0.03322041	1.167499e-06	-6.419572e-07
	3.841049e-07	1.318651e-06	0.04702421	-0.03954251	-1.24068e-06	1.013663e-06	0.01698047	-0.03103697
6e+07	0.0106434	-0.009060941	1.724461e-07	-1.571557e-06	0.01387206	-0.01700549	-2.258601e-07	7.621592e-07
	-1.524408e-06	5.852665e-06	0.01071639	-0.006877691	1.02614e-06	-4.375039e-06	0.01377313	-0.01782751
	0.01396544	-0.01803713	8.969433e-07	-4.898533e-06	0.01091763	-0.009312466	7.215554e-07	-1.043669e-06
	3.673113e-07	9.697591e-07	0.01376958	-0.01767593	-2.468049e-07	1.56796e-06	0.01046722	-0.005833249
7e+07	0.024369	0.01479369	-2.991e-07	-1.296489e-06	0.01360445	0.02576682	-1.121141e-07	1.036446e-06
	1.918614e-06	5.701097e-06	0.02580458	0.01673787	-2.192901e-06	-3.812367e-06	0.01309909	0.02506033
	0.01348199	0.02474737	-1.594423e-06	-4.600117e-06	0.02425792	0.01471221	1.322723e-07	-1.09608e-06
	1.804671e-07	8.76217e-07	0.01319713	0.02518954	7.977146e-07	1.274917e-06	0.02646041	0.01752815
8e+07	0.05356239	0.02089644	-4.947639e-07	-9.265115e-07	0.05093554	0.05431613	2.354676e-07	1.216371e-06
	4.434164e-06	3.423343e-06	0.05588098	0.02173489	-4.175494e-06	-1.327928e-06	0.0501704	0.05389202
	0.05059249	0.05333333	-3.383898e-06	-2.966004e-06	0.05326995	0.0212367	-3.373302e-07	-8.217075e-07
	4.397073e-08	1.06558e-06	0.05033143	0.05393322	1.284309e-06	3.318217e-07	0.05698679	0.02171075
9e+07	0.07988996	0.003124641	-4.763036e-07	-6.686358e-07	0.1005839	0.04344751	6.613683e-07	1.142235e-06
	4.834829e-06	2.024399e-07	0.08211497	0.002569084	-4.071507e-06	1.72641e-06	0.09975355	0.04338601
	0.100004	0.04253103	-3.844774e-06	-8.024825e-07	0.07976862	0.003954787	-5.413003e-07	-4.018867e-07
	1.477524e-07	1.433877e-06	0.09990844	0.0433178	9.025972e-07	-6.720927e-07	0.08297526	0.001656819
1e+08	0.0869063	-0.02877917	-4.179862e-07	-6.117881e-07	0.1272158	-0.002528992	9.511338e-07	8.37185e-07
	3.09256e-06	-2.290843e-06	0.08814004	-0.03024456	-2.127867e-06	3.91328e-06	0.1265548	-0.002294576
	0.1264013	-0.003287004	-3.059564e-06	9.418572e-07	0.08728406	-0.02769503	-4.937192e-07	-2.055395e-08
	5.906796e-07	1.772865e-06	0.1266294	-0.002437836	-1.318789e-07	-1.081686e-06	0.08820354	-0.03163229
1.1e+08	0.07015554	-0.05681864	-4.966846e-07	-6.875334e-07	0.1115097	-0.05384803	9.884334e-07	4.813288e-07
	3.030476e-07	-2.856063e-06	0.07012102	-0.05818064	6.464929e-07	4.34973e-06	0.1111687	-0.05347395
	0.1104817	-0.05438568	-1.658043e-06	1.662962e-06	0.07113216	-0.05584371	-2.858711e-07	2.14141e-07
	1.318392e-06	1.833733e-06	0.1111364	-0.05362125	-1.19089e-06	-6.073727e-07	0.06922336	-0.05936125
1.2e+08	0.03925565	-0.06430164	-7.769656e-07	-7.162034e-07	0.06362987	-0.07564456	8.483573e-07	2.784416e-07
	-1.956985e-06	-1.353245e-06	0.03852491	-0.06465278	2.994658e-06	2.9573e-06	0.06363023	-0.07537394
	0.06247397	-0.07586646	-4.450947e-07	1.304799e-06	0.04059704	-0.06385734	-8.457355e-09	2.448675e-07
	2.110622e-06	1.438498e-06	0.0635209	-0.07544653	-1.630731e-06	4.913342e-07	0.03705632	-0.06498817
1.3e+08	0.01422689	-0.04579674	-1.148697e-06	-5.312852e-07	0.01815545	-0.05244408	7.541415e-07	2.764153e-07
	-2.438852e-06	1.284667e-06	0.01391288	-0.0449759	3.863718e-06	4.057544e-07	0.01838164	-0.05248462
	0.01699885	-0.05231656	-5.467764e-08	3.071242e-07	0.01546332	-0.04596	2.049369e-07	3.251202e-08
	2.65768e-06	5.793376e-07	0.01827638	-0.05245479	-1.220125e-06	1.574535e-06	0.01261026	-0.04424866
1.4e+08	0.01473739	-0.01378632	-1.422038e-06	-1.246585e-07	0.01082092	-0.002403972	8.551479e-07	2.885942e-07
	-8.441525e-07	3.518196e-06	0.01570748	-0.01258184	2.822805e-06	-2.082835e-06	0.01102521	-0.002891043
	0.009792142	-0.001966482	-7.01567e-07	-5.825317e-07	0.01550901	-0.01425694	1.601904e-07	-3.626039e-07
	2.677749e-06	-5.425186e-07	0.01099879	-0.002800327	-2.654341e-07	2.078918e-06	0.01528111	-0.01116147
1.5e+08	0.04378493	0.006217465	-1.487892e-06	3.879075e-07	0.04911169	0.0332237	1.04084e-06	9.692632e-08
	1.981736e-06	4.005955e-06	0.04596926	0.00660756	3.65952e-07	-3.246083e-06	0.04893698	0.03237727
	0.04830408	0.03386654	-2.033959e-06	-6.233267e-07	0.04409428	0.005915534	-2.63483e-07	-6.929635e-07
	2.06163e-06	-1.553249e-06	0.04900583	0.03244323	6.842096e-07	1.867649e-06	0.04667485	0.007942389
1.6e+08	0.08221198	-0.004373343	-1.328399e-06	8.712579e-07	0.1039734	0.0236241	1.071719e-06	-3.050636e-07
	4.493286e-06	2.363508e-06	0.08467485	-0.005535357	-2.273233e-06	-2.474421e-06	0.1032129	0.02278259
	0.1033743	0.02436089	-3.239823e-06	4.824618e-07	0.08239084	-0.004260813	-9.332014e-07	-6.635861e-07
	9.844998e-07	-2.054448e-06	0.1033244	0.02275976	1.204152e-06	1.17226e-06	0.08612654	-0.004997105
1.7e+08	0.1040808	-0.04262489	-1.004812e-06	1.206659e-06	0.1343844	-0.0269282	8.079456e-07	-7.369364e-07
	5.328994e-06	-6.303421e-07	0.105646	-0.04515214	-3.797747e-06	-1.347366e-07	0.1331922	-0.02732576
	0.133942	-0.0261586	-3.533559e-06	2.363029e-06	0.1045232	-0.04216195	-1.531232e-06	-1.93106e-07
	-1.260038e-07	-1.855284e-06	0.1332647	-0.02744173	1.121197e-06	3.796112e-07	0.1071131	-0.04563653
1.8e+08	0.09477104	-0.08853154	-6.60222e-07	1.341592e-06	0.1187097	-0.08566536	2.70306e-07	-9.730772e-07
	4.023749e-06	-3.515813e-06	0.094764	-0.0914753	-3.472297e-06	2.709952e-06	0.1175072	-0.08543842
	0.1183688	-0.08484931	-2.613394e-06	4.252736e-06	0.0956543	-0.08801939	-1.803542e-06	5.830974e-07
	-8.075294e-07	-1.112838e-06	0.1174851	-0.08559335	5.129975e-07	-7.923262e-08	0.09559447	-0.09263993
1.9e+08	0.05717412	-0.1183365	-4.172465e-07	1.371308e-06	0.06647081	-0.1162658	-3.565147e-07	-8.302609e-07
	1.18929e-06	-4.922184e-06	0.05579443	-0.1205689	-1.343959e-06	4.785512e-06	0.06567281	-0.1155625
	0.06623311	-0.1153464	-6.92644e-07	5.421666e-06	0.05842431	-0.1180554	-1.612489e-06	1.435521e-06
	-8.28595e-07	-2.652856e-07	0.06555513	-0.1156828	-2.256358e-07	1.044179e-07	0.05577257	-0.1217229
2e+08	0.00987287	-0.1155492	-2.329757e-07	1.43102e-06	0.01019388	-0.1009915	-7.482697e-07	-3.069201e-07
	-1.823135e-06	-4.236614e-06	0.008059141	-0.1164517	1.768223e-06	5.036711e-06	0.01001156	-0.1001854
	0.01014161	-0.09993131	1.674429e-06	5.375552e-06	0.01130243	-0.1156479	-9.366654e-07	2.048805e-06
	-3.212835e-07	2.050686e-07	0.009844923	-0.1002207	-5.288938e-07	8.223157e-07	0.007545356	-0.1169638
2.1e+08	-0.01968201	-0.08119057	2.215941e-08	1.489033e-06	-0.01415189	-0.0519307	-6.476746e-07	2.842775e-07
	-3.614423e-06	-1.899276e-06	-0.02088651	-0.08107529	4.414988e-06	3.092173e-06	-0.01375936	-0.0514649
	-0.01389552	-0.05076744	3.674725e-06	3.959188e-06	-0.0182282	-0.08166075	-1.455449e-08	2.065159e-06
	2.726925e-07	2.979146e-08	-0.0139121	-0.05141271	-1.327267e-07	1.50395e-06	-0.02115187	-0.0807654
2.2e+08	-0.01157978	-0.03896994	2.975241e-07	1.392609e-06	0.008428581	-0.005981522	-1.984932e-07	4.879861e-07
	-3.464862e-06	8.466962e-07	-0.01180569	-0.03878001	5.085781e-06	-2.605012e-07	0.009039332	-0.006222356
	0.009090581	-0.004870687	4.40038e-06	1.621362e-06	-0.01021825	-0.03981642	5.725881e-07	1.39892e-06
	4.252138e-07	-6.590154e-07	0.008939686	-0.006116548	6.14339e-07	1.622717e-06	-0.01116127	-0.038142
2.3e+08	0.02750478	-0.02181765	3.901046e-07	1.196842e-06	0.05716728	0.0009730569	9.92144e-08	1.937456e-07
	-1.655336e-06	2.639328e-06	0.02775838	-0.02233591	3.239885e-06	-3.212979e-06	0.05742429	6.02395e-06
	0.05820294	0.001818452	3.46506e-06	-4.847215e-07	0.028631	-0.02303779	3.412242e-07	5.79714e-07
	-1.427022e-07	-1.366339e-06	0.05738283	0.0001255499	1.16237e-06	1.212441e-06	0.02935993	-0.02223676
2.4e+08	0.0667554	-0.04475051	3.158256e-07	1.143854e-06	0.09071485	-0.03532639	-9.204807e-08	-2.347703e-07
	7.180428e-07	2.657802e-06	0.06665981	-0.04603627	-1.240814e-07	-4.090353e-06	0.0901857	-0.03660053
	0.09195229	-0.03489894	1.563765e-06	-1.229863e-06	0.06743923	-0.04625188	-5.009393e-07	3.483255e-07
	-1.267395e-06	-1.539118e-06	0.09018906	-0.03649033	1.312114e-06	6.157186e-07	0.06856352	-0.04708832
2.5e+08	0.07624946	-0.09381486	3.037418e-07	1.293672e-06	0.08257774	-0.08524612	-6.837782e-07	-3.606184e-07
	2.295731e-06	1.037432e-06	0.07529353	-0.09532013	-3.159686e-06	-2.458929e-06	0.08125802	-0.08622602
	0.08379272	-0.08525127	-1.988823e-08	-4.383937e-07	0.07633876	-0.09532023	-1.2616e-06	9.28455e-07
	-2.445368e-06	-8.807313e-07	0.08129449	-0.08613463	1.09812e-06	6.147141e-08	0.07660689	-0.0974399
2.6e+08	0.04669891	-0.1393651	4.799148e-07	1.506737e-06	0.03951018	-0.1126947	-1.334091e-06	3.595724e-08
	2.195874e-06	-1.189328e-06	0.0449442	-0.1404093	-4.287632e-06	7.857589e-07	0.03779265	-0.1129546
	0.04054072	-0.1130095	-3.758538e-07	1.143904e-06	0.04625795	-0.1404713	-1.40391e-06	1.981155e-06
	-3.075331e-06	4.891853e-07	0.03785506	-0.1128915	5.806461e-07	-2.491819e-07	0.04514642	-0.1428837
2.7e+08	-0.008406218	-0.1545914	8.580083e-07	1.651608e-06	-0.009200135	-0.1010168	-1.62782e-06	8.899913e-07
	5.093509e-07	-2.701885e-06	-0.01045243	-0.1547724	-2.900659e-06	3.964387e-06	-0.01073647	-0.1004965
	-0.008399091	-0.1014773	6.625812e-07	2.458745e-06	-0.008952225	-0.1549951	-7.782405e-07	2.971257e-06
	-2.772475e-06	2.04427e-06	-0.01066385	-0.1004765	6.783983e-09	-1.187152e-07	-0.01120327	-0.1567784
2.8e+08	-0.06013953	-0.129114	1.422058e-06	1.579629e-06	-0.03345485	-0.06007606	-1.278386e-06	1.824719e-06
	-1.824735e-06	-2.656915e-06	-0.06187999	-0.1285349	3.628976e-07	5.34663e-06	-0.03432047	-0.05912841
	-0.03281245	-0.06055585	2.581903e-06	2.578248e-06	-0.06015396	-0.1289338	4.220689e-07	3.379288e-06
	-1.631656e-06	3.102888e-06	-0.03427263	-0.05915581	-2.137138e-07	3.340903e-07	-0.06288227	-0.1296469
2.9e+08	-0.07911007	-0.07711657	2.000693e-06	1.078256e-06	-0.02036078	-0.01809313	-3.911337e-07	2.305941e-06
	-3.636103e-06	-1.070769e-06	-0.08028037	-0.07625466	3.752947e-06	4.015249e-06	-0.02043119	-0.0173541
	-0.01975249	-0.01857483	4.299359e-06	1.062912e-06	-0.07818983	-0.077051	1.644288e-06	2.890276e-06
	-2.202471e-07	3.243434e-06	-0.02044889	-0.01739611	1.048696e-08	6.197538e-07	-0.08076862	-0.07673476
3e+08	-0.05587517	-0.03196713	2.156527e-06	1.488804e-07	0.01705991	-0.003779606	4.940455e-07	2.068986e-06
	-4.104234e-06	1.359673e-06	-0.05668457	-0.03122178	5.240739e-06	5.99274e-07	0.01739589	-0.003833016
	0.01770893	-0.004365402	4.555607e-06	-1.594485e-06	-0.05438713	-0.03293843	2.174381e-06	1.731744e-06
	7.717131e-07	2.590201e-06	0.01731259	-0.00381645	2.386838e-07	4.538073e-07	-0.05640146	-0.03184848
3.1e+08	-0.01088192	-0.02294461	1.573662e-06	-7.078313e-07	0.04743154	-0.02481171	8.398581e-07	1.417129e-06
	-2.990967e-06	3.620698e-06	-0.01169174	-0.02228598	3.86964e-06	-2.905788e-06	0.0474396	-0.02579882
	0.04806712	-0.02564438	2.809311e-06	-3.965852e-06	-0.009928385	-0.02528713	1.742836e-06	6.835442e-07
	9.86667e-07	1.704532e-06	0.04736397	-0.02566714	7.072039e-08	1.408741e-07	-0.01112898	-0.02374716
3.2e+08	0.0207759	-0.05226986	5.480832e-07	-8.761359e-07	0.04620431	-0.06014824	6.012123e-07	9.340175e-07
	-7.486759e-07	4.740461e-06	0.01994347	-0.05139068	4.568011e-07	-4.464578e-06	0.04523041	-0.06162619
	0.04664353	-0.06128695	-1.576422e-07	-4.64639e-06	0.02008792	-0.05524678	8.449068e-07	4.139008e-07
	5.67981e-07	1.183245e-06	0.04527377	-0.06140661	-3.678826e-07	1.014736e-07	0.01988226	-0.05368462
3.3e+08	0.01621568	-0.09554417	-2.184694e-07	-2.541954e-07	0.01658198	-0.07872136	1.793796e-07	9.602084e-07
	1.614893e-06	4.27376e-06	0.01569325	-0.09434283	-3.05036e-06	-3.288075e-06	0.0144689	-0.07987816
	0.01662648	-0.08006771	-2.80688e-06	-3.316419e-06	0.01371432	-0.097712	2.420672e-07	8.950981e-07
	1.241682e-08	1.3407e-06	0.01468882	-0.07968947	-7.345596e-07	3.869096e-07	0.01444604	-0.09670608
3.4e+08	-0.02151673	-0.1212737	-2.36521e-07	6.917168e-07	-0.01587715	-0.06607292	4.707137e-08	1.40894e-06
	3.081029e-06	2.575076e-06	-0.02143988	-0.1200704	-4.801291e-06	-1.296363e-07	-0.01864772	-0.06620291
	-0.01632277	-0.06740756	-3.938481e-06	-8.08107e-07	-0.02480545	-0.1214481	3.247289e-07	1.596012e-06
	-9.545509e-08	2.034299e-06	-0.01830595	-0.06618211	-8.520694e-07	8.177269e-07	-0.02361154	-0.1215499
3.5e+08	-0.06798384	-0.1111469	4.966007e-07	1.321633e-06	-0.02598918	-0.03314574	4.411614e-07	1.872707e-06
	3.164343e-06	5.168108e-07	-0.06743066	-0.1104425	-3.995185e-06	3.258671e-06	-0.02856638	-0.03210191
	-0.02686895	-0.03423085	-3.278444e-06	1.557153e-06	-0.07037769	-0.1092719	9.877929e-07	1.946145e-06
	5.262596e-07	2.701077e-06	-0.02825288	-0.03231104	-6.922926e-07	1.186367e-06	-0.06960741	-0.1106238
3.6e+08	-0.09361419	-0.07106385	1.552142e-06	1.158371e-06	-0.006941173	-0.005216182	1.187719e-06	1.894111e-06
	2.002878e-06	-1.007781e-06	-0.09312887	-0.07109739	-1.247122e-06	5.096512e-06	-0.008644287	-0.003498344
	-0.008068965	-0.005899385	-1.478969e-06	2.672863e-06	-0.09386925	-0.06843215	1.773014e-06	1.625034e-06
	1.597348e-06	2.764045e-06	-0.008523029	-0.003867813	-3.82445e-07	1.268461e-06	-0.09439532	-0.07043406
3.7e+08	-0.08379734	-0.02706567	2.225426e-06	1.340909e-07	0.0261881	-0.003196774	1.789409e-06	1.330519e-06
	1.81717e-07	-1.358711e-06	-0.08397652	-0.02752696	1.79565e-06	4.574158e-06	0.02547748	-0.001608032
	0.02503327	-0.003465429	2.480885e-07	2.185383e-06	-0.08208691	-0.02558813	2.119636e-06	7.553158e-07
	2.510057e-06	2.109357e-06	0.02533714	-0.001956751	-2.725299e-07	1.021012e-06	-0.08412467	-0.02700639
3.8e+08	-0.0492288	-0.006256649	1.908433e-06	-1.226773e-06	0.04725649	-0.02818274	1.832632e-06	5.181518e-07
	-1.394611e-06	-3.244496e-07	-0.0502134	-0.006390877	3.479449e-06	2.271209e-06	0.04707813	-0.02735474
	0.04623429	-0.02815406	8.022721e-07	7.058901e-07	-0.0472322	-0.007071974	1.759764e-06	-1.309855e-07
	2.859073e-06	1.11245e-06	0.04676937	-0.02749657	-6.276134e-07	8.046365e-07	-0.04990323	-0.006769638
3.9e+08	-0.01634058	-0.01665066	5.983144e-07	-2.023394e-06	0.0394593	-0.05939862	1.360952e-06	-1.671739e-08
	-1.791727e-06	1.634361e-06	-0.01753919	-0.01580547	3.106984e-06	-3.444198e-07	0.03905	-0.05946279
	0.03859817	-0.05923372	-1.095151e-07	-5.552519e-07	-0.01608911	-0.01911985	9.658701e-07	-5.090857e-07
	2.674998e-06	2.228326e-07	0.03878417	-0.05934316	-1.21805e-06	1.090448e-06	-0.01777683	-0.0169696
4e+08	-0.006146078	-0.0436437	-9.591125e-07	-1.637311e-06	0.01004715	-0.07081969	8.137281e-07	-2.191734e-08
	-6.050098e-07	3.455103e-06	-0.006548371	-0.04191355	1.148279e-06	-1.868726e-06	0.008764732	-0.07131633
	0.009263945	-0.07061339	-1.801099e-06	-6.045093e-07	-0.008435804	-0.04568184	2.889565e-07	-3.090108e-07
	2.228498e-06	-3.361514e-07	0.008725075	-0.07106514	-1.47434e-06	1.914959e-06	-0.007812991	-0.04292267
4.1e+08	-0.02013318	-0.06365165	-1.778617e-06	-2.632465e-07	-0.0156091	-0.05328766	6.306067e-07	2.982025e-07
	1.706505e-06	4.028999e-06	-0.01911631	-0.06201025	-1.210421e-06	-1.646914e-06	-0.01786242	-0.05342042
	-0.01641895	-0.0530216	-3.135138e-06	7.044339e-07	-0.02378593	-0.06326787	6.1911e-08	9.614413e-08
	1.812476e-06	-5.912074e-07	-0.01765718	-0.05326385	-1.041276e-06	2.804013e-06	-0.02086576	-0.06189
4.2e+08	-0.04161576	-0.06207673	-1.373427e-06	1.231179e-06	-0.01525608	-0.0218476	9.003507e-07	4.737905e-07
	4.013042e-06	2.828808e-06	-0.0395976	-0.06176717	-2.751153e-06	2.702842e-08	-0.01796396	-0.0210209
	-0.01612397	-0.02141502	-3.287418e-06	2.686825e-06	-0.04424889	-0.05888524	1.845037e-07	2.649039e-07
	1.570943e-06	-7.82054e-07	-0.01767606	-0.02112311	-8.504806e-08	3.17881e-06	-0.04062829	-0.06037797
4.3e+08	-0.04989975	-0.0436982	-6.379022e-08	1.910671e-06	0.01256207	-0.003486756	1.276856e-06	1.469792e-07
	5.052765e-06	2.293508e-07	-0.0482221	-0.04524721	-2.844184e-06	2.194955e-06	0.01014032	-0.001675817
	0.01171183	-0.002781313	-2.187188e-06	4.358049e-06	-0.04962565	-0.03936106	2.555957e-07	3.618786e-08
	1.330871e-06	-1.146578e-06	0.0102765	-0.002021027	8.223017e-07	2.788763e-06	-0.04764245	-0.04354704
4.4e+08	-0.03770827	-0.02780698	1.255362e-06	1.388394e-06	0.04685309	-0.01629195	1.231605e-06	-5.945373e-07
	4.100268e-06	-2.555614e-06	-0.03774537	-0.03050353	-1.659027e-06	3.864271e-06	0.04521437	-0.01395345
	0.04617011	-0.01528378	-4.184908e-07	5.04844e-06	-0.03461887	-0.02492056	-8.510877e-08	-3.4337e-07
	7.673696e-07	-1.567949e-06	0.04505334	-0.01435155	1.089375e-06	1.933022e-06	-0.03579588	-0.02986554
4.5e+08	-0.01710979	-0.03039536	1.698458e-06	6.019292e-08	0.05951967	-0.05442656	5.136906e-07	-1.229188e-06
	1.507771e-06	-4.060026e-06	-0.01927707	-0.03267124	1.635251e-07	4.498729e-06	0.05872362	-0.0521773
	0.05915388	-0.05318921	1.242006e-06	4.693601e-06	-0.01332953	-0.03053735	-8.276067e-07	-4.186588e-07
	-1.131818e-07	-1.62885e-06	0.05831111	-0.0523914	5.805958e-07	1.304038e-06	-0.01725601	-0.03374744
4.6e+08	-0.007470943	-0.04983243	9.593079e-07	-1.153874e-06	0.03784217	-0.09119972	-5.907454e-07	-1.21026e-06
	-1.39529e-06	-3.48199e-06	-0.01086036	-0.05027581	1.947885e-06	4.030398e-06	0.0375396	-0.0895101
	0.03787414	-0.08988332	2.274644e-06	3.71225e-06	-0.005564481	-0.05229079	-1.572907e-06	7.24779e-08
	-8.786176e-07	-1.142024e-06	0.03708067	-0.08941779	-2.104399e-07	1.448508e-06	-0.01010238	-0.05238878
4.7e+08	-0.01787046	-0.06943529	-4.670914e-07	-1.410266e-06	-0.004541455	-0.09996844	-1.444111e-06	-4.11144e-07
	-3.107185e-06	-1.189652e-06	-0.02078787	-0.06775483	3.143247e-06	2.684677e-06	-0.004892362	-0.09892468
	-0.00411761	-0.09873199	2.61426e-06	2.649253e-06	-0.01883587	-0.07175368	-1.856108e-06	9.578701e-07
	-1.144029e-06	-3.893605e-07	-0.005178726	-0.09859211	-5.280602e-07	2.30298e-06	-0.02151863	-0.06937943
4.8e+08	-0.03974402	-0.07204192	-1.630265e-06	-5.394038e-07	-0.03827039	-0.07486099	-1.506079e-06	7.416121e-07
	-2.80244e-06	1.543484e-06	-0.04080281	-0.06933994	3.365465e-06	9.12856e-07	-0.03905229	-0.07417022
