!$
! Info: Touchstone file created by Circ.  Input file=Tx_NPC_250mm_32AWG_BPK_1200mm_27AWG_BPK_250mm_32AWG_NPC_Rx.circ
!$
# Hz S RI R 50
0	0.04435007	-1.40679e-16	2.691659e-06	2.141294e-19	0.003670506	-3.428454e-15	2.052681e-07	-4.40976e-21
	2.455121e-07	-1.392405e-21	0.04404272	-1.940426e-16	-8.20797e-07	1.940235e-19	0.003554744	-4.432333e-16
	0.003622009	-9.289546e-16	7.266193e-07	1.991415e-20	0.06351527	3.266172e-15	1.406588e-06	-1.935799e-19
	1.044346e-06	-6.84509e-22	0.003644596	-2.541589e-16	-1.445439e-08	9.12599e-22	0.06790106	5.359043e-16
1e+07	0.07586584	-0.009745973	2.982728e-06	-1.426184e-07	0.0283157	0.03941084	2.5471e-07	2.561309e-07
	8.061106e-07	7.920631e-07	0.07477346	-0.0109471	-3.166322e-07	8.243708e-07	0.02908726	0.03780152
	0.02894212	0.03808365	8.454636e-07	-1.045691e-07	0.07236983	-0.009735684	1.583895e-06	3.152951e-08
	1.084518e-06	5.160241e-08	0.02912208	0.03778869	1.897273e-07	2.797028e-07	0.07576236	-0.01214561
2e+07	0.07277636	-0.02899989	2.859258e-06	-9.870541e-07	0.07397986	0.03495332	3.545584e-07	3.00765e-07
	1.355239e-06	5.448184e-07	0.06980812	-0.03011659	5.072338e-07	7.000899e-07	0.07308994	0.03356834
	0.07325284	0.03381923	7.789904e-07	-5.704036e-07	0.0685603	-0.02838233	1.916085e-06	-2.834088e-07
	1.079239e-06	-6.003502e-08	0.07305412	0.03352225	5.538183e-07	1.848003e-07	0.06949317	-0.03164502
3e+07	0.05298633	-0.044818	1.55037e-06	-1.555831e-06	0.08888024	-0.006922663	2.27661e-07	3.285022e-07
	8.123048e-07	8.946779e-08	0.04854133	-0.04394186	5.82874e-07	2.095332e-08	0.08742327	-0.006691918
	0.08822606	-0.00668592	8.616757e-08	-8.598026e-07	0.04830335	-0.04269621	2.022084e-06	-9.485944e-07
	8.45949e-07	-1.121363e-07	0.08729499	-0.006701717	6.623966e-07	-2.210528e-07	0.04730686	-0.04462105
4e+07	0.02491748	-0.04023831	-3.128533e-08	-5.850841e-07	0.05787201	-0.0375152	2.714374e-08	6.068637e-07
	-2.394066e-07	7.726968e-07	0.021093	-0.03647007	-6.746051e-08	-1.33458e-07	0.05651383	-0.03640741
	0.05740169	-0.03690873	-7.152783e-07	-2.708574e-07	0.02084428	-0.03617058	1.670302e-06	-1.679856e-06
	6.044653e-07	1.097576e-07	0.05640329	-0.03630253	3.629173e-07	-5.639939e-07	0.01997552	-0.03591775
5e+07	0.011175	-0.01377229	-3.540934e-08	1.392746e-06	0.01652747	-0.02048693	1.16269e-07	1.035682e-06
	-1.58272e-07	2.375078e-06	0.01006289	-0.008101634	-3.841994e-07	5.61894e-07	0.01599382	-0.01908798
	0.01646909	-0.01982391	-5.481653e-07	8.964181e-07	0.008932207	-0.008159793	9.505565e-07	-2.118287e-06
	6.886765e-07	4.125446e-07	0.01599282	-0.01894389	-7.675877e-08	-5.197041e-07	0.01001329	-0.006998758
6e+07	0.02669453	0.01313199	1.714836e-06	2.048927e-06	0.01493048	0.02732271	4.749785e-07	1.146061e-06
	1.354086e-06	2.966926e-06	0.02879178	0.01800565	2.513841e-07	1.100675e-06	0.01518781	0.02854882
	0.01515481	0.02781475	7.151027e-07	1.244519e-06	0.02687677	0.01879321	1.604082e-07	-2.15273e-06
	9.650036e-07	2.917268e-07	0.01529848	0.02865975	-2.712669e-07	-2.287144e-07	0.02981982	0.01856893
7e+07	0.05911556	0.01430299	2.736309e-06	2.398717e-07	0.06032681	0.053109	5.39094e-07	8.324061e-07
	2.249923e-06	1.557618e-06	0.06260408	0.01656385	9.634107e-07	6.13665e-07	0.0608404	0.05365171
	0.06057957	0.05333988	1.587482e-06	6.918673e-08	0.06100114	0.01867727	-4.999005e-07	-1.857166e-06
	7.670076e-07	-2.483489e-07	0.06099383	0.05365212	-2.247977e-07	1.730639e-09	0.06381664	0.01590665
8e+07	0.07896086	-0.01276326	8.151671e-07	-1.952946e-06	0.1087341	0.0259435	3.308582e-08	6.57341e-07
	7.035742e-07	-5.749948e-08	0.08137426	-0.01273158	6.554181e-07	-2.781479e-07	0.1089212	0.02602287
	0.1088463	0.0260654	7.528134e-07	-1.421713e-06	0.08111644	-0.009953568	-8.649424e-07	-1.361276e-06
	-1.505526e-07	-4.784003e-07	0.1090153	0.02592057	-1.11958e-07	7.386097e-08	0.08169922	-0.01429232
9e+07	0.06844629	-0.04493532	-3.062309e-06	-1.374717e-06	0.1118851	-0.03061251	-6.374286e-07	1.116566e-06
	-2.281253e-06	7.79324e-07	0.06874545	-0.04494846	-4.826301e-07	-2.999876e-07	0.1116184	-0.03044907
	0.1118971	-0.03041381	-1.277468e-06	-1.42707e-06	0.0698801	-0.04274802	-9.039639e-07	-9.455612e-07
	-1.206019e-06	1.873029e-07	0.1115992	-0.03056896	-7.82623e-08	1.394036e-08	0.06777563	-0.0463597
1e+08	0.03627383	-0.05400212	-5.28485e-06	2.703947e-06	0.06572869	-0.0619977	-7.621401e-07	2.136147e-06
	-3.480801e-06	4.430228e-06	0.03577845	-0.05198439	-1.088117e-06	9.803431e-07	0.06537915	-0.06134339
	0.06579686	-0.06166555	-2.522756e-06	5.763653e-07	0.03731578	-0.05108865	-8.382538e-07	-7.743586e-07
	-1.48704e-06	1.581069e-06	0.06528592	-0.06137917	-2.045413e-07	-7.986827e-09	0.03409648	-0.05224249
1.1e+08	0.01245827	-0.03016257	-3.121921e-06	7.005798e-06	0.01749966	-0.03588575	6.774413e-08	2.884457e-06
	-7.684095e-07	7.671376e-06	0.01375218	-0.02614726	3.225994e-08	2.274344e-06	0.0176528	-0.03484563
	0.01774074	-0.03551523	-1.298174e-06	2.859492e-06	0.01458128	-0.02614276	-8.444038e-07	-8.242492e-07
	-5.215553e-07	2.625297e-06	0.01759023	-0.03477181	-2.832961e-07	1.184998e-07	0.01255173	-0.02509354
1.2e+08	0.02419233	0.003989129	1.32465e-06	7.017915e-06	0.02125544	0.02008557	1.036646e-06	2.398769e-06
	3.387479e-06	6.57818e-06	0.02872815	0.007607754	1.88967e-06	1.615576e-06	0.02211267	0.02088939
	0.02165625	0.0203542	1.348829e-06	2.751651e-06	0.02867187	0.00784005	-1.198288e-06	-1.03284e-06
	6.776014e-07	2.139112e-06	0.02216602	0.0209916	-2.890275e-07	1.490303e-07	0.02887606	0.009053251
1.3e+08	0.06409495	0.01097946	2.554143e-06	3.008343e-06	0.07685681	0.04298639	7.440752e-07	1.291874e-06
	3.792164e-06	2.090167e-06	0.07061787	0.0115724	1.957337e-06	-5.688751e-07	0.07798791	0.04308702
	0.07731955	0.04309683	2.255132e-06	3.130771e-07	0.07052139	0.01266147	-2.050826e-06	-8.311046e-07
	3.936363e-07	7.898508e-07	0.07813248	0.04310121	-4.97665e-07	2.042991e-07	0.0718314	0.01219247
1.4e+08	0.09542358	-0.02075065	-1.340126e-06	2.964364e-07	0.1285944	0.004268951	-6.181032e-07	1.128722e-06
	-7.477143e-07	-3.759752e-07	0.1010788	-0.02368897	-1.616133e-07	-1.654301e-06	0.1294625	0.003759681
	0.129051	0.004245517	3.725058e-07	-1.511588e-06	0.1018406	-0.02215959	-2.682943e-06	1.999777e-07
	-1.309717e-06	4.592729e-07	0.129588	0.003641967	-6.467691e-07	5.812446e-07	0.1022299	-0.02433483
1.5e+08	0.09030082	-0.06717603	-6.522035e-06	2.871373e-06	0.1259991	-0.06280222	-1.698033e-06	2.304684e-06
	-5.954636e-06	2.682168e-06	0.09301981	-0.07174098	-2.359298e-06	-2.668347e-07	0.1263604	-0.06352966
	0.126427	-0.0629337	-2.306292e-06	-6.643847e-07	0.09474673	-0.07073332	-2.459773e-06	1.472326e-06
	-2.886251e-06	1.835312e-06	0.1263661	-0.06371527	-4.475132e-07	9.856474e-07	0.09313761	-0.07300487
1.6e+08	0.05125606	-0.09280763	-7.546384e-06	9.525211e-06	0.07016037	-0.09934651	-1.498624e-06	4.078566e-06
	-6.484042e-06	9.464609e-06	0.05130989	-0.09636166	-2.379242e-06	2.63473e-06	0.07014833	-0.09992237
	0.07054319	-0.09959498	-3.071489e-06	2.393779e-06	0.05325028	-0.09644623	-1.557422e-06	2.338037e-06
	-2.973983e-06	4.213892e-06	0.07002716	-0.1000595	-7.6818e-08	1.211621e-06	0.05033163	-0.09704991
1.7e+08	0.009177348	-0.07654848	-2.275695e-06	1.450502e-05	0.01166957	-0.07341099	1.937455e-07	5.030564e-06
	-7.114727e-07	1.390336e-05	0.008798759	-0.07781288	4.644928e-07	4.292892e-06	0.01164783	-0.07368884
	0.01194459	-0.07376482	-5.411881e-07	4.875219e-06	0.01010072	-0.0786583	-3.151222e-07	2.436375e-06
	-1.064566e-06	5.891193e-06	0.01148763	-0.07370316	4.693146e-07	1.185904e-06	0.007742007	-0.07715496
1.8e+08	0.003494236	-0.03313978	4.607046e-06	1.233021e-05	0.007360482	-0.01267772	1.843709e-06	3.816161e-06
	6.059784e-06	1.075061e-05	0.004884411	-0.03335225	3.498336e-06	2.175649e-06	0.007646193	-0.01295067
	0.007475508	-0.01305362	3.046921e-06	3.615303e-06	0.005491364	-0.03412789	4.444371e-07	1.505158e-06
	1.266397e-06	5.053832e-06	0.007553804	-0.01287274	8.213877e-07	5.546626e-07	0.00505263	-0.03180405
1.9e+08	0.04206197	-0.008970274	5.1897e-06	5.408584e-06	0.06024476	0.01607279	1.106303e-06	1.743997e-06
	5.754697e-06	3.121207e-06	0.04521302	-0.01062797	2.611401e-06	-1.746477e-06	0.06068106	0.01537889
	0.06025282	0.01578854	3.266963e-06	-1.941971e-07	0.04576757	-0.01106716	-2.198416e-07	6.30297e-07
	1.206766e-06	2.742599e-06	0.06068407	0.01545064	2.159745e-07	-3.363257e-08	0.04692989	-0.009621273
2e+08	0.08597438	-0.03367668	-1.124445e-06	2.384763e-06	0.1112032	-0.01993756	-1.267741e-06	1.667166e-06
	-1.697125e-06	1.687694e-07	0.08873888	-0.03802368	-1.487811e-06	-2.593773e-06	0.1113485	-0.02109511
	0.1112452	-0.02012175	-2.468779e-08	-1.811784e-06	0.08957238	-0.03859699	-1.243285e-06	1.222278e-06
	-9.972881e-07	2.082418e-06	0.1113847	-0.02109494	-5.496884e-07	4.688029e-07	0.09094597	-0.03861087
2.1e+08	0.09214619	-0.08870194	-6.984819e-06	6.974379e-06	0.1067481	-0.08470266	-2.62027e-06	3.665621e-06
	-8.302373e-06	5.46093e-06	0.09234693	-0.09468454	-4.295897e-06	5.77325e-07	0.1063548	-0.08603126
	0.106905	-0.08492203	-2.868839e-06	3.185198e-07	0.09308033	-0.09579436	-1.128953e-06	2.576266e-06
	-2.732663e-06	3.715129e-06	0.1063498	-0.08608625	-3.908206e-07	1.383652e-06	0.09362357	-0.09654539
2.2e+08	0.05203327	-0.1311942	-6.1521e-06	1.491159e-05	0.05086228	-0.1187247	-1.975688e-06	5.948579e-06
	-7.588736e-06	1.423171e-05	0.04916737	-0.1364779	-3.219852e-06	4.774547e-06	0.04996009	-0.1198766
	0.05104626	-0.1191377	-2.515863e-06	3.934289e-06	0.04925512	-0.1378962	4.588137e-08	3.517759e-06
	-2.612099e-06	6.204101e-06	0.04988922	-0.1199273	4.10731e-07	1.842811e-06	0.04899667	-0.1383117
2.3e+08	-0.006556525	-0.1280748	1.363853e-06	1.876092e-05	-0.007507469	-0.09425302	2.417543e-07	6.900419e-06
	2.727093e-07	1.861194e-05	-0.01103091	-0.1308709	1.126593e-06	6.297447e-06	-0.008656534	-0.09502283
	-0.007516879	-0.09488237	1.041637e-06	5.663217e-06	-0.0116287	-0.1318894	1.811387e-06	3.483409e-06
	-5.283629e-07	7.846947e-06	-0.008766764	-0.09502353	1.470499e-06	1.628898e-06	-0.01185618	-0.1315176
2.4e+08	-0.03707717	-0.08124846	8.723693e-06	1.393238e-05	-0.01794817	-0.03603125	2.267195e-06	5.325047e-06
	8.051289e-06	1.381971e-05	-0.04097812	-0.08161181	4.876969e-06	2.959581e-06	-0.01903153	-0.03651544
	-0.01833437	-0.03667267	4.599294e-06	3.048159e-06	-0.04148538	-0.08182734	3.21579e-06	1.93637e-06
	2.060411e-06	6.951873e-06	-0.0191425	-0.03645584	2.156386e-06	3.782977e-07	-0.04098679	-0.08112774
2.5e+08	-0.01310236	-0.03524854	7.412073e-06	4.939429e-06	0.0254204	-0.002507696	1.378177e-06	2.633054e-06
	6.818245e-06	4.5412e-06	-0.01532791	-0.03482803	3.23803e-06	-2.211381e-06	0.02444799	-0.003011757
	0.02473411	-0.002843269	3.546837e-06	-1.628689e-06	-0.01494841	-0.03495664	2.67627e-06	-1.480727e-07
	2.200801e-06	4.305852e-06	0.02436524	-0.002896892	1.234853e-06	-1.068838e-06	-0.01379253	-0.0346233
2.6e+08	0.0375483	-0.03768698	-1.557042e-06	2.493663e-06	0.07176891	-0.02768317	-1.72142e-06	2.531726e-06
	-2.503072e-06	1.93156e-06	0.03625062	-0.03805845	-2.381201e-06	-2.736412e-06	0.07063763	-0.02834739
	0.07111736	-0.02759211	-1.278851e-06	-2.462822e-06	0.03703922	-0.03931164	8.821293e-07	-5.054342e-07
	-1.246664e-07	3.437203e-06	0.07061308	-0.02819206	-4.902952e-07	-7.974474e-07	0.03839706	-0.03952323
2.7e+08	0.06030009	-0.08669342	-7.717086e-06	9.458691e-06	0.06889878	-0.08078522	-3.248399e-06	5.215205e-06
	-9.15001e-06	9.147475e-06	0.05843791	-0.0879814	-5.315285e-06	2.054998e-06	0.06736752	-0.0814291
	0.06856739	-0.08048881	-3.980156e-06	1.420968e-06	0.05810271	-0.09037728	1.126111e-07	6.653357e-07
	-1.692186e-06	5.078516e-06	0.06742777	-0.08127222	-9.252224e-07	7.062643e-07	0.05946149	-0.09099539
2.8e+08	0.03017372	-0.1375181	-4.765443e-06	1.805273e-05	0.02100293	-0.1053186	-2.083906e-06	7.769421e-06
	-6.466592e-06	1.836038e-05	0.02693659	-0.1386185	-2.765039e-06	6.919069e-06	0.01908288	-0.105612
	0.02096051	-0.1051628	-1.976072e-06	5.473809e-06	0.02466154	-0.1406258	7.391115e-07	1.718418e-06
	-1.250565e-06	7.051371e-06	0.01921916	-0.105515	2.515347e-09	1.747768e-06	0.02604431	-0.1416327
2.9e+08	-0.0317866	-0.1463102	3.959936e-06	1.977556e-05	-0.02509791	-0.07956483	3.85955e-07	8.387699e-06
	2.405309e-06	2.083974e-05	-0.03598541	-0.145985	2.695222e-06	7.439853e-06	-0.02710898	-0.07930098
	-0.02515311	-0.07971067	2.533732e-06	5.806785e-06	-0.03921413	-0.1459303	2.141254e-06	1.820782e-06
	4.390378e-07	7.86711e-06	-0.02695876	-0.07931041	1.442956e-06	1.658787e-06	-0.03792573	-0.147513
3e+08	-0.07754531	-0.1038869	9.629531e-06	1.273852e-05	-0.02913502	-0.02976724	2.165787e-06	6.658892e-06
	8.664074e-06	1.439737e-05	-0.08152307	-0.1016757	6.07963e-06	2.890036e-06	-0.03088285	-0.0290748
	-0.0295166	-0.03004259	5.15542e-06	1.754724e-06	-0.08352618	-0.09946832	3.335977e-06	4.537267e-07
	2.003592e-06	6.849994e-06	-0.03081432	-0.02916891	2.366722e-06	2.024727e-07	-0.08279891	-0.1016531
3.1e+08	-0.07086022	-0.04639367	5.403524e-06	4.058152e-06	0.008506752	-0.003167993	1.159045e-06	4.204629e-06
	5.279568e-06	5.862911e-06	-0.07358345	-0.04282768	3.442364e-06	-2.433801e-06	0.007085529	-0.002392053
	0.007771096	-0.003179137	2.375929e-06	-2.782343e-06	-0.07296209	-0.04049068	2.804108e-06	-1.624764e-06
	1.553568e-06	4.960695e-06	0.007024827	-0.00245768	1.448467e-06	-1.621522e-06	-0.07323953	-0.04272117
3.2e+08	-0.02442379	-0.02522236	-5.002163e-06	4.169672e-06	0.04587746	-0.02376964	-1.788021e-06	4.322772e-06
	-4.418512e-06	5.603878e-06	-0.02554589	-0.02122765	-2.67704e-06	-2.192117e-06	0.04455516	-0.02310078
	0.04513782	-0.02325919	-3.314045e-06	-2.059143e-06	-0.02349076	-0.0212468	8.126395e-07	-2.31401e-06
	-4.899837e-07	4.886605e-06	0.04445653	-0.02301503	-7.117487e-07	-1.699692e-06	-0.02445157	-0.02263155
3.3e+08	0.01137981	-0.05438579	-9.802552e-06	1.370843e-05	0.04187667	-0.06457122	-2.966691e-06	7.110282e-06
	-8.961223e-06	1.451307e-05	0.01161658	-0.05070983	-4.981359e-06	3.467358e-06	0.04040282	-0.06390549
	0.04155989	-0.06370213	-5.131241e-06	3.489672e-06	0.01210803	-0.05323925	-5.819684e-07	-1.32864e-06
	-1.20359e-06	6.724827e-06	0.04044443	-0.06369285	-1.804922e-06	-1.376367e-08	0.01157718	-0.05359555
3.4e+08	0.001207408	-0.09925373	-3.968389e-06	2.216599e-05	0.003321761	-0.07786548	-1.355864e-06	9.330897e-06
	-3.33913e-06	2.248399e-05	0.002331629	-0.0963118	-1.084768e-06	7.976884e-06	0.001668417	-0.07690715
	0.003528381	-0.07707833	-1.171139e-06	7.554669e-06	-0.0004278768	-0.09861907	-6.619695e-07	-8.305271e-08
	-1.061086e-08	7.892612e-06	0.001927247	-0.07675498	-1.150116e-06	1.622796e-06	0.0002619191	-0.09894861
3.5e+08	-0.04492408	-0.1144737	5.58413e-06	2.098537e-05	-0.02628063	-0.04983429	9.742545e-07	9.220284e-06
	5.808821e-06	2.125507e-05	-0.04347325	-0.1123923	4.642436e-06	6.800224e-06	-0.02781236	-0.04838444
	-0.02584062	-0.04944553	4.139864e-06	6.079885e-06	-0.0478726	-0.1114771	9.746455e-08	4.978564e-07
	1.276952e-06	7.338543e-06	-0.02746284	-0.0484748	4.229376e-07	2.025746e-06	-0.04649659	-0.1131108
3.6e+08	-0.08512728	-0.08453914	8.420138e-06	1.200421e-05	-0.01635796	-0.01073771	1.856101e-06	7.339992e-06
	8.483839e-06	1.265906e-05	-0.08389055	-0.08305514	6.406515e-06	1.196827e-06	-0.01739347	-0.008987158
	-0.01608127	-0.0106893	5.306974e-06	6.327045e-07	-0.08633712	-0.07871856	8.178071e-07	1.371462e-08
	1.164562e-06	5.856357e-06	-0.01719352	-0.009319505	1.569249e-06	9.033171e-07	-0.08587134	-0.08193972
3.7e+08	-0.08486615	-0.03631845	8.629496e-07	5.421698e-06	0.02203859	-0.0006845348	3.572165e-07	5.841843e-06
	1.316384e-06	6.51558e-06	-0.08403626	-0.03479071	2.146949e-06	-3.006082e-06	0.02152349	0.0009398471
	0.02199328	-0.0006269567	6.673285e-07	-2.96588e-06	-0.08234763	-0.03015271	5.136581e-07	-8.957708e-07
	-6.870242e-07	5.256532e-06	0.02142442	0.0005782621	1.076243e-06	-6.356813e-07	-0.08405403	-0.03358622
3.8e+08	-0.04994821	-0.01186161	-9.263704e-06	9.747736e-06	0.04831596	-0.02955314	-1.762341e-06	6.84085e-06
	-8.006349e-06	1.080274e-05	-0.04901496	-0.009633305	-3.513868e-06	-9.366302e-07	0.04801917	-0.02828253
	0.04816754	-0.02917676	-4.883328e-06	-1.327064e-07	-0.04479136	-0.008345149	-4.798113e-07	-1.038442e-06
	-2.385774e-06	6.990743e-06	0.04772198	-0.02841285	-4.729486e-07	-9.036536e-07	-0.048138	-0.009970016
3.9e+08	-0.01752579	-0.02553062	-1.033907e-05	2.129803e-05	0.03445158	-0.06527312	-1.721698e-06	9.246548e-06
	-8.418187e-06	2.161476e-05	-0.01539702	-0.02267625	-4.005839e-06	4.966597e-06	0.03406887	-0.0642682
	0.03458129	-0.06461276	-4.805798e-06	6.289482e-06	-0.01271351	-0.02522304	-1.142211e-06	-4.812156e-07
	-1.580962e-06	9.438884e-06	0.0338617	-0.06411214	-1.479679e-06	1.38546e-07	-0.01553976	-0.02433288
4e+08	-0.01550252	-0.05401797	-8.796196e-07	2.778385e-05	-0.002948873	-0.06815176	2.481334e-07	1.019443e-05
	1.019334e-06	2.69859e-05	-0.01141991	-0.05177164	9.726362e-07	7.86158e-06	-0.003507559	-0.06714402
	-0.002370069	-0.06755231	8.79569e-07	9.220659e-06	-0.0127722	-0.05480659	-1.363529e-06	1.793579e-07
	8.1514e-07	9.745238e-06	-0.003423633	-0.06692687	-1.377034e-06	1.467616e-06	-0.01321104	-0.05291171
4.1e+08	-0.03768275	-0.06475479	8.800351e-06	2.255014e-05	-0.02108502	-0.03566268	1.710851e-06	8.96534e-06
	9.890943e-06	2.092229e-05	-0.0322936	-0.06478487	5.704418e-06	4.67245e-06	-0.02160872	-0.0344535
	-0.02024427	-0.03545203	6.082733e-06	5.664225e-06	-0.03599078	-0.0644425	-1.29374e-06	7.63692e-07
	1.953444e-06	7.718266e-06	-0.02132536	-0.03446773	-3.957014e-07	2.233394e-06	-0.03431438	-0.06402573
4.2e+08	-0.05447834	-0.04865683	7.991505e-06	1.167742e-05	0.001586419	-0.004675517	1.042827e-06	7.199754e-06
	7.969068e-06	1.00349e-05	-0.04980912	-0.05160644	4.854993e-06	-1.107985e-06	0.001368733	-0.003414764
	0.002334668	-0.00488813	5.280439e-06	-5.785556e-07	-0.05158051	-0.04742743	-1.120538e-06	1.178889e-06
	3.449384e-07	5.646609e-06	0.001547788	-0.003737746	6.408361e-07	1.994032e-06	-0.05012269	-0.04962399
4.3e+08	-0.04612816	-0.02744143	-2.850997e-06	7.859531e-06	0.04224649	-0.01180037	-1.108165e-06	7.223026e-06
	-3.535948e-06	6.949942e-06	-0.0441209	-0.03196075	-9.352515e-07	-2.873956e-06	0.04229566	-0.01080604
	0.04269355	-0.01219261	-7.957735e-07	-2.549085e-06	-0.0414278	-0.027498	-8.927558e-07	1.657369e-06
	-2.783264e-06	6.187966e-06	0.04213786	-0.01121641	9.830233e-07	1.317326e-06	-0.0424645	-0.0308552
4.4e+08	-0.02424286	-0.02634418	-1.16724e-05	1.648612e-05	0.05678897	-0.05390172	-2.067973e-06	9.402215e-06
	-1.217785e-05	1.63838e-05	-0.02497123	-0.02992823	-5.082002e-06	1.636574e-06	0.0568339	-0.05328656
	0.05701425	-0.05420969	-5.213698e-06	2.189348e-06	-0.01966966	-0.02915306	-2.227989e-07	2.008451e-06
	-4.101281e-06	9.488622e-06	0.05640106	-0.05346455	8.834121e-07	8.149271e-07	-0.02314168	-0.03087153
4.5e+08	-0.0148192	-0.04421844	-8.271286e-06	2.881651e-05	0.02715376	-0.08947426	-5.757803e-07	1.119038e-05
	-8.081666e-06	2.890022e-05	-0.01620713	-0.0453459	-2.934187e-06	7.224741e-06	0.0269786	-0.08912108
	0.02738228	-0.08964908	-2.94125e-06	8.257416e-06	-0.01261009	-0.04858299	4.6102e-07	1.622289e-06
	-2.078888e-06	1.233585e-05	0.02656955	-0.08894557	4.998829e-07	4.647701e-07	-0.01603502	-0.04718718
4.6e+08	-0.02640175	-0.05789212	4.083005e-06	3.193499e-05	-0.01802219	-0.08274763	1.477892e-06	1.064238e-05
	4.750072e-06	3.144554e-05	-0.02597386	-0.05751659	2.845648e-06	7.786363e-06	-0.01846121	-0.08245616
	-0.017672	-0.08294706	3.450734e-06	9.110333e-06	-0.02641405	-0.06125866	3.864156e-07	9.676215e-07
	1.055788e-06	1.21337e-05	-0.01859033	-0.08210446	-1.178423e-07	6.110483e-07	-0.02715227	-0.05806487
4.7e+08	-0.04109591	-0.05033783	1.252713e-05	2.257526e-05	-0.03331057	-0.04184257	1.739773e-06	8.525649e-06
	1.290543e-05	2.12453e-05	-0.03834261	-0.05122603	5.861559e-06	2.778131e-06	-0.03388144	-0.0415172
	-0.03292276	-0.04222399	7.264358e-06	3.836419e-06	-0.04090941	-0.05181468	-2.276198e-07	8.178568e-07
	2.222566e-06	9.472799e-06	-0.03373939	-0.04128368	-3.489653e-07	1.288021e-06	-0.0385849	-0.04981974
4.8e+08	-0.03452186	-0.0321445	7.645181e-06	1.068842e-05	-0.003279996	-0.01124132	-4.290666e-07	7.259316e-06
	7.023571e-06	9.013146e-06	-0.03172454	-0.03636437	2.325985e-06	-2.304125e-06	-0.003925568	-0.0110102
	-0.003022794	-0.01180485	4.191822e-06	-2.074777e-06	-0.03232316	-0.03381417	-8.189945e-07	1.455182e-06
