!$
! Info: Touchstone file created by Circ.  Input file=Tx_NPC_250mm_32AWG_BPK_900mm_27AWG_BPK_250mm_32AWG_NPC_Rx.circ
!$
# Hz S RI R 50
0	0.08833097	-2.839546e-16	5.63403e-06	3.529092e-18	0.002788485	-4.338723e-16	-1.901512e-05	-5.705687e-19
	-4.122543e-05	2.270168e-18	0.03569992	-1.987013e-16	-4.69661e-05	-1.752271e-20	0.003300824	-4.472412e-16
	0.003911591	7.882152e-16	3.573367e-06	8.83984e-19	0.0652514	-1.560361e-17	-1.933514e-05	3.086029e-19
	-3.138347e-05	-1.283642e-18	0.003395581	-2.562562e-16	-2.390495e-05	1.351122e-18	0.05984993	5.133688e-16
1e+07	0.06748938	-0.004034168	1.377986e-05	-2.857584e-05	0.02330335	0.03487757	-8.185831e-06	-1.763851e-05
	-2.596275e-05	-5.468295e-06	0.06807738	-0.004711364	-3.060096e-05	-3.752376e-07	0.02320791	0.03506735
	0.02413663	0.0348328	1.228157e-05	-2.559054e-05	0.06760826	-0.003790308	-1.525332e-05	-8.809559e-06
	-1.811521e-05	-1.116664e-05	0.02324746	0.03506374	-1.794558e-05	-5.653723e-06	0.06925859	-0.005760923
2e+07	0.07033886	-0.01767776	-8.300942e-06	-3.30413e-05	0.06203249	0.0407639	-2.26744e-05	-1.479616e-05
	-3.1294e-05	3.790852e-06	0.07012523	-0.01860709	-4.831629e-05	6.84271e-06	0.06232854	0.04119838
	0.06280184	0.04034507	-2.406965e-05	-3.400799e-05	0.0706035	-0.01720232	-3.479304e-05	-5.127486e-06
	-2.773214e-05	-6.344807e-06	0.06231674	0.04114898	-3.449015e-05	-2.131266e-06	0.0702918	-0.02020396
3e+07	0.06158398	-0.03442047	-3.151621e-05	-2.606603e-05	0.08858083	0.01345814	-3.68489e-05	-4.303661e-06
	-3.667142e-05	1.502732e-05	0.0605575	-0.03504716	-5.455787e-05	3.131039e-05	0.08926614	0.0137896
	0.0893725	0.01264775	-5.134612e-05	-1.391531e-05	0.06220138	-0.03389526	-4.572237e-05	1.251768e-05
	-3.94421e-05	3.828841e-06	0.0891697	0.01372538	-4.488686e-05	1.365358e-05	0.05972071	-0.0363173
4e+07	0.04110784	-0.04229602	-5.108301e-05	-6.155194e-06	0.08152107	-0.02394923	-4.683578e-05	1.559112e-05
	-3.966703e-05	3.389387e-05	0.03967252	-0.04213256	-4.700678e-05	6.17851e-05	0.08230765	-0.0241613
	0.08209309	-0.02492371	-6.286952e-05	2.010984e-05	0.04188347	-0.04209626	-4.72827e-05	3.747624e-05
	-4.824002e-05	2.538551e-05	0.08217315	-0.02414129	-4.776018e-05	3.872103e-05	0.03832817	-0.04249109
5e+07	0.01930182	-0.0327524	-5.858053e-05	2.829544e-05	0.04665677	-0.03895651	-4.507537e-05	4.590835e-05
	-2.983682e-05	6.220948e-05	0.01805734	-0.03159871	-1.943729e-05	9.283572e-05	0.04710875	-0.03964109
	0.04696381	-0.03993249	-5.235192e-05	6.092266e-05	0.01995018	-0.03297779	-3.367722e-05	6.797476e-05
	-4.179693e-05	5.881976e-05	0.04702421	-0.03954251	-3.349364e-05	7.155539e-05	0.01698047	-0.03103697
6e+07	0.01109572	-0.008685538	-4.0238e-05	6.741459e-05	0.01377222	-0.01695489	-2.014757e-05	7.719171e-05
	4.782853e-06	8.561319e-05	0.01071639	-0.006877691	3.251101e-05	0.0001074534	0.01377313	-0.01782751
	0.0138652	-0.01798459	-1.383325e-05	9.320931e-05	0.01128509	-0.009094188	3.223253e-06	9.183938e-05
	-7.822876e-06	8.877695e-05	0.01376958	-0.01767593	7.66512e-06	9.600097e-05	0.01046722	-0.005833249
7e+07	0.02500716	0.01497975	3.585553e-06	8.848549e-05	0.01354125	0.02581938	2.604332e-05	8.820056e-05
	5.489811e-05	8.061455e-05	0.02580458	0.01673787	9.246332e-05	8.44304e-05	0.01309909	0.02506033
	0.01341848	0.02479945	4.261272e-05	9.532546e-05	0.02471122	0.01479928	5.56363e-05	8.822993e-05
	4.529376e-05	9.026744e-05	0.01319713	0.02518954	6.387034e-05	8.779183e-05	0.02646041	0.01752815
8e+07	0.05416918	0.02081965	5.161168e-05	7.842718e-05	0.05089524	0.05433498	7.161843e-05	6.801884e-05
	9.172502e-05	4.364437e-05	0.05588098	0.02173489	0.0001277633	2.613431e-05	0.0501704	0.05389202
	0.05055225	0.05335286	8.969428e-05	6.187075e-05	0.05367774	0.02117725	9.748994e-05	5.181716e-05
	8.853792e-05	5.731943e-05	0.05033143	0.05393322	0.0001039247	4.443745e-05	0.05698679	0.02171075
9e+07	0.08026727	0.002904422	8.441129e-05	4.739028e-05	0.1005333	0.04342301	9.754933e-05	2.901613e-05
	9.957067e-05	-2.135064e-06	0.08211497	0.002569084	0.0001227056	-3.816391e-05	0.09975355	0.04338601
	0.09995339	0.04250689	0.000108661	1.154541e-05	0.08002907	0.003822408	0.0001114608	1.63581e-06
	0.0001039605	1.130285e-05	0.09990844	0.0433178	0.0001108514	-8.919073e-06	0.08297526	0.001656819
1e+08	0.08700195	-0.0289155	0.0001020883	9.617961e-06	0.1271279	-0.002581482	0.0001053839	-1.257525e-05
	9.070797e-05	-3.76481e-05	0.08814004	-0.03024456	9.044356e-05	-8.428457e-05	0.1265548	-0.002294576
	0.1263132	-0.003338854	0.0001028223	-3.612449e-05	0.08736039	-0.02778105	0.0001034904	-4.365117e-05
	0.0001010632	-2.814778e-05	0.1266294	-0.002437836	9.592248e-05	-5.099611e-05	0.08820354	-0.03163229
1.1e+08	0.07008523	-0.05665555	0.000110012	-3.611574e-05	0.1113835	-0.05388897	0.0001025941	-5.677175e-05
	8.042281e-05	-6.957592e-05	0.07012102	-0.05818064	5.34221e-05	-0.0001089977	0.1111687	-0.05347395
	0.1103539	-0.05442492	8.558271e-05	-7.459246e-05	0.07106017	-0.05573009	8.857779e-05	-8.356134e-05
	9.366243e-05	-6.553596e-05	0.1111364	-0.05362125	7.881952e-05	-8.428576e-05	0.06922336	-0.05936125
1.2e+08	0.03931703	-0.0637768	9.677638e-05	-9.499007e-05	0.06351107	-0.0756345	8.142828e-05	-0.0001098329
	5.887027e-05	-0.0001117905	0.03852491	-0.06465278	1.331617e-05	-0.0001308537	0.06363023	-0.07537394
	0.06235535	-0.07585476	5.525054e-05	-0.0001154165	0.04056842	-0.06343525	5.825224e-05	-0.0001297642
	7.333819e-05	-0.0001141029	0.0635209	-0.07544653	5.119163e-05	-0.0001253901	0.03705632	-0.06498817
1.3e+08	0.01468115	-0.04512537	4.219318e-05	-0.000150827	0.01811105	-0.05241529	2.209432e-05	-0.0001580618
	1.496275e-06	-0.0001520866	0.01391288	-0.0449759	-4.708622e-05	-0.0001474565	0.01838164	-0.05248462
	0.01695557	-0.05228604	-3.747123e-06	-0.0001511327	0.01572935	-0.045339	-7.861534e-06	-0.0001662427
	1.413166e-05	-0.0001622088	0.01827638	-0.05245479	-1.123539e-05	-0.0001607358	0.01261026	-0.04424866
1.4e+08	0.0155662	-0.0133421	-4.914897e-05	-0.0001640821	0.01084707	-0.002445516	-7.1007e-05	-0.0001620062
	-8.937136e-05	-0.0001484512	0.01570748	-0.01258184	-0.0001276089	-0.000121767	0.01102521	-0.002891043
	0.009820281	-0.002006954	-8.924414e-05	-0.0001436944	0.01613749	-0.01374795	-0.000101039	-0.0001556351
	-8.344387e-05	-0.0001649906	0.01099879	-0.002800327	-0.0001031372	-0.0001504604	0.01528111	-0.01116147
1.5e+08	0.04465363	0.00622129	-0.0001311171	-0.0001145555	0.04910818	0.03307308	-0.0001501852	-0.0001023595
	-0.0001628807	-7.936989e-05	0.04596926	0.00660756	-0.0001815589	-4.101508e-05	0.04893698	0.03237727
	0.0483027	0.0337159	-0.0001559017	-7.957122e-05	0.04484569	0.006059814	-0.0001727834	-8.392463e-05
	-0.0001668812	-9.729081e-05	0.04900583	0.03244323	-0.0001743044	-7.691079e-05	0.04667485	0.007942389
1.6e+08	0.08274566	-0.004658078	-0.0001631081	-3.446265e-05	0.1038568	0.02344474	-0.0001740611	-1.444963e-05
	-0.0001737667	1.568716e-05	0.08467485	-0.005535357	-0.0001731764	5.346994e-05	0.1032129	0.02278259
	0.1032593	0.02418073	-0.0001690561	5.079674e-06	0.08291121	-0.004425931	-0.0001856936	9.836999e-06
	-0.0001866237	2.422865e-06	0.1033244	0.02275976	-0.0001833293	1.966842e-05	0.08612654	-0.004997105
1.7e+08	0.1041777	-0.04281553	-0.0001544874	3.357322e-05	0.1341841	-0.02702908	-0.0001543639	5.572098e-05
	-0.0001363311	8.381972e-05	0.105646	-0.04515214	-0.0001225806	0.0001145179	0.1331922	-0.02732576
	0.1337425	-0.02626033	-0.000143974	6.929246e-05	0.1046478	-0.04232203	-0.0001558794	8.087718e-05
	-0.0001537511	7.869292e-05	0.1332647	-0.02744173	-0.0001463344	8.975661e-05	0.1071131	-0.04563653
1.8e+08	0.09465499	-0.08831209	-0.0001354597	8.570456e-05	0.1185192	-0.08565572	-0.0001256616	0.0001039898
	-9.308479e-05	0.0001184896	0.094764	-0.0914753	-7.075224e-05	0.0001411416	0.1175072	-0.08543842
	0.1181788	-0.08484001	-0.0001126252	0.0001130212	0.09551956	-0.0878478	-0.000118304	0.0001278923
	-0.0001106952	0.0001217901	0.1174851	-0.08559335	-0.0001028526	0.000129772	0.09559447	-0.09263993
1.9e+08	0.05723269	-0.1176585	-0.0001081629	0.0001438515	0.06636556	-0.1161824	-9.284861e-05	0.0001551892
	-5.658047e-05	0.000148822	0.05579443	-0.1205689	-2.667127e-05	0.0001621963	0.06567281	-0.1155625
	0.06612877	-0.1152628	-7.64011e-05	0.0001596931	0.05837727	-0.117439	-7.607453e-05	0.0001756354
	-7.138167e-05	0.0001595413	0.06555513	-0.1156828	-6.085212e-05	0.0001668083	0.05577257	-0.1217229
2e+08	0.0104189	-0.1146875	-4.203442e-05	0.0002082619	0.01019384	-0.1009155	-2.477086e-05	0.000212735
	1.42277e-06	0.0001872158	0.008059141	-0.1164517	3.681277e-05	0.0001863613	0.01001156	-0.1001854
	0.0101434	-0.09985545	-5.597339e-06	0.0002088888	0.01167803	-0.1147887	1.206474e-06	0.0002246279
	-7.880267e-06	0.0002043503	0.009844923	-0.1002207	8.271794e-06	0.0002070852	0.007545356	-0.1169638
2.1e+08	-0.01865857	-0.08059285	7.980536e-05	0.0002316473	-0.014086	-0.05195209	9.761999e-05	0.0002297984
	0.0001047092	0.0001961024	-0.02088651	-0.08107529	0.0001369688	0.0001763471	-0.01375936	-0.0514649
	-0.01382728	-0.05079023	0.0001130325	0.0002145711	-0.01737193	-0.08097995	0.0001274911	0.0002272806
	0.0001044389	0.0002173923	-0.0139121	-0.05141271	0.0001220956	0.0002089544	-0.02115187	-0.0807654
2.2e+08	-0.01047443	-0.03892254	0.0002080395	0.0001620019	0.008441488	-0.006129752	0.0002248287	0.0001526865
	0.0002147196	0.0001239623	-0.01180569	-0.03878001	0.0002310458	8.932878e-05	0.009039332	-0.006222356
	0.009105098	-0.005021873	0.0002280016	0.0001309047	-0.009214229	-0.03963591	0.0002489005	0.0001353961
	0.0002259765	0.0001439216	0.008939686	-0.006116548	0.0002345048	0.0001248481	-0.01116127	-0.038142
2.3e+08	0.02821749	-0.02215468	0.0002601076	2.383909e-05	0.05702849	0.00080277	0.00027147	6.6457e-06
	0.000253207	-1.189213e-05	0.02775838	-0.02233591	0.0002476113	-4.741133e-05	0.05742429	6.02395e-06
	0.05806398	0.001644595	0.0002616997	-1.083367e-05	0.02931384	-0.02326165	0.0002829456	-1.828201e-05
	0.0002738422	-2.562976e-07	0.05738283	0.0001255499	0.0002675487	-1.900603e-05	0.02935993	-0.02223676
2.4e+08	0.0669347	-0.04499503	0.0002223365	-9.832986e-05	0.09047722	-0.03537908	0.0002234902	-0.0001192808
	0.0002023014	-0.0001304784	0.06665981	-0.04603627	0.0001815557	-0.0001539158	0.0901857	-0.03660053
	0.09171286	-0.03495444	0.0002090648	-0.0001266769	0.06761039	-0.04644468	0.0002231615	-0.0001438002
	0.0002257894	-0.0001308403	0.09018906	-0.03649033	0.0002113644	-0.0001386738	0.06856352	-0.04708832
2.5e+08	0.07617591	-0.0935837	0.0001531221	-0.0001662861	0.0823763	-0.0851666	0.0001439833	-0.0001839576
	0.0001182924	-0.0001890085	0.07529353	-0.09532013	9.4104e-05	-0.0001979485	0.08125802	-0.08622602
	0.08358889	-0.08517315	0.0001318183	-0.0001848293	0.07622277	-0.09508344	0.0001357341	-0.0002051798
	0.0001382419	-0.0002000134	0.08129449	-0.08613463	0.0001270351	-0.0001974843	0.07660689	-0.0974399
2.6e+08	0.04682743	-0.1386219	8.933497e-05	-0.0002097494	0.03941155	-0.1125699	7.480264e-05	-0.0002198161
	4.402274e-05	-0.000213189	0.0449442	-0.1404093	2.261139e-05	-0.0002127774	0.03779265	-0.1129546
	0.04044009	-0.112885	6.392605e-05	-0.0002190388	0.04628977	-0.1397243	5.958414e-05	-0.0002376615
	5.709029e-05	-0.0002313145	0.03785506	-0.1128915	5.29318e-05	-0.0002271087	0.04514642	-0.1428837
2.7e+08	-0.007748658	-0.1536503	9.087481e-06	-0.0002545797	-0.009212552	-0.1009257	-5.7706e-06	-0.0002578445
	-3.385677e-05	-0.0002327296	-0.01045243	-0.1547724	-5.30157e-05	-0.0002267454	-0.01073647	-0.1004965
	-0.008412712	-0.1013861	-1.904029e-05	-0.0002537579	-0.008423739	-0.1540066	-2.915965e-05	-0.0002694096
	-2.91078e-05	-0.0002551317	-0.01066385	-0.1004765	-3.175143e-05	-0.0002545984	-0.01120327	-0.1567784
2.8e+08	-0.05897078	-0.1284405	-0.0001197614	-0.00027066	-0.03342841	-0.06006425	-0.0001338189	-0.0002699253
	-0.0001444535	-0.0002283256	-0.06187999	-0.1285349	-0.0001619624	-0.0002151946	-0.03432047	-0.05912841
	-0.0327867	-0.06054448	-0.0001468842	-0.0002565895	-0.05910573	-0.1281644	-0.0001627999	-0.0002688592
	-0.0001499241	-0.0002523594	-0.03427263	-0.05915581	-0.0001567393	-0.0002515886	-0.06288227	-0.1296469
2.9e+08	-0.07781737	-0.07700911	-0.0002708084	-0.0001960198	-0.02037192	-0.01817374	-0.0002854251	-0.0001911422
	-0.0002684002	-0.0001487536	-0.08028037	-0.07625466	-0.0002791835	-0.0001264865	-0.02043119	-0.0173541
	-0.0197647	-0.01865664	-0.0002884218	-0.000168557	-0.07697654	-0.0768209	-0.0003108109	-0.0001740597
	-0.000285861	-0.0001693443	-0.02044889	-0.01739611	-0.0002937468	-0.0001614556	-0.08076862	-0.07673476
3e+08	-0.05495178	-0.03229418	-0.0003538043	-2.261488e-05	0.01693425	-0.003884129	-0.0003673467	-1.053667e-05
	-0.0003291888	1.281007e-05	-0.05668457	-0.03122178	-0.0003259878	3.906924e-05	0.01739589	-0.003833016
	0.01758096	-0.00447123	-0.000354073	1.031936e-05	-0.05350029	-0.03315471	-0.0003792416	1.701888e-05
	-0.000356388	2.964066e-06	0.01731259	-0.00381645	-0.0003564478	1.688284e-05	-0.05640146	-0.03184848
3.1e+08	-0.01051278	-0.02322156	-0.000310681	0.0001640959	0.04722039	-0.02481929	-0.0003171623	0.0001833773
	-0.0002771007	0.0001812072	-0.01169174	-0.02228598	-0.000259767	0.0002006508	0.0474396	-0.02579882
	0.0478525	-0.02565213	-0.0002944472	0.0001906791	-0.009581921	-0.0254879	-0.0003136277	0.0002105901
	-0.0003063271	0.0001866551	0.04736397	-0.02566714	-0.00029569	0.0001969625	-0.01112898	-0.02374716
3.2e+08	0.02086977	-0.05206765	-0.0001860236	0.0002774925	0.04603764	-0.06003267	-0.0001812403	0.0002977354
	-0.0001527051	0.0002798843	0.01994347	-0.05139068	-0.0001296989	0.000285776	0.04523041	-0.06162619
	0.04647333	-0.06116976	-0.0001615853	0.0002913465	0.02014243	-0.0549946	-0.00016783	0.0003180267
	-0.0001753626	0.0002987814	0.04527377	-0.06140661	-0.0001614151	0.0002983366	0.01988226	-0.05368462
3.3e+08	0.01653033	-0.09482855	-5.326936e-05	0.0003173987	0.016537	-0.07858244	-3.979778e-05	0.0003314532
	-2.20973e-05	0.0003086989	0.01569325	-0.09434283	-2.409472e-06	0.0003028653	0.0144689	-0.07987816
	0.01657903	-0.07992578	-2.795729e-05	0.0003195502	0.01396211	-0.09694464	-2.136015e-05	0.0003445985
	-3.34795e-05	0.0003353884	0.01468882	-0.07968947	-2.532889e-05	0.0003268617	0.01444604	-0.09670608
3.4e+08	-0.02065343	-0.1204006	7.393737e-05	0.000322046	-0.0158391	-0.06601354	9.004443e-05	0.0003280511
	0.0001013828	0.0003011918	-0.02143988	-0.1200704	0.0001143146	0.0002892087	-0.01864772	-0.06620291
	-0.01628574	-0.06734468	9.746847e-05	0.0003149278	-0.02402185	-0.1205015	0.0001126802	0.0003340462
	0.0001024927	0.0003303623	-0.01830595	-0.06618211	0.0001028875	0.0003214595	-0.02361154	-0.1215499
3.5e+08	-0.0666383	-0.1105921	0.0002174429	0.0002869137	-0.02595584	-0.03319845	0.0002330054	0.0002873688
	0.0002344784	0.0002530372	-0.06743066	-0.1104425	0.0002411455	0.0002383842	-0.02856638	-0.03210191
	-0.02683538	-0.03428033	0.0002373229	0.0002702788	-0.06910249	-0.1086209	0.0002582583	0.0002828217
	0.0002485094	0.0002801298	-0.02825288	-0.03231104	0.0002454368	0.0002749832	-0.06960741	-0.1106238
3.6e+08	-0.09219797	-0.07107742	0.0003586078	0.0001693853	-0.006998	-0.005348884	0.000374293	0.0001654015
	0.0003564314	0.0001285981	-0.09312887	-0.07109739	0.000356599	0.0001125401	-0.008644287	-0.003498344
	-0.008124814	-0.006029539	0.0003694528	0.000143323	-0.09250327	-0.06834195	0.0003954943	0.0001477872
	0.0003828952	0.0001476677	-0.008523029	-0.003867813	0.0003799272	0.0001448825	-0.09439532	-0.07043406
3.7e+08	-0.0827698	-0.02747671	0.0004221942	-3.45559e-05	0.02599631	-0.0033126	0.0004373886	-4.538538e-05
	0.0003982691	-6.905184e-05	-0.08397652	-0.02752696	0.0003906187	-8.360025e-05	0.02547748	-0.001608032
	0.02484261	-0.003579382	0.0004177129	-6.406397e-05	-0.08109002	-0.02590257	0.0004463347	-7.181775e-05
	0.0004326089	-6.484168e-05	0.02533714	-0.001956751	0.0004292806	-6.7195e-05	-0.08412467	-0.02700639
3.8e+08	-0.04873035	-0.006592516	0.0003534722	-0.0002479771	0.04699136	-0.02816931	0.0003631079	-0.0002668953
	0.0003159947	-0.0002643295	-0.0502134	-0.006390877	0.0003020962	-0.0002725612	0.04707813	-0.02735474
	0.04597009	-0.02813894	0.0003337755	-0.0002704079	-0.04675934	-0.007324239	0.0003575385	-0.0002927372
	0.0003488818	-0.0002780675	0.04676937	-0.02749657	0.0003440362	-0.0002790219	-0.04990323	-0.006769638
3.9e+08	-0.01607621	-0.01651875	0.0001869989	-0.0003813924	0.03926365	-0.05925002	0.0001856802	-0.00040392
	0.0001490399	-0.000377264	-0.01753919	-0.01580547	0.0001341136	-0.0003769056	0.03905	-0.05946279
	0.03840357	-0.05908309	0.0001598819	-0.0003896442	-0.01585409	-0.01891217	0.0001703146	-0.0004224573
	0.0001711981	-0.0004052247	0.03878417	-0.05934316	0.000166069	-0.0004031697	-0.01777683	-0.0169696
4e+08	-0.005628858	-0.04304621	-1.841678e-06	-0.0004170024	0.01000044	-0.07065901	-1.409313e-05	-0.0004357139
	-3.15278e-05	-0.0003978675	-0.006548371	-0.04191355	-4.281007e-05	-0.000391044	0.008764732	-0.07131633
	0.009219099	-0.07045043	-2.741303e-05	-0.000411386	-0.007952159	-0.04500862	-3.411154e-05	-0.0004459995
	-2.462019e-05	-0.0004326368	0.008725075	-0.07106514	-2.786567e-05	-0.000427927	-0.007812991	-0.04292267
4.1e+08	-0.01906882	-0.06297589	-0.000180018	-0.0003830522	-0.01556407	-0.05324421	-0.0001984998	-0.000393639
	-0.0001986434	-0.0003547462	-0.01911631	-0.06201025	-0.000204966	-0.000344939	-0.01786242	-0.05342042
	-0.01637096	-0.05297637	-0.0001991289	-0.0003676911	-0.02275373	-0.06251262	-0.0002212841	-0.0003956626
	-0.0002076928	-0.0003896128	-0.01765718	-0.05326385	-0.00020805	-0.000383746	-0.02086576	-0.06189
4.2e+08	-0.04013376	-0.06179943	-0.000346517	-0.0002811212	-0.01525027	-0.02195556	-0.0003669568	-0.0002834263
	-0.0003522961	-0.0002470082	-0.0395976	-0.06176717	-0.0003540457	-0.0002361153	-0.01796396	-0.0210209
	-0.01611456	-0.02152236	-0.0003570801	-0.0002594201	-0.04279584	-0.05852979	-0.0003899957	-0.0002747765
	-0.0003770025	-0.0002757237	-0.01767606	-0.02112311	-0.0003741156	-0.0002700136	-0.04062829	-0.06037797
4.3e+08	-0.04847108	-0.04401007	-0.0004653908	-9.05627e-05	0.01241237	-0.003671257	-0.0004856828	-8.479655e-05
	-0.0004547935	-5.53596e-05	-0.0482221	-0.04524721	-0.0004515056	-4.459303e-05	0.01014032	-0.001675817
	0.01156564	-0.002966494	-0.0004649217	-6.573003e-05	-0.04822271	-0.03959825	-0.0005022608	-6.470534e-05
	-0.0004924737	-6.997606e-05	0.0102765	-0.002021027	-0.0004860889	-6.63309e-05	-0.04764245	-0.04354704
4.4e+08	-0.03677399	-0.02844088	-0.0004643176	0.000157802	0.04652494	-0.01640201	-0.0004814204	0.0001724117
	-0.000436233	0.0001845718	-0.03774537	-0.03050353	-0.0004276623	0.0001923129	0.04521437	-0.01395345
	0.04584479	-0.01539541	-0.0004511581	0.0001796718	-0.03371186	-0.0254822	-0.0004848666	0.0001981277
	-0.000478102	0.000191059	0.04505334	-0.01435155	-0.0004698209	0.0001898356	-0.03579588	-0.02986554
4.5e+08	-0.01672092	-0.03083526	-0.0003218981	0.0003643768	0.05913068	-0.05434098	-0.0003308445	0.0003862193
	-0.0002834626	0.0003725429	-0.01927707	-0.03267124	-0.0002723654	0.0003741767	0.05872362	-0.0521773
	0.05876699	-0.05310545	-0.0002994941	0.0003760157	-0.01296676	-0.03090503	-0.0003213318	0.0004083881
	-0.0003165088	0.0003997252	0.05831111	-0.0523914	-0.0003107362	0.0003929009	-0.01725601	-0.03374744
4.6e+08	-0.007251643	-0.04972815	-0.0001102777	0.0004543001	0.03756558	-0.09094776	-0.0001080342	0.0004779592
	-7.479844e-05	0.0004415642	-0.01086036	-0.05027581	-6.550294e-05	0.0004372541	0.0375396	-0.0895101
	0.03759942	-0.08963314	-8.636969e-05	0.0004528654	-0.005367485	-0.05211293	-9.153326e-05	0.0004917913
	-8.97317e-05	0.0004804652	0.03708067	-0.08941779	-8.999361e-05	0.0004718006	-0.01010238	-0.05238878
4.7e+08	-0.01731778	-0.06886416	8.853652e-05	0.0004439973	-0.004633477	-0.09970416	0.0001005775	0.0004638673
	0.00011086	0.0004177719	-0.02078787	-0.06775483	0.0001160737	0.0004103031	-0.004892362	-0.09892468
	-0.004207564	-0.09846986	0.0001073894	0.0004321651	-0.01829907	-0.07111046	0.0001195459	0.000470185
	0.0001151238	0.000457579	-0.005178726	-0.09859211	0.0001102234	0.0004519213	-0.02151863	-0.06937943
4.8e+08	-0.0385968	-0.07144479	0.000262125	0.0003790355	-0.03824786	-0.07472184	0.0002808563	0.0003925595
	0.0002697752	0.0003492532	-0.04080281	-0.06933994	0.0002709563	0.0003408986	-0.03905229	-0.07417022
