!$
! Info: Touchstone file created by Circ.  Input file=Tx_NPC_250mm_32AWG_BPK_100mm_27AWG_BPK_250mm_32AWG_NPC_Rx.circ
!$
# Hz S RI R 50
0	0.01191458	1.7065e-16	3.862276e-06	5.890647e-20	0.002534771	3.681589e-16	-1.728045e-06	3.793487e-21
	-4.742538e-07	-2.688343e-20	0.01272697	-2.117958e-16	4.453969e-06	4.606162e-20	0.002573747	-4.583924e-16
	0.003811689	7.415448e-16	6.073732e-06	2.71353e-19	0.034383	-3.404551e-16	-7.696618e-07	-7.58541e-21
	-1.10741e-06	3.460786e-21	0.002682354	-2.626335e-16	7.793236e-06	-1.497194e-19	0.03767701	4.539912e-16
1e+07	0.04444846	0.006096945	3.714468e-06	-8.21271e-07	0.009824184	0.02315871	-1.704005e-06	4.72959e-07
	-3.021013e-07	5.109766e-07	0.04542374	0.005968833	4.109743e-06	-1.233953e-06	0.01009562	0.02303001
	0.01077105	0.02300966	5.867177e-06	-1.350147e-06	0.0437222	0.006266957	-7.838713e-07	2.352369e-07
	-9.514791e-07	6.198218e-07	0.01014109	0.02305238	7.379215e-06	-2.268494e-06	0.04697917	0.005449366
2e+07	0.0520395	0.007418486	3.355541e-06	-1.580202e-06	0.02663928	0.04134655	-1.618477e-06	9.502019e-07
	-1.126515e-08	9.023633e-07	0.05302468	0.007066336	3.395837e-06	-2.293467e-06	0.02686024	0.04122683
	0.02744297	0.04072026	5.244446e-06	-2.576271e-06	0.0513011	0.00775866	-8.001012e-07	4.914825e-07
	-6.281887e-07	1.135248e-06	0.02690344	0.0412047	6.227825e-06	-4.249004e-06	0.05431391	0.006034422
3e+07	0.06024342	0.003973989	2.780088e-06	-2.221601e-06	0.0497225	0.04971548	-1.459717e-06	1.434426e-06
	3.738875e-07	1.117566e-06	0.06112595	0.003372314	2.305747e-06	-3.043848e-06	0.04981232	0.04956406
	0.05043596	0.04857831	4.262576e-06	-3.584438e-06	0.05956039	0.00451359	-8.130422e-07	7.710189e-07
	-1.643507e-07	1.485891e-06	0.04987652	0.04948067	4.485116e-06	-5.736206e-06	0.06203696	0.001987865
4e+07	0.06695316	-0.003710613	2.01899e-06	-2.687733e-06	0.07480185	0.04565654	-1.207737e-06	1.908957e-06
	7.555092e-07	1.145741e-06	0.06763722	-0.004549841	9.561989e-07	-3.391534e-06	0.07479501	0.0454607
	0.07512548	0.04431945	2.989572e-06	-4.29026e-06	0.06640036	-0.003000539	-8.101068e-07	1.07192e-06
	3.614058e-07	1.631029e-06	0.07483696	0.04535757	2.348975e-06	-6.5859e-06	0.06807708	-0.006108762
5e+07	0.07044915	-0.01421644	1.128685e-06	-2.93722e-06	0.0957006	0.03079615	-8.449901e-07	2.339227e-06
	1.059255e-06	1.010417e-06	0.07081298	-0.01520177	-5.055814e-07	-3.299421e-06	0.09560551	0.03052309
	0.09559188	0.02951303	1.517985e-06	-4.628585e-06	0.07008499	-0.01335315	-7.795311e-07	1.394052e-06
	8.714882e-07	1.563598e-06	0.0956212	0.03042813	4.372285e-08	-6.724461e-06	0.07079486	-0.01682792
6e+07	0.06982385	-0.02624698	1.674307e-07	-2.938231e-06	0.1081687	0.007951198	-3.780449e-07	2.68271e-06
	1.225485e-06	7.66509e-07	0.06981118	-0.02725054	-1.947638e-06	-2.723613e-06	0.1079363	0.007633715
	0.1076434	0.006720573	-5.341331e-08	-4.558742e-06	0.0696897	-0.02532212	-7.125062e-07	1.725315e-06
	1.285471e-06	1.301217e-06	0.1079189	0.007529353	-2.208222e-06	-6.164523e-06	0.06936135	-0.02876138
7e+07	0.06486075	-0.03762411	-7.937128e-07	-2.683674e-06	0.1096169	-0.01807551	1.688162e-07	2.891096e-06
	1.226695e-06	4.812276e-07	0.06445488	-0.0384911	-3.228708e-06	-1.724063e-06	0.1092282	-0.01837903
	0.1087343	-0.01907768	-1.61425e-06	-4.07017e-06	0.06496521	-0.03670655	-6.051733e-07	2.057399e-06
	1.534045e-06	8.894384e-07	0.1091817	-0.01847471	-4.212376e-06	-4.964994e-06	0.06365151	-0.03978843
8e+07	0.05601427	-0.04671365	-1.687963e-06	-2.178258e-06	0.09979708	-0.04210218	7.442287e-07	2.934964e-06
	1.064194e-06	2.285828e-07	0.05527946	-0.04727046	-4.230925e-06	-3.512034e-07	0.09926067	-0.04231667
	0.09864213	-0.04277862	-3.057269e-06	-3.172571e-06	0.05634172	-0.04587767	-4.585866e-07	2.381228e-06
	1.564421e-06	4.007641e-07	0.0991851	-0.04239303	-5.808678e-06	-3.237758e-06	0.05421213	-0.04828699
9e+07	0.0443753	-0.05201172	-2.447551e-06	-1.444183e-06	0.08075121	-0.05931428	1.287396e-06	2.81002e-06
	7.713218e-07	7.407581e-08	0.04345775	-0.05211766	-4.850099e-06	1.308495e-06	0.08011291	-0.05936797
	0.07942062	-0.05960834	-4.27471e-06	-1.901929e-06	0.0448767	-0.05131886	-2.724018e-07	2.694081e-06
	1.354345e-06	-7.172575e-08	0.0800132	-0.05941651	-6.874548e-06	-1.118387e-06	0.04222337	-0.05280489
1e+08	0.03173229	-0.05238008	-3.00852e-06	-5.260855e-07	0.0565078	-0.06620604	1.741866e-06	2.536634e-06
	4.086839e-07	6.017947e-08	0.03082732	-0.05196698	-5.009437e-06	3.128342e-06	0.05584706	-0.06606424
	0.05515359	-0.06606876	-5.163151e-06	-3.25131e-07	0.03233979	-0.05185947	-3.859811e-08	2.993634e-06
	9.246622e-07	-4.274937e-07	0.05573822	-0.06607631	-7.318037e-06	1.236745e-06	0.02952312	-0.05230396
1.1e+08	0.02005653	-0.04755381	-3.315707e-06	5.164478e-07	0.0322216	-0.06143338	2.069847e-06	2.16143e-06
	4.990791e-08	1.97099e-07	0.01941649	-0.04662982	-4.648778e-06	4.978185e-06	0.03162213	-0.06109156
	0.03094335	-0.06088037	-5.632132e-06	1.462318e-06	0.0207147	-0.047203	2.545263e-07	3.269565e-06
	3.417764e-07	-5.807338e-07	0.03151394	-0.06106371	-7.089869e-06	3.644469e-06	0.01812582	-0.04662028
1.2e+08	0.01175127	-0.0380531	-3.339485e-06	1.591029e-06	0.01330871	-0.04609822	2.25364e-06	1.727723e-06
	-2.35176e-07	4.497221e-07	0.01159176	-0.03675622	-3.770925e-06	6.675397e-06	0.01285578	-0.04558716
	0.01225072	-0.04516939	-5.623736e-06	3.320429e-06	0.01240844	-0.03785112	6.212612e-07	3.495912e-06
	-2.936408e-07	-4.859802e-07	0.01276582	-0.04552205	-6.179586e-06	5.905406e-06	0.01040802	-0.03641971
1.3e+08	0.008737313	-0.02544987	-3.083104e-06	2.599533e-06	0.004124925	-0.02369647	2.294656e-06	1.28033e-06
	-4.077006e-07	7.535184e-07	0.009214581	-0.02400498	-2.428398e-06	8.046331e-06	0.003892451	-0.02308556
	0.00339404	-0.02247647	-5.128153e-06	5.089678e-06	0.009366843	-0.02535816	1.060031e-06	3.631349e-06
	-8.719891e-07	-1.509001e-07	0.003834518	-0.02299321	-4.64559e-06	7.807605e-06	0.008212246	-0.02337766
1.4e+08	0.01226298	-0.01215304	-2.593131e-06	3.449003e-06	0.007017177	0.0005801733	2.204241e-06	8.544351e-07
	-4.745718e-07	1.033374e-06	0.01342637	-0.01084746	-7.459826e-07	8.934092e-06	0.007046234	0.0011894
	0.006685956	0.001980158	-4.200423e-06	6.609538e-06	0.01286428	-0.01212911	1.544936e-06	3.630592e-06
	-1.303959e-06	3.69448e-07	0.007028519	0.001294319	-2.61753e-06	9.156698e-06	0.01267126	-0.009975766
1.5e+08	0.02250194	-0.00111092	-1.95344e-06	4.076231e-06	0.02170025	0.02094075	1.998202e-06	4.780734e-07
	-4.870512e-07	1.234437e-06	0.02425863	-0.0002386242	1.085361e-06	9.236799e-06	0.02198101	0.02143178
	0.02181296	0.02237731	-2.957563e-06	7.751627e-06	0.02310002	-0.001118159	2.024729e-06	3.460272e-06
	-1.538741e-06	9.920178e-07	0.0220047	0.02153011	-2.91875e-07	9.805583e-06	0.02382049	0.0008179929
1.6e+08	0.03819736	0.004922507	-1.255983e-06	4.460669e-06	0.0452163	0.03237035	1.704115e-06	1.723042e-07
	-5.140114e-07	1.344144e-06	0.04035211	0.005127622	2.861275e-06	8.932013e-06	0.04569445	0.03263659
	0.04575592	0.03371778	-1.551146e-06	8.444552e-06	0.03883895	0.00488366	2.430941e-06	3.113112e-06
	-1.568438e-06	1.625822e-06	0.04575225	0.0327135	2.083358e-06	9.686723e-06	0.04027333	0.006295376
1.7e+08	0.05706559	0.003737468	-5.904585e-07	4.623309e-06	0.07263763	0.03171703	1.347221e-06	-5.464437e-08
	-6.210808e-07	1.394071e-06	0.05931972	0.003143245	4.370827e-06	8.08121e-06	0.07321396	0.03168207
	0.07355496	0.03284034	-1.447999e-07	8.682847e-06	0.05779496	0.00364265	2.697253e-06	2.610228e-06
	-1.418765e-06	2.194927e-06	0.07329192	0.03172555	4.257798e-06	8.817694e-06	0.0596442	0.004328458
1.8e+08	0.07600994	-0.005641915	-1.707016e-08	4.609484e-06	0.09819283	0.01845957	9.533274e-07	-2.109176e-07
	-8.413206e-07	1.443577e-06	0.07804217	-0.007034627	5.457027e-06	6.808564e-06	0.09874599	0.01808973
	0.09939765	0.01925796	1.121057e-06	8.515559e-06	0.0768563	-0.005852968	2.766621e-06	1.9963e-06
	-1.141528e-06	2.640456e-06	0.09882712	0.01809658	5.998516e-06	7.301631e-06	0.07878626	-0.005937925
1.9e+08	0.09179352	-0.02291111	4.280514e-07	4.474173e-06	0.1165722	-0.00531475	5.290498e-07	-3.160725e-07
	-1.17418e-06	1.559517e-06	0.09331138	-0.02497344	6.016809e-06	5.275949e-06	0.1169764	-0.006006421
	0.1179512	-0.004905786	2.139085e-06	8.029448e-06	0.09274854	-0.0233212	2.597388e-06	1.332035e-06
	-8.059236e-07	2.929953e-06	0.117045	-0.006031044	7.120234e-06	5.306171e-06	0.09445913	-0.02408068
2e+08	0.1015106	-0.04658428	7.286427e-07	4.274624e-06	0.1240149	-0.0354805	5.550285e-08	-3.826658e-07
	-1.590554e-06	1.802001e-06	0.1022905	-0.04907971	6.002876e-06	3.663418e-06	0.1241536	-0.03643573
	0.1254382	-0.03549296	2.839555e-06	7.333891e-06	0.1025244	-0.04727333	2.163671e-06	6.912298e-07
	-4.897372e-07	3.063483e-06	0.1241981	-0.03648079	7.496149e-06	3.045104e-06	0.103797	-0.04850931
2.1e+08	0.1030339	-0.07415269	8.853043e-07	4.063315e-06	0.1189925	-0.06682735	-5.011123e-07	-4.005899e-07
	-2.040247e-06	2.214622e-06	0.1029759	-0.0767898	5.422768e-06	2.143383e-06	0.1187749	-0.06795102
	0.1203407	-0.06724367	3.191304e-06	6.546365e-06	0.1040085	-0.07518575	1.458199e-06	1.642934e-07
	-2.698368e-07	3.080176e-06	0.1187925	-0.06800132	7.066846e-06	7.704428e-07	0.1047538	-0.07663798
2.2e+08	0.09516446	-0.1025486	9.156518e-07	3.896625e-06	0.1022897	-0.09414961	-1.17096e-06	-3.160858e-07
	-2.455536e-06	2.828126e-06	0.09427734	-0.1050158	4.330377e-06	8.894567e-07	0.1016604	-0.09531551
	0.1034469	-0.09492533	3.202375e-06	5.790253e-06	0.09597407	-0.1039464	5.063771e-07	-1.480348e-07
	-1.912874e-07	3.058177e-06	0.1016546	-0.09535773	5.851278e-06	-1.255804e-06	0.09621665	-0.1053652
2.3e+08	0.07787162	-0.128366	8.599613e-07	3.819808e-06	0.07673004	-0.1131906	-1.946663e-06	-4.708725e-08
	-2.752014e-06	3.64857e-06	0.07628409	-0.1303898	2.830145e-06	4.98916e-08	0.07567987	-0.114254
	0.07760532	-0.1142489	2.923762e-06	5.176865e-06	0.07837391	-0.1300945	-6.232153e-07	-1.423663e-07
	-2.534024e-07	3.098456e-06	0.07566126	-0.1142792	3.958137e-06	-2.772905e-06	0.07824721	-0.131284
2.4e+08	0.05231258	-0.1482694	7.808916e-07	3.858773e-06	0.04650044	-0.1213124	-2.763739e-06	4.95142e-07
	-2.83187e-06	4.648869e-06	0.05024232	-0.1496534	1.07459e-06	-2.600561e-07	0.04507589	-0.1221284
	0.04703118	-0.1225562	2.447922e-06	4.791069e-06	0.05237609	-0.1502314	-1.810421e-06	2.61284e-07
	-3.915797e-07	3.294394e-06	0.04505776	-0.1221349	1.588557e-06	-3.561128e-06	0.05207912	-0.1510926
2.5e+08	0.02083585	-0.1593868	7.543325e-07	4.004197e-06	0.0163586	-0.117829	-3.497208e-06	1.366918e-06
	-2.59735e-06	5.754829e-06	0.0185492	-0.1600284	-7.42885e-07	2.024429e-08	0.01466342	-0.1182719
	0.0165093	-0.1191469	1.897925e-06	4.670273e-06	0.02037207	-0.161439	-2.892857e-06	1.089568e-06
	-4.85106e-07	3.692109e-06	0.01465667	-0.1182658	-9.77205e-07	-3.479853e-06	0.02011095	-0.1619818
2.6e+08	-0.01310612	-0.1597837	8.447666e-07	4.200199e-06	-0.009177901	-0.104012	-3.987682e-06	2.551664e-06
	-1.978442e-06	6.8372e-06	-0.0153334	-0.1597078	-2.415056e-06	8.724073e-07	-0.01099111	-0.1040055
	-0.009402247	-0.1052935	1.40005e-06	4.787188e-06	-0.01412846	-0.1617375	-3.692046e-06	2.293455e-06
	-3.905154e-07	4.263794e-06	-0.01097951	-0.1039994	-3.407069e-06	-2.501968e-06	-0.01418323	-0.1620802
2.7e+08	-0.04538254	-0.148906	1.081844e-06	4.354855e-06	-0.02656177	-0.08276379	-4.080491e-06	3.948034e-06
	-9.620859e-07	7.723504e-06	-0.04731703	-0.1482262	-3.748757e-06	2.198404e-06	-0.02831436	-0.08229948
	-0.02712935	-0.08390049	1.051598e-06	5.052841e-06	-0.04691661	-0.1505728	-4.05856e-06	3.73498e-06
	1.524816e-08	4.887061e-06	-0.02828779	-0.08230771	-5.378733e-06	-7.353816e-07	-0.04668926	-0.1508978
2.8e+08	-0.07170836	-0.127926	1.432736e-06	4.361285e-06	-0.03375349	-0.05812993	-3.681735e-06	5.373624e-06
	3.761486e-07	8.227434e-06	-0.07319549	-0.1268389	-4.611624e-06	3.82706e-06	-0.03527475	-0.05727958
	-0.03459986	-0.05903126	8.826228e-07	5.336743e-06	-0.07363222	-0.1291404	-3.916451e-06	5.210326e-06
	7.774433e-07	5.372571e-06	-0.03524499	-0.05731358	-6.63169e-06	1.585898e-06	-0.07315815	-0.1296488
2.9e+08	-0.08846641	-0.09978257	1.799611e-06	4.139267e-06	-0.03055034	-0.03459111	-2.794651e-06	6.608032e-06
	1.865632e-06	8.199302e-06	-0.08945687	-0.09851739	-4.958172e-06	5.552304e-06	-0.03171596	-0.03349749
	-0.03158737	-0.03519161	8.398926e-07	5.512428e-06	-0.09060131	-0.1004413	-3.297345e-06	6.492608e-06
	1.828486e-06	5.5077e-06	-0.03170152	-0.03356055	-7.025907e-06	4.141625e-06	-0.0900267	-0.1012892
3e+08	-0.09350544	-0.06881169	2.04171e-06	3.673638e-06	-0.01863509	-0.01628579	-1.530275e-06	7.448993e-06
	3.264097e-06	7.578597e-06	-0.09405098	-0.06757279	-4.834751e-06	7.180919e-06	-0.01939706	-0.01513338
	-0.01975898	-0.01654846	7.998335e-07	5.508136e-06	-0.09564123	-0.06889086	-2.342972e-06	7.393345e-06
	2.980855e-06	5.123841e-06	-0.0194177	-0.01521596	-6.567496e-06	6.590082e-06	-0.09518633	-0.07013168
3.1e+08	-0.08671499	-0.03999816	2.017108e-06	3.034467e-06	-0.001315315	-0.006230953	-8.808188e-08	7.767341e-06
	4.308987e-06	6.4296e-06	-0.08696005	-0.03893008	-4.360904e-06	8.57633e-06	-0.001715621	-0.005206325
	-0.00241943	-0.006159128	6.116335e-07	5.343336e-06	-0.08865249	-0.03956132	-1.267636e-06	7.817696e-06
	3.965849e-06	4.165687e-06	-0.001785607	-0.005289136	-5.398677e-06	8.632932e-06	-0.08855536	-0.04112187
3.2e+08	-0.07017926	-0.01792125	1.638276e-06	2.364847e-06	0.01712767	-0.005659558	1.298615e-06	7.538251e-06
	4.790607e-06	4.937261e-06	-0.07029125	-0.01706107	-3.679342e-06	9.677771e-06	0.01696955	-0.004907528
	0.0161432	-0.005286321	1.588024e-07	5.127984e-06	-0.07177128	-0.01710794	-3.039528e-07	7.787915e-06
	4.493464e-06	2.717e-06	0.01684875	-0.004961543	-3.756982e-06	1.007332e-05	-0.07220748	-0.01878262
3.3e+08	-0.04778244	-0.005792985	8.99939e-07	1.841196e-06	0.03231992	-0.01372304	2.410883e-06	6.844253e-06
	4.604301e-06	3.369164e-06	-0.04791017	-0.005079676	-2.92161e-06	1.049432e-05	0.03223409	-0.01331759
	0.03153429	-0.01311254	-5.955923e-07	5.028504e-06	-0.04896047	-0.004783217	3.645392e-07	7.433112e-06
	4.335853e-06	1.005413e-06	0.03207661	-0.01331436	-1.918943e-06	1.083225e-05	-0.04998508	-0.006283022
3.4e+08	-0.02435763	-0.004763078	-1.154847e-07	1.623651e-06	0.04083102	-0.02765688	3.091685e-06	5.851572e-06
	3.777107e-06	2.010143e-06	-0.02457389	-0.004064004	-2.179712e-06	1.107821e-05	0.04063535	-0.02758827
	0.04029492	-0.02689221	-1.592762e-06	5.212794e-06	-0.02513786	-0.003738097	6.421755e-07	6.94745e-06
	3.385819e-06	-6.458211e-07	0.04047026	-0.02750773	-1.460022e-07	1.094606e-05	-0.02664906	-0.004760714
3.5e+08	-0.004636826	-0.0137527	-1.261311e-06	1.817746e-06	0.04097634	-0.0434611	3.272626e-06	4.774256e-06
	2.455159e-06	1.099814e-06	-0.004905351	-0.01292166	-1.501473e-06	1.149698e-05	0.04051461	-0.0436415
	0.04071101	-0.04263267	-2.695207e-06	5.8031e-06	-0.005112957	-0.0128517	5.360562e-07	6.54123e-06
	1.690122e-06	-1.880605e-06	0.04038154	-0.04347948	1.356691e-06	1.054132e-05	-0.006856464	-0.01316549
3.6e+08	0.007708759	-0.02979667	-2.361121e-06	2.459878e-06	0.03318209	-0.05690425	2.984095e-06	3.835847e-06
	8.677565e-07	7.930542e-07	0.00751086	-0.02872772	-8.977862e-07	1.181945e-05	0.03235182	-0.05718563
	0.03317473	-0.05609822	-3.719764e-06	6.849363e-06	0.007399848	-0.02908787	1.512155e-07	6.392307e-06
	-5.404058e-07	-2.384399e-06	0.03228914	-0.05695762	2.463877e-06	9.801165e-06	0.005776964	-0.02859769
3.7e+08	0.01075333	-0.04874135	-3.235264e-06	3.511232e-06	0.01979655	-0.06457302	2.35514e-06	3.221641e-06
	-7.195087e-07	1.132399e-06	0.01081739	-0.0474292	-3.470825e-07	1.209558e-05	0.01857163	-0.06477729
	0.02001339	-0.06386307	-4.471069e-06	8.32143e-06	0.01047277	-0.04820998	-3.367702e-07	6.613605e-06
	-2.971506e-06	-1.948672e-06	0.01861014	-0.06451761	3.147042e-06	8.923972e-06	0.009352149	-0.04700147
3.8e+08	0.004588902	-0.0661243	-3.727712e-06	4.866676e-06	0.004412827	-0.06462851	1.589137e-06	3.040057e-06
	-2.047768e-06	2.052006e-06	0.005101828	-0.06467782	1.954425e-07	1.235244e-05	0.002850219	-0.06458101
	0.004801078	-0.06406943	-4.769877e-06	1.010961e-05	0.004237307	-0.0656909	-7.101368e-07	7.2208e-06
	-5.18791e-06	-5.27075e-07	0.003002376	-0.06433649	3.465404e-06	8.081081e-06	0.003938464	-0.06402342
3.9e+08	-0.008759624	-0.07806098	-3.727826e-06	6.36017e-06	-0.009029591	-0.05714415	9.225911e-07	3.287535e-06
	-2.908514e-06	3.385587e-06	-0.00767295	-0.07669645	7.84774e-07	1.257706e-05	-0.01079647	-0.05671274
	-0.008532306	-0.05676992	-4.480713e-06	1.202991e-05	-0.009214808	-0.07760576	-7.568253e-07	8.11958e-06
	-6.776769e-06	1.740857e-06	-0.01054037	-0.05653356	3.543005e-06	7.375639e-06	-0.008509423	-0.07587241
4e+08	-0.02577374	-0.08201001	-3.196721e-06	7.780931e-06	-0.01714144	-0.04397498	5.652634e-07	3.838878e-06
	-3.181596e-06	4.893299e-06	-0.0241019	-0.08101729	1.459978e-06	1.270986e-05	-0.01892882	-0.04310447
	-0.01660079	-0.0438012	-3.54369e-06	1.383672e-05	-0.02628629	-0.08141381	-3.23595e-07	9.110759e-06
	-7.410733e-06	4.541855e-06	-0.01860046	-0.04303458	3.52186e-06	6.818082e-06	-0.02458343	-0.08007088
4.1e+08	-0.04215908	-0.07730887	-2.188454e-06	8.906165e-06	-0.01776459	-0.02827665	6.395991e-07	4.473495e-06
	-2.857809e-06	6.302584e-06	-0.04003362	-0.07697757	2.217665e-06	1.265778e-05	-0.01938025	-0.02700615
	-0.01724556	-0.02829677	-2.009087e-06	1.525306e-05	-0.0426158	-0.07649611	6.299426e-07	9.918652e-06
	-6.923031e-06	7.430766e-06	-0.01902914	-0.02707185	3.507333e-06	6.3325e-06	-0.04012284	-0.07597087
4.2e+08	-0.05375855	-0.06537179	-8.594576e-07	9.542568e-06	-0.01037827	-0.01384187	1.135044e-06	4.925217e-06
	-2.055402e-06	7.362615e-06	-0.05145257	-0.06594065	2.979289e-06	1.232099e-05	-0.01167124	-0.01230327
	-0.009941345	-0.01403491	-5.475413e-08	1.602312e-05	-0.05400716	-0.06434067	1.997059e-06	1.026035e-05
	-5.355468e-06	9.927233e-06	-0.01135583	-0.01250893	3.517629e-06	5.789278e-06	-0.0511132	-0.06494844
4.3e+08	-0.05751298	-0.04946129	5.511415e-07	9.581594e-06	0.003802141	-0.004356488	1.899268e-06	4.962108e-06
	-9.940891e-07	7.899804e-06	-0.05540798	-0.05104111	3.597892e-06	1.164565e-05	0.002898463	-0.002741077
	0.004104768	-0.004683112	2.019936e-06	1.598068e-05	-0.05740242	-0.04829898	3.522312e-06	9.918841e-06
	-2.962211e-06	1.160192e-05	0.003121446	-0.003064852	3.466152e-06	5.071847e-06	-0.05461221	-0.05016727
4.4e+08	-0.05225682	-0.03400824	1.768451e-06	9.036083e-06	0.0220012	-0.002675344	2.66882e-06	4.455733e-06
	4.762414e-08	7.863203e-06	-0.05078238	-0.03653918	3.885312e-06	1.066731e-05	0.02144813	-0.001183509
	0.02213037	-0.003080634	3.847131e-06	1.511028e-05	-0.05168474	-0.0328844	4.848646e-06	8.823512e-06
	-1.652061e-07	1.217724e-05	0.02153511	-0.001580404	3.18108e-06	4.141765e-06	-0.04953154	-0.03591379
4.5e+08	-0.03912438	-0.02357787	2.548072e-06	8.048734e-06	0.04033533	-0.01019114	3.134696e-06	3.428615e-06
	7.995358e-07	7.34067e-06	-0.0386819	-0.02681561	3.671173e-06	9.532934e-06	0.03999736	-0.008977307
	0.04026858	-0.01060767	5.074296e-06	1.35743e-05	-0.03808027	-0.02271605	5.603972e-06	7.093049e-06
	2.532513e-06	1.15886e-05	0.03992695	-0.009387029	2.465207e-06	3.08565e-06	-0.03702378	-0.02657954
4.6e+08	-0.02139513	-0.02172175	2.740446e-06	6.862101e-06	0.05454483	-0.0264078	3.027396e-06	2.061002e-06
	1.066065e-06	6.533097e-06	-0.02226407	-0.02525229	2.872059e-06	8.475455e-06	0.054229	-0.02553778
	0.05428685	-0.02675998	5.45518e-06	1.169085e-05	-0.01998166	-0.02134817	5.497574e-06	5.024804e-06
	4.64425e-06	9.997769e-06	0.05400847	-0.0258953	1.178685e-06	2.115858e-06	-0.02030725	-0.0255441
4.7e+08	-0.003758753	-0.03001007	2.323177e-06	5.756477e-06	0.06092304	-0.04888178	2.184139e-06	6.539713e-07
	7.700593e-07	5.711444e-06	-0.006041059	-0.03331928	1.524136e-06	7.7655e-06	0.06042767	-0.04831842
	0.06050308	-0.04909564	4.914916e-06	9.856339e-06	-0.002183923	-0.03030096	4.409673e-06	3.035882e-06
	5.8118e-06	7.763548e-06	0.0600907	-0.04856819	-6.976386e-07	1.52935e-06	-0.00394181	-0.03423911
4.8e+08	0.008824086	-0.0475876	1.400856e-06	4.986721e-06	0.05721356	-0.07364453	6.000223e-07	-4.329662e-07
	-3.440231e-08	5.146606e-06	0.00524707	-0.05014475	-2.086419e-07	7.635627e-06	0.05637925	-0.07325834
	0.05669011	-0.07365834	3.563224e-06	8.458425e-06	0.0102707	-0.0486102	2.421841e-06	1.566597e-06
