!$
! Info: Touchstone file created by Circ.  Input file=Tx_NPC_250mm_32AWG_BPK_1200mm_27AWG_BPK_250mm_32AWG_NPC_Rx.circ
!$
# Hz S RI R 50
0	0.04280253	-3.478961e-16	1.025589e-06	-2.148936e-20	0.004130648	-4.260562e-16	-1.309422e-06	-1.607158e-20
	2.269693e-06	-3.155236e-19	0.04404272	-1.940426e-16	-4.623561e-06	8.514684e-20	0.003554744	-4.432333e-16
	0.005242559	7.787068e-16	1.298121e-07	-8.036577e-20	0.06481979	-1.771568e-17	-5.61515e-08	-2.499794e-20
	-2.58837e-06	-1.854812e-20	0.003644596	-2.541589e-16	1.7991e-06	-1.789892e-19	0.06790106	5.359043e-16
1e+07	0.07388859	-0.00990822	1.31207e-06	1.095713e-08	0.0291011	0.03756115	-1.047572e-06	6.18312e-07
	7.98012e-07	-2.769494e-06	0.07477346	-0.0109471	-2.734441e-06	3.836943e-06	0.02908726	0.03780152
	0.02993997	0.03751135	1.039476e-06	1.392011e-06	0.07402795	-0.009591858	2.107005e-07	5.080021e-07
	-2.192514e-06	1.204636e-06	0.02912208	0.03778869	1.137745e-06	-1.354625e-06	0.07576236	-0.01214561
2e+07	0.07026246	-0.02895691	1.565358e-06	-2.972928e-07	0.07262852	0.03320292	-5.401413e-07	8.29047e-07
	-2.528341e-06	-3.101568e-06	0.06980812	-0.03011659	1.428677e-06	4.544859e-06	0.07308994	0.03356834
	0.07339511	0.03277843	2.985465e-06	1.247551e-06	0.07066151	-0.02855254	8.050293e-07	5.799465e-07
	-1.219865e-06	1.797657e-06	0.07305412	0.03352225	-3.572752e-07	-1.610596e-06	0.06949317	-0.03164502
3e+07	0.04994085	-0.04378918	1.55022e-06	-8.76786e-07	0.08665646	-0.006673108	-2.237396e-07	6.65486e-07
	-5.01646e-06	-4.852256e-07	0.04854133	-0.04394186	4.445058e-06	1.72259e-06	0.08742327	-0.006691918
	0.08743484	-0.007467944	4.280834e-06	-6.976605e-07	0.05063332	-0.04350839	1.267278e-06	1.400015e-07
	-3.336642e-07	1.662136e-06	0.08729499	-0.006701717	-1.431564e-06	-5.882048e-07	0.04730686	-0.04462105
4e+07	0.02231386	-0.03771977	1.10507e-06	-1.387728e-06	0.05602166	-0.03576291	-2.739106e-07	5.00172e-07
	-4.651927e-06	3.337576e-06	0.021093	-0.03647007	4.062627e-06	-2.331215e-06	0.05651383	-0.03640741
	0.05660145	-0.03670531	3.676426e-06	-3.300462e-06	0.02288061	-0.03775922	1.25429e-06	-5.449055e-07
	3.228835e-08	1.168993e-06	0.05640329	-0.03630253	-1.273663e-06	8.191138e-07	0.01997552	-0.03591775
5e+07	0.01006222	-0.01022259	4.471868e-07	-1.490217e-06	0.01612779	-0.01826379	-4.553514e-07	6.51482e-07
	-1.489097e-06	5.73021e-06	0.01006289	-0.008101634	6.570418e-07	-4.499793e-06	0.01599382	-0.01908798
	0.01647041	-0.01922025	1.263634e-06	-4.829207e-06	0.01027971	-0.01040913	7.270725e-07	-1.018908e-06
	-1.289247e-07	8.306451e-07	0.01599282	-0.01894389	-1.196638e-07	1.506838e-06	0.01001329	-0.006998758
6e+07	0.02732073	0.01630538	-1.024537e-08	-1.204654e-06	0.01580795	0.02914548	-3.831402e-07	1.050509e-06
	2.392792e-06	4.999908e-06	0.02879178	0.01800565	-3.092272e-06	-3.185623e-06	0.01518781	0.02854882
	0.01595459	0.02809141	-1.496374e-06	-4.250601e-06	0.02717214	0.01637534	5.099232e-08	-9.632692e-07
	-4.652949e-07	9.680678e-07	0.01529848	0.02865975	1.069465e-06	9.72747e-07	0.02981982	0.01856893
7e+07	0.06053545	0.0162431	-9.36658e-08	-8.82333e-07	0.06160945	0.05379742	4.42407e-08	1.326796e-06
	4.28047e-06	1.718497e-06	0.06260408	0.01656385	-4.378638e-06	4.395972e-07	0.0608404	0.05365171
	0.06150838	0.0527089	-2.894585e-06	-2.114271e-06	0.06035875	0.01677119	-3.104623e-07	-5.014358e-07
	-5.198587e-07	1.531742e-06	0.06099383	0.05365212	1.279491e-06	-3.186257e-07	0.06381664	0.01590665
8e+07	0.08001096	-0.01181011	4.821666e-09	-8.195979e-07	0.1094894	0.02579964	5.527867e-07	1.233403e-06
	2.954901e-06	-1.554913e-06	0.08137426	-0.01273158	-2.499986e-06	3.591377e-06	0.1089212	0.02602287
	0.1090973	0.02474345	-2.371964e-06	-5.059299e-08	0.08017319	-0.01093321	-2.310097e-07	-4.096835e-08
	-2.466991e-08	2.154592e-06	0.1090153	0.02592057	2.736389e-07	-1.234178e-06	0.08169922	-0.01429232
9e+07	0.0687339	-0.04393835	-4.078103e-08	-1.020149e-06	0.1118083	-0.03076662	8.15083e-07	8.860911e-07
	-2.674415e-07	-2.327104e-06	0.06874545	-0.04494846	9.493169e-07	4.155703e-06	0.1116184	-0.03044907
	0.1111192	-0.03169605	-8.082143e-07	5.911237e-07	0.0694175	-0.04306108	1.010926e-07	1.362521e-07
	9.356374e-07	2.376026e-06	0.1115992	-0.03056896	-1.104959e-06	-9.215225e-07	0.06777563	-0.0463597
1e+08	0.0365245	-0.05210088	-4.197992e-07	-1.2154e-06	0.06525739	-0.06142727	7.822081e-07	6.117923e-07
	-2.67061e-06	-1.331874e-07	0.03577845	-0.05198439	3.498739e-06	1.947507e-06	0.06537915	-0.06134339
	0.06434838	-0.06209498	2.858626e-07	-3.59353e-07	0.03755204	-0.05163059	4.192082e-07	-4.372224e-08
	1.953089e-06	1.927092e-06	0.06528592	-0.06137917	-1.692521e-06	3.742696e-07	0.03409648	-0.05224249
1.1e+08	0.01378323	-0.02757944	-9.918738e-07	-1.083414e-06	0.0174319	-0.03450482	7.259513e-07	5.791264e-07
	-2.222054e-06	3.217649e-06	0.01375218	-0.02614726	3.382006e-06	-1.370481e-06	0.0176528	-0.03484563
	0.01641124	-0.03488057	-1.744029e-07	-1.871991e-06	0.01471887	-0.02764046	4.512515e-07	-4.904417e-07
	2.528205e-06	9.091196e-07	0.01759023	-0.03477181	-1.085761e-06	1.584669e-06	0.01255173	-0.02509354
1.2e+08	0.02708468	0.006105965	-1.411941e-06	-5.810912e-07	0.02217957	0.02166176	8.770073e-07	5.872414e-07
	9.287236e-07	4.979111e-06	0.02872815	0.007607754	7.191061e-07	-3.337607e-06	0.02211267	0.02088939
	0.02117884	0.0215531	-2.063544e-06	-2.417681e-06	0.02755111	0.005872994	3.971027e-08	-8.950223e-07
	2.356944e-06	-2.324257e-07	0.02216602	0.0209916	1.147292e-07	1.862656e-06	0.02887606	0.009053251
1.3e+08	0.06785454	0.01152831	-1.458984e-06	4.427795e-08	0.07866545	0.04393056	1.114453e-06	3.727405e-07
	4.464228e-06	3.56386e-06	0.07061787	0.0115724	-2.489753e-06	-2.508735e-06	0.07798791	0.04308702
	0.0777255	0.0440005	-4.038315e-06	-1.149685e-06	0.06797594	0.01160665	-6.437685e-07	-8.912465e-07
	1.54626e-06	-9.208156e-07	0.07813248	0.04310121	9.735586e-07	1.174889e-06	0.0718314	0.01219247
1.4e+08	0.09878274	-0.02188989	-1.191166e-06	4.842406e-07	0.1306183	0.004120813	1.163177e-06	-5.450351e-08
	5.716496e-06	-1.092996e-07	0.1010788	-0.02368897	-3.949675e-06	4.667595e-07	0.1294625	0.003759681
	0.1296959	0.004324118	-4.629358e-06	1.342459e-06	0.099004	-0.02135752	-1.191953e-06	-4.191653e-07
	6.517699e-07	-8.196703e-07	0.129588	0.003641967	9.013506e-07	1.661371e-07	0.1022299	-0.02433483
1.5e+08	0.09241227	-0.06917061	-8.899048e-07	6.055758e-07	0.1274314	-0.06385647	8.803106e-07	-4.530257e-07
	3.83199e-06	-3.418293e-06	0.09301981	-0.07174098	-2.716941e-06	3.557254e-06	0.1263604	-0.06352966
	0.1264948	-0.06347135	-3.431107e-06	3.629025e-06	0.09308851	-0.06845709	-1.341582e-06	2.802123e-07
	3.286924e-07	-1.784817e-07	0.1263661	-0.06371527	1.328164e-08	-2.824181e-07	0.09313761	-0.07300487
1.6e+08	0.05219301	-0.09461095	-8.051693e-07	5.856548e-07	0.07064414	-0.1006375	3.984809e-07	-5.202227e-07
	2.807365e-07	-4.136436e-06	0.05130989	-0.09636166	4.333387e-07	4.756766e-06	0.07014833	-0.09992237
	0.06973106	-0.0999758	-1.156476e-06	4.563721e-06	0.05330779	-0.09406424	-1.032241e-06	9.107616e-07
	7.764389e-07	2.988695e-07	0.07002716	-0.1000595	-8.58133e-07	2.894765e-07	0.05033163	-0.09704991
1.7e+08	0.009743354	-0.07757315	-8.688213e-07	6.948107e-07	0.01145016	-0.07422197	1.327603e-07	-2.123294e-07
	-2.336357e-06	-2.005929e-06	0.008798759	-0.07781288	3.495625e-06	3.156535e-06	0.01164783	-0.07368884
	0.01072309	-0.07323676	9.618205e-07	3.805125e-06	0.01108446	-0.07740994	-3.736242e-07	1.105238e-06
	1.537034e-06	8.611407e-09	0.01148763	-0.07370316	-8.303243e-07	1.371504e-06	0.007742007	-0.07715496
1.8e+08	0.004605551	-0.0337296	-8.668085e-07	9.307683e-07	0.007120792	-0.01277231	3.27202e-07	1.865793e-08
	-2.21114e-06	1.129442e-06	0.004884411	-0.03335225	4.223191e-06	-3.099992e-07	0.007646193	-0.01295067
	0.006766163	-0.01156646	1.700483e-06	1.969428e-06	0.005950095	-0.03396329	1.0788e-07	6.199224e-07
	1.804467e-06	-1.058408e-06	0.007553804	-0.01287274	3.795928e-08	1.951694e-06	0.00505263	-0.03180405
1.9e+08	0.04388795	-0.01012719	-7.902382e-07	1.190873e-06	0.06057598	0.01630456	5.803776e-07	-2.383649e-07
	3.238696e-07	2.734038e-06	0.04521302	-0.01062797	1.896112e-06	-3.037392e-06	0.06068106	0.01537889
	0.0606533	0.01749965	6.764305e-07	6.00444e-07	0.0450708	-0.01069652	-2.225173e-07	-7.017242e-08
	1.046996e-06	-2.210308e-06	0.06068407	0.01545064	9.320266e-07	1.697601e-06	0.04692989	-0.009621273
2e+08	0.08767684	-0.03609355	-6.090015e-07	1.496594e-06	0.11213	-0.02010459	3.851136e-07	-7.385683e-07
	3.086605e-06	1.531995e-06	0.08873888	-0.03802368	-1.68723e-06	-2.848234e-06	0.1113485	-0.02109511
	0.1125128	-0.01911899	-9.098245e-07	9.839563e-07	0.08855793	-0.03686312	-1.147284e-06	-8.834976e-08
	-4.866528e-07	-2.559007e-06	0.1113847	-0.02109494	1.3353e-06	9.757242e-07	0.09094597	-0.03861087
2.1e+08	0.09266294	-0.09206869	-2.595782e-07	1.721254e-06	0.1077067	-0.08569693	-2.783639e-07	-9.805526e-07
	3.760325e-06	-1.537699e-06	0.09234693	-0.09468454	-3.777738e-06	9.99467e-08	0.1063548	-0.08603126
	0.1081946	-0.08493254	-1.356737e-06	2.767102e-06	0.09316217	-0.09280312	-1.824378e-06	7.40741e-07
	-1.912519e-06	-1.738564e-06	0.1063498	-0.08608625	1.097917e-06	2.341167e-07	0.09362357	-0.09654539
2.2e+08	0.05090751	-0.134487	1.277762e-07	1.778556e-06	0.05115186	-0.1203649	-1.052446e-06	-6.391588e-07
	1.681512e-06	-4.103637e-06	0.04916737	-0.1364779	-2.791345e-06	3.686499e-06	0.04996009	-0.1198766
	0.05164807	-0.1197029	-6.422484e-09	4.504107e-06	0.05118774	-0.1348724	-1.717276e-06	1.915495e-06
	-2.364004e-06	-2.232065e-07	0.04988922	-0.1199273	3.861136e-07	1.361531e-08	0.04899667	-0.1383117
2.3e+08	-0.008895684	-0.1302688	5.079775e-07	1.752149e-06	-0.008208649	-0.09590281	-1.379558e-06	2.282126e-07
	-1.712077e-06	-4.214037e-06	-0.01103091	-0.1308709	7.895167e-07	5.27054e-06	-0.008656534	-0.09502283
	-0.007637471	-0.09521791	2.590059e-06	4.797817e-06	-0.008354802	-0.1301875	-7.605227e-07	2.750159e-06
	-1.670122e-06	9.796637e-07	-0.008766764	-0.09502353	-7.898839e-08	5.232564e-07	-0.01185618	-0.1315176
2.4e+08	-0.03958412	-0.08194475	9.454027e-07	1.542031e-06	-0.01940956	-0.0370213	-9.289138e-07	1.000265e-06
	-4.057786e-06	-1.799623e-06	-0.04097812	-0.08161181	4.457713e-06	3.327585e-06	-0.01903153	-0.03651544
	-0.01859331	-0.03633158	4.946387e-06	2.940702e-06	-0.03825186	-0.08186319	5.321548e-07	2.575483e-06
	-5.553089e-07	1.105216e-06	-0.0191425	-0.03645584	2.353259e-07	1.065612e-06	-0.04098679	-0.08112774
2.5e+08	-0.01479169	-0.03500196	1.140859e-06	1.015466e-06	0.02385334	-0.002528049	-1.934733e-07	1.000699e-06
	-3.876289e-06	1.416623e-06	-0.01532791	-0.03482803	5.144019e-06	-9.453297e-07	0.02444799	-0.003011757
	0.02500949	-0.002047171	5.223085e-06	-2.635197e-07	-0.01285293	-0.03586696	1.052443e-06	1.45273e-06
	-8.463549e-08	3.140008e-07	0.02436524	-0.002896892	7.900621e-07	9.390308e-07	-0.01379253	-0.0346233
2.6e+08	0.03673725	-0.03759156	8.158135e-07	6.246747e-07	0.07075751	-0.02702022	-2.88818e-08	4.517952e-07
	-1.508697e-06	3.254897e-06	0.03625062	-0.03805845	2.102573e-06	-4.079918e-06	0.07063763	-0.02834739
	0.07211208	-0.02699362	3.035755e-06	-2.485214e-06	0.03817541	-0.03980923	3.141471e-07	6.047242e-07
	-7.1264e-07	-4.2839e-07	0.07061308	-0.02819206	9.183349e-07	4.563583e-07	0.03839706	-0.03952323
2.7e+08	0.05950509	-0.08731362	4.276987e-07	8.009527e-07	0.06863048	-0.08012825	-5.50026e-07	1.67936e-07
	1.138496e-06	2.586961e-06	0.05843791	-0.0879814	-2.173247e-06	-3.577926e-06	0.06736752	-0.0814291
	0.06987709	-0.08061293	3.032088e-07	-2.18645e-06	0.05935192	-0.09004444	-7.235387e-07	9.628752e-07
	-1.936778e-06	-2.126451e-07	0.06742777	-0.08127222	6.907688e-07	7.493107e-08	0.05946149	-0.09099539
2.8e+08	0.02850651	-0.138391	4.947785e-07	1.267919e-06	0.02105265	-0.1051903	-1.18806e-06	5.937536e-07
	2.019731e-06	2.498392e-07	0.02693659	-0.1386185	-4.370672e-06	3.053438e-08	0.01908288	-0.105612
	0.02195448	-0.1060015	-8.299441e-07	-1.446339e-07	0.02685114	-0.1401257	-9.401738e-07	2.123761e-06
	-2.711543e-06	1.132605e-06	0.01921916	-0.105515	2.66533e-07	-8.150097e-08	0.02604431	-0.1416327
2.9e+08	-0.03443593	-0.1464277	1.056778e-06	1.548899e-06	-0.02536824	-0.07993816	-1.269874e-06	1.550708e-06
	6.293384e-07	-1.689477e-06	-0.03598541	-0.145985	-2.875255e-06	3.940369e-06	-0.02710898	-0.07930098
	-0.0248335	-0.08080916	2.389192e-07	1.689276e-06	-0.0361799	-0.1462822	-6.836477e-08	3.10827e-06
	-2.221175e-06	2.824695e-06	-0.02695876	-0.07931041	-1.297488e-07	1.27898e-07	-0.03792573	-0.147513
3e+08	-0.08041226	-0.1024838	1.864034e-06	1.259464e-06	-0.03010114	-0.03012519	-5.200342e-07	2.328883e-06
	-1.789863e-06	-1.707796e-06	-0.08152307	-0.1016757	1.167567e-06	5.07325e-06	-0.03088285	-0.0290748
	-0.02977257	-0.03089538	2.489909e-06	1.628795e-06	-0.08052978	-0.1012224	1.368811e-06	3.092949e-06
	-6.564695e-07	3.690059e-06	-0.03081432	-0.02916891	-1.171558e-07	4.58545e-07	-0.08279891	-0.1016531
3.1e+08	-0.0727959	-0.04356117	2.299269e-06	2.385094e-07	0.006998694	-0.002850051	5.364194e-07	2.256649e-06
	-3.451942e-06	2.343608e-07	-0.07358345	-0.04282768	4.459851e-06	2.409788e-06	0.007085529	-0.002392053
	0.007319403	-0.003567886	3.82419e-06	-6.661829e-07	-0.07099467	-0.04329025	2.289843e-06	1.946678e-06
	8.90247e-07	3.244439e-06	0.007024827	-0.00245768	7.412903e-08	3.67581e-07	-0.07323953	-0.04272117
3.2e+08	-0.02470855	-0.02193466	1.68841e-06	-8.99997e-07	0.04450636	-0.02242484	1.013671e-06	1.518898e-06
	-3.141553e-06	2.948396e-06	-0.02554589	-0.02122765	4.17339e-06	-1.833913e-06	0.04455516	-0.02310078
	0.04484666	-0.02328883	2.570703e-06	-3.495799e-06	-0.02290204	-0.02411924	1.932691e-06	6.473009e-07
	1.477093e-06	2.103843e-06	0.04445653	-0.02301503	-1.891255e-07	6.403909e-08	-0.02445157	-0.02263155
3.3e+08	0.01242612	-0.0517884	3.678726e-07	-1.066115e-06	0.04140762	-0.06253294	7.256556e-07	9.704753e-07
	-8.761175e-07	4.663987e-06	0.01161658	-0.05070983	5.93652e-07	-4.091651e-06	0.04040282	-0.06390549
	0.041572	-0.06366907	-6.519929e-07	-4.384918e-06	0.01183065	-0.055387	8.695611e-07	3.449796e-07
	1.071726e-06	1.281974e-06	0.04044443	-0.06369285	-7.551567e-07	2.037965e-07	0.01157718	-0.05359555
3.4e+08	0.002572007	-0.09772613	-4.495007e-07	-9.603392e-08	0.003977603	-0.07596603	2.920532e-07	1.094661e-06
	1.896132e-06	4.216159e-06	0.002331629	-0.0963118	-3.319418e-06	-2.650117e-06	0.001668417	-0.07690715
	0.003717664	-0.07726088	-3.437365e-06	-2.589449e-06	-0.0007712259	-0.09997659	2.932663e-07	1.010982e-06
	4.069114e-07	1.376583e-06	0.001927247	-0.07675498	-1.020695e-06	7.641096e-07	0.0002619191	-0.09894861
3.5e+08	-0.04400758	-0.1134762	-5.800638e-08	1.053632e-06	-0.02499739	-0.04875328	3.699736e-07	1.615791e-06
	3.387931e-06	2.02991e-06	-0.04347325	-0.1123923	-4.585656e-06	1.202856e-06	-0.02781236	-0.04838444
	-0.02576244	-0.04991733	-3.959217e-06	4.184097e-07	-0.04784221	-0.1125348	6.797889e-07	1.728431e-06
	4.015679e-07	2.124535e-06	-0.02746284	-0.0484748	-8.189293e-07	1.287872e-06	-0.04649659	-0.1131108
3.6e+08	-0.08461602	-0.0832333	1.177049e-06	1.311151e-06	-0.01523732	-0.01051343	1.053832e-06	1.838113e-06
	2.82552e-06	-3.536897e-07	-0.08389055	-0.08305514	-2.455426e-06	4.428312e-06	-0.01739347	-0.008987158
	-0.01634736	-0.01128492	-2.284226e-06	2.464966e-06	-0.08606049	-0.08004746	1.586805e-06	1.687902e-06
	1.280602e-06	2.577051e-06	-0.01719352	-0.009319505	-3.659141e-07	1.411674e-06	-0.08587134	-0.08193972
3.7e+08	-0.08405787	-0.03430166	2.159733e-06	2.896515e-07	0.02248862	-0.0007515446	1.744874e-06	1.330001e-06
	7.533187e-07	-1.384508e-06	-0.08403626	-0.03479071	1.135112e-06	4.693055e-06	0.02152349	0.0009398471
	0.02131659	-0.001059844	-9.215875e-08	2.318009e-06	-0.08235678	-0.03195496	2.117985e-06	7.9226e-07
	2.319938e-06	2.13889e-06	0.02142442	0.0005782621	-1.624053e-07	1.043491e-06	-0.08405403	-0.03358622
3.8e+08	-0.0480592	-0.009488846	1.824193e-06	-1.296032e-06	0.04824428	-0.02916133	1.769552e-06	4.662463e-07
	-1.293317e-06	-3.267352e-07	-0.04901496	-0.009633305	3.304845e-06	2.19979e-06	0.04801917	-0.02828253
	0.04722929	-0.02915272	6.547481e-07	5.888403e-07	-0.04558984	-0.01028388	1.709328e-06	-2.175004e-07
	2.7805e-06	1.152435e-06	0.04772198	-0.02841285	-6.345743e-07	7.107926e-07	-0.048138	-0.009970016
3.9e+08	-0.01432606	-0.02371065	1.916006e-07	-2.004574e-06	0.03459524	-0.06409939	1.198266e-06	1.521255e-08
	-1.600825e-06	2.084104e-06	-0.01539702	-0.02267625	2.63956e-06	-7.82033e-07	0.03406887	-0.0642682
	0.03374927	-0.06399279	-6.28733e-07	-7.794211e-07	-0.01435769	-0.0266511	7.677378e-07	-5.038454e-07
	2.614937e-06	2.424643e-07	0.0338617	-0.06411214	-1.376693e-06	1.138548e-06	-0.01553976	-0.02433288
4e+08	-0.01155594	-0.05356062	-1.387885e-06	-1.064402e-06	-0.001860156	-0.06665228	7.338561e-07	2.154852e-07
	3.376129e-07	3.907092e-06	-0.01141991	-0.05177164	-2.617389e-09	-1.964798e-06	-0.003507559	-0.06714402
	-0.002689158	-0.06653803	-2.67123e-06	-2.922667e-07	-0.01481235	-0.05520755	1.677247e-07	-8.087207e-08
	2.170639e-06	-2.926605e-07	-0.003423633	-0.06692687	-1.477222e-06	2.209085e-06	-0.01321104	-0.05291171
4.1e+08	-0.03394171	-0.06577099	-1.52765e-06	7.231811e-07	-0.01899013	-0.03473622	8.704517e-07	5.512413e-07
	3.237137e-06	3.485336e-06	-0.0322936	-0.06478487	-2.4717e-06	-6.482788e-07	-0.02160872	-0.0344535
	-0.01993409	-0.03451463	-3.635972e-06	1.818468e-06	-0.03770943	-0.06377148	2.27859e-07	3.345403e-07
	1.819036e-06	-5.378686e-07	-0.02132536	-0.03446773	-6.473457e-07	3.017336e-06	-0.03431438	-0.06402573
4.2e+08	-0.05162658	-0.05061614	-1.857569e-07	1.779119e-06	0.00399702	-0.004945412	1.355745e-06	3.477936e-07
	4.918805e-06	7.977363e-07	-0.04980912	-0.05160644	-3.016921e-06	1.993558e-06	0.001368733	-0.003414764
	0.002973862	-0.004431225	-2.737444e-06	4.028991e-06	-0.05242457	-0.04617511	4.902065e-07	1.98922e-07
	1.596553e-06	-8.519886e-07	0.001547788	-0.003737746	4.531441e-07	2.867017e-06	-0.05012269	-0.04962399
4.3e+08	-0.04426932	-0.02957369	1.359497e-06	1.213146e-06	0.04404676	-0.01312362	1.424253e-06	-4.626991e-07
	3.935415e-06	-2.370055e-06	-0.0441209	-0.03196075	-1.51403e-06	4.052462e-06	0.04229566	-0.01080604
	0.0431398	-0.01222163	-6.865343e-07	4.948746e-06	-0.04142804	-0.02640187	2.927755e-07	-3.132199e-07
	1.119202e-06	-1.275057e-06	0.04213786	-0.01121641	8.582278e-07	1.977428e-06	-0.0424645	-0.0308552
4.4e+08	-0.02292334	-0.02810071	1.665318e-06	-4.105121e-07	0.05751761	-0.05547468	6.495148e-07	-1.161866e-06
	8.739254e-07	-3.66359e-06	-0.02497123	-0.02992823	8.293408e-07	4.404877e-06	0.0568339	-0.05328656
	0.05694799	-0.05426847	1.141817e-06	4.34657e-06	-0.01940336	-0.02858433	-4.808791e-07	-5.213758e-07
	3.441546e-07	-1.332069e-06	0.05640106	-0.05346455	2.681708e-07	1.345913e-06	-0.02314168	-0.03087153
4.5e+08	-0.01336242	-0.04564066	4.038314e-07	-1.562512e-06	0.02716431	-0.09047797	-4.878986e-07	-9.909659e-07
	-1.956756e-06	-2.153229e-06	-0.01620713	-0.0453459	2.626328e-06	3.127673e-06	0.0269786	-0.08912108
	0.02703702	-0.08917646	1.864457e-06	3.063792e-06	-0.01264764	-0.04827609	-1.245706e-06	-2.53903e-08
	-1.820685e-07	-8.897045e-07	0.02656955	-0.08894557	-5.472828e-07	1.737863e-06	-0.01603502	-0.04718718
4.6e+08	-0.02448624	-0.05958037	-1.300687e-06	-1.141522e-06	-0.01790966	-0.08301455	-1.03488e-06	-1.098915e-08
	-2.443566e-06	8.665531e-07	-0.02597386	-0.05751659	2.996131e-06	1.086078e-06	-0.01846121	-0.08245616
	-0.0176489	-0.08182483	1.618978e-06	2.124985e-06	-0.02683597	-0.0605885	-1.363058e-06	8.141984e-07
	-1.481857e-07	-4.476208e-07	-0.01859033	-0.08210446	-5.188842e-07	2.825892e-06	-0.02715227	-0.05806487
4.7e+08	-0.03906168	-0.05293994	-1.926726e-06	4.73382e-07	-0.03252019	-0.04192615	-5.437594e-07	8.634349e-07
	-3.044487e-07	2.935066e-06	-0.03834261	-0.05122603	1.844634e-06	-5.320505e-07	-0.03388144	-0.0415172
	-0.03200998	-0.04095232	1.140982e-06	1.9021e-06	-0.04116992	-0.05031966	-8.693731e-07	1.218357e-06
	1.582132e-07	-5.202237e-07	-0.03373939	-0.04128368	5.952855e-07	3.4722e-06	-0.0385849	-0.04981974
4.8e+08	-0.03318355	-0.03583848	-1.036401e-06	1.822569e-06	-0.001946197	-0.01193209	3.562738e-07	7.256191e-07
	2.632435e-06	2.261452e-06	-0.03172454	-0.03636437	-9.928043e-08	-7.846456e-07	-0.003925568	-0.0110102
