!$
! Info: Touchstone file created by Circ.  Input file=Tx_NPC_250mm_32AWG_BPK_300mm_27AWG_BPK_250mm_32AWG_NPC_Rx.circ
!$
# Hz S RI R 50
0	0.07380485	-1.409794e-16	0.9525257	-8.323917e-16	0.001781828	-3.419262e-15	-0.004184543	-1.032916e-16
	0.9526376	4.555038e-17	0.01857136	-2.084274e-16	0.000594366	5.481225e-16	0.002762973	-4.555383e-16
	0.001747783	-9.632849e-16	-0.001528723	1.157384e-16	0.0473154	3.447434e-15	0.9526502	6.783285e-16
	-0.004605082	-4.196298e-17	0.002868009	-2.609257e-16	0.9541081	2.32452e-15	0.04331838	4.687244e-16
1e+07	0.05253523	0.004409429	0.9046274	-0.288253	0.01165011	0.02742565	-0.005238594	-0.001011748
	0.9047517	-0.2882699	0.05160926	0.004229019	-0.001793766	-0.002277802	0.01291265	0.02663516
	0.01296556	0.02669205	-0.003669176	-0.001569941	0.04951813	0.004909387	0.9041582	-0.2882722
	-0.005663115	-0.0008370861	0.0129575	0.02665096	0.905516	-0.2888018	0.05309273	0.00356197
2e+07	0.06062772	0.002459628	0.7729615	-0.5451376	0.03512651	0.0452298	-0.006997415	-0.0002871631
	0.7730855	-0.5451918	0.05946879	0.002147832	-0.004222004	-0.00264403	0.03569846	0.04424576
	0.03577799	0.04428006	-0.005765398	-0.001348822	0.0576539	0.003474874	0.7724468	-0.5451635
	-0.007353453	-2.358473e-05	0.03573055	0.04421269	0.7735228	-0.5461264	0.06053287	0.00088444
3e+07	0.06750299	-0.005594024	0.5720545	-0.7485758	0.06446794	0.04624852	-0.008113569	0.001859741
	0.5721068	-0.7486755	0.06596894	-0.005934378	-0.006331671	-0.001269284	0.06397313	0.0460633
	0.0642098	0.04612612	-0.007419584	0.0005326134	0.0646453	-0.004058497	0.5713759	-0.7485859
	-0.008389474	0.002197924	0.06399636	0.04596375	0.5721014	-0.7498446	0.06645784	-0.007515216
4e+07	0.06986763	-0.01791314	0.3218648	-0.881908	0.08955106	0.03095977	-0.007841531	0.004381577
	0.3218774	-0.8820207	0.06790278	-0.01801543	-0.007228232	0.000868744	0.08886124	0.03086458
	0.08918524	0.03092598	-0.007659682	0.002926121	0.06723647	-0.01582469	0.3210355	-0.8817981
	-0.008011526	0.004793095	0.0888413	0.03075816	0.3212941	-0.8832211	0.06774552	-0.01962407
5e+07	0.06598432	-0.0310322	0.04522679	-0.9351942	0.1022079	0.004496377	-0.006564961	0.006366174
	0.04519539	-0.9353035	0.06356859	-0.03059647	-0.007170989	0.002898072	0.1014612	0.004584174
	0.101808	0.004632999	-0.006894256	0.004963218	0.06365223	-0.02831366	0.04426534	-0.9348594
	-0.006606929	0.006799896	0.1014114	0.004506844	0.04403424	-0.9362864	0.06285158	-0.03203487
6e+07	0.05590784	-0.04167721	-0.2339572	-0.9050842	0.09850927	-0.02463009	-0.005132527	0.007434474
	-0.2340272	-0.9051728	0.05329269	-0.04044692	-0.006848599	0.004397852	0.0976769	-0.02429124
	0.098132	-0.02433214	-0.005906219	0.00626646	0.05403862	-0.03839476	-0.2349774	-0.9044317
	-0.005044326	0.007878621	0.09758816	-0.0243437	-0.2356715	-0.9056998	0.05215241	-0.0414848
7e+07	0.04169793	-0.04648419	-0.4919617	-0.7942804	0.07960335	-0.04668828	-0.004293066	0.008206946
	-0.4920594	-0.794334	0.0392175	-0.04423589	-0.006898425	0.00594866	0.07882869	-0.04607605
	0.0793319	-0.046246	-0.005390647	0.007401	0.04046092	-0.04263071	-0.492915	-0.793238
	-0.004075428	0.008615404	0.07872443	-0.04608484	-0.4939974	-0.7942056	0.03785395	-0.04477594
8e+07	0.02669162	-0.04365839	-0.7062077	-0.6117231	0.05183808	-0.05427104	-0.003928108	0.009691356
	-0.7063158	-0.6117337	0.02481782	-0.04034067	-0.007100596	0.00845225	0.05123816	-0.05339879
	0.05172861	-0.05373999	-0.005191822	0.009325202	0.02629803	-0.03931412	-0.7069283	-0.6102744
	-0.003590528	0.01002778	0.05113803	-0.05335748	-0.7082807	-0.6108257	0.0234337	-0.04036369
9e+07	0.01506822	-0.03318611	-0.8567459	-0.37271	0.02479482	-0.04452145	-0.00293804	0.01252982
	-0.8568455	-0.372678	0.01432614	-0.02900462	-0.006297843	0.01242445	0.02447488	-0.0434297
	0.02486612	-0.04396962	-0.004196842	0.01261489	0.01573463	-0.02854106	-0.8570594	-0.3709158
	-0.002497654	0.01275975	0.02440023	-0.0433406	-0.8585278	-0.3709783	0.01310946	-0.02855452
1e+08	0.01089079	-0.01736439	-0.9284125	-0.098658	0.00836014	-0.02035379	0.0002528395	0.01620011
	-0.9284875	-0.0985921	0.01172061	-0.01277169	-0.002893728	0.01720856	0.008418539	-0.01919527
	0.008603124	-0.01986196	-0.0008515317	0.01668199	0.01280788	-0.0126974	-0.9281556	-0.09665336
	0.0007595635	0.01628875	0.008394234	-0.01907726	-0.9295674	-0.09621024	0.01082519	-0.0119461
1.1e+08	0.01652262	-0.0006101594	-0.913336	0.1842709	0.009237707	0.009996936	0.00648038	0.01888194
	-0.9133754	0.1843558	0.01914764	0.003739719	0.003893322	0.02084173	0.009709642	0.0111137
	0.009609815	0.01038725	0.00565191	0.0196575	0.01978461	0.003686209	-0.9124112	0.186277
	0.007014516	0.01880528	0.009746617	0.01124025	-0.9135913	0.1871774	0.01867345	0.004783878
1.2e+08	0.03173043	0.01168003	-0.8131315	0.4482317	0.02851102	0.03580401	0.01511707	0.01821773
	-0.8131333	0.4483187	0.03604632	0.0150133	0.01335745	0.0208605	0.02935756	0.03669058
	0.02895753	0.03606121	0.01461531	0.01915467	0.03627253	0.01514087	-0.8115276	0.4499878
	0.01562035	0.01796623	0.02945502	0.03679046	-0.8123319	0.4512387	0.03603495	0.01611444
1.3e+08	0.05329987	0.01492616	-0.6387741	0.6677225	0.06095756	0.04741202	0.02375634	0.01265999
	-0.6387434	0.6677962	0.05886146	0.016563	0.02296686	0.01565837	0.06207136	0.04793526
	0.06142809	0.04753926	0.02357955	0.01363211	0.05887326	0.0171055	-0.6365823	0.6689845
	0.02416866	0.01224429	0.06221227	0.04798133	-0.6369147	0.6704332	0.05929038	0.0175644
1.4e+08	0.07607618	0.006804466	-0.4087884	0.8230033	0.09691888	0.03968424	0.02927627	0.002584116
	-0.4087356	0.8230528	0.08215706	0.006303705	0.02947758	0.005603594	0.09815711	0.0397731
	0.09738192	0.03970268	0.02938046	0.003491065	0.08225359	0.007355832	-0.4061907	0.8235784
	0.02954192	0.002036509	0.09831241	0.03974919	-0.4060167	0.8250517	0.08295884	0.007072411
1.5e+08	0.09449525	-0.0121567	-0.1460645	0.9020581	0.1256716	0.01354387	0.02933545	-0.009653605
	-0.1460028	0.9020791	0.1002027	-0.01488485	0.03044369	-0.006911079	0.1268539	0.01318423
	0.126109	0.01347536	0.02965171	-0.008861588	0.1007123	-0.01340708	-0.1432999	0.9018227
	0.0294115	-0.01027764	0.1269878	0.01308936	-0.1426453	0.903153	0.1012884	-0.01445081
1.6e+08	0.1039575	-0.03890159	0.1253753	0.9006701	0.1387464	-0.02467797	0.02351101	-0.02063512
	0.125432	0.9006634	0.1085003	-0.04357619	0.02537043	-0.01839991	0.1397558	-0.02543385
	0.1391649	-0.02482018	0.02397972	-0.01998301	0.1096368	-0.04191641	0.1280426	0.8995979
	0.0233744	-0.02127058	0.1398392	-0.02558256	0.1290996	0.9006366	0.109728	-0.04353956
1.7e+08	0.1017959	-0.06878557	0.3826516	0.8213684	0.1323246	-0.06544784	0.0135072	-0.0274258
	0.382693	0.8213415	0.1045176	-0.07480625	0.0159285	-0.0258715	0.1330378	-0.06651032
	0.1327245	-0.06566441	0.01409453	-0.02690815	0.1063716	-0.07330918	0.384966	0.8195186
	0.01316117	-0.02799855	0.1330511	-0.06668454	0.3863103	0.8201546	0.1057574	-0.07518284
1.8e+08	0.08750497	-0.09644919	0.605227	0.6720799	0.1078412	-0.09883535	0.002394358	-0.02870994
	0.6052472	0.6720436	0.0880789	-0.103024	0.005161933	-0.02795569	0.1081898	-0.1000897
	0.1082176	-0.09914025	0.003084328	-0.02833319	0.0905443	-0.1020385	0.6069739	0.6695877
	0.001866374	-0.02915078	0.1081302	-0.100256	0.6084623	0.6697486	0.08919577	-0.1037811
1.9e+08	0.06288067	-0.1166556	0.7754576	0.4651987	0.07135485	-0.11707	-0.006723499	-0.02529638
	0.7754569	0.465165	0.06133185	-0.1229553	-0.003838445	-0.02540961	0.0713163	-0.1183964
	0.07168597	-0.1174817	-0.005936	-0.02508195	0.06413879	-0.1227401	0.7764743	0.4622442
	-0.007383767	-0.02554809	0.07119666	-0.1185254	0.777947	0.4619032	0.06221201	-0.1240091
2e+08	0.03199631	-0.1251653	0.8790739	0.2170899	0.03187946	-0.1164064	-0.01205037	-0.01964759
	0.8790585	0.2170676	0.02867291	-0.130434	-0.009302092	-0.02064973	0.03146767	-0.1176728
	0.03212325	-0.1169311	-0.01118182	-0.01964056	0.03145094	-0.1311041	0.8792615	0.2138843
	-0.01277445	-0.01967258	0.03131087	-0.1177455	0.8805552	0.2130642	0.02924993	-0.1316731
2.1e+08	0.0008118981	-0.1197501	0.906034	-0.05219615	-0.0009004906	-0.09799621	-0.0138429	-0.01463541
	0.9060138	-0.05220172	-0.00367227	-0.1235154	-0.01149833	-0.01647603	-0.001619392	-0.09910874
	-0.0007995521	-0.09862275	-0.01295066	-0.01488663	-0.001301014	-0.1249714	0.9053406	-0.05543826
	-0.01455352	-0.01441786	-0.001785487	-0.09912112	0.9062975	-0.05665896	-0.003422924	-0.1247978
2.2e+08	-0.02373209	-0.1013792	0.8518563	-0.319562	-0.01909085	-0.06776654	-0.01424097	-0.01202163
	0.851841	-0.3195533	-0.02864285	-0.1034422	-0.01257117	-0.01456583	-0.02001652	-0.06865252
	-0.01918649	-0.06844624	-0.01341297	-0.01256737	-0.02697352	-0.1054362	0.8502773	-0.3226216
	-0.01485727	-0.01157493	-0.02017045	-0.06861209	0.8507725	-0.3241128	-0.02867665	-0.1046424
2.3e+08	-0.03561639	-0.0746611	0.7191528	-0.5602852	-0.01888104	-0.03496595	-0.01592992	-0.01140344
	0.7191491	-0.5602686	-0.04025614	-0.07518756	-0.01516531	-0.01441192	-0.01990038	-0.03562238
	-0.01920593	-0.03561996	-0.01528482	-0.0122332	-0.03941739	-0.07736156	0.7167166	-0.5629377
	-0.01637809	-0.01076674	-0.02002988	-0.03554331	0.7166747	-0.5645246	-0.04047733	-0.0762057
2.4e+08	-0.03187961	-0.04718885	0.5187417	-0.750578	-0.001943613	-0.009639209	-0.02037958	-0.01036552
	0.5187508	-0.750562	-0.03575093	-0.04661886	-0.02065985	-0.01350755	-0.002970996	-0.01012291
	-0.002489629	-0.01017017	-0.02003257	-0.01140793	-0.03568007	-0.04861746	0.5155225	-0.7525814
	-0.02060182	-0.009601846	-0.003073898	-0.01001781	0.5149374	-0.7540678	-0.03602493	-0.04741219
2.5e+08	-0.01415256	-0.02738481	0.2694254	-0.8709637	0.0247735	0.0006038075	-0.02661479	-0.005996489
	0.2694433	-0.8709546	-0.01704032	-0.02628313	-0.02794711	-0.008891521	0.02377076	0.000206509
	0.02406643	0.0002866851	-0.02664383	-0.007130707	-0.01753536	-0.02785205	0.2655736	-0.8720648
	-0.02657879	-0.005186351	0.02369249	0.0003331769	0.2645134	-0.8732662	-0.01723188	-0.02689218
2.6e+08	0.0115374	-0.0215604	-0.004084686	-0.909481	0.05129043	-0.006674265	-0.03154907	0.003058376
	-0.00406279	-0.909482	0.009514401	-0.02046482	-0.0337849	0.0007677174	0.05026458	-0.007064397
	0.05052118	-0.006722027	-0.0319672	0.001984123	0.008729013	-0.02151172	-0.008319982	-0.9094488
	-0.03124897	0.003827452	0.05021177	-0.006915387	-0.009721564	-0.9102175	0.009504054	-0.020985
2.7e+08	0.0366585	-0.03187564	-0.2747569	-0.8634733	0.06810657	-0.02790412	-0.03175506	0.01546184
	-0.2747363	-0.8634835	0.03518269	-0.03113027	-0.03462451	0.01405121	0.06697523	-0.02830968
	0.06739462	-0.02768193	-0.0325151	0.01458355	0.03433038	-0.03170018	-0.2790202	-0.8621509
	-0.03121688	0.01610655	0.06695793	-0.02813513	-0.2805922	-0.8624035	0.03537848	-0.03170743
2.8e+08	0.05298792	-0.05570243	-0.517053	-0.7392841	0.06963358	-0.05500797	-0.02557137	0.02771615
	-0.5170365	-0.7393014	0.05165415	-0.05540443	-0.02873192	0.02733343	0.06830777	-0.05538086
	0.06908369	-0.05457149	-0.02657956	0.02713572	0.05085456	-0.05562144	-0.5209189	-0.7366466
	-0.024845	0.0281661	0.06834336	-0.05518564	-0.5224777	-0.7363652	0.05199759	-0.05616887
2.9e+08	0.05489535	-0.08675984	-0.7097435	-0.5504063	0.05580696	-0.07858133	-0.01406943	0.03605044
	-0.7097324	-0.5504289	0.05336105	-0.0867779	-0.017167	0.03671342	0.05424098	-0.07881423
	0.05548384	-0.07802752	-0.01521079	0.03582535	0.05262182	-0.08675409	-0.712778	-0.5465871
	-0.01322306	0.03625472	0.05434791	-0.0786163	-0.7141521	-0.5458141	0.05373352	-0.08780891
3e+08	0.04057585	-0.1169713	-0.8373018	-0.3151215	0.03154066	-0.09116788	-0.0004147667	0.03833141
	-0.8372967	-0.3151478	0.03865799	-0.1170404	-0.003125229	0.0399512	0.0297611	-0.09113227
	0.03145497	-0.09061042	-0.001573587	0.03848154	0.0379294	-0.1168017	-0.8391355	-0.3104118
	0.0004727307	0.03826263	0.02994966	-0.09096379	-0.8401829	-0.3092363	0.03891239	-0.118339
3.1e+08	0.01234655	-0.1384568	-0.8902612	-0.0544539	0.004593147	-0.0894209	0.01184037	0.03493668
	-0.890264	-0.05448317	0.01003797	-0.1382701	0.009785098	0.03733754	0.002699358	-0.08900379
	0.00470155	-0.08895896	0.01077991	0.03544879	0.009281921	-0.1377575	-0.8906443	-0.04925172
	0.01268409	0.03458781	0.002961844	-0.0889047	-0.8912558	-0.04780106	0.01006033	-0.1397619
3.2e+08	-0.02401171	-0.1453328	-0.8651863	0.2093876	-0.01712168	-0.07455297	0.02049076	0.02817935
	-0.8651982	0.2093576	-0.02655645	-0.1446431	0.01930203	0.03112682	-0.01897283	-0.07370445
	-0.01690289	-0.0742514	0.01963725	0.02901439	-0.0272845	-0.1437417	-0.8640083	0.2146265
	0.02120653	0.02756866	-0.0186662	-0.07371281	-0.8641197	0.216203	-0.0268348	-0.1462129
3.3e+08	-0.06041132	-0.135209	-0.7645437	0.4542686	-0.02776218	-0.05155687	0.02548363	0.02082445
	-0.7645657	0.454241	-0.06294236	-0.1338881	0.02530253	0.02402982	-0.02939541	-0.05030937
	-0.02753435	-0.05142866	0.02493847	0.0219091	-0.0634801	-0.1325081	-0.7618345	0.4590872
	0.02599018	0.01999347	-0.0290955	-0.05044762	-0.7614277	0.4606241	-0.06351989	-0.1354069
3.4e+08	-0.0884505	-0.1100365	-0.5965979	0.6593517	-0.02498042	-0.02749855	0.02846813	0.01448339
	-0.5966297	0.6593303	-0.09069324	-0.1080917	0.02935072	0.01761429	-0.02624906	-0.02597192
	-0.02483525	-0.0275033	0.02831139	0.01570641	-0.09079546	-0.1062459	-0.5925032	0.6633199
	0.02869432	0.01349997	-0.02601859	-0.02623528	-0.5916128	0.6646504	-0.09151215	-0.1094559
3.5e+08	-0.1017392	-0.07587194	-0.3752318	0.8064745	-0.01038405	-0.009540776	0.03137949	0.008853016
	-0.3752711	0.8064623	-0.1034606	-0.07342839	0.03327482	0.01155188	-0.01121553	-0.007918627
	-0.01037823	-0.009595942	0.03165068	0.01007103	-0.1028673	-0.07128734	-0.3700053	0.8092097
	0.0312754	0.007810661	-0.01111315	-0.008268574	-0.368719	0.8101841	-0.104436	-0.07457911
3.6e+08	-0.09792329	-0.0413505	-0.1194466	0.8817693	0.01087818	-0.002975111	0.03491525	0.00218362
	-0.1194904	0.8817694	-0.09898739	-0.03860812	0.03763867	0.004113006	0.01045662	-0.00145771
	0.01074361	-0.002979095	0.03559173	0.003236763	-0.09753665	-0.03649403	-0.1134355	0.8829393
	0.03446158	0.001198266	0.01039541	-0.001826294	-0.1118925	0.8834405	-0.1000268	-0.0395414
3.7e+08	-0.07959264	-0.01500398	0.1478344	0.8774791	0.03156468	-0.009537119	0.03783423	-0.007239382
	0.1477897	0.8774922	-0.07994761	-0.01216733	0.04107701	-0.006345011	0.03142714	-0.008283836
	0.03134498	-0.009401777	0.03882868	-0.006492266	-0.07766345	-0.0105034	0.1541697	0.8768409
	0.03705731	-0.008045789	0.03120637	-0.008588131	0.1557993	0.8768073	-0.08099266	-0.01291305
3.8e+08	-0.05342255	-0.002553552	0.4018614	0.7933725	0.04452656	-0.02666036	0.03760941	-0.01957001
	0.4018194	0.793399	-0.05308274	0.0002060036	0.04097015	-0.01984118	0.0444848	-0.02574173
	0.04432092	-0.02634117	0.03878111	-0.01922123	-0.05023158	0.001029044	0.4079677	0.7908081
	0.03658243	-0.02008687	0.04415271	-0.02590856	0.4094999	0.7902405	-0.0541173	-0.0003929214
3.9e+08	-0.02785449	-0.005121662	0.6188948	0.6372049	0.0452458	-0.04812996	0.03203654	-0.0328518
	0.6188592	0.6372448	-0.02684642	-0.002568305	0.03509052	-0.03425355	0.04510716	-0.04750541
	0.04516618	-0.04764406	0.03322386	-0.03292583	-0.02389565	-0.002806089	0.6241652	0.6327841
	0.03087262	-0.03300207	0.04474593	-0.04749555	0.6254289	0.6317463	-0.02788964	-0.003034231
4e+08	-0.01024099	-0.01918207	0.7790199	0.4238243	0.03355182	-0.06623852	0.02072784	-0.0438907
	0.7789943	0.4238766	-0.008560336	-0.01696767	0.02309789	-0.04622893	0.03318196	-0.06577178
	0.03368702	-0.06566218	0.02178132	-0.0443443	-0.006072104	-0.01820157	0.7828628	0.417827
	0.01956071	-0.04364635	0.03288452	-0.06559501	0.783722	0.4164337	-0.00963935	-0.01725424
4.1e+08	-0.004608583	-0.03808858	0.8681456	0.1732169	0.01368869	-0.07456427	0.00544438	-0.04989799
	0.8681353	0.1732793	-0.002255756	-0.03637562	0.006868002	-0.05286001	0.01305449	-0.07406752
	0.01407647	-0.07401299	0.006254278	-0.05064147	-0.000695543	-0.03823827	0.8700744	0.1661204
	0.004408346	-0.04927988	0.01289509	-0.07378059	0.8704377	0.1645241	-0.003349585	-0.03639647
4.2e+08	-0.01065484	-0.05439315	0.8789857	-0.09180606	-0.007266503	-0.0703076	-0.0108738	-0.04983062
	0.8789945	-0.09173751	-0.007658708	-0.05343609	-0.01052676	-0.05304871	-0.008078756	-0.06961081
	-0.006651698	-0.0699009	-0.01036983	-0.05075283	-0.007244325	-0.05533147	0.8786959	-0.09937343
	-0.01166618	-0.04890338	-0.00806621	-0.06930138	0.8785262	-0.1010052	-0.00866198	-0.05308779
4.3e+08	-0.02411325	-0.06226961	0.8111548	-0.3477101	-0.02196521	-0.05507513	-0.02564519	-0.04450037
	0.8111859	-0.3476415	-0.02062076	-0.06237412	-0.02636906	-0.04760326	-0.02277833	-0.05409107
	-0.02120453	-0.05490539	-0.02546614	-0.04548774	-0.02121442	-0.06365186	0.8085453	-0.3550459
	-0.02611013	-0.04335678	-0.02261062	-0.05385057	0.8078583	-0.3565418	-0.02134006	-0.06161236
4.4e+08	-0.03824105	-0.05936691	0.6708251	-0.5720007	-0.02519616	-0.03423505	-0.03767953	-0.03559973
	0.6708798	-0.5719395	-0.03456505	-0.0608323	-0.03935413	-0.03825436	-0.02580347	-0.03300491
	-0.02440345	-0.03434372	-0.03780936	-0.03654844	-0.03568511	-0.06099	0.6660187	-0.5783986
	-0.03776526	-0.0343491	-0.02554198	-0.03290182	0.6648822	-0.5795995	-0.03475749	-0.05973035
4.5e+08	-0.04612177	-0.04769068	0.4702373	-0.7447292	-0.0154801	-0.01515712	-0.04706805	-0.02435656
	0.4703141	-0.744683	-0.04276142	-0.0507224	-0.04948352	-0.02629174	-0.01573106	-0.01385366
	-0.01477129	-0.01552713	-0.04746269	-0.02517888	-0.04369686	-0.0495705	0.4635566	-0.7495337
	-0.04675453	-0.02311623	-0.01546323	-0.01391424	0.4620851	-0.7503083	-0.04220968	-0.04949735
4.6e+08	-0.04324084	-0.03309547	0.22706	-0.8499689	0.004443286	-0.004989067	-0.05410474	-0.01085758
	0.2271551	-0.8499466	-0.04081791	-0.03766862	-0.05697948	-0.01188768	0.004573635	-0.003861024
	0.004978562	-0.005554032	-0.05469703	-0.01148798	-0.04083748	-0.03543427	0.2190211	-0.8526175
	-0.05340221	-0.00975164	0.00476092	-0.004061294	0.2173712	-0.852875	-0.03942638	-0.03666985
4.7e+08	-0.02944204	-0.02326132	-0.03659423	-0.8774835	0.02821265	-0.00845283	-0.05807762	0.005472075
	-0.03648751	-0.8774923	-0.02862152	-0.02907505	-0.06108849	0.005436022	0.02858617	-0.007739752
	0.02853157	-0.009119379	-0.05878583	0.00506953	-0.02718715	-0.02635442	-0.04529359	-0.8775758
	-0.05703374	0.006322232	0.02863222	-0.008014307	-0.04694359	-0.8772828	-0.02647912	-0.02869979
4.8e+08	-0.009400441	-0.02472798	-0.2959085	-0.8243408	0.0476105	-0.02609912	-0.05695394	0.0244769
	-0.2958005	-0.8243869	-0.01071199	-0.03115963	-0.05976698	0.02540784	0.04796155	-0.02593166
	0.04772054	-0.026776	-0.05769516	0.02430279	-0.0076719	-0.02877382	-0.304427	-0.8217007
	-0.05565766	0.02496107	0.04785076	-0.02619396	-0.3058946	-0.8208869	-0.008123355	-0.03174373
4.9e+08	0.008919923	-0.04009211	-0.5260927	-0.6959487	0.05518854	-0.05372137	-0.04842911	0.04405884
	-0.5259972	-0.6960348	0.005239996	-0.04627925	-0.050745	0.04581668	0.05520641	-0.05406436
	0.05513467	-0.05434548	-0.04913724	0.04408322	0.009581036	-0.04502923	-0.5335301	-0.6907055
	-0.04701021	0.04409748	0.05497179	-0.05423524	-0.5346546	-0.6894617	0.007812138	-0.04797577
5e+08	0.01727397	-0.06675057	-0.7056505	-0.5056594	0.04698532	-0.08349445	-0.0317532	0.06026208
	-0.7055832	-0.505783	0.0113829	-0.07174668	-0.03334867	0.06261782	0.04641321	-0.08414787
	0.04682477	-0.08404336	-0.03239221	0.06043961	0.01634697	-0.07217094	-0.7111908	-0.4982743
	-0.03036861	0.05982583	0.04612252	-0.08418072	-0.711855	-0.4967374	0.01344398	-0.07445735
5.1e+08	0.01020119	-0.09772279	-0.8191372	-0.2727667	0.02405733	-0.1066588	-0.008969149	0.06886012
	-0.8191144	-0.2729171	0.002689675	-0.1007239	-0.009725488	0.071536	0.02277346	-0.1073184
	0.02383284	-0.107146	-0.00953179	0.06915331	0.007418134	-0.1029298	-0.8221748	-0.2639655
	-0.007783074	0.06797901	0.02250506	-0.1072117	-0.8223144	-0.2623016	0.003845646	-0.1041054
5.2e+08	-0.01305643	-0.1240598	-0.8585003	-0.01951356	-0.007997248	-0.1165895	0.01546753	0.06748509
	-0.8585331	-0.01967389	-0.02130775	-0.1245726	0.01557094	0.07020427	-0.009951954	-0.1169246
	-0.008274394	-0.1170439	0.01497521	0.06787792	-0.01758963	-0.128238	-0.8587413	-0.01017396
	0.01631362	0.06624734	-0.01013707	-0.1167165	-0.8583483	-0.00855244	-0.0212209	-0.1281369
