!$
! Info: Touchstone file created by Circ.  Input file=Tx_NPC_250mm_32AWG_BPK_100mm_27AWG_BPK_250mm_32AWG_NPC_Rx.circ
!$
# Hz S RI R 50
0	0.0671575	1.301093e-16	-3.279766e-05	-1.955054e-20	0.001312069	3.702869e-16	-4.231836e-05	-1.088888e-18
	-4.207379e-05	5.071928e-20	0.01272697	-2.117958e-16	-3.581223e-05	-2.452095e-20	0.002573747	-4.583924e-16
	0.002607263	7.438848e-16	-3.653829e-05	8.425174e-20	0.04281869	-3.399801e-16	-5.461607e-05	1.182275e-18
	-3.276301e-05	-1.570398e-18	0.002682354	-2.626335e-16	-4.263718e-05	3.774442e-20	0.03767701	4.539912e-16
1e+07	0.04518247	0.006052949	-0.0001067875	2.665593e-07	0.009997876	0.02310116	-5.613797e-05	-2.095985e-05
	-0.0001176999	-2.235266e-07	0.04542374	0.005968833	-9.60842e-06	1.888067e-05	0.01009562	0.02303001
	0.01094429	0.02295195	-9.977964e-06	2.030433e-05	0.04429096	0.006259783	-0.0001277764	4.445978e-06
	-4.819515e-05	-2.606549e-05	0.01014109	0.02305238	-0.0001169076	3.088757e-07	0.04697917	0.005449366
2e+07	0.05274465	0.007212007	-0.0001137595	-3.081384e-05	0.02677183	0.04131353	-7.340118e-05	-3.514626e-05
	-0.000127005	-3.047483e-05	0.05302468	0.007066336	-3.41158e-05	9.011335e-05	0.02686024	0.04122683
	0.02757485	0.04068726	-3.30046e-05	9.232605e-05	0.05191834	0.007658426	-0.0001338514	-2.248142e-05
	-6.928433e-05	-4.366869e-05	0.02690344	0.0412047	-0.0001252813	-2.986667e-05	0.05431391	0.006034422
3e+07	0.06083098	0.003653508	-0.0001280676	-3.289042e-05	0.04979114	0.04968098	-0.0001001389	-3.887237e-05
	-0.0001438325	-2.96787e-05	0.06112595	0.003372314	-3.242509e-05	0.0001383918	0.04981232	0.04956406
	0.05050336	0.04854436	-2.951361e-05	0.0001402931	0.06012386	0.004292891	-0.0001464565	-2.034653e-05
	-0.0001008895	-4.846903e-05	0.04987652	0.04948067	-0.0001409741	-2.977537e-05	0.06203696	0.001987865
4e+07	0.0673702	-0.004075515	-0.0001413606	-2.236541e-05	0.07481219	0.04562833	-0.0001282194	-2.92376e-05
	-0.0001586284	-1.419431e-05	0.06763722	-0.004549841	-2.192318e-05	0.0001677632	0.07479501	0.0454607
	0.07513374	0.04429027	-1.754084e-05	0.0001681995	0.06683198	-0.00329316	-0.0001570666	-5.759239e-06
	-0.0001336976	-3.740562e-05	0.07483696	0.04535757	-0.0001549032	-1.60114e-05	0.06807708	-0.006108762
5e+07	0.07067964	-0.01453795	-0.0001511731	-7.245398e-06	0.09566797	0.03075609	-0.0001541457	-8.67971e-06
	-0.000167784	7.310459e-06	0.07081298	-0.01520177	-1.320484e-07	0.0001886492	0.09560551	0.03052309
	0.09555675	0.02947353	4.79069e-06	0.0001869524	0.07034179	-0.0136362	-0.000163155	1.297323e-05
	-0.0001630994	-1.336503e-05	0.0956212	0.03042813	-0.0001641296	2.977682e-06	0.07079486	-0.01682792
6e+07	0.06989068	-0.02643628	-0.0001602794	8.361365e-06	0.1080911	0.007892755	-0.0001762779	2.090645e-05
	-0.000173329	2.951014e-05	0.06981118	-0.02725054	2.565072e-05	0.0001994667	0.1079363	0.007633715
	0.1075665	0.006663578	2.991858e-05	0.0001953398	0.06977239	-0.02550183	-0.000167546	3.124831e-05
	-0.0001866717	2.09029e-05	0.1079189	0.007529353	-0.0001712073	2.235164e-05	0.06936135	-0.02876138
7e+07	0.06483167	-0.03761105	-0.0001731786	2.579646e-05	0.1094908	-0.01812004	-0.0001934915	6.125583e-05
	-0.0001797081	5.243662e-05	0.06445488	-0.0384911	4.839724e-05	0.0002037072	0.1092282	-0.01837903
	0.1086066	-0.01912018	5.082049e-05	0.000197638	0.06493141	-0.03669782	-0.0001750703	5.027998e-05
	-0.0002030236	6.611619e-05	0.1091817	-0.01847471	-0.0001808107	4.304529e-05	0.06365151	-0.03978843
8e+07	0.05598336	-0.04646374	-0.000184518	6.958208e-05	0.09963826	-0.04210353	-0.0002029124	0.0001134078
	-0.0001820884	9.922492e-05	0.05527946	-0.04727046	6.379534e-05	0.0002073007	0.09926067	-0.04231667
	0.09848363	-0.04277796	6.350646e-05	0.0002002961	0.05628629	-0.04562749	-0.0001806932	9.429293e-05
	-0.0002094384	0.0001222676	0.0991851	-0.04239303	-0.0001878573	8.905474e-05	0.05421213	-0.04828699
9e+07	0.04444769	-0.05153403	-0.000188064	0.0001251144	0.08059137	-0.05925669	-0.0001996126	0.0001769189
	-0.0001753832	0.000154222	0.04345775	-0.05211766	7.552211e-05	0.0002235791	0.08011291	-0.05936797
	0.0792619	-0.05954869	7.223076e-05	0.0002169819	0.04491386	-0.05082416	-0.00017854	0.000148715
	-0.0002015749	0.0001880195	0.0800132	-0.05941651	-0.0001865164	0.0001455757	0.04222337	-0.05280489
1e+08	0.03200053	-0.05172716	-0.0001717735	0.0001916889	0.0563874	-0.06609756	-0.0001748314	0.0002493441
	-0.0001490732	0.0002162489	0.03082732	-0.05196698	9.239739e-05	0.0002637151	0.05584706	-0.06606424
	0.05503508	-0.06595861	8.653641e-05	0.0002589075	0.03257944	-0.05117312	-0.0001567874	0.0002129429
	-0.0001716073	0.0002603821	0.05573822	-0.06607631	-0.0001650681	0.0002118469	0.02952312	-0.05230396
1.1e+08	0.02059167	-0.04681808	-0.0001331944	0.0002610192	0.03215713	-0.06130834	-0.0001232568	0.0003215545
	-0.0001025201	0.0002771995	0.01941649	-0.04662982	0.0001164437	0.0002982534	0.03162213	-0.06109156
	0.0308813	-0.06075395	0.0001090486	0.0002962816	0.02123256	-0.04643106	-0.0001133039	0.0002786429
	-0.0001153802	0.000330116	0.03151394	-0.06106371	-0.0001214855	0.0002794744	0.01812582	-0.04662028
1.2e+08	0.01257416	-0.03736507	-5.928425e-05	0.0003278667	0.01330364	-0.04598439	-4.025802e-05	0.0003835963
	-2.415284e-05	0.0003328857	0.01159176	-0.03675622	0.0001798817	0.000320798	0.01285578	-0.04558716
	0.01224869	-0.04505556	0.000172439	0.0003220928	0.01322324	-0.03712161	-3.516117e-05	0.0003406646
	-2.932773e-05	0.0003877641	0.01276582	-0.04552205	-4.29634e-05	0.0003433083	0.01040802	-0.03641971
1.3e+08	0.009804654	-0.02493526	5.102212e-05	0.0003669358	0.004168316	-0.02362498	7.203231e-05	0.0004192605
	8.607349e-05	0.000359684	0.009214581	-0.02400498	0.0002733282	0.0003145396	0.003892451	-0.02308556
	0.003440441	-0.02240615	0.0002673615	0.000318736	0.01043691	-0.02480045	7.830162e-05	0.0003736851
	8.364286e-05	0.0004180546	0.003834518	-0.02299321	7.113103e-05	0.0003780789	0.008212246	-0.02337766
1.4e+08	0.01347278	-0.0119089	0.0001811255	0.0003566532	0.007082157	0.0005871957	0.0002018678	0.0004139811
	0.0002114343	0.0003380438	0.01342637	-0.01084746	0.0003778856	0.000261493	0.007046234	0.0011894
	0.00675342	0.001984884	0.0003745369	0.0002675042	0.01408923	-0.01184484	0.0002099881	0.0003563023
	0.0002115524	0.0004076695	0.007028519	0.001294319	0.0002037506	0.0003624386	0.01267126	-0.009975766
1.5e+08	0.02371716	-0.00117458	0.0003019993	0.0002888778	0.02175101	0.02087818	0.0003298495	0.0003606076
	0.0003237445	0.0002616821	0.02425863	-0.0002386242	0.0004641639	0.0001564211	0.02198101	0.02143178
	0.02186521	0.02231163	0.0004638559	0.0001627303	0.02434139	-0.001149726	0.0003303938	0.0002808027
	0.0003354299	0.0003506921	0.0220047	0.02153011	0.0003255214	0.0002886724	0.02382049	0.0008179929
1.6e+08	0.03927601	0.004581043	0.0003838199	0.0001749342	0.04521929	0.03225266	0.0004348247	0.0002633687
	0.0003947568	0.0001432181	0.04035211	0.005127622	0.0005027585	1.344315e-05	0.04569445	0.03263659
	0.04575919	0.03359662	0.0005050779	1.859125e-05	0.0399496	0.004561554	0.0004092817	0.0001593486
	0.000435096	0.0002522286	0.04575225	0.0327135	0.0004063568	0.0001687768	0.04027333	0.006295376
1.7e+08	0.05789503	0.003211013	0.0004085408	4.253725e-05	0.07257224	0.03157357	0.0005008996	0.0001367932
	0.0004083827	1.069717e-05	0.05931972	0.003143245	0.0004765793	-0.0001366232	0.07321396	0.03168207
	0.07348861	0.03269359	0.000480446	-0.0001336287	0.0586572	0.003121871	0.0004287514	2.057863e-05
	0.0004959611	0.0001270753	0.07329192	0.03172555	0.0004284221	3.114032e-05	0.0596442	0.004328458
1.8e+08	0.07653635	-0.006219654	0.0003784907	-7.562906e-05	0.0980578	0.01832434	0.0005225214	4.037189e-07
	0.0003687253	-0.0001037424	0.07804217	-0.007034627	0.000390311	-0.000257143	0.09874599	0.01808973
	0.09926064	0.01912006	0.0003943688	-0.0002565467	0.07740729	-0.006437852	0.0003916929	-0.000101892
	0.0005137017	-5.637573e-06	0.09882712	0.01809658	0.000394505	-9.096616e-05	0.07878626	-0.005937925
1.9e+08	0.09202341	-0.02339856	0.0003146088	-0.000155741	0.1163802	-0.005414564	0.0005045004	-0.0001282767
	0.0002979453	-0.0001774966	0.09331138	-0.02497344	0.000269855	-0.0003202587	0.1169764	-0.006006421
	0.1177566	-0.005007365	0.0002729158	-0.0003215752	0.09299166	-0.02382268	0.0003200383	-0.0001837166
	0.0004939918	-0.0001292988	0.117045	-0.006031044	0.0003262481	-0.0001734766	0.09445913	-0.02408068
2e+08	0.1015126	-0.04685847	0.0002465616	-0.0001921721	0.1237865	-0.03552919	0.0004581027	-0.000238624
	0.0002261873	-0.0002064392	0.1022905	-0.04907971	0.0001532539	-0.0003181191	0.1241536	-0.03643573
	0.1252069	-0.03554243	0.0001546322	-0.0003203711	0.1025289	-0.0475635	0.0002445694	-0.0002193443
	0.0004484226	-0.0002344541	0.1241981	-0.03648079	0.0002540192	-0.0002109716	0.103797	-0.04850931
2.1e+08	0.1029199	-0.07413223	0.0001995064	-0.0001985895	0.1187511	-0.06682177	0.0003956283	-0.0003282611
	0.0001783912	-0.0002055939	0.1029759	-0.0767898	7.660088e-05	-0.0002667631	0.1187749	-0.06795102
	0.1200966	-0.06723797	7.626099e-05	-0.0002688564	0.1038859	-0.07517725	0.0001913706	-0.0002229571
	0.0003890587	-0.0003198539	0.1187925	-0.06800132	0.0002034198	-0.0002175606	0.1047538	-0.07663798
2.2e+08	0.09507222	-0.1022098	0.0001838268	-0.0002003598	0.1020523	-0.09409435	0.0003260696	-0.0004011242
	0.0001642245	-0.0002013541	0.09427734	-0.1050158	6.087989e-05	-0.0002008083	0.1016604	-0.09531551
	0.1032071	-0.09486928	5.93495e-05	-0.0002018632	0.09586523	-0.1036109	0.0001712434	-0.0002208756
	0.0003242196	-0.000390327	0.1016546	-0.09535773	0.0001848654	-0.0002193042	0.09621665	-0.1053652
2.3e+08	0.07793226	-0.1277388	0.0001912599	-0.0002234472	0.07650826	-0.1130925	0.0002526724	-0.0004642497
	0.00017447	-0.0002201872	0.07628409	-0.1303898	0.0001031701	-0.0001623719	0.07567987	-0.114254
	0.07738163	-0.1141495	0.0001013192	-0.0001619727	0.07841645	-0.1294631	0.0001758312	-0.0002399333
	0.0002561928	-0.0004534116	0.07566126	-0.1142792	0.0001897215	-0.0002426271	0.07824721	-0.131284
2.4e+08	0.0526354	-0.1474381	0.000198461	-0.0002832096	0.04630315	-0.1211779	0.0001724383	-0.0005240611
	0.0001848302	-0.0002774807	0.05024232	-0.1496534	0.0001754807	-0.0001864166	0.04507589	-0.1221284
	0.04683244	-0.1224201	0.0001742245	-0.000184687	0.05268323	-0.1493912	0.000181261	-0.0002960758
	0.0001809167	-0.0005155975	0.04505776	-0.1221349	0.0001940202	-0.0003029981	0.05207912	-0.1510926
2.5e+08	0.02148649	-0.1584763	0.0001758761	-0.0003775111	0.01619527	-0.117665	7.720515e-05	-0.0005827783
	0.0001649685	-0.0003707427	0.0185492	-0.1600284	0.0002314297	-0.000286988	0.01466342	-0.1182719
	0.01634494	-0.1189814	0.0002314586	-0.0002845213	0.02101093	-0.1605127	0.0001572694	-0.0003872693
	8.922451e-05	-0.0005787395	0.01465667	-0.1182658	0.0001675788	-0.0003979179	0.02011095	-0.1619818
2.6e+08	-0.01211927	-0.1589333	9.871513e-05	-0.0004857021	-0.009297135	-0.1038299	-4.344128e-05	-0.0006352403
	8.966655e-05	-0.0004786906	-0.0153334	-0.1597078	0.0002202499	-0.000448006	-0.01099111	-0.1040055
	-0.009522152	-0.1051097	0.0002218122	-0.0004456732	-0.01314847	-0.1608719	7.860076e-05	-0.0004924969
	-3.007765e-05	-0.0006369171	-0.01097951	-0.1039994	8.538461e-05	-0.0005059446	-0.01418323	-0.1620802
2.7e+08	-0.04411165	-0.1482501	-4.276364e-05	-0.0005738495	-0.02662999	-0.08258173	-0.0001971345	-0.0006674972
	-5.093037e-05	-0.0005666917	-0.04731703	-0.1482262	0.0001054201	-0.0006234375	-0.02831436	-0.08229948
	-0.02719791	-0.08371666	0.0001082564	-0.0006221349	-0.04564837	-0.149903	-6.460487e-05	-0.0005771965
	-0.0001850436	-0.000675141	-0.02828779	-0.08230771	-6.206856e-05	-0.0005922321	-0.04668926	-0.1508978
2.8e+08	-0.0702602	-0.1275658	-0.0002373057	-0.0006048239	-0.03377322	-0.05797141	-0.0003825846	-0.0006585757
	-0.0002452658	-0.0005969863	-0.07319549	-0.1268389	-0.0001179956	-0.0007484393	-0.03527475	-0.05727958
	-0.03461958	-0.05887094	-0.0001146189	-0.0007488087	-0.07218655	-0.1287722	-0.0002606331	-0.0006037007
	-0.0003743225	-0.000671271	-0.03524499	-0.05731358	-0.000262631	-0.0006189498	-0.07315815	-0.1296488
2.9e+08	-0.08698555	-0.09976481	-0.0004528728	-0.0005510955	-0.03053765	-0.03447819	-0.000584813	-0.0005868029
	-0.0004607217	-0.000541676	-0.08945687	-0.09851739	-0.0004146802	-0.000761188	-0.03171596	-0.03349749
	-0.03157431	-0.03507691	-0.0004117835	-0.0007633914	-0.08912335	-0.1004186	-0.0004766336	-0.0005443567
	-0.0005823556	-0.0006025655	-0.03170152	-0.03356055	-0.0004830025	-0.0005584445	-0.0900267	-0.1012892
3e+08	-0.09214223	-0.06911184	-0.0006446885	-0.000406168	-0.01861785	-0.01622967	-0.0007752514	-0.000439131
	-0.000651814	-0.000394255	-0.09405098	-0.06757279	-0.000715646	-0.0006280055	-0.01939706	-0.01513338
	-0.01974102	-0.01649067	-0.0007142556	-0.0006316127	-0.09428476	-0.06918875	-0.0006670127	-0.0003931436
	-0.0007795478	-0.0004552434	-0.0194177	-0.01521596	-0.0006771815	-0.000404837	-0.09518633	-0.07013168
3.1e+08	-0.08559467	-0.0405252	-0.0007697162	-0.0001896155	-0.001324604	-0.006225295	-0.0009185074	-0.0002194627
	-0.0007748526	-0.0001747553	-0.08696005	-0.03893008	-0.000940663	-0.0003609418	-0.001715621	-0.005206325
	-0.002427649	-0.006151976	-0.0009414612	-0.0003649665	-0.08754522	-0.0400864	-0.0007882898	-0.0001706826
	-0.0009292228	-0.0002330161	-0.001785607	-0.005289136	-0.0008013494	-0.0001790175	-0.08855536	-0.04112187
3.2e+08	-0.06937622	-0.01853524	-0.0008024917	5.808928e-05	0.01706944	-0.005681209	-0.0009841977	4.914442e-05
	-0.0008040556	7.562378e-05	-0.07029125	-0.01706107	-0.001029235	-1.727882e-05	0.01696955	-0.004907528
	0.01608634	-0.005306713	-0.001032296	-2.042287e-05	-0.07098283	-0.01771691	-0.0008152939	8.139424e-05
	-0.0009997478	4.064284e-05	0.01684875	-0.004961543	-0.0008301263	7.70473e-05	-0.07220748	-0.01878262
3.3e+08	-0.04729332	-0.00633517	-0.0007446093	0.000290589	0.03220771	-0.01374079	-0.0009572313	0.0003306127
	-0.000741143	0.000309629	-0.04791017	-0.005079676	-0.0009652071	0.0003213296	0.03223409	-0.01331759
	0.03142373	-0.01312933	-0.0009698495	0.0003202999	-0.04848811	-0.00531555	-0.0007506194	0.0003158669
	-0.0009751197	0.0003287068	0.03207661	-0.01331436	-0.0007660152	0.0003157616	-0.04998508	-0.006283022
3.4e+08	-0.02410674	-0.005094152	-0.0006218937	0.0004737486	0.04067795	-0.02764372	-0.0008428187	0.0005875199
	-0.00061254	0.0004924022	-0.02457389	-0.004064004	-0.0007822349	0.0005818616	0.04063535	-0.02758827
	0.04014378	-0.02687844	-0.0007871365	0.000583692	-0.02490338	-0.004053367	-0.0006214243	0.0004985249
	-0.0008601832	0.0005925163	0.04047026	-0.02750773	-0.0006362061	0.0005025561	-0.02664906	-0.004760714
3.5e+08	-0.00449286	-0.01378504	-0.00047016	0.0005971131	0.04080652	-0.04340341	-0.0006620043	0.0007926056
	-0.0004549553	0.0006131552	-0.004905351	-0.01292166	-0.0005464757	0.0007284069	0.04051461	-0.0436415
	0.04054333	-0.04257485	-0.0005500061	0.0007330488	-0.004980626	-0.01286403	-0.0004646122	0.0006196967
	-0.0006762121	0.0008035889	0.04038154	-0.04347948	-0.0004777379	0.0006274497	-0.006856464	-0.01316549
3.6e+08	0.007901769	-0.02951342	-0.0003174753	0.0006726112	0.03302039	-0.05680382	-0.000441891	0.0009341773
	-0.000297446	0.0006839413	0.00751086	-0.02872772	-0.0003255176	0.0007722755	0.03235182	-0.05718563
	0.03301528	-0.05599825	-0.0003262201	0.0007787805	0.007588246	-0.02878369	-0.0003085803	0.0006925269
	-0.0004510332	0.0009493035	0.03228914	-0.05695762	-0.0003192208	0.0007033584	0.005776964	-0.02859769
3.7e+08	0.01114085	-0.04819862	-0.0001728575	0.0007219209	0.01966086	-0.06444265	-0.0002057777	0.001014406
	-0.0001497833	0.0007270048	0.01081739	-0.0474292	-0.0001590519	0.0007599105	0.01857163	-0.06477729
	0.01987985	-0.06373388	-0.0001560888	0.0007666376	0.01086325	-0.04765076	-0.0001617384	0.0007398227
	-0.0002089282	0.00103134	0.01861014	-0.06451761	-0.0001693145	0.0007529633	0.009352149	-0.04700147
3.8e+08	0.00527485	-0.06543761	-2.673248e-05	0.0007607535	0.004311772	-0.06448561	3.25991e-05	0.001042542
	-2.843814e-06	0.0007588622	0.005101828	-0.06467782	-4.50494e-05	0.0007458314	0.002850219	-0.06458101
	0.004701786	-0.06392846	-3.851923e-05	0.0007508345	0.004931239	-0.06499399	-1.332755e-05	0.0007776166
	3.534472e-05	0.001058942	0.003002376	-0.06433649	-1.749156e-05	0.0007922761	0.003938464	-0.06402342
3.9e+08	-0.007734182	-0.0773803	0.0001386661	0.0007882062	-0.009095307	-0.05700636	0.000269482	0.001027004
	0.000161083	0.0007794821	-0.00767295	-0.07669645	5.393427e-05	0.000763869	-0.01079647	-0.05671274
	-0.008596995	-0.05663469	6.294378e-05	0.0007654098	-0.008180085	-0.07692468	0.0001555396	0.0008043592
	0.0002771751	0.001040924	-0.01054037	-0.05653356	0.000154975	0.0008198005	-0.008509423	-0.07587241
4e+08	-0.02443898	-0.08148879	0.0003352167	0.0007858455	-0.01717719	-0.04385878	0.0005067383	0.0009691765
	0.0003541564	0.0007711908	-0.0241019	-0.08101729	0.0001879309	0.0008093293	-0.01892882	-0.04310447
	-0.01663654	-0.04368785	0.0001975448	0.0008063429	-0.02494586	-0.08090251	0.0003571347	0.0008002302
	0.0005178732	0.0009793278	-0.01860046	-0.04303458	0.000360297	0.0008157791	-0.02458343	-0.08007088
4.1e+08	-0.04061113	-0.07707259	0.0005578515	0.0007257534	-0.01778198	-0.02819682	0.0007443928	0.0008612515
	0.0005718069	0.0007066457	-0.04003362	-0.07697757	0.0003904599	0.0008395747	-0.01938025	-0.02700615
	-0.0172641	-0.02821962	0.000398413	0.0008320231	-0.04107125	-0.07627877	0.0005856225	0.0007358328
	0.0007572752	0.000867117	-0.01902914	-0.02707185	0.0005926615	0.0007507848	-0.04012284	-0.07597087
4.2e+08	-0.05214144	-0.0654914	0.000780542	0.0005837541	-0.01039639	-0.01380913	0.0009729824	0.0006895925
	0.0007886455	0.0005619649	-0.05145257	-0.06594065	0.0006556763	0.0007934296	-0.01167124	-0.01230327
	-0.009961661	-0.01400416	0.0006598473	0.0007823729	-0.05240465	-0.06448284	0.0008132828	0.0005862075
	0.00098606	0.0006913476	-0.01135583	-0.01250893	0.0008243614	0.0005997032	-0.0511132	-0.06494844
4.3e+08	-0.05599115	-0.04993648	0.0009612724	0.0003531014	0.003757386	-0.004372232	0.001169202	0.0004433525
	0.0009632972	0.0003304555	-0.05540798	-0.05104111	0.0009326986	0.0006222404	0.002898463	-0.002741077
	0.004057163	-0.004699673	0.0009316468	0.0006097066	-0.05590744	-0.04879523	0.000995969	0.0003450708
	0.001181339	0.0004416648	0.003121446	-0.003064852	0.001011119	0.0003559461	-0.05461221	-0.05016727
4.4e+08	-0.05097835	-0.03476326	0.001055005	5.343976e-05	0.02190253	-0.002726492	0.001298715	0.0001253378
	0.001051283	3.158019e-05	-0.05078238	-0.03653918	0.001142183	0.0003192762	0.02144813	-0.001183509
	0.02202879	-0.003131207	0.001135572	0.0003078383	-0.05044562	-0.03365374	0.001087044	3.387373e-05
	0.001309301	0.0001210611	0.02153511	-0.001580404	0.001105902	4.064275e-05	-0.04953154	-0.03591379
4.5e+08	-0.03818904	-0.02447597	0.00103135	-0.0002697347	0.04016363	-0.01024944	0.001326755	-0.0002405591
	0.001022607	-0.0002895106	-0.0386819	-0.02681561	0.001210391	-6.755118e-05	0.03999736	-0.008977307
	0.04009457	-0.01066407	0.001199162	-7.537489e-05	-0.03719123	-0.02361714	0.001055821	-0.0002992906
	0.001335624	-0.0002466776	0.03992695	-0.009387029	0.001077329	-0.0002982526	-0.03702378	-0.02657954
4.6e+08	-0.02083235	-0.02259237	0.0008898365	-0.0005578103	0.05429829	-0.02643622	0.001232694	-0.0006107839
	0.0008769781	-0.0005745914	-0.02226407	-0.02525229	0.001105876	-0.0004492985	0.054229	-0.02553778
	0.05403916	-0.02678559	0.001092129	-0.0004516994	-0.01946469	-0.02220913	0.0009031515	-0.0005933356
	0.001239924	-0.0006182978	0.05400847	-0.0258953	0.0009253589	-0.0005993769	-0.02030725	-0.0255441
4.7e+08	-0.003513514	-0.03068885	0.0006639235	-0.0007605823	0.06062012	-0.04884663	0.001021121	-0.0009338861
	0.0006478615	-0.0007738082	-0.006041059	-0.03331928	0.0008593465	-0.0007327949	0.06042767	-0.04831842
	0.0602005	-0.04905739	0.0008458134	-0.0007291703	-0.001981739	-0.03095592	0.0006650828	-0.0007968161
	0.001026748	-0.0009426333	0.0600907	-0.04856819	0.0006852697	-0.0008104757	-0.00394181	-0.03423911
4.8e+08	0.008873166	-0.04795075	0.0004091238	-0.0008566768	0.05688702	-0.07352695	0.0007224912	-0.001167186
	0.0003906674	-0.0008659899	0.00524707	-0.05014475	0.0005532401	-0.0008631836	0.05637925	-0.07325834
