!$
! Info: Touchstone file created by Circ.  Input file=Tx_NPC_250mm_32AWG_BPK_100mm_27AWG_BPK_250mm_32AWG_NPC_Rx.circ
!$
# Hz S RI R 50
0	0.066755	-3.177717e-16	5.4288e-06	3.631586e-18	0.002055427	-4.536568e-16	-1.925442e-05	-5.826381e-19
	-4.457791e-05	2.456831e-18	0.01272697	-2.117958e-16	-4.891551e-05	-3.428052e-20	0.002573747	-4.583924e-16
	0.0031693	8.246943e-16	3.33977e-06	9.242327e-19	0.04283025	-2.125883e-17	-1.946467e-05	3.176397e-19
	-3.421952e-05	-8.825198e-19	0.002682354	-2.626335e-16	-2.516184e-05	1.350005e-18	0.03767701	4.539912e-16
1e+07	0.04458236	0.006144969	2.084524e-05	-2.581562e-05	0.01036976	0.02303655	-3.497089e-06	-2.045365e-05
	-2.708515e-05	-1.140358e-05	0.04542374	0.005968833	-3.154925e-05	-8.377575e-06	0.01009562	0.02303001
	0.01118489	0.02300128	1.854595e-05	-2.320809e-05	0.04458325	0.006315018	-1.260249e-05	-1.3118e-05
	-1.792068e-05	-1.558824e-05	0.01014109	0.02305238	-1.775223e-05	-1.073601e-05	0.04697917	0.005449366
2e+07	0.05234653	0.007451103	6.774422e-06	-3.587166e-05	0.02708974	0.04092353	-1.518645e-05	-2.560275e-05
	-3.44361e-05	-9.026332e-06	0.05302468	0.007066336	-5.154322e-05	-1.542675e-05	0.02686024	0.04122683
	0.02785857	0.04052171	-8.10643e-06	-4.336564e-05	0.05225951	0.007837075	-3.10818e-05	-2.191508e-05
	-2.692442e-05	-1.689577e-05	0.02690344	0.0412047	-3.471012e-05	-1.770856e-05	0.05431391	0.006034422
3e+07	0.060629	0.00391104	-1.157701e-05	-4.1821e-05	0.0500691	0.04898484	-3.026524e-05	-2.724006e-05
	-4.30982e-05	-5.556006e-06	0.06112595	0.003372314	-6.890358e-05	-5.153836e-06	0.04981232	0.04956406
	0.05091602	0.04817759	-3.539866e-05	-4.335771e-05	0.06051991	0.004634615	-4.849156e-05	-1.856782e-05
	-3.841985e-05	-1.615026e-05	0.04987652	0.04948067	-5.010154e-05	-1.341087e-05	0.06203696	0.001987865
4e+07	0.06732818	-0.003876662	-3.102314e-05	-4.119424e-05	0.07488042	0.04482588	-4.561546e-05	-2.302613e-05
	-5.119483e-05	9.758276e-07	0.06763722	-0.004549841	-7.977581e-05	1.243369e-05	0.07479501	0.0454607
	0.07552045	0.04380795	-5.827641e-05	-3.250484e-05	0.06738474	-0.002947667	-6.272761e-05	-8.060378e-06
	-5.003503e-05	-1.10806e-05	0.07483696	0.04535757	-6.226357e-05	-2.871432e-06	0.06807708	-0.006108762
5e+07	0.07073984	-0.01444253	-4.992833e-05	-3.457722e-05	0.09550866	0.03001366	-5.949114e-05	-1.364944e-05
	-5.829726e-05	1.006796e-05	0.07081298	-0.01520177	-8.370049e-05	3.35063e-05	0.09560551	0.03052309
	0.09585557	0.02895762	-7.506649e-05	-1.45009e-05	0.07105111	-0.0133895	-7.275885e-05	7.078056e-06
	-6.063369e-05	-2.057537e-06	0.0956212	0.03042813	-7.050989e-05	1.151388e-05	0.07079486	-0.01682792
6e+07	0.06999415	-0.02646328	-6.686279e-05	-2.244538e-05	0.1077054	0.007215068	-7.110808e-05	1.979565e-08
	-6.392168e-05	2.163113e-05	0.06981118	-0.02725054	-8.127592e-05	5.54504e-05	0.1079363	0.007633715
	0.1077848	0.006068044	-8.529511e-05	7.880647e-06	0.07063588	-0.02536184	-7.850764e-05	2.508685e-05
	-6.976844e-05	1.045827e-05	0.1079189	0.007529353	-7.506302e-05	2.833424e-05	0.06936135	-0.02876138
7e+07	0.06491755	-0.03774993	-8.123819e-05	-4.934074e-06	0.1089179	-0.01865065	-8.001442e-05	1.778963e-05
	-6.805526e-05	3.611147e-05	0.06445488	-0.0384911	-7.331353e-05	7.708954e-05	0.1092282	-0.01837903
	0.1087106	-0.01977029	-8.898717e-05	3.298374e-05	0.06588615	-0.03677186	-8.015739e-05	4.541316e-05
	-7.705635e-05	2.68424e-05	0.1091817	-0.01847471	-7.609156e-05	4.726935e-05	0.06365151	-0.03978843
8e+07	0.05600295	-0.04668485	-9.182574e-05	1.830835e-05	0.09891611	-0.04244428	-8.525591e-05	3.997145e-05
	-6.977311e-05	5.441708e-05	0.05527946	-0.04727046	-6.007206e-05	9.796581e-05	0.09926067	-0.04231667
	0.09843964	-0.04346751	-8.583674e-05	5.982975e-05	0.0572595	-0.04595691	-7.716755e-05	6.805676e-05
	-8.13599e-05	4.781233e-05	0.0991851	-0.04239303	-7.299948e-05	6.861467e-05	0.05421213	-0.04828699
9e+07	0.04436981	-0.05179427	-9.627259e-05	4.740607e-05	0.07975392	-0.05937119	-8.484058e-05	6.673561e-05
	-6.682016e-05	7.711516e-05	0.04345775	-0.05211766	-4.077885e-05	0.0001174947	0.08011291	-0.05936797
	0.07903262	-0.06024964	-7.471548e-05	8.728876e-05	0.04582724	-0.05142005	-6.789133e-05	9.276045e-05
	-8.034193e-05	7.378559e-05	0.0800132	-0.05941651	-6.395309e-05	9.22741e-05	0.04222337	-0.05280489
1e+08	0.03181557	-0.05197511	-9.120244e-05	8.113781e-05	0.05550814	-0.06593492	-7.57745e-05	9.707143e-05
	-5.583277e-05	0.0001032583	0.03082732	-0.05196698	-1.345295e-05	0.0001331107	0.05584706	-0.06606424
	0.0546003	-0.06658975	-5.34341e-05	0.0001123106	0.0333081	-0.05203825	-4.95652e-05	0.0001175009
	-7.057434e-05	0.0001037746	0.05573822	-0.06607631	-4.600725e-05	0.0001162103	0.02952312	-0.05230396
1.1e+08	0.02031213	-0.04700265	-7.376058e-05	0.0001161818	0.03131678	-0.06083379	-5.514456e-05	0.0001276924
	-3.403185e-05	0.0001296821	0.01941649	-0.04662982	1.638916e-05	0.0001409275	0.03162213	-0.06109156
	0.03026297	-0.06124469	-2.731617e-05	0.0001305705	0.02169282	-0.04751856	-2.492726e-05	0.0001408303
	-4.883227e-05	0.000134255	0.03151394	-0.06106371	-2.169819e-05	0.0001389741	0.01812582	-0.04662028
1.2e+08	0.01223637	-0.03745273	-4.223314e-05	0.0001470156	0.01262577	-0.04521644	-2.159875e-05	0.0001538774
	1.20689e-07	0.0001509608	0.01159176	-0.03675622	5.117697e-05	0.0001441765	0.01285578	-0.04558716
	0.01150689	-0.04534342	6.195718e-06	0.0001448801	0.01330344	-0.03833022	1.020484e-05	0.0001607941
	-1.355239e-05	0.0001601117	0.01276582	-0.04552205	1.318075e-05	0.000158388	0.01040802	-0.03641971
1.3e+08	0.009451932	-0.02491262	2.104184e-06	0.0001671907	0.003756809	-0.0226237	2.387179e-05	0.0001693021
	4.502901e-05	0.0001608318	0.009214581	-0.02400498	9.107857e-05	0.0001425136	0.003892451	-0.02308556
	0.002648798	-0.02245986	4.744231e-05	0.0001544333	0.01008489	-0.02599593	5.581601e-05	0.0001691386
	3.417491e-05	0.0001745355	0.003834518	-0.02299321	5.857945e-05	0.000166066	0.008212246	-0.02337766
1.4e+08	0.01314733	-0.01178398	5.463619e-05	0.0001710019	0.007014867	0.001724299	7.651143e-05	0.0001680822
	9.568404e-05	0.0001539484	0.01342637	-0.01084746	0.0001338974	0.0001258006	0.007046234	0.0011894
	0.005989795	0.002164821	9.434661e-05	0.0001485177	0.0133064	-0.01287978	0.0001068442	0.0001608749
	8.922959e-05	0.0001712432	0.007028519	0.001294319	0.0001092803	0.0001569263	0.01267126	-0.009975766
1.5e+08	0.02345115	-0.0009744961	0.0001076991	0.0001553881	0.02206996	0.02201503	0.0001284873	0.0001473509
	0.0001440713	0.0001278685	0.02425863	-0.0002386242	0.0001722225	9.260833e-05	0.02198101	0.02143178
	0.02120869	0.02269698	0.000139483	0.0001250138	0.02317685	-0.001863355	0.0001554948	0.0001337955
	0.000143209	0.0001471777	0.0220047	0.02153011	0.0001572449	0.000128803	0.02382049	0.0008179929
1.6e+08	0.03908262	0.004821041	0.0001528159	0.0001217071	0.04590716	0.0332593	0.0001712261	0.0001087713
	0.0001815968	8.481746e-05	0.04035211	0.005127622	0.0001985135	4.579157e-05	0.04569445	0.03263659
	0.04525352	0.03413079	0.0001750975	8.598376e-05	0.03850674	0.00427695	0.0001934995	9.014977e-05
	0.0001868787	0.0001041647	0.04575225	0.0327135	0.0001940929	8.411091e-05	0.04027333	0.006295376
1.7e+08	0.05776821	0.003454562	0.0001834438	7.543551e-05	0.07356294	0.03231966	0.0001981315	5.82462e-05
	0.0002019303	3.123874e-05	0.05931972	0.003143245	0.0002076781	-8.059967e-06	0.07321396	0.03168207
	0.07316252	0.0333119	0.0001955712	3.729058e-05	0.05707656	0.003363185	0.0002148891	3.617138e-05
	0.0002131071	4.854521e-05	0.07329192	0.03172555	0.0002137467	2.937004e-05	0.0596442	0.004328458
1.8e+08	0.07645434	-0.005997606	0.0001970384	2.425329e-05	0.09924102	0.01871992	0.0002068424	3.927048e-06
	0.0002031518	-2.427938e-05	0.07804217	-0.007034627	0.0001989662	-6.078549e-05	0.09874599	0.01808973
	0.0991093	0.01975955	0.0001993781	-1.34974e-05	0.07585059	-0.00563317	0.0002179299	-1.998044e-05
	0.0002192287	-1.082742e-05	0.09882712	0.01809658	0.0002145959	-2.698078e-05	0.07878626	-0.005937925
1.9e+08	0.09195735	-0.02320695	0.0001953412	-2.475313e-05	0.1176228	-0.005410716	0.000199491	-4.668129e-05
	0.0001879579	-7.399345e-05	0.09331138	-0.02497344	0.0001759057	-0.0001054865	0.1169764	-0.006006421
	0.1177533	-0.004394448	0.0001890723	-5.978928e-05	0.09162442	-0.02246828	0.0002052645	-7.109312e-05
	0.0002073998	-6.566522e-05	0.117045	-0.006031044	0.0001995148	-7.75165e-05	0.09445913	-0.02408068
2e+08	0.1014347	-0.04669032	0.0001829694	-6.731237e-05	0.1249473	-0.03591037	0.0001812756	-8.904983e-05
	0.0001621189	-0.0001133338	0.1022905	-0.04907971	0.000144616	-0.0001386312	0.1241536	-0.03643573
	0.1253178	-0.03498712	0.0001697387	-9.802194e-05	0.1015197	-0.04571785	0.0001823291	-0.0001131121
	0.0001831559	-0.0001107162	0.1241981	-0.03648079	0.0001742454	-0.0001180621	0.103797	-0.04850931
2.1e+08	0.1028127	-0.07396699	0.0001650681	-0.0001028127	0.1197124	-0.06752821	0.0001580194	-0.0001226341
	0.0001319919	-0.0001418034	0.1029759	-0.0767898	0.0001113138	-0.0001607005	0.1187749	-0.06795102
	0.1202804	-0.06674414	0.0001465989	-0.0001283603	0.1033576	-0.07294879	0.0001548761	-0.0001458756
	0.0001529376	-0.0001448591	0.1187925	-0.06800132	0.0001448718	-0.000148532	0.1047538	-0.07663798
2.2e+08	0.09493052	-0.1020208	0.0001451259	-0.0001336335	0.1027201	-0.09503427	0.0001338191	-0.0001501113
	0.0001021662	-0.0001622532	0.09427734	-0.1050158	8.010196e-05	-0.0001752374	0.1016604	-0.09531551
	0.1034369	-0.09443057	0.0001229279	-0.0001537191	0.0959292	-0.1011416	0.0001267236	-0.0001723188
	0.0001216291	-0.0001704704	0.1016546	-0.09535773	0.0001154946	-0.0001719603	0.09621665	-0.1053652
2.3e+08	0.07776538	-0.1274986	0.0001236001	-0.0001634136	0.07683119	-0.1141495	0.0001095464	-0.0001757251
	7.402088e-05	-0.000179114	0.07628409	-0.1303898	5.17124e-05	-0.0001869916	0.07567987	-0.114254
	0.07764231	-0.1137463	9.881169e-05	-0.0001780458	0.07913065	-0.1269202	9.841224e-05	-0.0001966
	9.099778e-05	-0.000191767	0.07566126	-0.1142792	8.688701e-05	-0.000192735	0.07824721	-0.131284
2.4e+08	0.05246565	-0.1471253	9.778026e-05	-0.0001949512	0.04627431	-0.1222303	8.258269e-05	-0.000202973
	4.550478e-05	-0.0001962099	0.05024232	-0.1496534	2.350772e-05	-0.0001997322	0.04507589	-0.1221284
	0.04712616	-0.1220318	7.120367e-05	-0.0002041466	0.05405819	-0.1469525	6.714439e-05	-0.000221886
	5.931458e-05	-0.0002125714	0.04505776	-0.1221349	5.642365e-05	-0.0002143	0.05207912	-0.1510926
2.5e+08	0.02134503	-0.1580788	6.278349e-05	-0.0002283288	0.01584718	-0.1185983	4.780013e-05	-0.0002325867
	1.209413e-05	-0.0002148123	0.0185492	-0.1600284	-9.393509e-06	-0.0002144012	0.01466342	-0.1182719
	0.0166893	-0.1185983	3.508781e-05	-0.0002318997	0.02301548	-0.1583655	2.788753e-05	-0.000248442
	2.221398e-05	-0.0002342707	0.01465667	-0.1182658	1.921467e-05	-0.0002372441	0.02011095	-0.1619818
2.6e+08	-0.01219469	-0.1584535	1.352099e-05	-0.0002597147	-0.009893221	-0.1045571	-4.61273e-07	-0.0002612042
	-3.129906e-05	-0.0002323971	-0.0153334	-0.1597078	-5.21026e-05	-0.0002280593	-0.01099111	-0.1040055
	-0.009099591	-0.1047326	-1.452212e-05	-0.0002572504	-0.01060398	-0.1591728	-2.452644e-05	-0.0002724891
	-2.545195e-05	-0.0002544412	-0.01097951	-0.1039994	-2.989009e-05	-0.0002582006	-0.01418323	-0.1620802
2.7e+08	-0.04408382	-0.1477052	-5.284013e-05	-0.0002814965	-0.02738424	-0.08304586	-6.569563e-05	-0.0002812662
	-8.790172e-05	-0.000242648	-0.04731703	-0.1482262	-0.0001075321	-0.0002340975	-0.02831436	-0.08229948
	-0.02667144	-0.08337283	-8.002583e-05	-0.0002724981	-0.04268893	-0.1488055	-9.286245e-05	-0.0002863629
	-8.708349e-05	-0.0002666855	-0.02828779	-0.08230771	-9.371411e-05	-0.0002699851	-0.04668926	-0.1508978
2.8e+08	-0.07009763	-0.1269897	-0.0001344643	-0.0002837587	-0.03458826	-0.05815559	-0.0001466897	-0.0002825276
	-0.0001567202	-0.0002368373	-0.07319549	-0.1268389	-0.0001741776	-0.0002238179	-0.03527475	-0.05727958
	-0.0339765	-0.05860499	-0.0001590701	-0.0002679892	-0.06898153	-0.1283875	-0.0001750539	-0.0002801615
	-0.0001618533	-0.000261936	-0.03524499	-0.05731358	-0.0001705033	-0.0002632237	-0.07315815	-0.1296488
2.9e+08	-0.0866709	-0.09920626	-0.0002235654	-0.0002573186	-0.03132638	-0.03440056	-0.000235947	-0.0002551628
	-0.0002312335	-0.0002066575	-0.08945687	-0.09851739	-0.0002450593	-0.0001893699	-0.03171596	-0.03349749
	-0.03082637	-0.03494488	-0.0002434603	-0.0002352134	-0.08587498	-0.1008121	-0.0002629712	-0.000244884
	-0.0002431755	-0.0002313276	-0.03170152	-0.03356055	-0.0002527007	-0.000229352	-0.0900267	-0.1012892
3e+08	-0.09167977	-0.06862726	-0.0003071379	-0.0001974062	-0.0193151	-0.01593062	-0.0003202665	-0.0001936955
	-0.0003000011	-0.0001477111	-0.09405098	-0.06757279	-0.000308607	-0.0001271421	-0.01939706	-0.01513338
	-0.01893409	-0.01654689	-0.0003201668	-0.0001703837	-0.09122655	-0.07037696	-0.0003432712	-0.0001761827
	-0.000319159	-0.0001698596	-0.0194177	-0.01521596	-0.0003277741	-0.0001642132	-0.09518633	-0.07013168
3.1e+08	-0.08501381	-0.04016878	-0.0003700098	-0.0001065995	-0.001894161	-0.005756956	-0.0003838712	-0.0001002063
	-0.0003494984	-6.229911e-05	-0.08696005	-0.03893008	-0.0003517078	-4.027982e-05	-0.001715621	-0.005206325
	-0.001631762	-0.006426517	-0.0003746124	-7.703475e-05	-0.08490724	-0.04199825	-0.0004006289	-7.727975e-05
	-0.000375441	-7.943787e-05	-0.001785607	-0.005289136	-0.0003813474	-7.079089e-05	-0.08855536	-0.04112187
3.2e+08	-0.06872905	-0.01834531	-0.0003996182	4.737512e-06	0.01664315	-0.005087013	-0.0004133128	1.489785e-05
	-0.0003685409	4.012966e-05	-0.07029125	-0.01706107	-0.0003640739	6.122001e-05	0.01696955	-0.004907528
	0.01678171	-0.005795331	-0.000395298	3.382904e-05	-0.06899091	-0.02021599	-0.0004226135	4.069044e-05
	-0.000399758	3.039654e-05	0.01684875	-0.004961543	-0.0004017547	4.045474e-05	-0.07220748	-0.01878262
3.3e+08	-0.04664609	-0.006324885	-0.0003901829	0.0001210744	0.0319287	-0.01305137	-0.0004020886	0.0001355137
	-0.0003521959	0.000145422	-0.04791017	-0.005079676	-0.0003418927	0.0001632375	0.03223409	-0.01331759
	0.03193728	-0.01378494	-0.000377755	0.0001467111	-0.04731354	-0.008183526	-0.0004039368	0.000161501
	-0.0003861899	0.0001448478	0.03207661	-0.01331436	-0.000384105	0.0001543335	-0.04998508	-0.006283022
3.4e+08	-0.02352528	-0.005247163	-0.0003443964	0.0002266571	0.04055207	-0.02687699	-0.0003526286	0.000244918
	-0.0003033138	0.0002393209	-0.02457389	-0.004064004	-0.0002889581	0.0002521473	0.04063535	-0.02758827
	0.04042111	-0.02761986	-0.0003257793	0.0002465239	-0.02463847	-0.007016351	-0.0003480568	0.0002689469
	-0.0003370097	0.0002485723	0.04047026	-0.02750773	-0.0003317032	0.0002557486	-0.02664906	-0.004760714
3.5e+08	-0.004029083	-0.01405888	-0.000271584	0.0003102744	0.04085174	-0.04257453	-0.0002746333	0.0003309016
	-0.0002307659	0.0003118799	-0.004905351	-0.01292166	-0.0002146072	0.000319	0.04051461	-0.0436415
	0.04056888	-0.04330323	-0.0002493044	0.000323106	-0.005628898	-0.01562091	-0.0002651901	0.0003517209
	-0.0002611076	0.0003304049	0.04038154	-0.04347948	-0.00025412	0.0003342654	-0.006856464	-0.01316549
3.6e+08	0.008218488	-0.02984921	-0.0001834756	0.0003675679	0.03326158	-0.05593592	-0.0001806972	0.0003885346
	-0.0001454574	0.0003595513	0.00751086	-0.02872772	-0.0001296234	0.0003612739	0.03235182	-0.05718563
	0.03281932	-0.05662126	-0.0001600442	0.0003732357	0.00614383	-0.03105199	-0.0001678601	0.0004057404
	-0.0001699275	0.0003858147	0.03228914	-0.05695762	-0.0001629457	0.0003862828	0.005776964	-0.02859769
3.7e+08	0.01130938	-0.04853256	-8.973522e-05	0.0004002422	0.02012669	-0.0635765	-8.152284e-05	0.0004194998
	-5.616864e-05	0.0003843313	0.01081739	-0.0474292	-4.224937e-05	0.0003816945	0.01857163	-0.06477729
	0.01952265	-0.06417861	-6.722827e-05	0.000399423	0.00881605	-0.04919135	-6.63102e-05	0.0004332297
	-7.306665e-05	0.0004162481	0.01861014	-0.06451761	-6.746758e-05	0.0004139823	0.009352149	-0.04700147
3.8e+08	0.005319707	-0.06571296	4.534014e-06	0.0004127694	0.005020377	-0.06367956	1.698798e-05	0.0004288367
	3.270291e-05	0.0003905941	0.005101828	-0.06467782	4.384927e-05	0.0003849467	0.002850219	-0.06458101
	0.004264967	-0.06415424	2.470446e-05	0.0004065775	0.002551311	-0.06565095	3.410131e-05	0.000439261
	2.42981e-05	0.0004259772	0.003002376	-0.06433649	2.772421e-05	0.0004220491	0.003938464	-0.06402342
3.9e+08	-0.007767866	-0.07755734	9.869254e-05	0.0004086647	-0.008145006	-0.05633156	0.0001138578	0.0004209109
	0.000120915	0.0003815589	-0.00767295	-0.07669645	0.0001290725	0.0003741669	-0.01079647	-0.05671274
	-0.009026504	-0.05663384	0.0001157049	0.0003982521	-0.01058575	-0.07664164	0.0001327253	0.0004278654
	0.0001213601	0.0004183933	-0.01054037	-0.05653356	0.0001224396	0.0004138988	-0.008509423	-0.07587241
4e+08	-0.02449373	-0.08155211	0.0001941627	0.0003878624	-0.01601091	-0.04339241	0.0002107424	0.00039644
	0.0002099751	0.000356876	-0.0241019	-0.08101729	0.0002153165	0.0003486977	-0.01892882	-0.04310447
	-0.01697708	-0.04348109	0.0002075318	0.000374203	-0.02706808	-0.07972083	0.0002311007	0.0003993234
	0.0002193968	0.0003933398	-0.01860046	-0.04303458	0.0002183342	0.0003891483	-0.02458343	-0.08007088
4.1e+08	-0.04062973	-0.07703356	0.0002909103	0.0003462931	-0.01645265	-0.02800954	0.0003082562	0.0003517358
	0.0002997153	0.0003123625	-0.04003362	-0.07697757	0.000302514	0.0003040036	-0.01938025	-0.02700615
	-0.01744728	-0.02785744	0.0003002541	0.000330161	-0.04263474	-0.07435764	0.0003292971	0.0003497079
	0.0003181938	0.0003466014	-0.01902914	-0.02707185	0.0003153501	0.0003433171	-0.04012284	-0.07597087
4.2e+08	-0.05207828	-0.06538825	0.0003844229	0.0002778177	-0.008983502	-0.01396052	0.0004024841	0.0002805041
	0.0003854219	0.000242043	-0.05145257	-0.06594065	0.0003858538	0.0002339564	-0.01167124	-0.01230327
	-0.009939538	-0.01355542	0.0003892229	0.0002600085	-0.05320054	-0.06205271	0.0004227692	0.0002729736
	0.0004128614	0.0002718956	-0.01135583	-0.01250893	0.0004085804	0.0002699899	-0.0511132	-0.06494844
4.3e+08	-0.05582467	-0.04982508	0.0004643558	0.0001780914	0.005149602	-0.00489719	0.0004833753	0.0001778395
	0.0004566721	0.0001420139	-0.05540798	-0.05104111	0.0004548216	0.0001347082	0.002898463	-0.002741077
	0.00430357	-0.004249582	0.0004640498	0.0001596793	-0.05582493	-0.04615152	0.0005009907	0.0001649112
	0.0004924484	0.000164877	0.003121446	-0.003064852	0.0004871126	0.0001648392	-0.05461221	-0.05016727
4.4e+08	-0.05071864	-0.03470412	0.0005161482	4.884903e-05	0.02315098	-0.003624585	0.0005360942	4.485003e-05
	0.0004991379	1.463575e-05	-0.05078238	-0.03653918	0.0004952062	8.815477e-06	0.02144813	-0.001183509
	0.02248258	-0.002768152	0.0005104056	3.136284e-05	-0.04949022	-0.0311091	0.0005491661	2.759903e-05
	0.0005416184	2.767074e-05	0.02153511	-0.001580404	0.0005358264	3.005023e-05	-0.04953154	-0.03591379
4.5e+08	-0.03787678	-0.02451749	0.0005255059	-9.936392e-05	0.04113852	-0.01147343	0.0005455945	-0.0001081804
	0.000499193	-0.0001289488	-0.0386819	-0.02681561	0.000493775	-0.000132492	0.03999736	-0.008977307
	0.04070377	-0.0104622	0.0005146301	-0.0001140359	-0.03547623	-0.02145201	0.0005528946	-0.000127837
	0.0005454299	-0.0001282315	0.03992695	-0.009387029	0.0005401775	-0.0001229947	-0.03702378	-0.02657954
4.6e+08	-0.02052849	-0.02275492	0.0004843668	-0.0002479649	0.05488772	-0.02788367	0.0005029551	-0.0002623419
	0.000449848	-0.0002698677	-0.02226407	-0.02525229	0.0004440169	-0.0002705937	0.054229	-0.02553778
	0.05472113	-0.02678949	0.0004695563	-0.0002580364	-0.01720851	-0.02063232	0.0005042855	-0.0002821035
	0.0004956886	-0.0002828354	0.05400847	-0.0258953	0.0004923767	-0.0002747805	-0.02030725	-0.0255441
4.7e+08	-0.003282674	-0.03095908	0.000395411	-0.0003753006	0.06075336	-0.05036884	0.0004103196	-0.0003950184
	0.0003550731	-0.0003867435	-0.006041059	-0.03331928	0.0003502177	-0.0003847401	0.06042767	-0.04831842
	0.0608663	-0.04926889	0.0003786789	-0.0003795908	0.0005588678	-0.03006889	0.0004065922	-0.0004129179
	0.0003957988	-0.000412956	0.0600907	-0.04856819	0.0003959262	-0.0004029162	-0.00394181	-0.03423911
4.8e+08	0.008981607	-0.0482844	0.0002724218	-0.0004637672	0.05655968	-0.07494907	0.0002816443	-0.0004874344
	0.0002297962	-0.0004628943	0.00524707	-0.05014475	0.00022713	-0.0004590264	0.05637925	-0.07325834
