!$
! Info: Touchstone file created by Circ.  Input file=Tx_NPC_250mm_32AWG_BPK_300mm_27AWG_BPK_250mm_32AWG_NPC_Rx.circ
!$
# Hz S RI R 50
0	0.07224434	-3.092451e-16	5.482492e-06	3.605422e-18	0.0022456	-4.485645e-16	-1.919446e-05	-5.795724e-19
	-4.371407e-05	2.408675e-18	0.01857136	-2.084274e-16	-4.841539e-05	-2.99501e-20	0.002762973	-4.555383e-16
	0.003361796	8.152447e-16	3.400583e-06	9.139046e-19	0.04853529	-1.976033e-17	-1.943314e-05	3.153377e-19
	-3.348827e-05	-9.865258e-19	0.002868009	-2.609257e-16	-2.483857e-05	1.350366e-18	0.04331838	4.687244e-16
1e+07	0.0508105	0.004542554	1.909101e-05	-2.669046e-05	0.01314975	0.02658505	-4.805703e-06	-1.98741e-05
	-2.69069e-05	-9.732474e-06	0.05160926	0.004229019	-3.152898e-05	-6.262874e-06	0.01291265	0.02663516
	0.01396987	0.02654819	1.698481e-05	-2.396271e-05	0.05083886	0.004738327	-1.342135e-05	-1.211794e-05
	-1.806079e-05	-1.432507e-05	0.0129575	0.02665096	-1.7956e-05	-9.37805e-06	0.05309273	0.00356197
2e+07	0.05896586	0.002744592	2.674204e-06	-3.573653e-05	0.03580835	0.04386534	-1.774051e-05	-2.306999e-05
	-3.395262e-05	-5.212703e-06	0.05946879	0.002147832	-5.163393e-05	-9.216186e-06	0.03569846	0.04424576
	0.03657882	0.04345942	-1.264513e-05	-4.15464e-05	0.05896429	0.003186825	-3.291927e-05	-1.767007e-05
	-2.734392e-05	-1.378088e-05	0.03573055	0.04421269	-3.528587e-05	-1.330748e-05	0.06053287	0.00088444
3e+07	0.06582928	-0.005176653	-1.758522e-05	-3.859118e-05	0.06397046	0.04542287	-3.330659e-05	-2.128555e-05
	-4.159089e-05	5.923978e-07	0.06596894	-0.005934378	-6.663048e-05	5.661359e-06	0.06397313	0.0460633
	0.06480468	0.04460779	-4.103431e-05	-3.64787e-05	0.06593288	-0.004404128	-4.955618e-05	-9.933817e-06
	-3.869455e-05	-1.058353e-05	0.06399636	0.04596375	-4.952745e-05	-5.462204e-06	0.06645784	-0.007515216
4e+07	0.0681443	-0.01722845	-3.783127e-05	-3.364272e-05	0.08859582	0.0302741	-4.791085e-05	-1.302951e-05
	-4.840175e-05	9.237769e-06	0.06790278	-0.01801543	-7.322887e-05	2.692718e-05	0.08886124	0.03086458
	0.08921298	0.02925401	-6.25374e-05	-1.969405e-05	0.06851483	-0.01634614	-6.120913e-05	4.843604e-06
	-4.987191e-05	-2.743881e-06	0.0888413	0.03075816	-5.946646e-05	8.260869e-06	0.06774552	-0.01962407
5e+07	0.06420941	-0.02994861	-5.663581e-05	-2.155075e-05	0.1010176	0.00425823	-6.013405e-05	8.49128e-07
	-5.457104e-05	2.107179e-05	0.06356859	-0.03059647	-7.193239e-05	5.061829e-05	0.1014612	0.004584174
	0.1013382	0.003209608	-7.579067e-05	4.285617e-06	0.06490756	-0.02911743	-6.757683e-05	2.390425e-05
	-6.003539e-05	1.004682e-05	0.1014114	0.004506844	-6.518467e-05	2.584589e-05	0.06285158	-0.03203487
6e+07	0.05424585	-0.04009842	-7.215545e-05	-1.957054e-06	0.09713512	-0.02438462	-6.901327e-05	2.038033e-05
	-5.888991e-05	3.766252e-05	0.05329269	-0.04044692	-6.342321e-05	7.513924e-05	0.0976769	-0.02429124
	0.09718364	-0.02550663	-8.030616e-05	3.290756e-05	0.05524275	-0.03946712	-6.856054e-05	4.642681e-05
	-6.795297e-05	2.887217e-05	0.09758816	-0.0243437	-6.645945e-05	4.735733e-05	0.05215241	-0.0414848
7e+07	0.04035188	-0.04432968	-8.153143e-05	2.582038e-05	0.07830821	-0.045915	-7.209731e-05	4.622112e-05
	-5.832391e-05	6.048077e-05	0.0392175	-0.04423589	-4.665362e-05	9.982476e-05	0.07882869	-0.04607605
	0.07807825	-0.04699059	-7.460425e-05	6.457616e-05	0.04149823	-0.04406071	-6.236682e-05	7.250981e-05
	-7.022048e-05	5.499786e-05	0.07872443	-0.04608484	-6.080265e-05	7.322456e-05	0.03785395	-0.04477594
8e+07	0.02590594	-0.04097277	-7.974599e-05	6.061467e-05	0.05081329	-0.05302474	-6.489878e-05	7.737447e-05
	-4.752971e-05	8.84218e-05	0.02481782	-0.04034067	-1.905816e-05	0.0001222274	0.05123816	-0.05339879
	0.05033184	-0.05398631	-5.595695e-05	9.631435e-05	0.02701761	-0.0411233	-4.529594e-05	0.0001003411
	-6.126557e-05	8.714614e-05	0.05113803	-0.05335748	-4.376693e-05	0.0001015501	0.0234337	-0.04036369
9e+07	0.01508127	-0.03014829	-6.158822e-05	9.717055e-05	0.02417941	-0.04288711	-4.265722e-05	0.0001089735
	-2.141669e-05	0.0001156876	0.01432614	-0.02900462	2.11157e-05	0.0001362835	0.02447488	-0.0434297
	0.02348225	-0.04369055	-2.23492e-05	0.0001218777	0.01595667	-0.03067118	-1.404101e-05	0.0001242536
	-3.566566e-05	0.0001194003	0.02440023	-0.0433406	-1.154704e-05	0.0001259917	0.01310946	-0.02855452
1e+08	0.01188325	-0.01425335	-2.547056e-05	0.0001260732	0.008301102	-0.01852221	-4.013921e-06	0.00013212
	2.060135e-05	0.0001322719	0.01172061	-0.01277169	7.097902e-05	0.0001322787	0.008418539	-0.01919527
	0.007456055	-0.01910573	2.40183e-05	0.000131419	0.01233763	-0.01498302	3.052397e-05	0.0001347546
	7.695288e-06	0.0001414406	0.008394234	-0.01907726	3.479564e-05	0.0001361098	0.01082519	-0.0119461
1.1e+08	0.01853376	0.00221148	2.327768e-05	0.0001381136	0.00981664	0.0118792	4.583994e-05	0.0001374687
	7.142793e-05	0.0001291594	0.01914764	0.003739719	0.0001155624	0.0001073801	0.009709642	0.0111137
	0.008869684	0.01152088	6.92724e-05	0.0001214767	0.01848132	0.001495755	7.837398e-05	0.0001288554
	6.231374e-05	0.0001428958	0.009746617	0.01124025	8.449106e-05	0.0001283211	0.01867345	0.004783878
1.2e+08	0.03463925	0.01381648	7.461219e-05	0.0001279199	0.02971546	0.03745487	9.639621e-05	0.0001203326
	0.0001192014	0.0001024669	0.03604632	0.0150133	0.0001502034	6.604707e-05	0.02935756	0.03669058
	0.02874004	0.03733442	0.0001097042	9.506567e-05	0.03415807	0.01342288	0.0001241128	0.0001042539
	0.0001158368	0.0001190836	0.02945502	0.03679046	0.00013089	0.0001003795	0.03603495	0.01611444
1.3e+08	0.05682087	0.01606897	0.0001170012	9.740935e-05	0.06267054	0.04861479	0.000135642	8.336863e-05
	0.0001515365	5.678885e-05	0.05886146	0.016563	0.0001695584	1.626896e-05	0.06207136	0.04793526
	0.0617223	0.04871725	0.0001401905	5.801909e-05	0.05613827	0.01619255	0.000156849	6.166693e-05
	0.0001546558	7.390653e-05	0.06221227	0.04798133	0.0001622273	5.391619e-05	0.05929038	0.0175644
1.4e+08	0.07981642	0.006784972	0.0001428751	5.522189e-05	0.09895941	0.04029079	0.0001562059	3.602378e-05
	0.000161602	3.781948e-06	0.08215706	0.006303705	0.0001672804	-3.67937e-05	0.09815711	0.0397731
	0.09807828	0.04058976	0.0001534118	1.324823e-05	0.07922807	0.007476433	0.0001702208	1.111596e-05
	0.0001708166	1.883243e-05	0.09831241	0.03974919	0.0001719846	2.829741e-07	0.08295884	0.007072411
1.5e+08	0.09801605	-0.01333865	0.0001521014	1.129243e-05	0.127786	0.01347532	0.0001585791	-1.087114e-05
	0.0001515288	-4.427517e-05	0.1002027	-0.01488485	0.0001467061	-8.187703e-05	0.1268539	0.01318423
	0.1270093	0.01394063	0.0001506784	-2.957414e-05	0.0978274	-0.01217837	0.0001657105	-3.692789e-05
	0.0001654574	-3.329649e-05	0.1269878	0.01308936	0.0001622927	-4.882874e-05	0.1012884	-0.01445081
1.6e+08	0.1068957	-0.04108694	0.0001500455	-2.842064e-05	0.1407344	-0.02539617	0.0001492023	-5.089984e-05
	0.0001298105	-8.047113e-05	0.1085003	-0.04357619	0.0001166883	-0.0001133579	0.1397558	-0.02543385
	0.1400718	-0.02479176	0.0001383067	-6.537587e-05	0.1072783	-0.0396901	0.0001501744	-7.67437e-05
	0.0001465893	-7.47054e-05	0.1398392	-0.02558256	0.0001412215	-8.713131e-05	0.109728	-0.04353956
1.7e+08	0.1038512	-0.07169013	0.0001427961	-6.411728e-05	0.1339665	-0.06671955	0.0001353218	-8.434847e-05
	0.000105663	-0.0001055371	0.1045176	-0.07480625	8.60804e-05	-0.0001329311	0.1330378	-0.06651032
	0.133436	-0.06599972	0.0001226981	-9.525541e-05	0.1048884	-0.0703514	0.0001307038	-0.0001092922
	0.0001234392	-0.0001052978	0.1330511	-0.06668454	0.0001171382	-0.0001155811	0.1057574	-0.07518284
1.8e+08	0.08852032	-0.09972169	0.0001325361	-0.0001003304	0.1089906	-0.1005068	0.0001200659	-0.0001164478
	8.378879e-05	-0.0001257614	0.0880789	-0.103024	5.893867e-05	-0.0001471926	0.1081898	-0.1000897
	0.1086039	-0.09968902	0.0001059298	-0.0001244072	0.09013023	-0.0987234	0.0001099166	-0.0001399272
	0.0001010219	-0.0001308502	0.1081302	-0.100256	9.377446e-05	-0.0001401599	0.08919577	-0.1037811
1.9e+08	0.0628322	-0.1199263	0.0001154338	-0.0001415982	0.07192953	-0.1189601	0.0001000191	-0.000152763
	6.190418e-05	-0.0001482143	0.06133185	-0.1229553	3.257576e-05	-0.0001628897	0.0713163	-0.1183964
	0.0717024	-0.1180587	8.400171e-05	-0.0001575976	0.06482141	-0.1194791	8.40343e-05	-0.000173765
	7.73653e-05	-0.0001582628	0.07119666	-0.1185254	6.811692e-05	-0.0001669871	0.06221201	-0.1240091
2e+08	0.03098903	-0.1280727	8.294392e-05	-0.0001875564	0.03185595	-0.1183085	6.644109e-05	-0.0001939252
	3.188829e-05	-0.000175415	0.02867291	-0.130434	-8.965227e-07	-0.0001819219	0.03146767	-0.1176728
	0.03181483	-0.1173441	4.849316e-05	-0.0001944079	0.03310018	-0.1282927	4.450723e-05	-0.0002106481
	4.442487e-05	-0.0001900619	0.03131087	-0.1177455	3.197275e-05	-0.0001971853	0.02924993	-0.1316731
2.1e+08	-0.0009309814	-0.1220339	2.658589e-05	-0.000229632	-0.001478521	-0.09974508	1.012367e-05	-0.0002319877
	-1.552094e-05	-0.0002016065	-0.00367227	-0.1235154	-4.975976e-05	-0.0001982197	-0.001619392	-0.09910874
	-0.001307517	-0.09874273	-8.566514e-06	-0.0002263353	0.00103564	-0.1228754	-1.687372e-05	-0.0002420004
	-7.280577e-06	-0.0002203738	-0.001785487	-0.09912112	-2.313839e-05	-0.0002236576	-0.003422924	-0.1247978
2.2e+08	-0.02590338	-0.1028597	-5.530913e-05	-0.0002518348	-0.02013141	-0.06919804	-7.138901e-05	-0.0002508971
	-8.390174e-05	-0.0002130153	-0.02864285	-0.1034422	-0.0001161747	-0.0001985431	-0.02001652	-0.06865252
	-0.01971587	-0.0682052	-8.799168e-05	-0.0002379438	-0.02429647	-0.1042051	-0.0001011052	-0.0002519352
	-8.160508e-05	-0.0002349022	-0.02017045	-0.06861209	-9.916555e-05	-0.0002318624	-0.02867665	-0.1046424
2.3e+08	-0.03787892	-0.0753137	-0.0001520097	-0.0002370898	-0.02025435	-0.03596702	-0.0001678056	-0.0002329812
	-0.0001652428	-0.0001936465	-0.04025614	-0.07518756	-0.0001910577	-0.0001686173	-0.01990038	-0.03562238
	-0.01957394	-0.03504983	-0.0001784918	-0.0002134983	-0.03675467	-0.07696944	-0.0001965555	-0.0002240206
	-0.0001704622	-0.0002167018	-0.02002988	-0.03554331	-0.0001862123	-0.0002061593	-0.04047733	-0.0762057
2.4e+08	-0.03393526	-0.04713067	-0.0002411677	-0.0001774123	-0.003497307	-0.01014219	-0.0002564516	-0.0001695422
	-0.0002399912	-0.0001350924	-0.03575093	-0.04661886	-0.0002550371	-0.0001025261	-0.002970996	-0.01012291
	-0.002554481	-0.009384353	-0.0002580434	-0.0001468416	-0.0333143	-0.04889744	-0.0002802067	-0.0001516095
	-0.0002534824	-0.000156344	-0.003073898	-0.01001781	-0.0002633336	-0.0001396162	-0.03602493	-0.04741219
2.5e+08	-0.01579466	-0.02683867	-0.0002981065	-8.135537e-05	0.02321252	0.0006183763	-0.0003117092	-6.899812e-05
	-0.000285415	-4.418952e-05	-0.01704032	-0.02628313	-0.000287239	-9.293417e-06	0.02377076	0.000206509
	0.02438106	0.001121832	-0.0003034834	-4.807313e-05	-0.01563557	-0.02855931	-0.0003274921	-4.506075e-05
	-0.000306396	-6.021291e-05	0.02369249	0.0003331769	-0.0003075761	-4.113133e-05	-0.01723188	-0.02689218
2.6e+08	0.01035477	-0.02079421	-0.0003088447	2.827051e-05	0.04987756	-0.006177999	-0.0003187586	4.507453e-05
	-0.0002880393	5.841496e-05	0.009514401	-0.02046482	-0.0002772164	8.977052e-05	0.05026458	-0.007064397
	0.05119474	-0.006006013	-0.0003031317	5.967213e-05	0.01015011	-0.02237373	-0.000325601	7.116321e-05
	-0.0003140359	5.046738e-05	0.05021177	-0.006915387	-0.0003065967	6.699002e-05	0.009504054	-0.020985
2.7e+08	0.0358637	-0.03111777	-0.0002770344	0.0001263898	0.06699046	-0.02701622	-0.0002811659	0.0001461751
	-0.0002507591	0.0001492082	0.03518269	-0.03113027	-0.0002306946	0.0001724088	0.06697523	-0.02830968
	0.0683459	-0.02722934	-0.0002626343	0.0001523401	0.03536251	-0.03250816	-0.0002800761	0.0001711427
	-0.0002782143	0.0001506699	0.06695793	-0.02813513	-0.0002650885	0.0001606845	0.03537848	-0.03170743
2.8e+08	0.05241142	-0.05508368	-0.0002192939	0.0001983571	0.06891611	-0.05386366	-0.0002165726	0.0002184659
	-0.00018904	0.0002139535	0.05165415	-0.05540443	-0.0001645847	0.0002269627	0.06830777	-0.05538086
	0.0701817	-0.05446796	-0.000199483	0.0002171773	0.05166297	-0.05625802	-0.0002095219	0.0002405117
	-0.0002143842	0.000224382	0.06834336	-0.05518564	-0.0002000873	0.0002265111	0.05199759	-0.05616887
2.9e+08	0.05434667	-0.08628848	-0.0001533683	0.0002442724	0.05553242	-0.07734352	-0.0001443754	0.0002617857
	-0.0001199658	0.0002522318	0.05336105	-0.0867779	-9.567059e-05	0.0002556465	0.05424098	-0.07881423
	0.05658388	-0.07829633	-0.0001310304	0.0002559823	0.05338093	-0.08720742	-0.0001330763	0.0002805127
	-0.0001405288	0.0002698837	0.05434791	-0.0786163	-0.0001291889	0.0002655782	0.05373352	-0.08780891
3e+08	0.0399081	-0.1165519	-8.826328e-05	0.0002735338	0.03168539	-0.09000555	-7.504128e-05	0.000286387
	-5.278218e-05	0.0002726893	0.03865799	-0.1170404	-3.167556e-05	0.0002687904	0.0297611	-0.09113227
	0.0324185	-0.09122371	-6.52009e-05	0.0002789659	0.03877142	-0.1171418	-6.024192e-05	0.0003019605
	-6.710297e-05	0.0002953675	0.02994966	-0.09096379	-6.09301e-05	0.0002878823	0.03891239	-0.118339
3.1e+08	0.01149712	-0.1379212	-2.185342e-05	0.0002950859	0.005071604	-0.08846896	-6.961615e-06	0.0003027957
	1.364255e-05	0.0002839872	0.01003797	-0.1382701	3.037861e-05	0.0002754393	0.002699358	-0.08900379
	0.005424535	-0.08983522	1.160045e-06	0.0002949365	0.01027999	-0.1381073	1.137096e-05	0.000314913
	6.140463e-06	0.000309759	0.002961844	-0.0889047	7.355987e-06	0.0003025358	0.01006033	-0.1397619
3.2e+08	-0.02500045	-0.1445046	5.435031e-05	0.0003097296	-0.01644216	-0.07390036	6.891141e-05	0.0003132419
	8.65499e-05	0.0002874824	-0.02655645	-0.1446431	9.904286e-05	0.0002763087	-0.01897283	-0.07370445
	-0.01649197	-0.07528789	7.681606e-05	0.0003039711	-0.02613348	-0.1442338	9.078583e-05	0.0003206678
	8.617207e-05	0.0003148715	-0.0186662	-0.07371281	8.436423e-05	0.0003100785	-0.0268348	-0.1462129
3.3e+08	-0.06140176	-0.1339472	0.0001467536	0.0003078148	-0.02703141	-0.05122564	0.0001603261	0.0003086953
	0.0001714277	0.0002749927	-0.06294236	-0.1338881	0.0001801965	0.0002621864	-0.02939541	-0.05030937
	-0.02745887	-0.05251031	0.0001676154	0.0002958431	-0.06224207	-0.133261	0.0001847448	0.0003095369
	0.0001787049	0.000302626	-0.0290955	-0.05044762	0.000176243	0.0003005893	-0.06351989	-0.1354069
3.4e+08	-0.08923814	-0.1082784	0.0002516801	0.0002734274	-0.0243385	-0.02744663	0.0002648913	0.0002727274
	0.0002645654	0.0002326927	-0.09069324	-0.1080917	0.0002696939	0.0002186005	-0.02624906	-0.02597192
	-0.02507914	-0.02852489	0.0002687906	0.0002548689	-0.08958837	-0.1073406	0.0002893967	0.0002654279
	0.0002802087	0.0002586687	-0.02601859	-0.02623528	0.0002786327	0.000258289	-0.09151215	-0.1094559
3.5e+08	-0.102095	-0.07365423	0.0003520041	0.0001936697	-0.009938847	-0.009670238	0.0003659108	0.0001911618
	0.0003500397	0.0001498068	-0.1034606	-0.07342839	0.0003509807	0.0001349512	-0.01121553	-0.007918627
	-0.01090336	-0.01046988	0.0003624145	0.0001694612	-0.1018471	-0.07275259	0.0003870131	0.0001756161
	0.0003742969	0.0001712949	-0.01111315	-0.008268574	0.00037377	0.0001711388	-0.104436	-0.07457911
3.6e+08	-0.0976448	-0.0388157	0.0004215524	6.893804e-05	0.01107383	-0.003151537	0.0004364832	6.315761e-05
	0.0004040893	2.808098e-05	-0.09898739	-0.03860812	0.0004002129	1.378181e-05	0.01045662	-0.00145771
	0.00999281	-0.003642673	0.0004226781	4.188575e-05	-0.09687177	-0.03828783	0.000450808	4.129325e-05
	0.0004358458	4.157655e-05	0.01039541	-0.001826294	0.0004355484	4.089092e-05	-0.1000268	-0.0395414
3.7e+08	-0.07854169	-0.01237265	0.0004370003	-8.252181e-05	0.03152436	-0.009607694	0.0004517082	-9.327755e-05
	0.0004063645	-0.0001143778	-0.07994761	-0.01216733	0.0003978548	-0.0001261075	0.03142714	-0.008283836
	0.0304243	-0.009796886	0.0004279592	-0.0001081563	-0.07751592	-0.01250901	0.0004573927	-0.0001179569
	0.0004425946	-0.000112047	0.03120637	-0.008588131	0.0004416595	-0.0001129355	-0.08099266	-0.01291305
3.8e+08	-0.05155893	-9.164992e-05	0.0003903214	-0.0002305251	0.04434014	-0.02648883	0.0004021844	-0.0002468888
	0.0003513503	-0.0002491739	-0.05308274	0.0002060036	0.0003396585	-0.0002564712	0.0444848	-0.02574173
	0.04330059	-0.02641573	0.0003726524	-0.0002504522	-0.05071375	-0.0009961292	0.0003995109	-0.0002706163
	0.0003874619	-0.0002595766	0.04415271	-0.02590856	0.000385774	-0.0002597789	-0.0541173	-0.0003929214
3.9e+08	-0.02524113	-0.003094332	0.0002929831	-0.000346959	0.04507005	-0.0476337	0.0002991718	-0.0003676566
	0.0002515985	-0.0003510013	-0.02684642	-0.002568305	0.0002390643	-0.0003530727	0.04510716	-0.04750541
	0.04414048	-0.04735501	0.000270149	-0.0003583474	-0.02503771	-0.004606826	0.0002900784	-0.0003878295
	0.0002826726	-0.0003733309	0.04474593	-0.04749555	0.0002809129	-0.0003722514	-0.02788964	-0.003034231
4e+08	-0.007025586	-0.01781706	0.0001681183	-0.000417979	0.033581	-0.06542332	0.0001669916	-0.000440177
	0.0001296489	-0.0004087182	-0.008560336	-0.01696767	0.0001185739	-0.0004061485	0.03318196	-0.06577178
	0.0327811	-0.06499301	0.0001442103	-0.000420153	-0.007806189	-0.01951628	0.0001537968	-0.0004558873
	0.0001518364	-0.000440134	0.03288452	-0.06559501	0.0001509251	-0.0004379027	-0.00963935	-0.01725424
4.1e+08	-0.001012887	-0.03753789	3.706677e-05	-0.000445775	0.01409854	-0.07353658	2.883153e-05	-0.00046634
	5.116094e-06	-0.0004261834	-0.002255756	-0.03637562	-3.052596e-06	-0.0004205033	0.01305449	-0.07406752
	0.01342612	-0.07300009	1.547631e-05	-0.0004399382	-0.002839152	-0.03884316	1.30907e-05	-0.0004777833
	1.635443e-05	-0.0004629359	0.01289509	-0.07378059	1.680885e-05	-0.000460251	-0.003349585	-0.03639647
4.2e+08	-0.006919615	-0.05473591	-8.984806e-05	-0.0004401886	-0.006363162	-0.06925725	-0.0001035193	-0.0004568999
	-0.0001135767	-0.0004135853	-0.007658708	-0.05343609	-0.0001184551	-0.0004065012	-0.008078756	-0.06961081
	-0.006917105	-0.0686366	-0.000107026	-0.000428446	-0.009532494	-0.05506605	-0.0001212753	-0.0004643189
	-0.0001137949	-0.0004521214	-0.00806621	-0.06930138	-0.0001120188	-0.0004497061	-0.00866198	-0.05308779
4.3e+08	-0.02048105	-0.06350502	-0.0002124391	-0.0004074914	-0.0205567	-0.05423061	-0.0002295635	-0.0004195704
	-0.0002275488	-0.0003765926	-0.02062076	-0.06237412	-0.0002295035	-0.0003693683	-0.02277833	-0.05409107
	-0.02099666	-0.05353426	-0.0002243288	-0.0003919543	-0.02331684	-0.06246895	-0.0002491268	-0.0004224056
	-0.0002390178	-0.0004140014	-0.02261062	-0.05385057	-0.0002362321	-0.0004122318	-0.02134006	-0.06161236
4.4e+08	-0.03493123	-0.06143698	-0.0003320679	-0.0003444309	-0.02337457	-0.03381292	-0.0003513594	-0.0003520088
	-0.0003385513	-0.0003110933	-0.03456505	-0.0608323	-0.0003381168	-0.0003043989	-0.02580347	-0.03300491
	-0.02369243	-0.03304302	-0.0003383966	-0.0003267469	-0.03725644	-0.05897855	-0.000371803	-0.0003490308
	-0.0003609928	-0.0003446975	-0.02554198	-0.03290182	-0.0003573391	-0.0003436953	-0.03475749	-0.05973035
4.5e+08	-0.04333437	-0.05050539	-0.0004414386	-0.0002413099	-0.01342445	-0.01532204	-0.000462468	-0.0002443881
	-0.0004389476	-0.0002069574	-0.04276142	-0.0507224	-0.000436424	-0.0002012043	-0.01573106	-0.01385366
	-0.01359755	-0.01448555	-0.0004419386	-0.0002228631	-0.04443314	-0.04695639	-0.0004816095	-0.0002346554
	-0.000471866	-0.0002335876	-0.01546323	-0.01391424	-0.0004672132	-0.0002336694	-0.04220968	-0.04949735
4.6e+08	-0.04115356	-0.03651509	-0.0005201373	-9.285315e-05	0.00649841	-0.005818518	-0.0005425935	-9.056799e-05
	-0.0005078234	-5.930329e-05	-0.04081791	-0.03766862	-0.000503357	-5.511133e-05	0.004573635	-0.003861024
	0.006495955	-0.004938233	-0.0005145096	-7.529519e-05	-0.04055592	-0.03257638	-0.0005573889	-7.456883e-05
	-0.0005495877	-7.503194e-05	0.00476092	-0.004061294	-0.0005439754	-7.704632e-05	-0.03942638	-0.03666985
4.7e+08	-0.02822915	-0.02710697	-0.0005408663	8.972391e-05	0.03000858	-0.009927836	-0.0005634092	9.880283e-05
	-0.0005180028	0.0001195265	-0.02862152	-0.02907505	-0.0005121673	0.0001211834	0.02858617	-0.007739752
	0.03020041	-0.009042963	-0.0005293452	0.0001041111	-0.02586445	-0.02365808	-0.000571317	0.0001186859
	-0.0005648018	0.0001185477	0.02863222	-0.008014307	-0.0005591183	0.0001134397	-0.02647912	-0.02869979
4.8e+08	-0.009193428	-0.02874365	-0.0004851595	0.0002749382	0.04891112	-0.02809042	-0.0005049988	0.0002916144
