!$
! Info: Touchstone file created by Circ.  Input file=Tx_NPC_250mm_32AWG_BPK_100mm_27AWG_BPK_250mm_32AWG_NPC_Rx.circ
!$
# Hz S RI R 50
0	0.01383755	-1.250371e-17	8.774775e-07	2.013296e-19	0.003466916	1.087052e-15	-1.543552e-06	-3.393886e-20
	6.328538e-06	2.89579e-21	0.01272697	-2.117958e-16	-3.623581e-07	1.371632e-19	0.002573747	-4.583924e-16
	0.002855162	3.086965e-17	-1.679797e-06	-2.535843e-21	0.03228577	-5.182351e-16	-4.867324e-06	-2.439267e-20
	1.058702e-05	-3.163981e-19	0.002682354	-2.626335e-16	4.951075e-07	2.80838e-19	0.03767701	4.539912e-16
1e+07	0.04666461	0.00593859	9.405e-07	-1.185405e-07	0.01058741	0.02311381	-1.246435e-06	7.484876e-07
	5.94409e-06	-1.79004e-06	0.04542374	0.005968833	-4.350218e-07	-5.286594e-08	0.01009562	0.02303001
	0.01005662	0.02308034	-1.619907e-06	3.438138e-07	0.04168911	0.0068912	-4.560435e-06	1.456805e-06
	1.011983e-05	-3.089402e-06	0.01014109	0.02305238	4.448382e-07	-2.889892e-07	0.04697917	0.005449366
2e+07	0.0544269	0.006920988	1.024623e-06	-3.325139e-07	0.02743261	0.040959	-6.457394e-07	1.214462e-06
	5.168716e-06	-3.402204e-06	0.05302468	0.007066336	-4.880609e-07	-7.94151e-08	0.02686024	0.04122683
	0.02685933	0.04107016	-1.432212e-06	6.135004e-07	0.04978442	0.009097771	-3.787745e-06	2.659176e-06
	8.825669e-06	-5.93099e-06	0.02690344	0.0412047	3.31184e-07	-5.663385e-07	0.05431391	0.006034422
3e+07	0.06263528	0.00303227	1.052728e-06	-6.740171e-07	0.05060691	0.04894744	8.67062e-08	1.277892e-06
	3.970339e-06	-4.722625e-06	0.06112595	0.003372314	-5.542394e-07	-6.732455e-08	0.04981232	0.04956406
	0.04990785	0.04926969	-1.189509e-06	7.774486e-07	0.05864379	0.006301007	-2.705827e-06	3.473506e-06
	6.762153e-06	-8.320556e-06	0.04987652	0.04948067	1.269386e-07	-8.208279e-07	0.06203696	0.001987865
4e+07	0.0691986	-0.005160004	9.278507e-07	-1.10472e-06	0.07551886	0.04464371	7.185569e-07	9.556985e-07
	2.447203e-06	-5.644754e-06	0.06763722	-0.004549841	-6.155483e-07	-6.263649e-09	0.07479501	0.0454607
	0.07484088	0.04515015	-9.54022e-07	8.473657e-07	0.06618283	-0.001141021	-1.50435e-06	3.86243e-06
	4.058961e-06	-1.004197e-05	0.07483696	0.04535757	-1.784138e-07	-1.012775e-06	0.06807708	-0.006108762
5e+07	0.07240527	-0.01612903	5.85422e-07	-1.527719e-06	0.09614301	0.02966269	1.071305e-06	3.7853e-07
	7.194478e-07	-6.092771e-06	0.07081298	-0.01520177	-6.50661e-07	1.114279e-07	0.09560551	0.03052309
	0.09557009	0.03030594	-7.645523e-07	8.629634e-07	0.07046737	-0.01162951	-3.444994e-07	3.86906e-06
	9.104396e-07	-1.090976e-05	0.0956212	0.03042813	-5.771978e-07	-1.085501e-06	0.07079486	-0.01682792
6e+07	0.07135553	-0.02850098	2.676001e-08	-1.824208e-06	0.1082949	0.006665468	1.067016e-06	-2.573461e-07
	-1.072743e-06	-6.010078e-06	0.06981118	-0.02725054	-6.288314e-07	2.731613e-07	0.1079363	0.007633715
	0.1078664	0.007499354	-6.249937e-07	8.778637e-07	0.07056412	-0.02389849	6.703774e-07	3.590573e-06
	-2.422115e-06	-1.077528e-05	0.1079189	0.007529353	-1.024342e-06	-9.827834e-07	0.06936135	-0.02876138
7e+07	0.06588761	-0.04012762	-6.843767e-07	-1.872718e-06	0.1093645	-0.01938053	7.433051e-07	-7.463321e-07
	-2.769965e-06	-5.390917e-06	0.06445488	-0.0384911	-5.224303e-07	4.707939e-07	0.1092282	-0.01837903
	0.1091561	-0.01842042	-5.057197e-07	9.382219e-07	0.06614529	-0.0356966	1.502703e-06	3.138159e-06
	-5.617318e-06	-9.581059e-06	0.1091817	-0.01847471	-1.441843e-06	-6.588991e-07	0.06365151	-0.03978843
8e+07	0.05650878	-0.04933222	-1.419161e-06	-1.598716e-06	0.09914456	-0.04329927	2.435347e-07	-9.373767e-07
	-4.200556e-06	-4.267499e-06	0.05527946	-0.04727046	-3.027375e-07	6.686781e-07	0.09926067	-0.04231667
	0.09920318	-0.04228211	-3.48863e-07	1.061625e-06	0.05766556	-0.04529811	2.175678e-06	2.601088e-06
	-8.311555e-06	-7.367939e-06	0.0991851	-0.04239303	-1.71792e-06	-1.113854e-07	0.05421213	-0.04828699
9e+07	0.04435037	-0.05462187	-2.015181e-06	-9.97367e-07	0.07971804	-0.06027112	-2.258029e-07	-7.807314e-07
	-5.19634e-06	-2.738412e-06	0.04345775	-0.05211766	4.659079e-08	8.156607e-07	0.08011291	-0.05936797
	0.08007024	-0.05927964	-8.934664e-08	1.225104e-06	0.04621338	-0.05114257	2.745983e-06	2.02105e-06
	-1.014275e-05	-4.321618e-06	0.0800132	-0.05941651	-1.732128e-06	6.032174e-07	0.04222337	-0.05280489
1e+08	0.03120362	-0.05492546	-2.313308e-06	-1.481801e-07	0.05518312	-0.06676595	-4.565163e-07	-3.510472e-07
	-5.625815e-06	-9.72254e-07	0.03082732	-0.05196698	5.22512e-07	8.45186e-07	0.05584706	-0.06606424
	0.05580823	-0.06591053	3.208987e-07	1.363335e-06	0.03356053	-0.05203808	3.269265e-06	1.383101e-06
	-1.081787e-05	-7.791541e-07	0.05573822	-0.06607631	-1.387037e-06	1.361466e-06	0.02952312	-0.05230396
1.1e+08	0.0190156	-0.0499831	-2.208617e-06	7.843834e-07	0.03071793	-0.06151177	-3.125447e-07	1.612568e-07
	-5.417273e-06	8.079019e-07	0.01941649	-0.04662982	1.075489e-06	6.828765e-07	0.03162213	-0.06109156
	0.03157147	-0.06087286	8.864724e-07	1.376724e-06	0.0217613	-0.04767392	3.760997e-06	6.233118e-07
	-1.017508e-05	2.79565e-06	0.03151394	-0.06106371	-6.553592e-07	1.979314e-06	0.01812582	-0.04662028
1.2e+08	0.01015199	-0.04024467	-1.685351e-06	1.595723e-06	0.01180867	-0.04564062	2.186385e-07	5.076524e-07
	-4.612501e-06	2.350439e-06	0.01159176	-0.03675622	1.624131e-06	2.739759e-07	0.01285578	-0.04558716
	0.01279667	-0.04528878	1.552652e-06	1.167427e-06	0.01320067	-0.03851668	4.175268e-06	-3.30354e-07
	-8.272503e-06	5.879186e-06	0.01276582	-0.04552205	3.973998e-07	2.260705e-06	0.01040802	-0.03641971
1.3e+08	0.006592402	-0.02725548	-8.425139e-07	2.086041e-06	0.002823455	-0.02272275	9.948483e-07	4.558493e-07
	-3.356791e-06	3.434216e-06	0.009214581	-0.02400498	2.043326e-06	-3.919046e-07	0.003892451	-0.02308556
	0.003836872	-0.02268395	2.203808e-06	6.677645e-07	0.009888095	-0.02612287	4.395975e-06	-1.519517e-06
	-5.391548e-06	7.991347e-06	0.003834518	-0.02299321	1.593184e-06	2.046863e-06	0.008212246	-0.02337766
1.4e+08	0.009639194	-0.01341471	1.23115e-07	2.129809e-06	0.006094231	0.001971686	1.747648e-06	-1.180378e-07
	-1.892943e-06	3.925204e-06	0.01342637	-0.01084746	2.200424e-06	-1.257361e-06	0.007046234	0.0011894
	0.007024416	0.001718064	2.687539e-06	-1.200256e-07	0.0131272	-0.01291585	4.266287e-06	-2.905971e-06
	-2.02002e-06	8.81502e-06	0.007028519	0.001294319	2.674403e-06	1.283135e-06	0.01267126	-0.009975766
1.5e+08	0.01951023	-0.001666075	9.715598e-07	1.723322e-06	0.02129648	0.02258134	2.160708e-06	-1.165702e-06
	-5.026883e-07	3.826259e-06	0.02425863	-0.0002386242	1.99412e-06	-2.19413e-06	0.02198101	0.02143178
	0.02204744	0.02209858	2.860155e-06	-1.106561e-06	0.02312028	-0.001849043	3.644039e-06	-4.349026e-06
	1.2523e-06	8.29405e-06	0.0220047	0.02153011	3.370071e-06	5.821862e-08	0.02382049	0.0008179929
1.6e+08	0.03501219	0.005180923	1.49211e-06	9.924104e-07	0.04538192	0.034045	1.975888e-06	-2.457301e-06
	5.795635e-07	3.266942e-06	0.04035211	0.005127622	1.39846e-06	-3.016229e-06	0.04569445	0.03263659
	0.04590487	0.03342404	2.634844e-06	-2.128089e-06	0.0386567	0.004234371	2.464488e-06	-5.618377e-06
	3.883086e-06	6.641734e-06	0.04575225	0.0327135	3.479104e-06	-1.396837e-06	0.04027333	0.006295376
1.7e+08	0.05389913	0.004892312	1.577147e-06	1.549559e-07	0.0733418	0.03320239	1.093546e-06	-3.641246e-06
	1.221192e-06	2.483064e-06	0.05931972	0.003143245	4.836472e-07	-3.541418e-06	0.07321396	0.03168207
	0.07362374	0.03254505	2.023857e-06	-2.990433e-06	0.05743341	0.003123219	7.917399e-07	-6.452844e-06
	5.508044e-06	4.30458e-06	0.07329192	0.03172555	2.944777e-06	-2.773991e-06	0.0596442	0.004328458
1.8e+08	0.07309805	-0.003578621	1.249241e-06	-5.517609e-07	0.09931124	0.01956533	-3.837784e-07	-4.347098e-06
	1.432315e-06	1.71709e-06	0.07804217	-0.007034627	-5.87506e-07	-3.633896e-06	0.09874599	0.01808973
	0.09938495	0.01896036	1.136432e-06	-3.525501e-06	0.07634176	-0.006210245	-1.178263e-06	-6.631277e-06
	6.02496e-06	1.80891e-06	0.09882712	0.01809658	1.875757e-06	-3.770625e-06	0.07878626	-0.005937925
1.9e+08	0.08937725	-0.0199945	6.489119e-07	-9.440173e-07	0.1179147	-0.004709744	-2.169451e-06	-4.297918e-06
	1.339789e-06	1.156837e-06	0.09331138	-0.02497344	-1.601665e-06	-3.252634e-06	0.1169764	-0.006006421
	0.1178436	-0.005202731	1.523211e-07	-3.64077e-06	0.09210814	-0.02347994	-3.152827e-06	-6.041086e-06
	5.586732e-06	-3.674709e-07	0.117045	-0.006031044	5.164729e-07	-4.180036e-06	0.09445913	-0.02408068
2e+08	0.09982974	-0.04293444	-1.561066e-08	-9.412803e-07	0.1253629	-0.03541326	-3.867184e-06	-3.390294e-06
	1.138049e-06	8.861406e-07	0.1022905	-0.04907971	-2.349789e-06	-2.461449e-06	0.1241536	-0.03643573
	0.1252222	-0.03576831	-7.280708e-07	-3.341979e-06	0.1018072	-0.04718236	-4.808598e-06	-4.712478e-06
	4.531118e-06	-1.908555e-06	0.1241981	-0.03648079	-8.242448e-07	-3.942614e-06	0.103797	-0.04850931
2.1e+08	0.1022742	-0.0699533	-5.326417e-07	-5.771676e-07	0.1201315	-0.06723349	-5.068912e-06	-1.721704e-06
	1.010673e-06	8.673826e-07	0.1029759	-0.0767898	-2.669586e-06	-1.414851e-06	0.1187749	-0.06795102
	0.1199943	-0.06746694	-1.332794e-06	-2.723413e-06	0.1032681	-0.07481161	-5.857465e-06	-2.812825e-06
	3.255993e-06	-2.714677e-06	0.1187925	-0.06800132	-1.849903e-06	-3.149883e-06	0.1047538	-0.07663798
2.2e+08	0.09548491	-0.09804257	-7.377852e-07	1.579693e-08	0.1030594	-0.09488715	-5.450002e-06	4.265308e-07
	1.096114e-06	9.793218e-07	0.09427734	-0.1050158	-2.487653e-06	-3.191562e-07	0.1016604	-0.09531551
	0.1029783	-0.09503939	-1.553807e-06	-1.946662e-06	0.09530598	-0.1032589	-6.105521e-06	-6.186013e-07
	2.132301e-06	-2.88535e-06	0.1016546	-0.09535773	-2.349005e-06	-2.017713e-06	0.09621665	-0.1053652
2.3e+08	0.07935606	-0.1238369	-5.519082e-07	6.455463e-07	0.07704774	-0.1140617	-4.83974e-06	2.647915e-06
	1.433802e-06	1.048012e-06	0.07628409	-0.1303898	-1.822276e-06	6.033201e-07	0.07567987	-0.114254
	0.07704716	-0.1141925	-1.36371e-06	-1.200275e-06	0.07788564	-0.1290998	-5.481537e-06	1.534509e-06
	1.398812e-06	-2.669068e-06	0.07566126	-0.1142792	-2.229926e-06	-8.307967e-07	0.07824721	-0.131284
2.4e+08	0.05496761	-0.1440241	4.884256e-09	1.101881e-06	0.04637629	-0.1221086	-3.26345e-06	4.486792e-06
	1.967409e-06	9.025165e-07	0.05024232	-0.1496534	-7.850478e-07	1.155934e-06	0.04507589	-0.1221284
	0.04644765	-0.1222806	-8.19224e-07	-6.679798e-07	0.05218198	-0.1489769	-4.053709e-06	3.301755e-06
	1.128614e-06	-2.380987e-06	0.04505776	-0.1221349	-1.540612e-06	1.151345e-07	0.05207912	-0.1510926
2.5e+08	0.02458711	-0.1557451	8.128892e-07	1.199694e-06	0.01588813	-0.118372	-9.514491e-07	5.526439e-06
	2.554303e-06	4.156279e-07	0.0185492	-0.1600284	4.361146e-07	1.202694e-06	0.01466342	-0.1182719
	0.01599441	-0.1186344	-5.380671e-08	-4.960047e-07	0.02058208	-0.1600229	-2.026661e-06	4.383513e-06
	1.218771e-06	-2.318877e-06	0.01465667	-0.1182658	-4.610223e-07	5.744167e-07	0.02011095	-0.1619818
2.6e+08	-0.008423025	-0.1570228	1.66843e-06	8.227675e-07	-0.009827735	-0.1041854	1.688127e-06	5.47722e-06
	2.984557e-06	-4.476392e-07	-0.0153334	-0.1597078	1.600878e-06	6.92185e-07	-0.01099111	-0.1040055
	-0.009748708	-0.104565	7.415863e-07	-7.631555e-07	-0.01344823	-0.1602964	2.80004e-07	4.575721e-06
	1.416174e-06	-2.669041e-06	-0.01097951	-0.1039994	7.279302e-07	4.025833e-07	-0.01418323	-0.1620802
2.7e+08	-0.04000893	-0.147281	2.314178e-06	-4.036955e-08	-0.02719795	-0.08254216	4.130714e-06	4.255111e-06
	3.038826e-06	-1.617347e-06	-0.04731703	-0.1482262	2.457299e-06	-3.117522e-07	-0.02831436	-0.08229948
	-0.0272141	-0.08303209	1.342698e-06	-1.455068e-06	-0.04574246	-0.1492864	2.4701e-06	3.823715e-06
	1.389992e-06	-3.455826e-06	-0.02828779	-0.08230771	1.691699e-06	-3.927349e-07	-0.04668926	-0.1508978
2.8e+08	-0.06595562	-0.1276156	2.492283e-06	-1.265996e-06	-0.03419548	-0.05758067	5.838204e-06	2.031476e-06
	2.534218e-06	-2.89383e-06	-0.07319549	-0.1268389	2.789694e-06	-1.630033e-06	-0.03527475	-0.05727958
	-0.03436949	-0.05814025	1.539688e-06	-2.446875e-06	-0.07201653	-0.1281992	4.140534e-06	2.252934e-06
	8.250403e-07	-4.492907e-06	-0.03524499	-0.05731358	2.120409e-06	-1.636483e-06	-0.07315815	-0.1296488
2.9e+08	-0.08269793	-0.1008784	2.015308e-06	-2.594081e-06	-0.03067593	-0.03385671	6.386591e-06	-7.661388e-07
	1.399877e-06	-3.978902e-06	-0.08945687	-0.09851739	2.481139e-06	-2.982272e-06	-0.03171596	-0.03349749
	-0.03104813	-0.03441643	1.192489e-06	-3.507069e-06	-0.08867666	-0.1000182	4.970137e-06	1.74037e-07
	-4.604529e-07	-5.412902e-06	-0.03170152	-0.03356055	1.816057e-06	-2.998356e-06	-0.0900267	-0.1012892
3e+08	-0.08812354	-0.07130618	8.430217e-07	-3.66758e-06	-0.01841125	-0.01554396	5.595914e-06	-3.523661e-06
	-2.69753e-07	-4.538149e-06	-0.09405098	-0.06757279	1.567131e-06	-4.042242e-06	-0.01939706	-0.01513338
	-0.01898658	-0.01601907	2.904668e-07	-4.335716e-06	-0.09361793	-0.06910926	4.814906e-06	-1.96586e-06
	-2.4165e-06	-5.752283e-06	-0.0194177	-0.01521596	7.752444e-07	-4.061038e-06	-0.09518633	-0.07013168
3.1e+08	-0.08210056	-0.04374772	-8.633312e-07	-4.120374e-06	-0.0007991309	-0.005646048	3.617059e-06	-5.583218e-06
	-2.189533e-06	-4.290899e-06	-0.08696005	-0.03893008	2.512011e-07	-4.523845e-06	-0.001715621	-0.005206325
	-0.001544128	-0.005951734	-1.009767e-06	-4.642428e-06	-0.08678993	-0.04044267	3.770298e-06	-3.688488e-06
	-4.709355e-06	-5.09283e-06	-0.001785607	-0.005289136	-7.763412e-07	-4.437981e-06	-0.08855536	-0.04112187
3.2e+08	-0.06668382	-0.02267072	-2.748446e-06	-3.696434e-06	0.01780847	-0.00533598	9.296756e-07	-6.427035e-06
	-3.936814e-06	-3.132989e-06	-0.07029125	-0.01706107	-1.123326e-06	-4.277416e-06	0.01696955	-0.004907528
	0.01696356	-0.005409396	-2.400619e-06	-4.240555e-06	-0.07033858	-0.01856628	2.171047e-06	-4.618782e-06
	-6.777148e-06	-3.230664e-06	0.01684875	-0.004961543	-2.411746e-06	-3.900357e-06	-0.07220748	-0.01878262
3.3e+08	-0.04565427	-0.0111764	-4.341003e-06	-2.354759e-06	0.03301281	-0.0136829	-1.768276e-06	-5.845144e-06
	-5.050244e-06	-1.193583e-06	-0.04791017	-0.005079676	-2.171073e-06	-3.351873e-06	0.03223409	-0.01331759
	0.03216003	-0.0134954	-3.49602e-06	-3.130625e-06	-0.04817377	-0.00661372	5.022212e-07	-4.607516e-06
	-7.963482e-06	-2.931454e-07	0.03207661	-0.01331436	-3.622055e-06	-2.478123e-06	-0.04998508	-0.006283022
3.4e+08	-0.02371307	-0.01035044	-5.190298e-06	-3.124962e-07	0.04140454	-0.02784397	-3.754511e-06	-4.015818e-06
	-5.175388e-06	1.159797e-06	-0.02457389	-0.004064004	-2.578136e-06	-1.995064e-06	0.04063535	-0.02758827
	0.04063968	-0.02740851	-3.947643e-06	-1.521921e-06	-0.02511055	-0.005653847	-7.448432e-07	-3.781801e-06
	-7.721085e-06	3.237239e-06	0.04047026	-0.02750773	-3.966492e-06	-4.74268e-07	-0.02664906	-0.004760714
3.5e+08	-0.005455575	-0.01909817	-5.006116e-06	1.999415e-06	0.04135369	-0.04376759	-4.492224e-06	-1.465171e-06
	-4.182296e-06	3.410559e-06	-0.004905351	-0.01292166	-2.199652e-06	-5.861465e-07	0.04051461	-0.0436415
	0.04075674	-0.04313568	-3.555115e-06	2.161997e-07	-0.005831276	-0.01453772	-1.223029e-06	-2.504421e-06
	-5.794909e-06	6.620374e-06	0.04038154	-0.04347948	-3.212166e-06	1.607965e-06	-0.006856464	-0.01316549
3.6e+08	0.005604653	-0.03450632	-3.74824e-06	4.049818e-06	0.03335442	-0.05721051	-3.782485e-06	1.078739e-06
	-2.204656e-06	5.026603e-06	0.00751086	-0.02872772	-1.099815e-06	4.760716e-07	0.03235182	-0.05718563
	0.03297531	-0.05645876	-2.329997e-06	1.6534e-06	0.006088419	-0.03026454	-8.286215e-07	-1.257245e-06
	-2.32272e-06	9.037505e-06	0.03228914	-0.05695762	-1.409824e-06	3.2059e-06	0.005776964	-0.02859769
3.7e+08	0.007631923	-0.05249663	-1.641477e-06	5.348671e-06	0.01981221	-0.064778	-1.814188e-06	2.885003e-06
	3.733404e-07	5.597359e-06	0.01081739	-0.0474292	4.714886e-07	8.720373e-07	0.01857163	-0.06477729
	0.01966309	-0.06399234	-4.908216e-07	2.417003e-06	0.008813236	-0.04868149	2.826926e-07	-5.003617e-07
	2.165599e-06	9.798554e-06	0.01861014	-0.06451761	1.120214e-06	3.836802e-06	0.009352149	-0.04700147
3.8e+08	0.0007941305	-0.06872309	8.817086e-07	5.565107e-06	0.004358701	-0.0646733	8.883312e-07	3.405402e-06
	3.021266e-06	4.926237e-06	0.005101828	-0.06467782	2.144779e-06	4.390784e-07	0.002850219	-0.06458101
	0.00441685	-0.06393045	1.590174e-06	2.277224e-06	0.002531747	-0.06537947	1.747065e-06	-5.494607e-07
	6.853021e-06	8.510653e-06	0.003002376	-0.06433649	3.858902e-06	3.220713e-06	0.003938464	-0.06402342
3.9e+08	-0.01285984	-0.07942047	3.278919e-06	4.602134e-06	-0.009053662	-0.05701975	3.593695e-06	2.408487e-06
	5.163446e-06	3.074197e-06	-0.00767295	-0.07669645	3.5126e-06	-8.005208e-07	-0.01079647	-0.05671274
	-0.008836256	-0.05637381	3.472875e-06	1.198671e-06	-0.01066353	-0.07655804	3.089529e-06	-1.501357e-06
	1.079385e-05	5.182912e-06	-0.01054037	-0.05653356	6.2006e-06	1.340749e-06	-0.008509423	-0.07587241
4e+08	-0.0298243	-0.08214829	5.011583e-06	2.620299e-06	-0.01704353	-0.04372001	5.531378e-06	4.045513e-08
	6.293123e-06	3.566213e-07	-0.0241019	-0.08101729	4.20892e-06	-2.640718e-06	-0.01892882	-0.04310447
	-0.01672646	-0.04319578	4.739547e-06	-6.512428e-07	-0.02722078	-0.07978263	3.835227e-06	-3.208753e-06
	1.310089e-05	2.538743e-07	-0.01860046	-0.04303458	7.572254e-06	-1.540678e-06	-0.02458343	-0.08007088
4.1e+08	-0.04584797	-0.07635928	5.656176e-06	1.558297e-08	-0.01748191	-0.02797137	6.068014e-06	-3.188734e-06
	6.076173e-06	-2.711292e-06	-0.04003362	-0.07697757	3.986976e-06	-4.718047e-06	-0.01938025	-0.02700615
	-0.01711997	-0.0275641	5.076255e-06	-2.924579e-06	-0.04286208	-0.07452471	3.619984e-06	-5.298161e-06
	1.313269e-05	-5.460215e-06	-0.01902914	-0.02707185	7.557899e-06	-4.908014e-06	-0.04012284	-0.07597087
4.2e+08	-0.05683611	-0.06352194	5.004325e-06	-2.642744e-06	-0.009890514	-0.01359167	4.871381e-06	-6.49466e-06
	4.429469e-06	-5.473619e-06	-0.05145257	-0.06594065	2.780925e-06	-6.567584e-06	-0.01167124	-0.01230327
	-0.009522987	-0.01327476	4.354202e-06	-5.14963e-06	-0.05349421	-0.06230977	2.290759e-06	-7.235362e-06
	1.065008e-05	-1.088415e-05	-0.01135583	-0.01250893	5.99996e-06	-8.074259e-06	-0.0511132	-0.06494844
4.3e+08	-0.05981127	-0.04695569	3.136632e-06	-4.720966e-06	0.004459102	-0.004272057	2.02725e-06	-8.979084e-06
	1.583204e-06	-7.273565e-06	-0.05540798	-0.05104111	7.603146e-07	-7.71047e-06	0.002898463	-0.002741077
	0.004817482	-0.004008473	2.678598e-06	-6.816675e-06	-0.05617467	-0.04649372	-2.04627e-08	-8.432203e-06
	5.928524e-06	-1.488521e-05	0.003121446	-0.003064852	3.087101e-06	-1.030599e-05	-0.05461221	-0.05016727
4.4e+08	-0.05369582	-0.03110901	4.457759e-07	-5.667866e-06	0.02273439	-0.002844269	-1.922578e-06	-9.849696e-06
	-1.920501e-06	-7.594331e-06	-0.05078238	-0.03653918	-1.667402e-06	-7.775915e-06	0.02144813	-0.001183509
	0.02309403	-0.002600595	4.047718e-07	-7.500744e-06	-0.04989351	-0.0315455	-2.876543e-06	-8.399186e-06
	-2.313911e-07	-1.652122e-05	0.02153511	-0.001580404	-6.351298e-07	-1.100211e-05	-0.04953154	-0.03591379
4.5e+08	-0.03969745	-0.02053175	-2.421857e-06	-5.176787e-06	0.04100896	-0.01064869	-6.063014e-06	-8.655475e-06
	-5.306956e-06	-6.222559e-06	-0.0386819	-0.02681561	-3.922335e-06	-6.628861e-06	0.03999736	-0.008977307
	0.04139923	-0.0104071	-1.918204e-06	-6.992173e-06	-0.03595176	-0.02199981	-5.601344e-06	-6.908913e-06
	-6.621907e-06	-1.529895e-05	0.03992695	-0.009387029	-4.348267e-06	-9.878568e-06	-0.03702378	-0.02657954
4.6e+08	-0.02117838	-0.01874363	-4.719763e-06	-3.308457e-06	0.0550085	-0.02711304	-9.318258e-06	-5.463879e-06
	-7.763436e-06	-3.365367e-06	-0.02226407	-0.02525229	-5.396513e-06	-4.457746e-06	0.054229	-0.02553778
	0.05546737	-0.02688147	-3.679205e-06	-5.38605e-06	-0.0177838	-0.02129819	-7.440503e-06	-4.114728e-06
	-1.189348e-05	-1.136308e-05	0.05400847	-0.0258953	-7.151663e-06	-7.103853e-06	-0.02030725	-0.0255441
4.7e+08	-0.00285298	-0.02725882	-5.815421e-06	-5.090269e-07	0.06105583	-0.04971725	-1.07528e-05	-9.001529e-07
	-8.648614e-06	3.744292e-07	-0.006041059	-0.03331928	-5.642401e-06	-1.754616e-06	0.06042767	-0.04831842
	0.06161432	-0.04952863	-4.385834e-06	-3.092578e-06	-0.0001583045	-0.0308516	-7.787721e-06	-5.620442e-07
	-1.489594e-05	-5.504227e-06	0.0600907	-0.04856819	-8.325196e-06	-3.291412e-06	-0.00394181	-0.03423911
4.8e+08	0.01029515	-0.04516958	-5.390611e-06	2.503331e-06	0.05696293	-0.07443518	-9.856946e-06	3.996448e-06
