!$
! Info: Touchstone file created by Circ.  Input file=Tx_NPC_250mm_32AWG_BPK_700mm_27AWG_BPK_250mm_32AWG_NPC_Rx.circ
!$
# Hz S RI R 50
0	0.03120831	-1.589752e-17	8.65111e-07	1.970532e-19	0.004022193	1.110857e-15	-1.430782e-06	-4.713777e-20
	6.166284e-06	1.656598e-21	0.03005796	-2.018816e-16	-3.800193e-07	1.624288e-19	0.003126035	-4.499641e-16
	0.003364388	2.395106e-17	-1.678579e-06	-4.865209e-21	0.04917937	-5.234051e-16	-4.762675e-06	-3.019469e-20
	1.030485e-05	-3.017625e-19	0.003224148	-2.577401e-16	3.972742e-07	2.720829e-19	0.05440402	4.984201e-16
1e+07	0.06466041	-0.0004750838	8.813371e-07	-3.309254e-07	0.02004066	0.03274886	-7.272225e-07	1.303286e-06
	5.096259e-06	-3.04806e-06	0.06299893	-0.001160424	-4.921883e-07	-6.378609e-08	0.0195168	0.0326795
	0.01944364	0.03273105	-1.602496e-06	3.336689e-07	0.05977471	0.000436179	-3.849746e-06	2.515901e-06
	8.520199e-06	-5.559872e-06	0.01955871	0.03268227	1.138784e-07	-6.966554e-07	0.06429513	-0.002093983
2e+07	0.07097877	-0.01032629	7.499627e-07	-7.736696e-07	0.0544407	0.04385618	6.861863e-07	1.625041e-06
	2.653156e-06	-4.954274e-06	0.06819475	-0.01103942	-6.122878e-07	-1.209071e-08	0.05387532	0.04417441
	0.05378682	0.04405113	-1.42584e-06	5.456277e-07	0.06646763	-0.008313538	-1.688517e-06	3.874188e-06
	3.95903e-06	-9.057151e-06	0.05387936	0.04412729	-5.749621e-07	-1.061707e-06	0.06868208	-0.01259245
3e+07	0.06949482	-0.02638305	3.031129e-07	-1.197354e-06	0.08542336	0.02635516	1.879093e-06	8.1345e-07
	-3.228293e-07	-5.141685e-06	0.06558036	-0.02624505	-6.74814e-07	1.715943e-07	0.08475445	0.0270468
	0.08471287	0.02686781	-1.289456e-06	6.695378e-07	0.06564623	-0.02348375	6.829994e-07	3.673696e-06
	-1.69829e-06	-9.298618e-06	0.08469275	0.02695764	-1.428689e-06	-8.934916e-07	0.06514494	-0.02776753
4e+07	0.05680926	-0.04050477	-4.482582e-07	-1.299298e-06	0.09329844	-0.008539445	2.168289e-06	-5.55259e-07
	-2.76928e-06	-3.640807e-06	0.05236956	-0.03873245	-5.807394e-07	4.348083e-07	0.09281099	-0.007704372
	0.09277262	-0.007790407	-1.211027e-06	8.328753e-07	0.05366956	-0.03709098	2.336453e-06	2.25454e-06
	-6.388216e-06	-6.221089e-06	0.09269255	-0.007742081	-2.095102e-06	-1.240937e-07	0.05121925	-0.03968256
5e+07	0.03666491	-0.04408062	-1.203008e-06	-8.354974e-07	0.0728737	-0.03737831	1.525723e-06	-1.671526e-06
	-3.794941e-06	-1.04759e-06	0.03254662	-0.04022248	-2.605524e-07	6.632501e-07	0.07263811	-0.03659149
	0.07266119	-0.03657089	-1.079527e-06	1.11423e-06	0.03409949	-0.04016067	2.819904e-06	3.488062e-07
	-8.289508e-06	-9.278707e-07	0.07252972	-0.03655421	-2.161117e-06	1.095532e-06	0.03118582	-0.04037693
6e+07	0.01803979	-0.03317051	-1.483286e-06	1.163609e-07	0.03730816	-0.04086725	4.913341e-07	-2.025641e-06
	-2.947368e-06	1.559135e-06	0.01546678	-0.02754352	2.570074e-07	6.712039e-07	0.03733091	-0.04012245
	0.03738789	-0.04012649	-7.368799e-07	1.449698e-06	0.01612838	-0.02877627	2.205398e-06	-1.291218e-06
	-6.436867e-06	4.470398e-06	0.03725259	-0.04001115	-1.325757e-06	2.2817e-06	0.01441637	-0.02693257
7e+07	0.01167312	-0.01146131	-9.748103e-07	1.070615e-06	0.01076236	-0.01491593	-2.537524e-07	-1.7091e-06
	-5.876406e-07	2.918358e-06	0.01152788	-0.00492283	7.812964e-07	2.916113e-07	0.01100168	-0.01440262
	0.01100214	-0.0143961	-1.26967e-07	1.633953e-06	0.01064037	-0.006465633	9.404867e-07	-2.173665e-06
	-1.426676e-06	7.46191e-06	0.01100233	-0.01425399	2.753781e-07	2.732534e-06	0.01116272	-0.003920898
8e+07	0.02306053	0.009953529	1.298845e-07	1.378156e-06	0.01313865	0.02488851	-4.221497e-07	-1.287263e-06
	2.066052e-06	2.269352e-06	0.02561304	0.01606307	9.661311e-07	-4.241617e-07	0.01339738	0.02507224
	0.01334414	0.02519271	5.91374e-07	1.447898e-06	0.0233319	0.01538346	-4.217707e-07	-2.196402e-06
	4.445161e-06	6.385999e-06	0.01348897	0.02520249	1.917546e-06	1.995899e-06	0.02599714	0.01695197
9e+07	0.04808251	0.01845161	1.144156e-06	7.488291e-07	0.04655039	0.05271298	-3.324559e-07	-1.252164e-06
	3.553137e-06	-5.136865e-08	0.05274737	0.02280628	6.007738e-07	-1.108615e-06	0.04659327	0.05268294
	0.0466013	0.05295841	1.097676e-06	8.796623e-07	0.04997927	0.02377714	-1.478283e-06	-1.541585e-06
	8.212621e-06	1.621144e-06	0.04675442	0.05274457	2.701101e-06	3.474556e-07	0.05363681	0.02317112
1e+08	0.07459357	0.007784521	1.377052e-06	-4.588874e-07	0.09345109	0.04922584	-5.448487e-07	-1.544565e-06
	3.105791e-06	-2.800099e-06	0.08015799	0.009679941	-1.41008e-07	-1.322818e-06	0.09320524	0.04923727
	0.09337894	0.04959317	1.160316e-06	2.010572e-07	0.07810473	0.01228488	-2.027587e-06	-4.586195e-07
	7.981711e-06	-4.51284e-06	0.09337874	0.04919735	2.233482e-06	-1.335099e-06	0.08112784	0.009347595
1.1e+08	0.08971594	-0.0184066	6.390677e-07	-1.493634e-06	0.127927	0.01341924	-1.267988e-06	-1.623686e-06
	9.863231e-07	-4.654912e-06	0.09478503	-0.01893123	-7.830791e-07	-9.138901e-07	0.1276013	0.01373013
	0.1279102	0.01402428	8.454967e-07	-2.156253e-07	0.09429134	-0.01542022	-1.943942e-06	8.330696e-07
	3.886846e-06	-9.134837e-06	0.1277303	0.01359773	8.777579e-07	-2.200495e-06	0.09537386	-0.01986371
1.2e+08	0.08617412	-0.04932628	-6.645192e-07	-1.702989e-06	0.1309387	-0.03751834	-2.115347e-06	-9.767711e-07
	-1.854842e-06	-4.851876e-06	0.08967782	-0.05131915	-9.013522e-07	-1.154062e-07	0.1308622	-0.03691979
	0.1311799	-0.03673175	4.940634e-07	-1.665281e-07	0.09101083	-0.04801857	-1.10694e-06	2.062319e-06
	-2.221981e-06	-1.023157e-05	0.1308948	-0.03709865	-5.757404e-07	-1.904178e-06	0.0896122	-0.05248229
1.3e+08	0.06479413	-0.07210396	-1.788671e-06	-8.999148e-07	0.1002108	-0.07813259	-2.336523e-06	3.882897e-07
	-4.299451e-06	-3.323095e-06	0.06654643	-0.07423848	-3.314271e-07	6.154474e-07	0.1006043	-0.07749393
	0.1008463	-0.07735993	5.132187e-07	2.276784e-07	0.06921693	-0.07216045	5.218039e-07	2.799995e-06
	-7.75328e-06	-7.332137e-06	0.1005349	-0.07765296	-1.329206e-06	-6.788617e-07	0.06581029	-0.0751737
1.4e+08	0.03436293	-0.07647724	-2.032834e-06	5.212334e-07	0.05148626	-0.0877035	-1.361758e-06	1.770092e-06
	-5.384898e-06	-6.385004e-07	0.03507874	-0.07767883	7.657671e-07	7.987227e-07	0.05235311	-0.08736141
	0.05248989	-0.08720698	1.117887e-06	5.371822e-07	0.03808305	-0.07731172	2.677569e-06	2.480082e-06
	-1.032464e-05	-1.61991e-06	0.05221767	-0.08744461	-8.819718e-07	7.74097e-07	0.03393224	-0.07798987
1.5e+08	0.009538273	-0.05960894	-1.168329e-06	1.719508e-06	0.01144551	-0.06158116	6.109223e-07	2.081838e-06
	-4.655485e-06	2.099533e-06	0.01048461	-0.05961215	1.915945e-06	1.112537e-07	0.01256727	-0.06181992
	0.01260022	-0.06156095	2.099953e-06	2.339034e-07	0.01272755	-0.06069653	4.592999e-06	6.874611e-07
	-8.749874e-06	4.378427e-06	0.01243061	-0.06180791	6.864667e-07	1.487362e-06	0.009408437	-0.05912801
1.6e+08	0.004632085	-0.02997978	2.765585e-07	1.906163e-06	0.003517684	-0.01582443	2.413684e-06	6.651669e-07
	-2.530041e-06	3.671511e-06	0.006886283	-0.02953566	2.421966e-06	-1.369396e-06	0.004540309	-0.01676616
	0.004517757	-0.01628939	2.813279e-06	-8.929437e-07	0.007772631	-0.03117916	5.133738e-06	-2.317808e-06
	-3.858721e-06	7.822666e-06	0.004460954	-0.0166874	2.508534e-06	7.258076e-07	0.006378721	-0.02840825
1.7e+08	0.02453672	-0.00540493	1.306963e-06	1.011982e-06	0.03273502	0.02031556	2.593974e-06	-1.892646e-06
	-2.468643e-07	3.534052e-06	0.02831989	-0.005879698	1.755908e-06	-2.9788e-06	0.03324234	0.01880031
	0.03333895	0.01957718	2.609835e-06	-2.399135e-06	0.02799372	-0.007062273	3.53257e-06	-5.307213e-06
	1.660901e-06	7.257321e-06	0.03324254	0.01888608	3.299382e-06	-1.306331e-06	0.02870747	-0.004570488
1.8e+08	0.05929975	-0.002592875	1.288844e-06	-1.98148e-07	0.08078236	0.02282695	6.668436e-07	-3.924259e-06
	1.04391e-06	2.27071e-06	0.06377579	-0.005164758	9.408899e-08	-3.743292e-06	0.08051917	0.02113552
	0.08096846	0.02212285	1.457984e-06	-3.428807e-06	0.06298615	-0.005321411	2.174253e-07	-6.672295e-06
	5.007102e-06	3.638014e-06	0.0805743	0.02117441	2.377911e-06	-3.367537e-06	0.06501786	-0.004239175
1.9e+08	0.0900687	-0.02623858	4.608008e-07	-8.26224e-07	0.1180798	-0.01122037	-2.341906e-06	-3.935123e-06
	1.132407e-06	9.930841e-07	0.09379441	-0.03124778	-1.634916e-06	-3.138158e-06	0.1171287	-0.0126077
	0.1180364	-0.01167462	2.617347e-08	-3.434189e-06	0.09336192	-0.03047568	-3.261123e-06	-5.579544e-06
	5.120803e-06	-5.722923e-07	0.1171881	-0.01263483	3.322038e-07	-4.150665e-06	0.09551095	-0.03111707
2e+08	0.1005317	-0.06733082	-4.072632e-07	-5.5395e-07	0.122923	-0.06348194	-4.636887e-06	-1.687583e-06
	6.314509e-07	3.734987e-07	0.1021323	-0.07413755	-2.421447e-06	-1.524155e-06	0.1216612	-0.06427677
	0.1229101	-0.06366669	-8.808113e-07	-2.567432e-06	0.1025512	-0.07297875	-5.23098e-06	-2.520564e-06
	2.911529e-06	-3.290358e-06	0.1216792	-0.0643512	-1.514755e-06	-3.321532e-06	0.1037973	-0.07489184
2.1e+08	0.08419405	-0.1093259	-6.503787e-07	2.852595e-07	0.0926191	-0.1072955	-4.788813e-06	1.743528e-06
	2.146788e-07	3.497833e-07	0.08296599	-0.1166348	-1.842458e-06	1.489098e-07	0.09148099	-0.1075638
	0.09282064	-0.1073748	-8.440724e-07	-1.456989e-06	0.0842215	-0.1157245	-4.787343e-06	1.090254e-06
	8.269915e-08	-3.828364e-06	0.09144037	-0.1076453	-2.127462e-06	-1.596076e-06	0.08412628	-0.118023
2.2e+08	0.04562767	-0.1354292	-5.24651e-08	1.02199e-06	0.04218909	-0.1222039	-2.439731e-06	4.583157e-06
	1.496836e-07	4.909045e-07	0.0417006	-0.1417695	-2.314493e-07	9.371103e-07	0.04140196	-0.1222542
	0.04262181	-0.1224133	3.884361e-08	-8.198125e-07	0.04345713	-0.1415464	-2.080303e-06	3.608332e-06
	-1.983792e-06	-2.704959e-06	0.04131314	-0.1223067	-1.321012e-06	-1.246957e-07	0.04217194	-0.1433504
2.3e+08	-0.001014851	-0.134298	1.067677e-06	9.996619e-07	-0.004402883	-0.1027354	1.4724e-06	5.152387e-06
	2.592292e-07	4.414539e-07	-0.006728511	-0.1385807	1.535354e-06	3.447907e-07	-0.004886863	-0.1029015
	-0.003896659	-0.1032639	1.218375e-06	-1.167964e-06	-0.00494124	-0.1391492	1.745247e-06	3.747071e-06
	-2.75197e-06	-9.621512e-07	-0.004997443	-0.1029078	2.570245e-07	1.723827e-07	-0.006813218	-0.1399095
2.4e+08	-0.03601701	-0.1057029	1.918156e-06	-5.205983e-08	-0.02548206	-0.060376	4.924603e-06	2.760067e-06
	1.743195e-07	1.92948e-07	-0.04222289	-0.107574	2.415373e-06	-1.402016e-06	-0.0258901	-0.06083849
	-0.02516386	-0.06125476	1.835117e-06	-2.5302e-06	-0.04075153	-0.1087678	4.81095e-06	1.177957e-06
	-2.498526e-06	5.154993e-07	-0.02599967	-0.0608008	1.471754e-06	-9.025989e-07	-0.04247654	-0.1084105
2.5e+08	-0.04286491	-0.06373881	1.627728e-06	-1.625312e-06	-0.01245517	-0.01873673	5.741889e-06	-1.532341e-06
	-3.070111e-07	1.286306e-07	-0.04839278	-0.06361752	1.762376e-06	-3.329622e-06	-0.01303293	-0.01948467
	-0.01255102	-0.01979653	1.141238e-06	-4.195198e-06	-0.04738777	-0.06521828	5.291394e-06	-2.942782e-06
	-1.873329e-06	1.484386e-06	-0.01313159	-0.0194087	1.348193e-06	-2.600653e-06	-0.04837461	-0.06406927
2.6e+08	-0.01924562	-0.03168347	5.3507e-08	-2.521404e-06	0.02401267	-0.001459155	3.185985e-06	-5.1316e-06
	-8.657116e-07	7.262779e-07	-0.02352836	-0.03052381	-1.21367e-07	-4.194827e-06	0.02309638	-0.002366621
	0.0234517	-0.002410312	-7.855552e-07	-4.939164e-06	-0.02301369	-0.03238314	2.71113e-06	-6.262312e-06
	-1.189562e-06	2.29921e-06	0.02301548	-0.002251859	-1.645589e-07	-3.595014e-06	-0.02299546	-0.03097954
2.7e+08	0.01925336	-0.02820762	-1.775212e-06	-1.828407e-06	0.05898014	-0.01723343	-1.115731e-06	-5.670045e-06
	-7.606751e-07	1.978857e-06	0.01608874	-0.02694125	-2.027262e-06	-3.39323e-06	0.05764557	-0.01812966
	0.05811793	-0.01783355	-2.795639e-06	-3.999066e-06	0.01600805	-0.02897448	-1.386973e-06	-6.778482e-06
	-1.009715e-07	3.236328e-06	0.05760162	-0.01797041	-1.984139e-06	-2.987578e-06	0.01700227	-0.0278728
2.8e+08	0.04863452	-0.05522533	-2.431425e-06	1.008413e-07	0.06958395	-0.05354244	-4.276829e-06	-2.920312e-06
	5.477459e-07	3.140054e-06	0.04596644	-0.05435166	-2.711462e-06	-1.465026e-06	0.06782191	-0.05423393
	0.06868635	-0.05373418	-3.527005e-06	-1.868385e-06	0.04512225	-0.05636085	-4.520875e-06	-4.376248e-06
	1.907174e-06	3.849728e-06	0.06784738	-0.05404166	-2.709113e-06	-1.097911e-06	0.04681121	-0.05598994
2.9e+08	0.05103677	-0.09807097	-1.346679e-06	1.898708e-06	0.05009681	-0.08618283	-4.341685e-06	1.137542e-06
	2.800031e-06	3.179573e-06	0.0482026	-0.09751633	-1.77321e-06	3.459961e-07	0.04799618	-0.08646513
	0.04936745	-0.08609189	-2.536321e-06	1.038823e-07	0.04651534	-0.0991004	-5.086186e-06	-7.035261e-07
	4.681061e-06	3.161973e-06	0.04811775	-0.08627978	-1.707208e-06	7.879766e-07	0.04848507	-0.09970045
3e+08	0.02302539	-0.1349635	8.127122e-07	2.283464e-06	0.01335686	-0.09586398	-1.444186e-06	3.888987e-06
	4.976102e-06	1.502055e-06	0.01966678	-0.1342716	2.008043e-07	9.438007e-07	0.01112937	-0.0955889
	0.01284581	-0.09568731	-5.006733e-07	7.642546e-07	0.01736621	-0.1349062	-3.134675e-06	2.179068e-06
	7.127403e-06	4.741478e-07	0.0113436	-0.09547119	4.819138e-07	1.350229e-06	0.01913829	-0.1365347
3.1e+08	-0.0242892	-0.1475068	2.688103e-06	8.529012e-07	-0.01958538	-0.07852284	2.55932e-06	3.673252e-06
	5.778862e-06	-1.62284e-06	-0.02813499	-0.1461375	2.055764e-06	-5.350014e-08	-0.02166384	-0.07768646
	-0.01997041	-0.07840404	1.356876e-06	-2.127189e-07	-0.03043271	-0.1454707	3.143475e-08	2.936225e-06
	7.651068e-06	-3.896193e-06	-0.0214042	-0.07769173	2.502795e-06	5.00238e-08	-0.02932785	-0.1479766
3.2e+08	-0.07057196	-0.1286081	2.978328e-06	-1.73969e-06	-0.03189395	-0.04502323	5.21172e-06	5.914702e-07
	4.290573e-06	-4.992036e-06	-0.07455115	-0.1261608	2.652289e-06	-2.114677e-06	-0.03358335	-0.0437799
	-0.03229902	-0.04498499	1.919323e-06	-2.245763e-06	-0.07598067	-0.1243285	2.650427e-06	1.451783e-06
	5.05697e-06	-8.349248e-06	-0.0333622	-0.04392595	2.919128e-06	-2.474793e-06	-0.07597966	-0.1273182
3.3e+08	-0.09531411	-0.08641612	1.126726e-06	-4.009005e-06	-0.01885818	-0.01404972	4.793659e-06	-3.503012e-06
	6.319085e-07	-6.821446e-06	-0.09891147	-0.08273312	1.526568e-06	-3.959135e-06	-0.02004216	-0.01265231
	-0.01938665	-0.01399567	7.292832e-07	-4.07962e-06	-0.09880269	-0.08050897	3.37864e-06	-1.151719e-06
	-4.283556e-07	-1.043321e-05	-0.01994799	-0.01289374	1.154993e-06	-4.568036e-06	-0.1001053	-0.08331907
3.4e+08	-0.08870122	-0.04121828	-2.132756e-06	-4.314379e-06	0.01020663	-0.002251927	1.487748e-06	-5.949125e-06
	-3.622035e-06	-5.688303e-06	-0.09136316	-0.036396	-6.041611e-07	-4.263447e-06	0.009507124	-0.0009747653
	0.009565788	-0.002035824	-1.583022e-06	-4.37097e-06	-0.08973098	-0.03495831	2.128308e-06	-3.09697e-06
	-6.539151e-06	-8.186416e-06	0.009432039	-0.001206034	-1.800419e-06	-4.503423e-06	-0.09208634	-0.03681069
3.5e+08	-0.05779698	-0.01449133	-4.870558e-06	-2.005742e-06	0.03674334	-0.01490209	-2.455452e-06	-5.053269e-06
	-6.028598e-06	-1.788219e-06	-0.05900783	-0.008872792	-2.127148e-06	-2.737175e-06	0.03636953	-0.01399593
	0.03611639	-0.01443049	-3.434185e-06	-2.64721e-06	-0.0567856	-0.009182693	2.445448e-07	-3.191313e-06
	-9.750514e-06	-1.906212e-06	0.03617181	-0.01409784	-3.75009e-06	-1.925153e-06	-0.05941673	-0.009542166
3.6e+08	-0.02227613	-0.01623012	-5.160845e-06	1.781872e-06	0.04397982	-0.04193304	-4.202317e-06	-1.512417e-06
	-4.954508e-06	2.731539e-06	-0.02169418	-0.01038985	-1.780437e-06	-5.420318e-07	0.04361606	-0.04153736
	0.04353111	-0.04123497	-3.338105e-06	9.981312e-08	-0.02034401	-0.01249838	-5.422868e-07	-1.823882e-06
	-7.585577e-06	5.275945e-06	0.04342204	-0.04145248	-2.928532e-06	1.541722e-06	-0.0222249	-0.01146016
3.7e+08	-0.002097511	-0.039882	-2.594942e-06	4.737319e-06	0.02828477	-0.064119	-2.505916e-06	2.002712e-06
	-9.523528e-07	5.1048e-06	0.000385587	-0.03457862	2.833366e-07	6.044193e-07	0.02754517	-0.06412948
	0.0281073	-0.06333266	-1.108511e-06	2.027502e-06	-0.0003493631	-0.0374172	4.071659e-07	-5.844287e-07
	-6.798408e-07	9.109067e-06	0.02749561	-0.06390998	5.106972e-07	3.412774e-06	-0.000682193	-0.03576095
3.8e+08	-0.006264207	-0.06789803	1.351e-06	4.993899e-06	0.001535499	-0.06628775	1.37949e-06	2.842055e-06
	3.578383e-06	3.8431e-06	-0.0021545	-0.06395011	2.681319e-06	-2.527307e-07	0.0001905781	-0.06632148
	0.001598547	-0.06556597	1.975835e-06	1.787531e-06	-0.005136336	-0.0657789	2.199939e-06	-8.578196e-07
	7.348132e-06	6.970254e-06	0.000352159	-0.06611049	4.579494e-06	2.156503e-06	-0.003798302	-0.06468661
3.9e+08	-0.02924078	-0.08248419	4.304513e-06	2.341775e-06	-0.01749895	-0.04726318	4.635976e-06	2.123707e-07
	5.902298e-06	-4.285608e-07	-0.02421139	-0.08056279	3.805599e-06	-2.760174e-06	-0.01933004	-0.04686642
	-0.01731201	-0.04667737	4.07045e-06	-6.020918e-07	-0.02829491	-0.07986795	3.218808e-06	-2.777485e-06
	1.194399e-05	-5.000578e-07	-0.01901033	-0.0468206	6.774466e-06	-1.858341e-06	-0.02598562	-0.08039989
4e+08	-0.05519849	-0.07527303	4.420188e-06	-1.661526e-06	-0.01551089	-0.01977527	4.730874e-06	-4.295643e-06
	4.422327e-06	-5.354629e-06	-0.0503079	-0.07563284	2.740805e-06	-5.505834e-06	-0.01742342	-0.01871334
	-0.01530906	-0.01928644	3.878322e-06	-3.800207e-06	-0.05347491	-0.07202568	2.284796e-06	-5.147403e-06
	1.008941e-05	-9.595072e-06	-0.01709752	-0.0189162	5.495572e-06	-6.544683e-06	-0.05150592	-0.07458036
4.1e+08	-0.06757725	-0.0517371	1.491467e-06	-4.511801e-06	0.007489506	-0.002149028	1.108808e-06	-7.585195e-06
	-4.121857e-07	-7.985174e-06	-0.06391902	-0.05396181	-1.426456e-07	-6.71117e-06	0.005939143	-0.0005229897
	0.007685723	-0.001658029	1.439907e-06	-5.85466e-06	-0.0642965	-0.0485899	-4.584338e-07	-6.134523e-06
	2.112477e-06	-1.527001e-05	0.006094931	-0.0009323006	1.082773e-06	-9.086764e-06	-0.0640061	-0.05258395
4.2e+08	-0.0593333	-0.02740275	-2.711187e-06	-4.21839e-06	0.03817528	-0.007366643	-4.140595e-06	-7.009429e-06
	-6.026113e-06	-6.388514e-06	-0.05760181	-0.03049372	-3.119391e-06	-5.317707e-06	0.03725178	-0.005524546
	0.03844419	-0.006805914	-1.693171e-06	-5.370002e-06	-0.05452664	-0.02557704	-3.326416e-06	-4.512749e-06
	-7.994847e-06	-1.38938e-05	0.03712857	-0.0059863	-3.980873e-06	-7.602227e-06	-0.05660112	-0.02961036
4.3e+08	-0.03727608	-0.01741293	-5.375311e-06	-7.675727e-07	0.05734771	-0.03487656	-7.40799e-06	-2.423779e-06
	-9.039779e-06	-1.150505e-06	-0.03740299	-0.02013167	-4.056086e-06	-2.006584e-06	0.05705549	-0.03325666
	0.05780781	-0.0342792	-3.314367e-06	-2.60332e-06	-0.0319253	-0.01782683	-4.026303e-06	-8.688065e-07
	-1.45481e-05	-5.778238e-06	0.05667497	-0.03357744	-6.368348e-06	-2.733747e-06	-0.03594762	-0.02032784
4.4e+08	-0.01668352	-0.02635048	-4.591862e-06	3.659281e-06	0.05174693	-0.06993151	-6.127264e-06	3.367778e-06
	-7.564918e-06	4.724844e-06	-0.017829	-0.02778593	-2.067777e-06	1.002727e-06	0.05181248	-0.06890607
	0.05246248	-0.06943219	-2.149488e-06	5.225821e-07	-0.01220461	-0.02898107	-1.454999e-06	2.420677e-06
	-1.374437e-05	4.637409e-06	0.05132083	-0.06895454	-4.305349e-06	2.432176e-06	-0.01680357	-0.02899859
4.5e+08	-0.01043489	-0.04608292	-7.451159e-07	6.190866e-06	0.02302641	-0.09235254	-7.563651e-07	6.484364e-06
	-2.570046e-06	7.848771e-06	-0.0113623	-0.04610432	1.684887e-06	1.565132e-06	0.02297273	-0.09204562
	0.02394201	-0.09211598	1.165512e-06	1.778851e-06	-0.007848619	-0.04993092	3.207402e-06	2.816928e-06
	-6.141671e-06	1.156549e-05	0.02256331	-0.09182094	1.042757e-06	4.492019e-06	-0.01132679	-0.04760823
4.6e+08	-0.02091295	-0.06208341	3.84099e-06	5.195174e-06	-0.01297963	-0.08927626	5.481583e-06	4.615713e-06
	2.937164e-06	6.67356e-06	-0.02058425	-0.06145814	4.858217e-06	-8.813919e-07	-0.01360428	-0.08945933
	-0.01203215	-0.08939961	4.587579e-06	1.521631e-07	-0.02023875	-0.06576846	7.17829e-06	-5.498279e-07
	3.896708e-06	1.140189e-05	-0.01379138	-0.08908488	6.440595e-06	2.003675e-06	-0.02136556	-0.06231972
4.7e+08	-0.03888927	-0.0629491	6.410317e-06	1.167459e-06	-0.03601099	-0.06300745	8.597991e-06	-1.519844e-06
	5.847392e-06	2.158717e-06	-0.03706358	-0.06304471	5.421808e-06	-5.092207e-06	-0.03738438	-0.06322892
	-0.03523448	-0.06345083	5.972668e-06	-3.626889e-06	-0.039206	-0.06555266	7.776414e-06	-6.266674e-06
	1.085506e-05	4.5196e-06	-0.03732838	-0.06287965	8.619727e-06	-3.808572e-06	-0.03778382	-0.06273821
4.8e+08	-0.04912322	-0.04801342	5.296487e-06	-3.567437e-06	-0.03315416	-0.02946575	6.155897e-06	-8.432473e-06
