!$
! Info: Touchstone file created by Circ.  Input file=Tx_NPC_250mm_32AWG_BPK_1400mm_27AWG_BPK_250mm_32AWG_NPC_Rx.circ
!$
# Hz S RI R 50
0	0.1028681	-1.627025e-16	0.9225768	-8.153365e-16	0.002894327	-3.409087e-15	-0.005126508	-1.071283e-16
	0.9226855	3.397866e-17	0.04952451	-1.910093e-16	-0.0005370121	5.266799e-16	0.003719229	-4.406122e-16
	0.002771474	-9.196197e-16	-0.002577652	8.977628e-17	0.07741624	3.236492e-15	0.9226792	7.677622e-16
	-0.005520443	-6.802854e-17	0.003805893	-2.528436e-16	0.9240891	2.362683e-15	0.07319197	5.509967e-16
1e+07	0.08027705	-0.01442039	0.7499349	-0.5296599	0.03267991	0.04065709	-0.006638108	0.0004419593
	0.7500868	-0.5297077	0.078561	-0.01561836	-0.003834985	-0.00173231	0.03316003	0.03904385
	0.03312357	0.03925424	-0.005323577	-0.0005862072	0.07679157	-0.01457275	0.7491326	-0.5301398
	-0.006948298	0.0006727264	0.03319087	0.03902521	0.7501847	-0.5310294	0.07940786	-0.01689684
2e+07	0.07113993	-0.03663995	0.3097317	-0.8592274	0.07973153	0.02796798	-0.007239503	0.002642394
	0.3098237	-0.8593989	0.06752928	-0.03735313	-0.006354316	-0.000766807	0.07851419	0.02679143
	0.07872997	0.02698055	-0.006890192	0.001063153	0.06666708	-0.03595472	0.3079501	-0.8595133
	-0.007411182	0.002998071	0.07846343	0.02675205	0.3082395	-0.860813	0.0669169	-0.03874978
3e+07	0.04347465	-0.04766299	-0.2355137	-0.8795222	0.08221465	-0.01902807	-0.008432547	0.005104181
	-0.2355708	-0.8796295	0.03884961	-0.0461187	-0.009803742	0.001891031	0.0807979	-0.01854982
	0.08157378	-0.01866502	-0.009080645	0.003794894	0.03865124	-0.04508549	-0.2380288	-0.8783722
	-0.008359526	0.005520526	0.08066511	-0.01851811	-0.2385654	-0.8796631	0.03753124	-0.04632453
4e+07	0.01584004	-0.03069792	-0.6952149	-0.5859875	0.03871191	-0.03542794	-0.009326332	0.01239419
	-0.6953264	-0.586025	0.01256298	-0.02661556	-0.01234786	0.01070057	0.03771494	-0.03415403
	0.03838855	-0.03474447	-0.01060708	0.0117965	0.01222413	-0.02608444	-0.6971072	-0.5828838
	-0.009011924	0.01271423	0.03764783	-0.03401006	-0.6983221	-0.5835894	0.0119077	-0.02561948
5e+07	0.01666126	0.002492754	-0.9028183	-0.08115759	0.009210125	0.003499134	-0.0001751852	0.02269466
	-0.9029169	-0.08111737	0.01630359	0.007401706	-0.003544397	0.02319916	0.009103093	0.004688806
	0.009300124	0.004066222	-0.001506711	0.02299924	0.01538019	0.00802057	-0.902573	-0.07674137
	0.0002673226	0.02276566	0.009163805	0.004820307	-0.9039739	-0.0765533	0.01703408	0.008328358
6e+07	0.04746411	0.01668741	-0.7818054	0.4473098	0.03842959	0.04762451	0.01851994	0.02112303
	-0.7818544	0.4473923	0.0493344	0.01984769	0.01618747	0.02351821	0.03878795	0.04835869
	0.03865604	0.047919	0.01768302	0.02212335	0.04824539	0.02131733	-0.7787103	0.4514191
	0.01893215	0.02090876	0.0389297	0.04839526	-0.779697	0.4524219	0.0506976	0.01952453
7e+07	0.07449528	-0.004865331	-0.38593	0.807059	0.09440941	0.03780999	0.02973731	0.004474768
	-0.3859244	0.8071509	0.07619025	-0.004016506	0.02931539	0.007725258	0.09458814	0.03802606
	0.09448842	0.03792853	0.02966222	0.005736107	0.07579168	-0.001747086	-0.3803976	0.8090574
	0.02994485	0.00406369	0.09469157	0.03794651	-0.3805708	0.8104422	0.07676861	-0.005564064
8e+07	0.06830828	-0.03903627	0.1387925	0.8809435	0.1101821	-0.01837392	0.0270416	-0.0128345
	0.1388524	0.8810165	0.06817505	-0.03874311	0.02862198	-0.01001119	0.1099207	-0.01815622
	0.1101074	-0.01816902	0.02772209	-0.01180126	0.06889317	-0.03645213	0.14533	0.8793984
	0.02698193	-0.01328819	0.1099063	-0.01826199	0.146022	0.8806049	0.06725307	-0.04027416
9e+07	0.03529465	-0.04889911	0.615622	0.6467192	0.06594875	-0.05533752	0.01921201	-0.02537217
	0.6157178	0.6467371	0.0341535	-0.04684634	0.0221487	-0.02407275	0.06555509	-0.05463436
	0.06592543	-0.05493726	0.02035509	-0.02498021	0.03555061	-0.04530495	0.6208122	0.6410962
	0.01890468	-0.02572731	0.06546308	-0.05465052	0.6220975	0.641646	0.03242569	-0.04705772
1e+08	0.01327331	-0.02153736	0.8758069	0.177794	0.01659488	-0.02684701	0.004864875	-0.03818877
	0.8758884	0.1777424	0.01378519	-0.01740295	0.007942672	-0.03892929	0.01669652	-0.02572993
	0.01680345	-0.02638518	0.00595779	-0.03857303	0.01502911	-0.01661155	0.8769397	0.1692846
	0.004389904	-0.03831712	0.01665779	-0.02563586	0.8783064	0.168936	0.01278348	-0.0162111
1.1e+08	0.03300426	0.01137911	0.8151533	-0.3557279	0.02898255	0.03123972	-0.02331825	-0.04036852
	0.8151748	-0.3558135	0.0368237	0.0151655	-0.02136399	-0.04275676	0.02983709	0.03216753
	0.0293949	0.03157379	-0.02273829	-0.04126381	0.03755304	0.01585389	0.8107534	-0.3640091
	-0.0238098	-0.04018194	0.02993068	0.03226658	0.8116208	-0.3651211	0.03737893	0.01640652
1.2e+08	0.07575248	0.006488121	0.4620765	-0.7500947	0.09277011	0.04141562	-0.04844243	-0.0167486
	0.4620417	-0.7501625	0.08144337	0.007119738	-0.04828661	-0.01972744	0.09390658	0.04161583
	0.09323497	0.04155149	-0.04847464	-0.0177168	0.08205952	0.008277634	0.4531616	-0.754639
	-0.04873337	-0.01628346	0.09407002	0.04158977	0.4531751	-0.7560405	0.08274512	0.007058816
1.3e+08	0.09448538	-0.03573042	-0.04228295	-0.8732307	0.1327251	-0.01488918	-0.04766767	0.01763626
	-0.04234031	-0.8732584	0.09889027	-0.03843645	-0.04922307	0.01517397	0.1335345	-0.01527414
	0.1331474	-0.01488997	-0.04817244	0.01688382	0.10005	-0.03692456	-0.05281063	-0.8719392
	-0.04761719	0.01819212	0.1336267	-0.01543074	-0.05363728	-0.8730648	0.09939945	-0.03970662
1.4e+08	0.06911597	-0.07497786	-0.526542	-0.697028	0.1022322	-0.07821382	-0.02822011	0.03874233
	-0.5265964	-0.6970217	0.07048263	-0.07849061	-0.03089865	0.03762738	0.1025359	-0.07867857
	0.1026073	-0.07829348	-0.02903647	0.0383719	0.07238181	-0.07724851	-0.5351786	-0.6896709
	-0.02784942	0.03916265	0.1024796	-0.0788474	-0.5365237	-0.6900814	0.06952428	-0.07958327
1.5e+08	0.02387955	-0.07296771	-0.832963	-0.2760964	0.03399821	-0.08006782	-0.007258602	0.04801392
	-0.8330045	-0.2760645	0.02349862	-0.07455388	-0.01010425	0.04869916	0.03408909	-0.08019637
	0.03432872	-0.08021326	-0.008166072	0.04817654	0.02571948	-0.07404297	-0.8362893	-0.2642786
	-0.006711255	0.04814817	0.03394816	-0.0802497	-0.8376284	-0.2637836	0.02199923	-0.07413778
1.6e+08	0.008526795	-0.0315818	-0.8425139	0.252688	0.007808791	-0.02024174	0.02010736	0.0526174
	-0.8425296	0.2527388	0.00942418	-0.03119416	0.01825083	0.054882	0.008236541	-0.02013189
	0.00807142	-0.02043442	0.01948948	0.05329026	0.01146967	-0.03133958	-0.8381575	0.2652235
	0.02065201	0.05241297	0.008152085	-0.02006736	-0.8389145	0.2664461	0.009123837	-0.02945376
1.7e+08	0.04486889	-0.002554472	-0.5403988	0.6872635	0.05645549	0.02306512	0.05593536	0.03517193
	-0.5403764	0.6873115	0.04836091	-0.003022807	0.05582678	0.0380293	0.05733204	0.02280652
	0.05666506	0.02288479	0.05585301	0.03602024	0.05001857	-0.003514411	-0.5288909	0.6953983
	0.05628167	0.03466645	0.05736429	0.02286599	-0.5287385	0.6968183	0.04991004	-0.001723437
1.8e+08	0.09069034	-0.02716185	-0.05198356	0.8626554	0.116913	-0.009055662	0.07011707	-0.01040585
	-0.05193879	0.8626704	0.09468541	-0.03092592	0.07163752	-0.008110208	0.1176831	-0.01001151
	0.1171542	-0.009220626	0.07046327	-0.009726404	0.09597317	-0.03150635	-0.03731994	0.8626597
	0.07009508	-0.01105232	0.1177506	-0.01005466	-0.036357	0.8636876	0.09676285	-0.03142566
1.9e+08	0.0934677	-0.08375955	0.4390323	0.7360746	0.114691	-0.08073229	0.04646888	-0.05108535
	0.4390631	0.7360571	0.09481327	-0.09012489	0.04896462	-0.05005512	0.1148655	-0.08205923
	0.1150058	-0.08099118	0.04705876	-0.05066011	0.09583964	-0.09063068	0.4515453	0.7275405
	0.04604303	-0.05160828	0.1148557	-0.08217731	0.4529246	0.7278	0.09566048	-0.09187435
2e+08	0.04728523	-0.1195205	0.7768016	0.3624272	0.05113425	-0.1146177	0.009203834	-0.06340468
	0.7768068	0.3624077	0.04491705	-0.125447	0.01188865	-0.06395353	0.05070676	-0.1158013
	0.05141401	-0.1150875	0.00998377	-0.06329651	0.04584324	-0.1257834	0.7827483	0.3478169
	0.008532121	-0.06356692	0.05059055	-0.1158921	0.7840328	0.3472	0.04420294	-0.1266757
2.1e+08	-0.006344523	-0.1004749	0.8504829	-0.1427025	-0.006666342	-0.07688812	-0.02132612	-0.05937063
	0.8504844	-0.1427076	-0.01045269	-0.1035139	-0.01938865	-0.06145388	-0.007319753	-0.07765434
	-0.006634415	-0.07753303	-0.0205267	-0.05975818	-0.009342421	-0.1036747	0.8471508	-0.159036
	-0.02196819	-0.05909328	-0.00747563	-0.07764674	0.847813	-0.1603326	-0.01126809	-0.1030455
2.2e+08	-0.01170099	-0.04733853	0.6166976	-0.6071282	0.004073088	-0.01341031	-0.05327357	-0.04650083
	0.6167077	-0.6071371	-0.01449139	-0.04794889	-0.05299722	-0.04940853	0.003641661	-0.01394786
	0.003758339	-0.01397015	-0.05286037	-0.04736581	-0.01292078	-0.04836129	0.6039379	-0.6194119
	-0.05363235	-0.04589542	0.003529442	-0.01385563	0.6036529	-0.6208563	-0.01357095	-0.04668257
2.3e+08	0.03609558	-0.02598864	0.1540729	-0.8468195	0.06505141	-0.004339541	-0.08082262	-0.007417104
	0.1540741	-0.8468396	0.0354613	-0.02702809	-0.08237914	-0.009862917	0.06478878	-0.00517723
	0.06460068	-0.004572139	-0.08104397	-0.008341824	0.03707635	-0.02837167	0.1356778	-0.8495842
	-0.08076695	-0.006705319	0.06475038	-0.005062843	0.1345737	-0.8505348	0.03802418	-0.02716828
2.4e+08	0.07577757	-0.06609039	-0.3520465	-0.774937	0.09358445	-0.05998865	-0.07127088	0.04858204
	-0.3520586	-0.7749502	0.07512973	-0.069356	-0.07389492	0.04756645	0.09293322	-0.06121949
	0.09332104	-0.05998363	-0.07194598	0.04798921	0.07569913	-0.07150218	-0.3691803	-0.7663014
	-0.07080261	0.04915172	0.09294681	-0.06112932	-0.3706052	-0.7663946	0.07720312	-0.07172606
2.5e+08	0.05827157	-0.1257258	-0.7214557	-0.4382349	0.05365495	-0.1102106	-0.02509338	0.08035131
	-0.7214646	-0.4382388	0.05515367	-0.1300593	-0.02778512	0.08098885	0.05233299	-0.1113441
	0.05363541	-0.1102959	-0.02596433	0.08019278	0.05420604	-0.1317615	-0.7308929	-0.4210336
	-0.02434727	0.08055187	0.05236543	-0.1112919	-0.7320924	-0.4202784	0.05509254	-0.1331079
2.6e+08	-0.004225085	-0.1456943	-0.8424451	0.04298309	-0.008950453	-0.09946773	0.02246641	0.07587909
	-0.8424533	0.04297258	-0.01001145	-0.1484436	0.02055514	0.07795825	-0.0106708	-0.1000585
	-0.009002252	-0.09984584	0.02157864	0.07621684	-0.01152266	-0.1484862	-0.8406843	0.0630874
	0.02322001	0.07558003	-0.01064773	-0.1000427	-0.8412166	0.06441859	-0.01158058	-0.1500155
2.7e+08	-0.05464611	-0.1051579	-0.6731006	0.5149017	-0.02837962	-0.04258123	0.05616953	0.0547196
	-0.6731261	0.5148919	-0.0609523	-0.1047083	0.05581842	0.05765612	-0.0300045	-0.04260307
	-0.02880503	-0.04308596	0.0555819	0.05560303	-0.06124712	-0.1033347	-0.6599461	0.5313224
	0.05659999	0.05399773	-0.03002567	-0.04260233	-0.6595629	0.5327362	-0.06179806	-0.1043928
2.8e+08	-0.04365733	-0.04685092	-0.2582173	0.8098662	0.01215069	-0.005032964	0.08310373	0.02063369
	-0.2582526	0.8098829	-0.04802684	-0.04416373	0.08468571	0.02326267	0.01088709	-0.004895436
	0.01133691	-0.005225737	0.08321763	0.02177162	-0.04638474	-0.04334338	-0.2370739	0.8163
	0.0830013	0.01978873	0.01081373	-0.004842961	-0.2358896	0.8171904	-0.04676617	-0.04390812
2.9e+08	0.009218152	-0.03728977	0.2522655	0.8084575	0.05734454	-0.03003481	0.08850679	-0.03462982
	0.2522516	0.8084997	0.007138428	-0.03476949	0.09139111	-0.03355419	0.05614959	-0.03014545
	0.05657038	-0.02967969	0.08933429	-0.03382341	0.008993685	-0.0362224	0.2741609	0.8012541
	0.08792396	-0.03524187	0.0561078	-0.0299841	0.2756306	0.8012297	0.009162296	-0.03673079
3e+08	0.03532721	-0.08397506	0.6626524	0.5162025	0.04708445	-0.07998824	0.050821	-0.08548833
	0.6626698	0.5162425	0.03386049	-0.08285849	0.05370194	-0.08636504	0.04546113	-0.08016733
	0.04676399	-0.07937067	0.05193638	-0.08536425	0.03336951	-0.08557226	0.6767809	0.4971777
	0.04999547	-0.08565568	0.04556713	-0.07996384	0.6779218	0.4962896	0.03402528	-0.0866044
3.1e+08	0.00153925	-0.1309535	0.8328554	0.05059569	-0.003575215	-0.08896136	-0.01004516	-0.09744496
	0.832891	0.05061798	-0.000899695	-0.1304392	-0.008243166	-0.09979696	-0.005606165	-0.08863799
	-0.003503174	-0.08855841	-0.009081946	-0.09797603	-0.003912623	-0.1314071	0.8336937	0.02643581
	-0.01083993	-0.0971114	-0.005357835	-0.08855022	0.8340881	0.0250592	-0.003268635	-0.1333633
3.2e+08	-0.05995788	-0.1258436	0.7146208	-0.4275069	-0.0330106	-0.04777608	-0.06003529	-0.07403121
	0.714664	-0.4275052	-0.06338584	-0.1243377	-0.05991816	-0.07702581	-0.03490171	-0.04672723
	-0.03297582	-0.04774865	-0.05953908	-0.07503937	-0.06609948	-0.1219196	0.7014865	-0.4484933
	-0.06051888	-0.07326467	-0.03466654	-0.04684321	0.7009916	-0.4498462	-0.06624664	-0.1247019
3.3e+08	-0.08832718	-0.07178423	0.3467775	-0.7582042	-0.009864529	-0.005555189	-0.09148987	-0.03325901
	0.3468194	-0.7582282	-0.09141491	-0.06849924	-0.09322492	-0.03581637	-0.01115165	-0.004159936
	-0.01020277	-0.00559317	-0.0917056	-0.03440874	-0.09085299	-0.06456484	0.323377	-0.7686197
	-0.09141559	-0.03230545	-0.01110742	-0.004380242	0.3221568	-0.769418	-0.09230893	-0.06738524
3.4e+08	-0.05890079	-0.02532641	-0.1472898	-0.820924	0.03490593	-0.01048338	-0.1020802	0.02293418
	-0.147268	-0.8209732	-0.06028487	-0.02092094	-0.1050881	0.02196024	0.034115	-0.009311401
	0.03433566	-0.01012744	-0.1029842	0.02215567	-0.05679293	-0.01924023	-0.1734823	-0.8160805
	-0.1014147	0.02366398	0.03397188	-0.009402416	-0.1749444	-0.8159759	-0.05918443	-0.02103669
3.5e+08	-0.01267331	-0.03155229	-0.5877484	-0.5883913	0.04402089	-0.05219525	-0.07447838	0.08339926
	-0.5877619	-0.5884462	-0.01204417	-0.02740728	-0.07743425	0.08450059	0.04318572	-0.05139308
	0.043723	-0.05137129	-0.07565299	0.08335834	-0.009407152	-0.0293565	-0.6070868	-0.5687551
	-0.07350355	0.08357247	0.043097	-0.05124813	-0.6081827	-0.5677933	-0.01148472	-0.02982211
3.6e+08	-0.004180997	-0.07207389	-0.8144176	-0.148693	0.007772571	-0.07297957	-0.01064695	0.1142096
	-0.8144621	-0.1487286	-0.00225836	-0.06921416	-0.01229092	0.1168283	0.006571218	-0.07209023
	0.008046417	-0.07211325	-0.01157512	0.1148666	-0.003406561	-0.07177632	-0.8191209	-0.1208253
	-0.009767289	0.1137809	0.006747627	-0.07190476	-0.8194232	-0.119414	-0.004191048	-0.07193714
3.7e+08	-0.03912641	-0.0938976	-0.7520194	0.3386101	-0.02372323	-0.04550006	0.05658702	0.09943141
	-0.7520747	0.3386065	-0.03699061	-0.09257028	0.05680974	0.1024635	-0.02494814	-0.04405828
	-0.02310387	-0.04504245	0.05623196	0.1004856	-0.04032968	-0.09168287	-0.7397947	0.3647534
	0.05707124	0.09857614	-0.02460161	-0.04412497	-0.7392066	0.3660656	-0.04030752	-0.09300976
3.8e+08	-0.07479484	-0.07084234	-0.4257681	0.7038945	-0.009126281	-0.005895009	0.1025418	0.05289033
	-0.4258151	0.7039203	-0.07332024	-0.07049172	0.1045091	0.05521095	-0.00977801	-0.004061217
	-0.008631394	-0.005863828	0.1028826	0.05394457	-0.0743461	-0.06588076	-0.4003191	0.7189254
	0.1024534	0.0518779	-0.009583702	-0.004429405	-0.3990648	0.7196363	-0.07519928	-0.06865053
3.9e+08	-0.07167441	-0.02987928	0.04973506	0.8191297	0.03374168	-0.004753477	0.1196435	-0.01199963
	0.0497073	0.8191753	-0.07099855	-0.02951457	0.1226392	-0.01131632	0.03377231	-0.003153328
	0.03389907	-0.004770195	0.1205507	-0.01138034	-0.06746404	-0.0252488	0.08006926	0.8170747
	0.1189471	-0.01280542	0.03360821	-0.003546177	0.08150447	0.8168964	-0.07034522	-0.02795084
4e+08	-0.03906467	-0.01498752	0.5049593	0.643511	0.0510538	-0.04451404	0.09663818	-0.08206136
	0.5049571	0.6435669	-0.03840983	-0.01389171	0.09942997	-0.08335525	0.05128373	-0.04352391
	0.05111388	-0.04424893	0.09769642	-0.08213472	-0.0330968	-0.0138039	0.5294056	0.6240069
	0.09555923	-0.08229374	0.05091864	-0.04361605	0.5304491	0.6230066	-0.03713803	-0.01451045
4.1e+08	-0.01714029	-0.03294712	0.7785297	0.2422162	0.02081839	-0.07494306	0.0316528	-0.1273882
	0.7785594	0.2422692	-0.01530312	-0.03145808	0.03305071	-0.1300789	0.02073597	-0.07433391
	0.02116611	-0.07448587	0.03240258	-0.1280468	-0.01284637	-0.03460589	0.7876817	0.2115024
	0.03063847	-0.1269161	0.02053961	-0.07412161	0.7879243	0.2100836	-0.01578164	-0.03314796
4.2e+08	-0.0245314	-0.05282315	0.7767194	-0.2421601	-0.01707264	-0.05760785	-0.04844745	-0.123929
	0.776777	-0.24213	-0.02108715	-0.05246889	-0.04894168	-0.1268486	-0.01747257	-0.05687528
	-0.01635861	-0.05733807	-0.0482383	-0.1248393	-0.02249348	-0.05427995	0.7665262	-0.2732896
	-0.0489898	-0.1229453	-0.01733771	-0.0566919	0.7658823	-0.2745743	-0.02300478	-0.05265592
4.3e+08	-0.04102763	-0.04912102	0.4999981	-0.6399436	-0.01239839	-0.01645721	-0.1112368	-0.07620661
	0.5000648	-0.63995	-0.03728202	-0.05135321	-0.1133244	-0.07822068	-0.01267162	-0.01545309
	-0.01160869	-0.0166131	-0.1115673	-0.07702782	-0.03877682	-0.04913299	0.4733252	-0.6602034
	-0.1111084	-0.07507674	-0.01243778	-0.01558629	0.4720437	-0.6608564	-0.03804961	-0.04952792
4.4e+08	-0.03825847	-0.03272904	0.0458879	-0.807985	0.03056146	-0.007656452	-0.1389025	-0.0009337824
	0.04594366	-0.8080254	-0.03647314	-0.03721867	-0.1417398	-0.001315592	0.03066336	-0.006762099
	0.03110394	-0.008111831	-0.1396115	-0.001395553	-0.03414741	-0.03341239	0.01165066	-0.8094674
	-0.1381213	-6.53359e-05	0.03063559	-0.007123917	0.01023289	-0.80923	-0.03474508	-0.03576927
4.5e+08	-0.0198055	-0.03249467	-0.4196313	-0.6865844	0.05663838	-0.04803143	-0.1186374	0.0816728
	-0.4195987	-0.6866517	-0.02105374	-0.0369536	-0.1211146	0.08304004	0.05683774	-0.04759305
	0.05689526	-0.04849011	-0.1194398	0.08170045	-0.01569296	-0.03604663	-0.4491682	-0.667863
	-0.1174589	0.08191929	0.0564712	-0.04781945	-0.4501653	-0.6668337	-0.01873097	-0.03796578
4.6e+08	-0.01363452	-0.05114748	-0.730666	-0.3260831	0.02939516	-0.09116052	-0.05012188	0.1385409
	-0.7306732	-0.3261689	-0.01643884	-0.0533646	-0.05128023	0.1410763	0.02929806	-0.09108394
	0.0295667	-0.091495	-0.05073175	0.1389894	-0.01237484	-0.05627773	-0.7444951	-0.2933259
	-0.04900811	0.1380251	0.02888081	-0.09094805	-0.7446932	-0.2919115	-0.01615189	-0.05564734
4.7e+08	-0.02914308	-0.06259154	-0.7848435	0.1439847	-0.02106228	-0.08561871	0.03880823	0.1432559
	-0.7849063	0.1439065	-0.0307984	-0.06279272	0.03937239	0.1459406	-0.02154032	-0.08556114
	-0.0208311	-0.08594084	0.03856337	0.1439314	-0.03040333	-0.06599185	-0.7775616	0.179415
	0.03940661	0.1421702	-0.02168993	-0.08520865	-0.7768875	0.1806799	-0.03218588	-0.06337041
4.8e+08	-0.04291531	-0.04950035	-0.56432	0.5639641	-0.03528943	-0.03951054	0.1136377	0.09817842
	-0.5644293	0.5639344	-0.04236606	-0.0503137	0.1156565	0.09997835	-0.03590701	-0.039322
	-0.0350578	-0.03996089	0.1138047	0.09884185	-0.04325141	-0.05043088	-0.5376804	0.5895989
	0.1134888	0.09693336	-0.0357728	-0.03908045	-0.536377	0.5902226	-0.04223411	-0.0485635
4.9e+08	-0.02829437	-0.03133854	-0.1411209	0.7840022	0.002992985	-0.01212196	0.154111	0.01839973
	-0.1412365	0.7840469	-0.02760723	-0.03503731	0.1567596	0.01863421	0.002350392	-0.01201968
	0.003088608	-0.01268772	0.1545855	0.01882115	-0.0258628	-0.03323563	-0.1037223	0.7899617
	0.1532469	0.01745289	0.002503898	-0.01203643	-0.1022999	0.7896783	-0.02413074	-0.0341653
5e+08	0.001926577	-0.04445575	0.3300333	0.7193224	0.04290758	-0.04267079	0.1418784	-0.07736105
	0.3299593	0.7194342	-0.0005382416	-0.05011685	0.14408	-0.07871373	0.04194251	-0.04275384
	0.04283331	-0.04324358	0.1424352	-0.07726314	0.003880079	-0.05048772	0.364624	0.7023394
	0.1405858	-0.07762428	0.04189332	-0.04286425	0.3655861	0.7012671	0.003535955	-0.05329084
5.1e+08	0.004292856	-0.08722532	0.6733287	0.4009966	0.02777633	-0.09635202	0.06927459	-0.1492975
	0.6733333	0.4011419	-0.002098727	-0.09124813	0.07023699	-0.1515925	0.02630848	-0.09626717
	0.0275854	-0.09688672	0.06977168	-0.1494397	0.001063389	-0.09502332	0.6920363	0.3670191
	0.06805463	-0.1487236	0.02611484	-0.09623099	0.692178	0.3656047	-0.001759466	-0.09684506
5.2e+08	-0.03573265	-0.1156518	0.7767426	-0.04725803	-0.0300735	-0.1079722	-0.03104422	-0.1596265
	0.7768389	-0.04713155	-0.04324531	-0.1154823	-0.03153529	-0.1619965	-0.03176891	-0.1073962
	-0.0303784	-0.1084932	-0.03063001	-0.1599739	-0.0437473	-0.1193166	0.7730476	-0.08601961
	-0.03168686	-0.1584234	-0.03189545	-0.1071751	0.7723446	-0.08724799	-0.0467674	-0.1185796
5.3e+08	-0.08284306	-0.09625983	0.6153455	-0.4757986	-0.06784266	-0.06368193	-0.1126016	-0.1129931
