!$
! Info: Touchstone file created by Circ.  Input file=Tx_NPC_250mm_32AWG_BPK_1400mm_27AWG_BPK_250mm_32AWG_NPC_Rx.circ
!$
# Hz S RI R 50
0	0.1013149	-2.632112e-16	5.749924e-06	3.467853e-18	0.003212592	-4.222593e-16	-1.886641e-05	-5.632789e-19
	-3.926337e-05	2.1612e-18	0.04952451	-1.910093e-16	-4.581409e-05	-7.773885e-21	0.003719229	-4.406122e-16
	0.004341394	7.671214e-16	3.706818e-06	8.602223e-19	0.07874093	-1.250261e-17	-1.924988e-05	3.031792e-19
	-2.972596e-05	-1.515114e-18	0.003805893	-2.528436e-16	-2.316627e-05	1.35137e-18	0.07319197	5.509967e-16
1e+07	0.07822525	-0.01471299	9.422743e-06	-2.937873e-05	0.03311169	0.03877902	-1.032193e-05	-1.541194e-05
	-2.503037e-05	-2.683559e-06	0.078561	-0.01561836	-2.90628e-05	3.881313e-06	0.03316003	0.03904385
	0.03395311	0.03872479	8.436655e-06	-2.629441e-05	0.0784167	-0.01446033	-1.603386e-05	-5.89888e-06
	-1.806134e-05	-9.191981e-06	0.03319087	0.03902521	-1.743658e-05	-3.04197e-06	0.07940786	-0.01689684
2e+07	0.06836939	-0.03653821	-1.58968e-05	-2.902419e-05	0.07792411	0.02650905	-2.436527e-05	-8.185793e-06
	-2.914736e-05	9.743021e-06	0.06752928	-0.03735313	-4.344871e-05	1.743741e-05	0.07851419	0.02679143
	0.07868628	0.02608213	-3.125304e-05	-2.611528e-05	0.06880067	-0.03616122	-3.326725e-05	3.99888e-06
	-2.845932e-05	-9.835173e-07	0.07846343	0.02675205	-3.275798e-05	5.242887e-06	0.0669169	-0.03874978
3e+07	0.04037156	-0.04630313	-3.944148e-05	-1.241339e-05	0.07997163	-0.01829754	-3.59546e-05	9.14637e-06
	-3.13201e-05	2.822105e-05	0.03884961	-0.0461187	-4.048161e-05	4.914269e-05	0.0807979	-0.01854982
	0.08074472	-0.01907736	-5.312066e-05	6.806371e-06	0.04105743	-0.04618929	-3.777077e-05	2.793201e-05
	-3.84722e-05	1.917655e-05	0.08066511	-0.01851811	-3.884066e-05	2.926726e-05	0.03753124	-0.04632453
4e+07	0.01361534	-0.02797333	-4.817723e-05	2.353595e-05	0.03737305	-0.03331557	-3.346251e-05	3.99162e-05
	-1.613954e-05	5.617177e-05	0.01256298	-0.02661556	-8.367128e-06	8.260308e-05	0.03771494	-0.03415403
	0.03796833	-0.03424095	-4.375317e-05	5.250966e-05	0.01401167	-0.02819863	-2.221932e-05	5.934961e-05
	-2.790289e-05	5.367135e-05	0.03764783	-0.03401006	-2.123107e-05	6.387581e-05	0.0119077	-0.02561948
5e+07	0.01606817	0.005660329	-2.211473e-05	6.152197e-05	0.009465857	0.005461739	-4.302008e-07	6.6458e-05
	2.763064e-05	6.741707e-05	0.01630359	0.007401706	5.389164e-05	8.425319e-05	0.009103093	0.004688806
	0.009835246	0.004499844	4.216032e-06	8.133244e-05	0.01596829	0.005465513	2.337808e-05	7.552794e-05
	1.649573e-05	7.274488e-05	0.009163805	0.004820307	3.019891e-05	7.74745e-05	0.01703408	0.008328358
6e+07	0.04805904	0.01897873	2.674512e-05	6.706123e-05	0.03949955	0.04863459	4.729296e-05	5.855583e-05
	6.849659e-05	3.815027e-05	0.0493344	0.01984769	0.0001026883	3.355107e-05	0.03878795	0.04835869
	0.03965991	0.04754538	6.173751e-05	6.37375e-05	0.04771741	0.01931616	7.279136e-05	4.963599e-05
	6.300428e-05	4.954782e-05	0.0389297	0.04839526	7.864578e-05	4.358466e-05	0.0506976	0.01952453
7e+07	0.07506977	-0.003592035	6.467209e-05	4.09789e-05	0.09509896	0.03779887	7.656505e-05	2.240976e-05
	7.722166e-05	-4.663528e-06	0.07619025	-0.004016506	0.0001027993	-3.272628e-05	0.09458814	0.03802606
	0.094965	0.03667147	9.070793e-05	1.468395e-05	0.07505889	-0.002785621	9.126924e-05	-7.329487e-07
	8.002983e-05	7.787404e-06	0.09469157	0.03794651	8.915205e-05	-8.627713e-06	0.07676861	-0.005564064
8e+07	0.06818381	-0.03787068	8.602184e-05	4.729303e-07	0.109952	-0.0184829	8.535363e-05	-2.132975e-05
	7.188386e-05	-3.950122e-05	0.06817505	-0.03874311	7.310047e-05	-8.13819e-05	0.1099207	-0.01815622
	0.109499	-0.01953145	9.012272e-05	-3.919968e-05	0.06873237	-0.03707996	8.368595e-05	-4.948306e-05
	8.167307e-05	-3.108665e-05	0.1099063	-0.01826199	7.766894e-05	-5.186907e-05	0.06725307	-0.04027416
9e+07	0.03500377	-0.0468203	8.549005e-05	-5.840093e-05	0.06523908	-0.05464189	7.293209e-05	-7.597345e-05
	5.52469e-05	-8.512285e-05	0.0341535	-0.04684634	2.54001e-05	-0.000119897	0.06555509	-0.05463436
	0.0645162	-0.0554996	6.065968e-05	-9.471296e-05	0.03583238	-0.04647793	5.338008e-05	-9.941544e-05
	6.882779e-05	-8.391009e-05	0.06546308	-0.05465052	4.958604e-05	-9.857373e-05	0.03242569	-0.04705772
1e+08	0.01412338	-0.01858455	3.313953e-05	-0.0001164924	0.01643441	-0.02523863	1.296139e-05	-0.0001243582
	-9.870033e-06	-0.0001253705	0.01378519	-0.01740295	-5.857173e-05	-0.0001292707	0.01669652	-0.02572993
	0.01557821	-0.02582597	-1.397974e-05	-0.0001263146	0.01470765	-0.01865635	-2.017159e-05	-0.0001296467
	2.748318e-06	-0.0001334821	0.01665779	-0.02563586	-2.420808e-05	-0.0001294758	0.01278348	-0.0162111
1.1e+08	0.03561692	0.01387421	-5.500209e-05	-0.0001163161	0.03006045	0.03297459	-7.670792e-05	-0.0001109664
	-0.0001001168	-9.522792e-05	0.0368237	0.0151655	-0.0001356844	-6.556372e-05	0.02983709	0.03216753
	0.02915878	0.03259579	-9.463239e-05	-9.097372e-05	0.03575151	0.01383222	-0.0001050237	-9.522006e-05
	-9.561956e-05	-0.000110166	0.02993068	0.03226658	-0.0001116089	-9.073713e-05	0.03737893	0.01640652
1.2e+08	0.0792056	0.007241122	-0.0001112966	-5.765102e-05	0.09472683	0.04218215	-0.0001258061	-3.986165e-05
	-0.0001323852	-9.161645e-06	0.08144337	0.007119738	-0.0001410785	3.33705e-05	0.09390658	0.04161583
	0.09379438	0.04195073	-0.0001245817	-1.449295e-05	0.0792207	0.007629638	-0.0001398915	-1.400723e-05
	-0.0001385951	-2.300462e-05	0.09407002	0.04158977	-0.0001408666	-2.56773e-06	0.08274512	0.007058816
1.3e+08	0.09725634	-0.03659061	-0.0001231805	6.957945e-06	0.1345045	-0.01535261	-0.0001243002	2.923513e-05
	-0.0001069405	5.579119e-05	0.09889027	-0.03843645	-9.457353e-05	9.488697e-05	0.1335345	-0.01527414
	0.1334835	-0.01542455	-0.0001125963	4.804479e-05	0.09758608	-0.03588819	-0.0001239334	5.668079e-05
	-0.000119856	4.86057e-05	0.1336267	-0.01543074	-0.0001139415	6.572672e-05	0.09939945	-0.03970662
1.4e+08	0.07053617	-0.07620695	-0.0001169581	7.218625e-05	0.1030728	-0.07923423	-0.000106	9.027611e-05
	-7.750305e-05	9.716112e-05	0.07048263	-0.07849061	-4.616503e-05	0.0001252006	0.1025359	-0.07867857
	0.1019597	-0.07903893	-8.723986e-05	0.0001013044	0.07128837	-0.07554745	-9.243971e-05	0.0001143147
	-9.250976e-05	9.833513e-05	0.1024796	-0.0788474	-7.881954e-05	0.0001120817	0.06952428	-0.07958327
1.5e+08	0.02463244	-0.07340538	-6.692633e-05	0.0001515501	0.03401604	-0.08067303	-4.867097e-05	0.0001609866
	-2.570134e-05	0.0001505385	0.02349862	-0.07455388	1.828839e-05	0.0001553741	0.03408909	-0.08019637
	0.03295469	-0.08010301	-2.548316e-05	0.0001597173	0.02561886	-0.07302451	-2.294277e-05	0.0001747295
	-3.849181e-05	0.0001608326	0.03394816	-0.0802497	-1.639209e-05	0.0001642958	0.02199923	-0.07413778
1.6e+08	0.009946654	-0.03132033	5.596886e-05	0.0001801611	0.00785615	-0.02005223	7.712052e-05	0.0001785012
	9.05087e-05	0.0001607728	0.00942418	-0.03119416	0.0001274205	0.0001363662	0.008236541	-0.02013189
	0.007050604	-0.01915158	9.431422e-05	0.0001621954	0.0110085	-0.03121851	0.0001065641	0.0001740765
	8.63978e-05	0.0001784483	0.008152085	-0.02006736	0.0001055455	0.0001646539	0.009123837	-0.02945376
1.7e+08	0.04744752	-0.002950688	0.000162533	9.624049e-05	0.05728346	0.02350169	0.0001795829	8.196397e-05
	0.000184647	5.840809e-05	0.04836091	-0.003022807	0.0001959739	1.983233e-05	0.05733204	0.02280652
	0.05685442	0.02451962	0.0001812809	6.068928e-05	0.04846914	-0.003122856	0.0001992544	6.200714e-05
	0.0001933606	7.535983e-05	0.05736429	0.02286599	0.0001959177	5.44041e-05	0.04991004	-0.001723437
1.8e+08	0.09331817	-0.0292788	0.0001709002	-1.670869e-05	0.1183977	-0.009286906	0.0001755617	-3.836188e-05
	0.0001646524	-6.553886e-05	0.09468541	-0.03092592	0.0001536563	-9.758322e-05	0.1176831	-0.01001151
	0.118242	-0.008347573	0.0001666468	-5.307582e-05	0.09413579	-0.02967606	0.0001809869	-6.300572e-05
	0.0001819246	-5.793372e-05	0.1177506	-0.01005466	0.0001729227	-7.067266e-05	0.09676285	-0.03142566
1.9e+08	0.09466581	-0.08713855	0.0001374522	-8.913505e-05	0.1160042	-0.08200199	0.0001288383	-0.0001078662
	9.858929e-05	-0.0001232774	0.09481327	-0.09012489	7.705786e-05	-0.0001438139	0.1148655	-0.08205923
	0.1159461	-0.08114108	0.0001166637	-0.0001163294	0.0951509	-0.08751392	0.0001226402	-0.0001314308
	0.0001165891	-0.0001270256	0.1148557	-0.08217731	0.000107666	-0.000132604	0.09566048	-0.09187435
2e+08	0.04660873	-0.1227079	9.408144e-05	-0.0001604792	0.05149803	-0.1164573	7.847148e-05	-0.0001705524
	4.371752e-05	-0.0001597688	0.04491705	-0.125447	1.421098e-05	-0.0001691034	0.05070676	-0.1158013
	0.05149814	-0.1155359	6.205579e-05	-0.0001736046	0.04696073	-0.1227066	6.008234e-05	-0.000189654
	5.706083e-05	-0.0001729047	0.05059055	-0.1158921	4.635528e-05	-0.0001776718	0.04420294	-0.1266757
2.1e+08	-0.008001866	-0.1023089	-1.867523e-05	-0.0002260843	-0.007342835	-0.07842957	-3.64485e-05	-0.0002277113
	-5.280316e-05	-0.0001962651	-0.01045269	-0.1035139	-8.656126e-05	-0.0001861282	-0.007319753	-0.07765434
	-0.007134548	-0.0773514	-5.45282e-05	-0.0002184461	-0.007186296	-0.1018855	-6.541814e-05	-0.0002328905
	-4.875145e-05	-0.0002161701	-0.00747563	-0.07764674	-6.554584e-05	-0.0002130736	-0.01126809	-0.1030455
2.2e+08	-0.01287145	-0.04792483	-0.0001856096	-0.0001746131	0.002997097	-0.01405023	-0.0002031794	-0.0001666695
	-0.00019533	-0.0001372202	-0.01449139	-0.04794889	-0.0002148406	-0.0001049375	0.003641661	-0.01394786
	0.00362579	-0.01295177	-0.0002092572	-0.0001456985	-0.01116088	-0.04784579	-0.0002291379	-0.0001515376
	-0.0002051181	-0.0001570913	0.003529442	-0.01385563	-0.0002151789	-0.0001390468	-0.01357095	-0.04668257
2.3e+08	0.03594687	-0.0266917	-0.0002485548	-4.279933e-06	0.0644038	-0.004272525	-0.0002587902	1.402601e-05
	-0.00024119	3.097133e-05	0.0354613	-0.02702809	-0.0002330352	6.529353e-05	0.06478878	-0.00517723
	0.06544991	-0.003468203	-0.000248658	3.051194e-05	0.03787752	-0.02789186	-0.0002685274	3.953069e-05
	-0.0002619915	2.162592e-05	0.06475038	-0.005062843	-0.0002532229	3.951524e-05	0.03802418	-0.02716828
2.4e+08	0.07560246	-0.06790129	-0.000183142	0.0001248525	0.09361924	-0.05998702	-0.0001793795	0.0001452304
	-0.0001572192	0.0001551004	0.07512973	-0.069356	-0.0001339186	0.0001722074	0.09293322	-0.06121949
	0.0948027	-0.05966094	-0.0001659837	0.0001501506	0.07640103	-0.07013391	-0.0001751484	0.0001686184
	-0.0001787907	0.0001602639	0.09294681	-0.06112932	-0.0001639899	0.0001628213	0.07720312	-0.07172606
2.5e+08	0.05674348	-0.1280892	-0.0001040065	0.0001859429	0.05385073	-0.1108582	-9.039432e-05	0.000198357
	-5.990751e-05	0.000195885	0.05515367	-0.1300593	-3.720009e-05	0.0001985201	0.05233299	-0.1113441
	0.05488364	-0.1109008	-7.886373e-05	0.000199095	0.05595521	-0.1298918	-7.681324e-05	0.0002176109
	-7.452071e-05	0.0002116819	0.05236543	-0.1112919	-6.787052e-05	0.0002074205	0.05509254	-0.1331079
2.6e+08	-0.007283339	-0.14718	-7.403203e-06	0.0002436894	-0.009355659	-0.1006282	8.00204e-06	0.000247282
	3.487404e-05	0.0002205656	-0.01001145	-0.1484436	5.620763e-05	0.0002150122	-0.0106708	-0.1000585
	-0.008524498	-0.100781	2.265107e-05	0.000243143	-0.008504684	-0.1473016	3.257677e-05	0.000258604
	3.057914e-05	0.0002423163	-0.01064773	-0.1000427	3.542897e-05	0.0002414967	-0.01158058	-0.1500155
2.7e+08	-0.05812589	-0.1047679	0.0001641965	0.0002414307	-0.02971048	-0.04351502	0.0001796951	0.0002389375
	0.0001789436	0.0001968543	-0.0609523	-0.1047083	0.0001975791	0.000178528	-0.0300045	-0.04260307
	-0.0289053	-0.04364387	0.0001910921	0.0002215822	-0.05786697	-0.1037076	0.0002094733	0.0002315789
	0.0001882989	0.0002192742	-0.03002567	-0.04260233	0.0001978952	0.000213635	-0.06179806	-0.1043928
2.8e+08	-0.04606687	-0.04494279	0.0003106196	7.815746e-05	0.01032449	-0.00499991	0.0003251236	6.677302e-05
	0.0002948862	4.013371e-05	-0.04802684	-0.04416373	0.0002969308	1.05585e-05	0.01088709	-0.004895436
	0.01129478	-0.005237516	0.0003183131	4.430176e-05	-0.04389339	-0.04497961	0.0003422968	4.089476e-05
	0.0003178083	5.312175e-05	0.01081373	-0.004842961	0.0003194616	3.702336e-05	-0.04676617	-0.04390812
2.9e+08	0.008344313	-0.0353049	0.0002768612	-0.0001400841	0.05593392	-0.0289397	0.0002816151	-0.0001601911
	0.0002488027	-0.0001596977	0.007138428	-0.03476949	0.0002295437	-0.0001814161	0.05614959	-0.03014545
	0.05699674	-0.0295624	0.0002618452	-0.0001685803	0.0102231	-0.03794096	0.0002785498	-0.0001877043
	0.0002752603	-0.0001641037	0.0561078	-0.0299841	0.0002613796	-0.0001746662	0.009162296	-0.03673079
3e+08	0.03500077	-0.08291429	0.0001365528	-0.0002482222	0.04670097	-0.07856293	0.000127273	-0.0002661032
	0.0001045377	-0.0002540262	0.03386049	-0.08285849	7.993821e-05	-0.000256518	0.04546113	-0.08016733
	0.04752325	-0.07964989	0.0001117206	-0.0002612234	0.03410224	-0.08658377	0.0001127871	-0.0002850296
	0.0001226652	-0.0002727669	0.04556713	-0.07996384	0.0001087697	-0.0002675197	0.03402528	-0.0866044
3.1e+08	0.0005600603	-0.1303659	3.467818e-06	-0.0002813071	-0.003225397	-0.08808527	-1.216941e-05	-0.0002892141
	-3.121202e-05	-0.0002694885	-0.000899695	-0.1304392	-4.864565e-05	-0.0002601293	-0.005606165	-0.08863799
	-0.002905936	-0.08939005	-2.284657e-05	-0.000281304	-0.002764257	-0.1320058	-3.335029e-05	-0.0003002071
	-2.631177e-05	-0.0002947456	-0.005357835	-0.08855022	-2.912341e-05	-0.0002854842	-0.003268635	-0.1333633
3.2e+08	-0.06168227	-0.1245257	-0.0001570503	-0.000275416	-0.0327865	-0.04764264	-0.0001725392	-0.0002757765
	-0.0001802193	-0.0002408909	-0.06338584	-0.1243377	-0.0001909421	-0.0002265572	-0.03490171	-0.04672723
	-0.03294119	-0.04882262	-0.0001820842	-0.000261417	-0.06440253	-0.1229669	-0.0001999114	-0.0002738406
	-0.0001900233	-0.000266003	-0.03466654	-0.04684321	-0.0001895445	-0.0002616654	-0.06624664	-0.1247019
3.3e+08	-0.08977103	-0.06905839	-0.00033187	-0.0001435459	-0.01035283	-0.005548747	-0.0003476183	-0.0001373617
	-0.0003258375	-0.0001004057	-0.09141491	-0.06849924	-0.0003284152	-8.087961e-05	-0.01115165	-0.004159936
	-0.01071839	-0.0064405	-0.0003449408	-0.0001140319	-0.08931165	-0.06661368	-0.0003696901	-0.0001163927
	-0.0003501823	-0.0001165981	-0.01110742	-0.004380242	-0.000351302	-0.0001108654	-0.09230893	-0.06738524
3.4e+08	-0.05887922	-0.0217125	-0.0003647564	0.0001106548	0.03392628	-0.009749135	-0.0003765258	0.0001271171
	-0.0003333575	0.0001371102	-0.06028487	-0.02092094	-0.0003221131	0.0001554349	0.034115	-0.009311401
	0.03358721	-0.01047684	-0.0003545921	0.0001425166	-0.05631544	-0.02195361	-0.0003789123	0.0001571337
	-0.0003641133	0.0001393152	0.03397188	-0.009402416	-0.0003590943	0.0001479227	-0.05918443	-0.02103669
3.5e+08	-0.01093291	-0.02836509	-0.0002100989	0.0003035741	0.04348451	-0.05044851	-0.0002084514	0.0003254753
	-0.0001743776	0.0003054964	-0.01204417	-0.02740728	-0.0001542853	0.0003113344	0.04318572	-0.05139308
	0.04313984	-0.05125009	-0.0001835128	0.0003200097	-0.01022417	-0.03174088	-0.0001936012	0.0003479343
	-0.0001975692	0.0003259761	0.043097	-0.05124813	-0.0001856862	0.0003274534	-0.01148472	-0.02982211
3.6e+08	-0.001651518	-0.07020608	-7.944642e-06	0.0003533226	0.008468664	-0.07093274	6.552355e-06	0.0003685307
	2.088903e-05	0.0003388986	-0.00225836	-0.06921416	3.79879e-05	0.0003316333	0.006571218	-0.07209023
	0.007869039	-0.0718514	2.00229e-05	0.0003516844	-0.004836176	-0.07310896	2.845604e-05	0.0003793166
	1.354705e-05	0.0003687029	0.006747627	-0.07190476	2.184104e-05	0.0003605048	-0.004191048	-0.07193714
3.7e+08	-0.03690451	-0.09308697	0.0001809225	0.000316865	-0.02199969	-0.04423706	0.000199268	0.0003212342
	0.0002000647	0.0002896122	-0.03699061	-0.09257028	0.0002092441	0.0002758681	-0.02494814	-0.04405828
	-0.02302129	-0.04503016	0.0002034289	0.000302	-0.0414713	-0.09207669	0.0002247281	0.0003201624
	0.0002106382	0.0003194843	-0.02460161	-0.04412497	0.0002104872	0.0003095412	-0.04030752	-0.09300976
3.8e+08	-0.07315389	-0.07018464	0.0003583153	0.0001761823	-0.007372499	-0.005810747	0.0003762729	0.0001720366
	0.00035891	0.0001394247	-0.07332024	-0.07049172	0.0003595572	0.0001230982	-0.00977801	-0.004061217
	-0.008695447	-0.00617625	0.0003702433	0.0001497982	-0.07483218	-0.06609571	0.0003986162	0.000154806
	0.0003865542	0.0001590572	-0.009583702	-0.004429405	0.0003813995	0.0001525441	-0.07519928	-0.06865053
3.9e+08	-0.07004512	-0.0287884	0.0004174307	-8.616987e-05	0.03468867	-0.005254237	0.000432675	-9.998054e-05
	0.0003934029	-0.0001166463	-0.07099855	-0.02951457	0.0003837454	-0.0001306633	0.03377231	-0.003153328
	0.03338491	-0.005097713	0.0004100078	-0.000116516	-0.06777255	-0.02593001	0.0004388741	-0.0001284873
	0.0004291084	-0.0001180962	0.03360821	-0.003546177	0.0004217315	-0.0001205502	-0.07034522	-0.02795084
4e+08	-0.03666007	-0.01367126	0.0002753235	-0.0003264555	0.05126579	-0.04459316	0.0002801137	-0.0003488208
	0.0002384966	-0.000334231	-0.03840983	-0.01389171	0.0002224107	-0.0003383817	0.05128373	-0.04352391
	0.05023825	-0.04409256	0.000249874	-0.0003447342	-0.03401972	-0.01477707	0.0002677645	-0.0003731697
	0.0002658357	-0.0003574824	0.05091864	-0.04361605	0.0002585626	-0.0003550557	-0.03713803	-0.01451045
4.1e+08	-0.01370397	-0.03226236	3.58618e-05	-0.0004133737	0.02122966	-0.07418289	2.562642e-05	-0.0004345622
	4.344631e-06	-0.0003991894	-0.01530312	-0.03145808	-9.094962e-06	-0.0003928909	0.02073597	-0.07433391
	0.02048025	-0.07360786	6.419864e-06	-0.000411865	-0.01459563	-0.03504089	4.225212e-06	-0.0004468754
	1.282686e-05	-0.0004331881	0.02053961	-0.07412161	8.735761e-06	-0.000427299	-0.01578164	-0.03314796
4.2e+08	-0.02066848	-0.05353787	-0.0001944166	-0.000371373	-0.0156345	-0.05667114	-0.0002144581	-0.0003823363
	-0.0002129741	-0.000344261	-0.02108715	-0.05246889	-0.0002196353	-0.0003331325	-0.01747257	-0.05687528
	-0.01628897	-0.05611929	-0.0002163234	-0.000354447	-0.02442561	-0.05349178	-0.0002391583	-0.0003827436
	-0.0002244514	-0.0003776473	-0.01733771	-0.0566919	-0.0002249618	-0.000370762	-0.02300478	-0.05265592
4.3e+08	-0.03772999	-0.05123948	-0.0003933811	-0.0002114767	-0.01012224	-0.01642785	-0.0004158435	-0.0002101348
	-0.0003951212	-0.0001771515	-0.03728202	-0.05135321	-0.0003952557	-0.0001646549	-0.01267162	-0.01545309
	-0.01080841	-0.01577914	-0.0004023883	-0.0001853356	-0.03987348	-0.04728374	-0.000438732	-0.0001954279
	-0.0004251507	-0.0001998744	-0.01243778	-0.01558629	-0.0004215569	-0.0001927769	-0.03804961	-0.04952792
4.4e+08	-0.03618026	-0.03553917	-0.0004650317	7.549517e-05	0.03261849	-0.008945287	-0.0004840021	8.913078e-05
	-0.0004444413	0.0001064589	-0.03647314	-0.03721867	-0.0004369941	0.0001173439	0.03066336	-0.006762099
	0.03198009	-0.008031469	-0.0004565276	0.0001029126	-0.0339796	-0.03149303	-0.0004926553	0.000116529
	-0.0004847906	0.0001066327	0.03063559	-0.007123917	-0.0004757704	0.0001101346	-0.03474508	-0.03576927
4.5e+08	-0.01884469	-0.03504731	-0.0003158471	0.0003450566	0.0575605	-0.04994645	-0.000323951	0.0003678936
	-0.0002793319	0.000355475	-0.02105374	-0.0369536	-0.0002665076	0.0003589364	0.05683774	-0.04759305
	0.05718841	-0.0487485	-0.0002919934	0.0003610202	-0.01488386	-0.03488133	-0.000313358	0.0003930203
	-0.0003111044	0.0003815122	0.0564712	-0.04781945	-0.0003019188	0.00037653	-0.01873097	-0.03796578
4.6e+08	-0.01295879	-0.05300656	-5.564128e-05	0.0004414792	0.02930971	-0.09260329	-4.928268e-05	0.0004648096
	-2.334052e-05	0.0004270023	-0.01643884	-0.0533646	-1.223468e-05	0.0004218229	0.02929806	-0.09108394
	0.02936864	-0.0912962	-2.854453e-05	0.0004395417	-0.01185045	-0.05570049	-2.886528e-05	0.000477711
	-3.243051e-05	0.0004656347	0.02888081	-0.09094805	-3.061591e-05	0.0004564024	-0.01615189	-0.05564734
4.7e+08	-0.02800888	-0.06426362	0.0001800986	0.0004002055	-0.02121531	-0.08618511	0.0001977811	0.0004164423
	0.0001960686	0.0003735095	-0.0307984	-0.06279272	0.0002015274	0.0003638387	-0.02154032	-0.08556114
	-0.02073223	-0.08500603	0.0002001585	0.0003842555	-0.0303936	-0.06515755	0.0002208653	0.0004181941
	0.0002095412	0.0004094495	-0.02168993	-0.08520865	0.0002060036	0.000403409	-0.03218588	-0.06337041
4.8e+08	-0.04143686	-0.0519021	0.0003920426	0.0002599544	-0.0347572	-0.0397816	0.0004168129	0.0002649424
	0.0003936087	0.0002310156	-0.04236606	-0.0503137	0.0003928061	0.000220064	-0.03590701	-0.039322
