!$
! Info: Touchstone file created by Circ.  Input file=Tx_NPC_250mm_32AWG_BPK_700mm_27AWG_BPK_250mm_32AWG_NPC_Rx.circ
!$
# Hz S RI R 50
0	0.08458959	-1.489605e-16	0.9414126	-8.261404e-16	0.002202816	-3.415494e-15	-0.004542291	-1.047423e-16
	0.9415233	4.117147e-17	0.03005796	-2.018816e-16	0.000165988	5.401609e-16	0.003126035	-4.499641e-16
	0.002135702	-9.469488e-16	-0.001926387	1.059617e-16	0.05848524	3.368328e-15	0.9415288	7.123471e-16
	-0.004952856	-5.181663e-17	0.003224148	-2.577401e-16	0.9429689	2.339517e-15	0.05440402	4.984201e-16
1e+07	0.0641437	-0.0005470128	0.8563436	-0.3823563	0.01848421	0.03383124	-0.005981599	-0.0006745525
	0.8564783	-0.3823789	0.06299893	-0.001160424	-0.002740718	-0.002296969	0.0195168	0.0326795
	0.0195252	0.03278772	-0.004483708	-0.001410232	0.06100433	-0.0003163584	0.8557958	-0.3825601
	-0.006360518	-0.000471316	0.01955871	0.03268227	0.8570547	-0.3832375	0.06429513	-0.002093983
2e+07	0.07018791	-0.01022179	0.6256522	-0.6929609	0.05392772	0.04549251	-0.007597154	0.001011818
	0.6257836	-0.6930507	0.06819475	-0.01103942	-0.005438153	-0.001863726	0.05387532	0.04417441
	0.05398199	0.0442873	-0.006636892	-0.0003049326	0.06673159	-0.009540829	0.6247854	-0.6932515
	-0.007879082	0.001318626	0.05387936	0.04412729	0.6255862	-0.6944027	0.06868208	-0.01259245
3e+07	0.06863751	-0.02586655	0.2927711	-0.88246	0.08572558	0.02721305	-0.007788142	0.003598908
	0.292789	-0.8825761	0.06558036	-0.02624505	-0.007137738	0.0001002326	0.08475445	0.0270468
	0.08522042	0.02717483	-0.007577471	0.002124433	0.06487726	-0.02442375	0.291368	-0.8825159
	-0.007942979	0.003995244	0.08469275	0.02695764	0.2916357	-0.8839189	0.06514494	-0.02776753
4e+07	0.05612699	-0.03961174	-0.08553345	-0.9232964	0.09405555	-0.007955966	-0.00722199	0.005543389
	-0.08557572	-0.9234087	0.05236956	-0.03873245	-0.008173837	0.00214514	0.09281099	-0.007704372
	0.09347189	-0.007734914	-0.007698829	0.004165025	0.05237188	-0.03704901	-0.08731157	-0.922736
	-0.007213292	0.005981537	0.09269255	-0.007742081	-0.08768233	-0.924111	0.05121925	-0.03968256
5e+07	0.03629977	-0.04295024	-0.4482993	-0.8104767	0.07371059	-0.03730079	-0.007290166	0.007763579
	-0.4483923	-0.8105512	0.03254662	-0.04022248	-0.009625182	0.005169064	0.07263811	-0.03659149
	0.07327176	-0.0368131	-0.00832103	0.006773096	0.03301208	-0.03899316	-0.4500984	-0.8089886
	-0.007111177	0.008160719	0.07252972	-0.03655421	-0.4510361	-0.8100687	0.03118582	-0.04037693
6e+07	0.01803038	-0.03198943	-0.7362756	-0.561281	0.03811904	-0.04133604	-0.006949884	0.01225017
	-0.7363903	-0.5612969	0.01546678	-0.02754352	-0.0101601	0.01096564	0.03733091	-0.04012245
	0.03790981	-0.04067374	-0.008271631	0.01185466	0.01590786	-0.02681161	-0.7375594	-0.5588
	-0.006609105	0.01256183	0.03725259	-0.04001115	-0.7388824	-0.5593606	0.01441637	-0.02693257
7e+07	0.01196511	-0.01036992	-0.8991059	-0.215875	0.01121919	-0.01582625	-0.002623544	0.01869554
	-0.8992068	-0.2158325	0.01152788	-0.00492283	-0.006018329	0.0189613	0.01100168	-0.01440262
	0.01129863	-0.01516102	-0.003925082	0.01892999	0.01161151	-0.004435071	-0.8993142	-0.2126578
	-0.002168107	0.01884705	0.01100233	-0.01425399	-0.9007574	-0.2125737	0.01116272	-0.003920898
8e+07	0.02354271	0.01088086	-0.9066536	0.1654701	0.01301686	0.02377618	0.007733057	0.02253962
	-0.9067146	0.1655503	0.02561304	0.01606307	0.004860687	0.02423837	0.01339738	0.02507224
	0.01331896	0.02430528	0.006727059	0.02328623	0.0252579	0.01674602	-0.9054119	0.1688655
	0.008228114	0.02248441	0.01348897	0.02520249	-0.9066699	0.1695852	0.02599714	0.01695197
9e+07	0.04865536	0.01923069	-0.7589098	0.5141468	0.04577662	0.05176281	0.02079127	0.018487
	-0.7589224	0.5142364	0.05274737	0.02280628	0.01898545	0.0212009	0.04659327	0.05268294
	0.04618562	0.05210501	0.0202415	0.01952611	0.05222936	0.02409119	-0.7561771	0.517022
	0.02123185	0.0182162	0.04675442	0.05274457	-0.7569833	0.5182236	0.05363681	0.02317112
1e+08	0.07523825	0.008471686	-0.4861314	0.7703321	0.09226603	0.04884005	0.02948486	0.006110327
	-0.4861051	0.77041	0.08015799	0.009679941	0.02902898	0.009255393	0.09320524	0.04923727
	0.09266741	0.04901262	0.02941688	0.007217029	0.0799837	0.01166419	-0.4821896	0.7720355
	0.02977262	0.005669793	0.09337874	0.04919735	-0.4823831	0.7734657	0.08112784	0.009347595
1.1e+08	0.09041031	-0.01784922	-0.1383436	0.89526	0.1267589	0.01375813	0.0290903	-0.008930339
	-0.1382918	0.8953122	0.09478503	-0.01893123	0.02998248	-0.005947154	0.1276013	0.01373013
	0.1271172	0.01383205	0.02944983	-0.007948041	0.09542173	-0.01651593	-0.133726	0.8953237
	0.0291645	-0.009463198	0.1277303	0.01359773	-0.1332774	0.8966906	0.09537386	-0.01986371
1.2e+08	0.08688809	-0.04884042	0.2275019	0.8740497	0.1302921	-0.03663263	0.02124249	-0.01990567
	0.2275649	0.8740728	0.08967782	-0.05131915	0.02326752	-0.01760029	0.1308622	-0.03691979
	0.1306081	-0.03660322	0.02192765	-0.01916714	0.09133412	-0.04902263	0.2321215	0.8722336
	0.02108484	-0.02042676	0.1308948	-0.03709865	0.2331207	0.8732728	0.0896122	-0.05248229
1.3e+08	0.06558105	-0.07164908	0.5558217	0.7119799	0.1003326	-0.07716227	0.01161785	-0.02452117
	0.5558835	0.7119751	0.06654643	-0.07423848	0.0144027	-0.02327797	0.1006043	-0.07749393
	0.1006383	-0.07715949	0.0125187	-0.02411349	0.06903084	-0.0726324	0.5596919	0.7082809
	0.01125493	-0.02493621	0.1005349	-0.07765296	0.5610529	0.708787	0.06581029	-0.0751737
1.4e+08	0.03530734	-0.07609164	0.795625	0.4320913	0.05227127	-0.08716498	0.004234583	-0.02600956
	0.7956756	0.4320629	0.03507874	-0.07767883	0.007281126	-0.02605706	0.05235311	-0.08736141
	0.05258575	-0.08720717	0.005213052	-0.0259967	0.03787594	-0.07710186	0.7979669	0.4267914
	0.00372459	-0.02624587	0.05221767	-0.08744461	0.7994274	0.4266493	0.03393224	-0.07798987
1.5e+08	0.01068248	-0.05943483	0.9046241	0.07593006	0.01247006	-0.06183349	-0.002594077	-0.02861133
	0.9046561	0.07588447	0.01048461	-0.05961215	0.0001346623	-0.02995975	0.01256727	-0.06181992
	0.01277902	-0.06194427	-0.001703009	-0.0290017	0.01297429	-0.06000279	0.9047135	0.0696566
	-0.003170195	-0.02862315	0.01243061	-0.06180791	0.9059747	0.06887367	0.009408437	-0.05912801
1.6e+08	0.005869699	-0.03018722	0.8584509	-0.2968561	0.004208544	-0.01687295	-0.01390003	-0.03130969
	0.8584584	-0.2969087	0.006886283	-0.02953566	-0.01203311	-0.03369266	0.004540309	-0.01676616
	0.004474861	-0.01705275	-0.01327482	-0.03202099	0.008666565	-0.03047044	0.8558349	-0.3030938
	-0.01445182	-0.03107825	0.004460954	-0.0166874	0.8566178	-0.3043646	0.006378721	-0.02840825
1.7e+08	0.02562853	-0.006054621	0.6622645	-0.617523	0.03261106	0.01886059	-0.03061798	-0.02713217
	0.6622463	-0.6175702	0.02831989	-0.005879698	-0.0299754	-0.03004469	0.03324234	0.01880031
	0.0328107	0.01864742	-0.03035843	-0.02800007	0.02936048	-0.006805648	0.6569999	-0.6224657
	-0.03104422	-0.02667551	0.03324254	0.01888608	0.6571327	-0.6239521	0.02870747	-0.004570488
1.8e+08	0.06001312	-0.003544398	0.35414	-0.8268777	0.07974479	0.02160564	-0.04523121	-0.01076298
	0.3541025	-0.8269063	0.06377579	-0.005164758	-0.04587622	-0.01360391	0.08051917	0.02113552
	0.07989442	0.02140194	-0.04533123	-0.0116038	0.06439494	-0.005708321	0.3469408	-0.8293572
	-0.04543642	-0.01014227	0.0805743	0.02117441	0.3464058	-0.8307402	0.06501786	-0.004239175
1.9e+08	0.09033424	-0.02723627	-0.006575784	-0.8921647	0.1164909	-0.0116613	-0.04765973	0.01384956
	-0.00661772	-0.8921668	0.09379441	-0.03124778	-0.04937933	0.01158459	0.1171287	-0.0126077
	0.1166396	-0.01184625	-0.04802832	0.0131481	0.09441621	-0.03137043	-0.01448028	-0.8914618
	-0.0475778	0.01452802	0.1171881	-0.01263483	-0.01555517	-0.892466	0.09551095	-0.03111707
2e+08	0.1004584	-0.06816662	-0.3576151	-0.8104067	0.1214122	-0.06298091	-0.03489326	0.03559568
	-0.3576445	-0.8103864	0.1021323	-0.07413755	-0.037335	0.03423849	0.1216612	-0.06427677
	0.1215993	-0.06318757	-0.03544855	0.03506673	0.1030494	-0.07407943	-0.3648036	-0.8064612
	-0.03451343	0.03619678	0.1216792	-0.0643512	-0.3662006	-0.8069067	0.1037973	-0.07489184
2.1e+08	0.08396705	-0.1099306	-0.6457693	-0.6008908	0.09173136	-0.1061363	-0.01362507	0.04541772
	-0.6457755	-0.6008638	0.08296599	-0.1166348	-0.01639707	0.04513429	0.09148099	-0.1075638
	0.09195103	-0.1064387	-0.01432759	0.04507896	0.08418199	-0.1167227	-0.6509704	-0.5942381
	-0.01299994	0.04580886	0.09144037	-0.1076453	-0.6524281	-0.5940464	0.08412628	-0.118023
2.2e+08	0.04540056	-0.1358762	-0.8300744	-0.2972069	0.0421413	-0.1209322	0.005911084	0.04290871
	-0.8300617	-0.2971907	0.0417006	-0.1417695	0.00321504	0.04376061	0.04140196	-0.1222542
	0.042321	-0.1213895	0.005075636	0.04281488	0.04301612	-0.1422195	-0.8323685	-0.2888097
	0.006667718	0.04299254	0.04131314	-0.1223067	-0.8336193	-0.2880049	0.04217194	-0.1433504
2.3e+08	-0.001207141	-0.1347303	-0.8822104	0.05627324	-0.00378642	-0.1018668	0.01822353	0.03493933
	-0.8821944	0.05626968	-0.006728511	-0.1385807	0.0160464	0.036869	-0.004886863	-0.1029015
	-0.003766629	-0.1024784	0.01732913	0.03519071	-0.005583002	-0.1393835	-0.8810857	0.06522385
	0.01896123	0.03467854	-0.004997443	-0.1029078	-0.8818784	0.06651149	-0.006813218	-0.1399095
2.4e+08	-0.0362827	-0.1062353	-0.7894493	0.4055992	-0.02463342	-0.0601657	0.02603698	0.02817531
	-0.7894467	0.4055818	-0.04222289	-0.107574	0.02483818	0.03093564	-0.0258901	-0.06083849
	-0.0248895	-0.06083688	0.02526043	0.02883858	-0.041396	-0.1085514	-0.7847989	0.4137886
	0.02660004	0.02760657	-0.02599967	-0.0608008	-0.784947	0.4153187	-0.04247654	-0.1084105
2.5e+08	-0.04338838	-0.06433816	-0.5610005	0.691248	-0.01182587	-0.01910184	0.03554145	0.0220113
	-0.561016	0.691233	-0.04839278	-0.06361752	0.0356757	0.02510539	-0.01303293	-0.01948467
	-0.01239176	-0.01965518	0.03511715	0.0230247	-0.04785823	-0.06459885	-0.5531744	0.6972958
	0.03580728	0.02124228	-0.01313159	-0.0194087	-0.5526183	0.6987493	-0.04837461	-0.06406927
2.6e+08	-0.02012928	-0.03215254	-0.2333618	0.8592132	0.02418906	-0.002073745	0.04732055	0.009592728
	-0.2333872	0.8592136	-0.02352836	-0.03052381	0.04884421	0.01234691	0.02309638	-0.002366621
	0.02341079	-0.002329195	0.04741563	0.01072961	-0.02316789	-0.03147869	-0.2232893	0.8618206
	0.04722869	0.008775036	0.02301548	-0.002251859	-0.2221386	0.8628732	-0.02299546	-0.03097954
2.7e+08	0.01809421	-0.02831249	0.1335941	0.8771887	0.05873669	-0.01776353	0.05330479	-0.01274656
	0.1335727	0.8772051	0.01608874	-0.02694125	0.05590056	-0.01096124	0.05764557	-0.01812966
	0.05795583	-0.01764357	0.05391732	-0.01177115	0.01626562	-0.02796768	0.1443565	0.8754594
	0.05287292	-0.0134551	0.05760162	-0.01797041	0.1458471	0.8758887	0.01700227	-0.0278728
2.8e+08	0.04742945	-0.05485088	0.4724538	0.7449436	0.06912226	-0.05380418	0.04484899	-0.0385577
	0.4724436	0.7449683	0.04596644	-0.05435166	0.04793348	-0.03809724	0.06782191	-0.05423393
	0.06855129	-0.05338913	0.04582084	-0.0379613	0.04576547	-0.05547259	0.4819617	0.7387746
	0.04415558	-0.03902868	0.06784738	-0.05404166	0.4834746	0.7385115	0.04681121	-0.05598994
2.9e+08	0.05003218	-0.09727926	0.726172	0.4910288	0.04963364	-0.0861626	0.0224546	-0.05611945
	0.7261728	0.4910551	0.0482026	-0.09751633	0.02540233	-0.05700878	0.04799618	-0.08646513
	0.04937818	-0.08564833	0.02357183	-0.05599255	0.04739498	-0.09850142	0.7325764	0.4812443
	0.02161526	-0.0562693	0.04811775	-0.08627978	0.7338178	0.4803651	0.04848507	-0.09970045
3e+08	0.02236692	-0.1339486	0.8572523	0.16127	0.01304294	-0.0956558	-0.004501828	-0.05889615
	0.8572616	0.161295	0.01966678	-0.1342716	-0.002210384	-0.06092244	0.01112937	-0.0955889
	0.01305663	-0.09525188	-0.003431955	-0.05923826	0.01825884	-0.1346556	0.8592641	0.1494388
	-0.005353079	-0.05868786	0.0113436	-0.09547119	0.8600132	0.14812	0.01913829	-0.1365347
3.1e+08	-0.02462145	-0.1465035	0.8486961	-0.1912215	-0.01969897	-0.07826991	-0.02644421	-0.04975519
	0.8487152	-0.1911988	-0.02813499	-0.1461375	-0.02518837	-0.05256325	-0.02166384	-0.07768646
	-0.01958243	-0.07809743	-0.02559409	-0.0505151	-0.02974879	-0.1454848	0.8458099	-0.2031801
	-0.02716128	-0.04919624	-0.0214042	-0.07769173	0.8459305	-0.2046956	-0.02932785	-0.1479766
3.2e+08	-0.07075655	-0.1277663	0.7028703	-0.5120657	-0.03184533	-0.04484196	-0.04068898	-0.03592463
	0.7029	-0.5120493	-0.07455115	-0.1261608	-0.04072474	-0.03905379	-0.03358335	-0.0437799
	-0.03182899	-0.04488135	-0.04022252	-0.03700208	-0.07565656	-0.1243888	0.6953459	-0.5222231
	-0.04112629	-0.03508154	-0.0333622	-0.04392595	0.6948049	-0.5236579	-0.07597966	-0.1273182
3.3e+08	-0.09557994	-0.08568552	0.4412617	-0.7503811	-0.01872342	-0.01398194	-0.05053462	-0.02119381
	0.4413	-0.7503778	-0.09891147	-0.08273312	-0.05194136	-0.02407087	-0.02004216	-0.01265231
	-0.01894534	-0.01407649	-0.05058602	-0.02240322	-0.09882131	-0.08030837	0.4300265	-0.7570232
	-0.05057082	-0.02020211	-0.01994799	-0.01289374	0.4289095	-0.7580959	-0.1001053	-0.08331907
3.4e+08	-0.08914568	-0.04036635	0.1043667	-0.8652385	0.01040071	-0.002288269	-0.05833564	-0.003385009
	0.1044063	-0.8652535	-0.09136316	-0.036396	-0.06091898	-0.005390271	0.009507124	-0.0009747653
	0.009948696	-0.002217728	-0.05893768	-0.004463327	-0.0898371	-0.03423109	0.0909498	-0.8670176
	-0.05791926	-0.002442635	0.009432039	-0.001206034	0.0894666	-0.867502	-0.09208634	-0.03681069
3.5e+08	-0.05827107	-0.01327475	-0.2516889	-0.8344819	0.03702074	-0.01508786	-0.06048645	0.0203901
	-0.2516576	-0.8345143	-0.05900783	-0.008872792	-0.06373328	0.01975074	0.03636953	-0.01399593
	0.03650712	-0.01468778	-0.06151868	0.019704	-0.05653897	-0.007900289	-0.2652148	-0.8306656
	-0.05967567	0.02106984	0.03617181	-0.01409784	-0.2667667	-0.8304542	-0.05941673	-0.009542166
3.6e+08	-0.02245665	-0.01460738	-0.5648885	-0.6622181	0.04429444	-0.0424013	-0.05049747	0.04691036
	-0.5648736	-0.6622625	-0.02169418	-0.01038985	-0.05368425	0.04780075	0.04361606	-0.04153736
	0.04396951	-0.04166593	-0.05170975	0.04677033	-0.01936989	-0.01097658	-0.5761524	-0.652983
	-0.04945644	0.04716653	0.04342204	-0.04145248	-0.5774557	-0.6521202	-0.0222249	-0.01146016
3.7e+08	-0.001705338	-0.03807879	-0.7811611	-0.3791031	0.0284258	-0.06496054	-0.0268156	0.06711857
	-0.7811656	-0.3791507	0.000385587	-0.03457862	-0.02924374	0.06931558	0.02754517	-0.06412948
	0.02848575	-0.06405889	-0.02793214	0.06752186	0.001438083	-0.03618399	-0.7879686	-0.3657006
	-0.02576177	0.06689881	0.02749561	-0.06390998	-0.7887704	-0.3643652	-0.000682193	-0.03576095
3.8e+08	-0.005245159	-0.06630198	-0.8652227	-0.0346251	0.001229608	-0.06739253	0.004254781	0.07348953
	-0.8652457	-0.03466773	-0.0021545	-0.06395011	0.003056301	0.07648263	0.0001905781	-0.06632148
	0.001713212	-0.06658211	0.003449587	0.07431073	-0.002824668	-0.06531291	-0.8660892	-0.01919514
	0.005119281	0.07284581	0.000352159	-0.06611049	-0.8662437	-0.01764982	-0.003798302	-0.06468661
3.9e+08	-0.02782416	-0.08144004	-0.8049826	0.3133683	-0.018397	-0.04833067	0.03375507	0.06556621
	-0.8050202	0.3133368	-0.02421139	-0.08056279	0.03396192	0.06873641	-0.01933004	-0.04686642
	-0.0176209	-0.04782888	0.0333862	0.06662103	-0.02600448	-0.08038	-0.7994619	0.3282328
	0.03428227	0.0646182	-0.01901033	-0.0468206	-0.7989456	0.3296965	-0.02598562	-0.08039989
4e+08	-0.05380748	-0.07489407	-0.6114445	0.6078414	-0.01692093	-0.02046007	0.05660311	0.04786009
	-0.6114913	0.6078242	-0.0503079	-0.07563284	0.05813145	0.05060937	-0.01742342	-0.01871334
	-0.0160799	-0.02034863	0.05671349	0.04894623	-0.05179457	-0.07334328	-0.6001702	0.6195725
	0.05670286	0.04676037	-0.01709752	-0.0189162	-0.5990779	0.6206815	-0.05150592	-0.07458036
4.1e+08	-0.066608	-0.0518054	-0.3166306	0.8003107	0.005844517	-0.002208347	0.07214533	0.02396736
	-0.3166826	0.8003098	-0.06391902	-0.05396181	0.07469045	0.02579052	0.005939143	-0.0005229897
	0.006540792	-0.0024121	0.07269622	0.02488162	-0.0635879	-0.05018018	-0.301201	0.8067471
	0.07177669	0.02289315	0.006094931	-0.0009323006	-0.2997361	0.8072862	-0.0640061	-0.05258395
4.2e+08	-0.05891123	-0.02748171	0.03032307	0.8583264	0.03669497	-0.006757644	0.07949479	-0.005459506
	0.03026923	0.8583429	-0.05760181	-0.03049372	0.08256929	-0.004915282	0.03725178	-0.005524546
	0.03714577	-0.007101425	0.08036123	-0.004888398	-0.05472434	-0.02678377	0.04750929	0.8580394
	0.07868492	-0.006311864	0.03712857	-0.0059863	0.0490686	0.8579003	-0.05660112	-0.02961036
4.3e+08	-0.03716493	-0.01712087	0.3704482	0.7721704	0.05640918	-0.03383596	0.07467808	-0.0387914
	0.370397	0.7722079	-0.03740299	-0.02013167	0.07766833	-0.03963575	0.05705549	-0.03325666
	0.05665497	-0.03414679	0.07566638	-0.03865468	-0.03253723	-0.01820728	0.3864803	0.7647938
	0.07354569	-0.03923282	0.05667497	-0.03357744	0.3878319	0.7640013	-0.03594762	-0.02032784
4.4e+08	-0.01645312	-0.02560871	0.6460865	0.5577851	0.05148533	-0.06892744	0.054119	-0.06942285
	0.6460471	0.5578467	-0.017829	-0.02778593	0.05641875	-0.07146774	0.05181248	-0.06890607
	0.05165802	-0.06912656	0.05502512	-0.06970328	-0.01259382	-0.02853737	0.6580491	0.5442515
	0.05287479	-0.06933096	0.05132083	-0.06895454	0.6589347	0.5429598	-0.01680357	-0.02899859
4.5e+08	-0.009738869	-0.04515158	0.8123633	0.2529636	0.02319999	-0.09183982	0.02024342	-0.08806393
	0.8123493	0.253047	-0.0113623	-0.04610432	0.02140792	-0.09086493	0.02297273	-0.09204562
	0.02342685	-0.09196867	0.0209145	-0.08865766	-0.00756192	-0.04906938	0.8179707	0.2354076
	0.01913981	-0.08743395	0.02256331	-0.09182094	0.8182267	0.2338608	-0.01132679	-0.04760823
4.6e+08	-0.01968711	-0.06140442	0.8440165	-0.0913582	-0.0128693	-0.08940872	-0.01833057	-0.08931645
	0.844042	-0.0912658	-0.02058425	-0.06145814	-0.01848267	-0.09229626	-0.01360428	-0.08945933
	-0.01254631	-0.08958301	-0.01797293	-0.09008491	-0.01919841	-0.06506538	0.8420843	-0.1100356
	-0.01906849	-0.08826333	-0.01379138	-0.08908488	0.8416625	-0.1115497	-0.02136556	-0.06231972
4.7e+08	-0.03741061	-0.0629155	0.7369286	-0.4198397	-0.03643414	-0.06355983	-0.05264599	-0.07479121
	0.7369987	-0.4197587	-0.03706358	-0.06304471	-0.05403616	-0.07737843	-0.03738438	-0.06322892
	-0.03607458	-0.06388015	-0.05262065	-0.07559701	-0.03771667	-0.06550636	0.7275315	-0.4365296
	-0.0528758	-0.0735108	-0.03732838	-0.06287965	0.7265024	-0.4377305	-0.03778382	-0.06273821
4.8e+08	-0.04791281	-0.0487366	0.5074752	-0.6793786	-0.03431861	-0.02995362	-0.07839519	-0.04944527
	0.5075831	-0.6793317	-0.04663603	-0.05011741	-0.08072373	-0.05116747	-0.03513522	-0.02931782
	-0.03403748	-0.03044255	-0.07867438	-0.05016072	-0.04781722	-0.05043684	0.4918542	-0.6912047
	-0.07806683	-0.0481656	-0.03493146	-0.02912801	0.4904008	-0.6918575	-0.04621687	-0.04896392
4.9e+08	-0.03988888	-0.03047476	0.1918019	-0.8254951	-0.008037691	-0.009478698	-0.09453418	-0.01619766
	0.1919298	-0.8254999	-0.03883404	-0.03385422	-0.09733622	-0.01674929	-0.008572836	-0.008865261
	-0.007929489	-0.01007037	-0.09504138	-0.01671558	-0.038787	-0.03241182	0.1722701	-0.8301653
	-0.09368552	-0.01514787	-0.008370915	-0.008865186	0.1706682	-0.8301302	-0.03671245	-0.03298292
5e+08	-0.01514839	-0.02585147	-0.1566136	-0.8307241	0.02597672	-0.0165032	-0.09797137	0.02401521
	-0.1564903	-0.8307885	-0.01586636	-0.03101189	-0.1006895	0.02470963	0.02552847	-0.016238
	0.02589349	-0.01709191	-0.09858861	0.02374967	-0.01365836	-0.02933653	-0.1768227	-0.8269683
	-0.0967282	0.02462823	0.0256109	-0.01635085	-0.1782552	-0.8262441	-0.01251679	-0.03174959
5.1e+08	0.01015534	-0.04575786	-0.4753097	-0.6936655	0.04495922	-0.04915995	-0.08263148	0.06629423
	-0.47522	-0.6937861	0.006520189	-0.05139616	-0.08473938	0.06804	0.04419472	-0.0492865
	0.04473851	-0.04967033	-0.08324491	0.06626178	0.01039743	-0.05119816	-0.4924985	-0.6817494
	-0.0812099	0.06632014	0.04413411	-0.04938668	-0.4934754	-0.6804857	0.009684291	-0.05437924
5.2e+08	0.0159913	-0.08472887	-0.7080114	-0.4418067	0.03429136	-0.08897917	-0.04644383	0.09877401
	-0.7079813	-0.441966	0.009366121	-0.08896272	-0.04758756	0.1011686	0.03289619	-0.08920376
	0.03400463	-0.08940782	-0.04699774	0.09891116	0.01335913	-0.0910277	-0.7189123	-0.4237365
	-0.04512079	0.09817389	0.03276078	-0.0891997	-0.7192565	-0.4221895	0.01080996	-0.09359669
5.3e+08	-0.007564941	-0.1237132	-0.8187096	-0.1230135	-0.0024327	-0.1127834	0.002153196	0.109313
