!$
! Info: Touchstone file created by Circ.  Input file=Tx_NPC_250mm_32AWG_BPK_300mm_27AWG_BPK_250mm_32AWG_NPC_Rx.circ
!$
# Hz S RI R 50
0	0.01775185	1.646738e-16	3.858513e-06	5.740637e-20	0.002710014	3.673911e-16	-1.731401e-06	1.208156e-21
	-4.350453e-07	-2.205915e-20	0.01857136	-2.084274e-16	4.369449e-06	4.592885e-20	0.002762973	-4.555383e-16
	0.003979082	7.421574e-16	6.050702e-06	2.723805e-19	0.04004792	-3.378641e-16	-7.942611e-07	-7.212085e-21
	-1.060862e-06	3.470267e-21	0.002868009	-2.609257e-16	7.723235e-06	-1.403019e-19	0.04331838	4.687244e-16
1e+07	0.05067423	0.004504279	3.670598e-06	-9.221856e-07	0.01263238	0.02677976	-1.745021e-06	3.948051e-07
	-1.831735e-07	6.88847e-07	0.05160926	0.004229019	3.834195e-06	-1.688413e-06	0.01291265	0.02663516
	0.01355712	0.02654901	5.75412e-06	-1.58387e-06	0.04994385	0.004609816	-8.654667e-07	9.38154e-08
	-7.989665e-07	8.601164e-07	0.0129575	0.02665096	7.023899e-06	-2.95232e-06	0.05309273	0.00356197
2e+07	0.0586718	0.002755901	3.20484e-06	-1.742082e-06	0.03547993	0.04439754	-1.751924e-06	8.431138e-07
	3.125766e-07	1.152773e-06	0.05946879	0.002147832	2.615042e-06	-2.986285e-06	0.03569846	0.04424576
	0.0361563	0.04364893	4.889118e-06	-2.950838e-06	0.0578805	0.002985534	-1.031819e-06	2.706208e-07
	-1.969838e-07	1.486791e-06	0.03573055	0.04421269	5.118859e-06	-5.291622e-06	0.06053287	0.00088444
3e+07	0.06550434	-0.005065461	2.480815e-06	-2.371199e-06	0.06391474	0.04626168	-1.696201e-06	1.371419e-06
	9.356539e-07	1.283819e-06	0.06596894	-0.005934378	8.662381e-07	-3.61413e-06	0.06397313	0.0460633
	0.06430016	0.04500439	3.575667e-06	-3.936987e-06	0.06470063	-0.004643971	-1.243204e-06	5.731681e-07
	6.160164e-07	1.738389e-06	0.06399636	0.04596375	2.400292e-06	-6.596194e-06	0.06645784	-0.007515216
4e+07	0.06789045	-0.0170452	1.571885e-06	-2.73221e-06	0.08893289	0.03110624	-1.509769e-06	1.953845e-06
	1.491616e-06	1.082159e-06	0.06790278	-0.01801543	-1.089425e-06	-3.430184e-06	0.08886124	0.03086458
	0.08878317	0.02978138	1.970059e-06	-4.423234e-06	0.06714129	-0.01643854	-1.432069e-06	1.014029e-06
	1.431657e-06	1.557467e-06	0.0888413	0.03075816	-6.188191e-07	-6.658866e-06	0.06774552	-0.01962407
5e+07	0.06408267	-0.02978675	5.82626e-07	-2.787853e-06	0.1016608	0.004875656	-1.146687e-06	2.519511e-06
	1.835629e-06	6.276625e-07	0.06356859	-0.03059647	-2.898246e-06	-2.447865e-06	0.1014612	0.004584174
	0.1010506	0.003803367	2.619662e-07	-4.352255e-06	0.06345618	-0.02899025	-1.53149e-06	1.582574e-06
	2.050565e-06	9.856243e-07	0.1014114	0.004506844	-3.410456e-06	-5.498573e-06	0.06285158	-0.03203487
6e+07	0.054225	-0.04006208	-3.850204e-07	-2.53005e-06	0.09804874	-0.02403957	-6.147291e-07	2.985653e-06
	1.878901e-06	5.906029e-08	0.05329269	-0.04044692	-4.263047e-06	-7.572125e-07	0.0976769	-0.02429124
	0.09704268	-0.02479906	-1.362072e-06	-3.728923e-06	0.05374967	-0.03913203	-1.488065e-06	2.238272e-06
	2.304367e-06	1.486996e-07	0.09758816	-0.0243437	-5.525203e-06	-3.341184e-06	0.05215241	-0.0414848
7e+07	0.04035061	-0.04449421	-1.226963e-06	-1.994517e-06	0.07933082	-0.04595337	3.934833e-08	3.278514e-06
	1.613338e-06	-4.698851e-07	0.0392175	-0.04423589	-4.935765e-06	1.383155e-06	0.07882869	-0.04607605
	0.07813489	-0.04624754	-2.723134e-06	-2.62298e-06	0.04005183	-0.04345852	-1.262855e-06	2.930656e-06
	2.096199e-06	-7.588925e-07	0.07872443	-0.04608484	-6.641437e-06	-5.402946e-07	0.03785395	-0.04477594
8e+07	0.02580477	-0.04134516	-1.857475e-06	-1.243943e-06	0.05177865	-0.05347169	7.410148e-07	3.365379e-06
	1.107241e-06	-8.229025e-07	0.02481782	-0.04034067	-4.774764e-06	3.678926e-06	0.05123816	-0.05339879
	0.05059492	-0.05327391	-3.671862e-06	-1.154852e-06	0.02569877	-0.04023006	-8.310517e-07	3.594536e-06
	1.432669e-06	-1.509657e-06	0.05113803	-0.05335748	-6.596377e-06	2.45748e-06	0.0234337	-0.04036369
9e+07	0.01477162	-0.0306592	-2.214637e-06	-3.770245e-07	0.02492811	-0.04370361	1.419161e-06	3.246686e-06
	4.865525e-07	-9.264085e-07	0.01432614	-0.02900462	-3.758453e-06	5.776564e-06	0.02447488	-0.0434297
	0.02393605	-0.04306637	-4.103338e-06	4.97583e-07	0.01487428	-0.02948043	-1.843525e-07	4.148735e-06
	4.335949e-07	-1.90307e-06	0.02440023	-0.0433406	-5.401473e-06	5.174258e-06	0.01310946	-0.02855452
1e+08	0.01131115	-0.01477657	-2.287445e-06	4.783164e-07	0.00867383	-0.01957777	2.013026e-06	2.941038e-06
	-1.152732e-07	-7.940285e-07	0.01172061	-0.01277169	-2.029962e-06	7.30635e-06	0.008418539	-0.01919527
	0.008050333	-0.01864333	-3.99213e-06	2.112375e-06	0.01166072	-0.01354595	6.50801e-07	4.494818e-06
	-6.964422e-07	-1.825446e-06	0.008394234	-0.01907726	-3.258846e-06	7.1567e-06	0.01082519	-0.0119461
1.1e+08	0.01772111	0.001832589	-2.128584e-06	1.206671e-06	0.009737302	0.0107443	2.474261e-06	2.487072e-06
	-6.143952e-07	-5.023366e-07	0.01914764	0.003739719	1.179638e-07	8.00574e-06	0.009709642	0.0111137
	0.009543361	0.01181498	-3.417868e-06	3.472517e-06	0.01838389	0.003063147	1.590953e-06	4.538512e-06
	-1.730946e-06	-1.28309e-06	0.009746617	0.01124025	-5.617565e-07	8.062693e-06	0.01867345	0.004783878
1.2e+08	0.03371442	0.01370356	-1.852674e-06	1.735603e-06	0.02919111	0.03646226	2.765164e-06	1.932848e-06
	-1.003311e-06	-1.468618e-07	0.03604632	0.0150133	2.259011e-06	7.754821e-06	0.02935756	0.03669058
	0.02943073	0.03745924	-2.562806e-06	4.420895e-06	0.03473769	0.01484918	2.504761e-06	4.232301e-06
	-2.489095e-06	-3.797187e-07	0.02945502	0.03679046	2.175568e-06	7.755959e-06	0.03603495	0.01611444
1.3e+08	0.05596568	0.01624362	-1.579572e-06	2.073907e-06	0.06180705	0.0479413	2.879422e-06	1.339356e-06
	-1.325957e-06	2.2257e-07	0.05886146	0.016563	3.981211e-06	6.665927e-06	0.06207136	0.04793526
	0.06238963	0.04869805	-1.65157e-06	4.916013e-06	0.05736897	0.01718264	3.245824e-06	3.59688e-06
	-2.865308e-06	7.218674e-07	0.06221227	0.04798133	4.431736e-06	6.347957e-06	0.05929038	0.0175644
1.4e+08	0.07919453	0.007159566	-1.392289e-06	2.288225e-06	0.09792503	0.04004454	2.838811e-06	7.481052e-07
	-1.630752e-06	6.093224e-07	0.08215706	0.006303705	4.98216e-06	5.020958e-06	0.09815711	0.0397731
	0.09870435	0.04045793	-8.852985e-07	5.027886e-06	0.08095037	0.007747635	3.695107e-06	2.714763e-06
	-2.834227e-06	1.843466e-06	0.09831241	0.03974919	5.803446e-06	4.159894e-06	0.08295884	0.007072411
1.5e+08	0.09770979	-0.01292758	-1.319857e-06	2.464356e-06	0.1267873	0.01368626	2.663446e-06	1.646715e-07
	-1.938723e-06	1.048635e-06	0.1002027	-0.01488485	5.121689e-06	3.183492e-06	0.1268539	0.01318423
	0.1275826	0.01372204	-3.95414e-07	4.899e-06	0.09973324	-0.01283817	3.778134e-06	1.700592e-06
	-2.446005e-06	2.819343e-06	0.1269878	0.01308936	6.071664e-06	1.629438e-06	0.1012884	-0.01445081
1.6e+08	0.106896	-0.04082309	-1.346662e-06	2.675547e-06	0.1399501	-0.02479198	2.339408e-06	-4.229262e-07
	-2.237392e-06	1.580075e-06	0.1085003	-0.04357619	4.433213e-06	1.507122e-06	0.1397558	-0.02543385
	0.1406116	-0.02508238	-2.319651e-07	4.698471e-06	0.109018	-0.04135045	3.454156e-06	6.830178e-07
	-1.827976e-06	3.526544e-06	0.1398392	-0.02558256	5.201828e-06	-7.803957e-07	0.109728	-0.04353956
1.7e+08	0.1040477	-0.07172164	-1.436498e-06	2.983114e-06	0.1335487	-0.06585708	1.805239e-06	-9.927572e-07
	-2.491659e-06	2.241906e-06	0.1045176	-0.07480625	3.051279e-06	2.98381e-07	0.1330378	-0.06651032
	0.133949	-0.06636711	-3.725095e-07	4.597162e-06	0.1060546	-0.07292098	2.721945e-06	-1.913426e-07
	-1.141582e-06	3.931133e-06	0.1330511	-0.06668454	3.322285e-06	-2.632313e-06	0.1057574	-0.07518284
1.8e+08	0.08874301	-0.1001182	-1.524201e-06	3.433389e-06	0.1090097	-0.09957317	1.005212e-06	-1.450998e-06
	-2.633013e-06	3.06021e-06	0.0880789	-0.103024	1.213991e-06	-2.091052e-07	0.1081898	-0.1000897
	0.1090881	-0.100157	-7.196997e-07	4.744454e-06	0.0903886	-0.1019519	1.632495e-06	-7.576584e-07
	-5.352376e-07	4.099886e-06	0.1081302	-0.100256	7.084376e-07	-3.548433e-06	0.08919577	-0.1037811
1.9e+08	0.0628996	-0.1206686	-1.510976e-06	4.044523e-06	0.07236564	-0.1181584	-4.635558e-08	-1.64265e-06
	-2.55506e-06	4.026889e-06	0.06133185	-0.1229553	-7.617711e-07	1.295889e-07	0.0713163	-0.1183964
	0.07212838	-0.1186607	-1.102744e-06	5.237012e-06	0.06395512	-0.1229888	3.233122e-07	-8.602719e-07
	-6.75122e-08	4.17126e-06	0.07119666	-0.1185254	-2.217061e-06	-3.254608e-06	0.06221201	-0.1240091
2e+08	0.03074995	-0.1290461	-1.273919e-06	4.772316e-06	0.0325945	-0.1178174	-1.22052e-06	-1.418849e-06
	-2.130284e-06	5.058355e-06	0.02867291	-0.130434	-2.496235e-06	1.330229e-06	0.03146767	-0.1176728
	0.0321142	-0.1180904	-1.298588e-06	6.071544e-06	0.03105573	-0.1316128	-9.761925e-07	-4.146916e-07
	3.251014e-07	4.271841e-06	0.03131087	-0.1177455	-4.903971e-06	-1.655409e-06	0.02924993	-0.1316731
2.1e+08	-0.001552737	-0.1230633	-7.129414e-07	5.48033e-06	-0.0006243106	-0.09964795	-2.292874e-06	-7.294796e-07
	-1.271005e-06	5.963625e-06	-0.00367227	-0.1235154	-3.602543e-06	3.217038e-06	-0.001619392	-0.09910874
	-0.001216385	-0.09959865	-1.09479e-06	7.105132e-06	-0.002033979	-0.1255699	-1.994402e-06	5.303044e-07
	7.864152e-07	4.43053e-06	-0.001785487	-0.09912112	-6.757562e-06	1.081027e-06	-0.003422924	-0.1247978
2.2e+08	-0.02688033	-0.1037445	1.749588e-07	5.962394e-06	-0.01936249	-0.0694823	-3.034836e-06	3.28624e-07
	-1.917516e-08	6.476307e-06	-0.02864285	-0.1034422	-3.797956e-06	5.431226e-06	-0.02001652	-0.06865252
	-0.01989379	-0.06907254	-3.866917e-07	8.06764e-06	-0.02804691	-0.1058951	-2.512274e-06	1.761373e-06
	1.444152e-06	4.522444e-06	-0.02017045	-0.06861209	-7.278957e-06	4.488954e-06	-0.02867665	-0.1046424
2.3e+08	-0.03907759	-0.07589615	1.247135e-06	6.019384e-06	-0.01972314	-0.03652015	-3.316633e-06	1.534675e-06
	1.393015e-06	6.356445e-06	-0.04025614	-0.07518756	-3.017918e-06	7.48217e-06	-0.01990038	-0.03562238
	-0.02001515	-0.03580027	7.426732e-07	8.649296e-06	-0.0406944	-0.07747452	-2.471915e-06	2.967379e-06
	2.284946e-06	4.332427e-06	-0.02002988	-0.03554331	-6.24544e-06	7.869601e-06	-0.04047733	-0.0762057
2.4e+08	-0.03515039	-0.04735096	2.242626e-06	5.571908e-06	-0.003265796	-0.0108059	-3.163135e-06	2.644719e-06
	2.583091e-06	5.539147e-06	-0.03575093	-0.04661886	-1.468685e-06	8.906408e-06	-0.002970996	-0.01012291
	-0.003174866	-0.009909403	2.02509e-06	8.639752e-06	-0.03691095	-0.04828709	-2.012631e-06	3.862756e-06
	3.112326e-06	3.682589e-06	-0.003073898	-0.01001781	-3.81802e-06	1.047344e-05	-0.03602493	-0.04741219
2.5e+08	-0.01681358	-0.026766	2.8938e-06	4.720148e-06	0.02316419	-1.206419e-05	-2.720177e-06	3.491794e-06
	3.171991e-06	4.218288e-06	-0.01704032	-0.02628313	4.373635e-07	9.42187e-06	0.02377076	0.000206509
	0.02371354	0.0008640135	3.115551e-06	8.03032e-06	-0.01843834	-0.02715285	-1.406077e-06	4.308522e-06
	3.617262e-06	2.564911e-06	0.02369249	0.0003331769	-5.174386e-07	1.172113e-05	-0.01723188	-0.02689218
2.6e+08	0.009666568	-0.02061272	3.045314e-06	3.696976e-06	0.04962593	-0.006681935	-2.175164e-06	4.019479e-06
	2.958453e-06	2.788044e-06	0.009514401	-0.02046482	2.217022e-06	8.995985e-06	0.05026458	-0.007064397
	0.05060036	-0.006039937	3.739366e-06	7.004371e-06	0.008352151	-0.02066985	-9.277782e-07	4.351232e-06
	3.529608e-06	1.181917e-06	0.05021177	-0.006915387	2.922366e-06	1.137102e-05	0.009504054	-0.020985
2.7e+08	0.03550939	-0.03105909	2.69992e-06	2.765347e-06	0.06661589	-0.02734713	-1.696799e-06	4.271307e-06
	2.004875e-06	1.681862e-06	0.03518269	-0.03113027	3.468233e-06	7.822393e-06	0.06697523	-0.02830968
	0.06789187	-0.02712701	3.774474e-06	5.841332e-06	0.03452054	-0.03103567	-7.656779e-07	4.164901e-06
	2.727286e-06	-1.323001e-07	0.06695793	-0.02813513	5.761407e-06	9.549245e-06	0.03537848	-0.03170743
2.8e+08	0.05226129	-0.05534233	1.977943e-06	2.127334e-06	0.06849674	-0.05400752	-1.408611e-06	4.360127e-06
	5.804669e-07	1.216817e-06	0.05165415	-0.05540443	3.931247e-06	6.234349e-06	0.06830777	-0.05538086
	0.06987465	-0.05432117	3.246977e-06	4.813478e-06	0.05147033	-0.05542875	-9.812509e-07	3.981212e-06
	1.283785e-06	-1.014704e-06	0.06834336	-0.05518564	7.414985e-06	6.703703e-06	0.05199759	-0.05616887
2.9e+08	0.05418248	-0.08695422	1.061636e-06	1.900282e-06	0.05514076	-0.07730896	-1.359252e-06	4.457477e-06
	-9.454844e-07	1.527847e-06	0.05336105	-0.0867779	3.523434e-06	4.627083e-06	0.05424098	-0.07881423
	0.0563919	-0.07817195	2.287173e-06	4.138178e-06	0.05338694	-0.08721474	-1.513643e-06	4.029716e-06
	-5.54444e-07	-1.167531e-06	0.05434791	-0.0786163	7.573272e-06	3.484818e-06	0.05373352	-0.08780891
3e+08	0.03949678	-0.1175878	1.615624e-07	2.113779e-06	0.0313878	-0.08982251	-1.480431e-06	4.753047e-06
	-2.197277e-06	2.569269e-06	0.03865799	-0.1170404	2.343079e-06	3.381972e-06	0.0297611	-0.09113227
	0.03229564	-0.09115936	1.100796e-06	3.957152e-06	0.03850815	-0.1179355	-2.185019e-06	4.488862e-06
	-2.406057e-06	-4.277226e-07	0.02994966	-0.09096379	6.256845e-06	6.009531e-07	0.03891239	-0.118339
3.1e+08	0.01065582	-0.1391695	-5.13675e-07	2.698293e-06	0.004912527	-0.08819708	-1.578922e-06	5.371142e-06
	-2.856082e-06	4.139934e-06	0.01003797	-0.1382701	6.466576e-07	2.794769e-06	0.002699358	-0.08900379
	0.005313989	-0.08984766	-5.67585e-08	4.304364e-06	0.009378033	-0.139415	-2.720704e-06	5.421337e-06
	-3.816804e-06	1.164901e-06	0.002961844	-0.0889047	3.815588e-06	-1.33756e-06	0.01006033	-0.1397619
3.2e+08	-0.02635092	-0.1457335	-8.015303e-07	3.476024e-06	-0.01644797	-0.07360495	-1.38268e-06	6.283959e-06
	-2.713993e-06	5.901434e-06	-0.02655645	-0.1446431	-1.204834e-06	2.991814e-06	-0.01897283	-0.07370445
	-0.01664876	-0.07536521	-9.301321e-07	5.075941e-06	-0.02786602	-0.1456522	-2.82543e-06	6.717825e-06
	-4.370043e-06	3.333222e-06	-0.0186662	-0.07371281	8.266326e-07	-1.975045e-06	-0.0268348	-0.1462129
3.3e+08	-0.0632158	-0.1349141	-6.610142e-07	4.187732e-06	-0.02690066	-0.05096117	-6.68142e-07	7.271182e-06
	-1.740322e-06	7.431404e-06	-0.06294236	-0.1338881	-2.852786e-06	3.908179e-06	-0.02939541	-0.05030937
	-0.02771452	-0.05260416	-1.358976e-06	6.026615e-06	-0.06477609	-0.1343382	-2.293508e-06	8.084787e-06
	-3.820883e-06	5.58089e-06	-0.0290955	-0.05044762	-2.05418e-06	-1.284943e-06	-0.06351989	-0.1354069
3.4e+08	-0.0913521	-0.108789	-2.199508e-07	4.577172e-06	-0.0240962	-0.0272427	6.149995e-07	7.976243e-06
	-1.302143e-07	8.3136e-06	-0.09069324	-0.1080917	-4.049915e-06	5.319022e-06	-0.02624906	-0.02597192
	-0.02545056	-0.02855208	-1.366349e-06	6.848287e-06	-0.09267596	-0.1076868	-1.129154e-06	9.122498e-06
	-2.218522e-06	7.306138e-06	-0.02601859	-0.02623528	-4.285273e-06	4.465531e-07	-0.09151215	-0.1094559
3.5e+08	-0.1042676	-0.07361941	2.432747e-07	4.508908e-06	-0.009594386	-0.009544297	2.273136e-06	8.044185e-06
	1.705075e-06	8.271966e-06	-0.1034606	-0.07342839	-4.725116e-06	6.946252e-06	-0.01121553	-0.007918627
	-0.0113446	-0.01034043	-1.179876e-06	7.310538e-06	-0.105076	-0.07213727	4.048521e-07	9.480464e-06
	5.012504e-08	7.983244e-06	-0.01111315	-0.008268574	-5.577032e-06	2.749615e-06	-0.104436	-0.07457911
3.6e+08	-0.09961782	-0.03827959	4.049149e-07	4.058578e-06	0.01152335	-0.003134594	3.906187e-06	7.288947e-06
	3.242928e-06	7.292904e-06	-0.09898739	-0.03860812	-4.951582e-06	8.580953e-06	0.01045662	-0.00145771
	0.009585656	-0.003305546	-1.140505e-06	7.398125e-06	-0.09974721	-0.03671356	1.858387e-06	9.023202e-06
	2.335572e-06	7.358664e-06	0.01039541	-0.001826294	-5.916872e-06	5.140928e-06	-0.1000268	-0.0395414
3.7e+08	-0.08011676	-0.0115061	5.286874e-08	3.499581e-06	0.03207141	-0.009766676	5.054009e-06	5.787173e-06
	4.020091e-06	5.658754e-06	-0.07994761	-0.01216733	-4.854181e-06	1.013791e-05	0.03142714	-0.008283836
	0.03018065	-0.009280547	-1.517832e-06	7.341187e-06	-0.07959084	-0.01022292	2.769771e-06	7.919489e-06
	3.917684e-06	5.574255e-06	0.03120637	-0.008588131	-5.497692e-06	7.276192e-06	-0.08099266	-0.01291305
3.8e+08	-0.05265747	0.0008589757	-8.100748e-07	3.190082e-06	0.04492369	-0.02690796	5.36414e-06	3.874451e-06
	3.803121e-06	3.865035e-06	-0.05308274	0.0002060036	-4.503406e-06	1.162383e-05	0.0444848	-0.02574173
	0.04331192	-0.02582705	-2.36025e-06	7.51058e-06	-0.05171098	0.001551209	2.860182e-06	6.585152e-06
	4.243702e-06	3.159323e-06	0.04415271	-0.02590856	-4.579971e-06	8.98846e-06	-0.0541173	-0.0003929214
3.9e+08	-0.02592702	-0.002301902	-1.965531e-06	3.417699e-06	0.045563	-0.04836832	4.718505e-06	2.033222e-06
	2.663757e-06	2.449672e-06	-0.02684642	-0.002568305	-3.892129e-06	1.305289e-05	0.04510716	-0.04750541
	0.04441956	-0.04683814	-3.457921e-06	8.234431e-06	-0.02493794	-0.002332991	2.142743e-06	5.52348e-06
	3.124013e-06	8.815002e-07	0.04474593	-0.04749555	-3.389699e-06	1.025939e-05	-0.02788964	-0.003034231
4e+08	-0.00747455	-0.0173459	-3.07164e-06	4.296976e-06	0.03381523	-0.06645316	3.274397e-06	7.446038e-07
	9.423354e-07	1.820491e-06	-0.008560336	-0.01696767	-2.972074e-06	1.438909e-05	0.03318196	-0.06577178
	0.03325932	-0.06467503	-4.432832e-06	9.655247e-06	-0.006844788	-0.01799431	9.124455e-07	5.144504e-06
	8.133407e-07	-4.852968e-07	0.03288452	-0.06559501	-2.064165e-06	1.114832e-05	-0.00963935	-0.01725424
4.1e+08	-0.001448457	-0.03742537	-3.772909e-06	5.748771e-06	0.01392182	-0.07474454	1.431511e-06	3.455425e-07
	-8.653263e-07	2.141053e-06	-0.002255756	-0.03637562	-1.701626e-06	1.553529e-05	0.01305449	-0.07406752
	0.01398343	-0.0729474	-4.872443e-06	1.168258e-05	-0.001451895	-0.03837213	-3.519691e-07	5.629213e-06
	-2.039493e-06	-4.06319e-07	0.01289509	-0.07378059	-6.494829e-07	1.171733e-05	-0.003349585	-0.03639647
4.2e+08	-0.007539156	-0.0548954	-3.791719e-06	7.516916e-06	-0.007039212	-0.07045371	-2.780117e-07	9.065109e-07
	-2.261964e-06	3.292983e-06	-0.007658708	-0.05343609	-8.002304e-08	1.634668e-05	-0.008078756	-0.06961081
	-0.006411395	-0.06885222	-4.448019e-06	1.400876e-05	-0.008222875	-0.05571538	-1.132009e-06	6.866613e-06
	-4.57961e-06	1.230735e-06	-0.00806621	-0.06930138	8.778716e-07	1.197134e-05	-0.00866198	-0.05308779
4.3e+08	-0.02139697	-0.06376334	-3.00021e-06	9.220429e-06	-0.02172476	-0.0551914	-1.351015e-06	2.186376e-06
	-2.889337e-06	4.91268e-06	-0.02062076	-0.06237412	1.826018e-06	1.663794e-05	-0.02277833	-0.05409107
	-0.02065559	-0.05396254	-3.007624e-06	1.616544e-05	-0.02255229	-0.06407234	-1.033129e-06	8.455345e-06
	-6.001488e-06	4.050408e-06	-0.02261062	-0.05385057	2.53381e-06	1.181246e-05	-0.02134006	-0.06161236
4.4e+08	-0.03614088	-0.06159092	-1.484592e-06	1.042823e-05	-0.02492495	-0.03432479	-1.499683e-06	3.684181e-06
	-2.644806e-06	6.500354e-06	-0.03456505	-0.0608323	3.836272e-06	1.621277e-05	-0.02580347	-0.03300491
	-0.02359159	-0.0335853	-6.584912e-07	1.761082e-05	-0.03736494	-0.06118788	5.773072e-08	9.800094e-06
	-5.819504e-06	7.286398e-06	-0.02554198	-0.03290182	4.231628e-06	1.105724e-05	-0.03475749	-0.05973035
4.5e+08	-0.0447199	-0.05038614	4.288732e-07	1.078446e-05	-0.01515424	-0.01522512	-7.817551e-07	4.805318e-06
	-1.723787e-06	7.583385e-06	-0.04276142	-0.0507224	5.620418e-06	1.494313e-05	-0.01573106	-0.01385366
	-0.01376187	-0.01501895	2.1869e-06	1.787695e-05	-0.04554854	-0.04933873	1.876775e-06	1.029811e-05
	-4.040631e-06	1.001931e-05	-0.01546323	-0.01391424	5.700508e-06	9.533637e-06	-0.04220968	-0.04949735
4.6e+08	-0.04251582	-0.03604929	2.236058e-06	1.015349e-05	0.004865985	-0.005053428	3.968053e-07	5.087858e-06
	-5.580743e-07	7.882997e-06	-0.04081791	-0.03766862	6.733353e-06	1.289018e-05	0.004573635	-0.003861024
	0.00610858	-0.005339008	4.862651e-06	1.675966e-05	-0.04258733	-0.03469726	3.811736e-06	9.575282e-06
	-1.177359e-06	1.147262e-05	0.00476092	-0.004061294	6.494012e-06	7.243053e-06	-0.03942638	-0.03666985
4.7e+08	-0.02935097	-0.02635131	3.408239e-06	8.71131e-06	0.02877	-0.008569895	1.415527e-06	4.395262e-06
	3.417582e-07	7.429301e-06	-0.02862152	-0.02907505	6.751239e-06	1.039798e-05	0.02858617	-0.007739752
	0.02968735	-0.009226299	6.634861e-06	1.44618e-05	-0.02855378	-0.02520964	5.095322e-06	7.683947e-06
	1.923708e-06	1.128097e-05	0.02863222	-0.008014307	6.129607e-06	4.492402e-06	-0.02647912	-0.02869979
4.8e+08	-0.009922997	-0.02788078	3.59598e-06	6.913569e-06	0.04830872	-0.02636248	1.67759e-06	2.985515e-06
	5.831773e-07	6.539209e-06	-0.01071199	-0.03115963	5.473491e-06	8.05769e-06	0.04796155	-0.02593166
	0.04879265	-0.02720127	6.9712e-06	1.159024e-05	-0.008472124	-0.02746855	5.090391e-06	5.136208e-06
