!$
! Info: Touchstone file created by Circ.  Input file=Tx_NPC_250mm_32AWG_BPK_1200mm_27AWG_BPK_250mm_32AWG_NPC_Rx.circ
!$
# Hz S RI R 50
0	0.04319346	1.380421e-16	3.840927e-06	5.093912e-20	0.003441266	3.64206e-16	-1.748303e-06	-1.006047e-20
	-2.694065e-07	-1.013026e-21	0.04404272	-1.940426e-16	4.005637e-06	4.539974e-20	0.003554744	-4.432333e-16
	0.004677273	7.443988e-16	5.953533e-06	2.76737e-19	0.06473141	-3.273381e-16	-9.029063e-07	-5.586231e-21
	-8.645435e-07	3.485731e-21	0.003644596	-2.541589e-16	7.424641e-06	-9.952049e-20	0.06790106	5.359043e-16
1e+07	0.07419613	-0.01011981	3.359951e-06	-1.278026e-06	0.02879148	0.03801935	-2.018288e-06	1.311184e-07
	5.292734e-07	1.271531e-06	0.07477346	-0.0109471	2.119605e-06	-3.200634e-06	0.02908726	0.03780152
	0.0295204	0.03748095	4.987689e-06	-2.400767e-06	0.07335595	-0.01028848	-1.384086e-06	-3.782338e-07
	1.343141e-07	1.658883e-06	0.02912208	0.03778869	4.682763e-06	-5.305703e-06	0.07576236	-0.01214561
2e+07	0.0702634	-0.02908276	2.303478e-06	-1.933974e-06	0.07295318	0.03382002	-2.457743e-06	8.056003e-07
	2.020031e-06	1.25768e-06	0.06980812	-0.03011659	-1.708169e-06	-3.506276e-06	0.07308994	0.03356834
	0.07290217	0.03295364	2.775095e-06	-3.385808e-06	0.06897764	-0.02911213	-2.347905e-06	7.116027e-08
	2.123227e-06	1.680097e-06	0.07305412	0.03352225	-1.161427e-06	-6.224499e-06	0.06949317	-0.03164502
3e+07	0.04992661	-0.04372001	1.288592e-06	-1.792026e-06	0.08758814	-0.006486044	-2.45157e-06	1.954035e-06
	2.852798e-06	-5.392344e-08	0.04854133	-0.04394186	-4.438503e-06	-5.008819e-07	0.08742327	-0.006691918
	0.08679364	-0.007013606	8.00215e-07	-2.637218e-06	0.04838419	-0.04316168	-2.904235e-06	1.439416e-06
	3.329868e-06	-7.347593e-08	0.08729499	-0.006701717	-5.375801e-06	-2.177553e-06	0.04730686	-0.04462105
4e+07	0.02242077	-0.03763598	8.524744e-07	-1.23903e-06	0.05680993	-0.03635305	-1.747598e-06	3.042445e-06
	2.259468e-06	-1.563735e-06	0.021093	-0.03647007	-3.881474e-06	3.626647e-06	0.05651383	-0.03640741
	0.05607882	-0.03602115	2.003906e-07	-1.063632e-06	0.02102836	-0.0363376	-2.43214e-06	3.09696e-06
	2.600429e-06	-2.235848e-06	0.05640329	-0.03630253	-4.740591e-06	3.521227e-06	0.01997552	-0.03591775
5e+07	0.01017928	-0.01027401	1.008893e-06	-9.387816e-07	0.01621285	-0.0191416	-5.975872e-07	3.573174e-06
	7.034355e-07	-2.068632e-06	0.01006289	-0.008101634	-4.129647e-07	5.746141e-06	0.01599382	-0.01908798
	0.01621826	-0.0184843	9.831826e-07	-1.01128e-07	0.009420247	-0.008428611	-1.003859e-06	4.14213e-06
	3.800932e-07	-3.082243e-06	0.01599282	-0.01894389	9.673243e-08	6.326399e-06	0.01001329	-0.006998758
6e+07	0.02729129	0.01618242	1.209434e-06	-1.288978e-06	0.01522053	0.02853245	4.615954e-07	3.429931e-06
	-6.122646e-07	-1.315379e-06	0.02879178	0.01800565	3.137608e-06	4.326844e-06	0.01518781	0.02854882
	0.01592513	0.02880362	1.991159e-06	-6.343276e-07	0.02739354	0.0180937	5.943077e-07	4.031704e-06
	-1.680987e-06	-1.993653e-06	0.01529848	0.02865975	5.046757e-06	4.024032e-06	0.02981982	0.01856893
7e+07	0.06037201	0.01620992	7.834955e-07	-2.035991e-06	0.06086348	0.05387794	1.034884e-06	2.97948e-06
	-9.284909e-07	-9.610844e-08	0.06260408	0.01656385	3.854186e-06	7.817502e-07	0.0608404	0.05365171
	0.06158934	0.05331077	1.787155e-06	-2.222772e-06	0.06111247	0.01765185	1.43497e-06	3.090461e-06
	-2.185455e-06	7.838097e-08	0.06099383	0.05365212	5.936347e-06	-1.301776e-06	0.06381664	0.01590665
8e+07	0.07985901	-0.01170673	-4.163399e-07	-2.453528e-06	0.109198	0.02639945	1.251445e-06	2.68228e-06
	-4.358763e-07	6.889016e-07	0.08137426	-0.01273158	1.27838e-06	-1.751885e-06	0.1089212	0.02602287
	0.1092236	0.02529907	-1.046156e-07	-3.418735e-06	0.0807119	-0.01089138	1.260403e-06	2.214093e-06
	-1.079354e-06	1.522665e-06	0.1090153	0.02592057	2.104514e-06	-5.193506e-06	0.08169922	-0.01429232
9e+07	0.06868592	-0.04379971	-1.900234e-06	-1.995588e-06	0.1122109	-0.03022451	1.457745e-06	2.585961e-06
	1.66751e-07	7.137801e-07	0.06874545	-0.04494846	-2.50703e-06	-1.131299e-06	0.1116184	-0.03044907
	0.1113405	-0.03112269	-2.841977e-06	-2.959147e-06	0.06922108	-0.04331284	5.553505e-07	2.092869e-06
	4.079191e-07	1.374921e-06	0.1115992	-0.03056896	-3.485945e-06	-4.597926e-06	0.06777563	-0.0463597
1e+08	0.03652279	-0.05203576	-2.917193e-06	-6.646907e-07	0.06603392	-0.06152112	1.776911e-06	2.521384e-06
	3.007551e-07	2.93276e-07	0.03577845	-0.05198439	-4.585374e-06	2.456934e-06	0.06537915	-0.06134339
	0.06474294	-0.06156155	-4.87984e-06	-6.38722e-07	0.03673536	-0.05132878	1.271045e-07	2.851211e-06
	8.124982e-07	9.887098e-08	0.06528592	-0.06137917	-6.720101e-06	2.183378e-07	0.03409648	-0.05224249
1.1e+08	0.01373519	-0.02756285	-2.912288e-06	9.103385e-07	0.01795608	-0.03532005	2.224594e-06	2.358696e-06
	-7.881841e-08	-4.118451e-08	0.01375218	-0.02614726	-3.082576e-06	6.546798e-06	0.0176528	-0.03484563
	0.01702445	-0.03448783	-4.950683e-06	2.419607e-06	0.01417444	-0.02631265	6.83915e-07	3.90811e-06
	-2.417475e-07	-8.775434e-07	0.01759023	-0.03477181	-5.038106e-06	5.843147e-06	0.01255173	-0.02509354
1.2e+08	0.02697578	0.006155556	-2.131891e-06	1.801417e-06	0.02195286	0.02059534	2.698257e-06	1.917083e-06
	-7.084115e-07	-7.173607e-08	0.02872815	0.007607754	9.909875e-07	7.872529e-06	0.02211267	0.02088939
	0.02190545	0.02166354	-3.236532e-06	4.362307e-06	0.0282898	0.007566198	2.131133e-06	4.189543e-06
	-1.846157e-06	-5.63333e-07	0.02216602	0.0209916	3.150746e-07	7.873909e-06	0.02887606	0.009053251
1.3e+08	0.06775768	0.01165587	-1.532972e-06	1.788287e-06	0.07776428	0.04330929	2.944184e-06	1.218673e-06
	-1.425856e-06	2.546138e-07	0.07061787	0.0115724	4.204783e-06	5.532834e-06	0.07798791	0.04308702
	0.07836443	0.0438442	-1.436981e-06	4.344096e-06	0.06996296	0.01237277	3.415912e-06	3.213891e-06
	-2.809928e-06	9.253961e-07	0.07813248	0.04310121	4.818946e-06	4.855165e-06	0.0718314	0.01219247
1.4e+08	0.09876964	-0.02172935	-1.698632e-06	1.545569e-06	0.1296566	0.004314273	2.895858e-06	4.297818e-07
	-2.012503e-06	9.877611e-07	0.1010788	-0.02368897	4.098682e-06	1.857581e-06	0.1294625	0.003759681
	0.1301767	0.004087357	-1.070932e-06	3.289648e-06	0.1011263	-0.02224502	3.621815e-06	1.577089e-06
	-2.49983e-06	2.647306e-06	0.129588	0.003641967	4.896412e-06	-3.514637e-07	0.1022299	-0.02433483
1.5e+08	0.09247905	-0.06905302	-2.441748e-06	1.825275e-06	0.1270966	-0.06313319	2.481133e-06	-3.940517e-07
	-2.233819e-06	2.00543e-06	0.09301981	-0.07174098	1.045004e-06	-1.144605e-07	0.1263604	-0.06352966
	0.1269434	-0.06367998	-2.286457e-06	2.823072e-06	0.09408613	-0.07054298	2.60529e-06	2.64689e-07
	-1.311537e-06	3.562364e-06	0.1263661	-0.06371527	6.487656e-07	-3.501497e-06	0.09313761	-0.07300487
1.6e+08	0.05228799	-0.09456715	-3.070424e-06	3.005649e-06	0.07109838	-0.1001104	1.582441e-06	-9.412435e-07
	-1.914255e-06	3.110517e-06	0.05130989	-0.09636166	-2.567526e-06	1.277707e-06	0.07014833	-0.09992237
	0.07027162	-0.1002565	-3.926548e-06	4.106053e-06	0.05278106	-0.09612718	9.693613e-07	1.37605e-07
	-2.386417e-07	3.522876e-06	0.07002716	-0.1000595	-4.796434e-06	-1.930972e-06	0.05033163	-0.09704991
1.7e+08	0.009823341	-0.07758788	-2.690058e-06	4.709182e-06	0.01218309	-0.07446526	5.993938e-07	-8.264607e-07
	-8.935943e-07	3.840184e-06	0.008798759	-0.07781288	-3.710453e-06	5.341589e-06	0.01164783	-0.07368884
	0.01128427	-0.07372863	-4.167974e-06	6.896095e-06	0.009757775	-0.07836346	-1.921136e-08	1.286301e-06
	3.098252e-07	3.13791e-06	0.01148763	-0.07370316	-7.081342e-06	3.770084e-06	0.007742007	-0.07715496
1.8e+08	0.00465575	-0.03376592	-1.172473e-06	5.734966e-06	0.007360492	-0.01368071	1.081145e-07	-3.620376e-07
	2.984035e-07	3.447742e-06	0.004884411	-0.03335225	-9.770379e-07	8.818405e-06	0.007646193	-0.01295067
	0.007190396	-0.01228013	-2.161249e-06	9.280145e-06	0.005138403	-0.03381402	4.62218e-07	2.477351e-06
	4.93985e-07	2.70271e-06	0.007553804	-0.01287274	-3.784336e-06	9.293182e-06	0.00505263	-0.03180405
1.9e+08	0.04393705	-0.01015185	3.378372e-07	5.441857e-06	0.05996929	0.01543101	-2.519301e-09	-1.23026e-07
	3.661409e-07	2.217947e-06	0.04521302	-0.01062797	3.367679e-06	8.596483e-06	0.06068106	0.01537889
	0.06082459	0.01667504	7.427248e-07	9.547707e-06	0.04545428	-0.01058327	1.606041e-06	2.39257e-06
	2.442228e-07	2.351596e-06	0.06068407	0.01545064	2.564769e-06	9.919703e-06	0.04692989	-0.009621273
2e+08	0.08777856	-0.03613208	8.94363e-07	4.543574e-06	0.1110485	-0.02023629	-1.318553e-07	-2.574096e-07
	-9.083847e-07	1.647411e-06	0.08873888	-0.03802368	5.577573e-06	5.109238e-06	0.1113485	-0.02109511
	0.1124287	-0.01986563	2.574366e-06	8.016306e-06	0.08949955	-0.03795994	1.997972e-06	1.138243e-06
	-2.560984e-07	2.489792e-06	0.1113847	-0.02109494	6.630367e-06	5.348118e-06	0.09094597	-0.03861087
2.1e+08	0.09280278	-0.09219222	5.691014e-07	3.978741e-06	0.1069328	-0.0850087	-7.163004e-07	-6.589072e-07
	-2.368038e-06	2.542912e-06	0.09234693	-0.09468454	4.112859e-06	1.39825e-06	0.1063548	-0.08603126
	0.108019	-0.08552334	2.565807e-06	6.213311e-06	0.09335095	-0.09521142	9.602647e-07	-2.059037e-07
	-5.306414e-07	3.106093e-06	0.1063498	-0.08608625	5.340517e-06	-4.307024e-07	0.09362357	-0.09654539
2.2e+08	0.05101184	-0.1347132	2.600626e-08	4.294827e-06	0.05120102	-0.1194389	-2.035233e-06	-6.508049e-07
	-2.79417e-06	4.597577e-06	0.04916737	-0.1364779	2.509855e-07	3.31136e-07	0.04996009	-0.1198766
	0.05150005	-0.1202513	1.332371e-06	5.618746e-06	0.04974527	-0.1376021	-1.135947e-06	-3.597496e-07
	-3.493425e-07	4.001344e-06	0.04988922	-0.1199273	-1.429796e-07	-2.757997e-06	0.04899667	-0.1383117
2.3e+08	-0.008876945	-0.1305535	2.549253e-07	5.281592e-06	-0.007518257	-0.09547621	-3.359197e-06	5.037658e-07
	-1.362592e-06	6.651891e-06	-0.01103091	-0.1308709	-2.989707e-06	2.812608e-06	-0.008656534	-0.09502283
	-0.007859937	-0.09585574	5.134339e-07	6.636886e-06	-0.01121074	-0.1319256	-2.817769e-06	1.213552e-06
	6.622623e-07	4.886848e-06	-0.008766764	-0.09502353	-5.403094e-06	4.702738e-07	-0.01185618	-0.1315176
2.4e+08	-0.03965678	-0.08223143	1.587953e-06	5.724757e-06	-0.0187544	-0.03734292	-3.551826e-06	2.275066e-06
	1.432509e-06	6.819773e-06	-0.04097812	-0.08161181	-2.882302e-06	6.851941e-06	-0.01903153	-0.03651544
	-0.01905151	-0.03695538	1.338819e-06	7.923098e-06	-0.04134881	-0.08192969	-2.730154e-06	3.324157e-06
	2.542538e-06	4.708937e-06	-0.0191425	-0.03645584	-5.817131e-06	6.83834e-06	-0.04098679	-0.08112774
2.5e+08	-0.01491705	-0.03524344	2.844951e-06	4.778435e-06	0.02392973	-0.003211806	-2.756179e-06	3.388013e-06
	3.10871e-06	4.480449e-06	-0.01532791	-0.03482803	3.496681e-07	8.89384e-06	0.02444799	-0.003011757
	0.02438672	-0.002455232	3.03388e-06	7.799238e-06	-0.0149115	-0.03478741	-1.444726e-06	4.172812e-06
	3.773999e-06	2.708953e-06	0.02436524	-0.002896892	-8.058012e-07	1.085257e-05	-0.01379253	-0.0346233
2.6e+08	0.03662845	-0.03780539	2.843171e-06	3.284278e-06	0.07025642	-0.02746206	-2.038814e-06	3.555004e-06
	1.884179e-06	1.952372e-06	0.03625062	-0.03805845	3.566961e-06	7.332303e-06	0.07063763	-0.02834739
	0.07151551	-0.0271857	3.939406e-06	6.33984e-06	0.03741184	-0.03891814	-6.931973e-07	3.600675e-06
	2.756249e-06	3.16945e-07	0.07061308	-0.02819206	5.230507e-06	9.072313e-06	0.03839706	-0.03952323
2.7e+08	0.05941644	-0.08758474	1.827449e-06	2.463104e-06	0.06799537	-0.07998069	-2.052213e-06	3.37988e-06
	-8.925041e-07	1.763101e-06	0.05843791	-0.0879814	3.924846e-06	3.827087e-06	0.06736752	-0.0814291
	0.06937611	-0.08071081	3.45563e-06	4.738841e-06	0.05895461	-0.09022351	-1.303243e-06	2.839542e-06
	1.289138e-07	-3.072638e-07	0.06742777	-0.08127222	7.170928e-06	3.251599e-06	0.05946149	-0.09099539
2.8e+08	0.02834626	-0.1387588	7.500987e-07	2.746008e-06	0.02081405	-0.1045943	-2.758481e-06	3.774752e-06
	-2.670678e-06	4.060196e-06	0.02693659	-0.1386185	1.12894e-06	1.453482e-06	0.01908288	-0.105612
	0.02150939	-0.1061066	2.03844e-06	4.043428e-06	0.02564904	-0.1410865	-2.796146e-06	3.187706e-06
	-2.018374e-06	1.466055e-06	0.01921916	-0.105515	3.593261e-06	-1.606263e-06	0.02604431	-0.1416327
2.9e+08	-0.03475606	-0.1468272	5.804369e-07	3.659335e-06	-0.02501935	-0.07938763	-3.142081e-06	5.291132e-06
	-1.808472e-06	7.084284e-06	-0.03598541	-0.145985	-2.598335e-06	2.190743e-06	-0.02710898	-0.07930098
	-0.02534494	-0.08094902	8.344528e-07	4.533772e-06	-0.03861705	-0.1469396	-3.703121e-06	5.012824e-06
	-1.793448e-06	4.393422e-06	-0.02695876	-0.07931041	-2.357127e-06	-1.560364e-06	-0.03792573	-0.147513
3e+08	-0.08089879	-0.1028018	1.418333e-06	3.93559e-06	-0.02942508	-0.03003146	-2.076341e-06	7.045372e-06
	1.394739e-06	8.226302e-06	-0.08152307	-0.1016757	-4.458816e-06	5.372467e-06	-0.03088285	-0.0290748
	-0.03045009	-0.03091738	6.4123e-07	5.225341e-06	-0.08359616	-0.1005372	-2.875777e-06	7.027142e-06
	1.047625e-06	5.849671e-06	-0.03081432	-0.02916891	-5.778217e-06	3.096629e-06	-0.08279891	-0.1016531
3.1e+08	-0.07336605	-0.04370822	1.941704e-06	2.907083e-06	0.007586103	-0.003262827	-4.268466e-08	7.483691e-06
	4.228195e-06	6.061397e-06	-0.07358345	-0.04282768	-3.523431e-06	8.48426e-06	0.007085529	-0.002392053
	0.00663033	-0.003263024	6.959421e-07	5.069686e-06	-0.07342805	-0.04108579	-1.120732e-06	7.541273e-06
	4.027267e-06	3.852695e-06	0.007024827	-0.00245768	-4.222173e-06	8.316366e-06	-0.07323953	-0.04272117
3.2e+08	-0.02523027	-0.02192009	1.005917e-06	1.686991e-06	0.04472208	-0.0231366	1.304138e-06	6.486974e-06
	3.834511e-06	2.479968e-06	-0.02554589	-0.02122765	-1.146781e-06	9.578667e-06	0.04455516	-0.02310078
	0.0444655	-0.02274713	-1.271419e-07	4.633844e-06	-0.02372898	-0.02133994	-2.942824e-07	6.729499e-06
	3.730987e-06	-2.233697e-07	0.04445653	-0.02301503	4.969047e-07	1.002518e-05	-0.02445157	-0.02263155
3.3e+08	0.01201658	-0.05173171	-7.772133e-07	1.708102e-06	0.04116498	-0.06322095	1.221578e-06	5.424997e-06
	6.140599e-07	9.768105e-07	0.01161658	-0.05070983	5.843123e-07	8.526957e-06	0.04040282	-0.06390549
	0.04154285	-0.06323734	-1.516001e-06	5.035898e-06	0.01240786	-0.05338662	-8.637555e-07	6.23402e-06
	-2.868943e-07	-2.409947e-06	0.04044443	-0.06369285	4.275885e-06	7.355164e-06	0.01157718	-0.05359555
3.4e+08	0.002200079	-0.09773815	-1.97684e-06	3.095512e-06	0.003448965	-0.07632239	5.09976e-07	5.53632e-06
	-2.327345e-06	2.829008e-06	0.002331629	-0.0963118	3.431392e-07	6.773071e-06	0.001668417	-0.07690715
	0.003776024	-0.0771237	-2.4519e-06	6.380546e-06	5.402304e-05	-0.09935234	-1.667743e-06	7.094384e-06
	-4.712895e-06	-2.606251e-07	0.001927247	-0.07675498	4.156749e-06	2.988541e-06	0.0002619191	-0.09894861
3.5e+08	-0.04448067	-0.1135409	-1.687106e-06	4.747114e-06	-0.02545692	-0.04870892	7.03352e-07	6.723003e-06
	-2.409326e-06	6.210977e-06	-0.04347325	-0.1123923	-1.479183e-06	6.131554e-06	-0.02781236	-0.04838444
	-0.02588406	-0.04996854	-2.292508e-06	7.896525e-06	-0.04785765	-0.1127532	-1.213493e-06	8.798662e-06
	-5.641864e-06	4.691861e-06	-0.02746284	-0.0484748	6.321565e-07	6.565149e-07	-0.04649659	-0.1131108
3.6e+08	-0.08524909	-0.0832058	-4.102865e-07	5.159327e-06	-0.01535621	-0.01028681	2.462103e-06	7.410024e-06
	3.056877e-07	8.037508e-06	-0.08389055	-0.08305514	-3.37551e-06	7.181152e-06	-0.01739347	-0.008987158
	-0.01672162	-0.01124248	-1.391697e-06	8.425134e-06	-0.08711297	-0.07995736	7.617341e-07	9.593903e-06
	-2.215754e-06	8.2237e-06	-0.01719352	-0.009319505	-3.260696e-06	1.883458e-06	-0.08587134	-0.08193972
3.7e+08	-0.08474897	-0.03403864	7.100637e-08	4.089836e-06	0.02275667	-0.0006905768	4.498229e-06	6.192002e-06
	3.158344e-06	6.666154e-06	-0.08403626	-0.03479071	-4.329752e-06	9.286356e-06	0.02152349	0.0009398471
	0.02092329	-0.0006839345	-1.281243e-06	7.757868e-06	-0.08360864	-0.03073544	2.55768e-06	8.386136e-06
	2.37056e-06	7.239885e-06	0.02142442	0.0005782621	-4.964529e-06	5.348893e-06	-0.08405403	-0.03358622
3.8e+08	-0.04861984	-0.008992773	-1.228804e-06	3.22563e-06	0.04865908	-0.02959671	4.859896e-06	3.688381e-06
	3.350976e-06	3.560302e-06	-0.04901496	-0.009633305	-4.020776e-06	1.170218e-05	0.04801917	-0.02828253
	0.04719549	-0.02856009	-2.831747e-06	7.561162e-06	-0.04584243	-0.008192993	2.347891e-06	6.432123e-06
	3.661521e-06	2.848139e-06	0.04772198	-0.02841285	-3.923151e-06	8.773142e-06	-0.048138	-0.009970016
3.9e+08	-0.0146452	-0.02313129	-3.122075e-06	4.167276e-06	0.03464993	-0.06507707	3.203897e-06	1.985166e-06
	7.759992e-07	1.828384e-06	-0.01539702	-0.02267625	-2.396221e-06	1.359635e-05	0.03406887	-0.0642682
	0.03414348	-0.06362232	-4.630246e-06	9.403487e-06	-0.01314194	-0.0248748	5.801584e-07	5.995098e-06
	2.451076e-07	-4.557882e-07	0.0338617	-0.06411214	-1.110596e-06	1.043133e-05	-0.01553976	-0.02433288
4e+08	-0.01167646	-0.05307075	-3.665106e-06	6.598098e-06	-0.002572616	-0.0677219	1.245106e-06	2.421813e-06
	-2.016081e-06	3.043957e-06	-0.01141991	-0.05177164	-7.089771e-08	1.409115e-05	-0.003507559	-0.06714402
	-0.002232514	-0.06666978	-4.541268e-06	1.264166e-05	-0.01282848	-0.05484528	-4.643561e-07	7.673143e-06
	-4.685483e-06	9.414709e-07	-0.003423633	-0.06692687	1.765927e-06	9.732147e-06	-0.01321104	-0.05291171
4.1e+08	-0.0340271	-0.06544056	-2.088305e-06	8.656376e-06	-0.02033225	-0.0352394	1.081128e-06	4.068317e-06
	-2.496858e-06	5.832275e-06	-0.0322936	-0.06478487	1.765815e-06	1.297816e-05	-0.02160872	-0.0344535
	-0.01983759	-0.03499004	-1.981389e-06	1.499509e-05	-0.03626455	-0.06492329	9.013085e-07	9.629693e-06
	-6.306055e-06	6.109096e-06	-0.02132536	-0.03446773	3.139194e-06	7.306299e-06	-0.03431438	-0.06402573
4.2e+08	-0.05181877	-0.05033046	3.197288e-07	8.563258e-06	0.002668203	-0.004569367	2.798888e-06	4.476483e-06
	-6.480397e-07	7.431433e-06	-0.04980912	-0.05160644	1.950983e-06	1.097419e-05	0.001368733	-0.003414764
	0.002595672	-0.004821596	1.286728e-06	1.453399e-05	-0.0523893	-0.04787833	3.753152e-06	9.271912e-06
	-2.997658e-06	1.039251e-05	0.001547788	-0.003737746	2.156726e-06	4.574657e-06	-0.05012269	-0.04962399
4.3e+08	-0.04451384	-0.02915519	1.162014e-06	6.636325e-06	0.04341624	-0.01220469	4.09058e-06	2.469837e-06
	1.210858e-06	6.602638e-06	-0.0441209	-0.03196075	7.163956e-08	9.760428e-06	0.04229566	-0.01080604
	0.04258746	-0.01218435	2.353994e-06	1.185685e-05	-0.04252365	-0.02741618	5.043584e-06	6.225838e-06
	2.072999e-06	1.012461e-05	0.04213786	-0.01121641	-9.91265e-07	3.426389e-06	-0.0424645	-0.0308552
4.4e+08	-0.02303601	-0.02753251	-3.736645e-07	5.30145e-06	0.05772905	-0.05482476	2.800721e-06	-3.326155e-07
	1.059648e-06	4.760997e-06	-0.02497123	-0.02992823	-2.482192e-06	1.107354e-05	0.0568339	-0.05328656
	0.05668283	-0.05389464	3.059743e-07	1.009464e-05	-0.02050106	-0.02849336	2.9495e-06	3.273725e-06
	4.308653e-06	6.149878e-06	0.05640106	-0.05346455	-4.487348e-06	5.399653e-06	-0.02314168	-0.03087153
4.5e+08	-0.01324204	-0.04506306	-2.462636e-06	6.386124e-06	0.02758033	-0.09071326	-6.693249e-07	-1.167862e-06
	-7.78979e-07	4.191178e-06	-0.01620713	-0.0453459	-3.072688e-06	1.467633e-05	0.0269786	-0.08912108
	0.02719467	-0.08892104	-2.403805e-06	1.160132e-05	-0.01286198	-0.04776856	-8.314552e-07	3.4534e-06
	2.143107e-06	2.682527e-06	0.02656955	-0.08894557	-5.468332e-06	1.001907e-05	-0.01603502	-0.04718718
4.6e+08	-0.0241679	-0.05915517	-2.611443e-06	9.190728e-06	-0.01820124	-0.08392572	-3.583836e-06	1.070434e-06
	-2.213806e-06	5.59849e-06	-0.02597386	-0.05751659	-2.507597e-07	1.798531e-05	-0.01846121	-0.08245616
	-0.01739473	-0.08202247	-2.445118e-06	1.539628e-05	-0.02626791	-0.06073571	-2.686531e-06	6.791769e-06
	-1.657919e-06	3.097141e-06	-0.01859033	-0.08210446	-2.254612e-06	1.432722e-05	-0.02715227	-0.05806487
4.7e+08	-0.03869708	-0.05275715	-9.369192e-08	1.110883e-05	-0.03388278	-0.04259917	-3.461511e-06	4.407851e-06
	-1.735547e-06	7.408265e-06	-0.03834261	-0.05122603	4.65577e-06	1.79776e-05	-0.03388144	-0.0415172
	-0.03211996	-0.04150638	1.162959e-06	1.796329e-05	-0.0407753	-0.05163864	-6.455728e-07	9.983621e-06
	-2.918904e-06	6.61317e-06	-0.03373939	-0.04128368	3.697461e-06	1.461002e-05	-0.0385849	-0.04981974
4.8e+08	-0.03293976	-0.03581572	3.041737e-06	1.001134e-05	-0.003808091	-0.01148229	-9.606756e-07	5.52059e-06
	-2.290868e-07	7.6073e-06	-0.03172454	-0.03636437	7.91343e-06	1.378589e-05	-0.003925568	-0.0110102
	-0.001980025	-0.01162725	5.707158e-06	1.63514e-05	-0.03239579	-0.03369215	3.183229e-06	9.404371e-06
