!$
! Info: Touchstone file created by Circ.  Input file=Tx_NPC_250mm_32AWG_BPK_1200mm_27AWG_BPK_250mm_32AWG_NPC_Rx.circ
!$
# Hz S RI R 50
0	0.09616586	-2.714727e-16	5.704662e-06	3.492098e-18	0.003046017	-4.268376e-16	-1.892581e-05	-5.661719e-19
	-4.003646e-05	2.20411e-18	0.04404272	-1.940426e-16	-4.626901e-05	-1.160945e-20	0.003554744	-4.432333e-16
	0.004172548	7.754095e-16	3.654554e-06	8.696028e-19	0.0733915	-1.370527e-17	-1.928435e-05	3.053287e-19
	-3.037887e-05	-1.424208e-18	0.003644596	-2.541589e-16	-2.34576e-05	1.351309e-18	0.06790106	5.359043e-16
1e+07	0.07432994	-0.01012389	1.115044e-05	-2.913463e-05	0.0290985	0.03756174	-9.54266e-06	-1.63269e-05
	-2.53984e-05	-3.725325e-06	0.07477346	-0.0109471	-2.974383e-05	2.255268e-06	0.02908726	0.03780152
	0.02993702	0.03751155	9.960764e-06	-2.607786e-05	0.07449446	-0.009871482	-1.580235e-05	-7.065122e-06
	-1.807257e-05	-9.920401e-06	0.02912208	0.03778869	-1.767864e-05	-4.029945e-06	0.07576236	-0.01214561
2e+07	0.07040915	-0.02921399	-1.30103e-05	-3.07802e-05	0.0726063	0.03320637	-2.388303e-05	-1.075532e-05
	-2.995786e-05	7.40581e-06	0.06980812	-0.03011659	-4.551775e-05	1.343613e-05	0.07308994	0.03356834
	0.0733719	0.03278216	-2.8614e-05	-2.941418e-05	0.07078378	-0.02878755	-3.412173e-05	5.332218e-07
	-2.809114e-05	-3.173408e-06	0.07305412	0.03352225	-3.347553e-05	2.42221e-06	0.06949317	-0.03164502
3e+07	0.04994986	-0.04375819	-3.671216e-05	-1.831275e-05	0.0865938	-0.006681829	-3.669212e-05	3.713238e-06
	-3.401812e-05	2.258366e-05	0.04854133	-0.04394186	-4.675882e-05	4.216532e-05	0.08742327	-0.006691918
	0.08737115	-0.007475636	-5.323408e-05	-1.704416e-06	0.05065263	-0.04348093	-4.141336e-05	2.198582e-05
	-3.95227e-05	1.244029e-05	0.08729499	-0.006701717	-4.179113e-05	2.276779e-05	0.04730686	-0.04462105
4e+07	0.02245544	-0.0374119	-5.164772e-05	1.136804e-05	0.05591636	-0.03575421	-4.080649e-05	3.054116e-05
	-2.840883e-05	4.847648e-05	0.021093	-0.03647007	-2.639302e-05	7.638685e-05	0.05651383	-0.03640741
	0.05649575	-0.03669574	-5.404359e-05	4.044743e-05	0.02305289	-0.03753218	-3.422816e-05	5.173998e-05
	-3.932896e-05	4.334323e-05	0.05640329	-0.03630253	-3.475873e-05	5.506283e-05	0.01997552	-0.03591775
5e+07	0.01050471	-0.009869802	-4.044397e-05	5.228573e-05	0.01602699	-0.0182155	-2.098665e-05	6.302632e-05
	3.349745e-06	7.286612e-05	0.01006289	-0.008101634	2.443738e-05	9.624759e-05	0.01599382	-0.01908798
	0.01636953	-0.01917202	-2.082507e-05	7.919169e-05	0.01067191	-0.0102065	-9.701303e-07	7.862796e-05
	-8.922553e-06	7.480361e-05	0.01599282	-0.01894389	3.209547e-06	8.295656e-05	0.01001329	-0.006998758
6e+07	0.02795287	0.01642626	2.00282e-06	7.577943e-05	0.01574544	0.02920055	2.432695e-05	7.462005e-05
	5.244844e-05	6.54636e-05	0.02879178	0.01800565	8.63635e-05	7.187228e-05	0.01518781	0.02854882
	0.01589248	0.02814869	3.702026e-05	8.454408e-05	0.02764168	0.01638989	5.189506e-05	7.515448e-05
	4.325101e-05	7.446981e-05	0.01529848	0.02865975	5.989748e-05	7.373678e-05	0.02981982	0.01856893
7e+07	0.06105688	0.01608494	4.896611e-05	6.420962e-05	0.06156963	0.05381805	6.730461e-05	5.148312e-05
	8.223765e-05	2.543617e-05	0.06260408	0.01656385	0.000115956	9.115428e-06	0.0608404	0.05365171
	0.06146712	0.05272872	8.362e-05	4.880903e-05	0.0607094	0.01662531	9.048129e-05	3.497926e-05
	8.004937e-05	3.840423e-05	0.06099383	0.05365212	9.433146e-05	2.672969e-05	0.06381664	0.01590665
8e+07	0.08022376	-0.0120165	7.911299e-05	3.173674e-05	0.1094331	0.02577948	8.801258e-05	1.140841e-05
	8.29494e-05	-1.567215e-05	0.08137426	-0.01273158	0.0001019997	-5.186877e-05	0.1089212	0.02602287
	0.1090406	0.02472382	9.891971e-05	-2.870191e-06	0.08031198	-0.01107747	9.783947e-05	-1.553872e-05
	8.862138e-05	-3.762312e-06	0.1090153	0.02592057	9.378957e-05	-2.341085e-05	0.08169922	-0.01429232
9e+07	0.06872003	-0.04389593	9.536279e-05	-1.103668e-05	0.111709	-0.03079863	9.243018e-05	-3.278498e-05
	7.570143e-05	-4.926885e-05	0.06874545	-0.04494846	6.807468e-05	-9.37128e-05	0.1116184	-0.03044907
	0.1110193	-0.03172724	9.06874e-05	-5.373043e-05	0.06939899	-0.04303616	8.585268e-05	-6.169774e-05
	8.706264e-05	-4.226523e-05	0.1115992	-0.03056896	7.866534e-05	-6.362565e-05	0.06777563	-0.0463597
1e+08	0.03657653	-0.05169716	9.011547e-05	-7.037261e-05	0.06513297	-0.06143318	7.672625e-05	-8.735148e-05
	5.728257e-05	-9.407309e-05	0.03577845	-0.05198439	1.906776e-05	-0.000125878	0.06537915	-0.06134339
	0.06422367	-0.06209952	5.668391e-05	-0.0001037328	0.0375283	-0.05134156	5.287689e-05	-0.0001089723
	7.145187e-05	-9.415636e-05	0.06528592	-0.06137917	4.808256e-05	-0.0001070566	0.03409648	-0.05224249
1.1e+08	0.01421585	-0.0270061	3.708355e-05	-0.0001281212	0.01736282	-0.03448436	1.682029e-05	-0.0001358479
	-4.851881e-06	-0.0001352916	0.01375218	-0.02614726	-5.442969e-05	-0.000133259	0.0176528	-0.03484563
	0.01634251	-0.03485845	-1.043998e-05	-0.0001318641	0.01495495	-0.02713686	-1.537564e-05	-0.0001411477
	7.82817e-06	-0.0001437939	0.01759023	-0.03477181	-1.896296e-05	-0.0001395195	0.01255173	-0.02509354
1.2e+08	0.02785993	0.006408319	-5.289451e-05	-0.0001332354	0.02217208	0.02161707	-7.501611e-05	-0.0001291955
	-9.738666e-05	-0.0001158007	0.02872815	0.007607754	-0.0001330594	-8.408084e-05	0.02211267	0.02088939
	0.02117259	0.02150962	-9.212576e-05	-0.0001068782	0.02811619	0.006248185	-0.0001043635	-0.0001175014
	-9.22549e-05	-0.0001311026	0.02216602	0.0209916	-0.0001097642	-0.0001137086	0.02887606	0.009053251
1.3e+08	0.06853397	0.0114001	-0.0001188026	-7.614237e-05	0.07861154	0.04379986	-0.0001355668	-6.039178e-05
	-0.0001468018	-3.204424e-05	0.07061787	0.0115724	-0.0001597232	8.660432e-06	0.07798791	0.04308702
	0.0776729	0.04387021	-0.0001375266	-3.589139e-05	0.06856474	0.0116268	-0.0001534538	-3.71671e-05
	-0.0001521507	-4.750883e-05	0.07813248	0.04310121	-0.0001562387	-2.724499e-05	0.0718314	0.01219247
1.4e+08	0.09902567	-0.02212517	-0.0001346149	-6.364676e-06	0.1304708	0.004003298	-0.0001397938	1.567826e-05
	-0.0001291957	4.683801e-05	0.1010788	-0.02368897	-0.0001226517	8.50942e-05	0.1294625	0.003759681
	0.1295492	0.004206694	-0.00013126	3.491816e-05	0.09926822	-0.02150966	-0.0001444967	4.230483e-05
	-0.0001421937	3.745414e-05	0.129588	0.003641967	-0.0001378854	5.377194e-05	0.1022299	-0.02433483
1.5e+08	0.09233311	-0.06906179	-0.0001285816	5.253347e-05	0.1272555	-0.06388414	-0.0001215505	7.283578e-05
	-9.31031e-05	8.972305e-05	0.09301981	-0.07174098	-7.102844e-05	0.0001206259	0.1263604	-0.06352966
	0.1263194	-0.06349854	-0.000107047	8.588903e-05	0.09302273	-0.06838267	-0.0001145879	9.827581e-05
	-0.000108904	8.860194e-05	0.1263661	-0.06371527	-0.0001000105	0.0001018375	0.09313761	-0.07300487
1.6e+08	0.05224516	-0.09400546	-0.0001058703	0.0001214162	0.07053539	-0.1005829	-9.065938e-05	0.0001347763
	-5.978305e-05	0.0001300914	0.05130989	-0.09636166	-2.386297e-05	0.0001474688	0.07014833	-0.09992237
	0.06962337	-0.09992014	-7.090098e-05	0.0001403264	0.0532695	-0.09354002	-7.208211e-05	0.0001551704
	-7.45926e-05	0.0001373278	0.07002716	-0.1000595	-5.890373e-05	0.0001469342	0.05033163	-0.09704991
1.7e+08	0.0103274	-0.07680762	-2.618253e-05	0.0001904683	0.01146997	-0.07418099	-6.904291e-06	0.0001952453
	1.275026e-05	0.0001757264	0.008798759	-0.07781288	5.461314e-05	0.0001700079	0.01164783	-0.07368884
	0.01074514	-0.07319506	1.43642e-05	0.0001884168	0.01148952	-0.07665714	2.12065e-05	0.0002034791
	3.138376e-06	0.0001909936	0.01148763	-0.07370316	2.463099e-05	0.0001893402	0.007742007	-0.07715496
1.8e+08	0.005603479	-0.03337013	0.0001080672	0.0001842095	0.00719546	-0.01288158	0.000128112	0.0001789718
	0.0001347058	0.0001559297	0.004884411	-0.03335225	0.0001645567	0.0001259476	0.007646193	-0.01295067
	0.006843592	-0.0116765	0.0001404632	0.0001599925	0.006787753	-0.03350664	0.000156184	0.0001697792
	0.0001356685	0.0001756271	0.007553804	-0.01287274	0.0001510107	0.0001588579	0.00505263	-0.03180405
1.9e+08	0.04470741	-0.01031785	0.0001975782	7.650978e-05	0.06051235	0.01607994	0.0002124407	6.05383e-05
	0.0002099593	3.733362e-05	0.04521302	-0.01062797	0.0002146691	-1.085911e-06	0.06068106	0.01537889
	0.0605915	0.01727286	0.0002099796	4.042329e-05	0.04582777	-0.01076028	0.0002294233	3.882447e-05
	0.0002230196	5.321375e-05	0.06068407	0.01545064	0.0002218709	3.265502e-05	0.04692989	-0.009621273
2e+08	0.08793627	-0.03636779	0.0001889881	-4.068172e-05	0.1119044	-0.02022731	0.0001920179	-6.227465e-05
	0.0001779796	-8.533032e-05	0.08873888	-0.03802368	0.0001630817	-0.0001143455	0.1113485	-0.02109511
	0.1122876	-0.01924395	0.0001814149	-7.43922e-05	0.08881704	-0.03707658	0.0001958379	-8.674584e-05
	0.0001976378	-8.003671e-05	0.1113847	-0.02109494	0.0001864004	-9.07645e-05	0.09094597	-0.03861087
2.1e+08	0.09257657	-0.09189356	0.0001434323	-0.0001105335	0.1074936	-0.08565325	0.0001344012	-0.0001287544
	0.0001053028	-0.0001427263	0.09234693	-0.09468454	8.326739e-05	-0.0001588506	0.1063548	-0.08603126
	0.107981	-0.08489021	0.000122794	-0.0001348182	0.09304567	-0.09264449	0.0001281895	-0.0001515984
	0.000124177	-0.0001486488	0.1063498	-0.08608625	0.00011494	-0.0001509047	0.09362357	-0.09654539
2.2e+08	0.05102584	-0.1337629	9.671255e-05	-0.0001706028	0.05105849	-0.1202532	8.160484e-05	-0.0001804447
	4.551089e-05	-0.0001724921	0.04916737	-0.1364779	2.025488e-05	-0.000179295	0.04996009	-0.1198766
	0.05155478	-0.1195917	6.760357e-05	-0.0001831734	0.05119694	-0.1341711	6.512695e-05	-0.0001999028
	5.901141e-05	-0.000186993	0.04988922	-0.1199273	5.198196e-05	-0.0001893148	0.04899667	-0.1383117
2.3e+08	-0.008174797	-0.1294072	3.220928e-06	-0.0002350481	-0.008190475	-0.09583939	-1.299149e-05	-0.000237513
	-3.654624e-05	-0.0002056987	-0.01103091	-0.1308709	-6.536043e-05	-0.0002002464	-0.008656534	-0.09502283
	-0.007618294	-0.09515545	-3.027709e-05	-0.0002315576	-0.007786896	-0.1292867	-4.019143e-05	-0.0002466633
	-3.164685e-05	-0.0002262075	-0.008766764	-0.09502353	-4.365842e-05	-0.000226925	-0.01185618	-0.1315176
2.4e+08	-0.03841946	-0.08154571	-0.0001576415	-0.0002246345	-0.01936957	-0.03709166	-0.000174176	-0.0002205875
	-0.0001703098	-0.0001821346	-0.04097812	-0.08161181	-0.000193661	-0.0001583916	-0.01903153	-0.03651544
	-0.0185523	-0.03640435	-0.0001849157	-0.0002017504	-0.03721403	-0.08135763	-0.0002033988	-0.0002112184
	-0.0001778796	-0.0002040219	-0.0191425	-0.03645584	-0.0001911899	-0.0001933093	-0.04098679	-0.08112774
2.5e+08	-0.01383287	-0.03521472	-0.0002785193	-7.956246e-05	0.02375672	-0.002687448	-0.000292696	-6.654576e-05
	-0.000268777	-4.309381e-05	-0.01532791	-0.03482803	-0.0002712899	-8.6632e-06	0.02444799	-0.003011757
	0.02491224	-0.002210012	-0.0002865806	-4.534871e-05	-0.01195239	-0.03595882	-0.0003095221	-4.203938e-05
	-0.0002889226	-5.741466e-05	0.02436524	-0.002896892	-0.0002891336	-3.796914e-05	-0.01379253	-0.0346233
2.6e+08	0.03706839	-0.03787989	-0.0002563015	9.784906e-05	0.07051846	-0.02707229	-0.0002606836	0.000118077
	-0.0002348153	0.0001244482	0.03625062	-0.03805845	-0.0002157858	0.0001497982	0.07063763	-0.02834739
	0.07187042	-0.02704834	-0.0002443216	0.0001274673	0.0384866	-0.04002542	-0.0002608498	0.000144329
	-0.0002596949	0.0001246361	0.07061308	-0.02819206	-0.0002452942	0.0001358471	0.03839706	-0.03952323
2.7e+08	0.05949119	-0.08708297	-0.0001567985	0.000193923	0.06843809	-0.08001496	-0.000148531	0.0002121227
	-0.0001244842	0.0002105381	0.05843791	-0.0879814	-9.935251e-05	0.0002177529	0.06736752	-0.0814291
	0.06968149	-0.08050046	-0.000134694	0.0002112196	0.05929173	-0.08978784	-0.0001383606	0.0002329193
	-0.0001444831	0.0002239273	0.06742777	-0.08127222	-0.0001308851	0.0002205485	0.05946149	-0.09099539
2.8e+08	0.02876858	-0.1375945	-6.309643e-05	0.0002386928	0.02100539	-0.1050503	-4.831344e-05	0.0002480909
	-2.19456e-05	0.0002363227	0.02693659	-0.1386185	-1.636166e-06	0.000231853	0.01908288	-0.105612
	0.02190476	-0.1058611	-3.733636e-05	0.0002448227	0.02702064	-0.1393017	-3.080302e-05	0.0002636607
	-3.233792e-05	0.0002574038	0.01921916	-0.105515	-2.835118e-05	0.0002504832	0.02604431	-0.1416327
2.9e+08	-0.03353561	-0.1455572	5.329714e-05	0.0002732693	-0.02533175	-0.07988841	6.81771e-05	0.0002752801
	8.842539e-05	0.0002446391	-0.03598541	-0.145985	0.0001044396	0.0002344973	-0.02710898	-0.07930098
	-0.02479845	-0.08075877	8.093047e-05	0.000267212	-0.03539094	-0.1453427	9.410323e-05	0.0002817282
	8.934285e-05	0.0002689162	-0.02695876	-0.07931041	9.091183e-05	0.0002665998	-0.03792573	-0.147513
3e+08	-0.07910274	-0.1021197	0.0002225186	0.0002362938	-0.03008744	-0.03019512	0.000237301	0.000233589
	0.0002323256	0.000190753	-0.08152307	-0.1016757	0.0002440055	0.0001730563	-0.03088285	-0.0290748
	-0.02975998	-0.0309653	0.0002450885	0.0002142062	-0.07930931	-0.1007533	0.0002653393	0.0002228486
	0.0002465603	0.0002130563	-0.03081432	-0.02916891	0.0002519793	0.0002091563	-0.08279891	-0.1016531
3.1e+08	-0.07172177	-0.04379319	0.0003512941	6.14233e-05	0.006879971	-0.002968027	0.0003659122	5.119154e-05
	0.0003315578	2.211507e-05	-0.07358345	-0.04282768	0.0003310714	-1.981403e-06	0.007085529	-0.002392053
	0.007198784	-0.003686295	0.0003562676	2.834057e-05	-0.06997373	-0.04341381	0.000381598	2.463387e-05
	0.0003578562	3.365538e-05	0.007024827	-0.00245768	0.0003595931	2.235378e-05	-0.07323953	-0.04272117
3.2e+08	-0.02425745	-0.02221484	0.0003182633	-0.0001639716	0.04427769	-0.02242483	0.0003256344	-0.0001831902
	0.000284397	-0.0001820053	-0.02554589	-0.02122765	0.0002681731	-0.0002007025	0.04455516	-0.02310078
	0.04461498	-0.02328839	0.0003023607	-0.0001920946	-0.02248241	-0.02431562	0.0003222694	-0.0002115637
	0.0003135402	-0.0001879566	0.04445653	-0.02301503	0.0003039157	-0.0001980172	-0.02445157	-0.02263155
3.3e+08	0.01257562	-0.05153446	0.0001655335	-0.0002949496	0.04125719	-0.06238287	0.0001595697	-0.0003152268
	0.0001323357	-0.0002948185	0.01161658	-0.05070983	0.00010987	-0.000298603	0.04040282	-0.06390549
	0.0414186	-0.0635168	0.0001394248	-0.0003075989	0.01193781	-0.05507061	0.0001440782	-0.00033486
	0.0001530261	-0.0003158341	0.04044443	-0.06369285	0.000139261	-0.0003143061	0.01157718	-0.05359555
3.4e+08	0.003063321	-0.09695281	5.209697e-06	-0.000326576	0.003990131	-0.07583281	-9.964624e-06	-0.000338696
	-2.424259e-05	-0.0003136084	0.002331629	-0.0963118	-4.186602e-05	-0.000305141	0.001668417	-0.07690715
	0.003728536	-0.07712428	-2.093135e-05	-0.0003252332	-0.0003411217	-0.09913854	-3.085039e-05	-0.0003492508
	-1.753153e-05	-0.0003419783	0.001927247	-0.07675498	-2.405304e-05	-0.0003322156	0.0002619191	-0.09894861
3.5e+08	-0.04288129	-0.1127393	-0.0001525226	-0.0003084125	-0.02492861	-0.04876721	-0.0001692872	-0.0003116063
	-0.0001748392	-0.0002812352	-0.04347325	-0.1123923	-0.0001846738	-0.0002673215	-0.02781236	-0.04838444
	-0.02569381	-0.0499278	-0.0001754263	-0.0002958478	-0.04678228	-0.1117165	-0.0001943736	-0.0003120108
	-0.000183367	-0.00030993	-0.02746284	-0.0484748	-0.0001819463	-0.0003014622	-0.04649659	-0.1131108
3.6e+08	-0.08318862	-0.08306057	-0.0003204458	-0.0002071103	-0.01526166	-0.0106567	-0.0003368604	-0.0002041326
	-0.0003248281	-0.0001683633	-0.08389055	-0.08305514	-0.0003271995	-0.0001519604	-0.01739347	-0.008987158
	-0.01637083	-0.01142537	-0.0003354398	-0.0001827633	-0.0846894	-0.07978123	-0.0003606079	-0.0001895906
	-0.0003484253	-0.0001898291	-0.01719352	-0.009319505	-0.0003448441	-0.0001851378	-0.08587134	-0.08193972
3.7e+08	-0.08296191	-0.03465566	-0.0004129939	1.244167e-05	0.02228942	-0.00088709	-0.0004285868	2.326284e-05
	-0.0003923865	4.776113e-05	-0.08403626	-0.03479071	-0.0003854687	6.356427e-05	0.02152349	0.0009398471
	0.02111855	-0.001193331	-0.0004110252	4.337077e-05	-0.08130043	-0.03221559	-0.0004393768	5.019079e-05
	-0.000425901	4.262027e-05	0.02142442	0.0005782621	-0.0004215995	4.597554e-05	-0.08405403	-0.03358622
3.8e+08	-0.0475542	-0.009790557	-0.0003352288	0.0002550737	0.04796227	-0.02912394	-0.0003437348	0.0002750688
	-0.0002985698	0.0002703751	-0.04901496	-0.009633305	-0.0002836298	0.0002789344	0.04801917	-0.02828253
	0.04694825	-0.0291135	-0.0003145242	0.0002785681	-0.04511857	-0.01049711	-0.0003367427	0.0003017792
	-0.0003298272	0.0002855613	0.04772198	-0.02841285	-0.0003234853	0.0002867608	-0.048138	-0.009970016
3.9e+08	-0.01401901	-0.02346756	-0.0001361176	0.0003875283	0.03443988	-0.06391303	-0.0001311408	0.000409887
	-0.0001003624	0.0003802565	-0.01539702	-0.02267625	-8.460658e-05	0.0003783216	0.03406887	-0.0642682
	0.03359509	-0.06380422	-0.0001072302	0.0003937454	-0.01408033	-0.0263237	-0.0001129812	0.0004269849
	-0.0001179832	0.0004098603	0.0338617	-0.06411214	-0.0001115599	0.0004067398	-0.01553976	-0.02433288
4e+08	-0.01083501	-0.0528954	7.630742e-05	0.0003975253	-0.001829007	-0.06652561	9.253607e-05	0.0004127393
	0.0001017538	0.0003753398	-0.01141991	-0.05177164	0.0001124361	0.0003663337	-0.003507559	-0.06714402
	-0.002655845	-0.06640905	0.0001017729	0.0003879277	-0.01411851	-0.05446211	0.0001152598	0.0004194828
	0.0001018544	0.000409683	-0.003423633	-0.06692687	0.0001052216	0.0004031761	-0.01321104	-0.05291171
4.1e+08	-0.03262495	-0.06528357	0.0002727184	0.0003202291	-0.01893331	-0.03480708	0.0002932087	0.0003250057
	0.0002850124	0.0002888631	-0.0322936	-0.06478487	0.0002896844	0.0002769267	-0.02160872	-0.0344535
	-0.0198741	-0.03458395	0.0002894516	0.000300101	-0.03641829	-0.0632086	0.000317852	0.0003201561
	0.0003031011	0.0003196895	-0.02132536	-0.03446773	0.0003021516	0.0003121238	-0.03431438	-0.06402573
4.2e+08	-0.0501699	-0.05075393	0.0004290956	0.0001356551	0.003884591	-0.005147873	0.0004494849	0.000130684
	0.0004235477	0.0001001747	-0.04980912	-0.05160644	0.0004218124	8.724621e-05	0.001368733	-0.003414764
	0.00286493	-0.0046334	0.0004334161	0.0001090546	-0.05099906	-0.04624298	0.0004689544	0.0001115782
	0.0004576209	0.0001177616	0.001547788	-0.003737746	0.0004518205	0.0001116492	-0.05012269	-0.04962399
4.3e+08	-0.04329255	-0.03013518	0.0004486332	-0.0001373532	0.04371247	-0.01324678	0.0004651545	-0.0001523217
	0.0004224704	-0.0001649414	-0.0441209	-0.03196075	0.000413244	-0.0001750477	0.04229566	-0.01080604
	0.04280862	-0.01234552	0.000436782	-0.0001628145	-0.04048832	-0.02688947	0.0004693016	-0.0001797371
	0.0004625531	-0.00017027	0.04213786	-0.01121641	0.0004532764	-0.0001710503	-0.0424645	-0.0308552
4.4e+08	-0.022527	-0.0284428	0.000288497	-0.0003638123	0.05713782	-0.0553519	0.0002950636	-0.0003864171
	0.0002511563	-0.0003702589	-0.02497123	-0.02992823	0.0002378547	-0.0003723913	0.0568339	-0.05328656
	0.0565708	-0.05414683	0.0002640076	-0.0003772987	-0.01904054	-0.0288424	0.0002832039	-0.0004093207
	0.0002808443	-0.000398047	0.05640106	-0.05346455	0.0002736941	-0.0003918638	-0.02314168	-0.03087153
4.5e+08	-0.01303198	-0.04537641	5.118136e-05	-0.0004435522	0.02697413	-0.09020223	4.463093e-05	-0.0004664453
	1.942992e-05	-0.0004283012	-0.01620713	-0.0453459	8.647337e-06	-0.0004224203	0.0269786	-0.08912108
	0.02684939	-0.08890207	2.483244e-05	-0.0004406705	-0.01233396	-0.04792794	2.510387e-05	-0.0004786733
	2.842648e-05	-0.0004665872	0.02656955	-0.08894557	2.787597e-05	-0.0004582029	-0.01603502	-0.04718718
4.6e+08	-0.0236362	-0.05897468	-0.0001678934	-0.0004102387	-0.01789045	-0.08283271	-0.0001849382	-0.0004266291
	-0.0001853172	-0.0003837835	-0.02597386	-0.05751659	-0.0001903441	-0.0003740992	-0.01846121	-0.08245616
	-0.01762697	-0.08164509	-0.0001874569	-0.000394737	-0.0259901	-0.05991216	-0.0002070552	-0.0004292751
	-0.0001967165	-0.0004203086	-0.01859033	-0.08210446	-0.0001931087	-0.000414928	-0.02715227	-0.05806487
4.7e+08	-0.03763619	-0.05264689	-0.0003682711	-0.000291907	-0.03248998	-0.04197133	-0.0003917171	-0.0002983817
	-0.000372231	-0.0002620411	-0.03834261	-0.05122603	-0.0003715929	-0.0002518222	-0.03388144	-0.0415172
	-0.03197763	-0.0410009	-0.0003771487	-0.000268967	-0.03975455	-0.04997763	-0.0004144804	-0.0002896056
	-0.0004008522	-0.00028905	-0.03373939	-0.04128368	-0.000396614	-0.0002858	-0.0385849	-0.04981974
4.8e+08	-0.03175946	-0.03623487	-0.0005063836	-4.670025e-05	-0.002127284	-0.01210465	-0.0005317273	-3.992332e-05
	-0.0004960014	-1.597644e-05	-0.03172454	-0.03636437	-0.0004896657	-7.74726e-06	-0.003925568	-0.0110102
