!$
! Info: Touchstone file created by Circ.  Input file=Tx_NPC_250mm_32AWG_BPK_500mm_27AWG_BPK_250mm_32AWG_NPC_Rx.circ
!$
# Hz S RI R 50
0	0.08010972	-1.401913e-17	-6.820292e-05	1.329155e-19	0.002764577	1.096939e-15	-1.398793e-05	-1.224042e-18
	-4.633528e-05	1.522514e-19	0.02434807	-2.051231e-16	-6.024913e-05	1.334191e-19	0.002947075	-4.52729e-16
	0.002076476	2.53434e-17	-9.178691e-05	3.175364e-20	0.052112	-5.197102e-16	-3.225841e-05	1.486258e-18
	-3.09437e-06	-3.126122e-18	0.003048613	-2.592952e-16	-1.768274e-05	4.627498e-18	0.04889377	4.835362e-16
1e+07	0.05957035	0.002083879	-9.630964e-05	-1.600759e-05	0.01658721	0.02995271	-5.898331e-05	2.579799e-05
	-7.694466e-05	-2.446574e-05	0.05748955	0.001837194	-5.836556e-05	-1.894905e-05	0.01606883	0.02986132
	0.01601107	0.02992781	-9.068652e-05	-8.315269e-06	0.05461909	0.003080689	-3.325508e-05	-2.437378e-05
	-4.967697e-05	1.982598e-05	0.0161125	0.02987057	-1.964135e-05	-3.026497e-05	0.05888662	0.001031638
2e+07	0.06720392	-0.003810542	-0.000115126	1.299356e-05	0.04541726	0.04495344	-4.450781e-05	0.0001159657
	-0.0001011388	-1.650247e-06	0.06459781	-0.003998863	-8.11445e-05	-1.817717e-05	0.04485437	0.0452254
	0.04478355	0.0451159	-0.0001095708	3.986158e-06	0.06272126	-0.001642072	-5.309329e-05	-2.273717e-05
	-4.054731e-05	0.0001079364	0.04487325	0.04518384	-4.2974e-05	-3.335676e-05	0.06538909	-0.005438962
3e+07	0.07072746	-0.0163793	-0.0001202565	5.073116e-05	0.07673136	0.03757005	-2.506658e-05	0.0001467343
	-0.000113086	3.306193e-05	0.06747837	-0.01618293	-0.0001069682	-3.103567e-06	0.07603595	0.03823686
	0.07600405	0.03802076	-0.0001263705	3.025497e-05	0.06695498	-0.01333078	-7.725267e-05	-1.302345e-05
	-2.522543e-05	0.0001408883	0.07601565	0.0381354	-7.205244e-05	-2.659052e-05	0.06750163	-0.0178122
4e+07	0.066157	-0.03124161	-0.0001107761	8.678306e-05	0.0957256	0.01103308	4.676697e-06	0.0001641376
	-0.0001100672	6.896012e-05	0.06243348	-0.03016472	-0.0001307005	2.59692e-05	0.0952102	0.01190159
	0.09511518	0.01172687	-0.000135249	6.674881e-05	0.0631917	-0.02767694	-9.809334e-05	5.901683e-06
	4.379828e-06	0.0001619368	0.09513347	0.01181857	-9.839172e-05	-8.529913e-06	0.06170833	-0.03155866
5e+07	0.05331427	-0.0422363	-9.605848e-05	0.000119485	0.09309522	-0.02112551	3.347709e-05	0.000175233
	-0.000100558	0.0001032951	0.04941084	-0.03983751	-0.0001486713	7.198215e-05	0.09286292	-0.02025089
	0.09273763	-0.02029987	-0.0001348451	0.0001124982	0.05105219	-0.03826158	-0.0001198231	3.632822e-05
	3.656915e-05	0.0001743434	0.09276715	-0.02027902	-0.0001254952	2.303958e-05	0.04819024	-0.04073401
6e+07	0.03552886	-0.04448025	-7.643971e-05	0.0001594058	0.07004149	-0.04370016	6.553066e-05	0.0001934388
	-8.501022e-05	0.0001454554	0.03215137	-0.04062058	-0.0001500007	0.0001389129	0.07009959	-0.04280707
	0.06998924	-0.04280837	-0.0001192042	0.0001697499	0.03398447	-0.0402385	-0.0001359482	9.059634e-05
	7.210328e-05	0.0001890985	0.06998743	-0.04277526	-0.0001462425	8.02552e-05	0.03076266	-0.04083145
7e+07	0.01927193	-0.03563549	-3.33276e-05	0.0002104199	0.03771319	-0.04499506	0.000122451	0.0002188271
	-4.55697e-05	0.0001991011	0.01715368	-0.03042108	-0.0001149658	0.0002207844	0.0380729	-0.04424623
	0.03795271	-0.04421476	-7.41385e-05	0.0002344864	0.01846099	-0.03106825	-0.0001200421	0.0001717057
	0.0001283636	0.0002076204	0.03798896	-0.04415378	-0.00013368	0.0001658318	0.01595091	-0.0299932
8e+07	0.01149616	-0.01790641	5.393104e-05	0.0002492575	0.01247125	-0.02337012	0.0002212337	0.0002230881
	3.798937e-05	0.000241559	0.01132641	-0.01188128	-2.685443e-05	0.0002920943	0.01305396	-0.02291063
	0.0128892	-0.0228209	1.39507e-05	0.0002865825	0.01160131	-0.01303149	-4.435042e-05	0.0002512954
	0.0002202041	0.0002060307	0.01302962	-0.0227781	-5.955922e-05	0.0002509102	0.01057754	-0.01101583
9e+07	0.01691593	0.0021675	0.0001762055	0.0002419311	0.008362932	0.01151265	0.000344297	0.0001640733
	0.0001571761	0.0002397539	0.01906165	0.008062993	0.0001040433	0.0003135695	0.0089936	0.01160225
	0.008797697	0.01181404	0.000135998	0.0002928934	0.01818466	0.007156383	8.497731e-05	0.0002773917
	0.0003322191	0.0001472548	0.009046602	0.01174208	7.026069e-05	0.0002828801	0.01889746	0.009083044
1e+08	0.03517717	0.0158494	0.0002887606	0.0001562524	0.02988652	0.04269692	0.0004389036	3.150584e-05
	0.000268905	0.0001615349	0.03949407	0.0205826	0.0002379189	0.000262341	0.03032879	0.04244136
	0.03019515	0.04282975	0.0002570193	0.0002340106	0.03782833	0.02061665	0.0002149542	0.000217215
	0.000417434	2.287794e-05	0.03045453	0.04253984	0.0002029017	0.0002282904	0.03989259	0.02146333
1.1e+08	0.06033275	0.01626884	0.0003310395	2.056488e-05	0.06929024	0.05414354	0.0004287807	-0.000129767
	0.0003139314	3.382113e-05	0.06618392	0.01895126	0.0003292229	0.000153492	0.06939239	0.05378406
	0.06943702	0.05426962	0.0003366643	0.0001240702	0.06436756	0.02023756	0.0002832065	9.570494e-05
	0.0004050278	-0.0001253642	0.06956613	0.05380977	0.00027591	0.0001113374	0.06696974	0.01943567
1.2e+08	0.08342907	0.001593409	0.0002917748	-0.0001028373	0.1103833	0.03856758	0.0003286478	-0.000260918
	0.00028108	-8.341862e-05	0.08976443	0.001763799	0.0003607465	2.651989e-05	0.1102071	0.03835925
	0.1104351	0.03882131	0.0003599238	-1.173946e-06	0.08854202	0.004237036	0.0002709813	-2.220392e-05
	0.0003111813	-0.0002449578	0.1103787	0.03829157	0.000270342	-3.880472e-06	0.09068866	0.001752383
1.3e+08	0.0963385	-0.02451547	0.0002152358	-0.0001657332	0.1362476	0.0003476639	0.0001969787	-0.0003082257
	0.0002130546	-0.0001437019	0.1020591	-0.02674845	0.0003472045	-8.604292e-05	0.1360085	0.0004301284
	0.1363511	0.0007871965	0.0003400622	-0.0001123627	0.1019859	-0.0235362	0.0002193024	-8.708178e-05
	0.0001908707	-0.0002873831	0.1361304	0.0002817023	0.0002265725	-6.891309e-05	0.1028666	-0.02722502
1.4e+08	0.09444126	-0.05476396	0.0001622027	-0.0001776643	0.1363149	-0.04700694	0.0001047811	-0.0002872287
	0.0001684435	-0.000156921	0.0986627	-0.05879623	0.0003151467	-0.0001785363	0.1362709	-0.04667802
	0.1366294	-0.04643205	0.0003006209	-0.000203953	0.09997801	-0.05549941	0.0001881416	-0.0001063
	0.0001092101	-0.0002692942	0.136308	-0.04687121	0.0002032845	-9.194154e-05	0.09915305	-0.05959394
1.5e+08	0.07759621	-0.08059992	0.0001557809	-0.0001947584	0.110113	-0.08656775	8.050595e-05	-0.0002645634
	0.0001686196	-0.0001782626	0.07985429	-0.08548924	0.0002769788	-0.000268043	0.1104153	-0.08619605
	0.1107341	-0.08600304	0.0002525115	-0.000290178	0.08244535	-0.08281286	0.0002009611	-0.0001350383
	8.993145e-05	-0.0002541058	0.1103565	-0.08638345	0.000222004	-0.000128279	0.07993544	-0.08639273
1.6e+08	0.05003374	-0.09435287	0.0001563003	-0.0002692336	0.06711578	-0.1043328	8.329303e-05	-0.0003051734
	0.0001733115	-0.0002583806	0.05041264	-0.09914643	0.0002178686	-0.0003730578	0.06776813	-0.1041781
	0.06804723	-0.1039732	0.0001827821	-0.0003860543	0.05382468	-0.097589	0.0002182104	-0.0002259207
	9.130266e-05	-0.0003013179	0.06763206	-0.1043134	0.0002410485	-0.0002293957	0.05008694	-0.09990616
1.7e+08	0.02005307	-0.09129076	8.681592e-05	-0.0003939083	0.02350321	-0.09438809	2.535252e-05	-0.0004118485
	0.0001059267	-0.0003889763	0.01909491	-0.09522134	0.0001023077	-0.0004869116	0.02433933	-0.09465328
	0.02461835	-0.09440747	6.081456e-05	-0.0004838169	0.0226801	-0.09502489	0.0001611621	-0.0003729815
	2.879636e-05	-0.0004094564	0.02416578	-0.09470755	0.0001803742	-0.0003868077	0.01851717	-0.09562547
1.8e+08	-0.001855065	-0.07206079	-9.906731e-05	-0.000486101	-0.003720164	-0.06175562	-0.0001558521	-0.0004994571
	-7.923012e-05	-0.0004870429	-0.003318485	-0.07483474	-9.481101e-05	-0.0005615957	-0.002942607	-0.06251254
	-0.002640067	-0.06223286	-0.0001334256	-0.0005387086	-0.0002202416	-0.07585567	-2.030739e-05	-0.0004931814
	-0.0001545956	-0.0004930602	-0.003106581	-0.06248491	-9.574454e-06	-0.0005142292	-0.003896768	-0.07476918
1.9e+08	-0.00664136	-0.04410051	-0.000353534	-0.0004412985	-0.003787026	-0.0213504	-0.0004193258	-0.0004464194
	-0.0003341558	-0.0004484022	-0.007807295	-0.04596482	-0.0003467538	-0.0005281159	-0.003299475	-0.02253737
	-0.002979098	-0.02221939	-0.0003715509	-0.0004884361	-0.005666087	-0.04775349	-0.0002825136	-0.000478256
	-0.0004139432	-0.0004348015	-0.003418318	-0.02245253	-0.0002823832	-0.0005011526	-0.008091477	-0.04547196
2e+08	0.008486455	-0.01990151	-0.0005466907	-0.000232334	0.02220969	0.007858427	-0.0006205292	-0.0002096489
	-0.0005295905	-0.0002460349	0.008077309	-0.02153548	-0.0005678353	-0.0003550128	0.02224203	0.006401326
	0.02258828	0.006798713	-0.0005714874	-0.000308032	0.009101074	-0.02348075	-0.0004967458	-0.0002938686
	-0.0006056028	-0.000197683	0.02218062	0.006507331	-0.0005058584	-0.0003134873	0.008331687	-0.02083131
2.1e+08	0.03748083	-0.01142392	-0.0005731545	4.496832e-05	0.06098774	0.01193397	-0.000628624	0.0001074847
	-0.0005609916	2.496762e-05	0.03773196	-0.01363827	-0.0006711422	-9.103514e-05	0.06049558	0.010405
	0.06093376	0.01092864	-0.0006533919	-4.859555e-05	0.0378344	-0.01520849	-0.0005532282	-2.872048e-05
	-0.0006043207	0.000111503	0.06048115	0.010502	-0.0005681962	-4.22887e-05	0.03860789	-0.01304169
2.2e+08	0.0679689	-0.02433046	-0.0004503373	0.0002501155	0.09356858	-0.01103748	-0.0004532422	0.0003323261
	-0.0004459208	0.0002256813	0.06827577	-0.02769996	-0.0006379947	0.0001694454	0.09256708	-0.01242728
	0.09321934	-0.01179928	-0.0006050118	0.0001982148	0.06785826	-0.02856414	-0.0004610137	0.0001796566
	-0.0004261421	0.0003221975	0.09257872	-0.0123522	-0.0004788089	0.0001725264	0.06966882	-0.02754634
2.3e+08	0.08699103	-0.05552842	-0.0002947253	0.0003239951	0.1048101	-0.05054923	-0.0002383778	0.0003760775
	-0.0002998428	0.0002984614	0.08649474	-0.06013953	-0.0005191235	0.0003619747	0.1034081	-0.05162049
	0.1043687	-0.05100995	-0.0004798621	0.0003734037	0.0860066	-0.06024927	-0.0003284403	0.0002688651
	-0.0002179497	0.0003516264	0.1034287	-0.05156444	-0.0003473714	0.0002678629	0.08813263	-0.06064844
2.4e+08	0.08610633	-0.09537879	-0.0002054328	0.0003252643	0.08996928	-0.08980126	-0.0001312763	0.0003026119
	-0.0002201588	0.0003025697	0.08402493	-0.1007925	-0.0003767695	0.0004845245	0.08834571	-0.0904515
	0.08960924	-0.09003265	-0.0003391807	0.0004799017	0.08381448	-0.1003051	-0.0002509237	0.0002904637
	-0.0001249609	0.0002697545	0.08836993	-0.09040537	-0.0002698129	0.0002958955	0.08556442	-0.1020005
2.5e+08	0.06354981	-0.1315856	-0.0001823749	0.0003565375	0.05528427	-0.1136384	-0.0001622192	0.0002628746
	-0.0002051324	0.0003402839	0.05943465	-0.1369691	-0.0002374296	0.0005717626	0.05363612	-0.1138672
	0.05508762	-0.1137863	-0.0002065228	0.0005549606	0.05971487	-0.1361425	-0.0002299811	0.0003403439
	-0.0001722718	0.0002305562	0.05366776	-0.113827	-0.0002468239	0.0003529495	0.06057893	-0.1387444
2.6e+08	0.02430758	-0.1527581	-0.0001398575	0.0004672093	0.01401833	-0.1141799	-0.0002238618	0.0003690931
	-0.000167888	0.0004601042	0.018202	-0.1571615	-8.443092e-05	0.0006527115	0.0124876	-0.1140861
	0.01395333	-0.1143974	-6.242011e-05	0.0006278467	0.01902506	-0.1562629	-0.0001848306	0.0004648002
	-0.0002471204	0.0003454236	0.01253225	-0.114058	-0.0001963173	0.0004843717	0.01877834	-0.1592352
2.7e+08	-0.02112299	-0.1516226	1.563658e-05	0.0006089892	-0.01922673	-0.09271774	-0.0001510474	0.0005987653
	-1.413285e-05	0.0006126965	-0.02871393	-0.1541836	0.0001207149	0.0007195093	-0.02058028	-0.09242668
	-0.01927623	-0.09309655	0.0001330371	0.0006897397	-0.02736798	-0.1534723	-2.618493e-05	0.0006168959
	-0.0001808695	0.000588228	-0.02052828	-0.09242398	-2.864872e-05	0.000641067	-0.0287183	-0.1562762
2.8e+08	-0.05922026	-0.1277458	0.0003042577	0.0006637816	-0.03362441	-0.0584896	0.0001488862	0.0007884056
	0.00027685	0.0006787504	-0.06742998	-0.1279408	0.0003985845	0.0007175893	-0.03480904	-0.05810065
	-0.03381061	-0.05902297	0.0004005462	0.0006854012	-0.06567368	-0.1276562	0.0002652345	0.0006820838
	0.0001196191	0.0007909925	-0.03476992	-0.05813163	0.0002739896	0.0007060651	-0.06788699	-0.1298229
2.9e+08	-0.07793808	-0.0889424	0.0006363481	0.0005263581	-0.02582145	-0.0251747	0.0005949519	0.0007396943
	0.0006156739	0.0005514931	-0.08574507	-0.08670652	0.0007092987	0.0005739154	-0.02685665	-0.02474697
	-0.02626245	-0.02575386	0.0007000022	0.0005421455	-0.08378612	-0.08705613	0.0006027449	0.0005572114
	0.0005712232	0.0007520069	-0.02685907	-0.02480056	0.0006217799	0.0005751664	-0.08644669	-0.08827137
3e+08	-0.07200609	-0.04935214	0.0008563682	0.0001957418	-0.001386392	-0.005805737	0.0009576362	0.0003855996
	0.0008464163	0.0002280872	-0.07846572	-0.04509412	0.0009486015	0.0002617431	-0.002275167	-0.005401504
	-0.002105344	-0.006262791	0.0009276987	0.0002343624	-0.07664612	-0.04621386	0.0008347634	0.000239146
	0.0009411238	0.0004032067	-0.00233669	-0.005440132	0.0008597887	0.0002465728	-0.07921467	-0.04637758
3.1e+08	-0.04606769	-0.02377378	0.0008568869	-0.0002025305	0.02704178	-0.007174583	0.001029896	-0.000125527
	0.0008602734	-0.0001676697	-0.05058755	-0.01829042	0.00101119	-0.0001522989	0.02626166	-0.006894926
	0.0261347	-0.007356052	0.0009801423	-0.0001704652	-0.04933074	-0.02011981	0.00085461	-0.0001521986
	0.001019745	-0.0001056948	0.02615513	-0.006870196	0.0008795899	-0.0001565	-0.05127	-0.01942623
3.2e+08	-0.01305222	-0.02084946	0.0006678688	-0.0005096747	0.04537943	-0.02626465	0.0008047854	-0.0005391711
	0.000685028	-0.0004779823	-0.0154623	-0.01506501	0.0008724779	-0.000542609	0.04457528	-0.02620422
	0.04445052	-0.02610627	0.0008353802	-0.0005470883	-0.01519147	-0.01729763	0.0006877367	-0.0004633346
	0.0007997116	-0.0005179467	0.04447744	-0.02608192	0.0007074693	-0.0004771939	-0.01611404	-0.01620435
3.3e+08	0.01196383	-0.03927951	0.0004173929	-0.0006635225	0.04519013	-0.05161852	0.000470546	-0.0007111465
	0.0004462176	-0.0006405611	0.01138344	-0.03400188	0.0005989748	-0.0008142482	0.04414444	-0.05175343
	0.04440344	-0.05116842	0.0005623428	-0.0008027322	0.01043722	-0.03608592	0.000454467	-0.000632517
	0.0004707826	-0.0006881198	0.04412841	-0.05154402	0.000466132	-0.0006519661	0.01062509	-0.03520115
3.4e+08	0.01835182	-0.06914694	0.0002010406	-0.000722602	0.02784799	-0.06949698	0.0002238054	-0.0007087713
	0.0002371266	-0.0007126447	0.01906161	-0.06489469	0.00028068	-0.0009518915	0.02638486	-0.06962664
	0.02729506	-0.06888087	0.0002519685	-0.000925685	0.01698589	-0.06615523	0.0002442458	-0.0007129299
	0.0002313991	-0.000684427	0.02650824	-0.06939161	0.0002473356	-0.0007340147	0.01805391	-0.06606018
3.5e+08	0.003755962	-0.09672262	7.894063e-06	-0.0007681641	0.003118899	-0.0709783	9.828405e-05	-0.00070668
	4.530309e-05	-0.0007732278	0.00515063	-0.09370615	-3.391901e-05	-0.000991143	0.001241455	-0.07079987
	0.002795209	-0.07033101	-4.865615e-05	-0.0009553974	0.002415787	-0.09352417	4.532958e-05	-0.0007778597
	0.0001155277	-0.0006839379	0.001514347	-0.07063331	4.071262e-05	-0.0007974901	0.003861513	-0.09463036
3.6e+08	-0.0256789	-0.1100273	-0.0002317138	-0.0008048823	-0.01637577	-0.05579852	-3.600299e-05	-0.0007998676
	-0.0001992716	-0.0008241792	-0.02415592	-0.1081703	-0.0003466021	-0.0009604426	-0.01845423	-0.05505923
	-0.0165439	-0.05520156	-0.0003448285	-0.0009227398	-0.02674303	-0.1062345	-0.0002074009	-0.0008259603
	-8.877422e-06	-0.0007838629	-0.01808427	-0.0550501	-0.0002181899	-0.0008418863	-0.02557551	-0.108653
3.7e+08	-0.05808604	-0.1032235	-0.0005466547	-0.0007547685	-0.02121033	-0.03156998	-0.0003241251	-0.0009065741
	-0.0005243958	-0.0007848845	-0.05684201	-0.1022827	-0.0006718675	-0.0008462223	-0.02315134	-0.03019902
	-0.02131013	-0.03103019	-0.0006552666	-0.000814054	-0.0583247	-0.09875072	-0.0005363027	-0.0007779174
	-0.0002904472	-0.0009026201	-0.02278617	-0.03039508	-0.0005513494	-0.0007886576	-0.0581182	-0.1022573
3.8e+08	-0.08058469	-0.07892665	-0.0008701097	-0.0005329684	-0.00897515	-0.009881819	-0.0007640778	-0.0008358318
	-0.00086111	-0.0005687492	-0.0798496	-0.07853967	-0.000987254	-0.0006037917	-0.01045239	-0.008018083
	-0.009054928	-0.009346753	-0.0009606853	-0.0005822418	-0.07943963	-0.07412576	-0.0008695061	-0.0005518323
	-0.0007303384	-0.0008467773	-0.01021189	-0.008399007	-0.0008867131	-0.0005566868	-0.08069758	-0.07814303
3.9e+08	-0.08476641	-0.04713442	-0.001069612	-0.0001370617	0.01496127	-0.001237251	-0.001170465	-0.000465774
	-0.001074416	-0.0001729504	-0.08456798	-0.04691274	-0.001213202	-0.0002103651	0.01415202	0.0008180524
	0.014919	-0.0006408089	-0.001182476	-0.0002010959	-0.08196873	-0.04272549	-0.001073262	-0.0001497703
	-0.001144056	-0.000490261	0.01417432	0.0003428691	-0.001090721	-0.0001487827	-0.08484094	-0.04645191
4e+08	-0.07048538	-0.02073494	-0.001043081	0.0003226898	0.03965375	-0.0105071	-0.001310586	0.0001204454
	-0.001060168	0.0002914664	-0.07065915	-0.02035564	-0.001252946	0.0002824036	0.03952949	-0.008639123
	0.03972198	-0.009820231	-0.001222701	0.0002803762	-0.06626334	-0.01755244	-0.001047274	0.0003144196
	-0.001296866	8.768165e-05	0.03930692	-0.009073484	-0.001063527	0.0003208813	-0.07044734	-0.02017483
4.1e+08	-0.04575594	-0.009423632	-0.0008059463	0.0006910472	0.05321659	-0.03437837	-0.001102392	0.0006788832
	-0.0008325868	0.0006680006	-0.04598887	-0.008702908	-0.001067033	0.0007560947	0.05358213	-0.03304878
	0.0534851	-0.03364082	-0.001040045	0.0007445915	-0.04081717	-0.008035487	-0.0008100538	0.0006850036
	-0.001102765	0.0006447038	0.05317355	-0.03331119	-0.0008237755	0.0006966462	-0.04560059	-0.009019749
4.2e+08	-0.02243417	-0.01522986	-0.0004788014	0.0008861777	0.04858299	-0.06239194	-0.0006809236	0.001003001
	-0.0005118291	0.0008737078	-0.02234572	-0.01419895	-0.0007068177	0.001098098	0.04905881	-0.06180155
	0.0491018	-0.0617084	-0.0006849781	0.001078342	-0.01769766	-0.01570738	-0.0004834527	0.0008821411
	-0.0006931747	0.0009730078	0.04859084	-0.06181885	-0.0004928649	0.0008986092	-0.02217039	-0.01495331
4.3e+08	-0.0103201	-0.03226539	-0.0001752198	0.0009485936	0.02720728	-0.0817789	-0.000262153	0.001078607
	-0.0002110529	0.0009483872	-0.009571404	-0.03118856	-0.0002703783	0.001265493	0.02734721	-0.08187337
	0.02795003	-0.08127924	-0.0002561913	0.001238496	-0.006545545	-0.03414317	-0.0001795921	0.0009476915
	-0.0002826187	0.001055594	0.02696516	-0.08166093	-0.000182368	0.000967627	-0.009869974	-0.0320528
4.4e+08	-0.01279532	-0.05020062	9.262015e-05	0.0009659866	-0.001443793	-0.08375453	5.008843e-05	0.001044567
	5.829447e-05	0.0009788926	-0.01121766	-0.04955555	0.0001675048	0.001280943	-0.001973377	-0.08422294
	-0.0005831462	-0.08353609	0.0001707028	0.001249103	-0.01028792	-0.05271058	9.130681e-05	0.0009680064
	2.42663e-05	0.001029188	-0.002163728	-0.08387707	9.701873e-05	0.000988312	-0.0119488	-0.05007288
4.5e+08	-0.02575342	-0.05935658	0.0003913516	0.0009598455	-0.02449794	-0.06769475	0.00032127	0.00101668
	0.0003635782	0.0009851316	-0.02347645	-0.0597458	0.0005838697	0.001179057	-0.02577805	-0.06810051
	-0.02366844	-0.06777517	0.0005735131	0.001147323	-0.02429436	-0.06178838	0.0003954959	0.000961538
	0.0002915371	0.001009382	-0.02574987	-0.06775682	0.0004094981	0.0009778441	-0.02425698	-0.05956661
4.6e+08	-0.03974009	-0.05526334	0.0007600536	0.0008525492	-0.03158597	-0.04123306	0.0006668435	0.0009570172
	0.0007437311	0.0008870426	-0.03726167	-0.05720886	0.0009798036	0.0009594148	-0.03342962	-0.04120246
	-0.03091925	-0.04153857	0.0009564089	0.000934524	-0.03874008	-0.05728185	0.0007686849	0.0008488504
	0.0006345073	0.0009594398	-0.03323972	-0.04098029	0.0007879537	0.0008573897	-0.03750813	-0.05632366
4.7e+08	-0.04447905	-0.04113025	0.001126119	0.0005420292	-0.01934874	-0.01696697	0.001078186	0.0007128588
	0.001124388	0.0005802441	-0.04262197	-0.04487624	0.001324467	0.0005867441	-0.02142353	-0.01632951
	-0.01890273	-0.01736069	0.001292695	0.0005746319	-0.04334136	-0.04293522	0.00113409	0.0005294103
	0.001046282	0.0007273294	-0.02118411	-0.01628682	0.00115375	0.0005291178	-0.04181103	-0.04369948
4.8e+08	-0.03443119	-0.02688069	0.001322535	2.141314e-05	0.006910277	-0.007177194	0.001366878	0.000199859
	0.001335447	5.683762e-05	-0.03413941	-0.03218822	0.001523201	4.897623e-05	0.004929331	-0.005980779
