!$
! Info: Touchstone file created by Circ.  Input file=Tx_NPC_250mm_32AWG_BPK_900mm_27AWG_BPK_250mm_32AWG_NPC_Rx.circ
!$
# Hz S RI R 50
0	0.08870627	1.072724e-16	-3.068904e-05	-1.895547e-19	0.002098031	3.671074e-16	-3.888428e-05	-2.300058e-18
	-4.123357e-05	4.830882e-20	0.03569992	-1.987013e-16	-3.332819e-05	-1.72421e-21	0.003300824	-4.472412e-16
	0.003362412	7.449844e-16	-3.452609e-05	1.217974e-19	0.0651798	-3.303101e-16	-5.051547e-05	2.292493e-18
	-3.23687e-05	-1.54212e-18	0.003395581	-2.562562e-16	-3.991728e-05	9.476993e-20	0.05984993	5.133688e-16
1e+07	0.06797054	-0.00422134	-9.755264e-05	2.330997e-05	0.02304689	0.03516674	-5.313667e-05	-7.889132e-06
	-0.0001114272	2.502778e-05	0.06807738	-0.004711364	1.677848e-07	2.235804e-05	0.02320791	0.03506735
	0.02385614	0.03471768	3.798866e-07	2.43909e-05	0.06704815	-0.004241898	-0.0001164162	3.014411e-05
	-5.001899e-05	-1.291588e-05	0.02324746	0.03506374	-0.0001072433	2.51272e-05	0.06925859	-0.005760923
2e+07	0.07048296	-0.0179103	-0.0001041804	1.631954e-05	0.06220486	0.04134983	-7.222256e-05	-4.419949e-06
	-0.0001201064	2.660152e-05	0.07012523	-0.01860709	1.808669e-05	8.820655e-05	0.06232854	0.04119838
	0.06239937	0.04044032	2.099101e-05	8.930377e-05	0.06937646	-0.01778784	-0.000120381	3.12977e-05
	-7.420328e-05	-8.702492e-06	0.06231674	0.04114898	-0.0001144615	2.215724e-05	0.0702918	-0.02020396
3e+07	0.06154826	-0.03445618	-0.0001130528	3.357714e-05	0.08931304	0.01398579	-9.76987e-05	1.698991e-05
	-0.0001217943	5.466652e-05	0.0605575	-0.03504716	6.041918e-05	0.0001051927	0.08926614	0.0137896
	0.08876085	0.01302915	6.364484e-05	0.0001032802	0.0602386	-0.03405102	-0.0001216619	5.624485e-05
	-0.0001006793	1.654054e-05	0.0891697	0.01372538	-0.0001210419	4.454238e-05	0.05972071	-0.0363173
4e+07	0.04111861	-0.04212475	-0.0001247953	6.957743e-05	0.08247477	-0.02398898	-0.0001162524	6.447189e-05
	-0.000118359	9.309547e-05	0.03967252	-0.04213256	8.640481e-05	0.0001006425	0.08230765	-0.0241613
	0.08152278	-0.02429098	8.727274e-05	9.692174e-05	0.03973194	-0.04123419	-0.0001212597	9.520648e-05
	-0.0001166593	6.517827e-05	0.08217315	-0.02414129	-0.0001275226	8.411732e-05	0.03832817	-0.04249109
5e+07	0.01948378	-0.03252833	-0.0001177465	0.0001383225	0.04731814	-0.03953357	-0.0001035993	0.0001392373
	-9.909693e-05	0.0001521128	0.01805734	-0.03159871	0.0001202986	0.0001031281	0.04710875	-0.03964109
	0.046607	-0.03916576	0.0001189352	0.0001001912	0.0183249	-0.03105795	-0.000101558	0.0001595377
	-0.0001034168	0.0001373542	0.04702421	-0.03954251	-0.0001138643	0.000153671	0.01698047	-0.03103697
6e+07	0.01140615	-0.008581635	-4.730892e-05	0.0002149705	0.0139534	-0.01783439	-3.039927e-05	0.0002116857
	-2.802587e-05	0.0002151808	0.01071639	-0.006877691	0.0001909087	8.927713e-05	0.01377313	-0.01782751
	0.01381672	-0.01712441	0.0001891016	8.758605e-05	0.01080263	-0.006627915	-2.289873e-05	0.0002254869
	-3.421721e-05	0.0002088134	0.01376958	-0.01767593	-3.668772e-05	0.0002283379	0.01046722	-0.005833249
7e+07	0.02528518	0.01489861	7.991344e-05	0.0002261692	0.01316699	0.02504866	9.384582e-05	0.0002249213
	9.227284e-05	0.0002200387	0.02580458	0.01673787	0.0002716793	2.858223e-06	0.01309909	0.02506033
	0.01364993	0.0255202	0.0002696388	1.067907e-06	0.02548127	0.01698159	0.0001056456	0.000223833
	8.654119e-05	0.0002271659	0.01319713	0.02518954	9.681975e-05	0.0002344187	0.02646041	0.01752815
8e+07	0.05427667	0.02065056	0.0001942162	0.0001336378	0.05017361	0.05400436	0.0002054529	0.0001527179
	0.0002030439	0.0001285041	0.05588098	0.02173489	0.0002752192	-0.0001500863	0.0501704	0.05389202
	0.05088681	0.05385487	0.0002711748	-0.0001515631	0.0552241	0.02241564	0.0002149418	0.0001204879
	0.0002019092	0.0001622787	0.05033143	0.05393322	0.0002146732	0.0001330562	0.05698679	0.02171075
9e+07	0.08020642	0.002813486	0.0002090274	1.332554e-05	0.09983947	0.04365504	0.0002518013	4.302913e-05
	0.0002207054	6.719113e-06	0.08211497	0.002569084	0.0001722955	-0.0002691282	0.09975355	0.04338601
	0.1002592	0.04288956	0.0001663828	-0.0002673478	0.08159002	0.003949416	0.0002215252	-6.214373e-06
	0.0002581371	5.347357e-05	0.09990844	0.0433178	0.0002277003	2.396751e-06	0.08297526	0.001656819
1e+08	0.08690204	-0.02883231	0.000171405	-5.372063e-05	0.1268668	-0.001967757	0.0002521125	-5.612811e-05
	0.0001836387	-6.992905e-05	0.08814004	-0.03024456	5.547436e-05	-0.0002903338	0.1265548	-0.002294576
	0.1265975	-0.002955832	5.142766e-05	-0.000283701	0.08829394	-0.02836454	0.0001752961	-7.581962e-05
	0.0002655759	-5.430509e-05	0.1266294	-0.002437836	0.0001829195	-7.275523e-05	0.08820354	-0.03163229
1.1e+08	0.07010445	-0.05643647	0.0001655575	-8.807652e-05	0.1117229	-0.05329444	0.0002378334	-0.0001524781
	0.0001667822	-0.0001151255	0.07012102	-0.05818064	3.323136e-06	-0.0002546348	0.1111687	-0.05347395
	0.1107542	-0.05399522	5.25042e-06	-0.0002459809	0.07118275	-0.05638599	0.0001610539	-0.0001104412
	0.0002481591	-0.0001622533	0.1111364	-0.05362125	0.0001670519	-0.0001105833	0.06922336	-0.05936125
1.2e+08	0.03952224	-0.06356298	0.0001697163	-0.0001830931	0.06427405	-0.07552436	0.0001874868	-0.0002744439
	0.000150669	-0.0002091098	0.03852491	-0.06465278	-2.811848e-05	-0.0002765715	0.06363023	-0.07537394
	0.06295396	-0.07549259	-2.026979e-05	-0.0002716772	0.04021435	-0.06353617	0.0001557885	-0.0002035123
	0.0001861074	-0.0002883846	0.0635209	-0.07544653	0.000160665	-0.0002043197	0.03705632	-0.06498817
1.3e+08	0.01500957	-0.04505951	6.485314e-05	-0.000319464	0.01882051	-0.05299016	4.385728e-05	-0.0003907993
	3.105238e-05	-0.0003272576	0.01391288	-0.0449759	-0.0001494044	-0.0003289629	0.01838164	-0.05248462
	0.01772166	-0.05214175	-0.0001410009	-0.0003311903	0.01559039	-0.04472235	4.081666e-05	-0.0003327788
	3.27616e-05	-0.0003972166	0.01827638	-0.05245479	4.65295e-05	-0.000334558	0.01261026	-0.04424866
1.4e+08	0.01586478	-0.01345953	-0.0001646564	-0.0003385923	0.01099898	-0.003496163	-0.0001869528	-0.0003985665
	-0.0001942621	-0.0003226314	0.01570748	-0.01258184	-0.0003603207	-0.0002542758	0.01102521	-0.002891043
	0.01060969	-0.002171649	-0.0003570164	-0.0002604853	0.01681808	-0.01283382	-0.0001943859	-0.0003377599
	-0.0001964011	-0.0003936126	0.01099879	-0.002800327	-0.0001882831	-0.0003432948	0.01528111	-0.01116147
1.5e+08	0.04481088	0.006028303	-0.0003397679	-0.0001620148	0.04849285	0.03209006	-0.000382253	-0.0002457277
	-0.0003505386	-0.0001349697	0.04596926	0.00660756	-0.0004671136	2.209517e-06	0.04893698	0.03237727
	0.04892907	0.03328644	-0.0004683195	-1.995984e-06	0.04644775	0.006491356	-0.0003647446	-0.0001449734
	-0.000382032	-0.0002377406	0.04900583	0.03244323	-0.0003625866	-0.0001551235	0.04667485	0.007942389
1.6e+08	0.0827925	-0.004786474	-0.0003195925	5.482224e-05	0.1027302	0.02305183	-0.0004373739	-2.411653e-05
	-0.0003143121	7.632549e-05	0.08467485	-0.005535357	-0.0003422505	0.0002475737	0.1032129	0.02278259
	0.1036514	0.02364992	-0.0003429312	0.0002463035	0.08494471	-0.005086608	-0.0003309068	8.088104e-05
	-0.0004316881	-2.293037e-05	0.1033244	0.02275976	-0.0003364051	7.068287e-05	0.08612654	-0.004997105
1.7e+08	0.1042365	-0.04283286	-0.0002031455	0.0001395302	0.1331062	-0.02664608	-0.0003840797	0.0001530814
	-0.0001940794	0.0001512631	0.105646	-0.04515214	-0.0001296057	0.0002934428	0.1331922	-0.02732576
	0.1339648	-0.02675027	-0.0001283264	0.0002908545	0.1063101	-0.04420134	-0.0002007726	0.0001643824
	-0.0003827052	0.0001476562	0.1332647	-0.02744173	-0.0002116833	0.0001604541	0.1071131	-0.04563653
1.8e+08	0.09482488	-0.08828071	-0.0001607991	0.0001345482	0.1180006	-0.0847644	-0.0003028666	0.000275223
	-0.000153892	0.0001435893	0.094764	-0.0914753	-4.418924e-05	0.0002082216	0.1175072	-0.08543842
	0.1183627	-0.08527762	-4.521946e-05	0.0002022033	0.0961372	-0.09051578	-0.0001507364	0.0001534918
	-0.0003092511	0.000271772	0.1174851	-0.08559335	-0.0001604115	0.0001574857	0.09559447	-0.09263993
1.9e+08	0.05753467	-0.1176876	-0.0001898311	0.000202037	0.06657413	-0.1153204	-0.00020833	0.0003927576
	-0.0001798472	0.0002139645	0.05579443	-0.1205689	-9.146496e-05	0.000207861	0.06567281	-0.1155625
	0.06632742	-0.1157507	-9.887063e-05	0.0002026092	0.05770334	-0.1201477	-0.0001759148	0.0002166272
	-0.000216057	0.000398094	0.06555513	-0.1156828	-0.0001794262	0.0002241988	0.05577257	-0.1217229
2e+08	0.01078868	-0.1148744	-0.0001189836	0.0003784548	0.01086813	-0.1005801	-4.034361e-05	0.0005155951
	-9.812529e-05	0.0003878416	0.008059141	-0.1164517	-5.705731e-05	0.0003665648	0.01001156	-0.1001854
	0.01027229	-0.1004783	-6.838886e-05	0.0003690258	0.009989113	-0.1167927	-9.942761e-05	0.0003896206
	-3.97751e-05	0.0005267625	0.009844923	-0.1002207	-9.767054e-05	0.0003946152	0.007545356	-0.1169638
2.1e+08	-0.0183502	-0.08095958	0.0001549282	0.0004763919	-0.01347595	-0.05228421	0.0002450569	0.0005480011
	0.0001837816	0.0004703456	-0.02088651	-0.08107529	0.0002155848	0.0004701087	-0.01375936	-0.0514649
	-0.01389895	-0.05151051	0.0002092558	0.0004819168	-0.01939204	-0.08191785	0.0001816705	0.0004787174
	0.0002556707	0.0005539662	-0.0139121	-0.05141271	0.0001830045	0.0004790828	-0.02115187	-0.0807654
2.2e+08	-0.01033191	-0.03937157	0.0004566317	0.0002996978	0.008530683	-0.006846865	0.0005437852	0.0003668479
	0.0004772949	0.0002733438	-0.01180569	-0.03878001	0.0005341964	0.000260471	0.009039332	-0.006222356
	0.008793569	-0.005692151	0.0005397539	0.0002734546	-0.01080603	-0.03968665	0.0004837767	0.0002862538
	0.0005542891	0.0003607946	0.008939686	-0.006116548	0.0004805337	0.0002867664	-0.01116127	-0.038142
2.3e+08	0.02822045	-0.02254552	0.0005120303	-3.739766e-05	0.0565059	0.0002046691	0.0006609571	2.314559e-05
	0.0005102754	-7.124959e-05	0.02775838	-0.02233591	0.0005506339	-0.0001362024	0.05742429	6.02395e-06
	0.0576012	0.00113226	0.0005637326	-0.00013287	0.02853791	-0.02309523	0.0005275724	-6.410157e-05
	0.000660573	1.195673e-05	0.05738283	0.0001255499	0.0005234708	-5.734751e-05	0.02935993	-0.02223676
2.4e+08	0.06692374	-0.0452869	0.0003475771	-0.0002424452	0.08962466	-0.03547021	0.0005602343	-0.000285051
	0.0003265275	-0.0002650529	0.06665981	-0.04603627	0.0002904754	-0.0003351841	0.0901857	-0.03660053
	0.0912107	-0.03530751	0.0002995616	-0.0003424924	0.06741684	-0.04678137	0.0003470125	-0.0002710703
	0.0005509301	-0.0002888837	0.09018906	-0.03649033	0.0003501074	-0.0002596858	0.06856352	-0.04708832
2.5e+08	0.07623707	-0.09386109	0.0002136482	-0.0002730497	0.08164023	-0.08467111	0.000371089	-0.0004646272
	0.0001884956	-0.0002774449	0.07529353	-0.09532013	0.0001115352	-0.0002627692	0.08125802	-0.08622602
	0.08310718	-0.08542174	0.0001111537	-0.0002716966	0.07593048	-0.09622446	0.0002022562	-0.0002956966
	0.0003644321	-0.0004577207	0.08129449	-0.08613463	0.0002147806	-0.0002884288	0.07660689	-0.0974399
2.6e+08	0.04693152	-0.1389945	0.0001806907	-0.0003231382	0.03915518	-0.1117311	0.0001790734	-0.0005672755
	0.0001629329	-0.0003160297	0.0449442	-0.1404093	0.000162533	-0.000218869	0.03779265	-0.1129546
	0.03998072	-0.1131032	0.0001576031	-0.0002218763	0.0452222	-0.141385	0.0001636667	-0.0003397304
	0.000183058	-0.0005578652	0.03785506	-0.1128915	0.0001791104	-0.0003432054	0.04514642	-0.1428837
2.7e+08	-0.007707582	-0.1541628	8.231156e-05	-0.0004775018	-0.008892505	-0.100156	-4.315709e-05	-0.0006433151
	7.238116e-05	-0.0004686062	-0.01045243	-0.1547724	0.0001977916	-0.000418429	-0.01073647	-0.1004965
	-0.008916018	-0.1016164	0.0001957942	-0.0004167369	-0.01057532	-0.1554954	5.926736e-05	-0.0004885627
	-3.158973e-05	-0.0006422377	-0.01066385	-0.1004765	6.865872e-05	-0.0005014256	-0.01120327	-0.1567784
2.8e+08	-0.05910708	-0.1290412	-0.0002122678	-0.000575644	-0.03274325	-0.05970993	-0.0003514834	-0.0006423087
	-0.0002204097	-0.0005678082	-0.06187999	-0.1285349	-8.442204e-05	-0.0006726583	-0.03432047	-0.05912841
	-0.03343251	-0.0607298	-8.224453e-05	-0.0006728912	-0.0621005	-0.1287186	-0.0002416926	-0.0005761698
	-0.0003433554	-0.0006525563	-0.03427263	-0.05915581	-0.0002425487	-0.0005909606	-0.06288227	-0.1296469
2.9e+08	-0.07818044	-0.07756275	-0.000576526	-0.0004016057	-0.01967883	-0.01832374	-0.0006933751	-0.0004408956
	-0.0005854155	-0.0003899835	-0.08028037	-0.07625466	-0.0005945516	-0.0005774425	-0.02043119	-0.0173541
	-0.02054815	-0.01862994	-0.0005942318	-0.0005826925	-0.08007723	-0.07598262	-0.0006049984	-0.0003855737
	-0.0006970299	-0.0004542866	-0.02044889	-0.01739611	-0.0006130371	-0.00039523	-0.08076862	-0.07673476
3e+08	-0.055463	-0.03265672	-0.000719489	1.142215e-05	0.01736006	-0.004389437	-0.0008742845	-2.131015e-05
	-0.0007231257	3.053899e-05	-0.05668457	-0.03122178	-0.0008638369	-6.483782e-05	0.01739589	-0.003833016
	0.01685716	-0.004123875	-0.0008707188	-6.958424e-05	-0.055763	-0.03108326	-0.0007349398	4.070664e-05
	-0.0008866247	-2.665778e-05	0.01731259	-0.00381645	-0.0007438999	3.724574e-05	-0.05640146	-0.03184848
3.1e+08	-0.01099857	-0.02336495	-0.000553966	0.0003684349	0.04727693	-0.02544755	-0.0007650994	0.0004272005
	-0.0005448713	0.0003893238	-0.01169174	-0.02228598	-0.0006540413	0.0004241928	0.0474396	-0.02579882
	0.04741089	-0.02511008	-0.00066417	0.0004280237	-0.01041969	-0.02300363	-0.0005525208	0.0003985635
	-0.0007755688	0.0004321311	0.04736397	-0.02566714	-0.000559903	0.0003974924	-0.01112898	-0.02374716
3.2e+08	0.02053256	-0.05211713	-0.0003020949	0.0005064475	0.04574938	-0.06056295	-0.0004604857	0.0007121783
	-0.0002817039	0.0005184497	0.01994347	-0.05139068	-0.0002915213	0.0005436519	0.04523041	-0.06162619
	0.04633679	-0.06069102	-0.0002947934	0.0005555458	0.02057753	-0.0531047	-0.0002909104	0.0005300483
	-0.0004634218	0.000720095	0.04527377	-0.06140661	-0.0002992988	0.0005295501	0.01988226	-0.05368462
3.3e+08	0.01631022	-0.09495112	-0.0001205467	0.0005596678	0.01604624	-0.07884058	-0.0001163974	0.0008204894
	-9.831465e-05	0.0005580622	0.01569325	-0.09434283	-0.0001370144	0.0004885404	0.0144689	-0.07987816
	0.01657226	-0.07966436	-0.000129258	0.0004986838	0.01486788	-0.09622415	-0.0001042387	0.000579585
	-0.0001153877	0.000824971	0.01468882	-0.07968947	-0.0001153947	0.0005829491	0.01444604	-0.09670608
3.4e+08	-0.02091073	-0.1206664	9.071641e-05	0.0006366821	-0.01630376	-0.06595294	0.0002224227	0.0008184839
	0.0001066619	0.0006254933	-0.02143988	-0.1200704	-7.702839e-05	0.0005901749	-0.01864772	-0.06620291
	-0.01636291	-0.06727603	-6.485193e-05	0.0005903104	-0.02356924	-0.1207976	0.000116887	0.0006534966
	0.0002216325	0.0008208028	-0.01830595	-0.06618211	0.0001066149	0.0006647764	-0.02361154	-0.1215499
3.5e+08	-0.06708935	-0.1109155	0.000430275	0.0006155401	-0.02619364	-0.03293242	0.0005799603	0.0007017709
	0.0004386122	0.0006013862	-0.06743066	-0.1104425	0.0002241877	0.000773611	-0.02856638	-0.03210191
	-0.02710015	-0.03425655	0.0002308865	0.0007653387	-0.06963036	-0.1091992	0.0004688509	0.0006187698
	0.0005775909	0.0007075129	-0.02825288	-0.03231104	0.0004665817	0.0006369999	-0.06960741	-0.1106238
3.6e+08	-0.09287552	-0.0712653	0.0007661881	0.0003343189	-0.006928003	-0.005080708	0.0009089892	0.0003940871
	0.0007698015	0.0003199057	-0.09312887	-0.07109739	0.0007579462	0.0006448386	-0.008644287	-0.003498344
	-0.008551439	-0.00584407	0.00075611	0.0006368028	-0.09384401	-0.06830813	0.0008051123	0.0003125418
	0.0009115773	0.0004045984	-0.008523029	-0.003867813	0.0008153581	0.0003303713	-0.09439532	-0.07043406
3.7e+08	-0.08353768	-0.02736426	0.0008504233	-0.0001397907	0.02633826	-0.00326495	0.001048082	-0.0001037407
	0.000850066	-0.0001559373	-0.08397652	-0.02752696	0.001085103	6.964948e-05	0.02547748	-0.001608032
	0.02446772	-0.003104417	0.001080462	6.758499e-05	-0.08244478	-0.02475223	0.0008696749	-0.0001819977
	0.001060379	-9.543114e-05	0.02533714	-0.001956751	0.0008895457	-0.0001736937	-0.08412467	-0.02700639
3.8e+08	-0.04936057	-0.0061713	0.0006280344	-0.0005357647	0.04742127	-0.02854579	0.0008810601	-0.000619731
	0.0006200658	-0.000553371	-0.0502134	-0.006390877	0.0008951482	-0.0005661868	0.04707813	-0.02735474
	0.04591586	-0.0274922	0.0008940397	-0.0005652965	-0.04716495	-0.005330643	0.000620022	-0.0005782943
	0.0008984485	-0.0006225643	0.04676937	-0.02749657	0.0006405721	-0.0005833825	-0.04990323	-0.006769638
3.9e+08	-0.01640493	-0.01595287	0.0003011197	-0.0007058996	0.03943336	-0.06010291	0.0004808678	-0.0009578916
	0.0002829874	-0.0007189822	-0.01753919	-0.01580547	0.0004145886	-0.0008475297	0.03905	-0.05946279
	0.03873446	-0.05858543	0.0004155786	-0.0008498084	-0.01484353	-0.0170158	0.0002772011	-0.0007338278
	0.0004924394	-0.0009727255	0.03878417	-0.05934316	0.0002903751	-0.0007485169	-0.01777683	-0.0169696
4e+08	-0.005660335	-0.04256331	1.495891e-05	-0.0007556615	0.00955973	-0.07173821	4.541883e-06	-0.00106586
	-9.04325e-06	-0.0007569513	-0.006548371	-0.04191355	3.055173e-05	-0.0008284266	0.008764732	-0.07131633
	0.009710441	-0.07035667	2.727555e-05	-0.000833439	-0.005889554	-0.04423164	-1.229981e-05	-0.0007711059
	3.501372e-06	-0.001084259	0.008725075	-0.07106514	-8.684873e-06	-0.0007886579	-0.007812991	-0.04292267
4.1e+08	-0.01896883	-0.06272927	-0.000304387	-0.000762107	-0.01669055	-0.05406873	-0.0004615807	-0.0009821153
	-0.0003252196	-0.0007501858	-0.01911631	-0.06201025	-0.000231971	-0.0007877179	-0.01786242	-0.05342042
	-0.01604987	-0.05327856	-0.000240751	-0.000788373	-0.02063829	-0.06331989	-0.0003355845	-0.0007706892
	-0.0004727184	-0.0009946094	-0.01765718	-0.05326385	-0.0003396831	-0.0007869155	-0.02086576	-0.06189
4.2e+08	-0.04012718	-0.06176033	-0.000699156	-0.0005958684	-0.01676328	-0.02209764	-0.0008841641	-0.000711086
	-0.0007102083	-0.0005762182	-0.0395976	-0.06176717	-0.0005828145	-0.000721947	-0.01796396	-0.0210209
	-0.01618289	-0.02198941	-0.0005899467	-0.0007140712	-0.04167497	-0.06056804	-0.000737982	-0.0005913939
	-0.0008979584	-0.0007146545	-0.01767606	-0.02112311	-0.000748513	-0.0006047427	-0.04062829	-0.06037797
4.3e+08	-0.04866827	-0.04397883	-0.0009735913	-0.0001491536	0.01105325	-0.003014253	-0.001170227	-0.0002301935
	-0.0009745508	-0.0001287126	-0.0482221	-0.04524721	-0.0009747718	-0.0003827006	0.01014032	-0.001675817
	0.01111553	-0.003279007	-0.0009727541	-0.0003716711	-0.04858578	-0.0418766	-0.001009961	-0.0001213345
	-0.001181955	-0.0002278166	0.0102765	-0.002021027	-0.001026837	-0.0001290746	-0.04764245	-0.04354704
4.4e+08	-0.0370678	-0.02821512	-0.0008921512	0.0003998022	0.0458289	-0.01524878	-0.001167799	0.0003751024
	-0.0008860407	0.0004180152	-0.03774537	-0.03050353	-0.001063791	0.000223632	0.04521437	-0.01395345
	0.04526024	-0.01533554	-0.0010544	0.0002281851	-0.035187	-0.02699206	-0.0009070954	0.0004458283
	-0.001177608	0.0003808105	0.04505334	-0.01435155	-0.0009272641	0.0004484053	-0.03579588	-0.02986554
4.5e+08	-0.01688706	-0.03039201	-0.0005189441	0.0007313096	0.05925666	-0.05331258	-0.0008405393	0.0008861756
	-0.0005065713	0.0007472587	-0.01927707	-0.03267124	-0.0007286819	0.0007135056	0.05872362	-0.0521773
	0.05837895	-0.05273051	-0.0007214701	0.0007092163	-0.01461502	-0.03127107	-0.0005065039	0.000775347
	-0.0008484893	0.0008962164	0.05831111	-0.0523914	-0.0005220265	0.0007896685	-0.01725601	-0.03374744
4.6e+08	-0.007141251	-0.04922413	-0.0001509689	0.0007827063	0.03814101	-0.0906146	-0.0003379204	0.001145444
	-0.0001306651	0.0007939153	-0.01086036	-0.05027581	-0.0002823108	0.0008463625	0.0375396	-0.0895101
	0.03755901	-0.08923811	-0.0002828797	0.0008408554	-0.00635364	-0.05176794	-0.0001232297	0.0008113674
	-0.0003402845	0.001160325	0.03708067	-0.08941779	-0.0001269548	0.0008312476	-0.01010238	-0.05238878
4.7e+08	-0.01693893	-0.0685051	9.919009e-05	0.0007658681	-0.004305751	-0.1001767	0.0001773181	0.001167903
	0.0001260608	0.0007660034	-0.02078787	-0.06775483	9.205603e-06	0.0008157635	-0.004892362	-0.09892468
	-0.00403915	-0.09833981	5.814321e-06	0.0008165185	-0.0184218	-0.07089844	0.0001313191	0.0007819161
	0.0001846331	0.001183148	-0.005178726	-0.09859211	0.0001387035	0.0007978408	-0.02151863	-0.06937943
4.8e+08	-0.03809338	-0.07138101	0.0003971403	0.0007693811	-0.03873459	-0.07555201	0.0006595881	0.001018067
	0.0004225915	0.000753485	-0.04080281	-0.06933994	0.0002796881	0.0008400071	-0.03905229	-0.07417022
