!$
! Info: Touchstone file created by Circ.  Input file=Tx_NPC_250mm_32AWG_BPK_700mm_27AWG_BPK_250mm_32AWG_NPC_Rx.circ
!$
# Hz S RI R 50
0	0.08341347	1.129439e-16	-3.120044e-05	-1.487416e-19	0.001908825	3.678706e-16	-3.971633e-05	-2.00789e-18
	-4.14404e-05	4.89e-20	0.03005796	-2.018816e-16	-3.393074e-05	-7.205633e-21	0.003126035	-4.499641e-16
	0.003180639	7.447647e-16	-3.501449e-05	1.129345e-19	0.0596879	-3.325909e-16	-5.150957e-05	2.024609e-18
	-3.246693e-05	-1.549086e-18	0.003224148	-2.577401e-16	-4.057749e-05	8.100657e-20	0.05440402	4.984201e-16
1e+07	0.06284203	-0.000763714	-0.0001002905	1.806118e-05	0.01936983	0.03276971	-5.410808e-05	-1.075118e-05
	-0.0001134833	1.895582e-05	0.06299893	-0.001160424	-2.432988e-06	2.204553e-05	0.0195168	0.0326795
	0.02022491	0.0323881	-2.414596e-06	2.395909e-05	0.06193857	-0.0007282118	-0.0001196226	2.428769e-05
	-4.991474e-05	-1.610263e-05	0.01955871	0.03268227	-0.0001100962	1.944144e-05	0.06429513	-0.002093983
2e+07	0.06835411	-0.01042012	-0.0001079476	6.250257e-06	0.05375491	0.04430846	-7.320156e-05	-1.101836e-05
	-0.0001241813	1.34056e-05	0.06819475	-0.01103942	6.041096e-06	9.216177e-05	0.05387532	0.04417441
	0.05411829	0.04341584	8.59362e-06	9.373829e-05	0.06734724	-0.01024139	-0.0001252612	1.949422e-05
	-7.448792e-05	-1.686107e-05	0.05387936	0.04412729	-0.0001187443	1.086553e-05	0.06868208	-0.01259245
3e+07	0.06623787	-0.02556223	-0.0001173711	1.943411e-05	0.08477558	0.0272349	-9.908749e-05	4.119135e-06
	-0.0001307147	3.674324e-05	0.06558036	-0.02624505	4.383084e-05	0.0001196926	0.08475445	0.0270468
	0.08449112	0.02607631	4.752516e-05	0.0001187373	0.0651081	-0.02518175	-0.0001293177	3.978913e-05
	-0.000103383	1.870115e-06	0.08469275	0.02695764	-0.0001271723	2.876457e-05	0.06514494	-0.02776753
4e+07	0.05352485	-0.0383297	-0.0001296692	4.390362e-05	0.09294494	-0.007503572	-0.0001225162	3.915778e-05
	-0.0001319854	6.836112e-05	0.05236956	-0.03873245	7.188025e-05	0.0001193441	0.09281099	-0.007704372
	0.09209224	-0.008252621	7.419519e-05	0.0001158156	0.05231905	-0.03762666	-0.0001324331	6.894833e-05
	-0.0001255781	4.049502e-05	0.09269255	-0.007742081	-0.0001357803	5.750887e-05	0.05121925	-0.03968256
5e+07	0.03401275	-0.04048682	-0.0001418574	9.104783e-05	0.07285143	-0.03642034	-0.0001322579	9.867602e-05
	-0.0001298584	0.0001134894	0.03254662	-0.04022248	9.619455e-05	0.0001198051	0.07263811	-0.03659149
	0.0718909	-0.03652037	9.58825e-05	0.0001157331	0.03289153	-0.03935394	-0.000133334	0.0001159939
	-0.0001323839	0.000100242	0.07252972	-0.03655421	-0.0001423968	0.0001070618	0.03118582	-0.04037693
6e+07	0.0167482	-0.02863026	-0.0001246353	0.000168378	0.03759634	-0.04007616	-0.0001049607	0.0001778681
	-0.0001033209	0.0001798513	0.01546678	-0.02754352	0.0001385568	0.0001283586	0.03733091	-0.04012245
	0.0368428	-0.03959955	0.0001364085	0.0001255635	0.01590065	-0.02703872	-0.0001058033	0.0001876178
	-0.0001044806	0.0001769033	0.03725259	-0.04001115	-0.0001188776	0.0001844527	0.01441637	-0.02693257
7e+07	0.01207298	-0.006678963	-4.387811e-05	0.0002420232	0.01120721	-0.0144624	-1.904653e-05	0.0002458818
	-2.294025e-05	0.0002406692	0.01152788	-0.00492283	0.0002191461	0.0001135094	0.01100168	-0.01440262
	0.01098488	-0.01372022	0.0002168138	0.0001120328	0.01175414	-0.004736002	-1.84743e-05	0.0002513005
	-2.154205e-05	0.000243678	0.01100233	-0.01425399	-3.161463e-05	0.0002558409	0.01116272	-0.003920898
8e+07	0.02502337	0.01418381	0.0001041458	0.0002457674	0.01347325	0.02499863	0.0001116583	0.0002528873
	0.000118147	0.0002374151	0.02561304	0.01606307	0.0003080179	2.717405e-05	0.01339738	0.02507224
	0.01379948	0.02559692	0.0003056639	2.582248e-05	0.02540629	0.01621964	0.0001305937	0.0002432515
	0.0001059035	0.0002538597	0.01348897	0.02520249	0.0001222747	0.0002543125	0.02599714	0.01695197
9e+07	0.05107634	0.02156456	0.0002183318	0.0001491948	0.0465667	0.05271655	0.000225944	0.0001813192
	0.0002265936	0.0001408609	0.05274737	0.02280628	0.000331405	-0.0001248976	0.04659327	0.05268294
	0.04720693	0.05285981	0.0003276692	-0.0001261139	0.05217133	0.02335992	0.000240418	0.0001363196
	0.0002214229	0.00018825	0.04675442	0.05274457	0.0002398845	0.0001494528	0.05363681	0.02317112
1e+08	0.07796345	0.009659465	0.0002359546	1.75852e-05	0.09320739	0.04945385	0.0002804174	6.98223e-05
	0.0002440138	1.043313e-05	0.08015799	0.009679941	0.0002601086	-0.0002611785	0.09320524	0.04923727
	0.09375542	0.04904665	0.0002545074	-0.0002602176	0.07959218	0.01091028	0.0002502936	-1.932708e-06
	0.0002826904	8.003696e-05	0.09337874	0.04919735	0.0002565601	8.067882e-06	0.08112784	0.009347595
1.1e+08	0.09288288	-0.01764505	0.0001876037	-5.817808e-05	0.1277761	0.01407409	0.0002845796	-3.397417e-05
	0.000197754	-6.910106e-05	0.09478503	-0.01893123	0.0001332913	-0.0002962194	0.1276013	0.01373013
	0.1279086	0.01328525	0.0001279683	-0.0002910313	0.09473868	-0.0170855	0.0001934662	-8.018712e-05
	0.0002949256	-2.729835e-05	0.1277303	0.01359773	0.0002025145	-7.604856e-05	0.09537386	-0.01986371
1.2e+08	0.08878529	-0.04917291	0.0001578567	-7.939398e-05	0.1312943	-0.03659552	0.0002690892	-0.0001242647
	0.0001652911	-9.913794e-05	0.08967782	-0.05131915	4.221978e-05	-0.0002644413	0.1308622	-0.03691979
	0.1308236	-0.03741274	4.092272e-05	-0.0002555834	0.09052988	-0.04929115	0.0001562693	-0.0001012372
	0.0002825843	-0.0001269748	0.1308948	-0.03709865	0.0001639902	-0.0001021144	0.0896122	-0.05248229
1.3e+08	0.06692483	-0.07204144	0.0001735475	-0.0001159721	0.1012598	-0.07738168	0.0002415523	-0.0002216779
	0.0001691624	-0.0001428892	0.06654643	-0.07423848	1.91247e-05	-0.0002413114	0.1006043	-0.07749393
	0.1002562	-0.07783602	2.430007e-05	-0.0002326161	0.06827938	-0.07262955	0.0001653085	-0.0001365357
	0.0002498717	-0.0002338846	0.1005349	-0.07765296	0.000169902	-0.0001394545	0.06581029	-0.0751737
1.4e+08	0.03639268	-0.07622162	0.0001720554	-0.0002242885	0.05305407	-0.08761102	0.0001726274	-0.0003397172
	0.0001500624	-0.0002481616	0.03507874	-0.07767883	-2.741649e-06	-0.0002884105	0.05235311	-0.08736141
	0.05181044	-0.0874166	7.499015e-06	-0.0002849499	0.03726235	-0.07694566	0.0001565385	-0.0002423937
	0.0001697366	-0.0003546777	0.05221767	-0.08744461	0.0001590054	-0.0002446695	0.03393224	-0.07798987
1.5e+08	0.01195321	-0.05926611	5.760861e-05	-0.000358716	0.01303541	-0.06243332	1.941957e-05	-0.0004435408
	2.247006e-05	-0.0003661835	0.01048461	-0.05961215	-0.0001225137	-0.0003601032	0.01256727	-0.06181992
	0.01199616	-0.06152038	-0.0001125619	-0.0003644108	0.01248412	-0.05980184	3.394047e-05	-0.0003708717
	6.72255e-06	-0.0004515995	0.01243061	-0.06180791	3.679588e-05	-0.0003720891	0.009408437	-0.05912801
1.6e+08	0.007660104	-0.03001921	-0.000170522	-0.0003848228	0.004523236	-0.01751268	-0.0002097624	-0.000450813
	-0.0002042098	-0.0003696356	0.006886283	-0.02953566	-0.0003374508	-0.000319571	0.004540309	-0.01676616
	0.004080248	-0.01610647	-0.0003334911	-0.0003288345	0.008211952	-0.03024796	-0.0001997842	-0.0003854494
	-0.0002233005	-0.000446892	0.004460954	-0.0166874	-0.000195127	-0.0003879058	0.006378721	-0.02840825
1.7e+08	0.02799737	-0.006386128	-0.0003697633	-0.0002292865	0.03272046	0.01830961	-0.0004210511	-0.0003114501
	-0.0003871347	-0.0001985757	0.02831989	-0.005879698	-0.0004934104	-9.925181e-05	0.03324234	0.01880031
	0.03307234	0.01976835	-0.0004964843	-0.0001071043	0.02891189	-0.00650437	-0.0003971005	-0.0002151703
	-0.000425929	-0.000299914	0.03324254	0.01888608	-0.0003925438	-0.0002216876	0.02870747	-0.004570488
1.8e+08	0.06263996	-0.004826672	-0.0004001386	5.910033e-06	0.07977699	0.02121856	-0.0005128761	-8.15304e-05
	-0.000397131	3.691936e-05	0.06377579	-0.005164758	-0.0004451164	0.0001752901	0.08051917	0.02113552
	0.08079596	0.02226682	-0.0004506844	0.0001728833	0.06400553	-0.005259827	-0.0004168882	3.125434e-05
	-0.0005073584	-7.238296e-05	0.0805743	0.02117441	-0.0004167413	2.101195e-05	0.06501786	-0.004239175
1.9e+08	0.09264826	-0.02963467	-0.0002909613	0.0001543899	0.1166032	-0.01191952	-0.0004777368	0.0001323974
	-0.0002754071	0.0001743911	0.09379441	-0.03124778	-0.0002428854	0.000309743	0.1171287	-0.0126077
	0.1179173	-0.01155551	-0.0002458785	0.0003110354	0.09419906	-0.03077772	-0.000293654	0.0001824257
	-0.0004686326	0.0001325451	0.1171881	-0.01263483	-0.0003004557	0.0001728573	0.09551095	-0.03111707
2e+08	0.1018615	-0.07147035	-0.0001892596	0.0001768964	0.1216948	-0.06325332	-0.0003822464	0.0002802234
	-0.0001721644	0.0001849218	0.1021323	-0.07413755	-7.80412e-05	0.0002615871	0.1216612	-0.06427677
	0.1228623	-0.06357078	-7.788962e-05	0.0002619794	0.1030977	-0.07344432	-0.0001810695	0.0002004132
	-0.0003781342	0.0002730081	0.1216792	-0.0643512	-0.0001927867	0.0001966005	0.1037973	-0.07489184
2.1e+08	0.08408789	-0.113635	-0.0001777783	0.0001793557	0.09216132	-0.1066237	-0.0002783453	0.000384234
	-0.0001647136	0.0001815407	0.08296599	-0.1166348	-7.089177e-05	0.0001741016	0.09148099	-0.1075638
	0.09286045	-0.1073709	-7.123614e-05	0.0001714439	0.08450343	-0.1161969	-0.0001641681	0.0001963918
	-0.0002827199	0.0003769904	0.09144037	-0.1076453	-0.0001755866	0.000200142	0.08412628	-0.118023
2.2e+08	0.04417256	-0.1393342	-0.0001926419	0.0002719774	0.04253501	-0.1217827	-0.0001610465	0.0004835754
	-0.0001816441	0.000274134	0.0417006	-0.1417695	-0.0001512146	0.0002188543	0.04140196	-0.1222542
	0.04264729	-0.1225838	-0.0001556374	0.0002156372	0.0435077	-0.1419401	-0.0001762798	0.0002843444
	-0.0001703009	0.0004832545	0.04131314	-0.1223067	-0.0001827032	0.0002931582	0.04217194	-0.1433504
2.3e+08	-0.003502394	-0.137364	-9.752998e-05	0.000439716	-0.003711134	-0.1030867	1.628358e-05	0.0005779089
	-8.325835e-05	0.0004417136	-0.006728511	-0.1385807	-0.0001212335	0.0004151697	-0.004886863	-0.1029015
	-0.004056783	-0.1035764	-0.0001292207	0.000416359	-0.005102594	-0.1393888	-7.735913e-05	0.0004481954
	9.873689e-06	0.0005858261	-0.004997443	-0.1029078	-7.752097e-05	0.0004571941	-0.006813218	-0.1399095
2.4e+08	-0.03910684	-0.107697	0.0001662778	0.0005326184	-0.02514501	-0.06154889	0.0002844057	0.0005984396
	0.0001856786	0.0005283195	-0.04222289	-0.107574	0.0001459305	0.0005736323	-0.0258901	-0.06083849
	-0.02561919	-0.0615123	0.0001396911	0.0005819642	-0.04109568	-0.1087324	0.0001912642	0.0005340053
	0.0002866024	0.0006089799	-0.02599967	-0.0608008	0.0001945928	0.0005393497	-0.04247654	-0.1084105
2.5e+08	-0.04609174	-0.06462077	0.0004792978	0.0004009467	-0.01301049	-0.02026078	0.0005822898	0.0004499193
	0.0004979076	0.0003842219	-0.04839278	-0.06361752	0.0005252171	0.000458297	-0.01303293	-0.01948467
	-0.01320074	-0.01973909	0.0005270752	0.0004704718	-0.04776935	-0.06474457	0.000505363	0.0003904821
	0.0005916697	0.0004549285	-0.01313159	-0.0194087	0.0005077118	0.0003923397	-0.04837461	-0.06406927
2.6e+08	-0.02221113	-0.03163653	0.0006270998	7.732931e-05	0.02252155	-0.002620456	0.0007634221	0.000128024
	0.0006344356	4.979896e-05	-0.02352836	-0.03052381	0.0007139555	7.098691e-05	0.02309638	-0.002366621
	0.02290896	-0.001930533	0.0007250727	7.880357e-05	-0.02313208	-0.03141483	0.0006462059	5.489728e-05
	0.0007723026	0.0001243192	0.02301548	-0.002251859	0.0006457616	5.726518e-05	-0.02299546	-0.03097954
2.7e+08	0.01679454	-0.02758422	0.0005342985	-0.000227399	0.05700675	-0.01750932	0.0007340261	-0.0002363684
	0.0005244676	-0.0002554192	0.01608874	-0.02694125	0.0005713178	-0.0003007945	0.05764557	-0.01812966
	0.05799296	-0.01710503	0.0005851162	-0.0003036098	0.01650275	-0.02772286	0.0005408446	-0.0002553092
	0.0007359188	-0.000243991	0.05760162	-0.01797041	0.0005407981	-0.0002489619	0.01700227	-0.0278728
2.8e+08	0.04663821	-0.05441527	0.0003446276	-0.0003664562	0.06776987	-0.05286101	0.0005456298	-0.0005041809
	0.0003217244	-0.0003836619	0.04596644	-0.05435166	0.0002928072	-0.0004138596	0.06782191	-0.05423393
	0.06906619	-0.05310775	0.0003000854	-0.000425563	0.04635607	-0.05527741	0.0003398605	-0.0003925052
	0.0005413442	-0.0005081605	0.06784738	-0.05404166	0.000345377	-0.0003837095	0.04681121	-0.05598994
2.9e+08	0.04923402	-0.09728872	0.0002144521	-0.0004035676	0.048931	-0.08487123	0.0003083203	-0.0006472792
	0.0001887032	-0.0004057381	0.0482026	-0.09751633	0.0001544272	-0.0003431966	0.04799618	-0.08646513
	0.05008317	-0.08587246	0.0001512445	-0.0003556023	0.0482698	-0.09864366	0.000202563	-0.0004254414
	0.0003043524	-0.0006446222	0.04811775	-0.08627978	0.0002153613	-0.0004200879	0.04848507	-0.09970045
3e+08	0.02110779	-0.1341544	0.0001293882	-0.0004721503	0.01300626	-0.09442998	7.401678e-05	-0.0007144572
	0.0001094098	-0.0004630541	0.01966678	-0.1342716	0.0001866366	-0.000348301	0.01112937	-0.0955889
	0.01359039	-0.0960027	0.000176797	-0.0003538928	0.01915241	-0.1353075	0.0001113351	-0.0004907284
	7.619813e-05	-0.0007089476	0.0113436	-0.09547119	0.0001275897	-0.0004943718	0.01913829	-0.1365347
3.1e+08	-0.02650029	-0.146403	-3.310366e-05	-0.0005839661	-0.0192937	-0.07743287	-0.0001774544	-0.0007380722
	-4.468753e-05	-0.0005705783	-0.02813499	-0.1461375	0.0001632677	-0.0005493363	-0.02166384	-0.07768646
	-0.01951209	-0.07918708	0.0001542164	-0.0005466663	-0.02915927	-0.1466031	-5.947962e-05	-0.0005972798
	-0.0001689627	-0.0007368298	-0.0214042	-0.07769173	-4.68409e-05	-0.0006110684	-0.02932785	-0.1479766
3.2e+08	-0.07304187	-0.1268489	-0.000328665	-0.0006124228	-0.03135572	-0.04450187	-0.0004771881	-0.000683461
	-0.0003344346	-0.0005995245	-0.07455115	-0.1261608	-0.0001321037	-0.0007741762	-0.03358335	-0.0437799
	-0.032365	-0.04598812	-0.0001353414	-0.0007677225	-0.07561228	-0.1257241	-0.0003627776	-0.0006137539
	-0.0004684404	-0.0006911507	-0.0333622	-0.04392595	-0.0003599544	-0.0006335714	-0.07597966	-0.1273182
3.3e+08	-0.09775314	-0.0836503	-0.0006548769	-0.0004272304	-0.0184754	-0.01399596	-0.0007881729	-0.0004727904
	-0.0006584016	-0.0004149283	-0.09891147	-0.08273312	-0.0006367247	-0.0007144396	-0.02004216	-0.01265231
	-0.02001593	-0.01484321	-0.0006348791	-0.0007101081	-0.09934977	-0.08149951	-0.0006887062	-0.0004104836
	-0.0007872849	-0.0004872867	-0.01994799	-0.01289374	-0.0006976354	-0.0004289823	-0.1001053	-0.08331907
3.4e+08	-0.09055713	-0.03727321	-0.0008203698	-4.577089e-05	0.01026889	-0.002347903	-0.0009847105	-8.296394e-05
	-0.0008219208	-3.138969e-05	-0.09136316	-0.036396	-0.001013537	-0.0002609118	0.009507124	-0.0009747653
	0.008622407	-0.00239245	-0.001011487	-0.0002607922	-0.0907161	-0.0349765	-0.0008416524	-1.319449e-05
	-0.0009953667	-9.591932e-05	0.009432039	-0.001206034	-0.0008589502	-2.366287e-05	-0.09208634	-0.03681069
3.5e+08	-0.05837452	-0.009575274	-0.0007272893	0.0003510676	0.03661467	-0.01488965	-0.0009488694	0.0003820273
	-0.0007232506	0.0003682535	-0.05900783	-0.008872792	-0.0009809716	0.0003348961	0.03636953	-0.01399593
	0.03530449	-0.0142419	-0.0009823805	0.000334102	-0.05739737	-0.00812845	-0.0007292311	0.0003879653
	-0.0009666934	0.00037913	0.03617181	-0.01409784	-0.0007483294	0.0003880884	-0.05941673	-0.009542166
3.6e+08	-0.0210653	-0.01101435	-0.0004723478	0.0005936993	0.04387864	-0.04179585	-0.0006874413	0.0007594983
	-0.0004593494	0.0006096246	-0.02169418	-0.01038985	-0.0006156388	0.0007107058	0.04361606	-0.04153736
	0.0431855	-0.04080682	-0.0006187671	0.0007136298	-0.01990033	-0.01089744	-0.0004593547	0.0006233202
	-0.0007031465	0.0007687143	0.04342204	-0.04145248	-0.000474557	0.0006318642	-0.0222249	-0.01146016
3.7e+08	0.0009394068	-0.03529348	-0.0002132946	0.0006864858	0.02828988	-0.06400372	-0.0003114161	0.0009621905
	-0.000192639	0.0006948702	0.000385587	-0.03457862	-0.0002337287	0.0007742063	0.02754517	-0.06412948
	0.02822273	-0.06310377	-0.0002332111	0.0007810603	0.001291961	-0.03614685	-0.0001946728	0.0007066329
	-0.0003179058	0.0009781957	0.02749561	-0.06390998	-0.0002037893	0.0007194643	-0.000682193	-0.03576095
3.8e+08	-0.00192534	-0.0647429	1.999668e-05	0.0007309559	0.00156267	-0.06629596	8.091702e-05	0.001004657
	4.247299e-05	0.0007282602	-0.0021545	-0.06395011	-9.800494e-06	0.0007287217	0.0001905781	-0.06632148
	0.001873007	-0.06581236	-2.707626e-06	0.0007342726	-0.002793583	-0.06558425	4.104313e-05	0.0007464862
	8.429317e-05	0.001019745	0.000352159	-0.06611049	3.747035e-05	0.0007607023	-0.003798302	-0.06468661
3.9e+08	-0.02448599	-0.08112546	0.000303597	0.0007385841	-0.01756365	-0.04736896	0.0004592598	0.0009235463
	0.0003215831	0.0007262631	-0.02421139	-0.08056279	0.0001723932	0.0007527584	-0.01933004	-0.04686642
	-0.01725548	-0.0474004	0.0001827938	0.0007512446	-0.02612042	-0.08099035	0.0003315716	0.0007506008
	0.0004682253	0.0009331505	-0.01901033	-0.0468206	0.000332915	0.0007652776	-0.02598562	-0.08039989
4e+08	-0.05094821	-0.07551617	0.0006471231	0.0006031611	-0.01571149	-0.01986985	0.0008167786	0.000711124
	0.0006574987	0.0005857388	-0.0503079	-0.07563284	0.0004933068	0.0007622449	-0.01742342	-0.01871334
	-0.01575921	-0.02026639	0.0004998994	0.0007531075	-0.05230523	-0.07408277	0.0006845888	0.0006037616
	0.0008267958	0.0007154575	-0.01709752	-0.0189162	0.0006917016	0.0006181118	-0.05150592	-0.07458036
4.1e+08	-0.06442418	-0.05288515	0.0009141153	0.0002510031	0.007219412	-0.00211177	0.001095491	0.0003348288
	0.0009173692	0.0002324453	-0.06391902	-0.05396181	0.0009021995	0.0005293998	0.005939143	-0.0005229897
	0.006626736	-0.002533442	0.000900223	0.0005184017	-0.0645228	-0.05072412	0.0009527322	0.000230727
	0.001105232	0.0003362121	0.006094931	-0.0009323006	0.0009667629	0.000241893	-0.0640061	-0.05258395
4.2e+08	-0.0573068	-0.02859052	0.0009344741	-0.0002221287	0.0380153	-0.007160718	0.001181345	-0.0001740435
	0.0009321094	-0.0002405042	-0.05760181	-0.03049372	0.00111956	7.807959e-06	0.03725178	-0.005524546
	0.03693131	-0.007205364	0.00111103	2.255932e-06	-0.05587877	-0.02686591	0.0009585197	-0.0002621589
	0.001192012	-0.0001751672	0.03712857	-0.0059863	0.0009779663	-0.0002588379	-0.05660112	-0.02961036
4.3e+08	-0.03583412	-0.01801391	0.0006917522	-0.0006010604	0.05749641	-0.03466447	0.001003975	-0.0006793919
	0.0006834045	-0.0006192168	-0.03740299	-0.02013167	0.0009562228	-0.0005478204	0.05705549	-0.03325666
	0.05622639	-0.03402514	0.0009482128	-0.0005456167	-0.0335769	-0.01777196	0.0006915458	-0.0006468995
	0.001015498	-0.0006854118	0.05667497	-0.03357744	0.0007108415	-0.0006544935	-0.03594762	-0.02032784
4.4e+08	-0.01503718	-0.0263016	0.0003544203	-0.0007615637	0.05220526	-0.07005937	0.0006200378	-0.001030805
	0.0003380571	-0.0007774855	-0.017829	-0.02778593	0.0005449118	-0.0008494444	0.05181248	-0.06890607
	0.05120465	-0.06866809	0.0005427989	-0.0008440773	-0.01323993	-0.02776684	0.0003343586	-0.0007980837
	0.0006286995	-0.001043648	0.05132083	-0.06895454	0.0003465796	-0.0008146071	-0.01680357	-0.02899859
4.5e+08	-0.007987204	-0.04589336	8.096897e-05	-0.0007813588	0.02346586	-0.09311122	0.0001580476	-0.00117563
	5.626558e-05	-0.000789876	-0.0113623	-0.04610432	0.000166035	-0.0008837117	0.02297273	-0.09204562
	0.02316623	-0.09118779	0.0001684956	-0.0008816846	-0.007735328	-0.04826735	5.237646e-05	-0.0008040173
	0.0001586336	-0.001193069	0.02256331	-0.09182094	5.409215e-05	-0.0008230284	-0.01132679	-0.04760823
4.6e+08	-0.01757394	-0.06256996	-0.0001499047	-0.0007932216	-0.0130738	-0.09062071	-0.0002943412	-0.001150716
	-0.0001786029	-0.0007886672	-0.02058425	-0.06145814	-8.658435e-05	-0.0008528697	-0.01360428	-0.08945933
	-0.01243664	-0.08861403	-8.569847e-05	-0.0008558924	-0.01903997	-0.06448503	-0.0001812913	-0.0008060681
	-0.0003041318	-0.001166471	-0.01379138	-0.08908488	-0.0001878914	-0.0008212753	-0.02136556	-0.06231972
4.7e+08	-0.03517044	-0.06484846	-0.0004583909	-0.0007818893	-0.03702959	-0.06451338	-0.0007214595	-0.0009906915
	-0.0004826876	-0.0007624111	-0.03706358	-0.06304471	-0.0003595438	-0.0008579252	-0.03738438	-0.06322892
	-0.03550682	-0.06294194	-0.0003646121	-0.0008611739	-0.03746722	-0.0652192	-0.000494679	-0.0007861919
	-0.0007385239	-0.0009981559	-0.03732838	-0.06287965	-0.0005045339	-0.0007957253	-0.03778382	-0.06273821
4.8e+08	-0.04598287	-0.05159936	-0.0008482789	-0.0005881569	-0.03512533	-0.03050092	-0.001112054	-0.0006690115
	-0.0008596075	-0.0005582001	-0.04663603	-0.05011741	-0.0007667127	-0.0007431506	-0.03513522	-0.02931782
