!$
! Info: Touchstone file created by Circ.  Input file=Tx_NPC_250mm_32AWG_BPK_300mm_27AWG_BPK_250mm_32AWG_NPC_Rx.circ
!$
# Hz S RI R 50
0	0.07467458	-1.291448e-17	-6.858015e-05	1.32996e-19	0.002552202	1.089192e-15	-1.443836e-05	-1.231049e-18
	-4.656598e-05	1.539664e-19	0.01857136	-2.084274e-16	-6.101262e-05	9.500871e-20	0.002762973	-4.555383e-16
	0.001878873	2.75883e-17	-9.246022e-05	3.311325e-20	0.04645664	-5.180006e-16	-3.281226e-05	1.495889e-18
	-2.911652e-06	-3.143319e-18	0.002868009	-2.609257e-16	-1.811176e-05	4.650125e-18	0.04331838	4.687244e-16
1e+07	0.05357875	0.004262687	-9.612673e-05	-2.214724e-05	0.01342073	0.02673558	-6.189333e-05	2.205826e-05
	-7.602185e-05	-2.939708e-05	0.05160926	0.004229019	-5.828063e-05	-2.284362e-05	0.01291265	0.02663516
	0.01286668	0.02670535	-9.073006e-05	-1.379436e-05	0.04859209	0.005273161	-3.262609e-05	-2.693622e-05
	-5.12308e-05	1.66524e-05	0.0129575	0.02665096	-1.853127e-05	-3.204743e-05	0.05309273	0.00356197
2e+07	0.06167705	0.00206298	-0.0001183533	-5.92974e-07	0.03626356	0.04399905	-6.008095e-05	0.0001116021
	-0.0001022579	-1.367407e-05	0.05946879	0.002147832	-8.11508e-05	-2.742511e-05	0.03569846	0.04424576
	0.03565698	0.04413298	-0.000110915	-8.864407e-06	0.05714556	0.004290929	-5.271722e-05	-2.909752e-05
	-5.372876e-05	0.0001032527	0.03573055	0.04421269	-4.121851e-05	-3.861603e-05	0.06053287	0.00088444
3e+07	0.06847287	-0.006238744	-0.0001316497	3.190226e-05	0.06471725	0.04543696	-5.258615e-05	0.0001457876
	-0.0001210782	1.508032e-05	0.06596894	-0.005934378	-0.0001086694	-1.866947e-05	0.06397313	0.0460633
	0.06399347	0.04582192	-0.0001326447	9.520494e-06	0.06466691	-0.003043755	-7.861953e-05	-2.346725e-05
	-5.077513e-05	0.0001376809	0.06399636	0.04596375	-7.099048e-05	-3.627898e-05	0.06645784	-0.007515216
4e+07	0.07066649	-0.01877447	-0.0001302332	6.780184e-05	0.08947767	0.03001727	-3.029169e-05	0.000171515
	-0.0001255598	4.95344e-05	0.06790278	-0.01801543	-0.00013479	2.71412e-06	0.08886124	0.03086458
	0.08881254	0.03062473	-0.0001490507	3.921973e-05	0.06778568	-0.01499068	-9.95723e-05	-7.646221e-06
	-3.115509e-05	0.000166067	0.0888413	0.03075816	-9.663103e-05	-2.227519e-05	0.06774552	-0.01962407
5e+07	0.06654575	-0.03204708	-0.0001191439	9.940502e-05	0.1018291	0.003683077	-3.208104e-06	0.0001873904
	-0.0001198484	8.163421e-05	0.06356859	-0.03059647	-0.0001573784	3.595469e-05	0.1014612	0.004584174
	0.1013379	0.004447946	-0.0001581995	7.723147e-05	0.06456046	-0.02789091	-0.0001178664	1.345014e-05
	-3.830436e-06	0.0001851733	0.1014114	0.004506844	-0.0001199564	-1.40763e-06	0.06285158	-0.03203487
6e+07	0.0561992	-0.04274568	-0.0001062808	0.0001281337	0.09778416	-0.02528424	2.14806e-05	0.0002000144
	-0.0001113241	0.0001120213	0.05329269	-0.04044692	-0.0001739758	8.287345e-05	0.0976769	-0.02429124
	0.09753455	-0.024357	-0.0001592127	0.0001233485	0.05510604	-0.03849187	-0.0001377327	4.313067e-05
	2.361884e-05	0.0001992652	0.09758816	-0.0243437	-0.0001447019	2.965826e-05	0.05215241	-0.0414848
7e+07	0.04172027	-0.04752213	-9.18657e-05	0.0001631016	0.07863008	-0.04703912	4.712035e-05	0.0002203884
	-0.0001002699	0.0001491849	0.0392175	-0.04423589	-0.0001774309	0.0001464572	0.07882869	-0.04607605
	0.07868167	-0.04607588	-0.0001477954	0.0001794409	0.04140617	-0.04326597	-0.0001551133	9.176886e-05
	5.276858e-05	0.0002179697	0.07872443	-0.04608484	-0.0001663424	8.12476e-05	0.03785395	-0.04477594
8e+07	0.02647858	-0.04458598	-6.353453e-05	0.0002104261	0.0507286	-0.05421946	8.883136e-05	0.0002528854
	-7.472088e-05	0.0001988131	0.02481782	-0.04034067	-0.0001539108	0.0002255655	0.05123816	-0.05339879
	0.05108042	-0.05334831	-0.0001134407	0.0002450001	0.02689126	-0.04037957	-0.0001527972	0.0001650475
	9.621681e-05	0.0002455722	0.05113803	-0.05335748	-0.0001671306	0.0001588122	0.0234337	-0.04036369
9e+07	0.01467715	-0.03394657	-6.69822e-06	0.0002692363	0.0236951	-0.04399044	0.0001650937	0.0002855199
	-2.056627e-05	0.0002601396	0.01432614	-0.02900462	-9.018587e-05	0.0003053997	0.02447488	-0.0434297
	0.02428378	-0.04332134	-4.563382e-05	0.0003077077	0.0158203	-0.02984408	-0.0001071846	0.000251239
	0.0001702593	0.000271799	0.02440023	-0.0433406	-0.0001230221	0.0002501759	0.01310946	-0.02855452
1e+08	0.01038361	-0.01794136	9.559675e-05	0.0003075482	0.00749524	-0.01935902	0.0002816252	0.000295513
	7.90526e-05	0.0003017377	0.01172061	-0.01277169	1.757942e-05	0.0003613381	0.008418539	-0.01919527
	0.008194146	-0.0189711	5.844834e-05	0.0003467152	0.01231968	-0.01397113	-6.466003e-06	0.0003175721
	0.0002799897	0.0002768728	0.008394234	-0.01907726	-2.197265e-05	0.0003219556	0.01082519	-0.0119461
1.1e+08	0.01594577	-0.0009965134	0.0002232084	0.0002893388	0.00883819	0.01136974	0.0003950768	0.0002413041
	0.0002043583	0.0002880975	0.01914764	0.003739719	0.0001541385	0.0003672446	0.009709642	0.0111137
	0.00951725	0.01148852	0.0001848832	0.0003396255	0.01880015	0.002654699	0.0001323864	0.0003257768
	0.0003835106	0.0002222517	0.009746617	0.01124025	0.0001189603	0.0003351987	0.01867345	0.004783878
1.2e+08	0.03113135	0.01147732	0.0003366745	0.0001993716	0.028725	0.0372884	0.0004827806	0.000110412
	0.0003169141	0.000204069	0.03604632	0.0150133	0.0002891874	0.0003104285	0.02935756	0.03669058
	0.02926684	0.03720857	0.0003064813	0.0002760118	0.03494162	0.01453815	0.000264504	0.0002577148
	0.0004615353	9.691911e-05	0.02945502	0.03679046	0.0002546448	0.0002712986	0.03603495	0.01611444
1.3e+08	0.0527099	0.01488004	0.0003911173	6.032887e-05	0.06179033	0.04871195	0.000497956	-6.173781e-05
	0.0003727311	7.167798e-05	0.05886146	0.016563	0.0003889447	0.0002006379	0.06207136	0.04793526
	0.06214527	0.04855308	0.0003930503	0.0001656009	0.05739246	0.01701228	0.0003422456	0.0001327388
	0.0004709288	-6.466949e-05	0.06221227	0.04798133	0.0003371135	0.0001492962	0.05929038	0.0175644
1.4e+08	0.07549997	0.006889166	0.0003697373	-7.908788e-05	0.09823213	0.04053422	0.000427352	-0.0002191786
	0.0003553882	-6.157977e-05	0.08215706	0.006303705	0.0004346744	6.613676e-05	0.09815711	0.0397731
	0.0984268	0.04041639	0.0004283579	3.474041e-05	0.08080984	0.007767415	0.00034529	-1.091325e-06
	0.0004007544	-0.0002096326	0.09831241	0.03974919	0.0003457944	1.701281e-05	0.08295884	0.007072411
1.5e+08	0.09391688	-0.01194364	0.0002951754	-0.0001732179	0.1271953	0.01377037	0.0003003658	-0.0003116639
	0.000287132	-0.0001513293	0.1002027	-0.01488485	0.0004299891	-6.311094e-05	0.1268539	0.01318423
	0.1273106	0.01377372	0.0004166506	-8.915515e-05	0.09947445	-0.01254698	0.000293217	-9.704306e-05
	0.0002803661	-0.000291549	0.1269878	0.01308936	0.0003000279	-7.915974e-05	0.1012884	-0.01445081
1.6e+08	0.1033707	-0.03853479	0.0002142729	-0.0002075771	0.1401927	-0.02509408	0.0001729079	-0.0003232921
	0.0002137756	-0.0001838476	0.1085003	-0.04357619	0.0003935213	-0.0001704699	0.1397558	-0.02543385
	0.1403459	-0.02495399	0.0003755895	-0.000191332	0.1087065	-0.04070565	0.0002310334	-0.0001382808
	0.0001634766	-0.0002973712	0.1398392	-0.02558256	0.0002443112	-0.000122834	0.109728	-0.04353956
1.7e+08	0.1012189	-0.06821873	0.0001677837	-0.0002055566	0.1334099	-0.06638572	9.614773e-05	-0.0002808856
	0.0001749123	-0.0001827245	0.1045176	-0.07480625	0.0003448299	-0.000256907	0.1330378	-0.06651032
	0.1337005	-0.06615785	0.0003231397	-0.0002731864	0.1058428	-0.07185768	0.0001991581	-0.0001459897
	9.797077e-05	-0.0002549784	0.1330511	-0.06668454	0.0002182477	-0.0001355555	0.1057574	-0.07518284
1.8e+08	0.08699544	-0.09563872	0.000165274	-0.0002127325	0.1083872	-0.1000636	8.865512e-05	-0.0002399929
	0.0001791525	-0.0001931381	0.0880789	-0.103024	0.0002929634	-0.0003352279	0.1081898	-0.1000897
	0.1088764	-0.09984925	0.0002672501	-0.0003466636	0.09047245	-0.1004723	0.0002079869	-0.0001640521
	9.939149e-05	-0.0002189206	0.1081302	-0.100256	0.0002310044	-0.000161146	0.08919577	-0.1037811
1.9e+08	0.0625314	-0.1155853	0.0001779904	-0.0002681314	0.07131568	-0.1183105	0.000123876	-0.0002559588
	0.0001971994	-0.0002535049	0.06133185	-0.1229553	0.00023168	-0.0004197213	0.0713163	-0.1183964
	0.07200242	-0.1182357	0.0002017896	-0.0004246087	0.06454997	-0.1211998	0.0002300441	-0.0002310927
	0.0001394056	-0.0002421949	0.07119666	-0.1185254	0.0002537977	-0.0002374773	0.06221201	-0.1240091
2e+08	0.0319183	-0.1238659	0.0001528746	-0.0003779449	0.03134289	-0.117392	0.0001387092	-0.0003518525
	0.0001757676	-0.0003694719	0.02867291	-0.130434	0.0001409914	-0.0005140517	0.03146767	-0.1176728
	0.03215606	-0.1175709	0.0001081938	-0.0005096712	0.03233382	-0.1297565	0.0002129741	-0.0003541326
	0.0001548111	-0.0003451411	0.03131087	-0.1177455	0.0002333239	-0.000370037	0.02924993	-0.1316731
2.1e+08	0.001108414	-0.1183102	4.194723e-05	-0.0005041464	-0.001734914	-0.09856134	6.357123e-05	-0.0004966375
	6.682567e-05	-0.000502618	-0.00367227	-0.1235154	-2.381049e-06	-0.0006015938	-0.001619392	-0.09910874
	-0.000923785	-0.09906702	-3.470436e-05	-0.0005854946	-1.919905e-05	-0.1239704	0.000108316	-0.0004964755
	7.753734e-05	-0.0004946475	-0.001785487	-0.09912112	0.0001210817	-0.000519976	-0.003422924	-0.1247978
2.2e+08	-0.02299941	-0.09994233	-0.0001644288	-0.0005764354	-0.01997829	-0.06785768	-0.0001342125	-0.0006085555
	-0.0001394502	-0.0005823812	-0.02864285	-0.1034422	-0.0002075053	-0.0006440225	-0.02001652	-0.06865252
	-0.01932819	-0.06868624	-0.0002341346	-0.0006155959	-0.02543325	-0.1049334	-9.584848e-05	-0.0005885426
	-0.0001228291	-0.0006082887	-0.02017045	-0.06861209	-9.363715e-05	-0.0006156834	-0.02867665	-0.1046424
2.3e+08	-0.03445888	-0.0733996	-0.0004195681	-0.0005283825	-0.01960571	-0.03466358	-0.0004161934	-0.0005940941
	-0.0003966498	-0.0005419583	-0.04025614	-0.07518756	-0.0004514559	-0.0005956726	-0.01990038	-0.03562238
	-0.01926222	-0.03572897	-0.0004667413	-0.0005572594	-0.03782778	-0.07744294	-0.000355788	-0.0005626381
	-0.0004057399	-0.0005935301	-0.02002988	-0.03554331	-0.0003647507	-0.0005883016	-0.04047733	-0.0762057
2.4e+08	-0.03039617	-0.04625965	-0.0006350668	-0.0003414398	-0.002381592	-0.009106236	-0.0006778943	-0.0004085201
	-0.0006166432	-0.0003621612	-0.03575093	-0.04661886	-0.0006775957	-0.0004319658	-0.002970996	-0.01012291
	-0.002431368	-0.01025551	-0.000677334	-0.0003888515	-0.03429033	-0.04927137	-0.0005852041	-0.0003965608
	-0.0006658656	-0.0004077274	-0.003073898	-0.01001781	-0.0006032773	-0.0004160436	-0.03602493	-0.04741219
2.5e+08	-0.01251254	-0.02687794	-0.0007292409	-6.625985e-05	0.02464315	0.001193641	-0.000804958	-9.756238e-05
	-0.0007177573	-9.271758e-05	-0.01704032	-0.02628313	-0.0008198566	-0.0001728374	0.02377076	0.000206509
	0.02420273	0.0001395069	-0.0008028233	-0.0001320507	-0.01658717	-0.02894456	-0.0007018424	-0.0001358738
	-0.0007896619	-9.871496e-05	0.02369249	0.0003331769	-0.0007250782	-0.0001463493	-0.01723188	-0.02689218
2.6e+08	0.01314603	-0.02146593	-0.0006792832	0.0002033264	0.0513981	-0.006155908	-0.0007482738	0.0002212704
	-0.0006767231	0.0001735246	0.009514401	-0.02046482	-0.0008399025	0.0001220357	0.05026458	-0.007064397
	0.05065601	-0.006966403	-0.0008083307	0.0001536042	0.009089451	-0.02279909	-0.0006789964	0.0001296862
	-0.0007301281	0.0002149222	0.05021177	-0.006915387	-0.0007030516	0.0001286179	0.009504054	-0.020985
2.7e+08	0.03808733	-0.03209307	-0.0005335737	0.000389563	0.06836182	-0.02751905	-0.0005579685	0.0004319837
	-0.0005409826	0.0003595907	0.03518269	-0.03113027	-0.0007465569	0.000386359	0.06697523	-0.02830968
	0.0674634	-0.02800598	-0.0007055124	0.0004036197	0.03408339	-0.03288582	-0.000559196	0.000323662
	-0.0005397232	0.0004178119	0.06695793	-0.02813513	-0.0005807326	0.0003305614	0.03537848	-0.03170743
2.8e+08	0.05417053	-0.05608082	-0.000372363	0.0004771388	0.06995139	-0.05476292	-0.0003475358	0.0004940112
	-0.0003895421	0.0004504874	0.05165415	-0.05540443	-0.0005824632	0.0005812675	0.06830777	-0.05538086
	0.06904752	-0.05493073	-0.0005385181	0.0005819314	0.05013178	-0.05643808	-0.000417175	0.000428313
	-0.0003334795	0.0004713494	0.06834336	-0.05518564	-0.0004343015	0.0004410399	0.05199759	-0.05616887
2.9e+08	0.05585415	-0.08715187	-0.0002500497	0.0005098474	0.05612815	-0.07845279	-0.0002165373	0.0004606295
	-0.0002755087	0.000489779	0.05336105	-0.0867779	-0.0003930422	0.0007050469	0.05424098	-0.07881423
	0.05533171	-0.07837288	-0.0003528218	0.0006897923	0.0516645	-0.08703337	-0.0003043062	0.0004825798
	-0.0002110629	0.0004313557	0.05434791	-0.0786163	-0.0003162163	0.0004991789	0.05373352	-0.08780891
3e+08	0.04139991	-0.1172757	-0.0001646121	0.0005473047	0.03183055	-0.09112377	-0.0001889023	0.0004360306
	-0.0001957711	0.0005363702	0.03865799	-0.1170404	-0.0002030728	0.0007789018	0.0297611	-0.09113227
	0.03119421	-0.09089918	-0.000172032	0.0007508931	0.0370261	-0.1165071	-0.0002187209	0.0005408639
	-0.0001950848	0.000404233	0.02994966	-0.09096379	-0.0002250466	0.0005598085	0.03891239	-0.118339
3.1e+08	0.01315945	-0.1386414	-6.958147e-05	0.0006186271	0.00484162	-0.08942147	-0.0002015389	0.0005046203
	-0.0001031103	0.0006183337	0.01003797	-0.1382701	-1.127314e-05	0.0008246012	0.002699358	-0.08900379
	0.004353922	-0.08914826	7.098866e-06	0.0007886186	0.008697402	-0.1369961	-0.0001167359	0.000628518
	-0.0002201895	0.0004756301	0.002961844	-0.0889047	-0.0001171444	0.0006483877	0.01006033	-0.1397619
3.2e+08	-0.02309388	-0.1454398	8.727358e-05	0.0007022969	-0.01690703	-0.0745722	-0.0001450309	0.0006746027
	5.499823e-05	0.0007129373	-0.02655645	-0.1446431	0.0002001133	0.0008466101	-0.01897283	-0.07370445
	-0.01729809	-0.07431143	0.0002045779	0.000807998	-0.02736173	-0.1427272	5.028756e-05	0.0007227112
	-0.000174348	0.0006536931	-0.0186662	-0.07371281	5.601517e-05	0.0007419057	-0.0268348	-0.1462129
3.3e+08	-0.05931273	-0.1353431	0.0003259149	0.0007379965	-0.02756098	-0.05158674	6.833905e-05	0.0008638652
	0.0002984125	0.000758643	-0.06294236	-0.1338881	0.0004468924	0.0008243176	-0.02939541	-0.05030937
	-0.02792244	-0.05134992	0.0004382829	0.0007880442	-0.06298443	-0.1315209	0.0002992348	0.0007639447
	3.242221e-05	0.0008550095	-0.0290955	-0.05044762	0.0003108673	0.000780546	-0.06351989	-0.1354069
3.4e+08	-0.08716591	-0.1103396	0.0006142523	0.0006600804	-0.02478113	-0.02755758	0.0004420583	0.0009382757
	0.0005945359	0.0006887151	-0.09069324	-0.1080917	0.0007218941	0.0007190562	-0.02624906	-0.02597192
	-0.02516405	-0.02731071	0.0007025813	0.0006890059	-0.08980325	-0.1055714	0.0005965466	0.0006884639
	0.0004049757	0.0009432162	-0.02601859	-0.02623528	0.000613085	0.0007005239	-0.09151215	-0.1094559
3.5e+08	-0.1003515	-0.07648137	0.0008755603	0.0004366035	-0.01020942	-0.00965738	0.0008755501	0.0007874864
	0.0008658263	0.0004703715	-0.1034606	-0.07342839	0.0009829293	0.0004968772	-0.01121553	-0.007918627
	-0.01062654	-0.009340969	0.0009560897	0.0004755269	-0.1015884	-0.07115025	0.0008656303	0.0004659792
	0.0008428579	0.0008053666	-0.01111315	-0.008268574	0.0008853094	0.0004719804	-0.104436	-0.07457911
3.6e+08	-0.0965966	-0.04235005	0.001022398	9.528616e-05	0.01096887	-0.003155827	0.001206702	0.0003982578
	0.001023802	0.0001307721	-0.09898739	-0.03860812	0.001162076	0.0001573965	0.01045662	-0.00145771
	0.01055261	-0.002709791	0.001131025	0.0001458593	-0.09628024	-0.03698499	0.001019952	0.0001248644
	0.001182801	0.0004259731	0.01039541	-0.001826294	0.001040481	0.0001241055	-0.1000268	-0.0395414
3.7e+08	-0.07853469	-0.01637365	0.001003487	-0.0002819919	0.03149849	-0.00972661	0.00130132	-0.0001242939
	0.001016101	-0.0002483344	-0.07994761	-0.01216733	0.001197588	-0.0002520934	0.03142714	-0.008283836
	0.03115548	-0.009123005	0.00116527	-0.0002536352	-0.07675535	-0.01154714	0.001008938	-0.0002536345
	0.001288593	-9.115025e-05	0.03120637	-0.008588131	0.001028043	-0.0002609683	-0.08099266	-0.01291305
3.8e+08	-0.05281826	-0.004154647	0.0008339996	-0.0006007547	0.04427424	-0.02674037	0.001132444	-0.0006115608
	0.0008568369	-0.000572341	-0.05308274	0.0002060036	0.001068001	-0.0006524201	0.0444848	-0.02574173
	0.04409092	-0.02599982	0.001036974	-0.0006442537	-0.04992014	-0.0003258845	0.0008473745	-0.000576114
	0.001131079	-0.0005774216	0.04415271	-0.02590856	0.0008630859	-0.0005891287	-0.0541173	-0.0003929214
3.9e+08	-0.02779703	-0.006723822	0.0005827907	-0.0008067167	0.04486738	-0.04795999	0.0007914486	-0.0009299393
	0.0006139115	-0.0007865809	-0.02684642	-0.002568305	0.0008026186	-0.000970017	0.04510716	-0.04750541
	0.04491139	-0.0471533	0.0007753636	-0.000952654	-0.02427075	-0.00413262	0.0006024468	-0.000789034
	0.0008000495	-0.0008982307	0.04474593	-0.04749555	0.0006132136	-0.0008063833	-0.02788964	-0.003034231
4e+08	-0.01069304	-0.02052735	0.0003224598	-0.0009085617	0.03320203	-0.06572447	0.0004202077	-0.001051799
	0.0003590509	-0.0008991684	-0.008560336	-0.01696767	0.0004603501	-0.001167681	0.03318196	-0.06577178
	0.03349462	-0.06495356	0.0004396127	-0.001142107	-0.007043405	-0.01916301	0.0003449135	-0.0009000148
	0.0004368087	-0.001024581	0.03288452	-0.06559501	0.0003495577	-0.0009200092	-0.00963935	-0.01725424
4.1e+08	-0.005408398	-0.03896655	8.263105e-05	-0.0009525551	0.0135678	-0.07371478	0.0001172069	-0.001048603
	0.0001210191	-0.0009554832	-0.002255756	-0.03637562	9.619295e-05	-0.001247972	0.01305449	-0.07406752
	0.01407459	-0.07308147	8.48454e-05	-0.00121624	-0.002016512	-0.03859252	0.0001034248	-0.000953136
	0.0001401716	-0.001026959	0.01289509	-0.07378059	0.0001012435	-0.0009736631	-0.003349585	-0.03639647
4.2e+08	-0.01155705	-0.05469323	-0.0001568847	-0.000972312	-0.006976428	-0.06924332	-0.0001140522	-0.001018291
	-0.0001209688	-0.0009878975	-0.007658708	-0.05343609	-0.0002603959	-0.001232982	-0.008078756	-0.06961081
	-0.006337759	-0.06881675	-0.0002600208	-0.001198598	-0.008598759	-0.05498198	-0.0001416799	-0.0009795097
	-8.582409e-05	-0.001003142	-0.00806621	-0.06930138	-0.0001506437	-0.0009981022	-0.00866198	-0.05308779
4.3e+08	-0.02484846	-0.06200903	-0.0004320078	-0.0009557622	-0.02116085	-0.05400046	-0.0003428009	-0.001003955
	-0.0004029679	-0.0009826856	-0.02062076	-0.06237412	-0.000604338	-0.001138371	-0.02277833	-0.05409107
	-0.02049317	-0.05379708	-0.0005914826	-0.001106073	-0.02228415	-0.0626584	-0.0004242367	-0.0009652985
	-0.0003103091	-0.0009966983	-0.02261062	-0.05385057	-0.0004388398	-0.0009794994	-0.02134006	-0.06161236
4.4e+08	-0.038578	-0.05868756	-0.0007489	-0.0008507443	-0.02387908	-0.0333889	-0.0006366369	-0.0009598392
	-0.0007304794	-0.0008859477	-0.03456505	-0.0608323	-0.0009359073	-0.0009580908	-0.02580347	-0.03300491
	-0.0232733	-0.03337016	-0.0009121308	-0.0009328826	-0.03621959	-0.05954369	-0.0007476654	-0.0008581486
	-0.0006016108	-0.0009623629	-0.02554198	-0.03290182	-0.000765638	-0.0008662003	-0.03475749	-0.05973035
4.5e+08	-0.04592363	-0.04682755	-0.001058311	-0.0006035051	-0.01376063	-0.01476563	-0.0009868506	-0.0007873554
	-0.001052765	-0.0006425953	-0.04276142	-0.0507224	-0.001235582	-0.0006696252	-0.01573106	-0.01385366
	-0.01326761	-0.01485427	-0.001204771	-0.0006553922	-0.04355877	-0.04794443	-0.001060392	-0.0006057268
	-0.0009523707	-0.0008013466	-0.01546323	-0.01391424	-0.001078882	-0.0006072598	-0.04220968	-0.04949735
4.6e+08	-0.04250666	-0.03232194	-0.001266883	-0.0002063368	0.006356088	-0.005217081	-0.001287504	-0.000420007
	-0.001274426	-0.0002443969	-0.04081791	-0.03766862	-0.001450626	-0.0002602713	0.004573635	-0.003861024
	0.00674087	-0.005328253	-0.001418106	-0.0002585426	-0.04003268	-0.03393375	-0.001267944	-0.0002029161
	-0.001258011	-0.0004458477	0.00476092	-0.004061294	-0.001284551	-0.0001990807	-0.03942638	-0.03666985
4.7e+08	-0.02830986	-0.02280902	-0.001283821	0.0002742594	0.03003853	-0.009364439	-0.001392479	0.0001000484
	-0.001302709	0.0002415385	-0.02862152	-0.02907505	-0.001509677	0.0002403854	0.02858617	-0.007739752
	0.03036863	-0.009437747	-0.001480596	0.0002308693	-0.02585349	-0.02523329	-0.001280237	0.0002811013
	-0.001372844	6.421105e-05	0.02863222	-0.008014307	-0.001293944	0.0002882385	-0.02647912	-0.02869979
4.8e+08	-0.008107924	-0.02471304	-0.001080975	0.0007149112	0.04905151	-0.02761663	-0.00122111	0.0006181496
	-0.00110814	0.0006904519	-0.01071199	-0.03115963	-0.001364019	0.0007497832	0.04796155	-0.02593166
