!$
! Info: Touchstone file created by Circ.  Input file=Tx_NPC_250mm_32AWG_BPK_1400mm_27AWG_BPK_250mm_32AWG_NPC_Rx.circ
!$
# Hz S RI R 50
0	0.04983207	-1.447931e-16	2.70214e-06	2.12449e-19	0.003836944	-3.42706e-15	1.967576e-07	-4.443998e-21
	2.388365e-07	-1.321344e-21	0.04952451	-1.910093e-16	-8.330646e-07	1.942135e-19	0.003719229	-4.406122e-16
	0.003771985	-9.213266e-16	7.328547e-07	1.632958e-20	0.06882299	3.229375e-15	1.406903e-06	-1.951853e-19
	1.025836e-06	-6.135713e-22	0.003805893	-2.528436e-16	-9.631726e-09	7.218312e-22	0.07319197	5.509967e-16
1e+07	0.07986622	-0.01426152	2.985607e-06	-2.01456e-07	0.03257381	0.04076445	2.574282e-07	2.595608e-07
	8.514843e-07	7.900004e-07	0.078561	-0.01561836	-2.531659e-07	8.533944e-07	0.03316003	0.03904385
	0.03301847	0.03936006	8.402719e-07	-1.446749e-07	0.07626507	-0.0143436	1.634878e-06	6.47872e-08
	1.075192e-06	6.193605e-08	0.03319087	0.03902521	2.324857e-07	2.944232e-07	0.07940786	-0.01689684
2e+07	0.0710118	-0.03642522	2.695637e-06	-1.089382e-06	0.07973723	0.02803635	3.458787e-07	2.884295e-07
	1.331652e-06	4.334026e-07	0.06752928	-0.03735313	5.812927e-07	5.917729e-07	0.07851419	0.02679143
	0.07873494	0.02704639	6.683158e-07	-6.267251e-07	0.06650696	-0.03574445	2.02556e-06	-3.272733e-07
	1.06412e-06	-4.936282e-08	0.07846343	0.02675205	6.192721e-07	1.270572e-07	0.0669169	-0.03874978
3e+07	0.04349447	-0.04783302	1.200688e-06	-1.341496e-06	0.082308	-0.01904247	1.881735e-07	3.506701e-07
	5.826964e-07	1.241086e-07	0.03884961	-0.0461187	4.504113e-07	-1.132894e-07	0.0807979	-0.01854982
	0.08166521	-0.01867995	-1.308382e-07	-7.186602e-07	0.03863614	-0.04527873	2.061602e-06	-1.11624e-06
	8.308603e-07	-5.731072e-08	0.08066511	-0.01851811	6.3087e-07	-3.452761e-07	0.03753124	-0.04632453
4e+07	0.01557262	-0.03123829	5.21864e-08	1.261258e-07	0.03881028	-0.03552191	5.435818e-08	7.015212e-07
	-2.546448e-07	1.196911e-06	0.01256298	-0.02661556	-2.661475e-07	1.602695e-08	0.03771494	-0.03415403
	0.03848505	-0.03483667	-6.678738e-07	1.764285e-07	0.01186163	-0.02662256	1.525287e-06	-1.843134e-06
	6.951073e-07	2.008261e-07	0.03764783	-0.03401006	2.033095e-07	-5.942647e-07	0.0119077	-0.02561948
5e+07	0.01590116	0.002048031	1.019802e-06	1.711974e-06	0.009246355	0.003395927	2.914944e-07	1.03217e-06
	5.166801e-07	2.575591e-06	0.01630359	0.007401706	-2.125818e-07	8.326279e-07	0.009103093	0.004688806
	0.00933701	0.003965742	1.045859e-07	1.115167e-06	0.01453413	0.007656929	6.986497e-07	-2.102762e-06
	9.124839e-07	3.273679e-07	0.009163805	0.004820307	-1.801541e-07	-3.75932e-07	0.01703408	0.008328358
6e+07	0.04660247	0.01673877	2.709582e-06	8.691077e-07	0.03840559	0.04760957	5.468506e-07	8.866797e-07
	1.95328e-06	2.084453e-06	0.0493344	0.01984769	6.248702e-07	9.152738e-07	0.03878795	0.04835869
	0.03863207	0.04790241	1.35507e-06	5.459331e-07	0.04737432	0.02147384	-2.311874e-08	-1.920323e-06
	9.787679e-07	-8.556035e-08	0.0389297	0.04839526	-2.026075e-07	-6.593822e-08	0.0506976	0.01952453
7e+07	0.07406214	-0.00454594	1.862147e-06	-1.591612e-06	0.09445087	0.03787241	2.418351e-07	6.104787e-07
	1.382852e-06	3.16897e-07	0.07619025	-0.004016506	8.196566e-07	7.754397e-08	0.09458814	0.03802606
	0.09453121	0.0379906	1.125454e-06	-1.056466e-06	0.07539277	-0.001379259	-4.269504e-07	-1.501372e-06
	2.948101e-07	-4.945755e-07	0.09469157	0.03794651	-4.751559e-08	4.365661e-08	0.07676861	-0.005564064
8e+07	0.06829561	-0.03903188	-1.785699e-06	-1.944923e-06	0.1103181	-0.0183538	-4.112535e-07	8.877856e-07
	-1.334485e-06	3.595888e-07	0.06817505	-0.03874311	-1.080659e-07	-3.055507e-07	0.1099207	-0.01815622
	0.1102414	-0.01814808	-7.72589e-07	-1.532779e-06	0.06888265	-0.03644859	-4.776667e-07	-1.175297e-06
	-7.508111e-07	-7.748949e-08	0.1099063	-0.01826199	2.960929e-08	-6.275185e-08	0.06725307	-0.04027416
9e+07	0.03514082	-0.04944902	-4.457841e-06	1.626839e-06	0.06606142	-0.05543869	-6.294289e-07	1.814501e-06
	-2.896894e-06	3.530189e-06	0.0341535	-0.04684634	-8.79806e-07	7.053826e-07	0.06555509	-0.05463436
	0.06603706	-0.05503681	-2.244412e-06	2.406629e-07	0.03535398	-0.04583466	-4.669379e-07	-1.147746e-06
	-1.129918e-06	1.17395e-06	0.06546308	-0.05465052	-1.302247e-07	-1.603624e-07	0.03242569	-0.04705772
1e+08	0.01250977	-0.02218121	-2.549504e-06	5.814e-06	0.01654901	-0.02694554	1.329494e-07	2.517099e-06
	-4.677792e-07	6.627036e-06	0.01378519	-0.01740295	5.879087e-08	1.96081e-06	0.01669652	-0.02572993
	0.01675842	-0.0264819	-1.109617e-06	2.507636e-06	0.01423875	-0.01718886	-6.502527e-07	-1.318204e-06
	-2.408175e-07	2.093598e-06	0.01665779	-0.02563586	-3.034049e-07	-4.520024e-08	0.01278348	-0.0162111
1.1e+08	0.03192168	0.01128889	1.600481e-06	5.40824e-06	0.02891055	0.03131572	9.468479e-07	1.96796e-06
	3.263796e-06	5.244483e-06	0.0368237	0.0151655	1.725799e-06	1.255107e-06	0.02983709	0.03216753
	0.02932506	0.03165089	1.440841e-06	2.16566e-06	0.03648728	0.01581962	-1.256161e-06	-1.484857e-06
	7.246047e-07	1.436107e-06	0.02993068	0.03226658	-3.782805e-07	4.254051e-08	0.03737893	0.01640652
1.2e+08	0.07506657	0.006886591	1.765474e-06	1.307617e-06	0.0928524	0.04156879	4.003853e-07	1.034096e-06
	2.663628e-06	1.000453e-06	0.08144337	0.007119738	1.435418e-06	-7.35312e-07	0.09390658	0.04161583
	0.09331763	0.04170371	1.805861e-06	-3.570547e-07	0.08139333	0.008687363	-2.205661e-06	-1.01155e-06
	9.084845e-09	2.353346e-07	0.09407002	0.04158977	-5.653275e-07	2.181058e-07	0.08274512	0.007058816
1.3e+08	0.0943911	-0.03551089	-3.045496e-06	-1.302059e-07	0.1329223	-0.01483422	-9.349149e-07	1.289655e-06
	-2.387509e-06	4.932033e-08	0.09889027	-0.03843645	-7.447929e-07	-1.1851e-06	0.1335345	-0.01527414
	0.1333436	-0.01483505	-5.810712e-07	-1.561728e-06	0.09994401	-0.03670909	-2.588745e-06	1.918774e-07
	-1.821443e-06	4.699411e-07	0.1336267	-0.01543074	-5.606402e-07	5.984822e-07	0.09939945	-0.03970662
1.4e+08	0.06910571	-0.07538945	-7.315766e-06	4.391988e-06	0.1024053	-0.07829005	-1.554594e-06	2.782271e-06
	-6.132563e-06	4.89238e-06	0.07048263	-0.07849061	-2.241875e-06	8.338083e-07	0.1025359	-0.07867857
	0.10278	-0.07836819	-2.901971e-06	3.370724e-07	0.07233461	-0.07764238	-2.085241e-06	1.275909e-06
	-2.89735e-06	2.409101e-06	0.1024796	-0.0788474	-3.186875e-07	8.571388e-07	0.06952428	-0.07958327
1.5e+08	0.02329676	-0.07373662	-5.313942e-06	1.111709e-05	0.03403725	-0.08018455	-5.299864e-07	4.282277e-06
	-3.359326e-06	1.113891e-05	0.02349862	-0.07455388	-8.281381e-07	3.367681e-06	0.03408909	-0.08019637
	0.03436922	-0.08032848	-2.068083e-06	3.652721e-06	0.02510685	-0.07476567	-1.101849e-06	1.696519e-06
	-1.869038e-06	4.6254e-06	0.03394816	-0.0802497	3.354143e-08	9.646934e-07	0.02199923	-0.07413778
1.6e+08	0.007360513	-0.03194491	1.671695e-06	1.219313e-05	0.007754964	-0.02022047	1.340002e-06	3.858243e-06
	3.75332e-06	1.103493e-05	0.00942418	-0.03119416	2.448165e-06	2.790842e-06	0.008236541	-0.02013189
	0.008019788	-0.02041349	1.612975e-06	4.12206e-06	0.01030637	-0.03164463	-3.3003e-07	1.128432e-06
	5.428358e-07	4.659876e-06	0.008152085	-0.02006736	4.135791e-07	6.383093e-07	0.009123837	-0.02945376
1.7e+08	0.04387502	-0.002223297	4.517506e-06	6.190539e-06	0.05653328	0.02322195	1.240886e-06	1.842134e-06
	5.706473e-06	4.073055e-06	0.04836091	-0.003022807	2.797577e-06	-8.652279e-07	0.05733204	0.02280652
	0.05674358	0.02303993	3.125421e-06	7.325559e-07	0.04905452	-0.003144826	-8.958854e-07	3.722353e-07
	1.032517e-06	2.473166e-06	0.05736429	0.02286599	2.679285e-08	1.32842e-07	0.04991004	-0.001723437
1.8e+08	0.09038496	-0.02674455	-7.247079e-07	2.081179e-06	0.1171517	-0.008986794	-9.321395e-07	1.439811e-06
	-7.568119e-07	-2.203506e-08	0.09468541	-0.03092592	-7.582253e-07	-2.387473e-06	0.1176831	-0.01001151
	0.1173921	-0.009152529	4.161625e-07	-1.562058e-06	0.0956963	-0.03108252	-1.94024e-06	1.08874e-06
	-1.090781e-06	1.571101e-06	0.1177506	-0.01005466	-6.231897e-07	5.895573e-07	0.09676285	-0.03142566
1.9e+08	0.09351063	-0.08392803	-6.938747e-06	5.998755e-06	0.1149174	-0.08081547	-2.323261e-06	3.289181e-06
	-7.62777e-06	4.623702e-06	0.09481327	-0.09012489	-3.673049e-06	3.090723e-07	0.1148655	-0.08205923
	0.1152317	-0.08107328	-2.64823e-06	1.265223e-07	0.09588359	-0.09080277	-1.732653e-06	2.60923e-06
	-2.964823e-06	3.248675e-06	0.1148557	-0.08217731	-3.861766e-07	1.422702e-06	0.09566048	-0.09187435
2e+08	0.0469455	-0.1202695	-6.203325e-06	1.4142e-05	0.05125103	-0.1147643	-1.586796e-06	5.536327e-06
	-6.774024e-06	1.344825e-05	0.04491705	-0.125447	-2.626934e-06	4.345104e-06	0.05070676	-0.1158013
	0.05153234	-0.1152328	-2.431388e-06	3.838322e-06	0.04548632	-0.1265192	-3.793434e-07	3.569319e-06
	-2.688889e-06	5.972948e-06	0.05059055	-0.1158921	4.169594e-07	1.762668e-06	0.04420294	-0.1266757
2.1e+08	-0.007407597	-0.1011267	1.922299e-06	1.746385e-05	-0.006666577	-0.07697306	8.507703e-07	6.079178e-06
	1.817639e-06	1.684867e-05	-0.01045269	-0.1035139	1.85488e-06	5.255148e-06	-0.007319753	-0.07765434
	-0.006631944	-0.07761891	1.459182e-06	5.348679e-06	-0.01041138	-0.1042827	1.470156e-06	3.270146e-06
	-8.862098e-08	7.359355e-06	-0.00747563	-0.07764674	1.404978e-06	1.369647e-06	-0.01126809	-0.1030455
2.2e+08	-0.01295845	-0.04725959	8.200872e-06	1.100758e-05	0.00409991	-0.01333908	2.221399e-06	3.740189e-06
	8.199917e-06	9.884966e-06	-0.01449139	-0.04794889	4.476381e-06	9.171315e-07	0.003641661	-0.01394786
	0.003785999	-0.01390199	4.464996e-06	1.846009e-06	-0.01414695	-0.04823741	2.280714e-06	1.420332e-06
	2.179737e-06	5.486406e-06	0.003529442	-0.01385563	1.58962e-06	-1.195119e-08	-0.01357095	-0.04668257
2.3e+08	0.03544936	-0.02547665	3.789725e-06	3.143848e-06	0.06526002	-0.004265975	-2.299883e-08	1.748403e-06
	3.179558e-06	1.595678e-06	0.0354613	-0.02702809	7.721176e-07	-3.055807e-06	0.06478878	-0.00517723
	0.06480742	-0.004500689	1.815698e-06	-2.114072e-06	0.03648493	-0.02785331	9.23166e-07	2.224686e-07
	8.89087e-07	3.051831e-06	0.06475038	-0.005062843	1.609351e-07	-6.297443e-07	0.03802418	-0.02716828
2.4e+08	0.07573686	-0.06598399	-5.073892e-06	5.045317e-06	0.0938335	-0.06008753	-2.709787e-06	3.35362e-06
	-6.557663e-06	3.748047e-06	0.07512973	-0.069356	-4.234376e-06	-7.546756e-07	0.09293322	-0.06121949
	0.09356809	-0.06008197	-2.578572e-06	-7.750444e-07	0.07568576	-0.07142833	-2.146751e-07	1.193849e-06
	-1.621904e-06	3.710364e-06	0.09294681	-0.06112932	-7.176895e-07	5.641605e-07	0.07720312	-0.07172606
2.5e+08	0.05810805	-0.1263232	-6.710063e-06	1.404038e-05	0.05378366	-0.1103901	-2.581962e-06	6.294368e-06
	-8.686174e-06	1.356386e-05	0.05515367	-0.1300593	-4.20702e-06	4.662169e-06	0.05233299	-0.1113441
	0.05376442	-0.1104738	-2.955511e-06	3.582328e-06	0.05402509	-0.1323864	3.646891e-07	2.505438e-06
	-2.10639e-06	6.110497e-06	0.05236543	-0.1112919	-5.948281e-09	1.697035e-06	0.05509254	-0.1331079
2.6e+08	-0.00508256	-0.1464984	7.996195e-07	1.945642e-05	-0.008926666	-0.09960081	-2.508217e-07	7.721997e-06
	-1.042809e-06	1.989325e-05	-0.01001145	-0.1484436	6.204962e-07	7.202119e-06	-0.0106708	-0.1000585
	-0.008976193	-0.09997914	8.667152e-07	5.806365e-06	-0.01241131	-0.1492719	1.992898e-06	2.825663e-06
	-4.433788e-07	7.847009e-06	-0.01064773	-0.1000427	1.361375e-06	1.753954e-06	-0.01158058	-0.1500155
2.7e+08	-0.05600073	-0.1054149	9.024124e-06	1.457904e-05	-0.028376	-0.04259924	2.10176e-06	6.297823e-06
	7.794535e-06	1.55687e-05	-0.0609523	-0.1047083	5.240437e-06	3.769352e-06	-0.0300045	-0.04260307
	-0.02880025	-0.04310711	4.748309e-06	2.931256e-06	-0.06259849	-0.1035436	3.59273e-06	1.425119e-06
	1.953038e-06	7.228911e-06	-0.03002567	-0.04260233	2.391937e-06	3.954805e-07	-0.06179806	-0.1043928
2.8e+08	-0.04469578	-0.04643647	7.04708e-06	4.65179e-06	0.01227819	-0.004979868	1.282857e-06	3.390255e-06
	6.470953e-06	5.62011e-06	-0.04802684	-0.04416373	3.468048e-06	-2.135182e-06	0.01088709	-0.004895436
	0.011462	-0.005175854	3.106308e-06	-2.203345e-06	-0.04737393	-0.04290442	3.13256e-06	-9.715772e-07
	2.035959e-06	4.734646e-06	0.01081373	-0.004842961	1.438452e-06	-1.478348e-06	-0.04676617	-0.04390812
2.9e+08	0.008902249	-0.0369436	-3.531228e-06	3.376274e-06	0.05757915	-0.03010871	-2.087311e-06	3.531954e-06
	-3.864893e-06	3.991864e-06	0.007138428	-0.03476949	-2.951285e-06	-2.13396e-06	0.05614959	-0.03014545
	0.05680113	-0.02975345	-2.620217e-06	-2.102974e-06	0.008720608	-0.03590572	9.796752e-07	-1.501167e-06
	-3.464344e-07	4.258541e-06	0.0561078	-0.0299841	-7.496802e-07	-1.229561e-06	0.009162296	-0.03673079
3e+08	0.03519466	-0.0843164	-8.435634e-06	1.284145e-05	0.04721405	-0.08019184	-3.122599e-06	6.738328e-06
	-8.966615e-06	1.326552e-05	0.03386049	-0.08285849	-4.993737e-06	3.907462e-06	0.04546113	-0.08016733
	0.04689201	-0.0795717	-4.330548e-06	3.274961e-06	0.03322433	-0.0859547	2.168724e-09	-1.951404e-07
	-1.285594e-06	6.239467e-06	0.04556713	-0.07996384	-1.265539e-06	6.624467e-07	0.03402528	-0.0866044
3.1e+08	0.000849893	-0.1317361	-1.946113e-06	2.063775e-05	-0.003579932	-0.08911274	-1.058272e-06	8.876525e-06
	-2.762748e-06	2.130208e-05	-0.000899695	-0.1304392	-3.889768e-07	8.040922e-06	-0.005606165	-0.08863799
	-0.003506668	-0.08870814	-1.963694e-07	6.713871e-06	-0.004648384	-0.1321818	6.241302e-07	8.668281e-07
	-8.988979e-08	7.591109e-06	-0.005357835	-0.08855022	-1.250486e-08	1.8147e-06	-0.003268635	-0.1333633
3.2e+08	-0.06128862	-0.1263108	7.277752e-06	1.765538e-05	-0.03303183	-0.04779992	1.450664e-06	8.226716e-06
	6.501847e-06	1.891169e-05	-0.06338584	-0.1243377	5.272338e-06	5.684012e-06	-0.03490171	-0.04672723
	-0.03299558	-0.0477737	4.553231e-06	4.292759e-06	-0.06744968	-0.1223289	1.908189e-06	6.727044e-07
	1.402936e-06	7.152242e-06	-0.03466654	-0.04684321	1.617113e-06	1.285729e-06	-0.06624664	-0.1247019
3.3e+08	-0.08964463	-0.07154484	7.444202e-06	7.718127e-06	-0.009776473	-0.005498718	1.717635e-06	5.728032e-06
	7.278958e-06	9.511155e-06	-0.09141491	-0.06849924	5.353375e-06	-5.958248e-07	-0.01115165	-0.004159936
	-0.01011607	-0.005539265	3.965547e-06	-1.340352e-06	-0.09212774	-0.06427208	2.315742e-06	-9.284329e-07
	1.377935e-06	5.508816e-06	-0.01110742	-0.004380242	1.859619e-06	-6.42879e-07	-0.09230893	-0.06738524
3.4e+08	-0.05957747	-0.02484326	-2.805786e-06	4.115606e-06	0.03512867	-0.01050999	-8.892086e-07	4.814392e-06
	-2.003326e-06	5.871033e-06	-0.06028487	-0.02092094	-7.106261e-07	-2.830839e-06	0.034115	-0.009311401
	0.03455451	-0.01015418	-2.064986e-06	-2.711002e-06	-0.05740668	-0.01876349	8.829749e-07	-2.120372e-06
	-5.968512e-07	5.171362e-06	0.03397188	-0.009402416	3.671115e-09	-1.691483e-06	-0.05918443	-0.02103669
3.5e+08	-0.01292229	-0.03157598	-1.027755e-05	1.299592e-05	0.04418922	-0.05238999	-2.617535e-06	7.245179e-06
	-8.773592e-06	1.401745e-05	-0.01204417	-0.02740728	-4.702682e-06	2.278716e-06	0.04318572	-0.05139308
	0.04388878	-0.05156277	-5.485421e-06	2.824012e-06	-0.009644213	-0.02942469	-6.770547e-07	-1.557189e-06
	-1.475031e-06	7.216275e-06	0.043097	-0.05124813	-1.66507e-06	-4.757466e-07	-0.01148472	-0.02982211
3.6e+08	-0.004764373	-0.07267174	-4.993674e-06	2.317323e-05	0.007762445	-0.07316125	-1.104828e-06	9.594263e-06
	-3.525347e-06	2.324161e-05	-0.00225836	-0.06921416	-1.262274e-06	7.594991e-06	0.006571218	-0.07209023
	0.008037103	-0.07229149	-1.562563e-06	7.949775e-06	-0.004032095	-0.07238006	-1.066164e-06	-4.02891e-07
	1.415636e-07	8.498591e-06	0.006747627	-0.07190476	-1.478025e-06	1.328256e-06	-0.004191048	-0.07193714
3.7e+08	-0.04038305	-0.09440288	5.706321e-06	2.202514e-05	-0.02377916	-0.04551286	1.218405e-06	9.226169e-06
	6.525695e-06	2.160426e-05	-0.03699061	-0.09257028	4.805117e-06	6.339364e-06	-0.02494814	-0.04405828
	-0.02315758	-0.04505436	4.476604e-06	6.300979e-06	-0.04161364	-0.09212566	-6.277959e-07	3.116544e-07
	1.589793e-06	7.344508e-06	-0.02460161	-0.04412497	-3.968955e-08	2.049202e-06	-0.04030752	-0.09300976
3.8e+08	-0.0762439	-0.0706867	7.818155e-06	1.179233e-05	-0.009048392	-0.005788705	1.551401e-06	7.175817e-06
	8.041053e-06	1.164992e-05	-0.07332024	-0.07049172	5.873336e-06	2.083544e-07	-0.00977801	-0.004061217
	-0.008552898	-0.005758628	5.110732e-06	8.931474e-08	-0.07574973	-0.06564862	-1.321423e-07	1.961453e-07
	7.300881e-07	5.468719e-06	-0.009583702	-0.004429405	1.132599e-06	1.165318e-06	-0.07519928	-0.06865053
3.9e+08	-0.07260544	-0.02929519	-1.947668e-06	6.496517e-06	0.03400242	-0.00471881	-4.911109e-07	6.373854e-06
	-1.607036e-06	6.967796e-06	-0.07099855	-0.02951457	3.865571e-07	-2.968435e-06	0.03377231	-0.003153328
	0.03415807	-0.004735686	-7.710722e-07	-2.646352e-06	-0.0683063	-0.02465212	-3.489888e-07	-1.312732e-07
	-1.917818e-06	5.649615e-06	0.03360821	-0.003546177	7.309332e-07	-8.788457e-08	-0.07034522	-0.02795084
4e+08	-0.03943696	-0.01471767	-1.104451e-05	1.45693e-05	0.05131568	-0.04469288	-1.941495e-06	8.348204e-06
	-9.924144e-06	1.51434e-05	-0.03840983	-0.01389171	-4.401624e-06	1.194414e-06	0.05128373	-0.04352391
	0.05137429	-0.04442518	-5.470688e-06	2.251528e-06	-0.03342134	-0.01358391	-7.203808e-07	6.58611e-08
	-2.991019e-06	8.592459e-06	0.05091864	-0.04361605	-4.140259e-07	-1.530044e-07	-0.03713803	-0.01451045
4.1e+08	-0.01762275	-0.03329606	-6.978367e-06	2.65375e-05	0.02087661	-0.07518872	-5.40382e-07	1.033851e-05
	-5.219285e-06	2.631775e-05	-0.01530312	-0.03145808	-2.062211e-06	6.911318e-06	0.02073597	-0.07433391
	0.02122571	-0.07472817	-2.480785e-06	8.477e-06	-0.01335476	-0.03498727	-8.391442e-07	2.929983e-07
	-6.913763e-07	1.07427e-05	0.02053961	-0.07412161	-1.014499e-06	6.575343e-07	-0.01578164	-0.03314796
4.2e+08	-0.02565131	-0.05328522	5.368579e-06	2.7377e-05	-0.01714041	-0.05768066	1.549133e-06	9.684317e-06
	6.856368e-06	2.597933e-05	-0.02108715	-0.05246889	3.952293e-06	6.565442e-06	-0.01747257	-0.05687528
	-0.01642317	-0.05740974	4.355582e-06	8.044169e-06	-0.02364638	-0.0546928	-1.084068e-06	5.234831e-07
	1.898146e-06	9.38959e-06	-0.01733771	-0.0566919	-8.233589e-07	1.621175e-06	-0.02300478	-0.05265592
4.3e+08	-0.04250905	-0.0490041	1.017536e-05	1.632242e-05	-0.01234678	-0.01634104	1.411574e-06	7.565699e-06
	1.050593e-05	1.433496e-05	-0.03728202	-0.05135321	5.576358e-06	6.786011e-07	-0.01267162	-0.01545309
	-0.01155494	-0.01649808	6.443945e-06	1.573181e-06	-0.04021237	-0.04892822	-1.318243e-06	1.038449e-06
	1.313135e-06	6.449877e-06	-0.01243778	-0.01558629	-1.526306e-08	2.07784e-06	-0.03804961	-0.04952792
4.4e+08	-0.03933534	-0.0320401	8.025603e-07	8.214311e-06	0.03085629	-0.007572047	-9.633708e-07	7.116948e-06
	-1.303948e-08	6.742698e-06	-0.03647314	-0.03721867	2.764291e-07	-2.881619e-06	0.03066336	-0.006762099
	0.03139876	-0.008028365	1.008971e-06	-2.576481e-06	-0.03510989	-0.03269707	-1.221807e-06	1.905745e-06
	-2.154113e-06	5.94082e-06	0.03063559	-0.007123917	6.938405e-07	1.900532e-06	-0.03474508	-0.03576927
4.5e+08	-0.02020919	-0.03195941	-1.063275e-05	1.482881e-05	0.0570093	-0.04819949	-2.306269e-06	9.483612e-06
	-1.165745e-05	1.443124e-05	-0.02105374	-0.0369536	-4.961816e-06	1.070065e-06	0.05683774	-0.04759305
	0.05726603	-0.0486571	-4.680706e-06	1.286711e-06	-0.01601413	-0.03557293	-2.190661e-07	2.613875e-06
	-4.297745e-06	9.264523e-06	0.0564712	-0.04781945	1.184607e-06	1.437416e-06	-0.01873097	-0.03796578
4.6e+08	-0.01393453	-0.05127527	-8.788652e-06	2.841966e-05	0.02956524	-0.09149425	-5.96895e-07	1.154025e-05
	-9.12742e-06	2.859373e-05	-0.01643884	-0.0533646	-3.108011e-06	7.244805e-06	0.02929806	-0.09108394
	0.02973879	-0.0918271	-2.97807e-06	7.893977e-06	-0.01268517	-0.05647314	9.674181e-07	2.03436e-06
	-2.334002e-06	1.262973e-05	0.02888081	-0.09094805	1.162741e-06	6.00719e-07	-0.01615189	-0.05564734
4.7e+08	-0.03002404	-0.06306099	4.360059e-06	3.214078e-05	-0.02110661	-0.08583467	1.679132e-06	1.067262e-05
	4.708087e-06	3.191895e-05	-0.0307984	-0.06279272	3.112607e-06	7.689982e-06	-0.02154032	-0.08556114
	-0.02087196	-0.08615733	3.730747e-06	8.747393e-06	-0.03133411	-0.06644359	8.966368e-07	8.93109e-07
	1.112921e-06	1.239018e-05	-0.02168993	-0.08520865	3.017723e-07	2.588139e-07	-0.03218588	-0.06337041
4.8e+08	-0.04435573	-0.04953826	1.261952e-05	2.138852e-05	-0.03530591	-0.03948823	1.481678e-06	8.181071e-06
	1.281468e-05	2.030357e-05	-0.04236606	-0.0503137	5.626287e-06	1.909963e-06	-0.03590701	-0.039322
