!$
! Info: Touchstone file created by Circ.  Input file=Tx_NPC_250mm_32AWG_BPK_900mm_27AWG_BPK_250mm_32AWG_NPC_Rx.circ
!$
# Hz S RI R 50
0	0.03600691	-1.344658e-16	2.675611e-06	2.167114e-19	0.003413584	-3.430571e-15	2.181109e-07	-4.356035e-21
	2.555808e-07	-1.474386e-21	0.03569992	-1.987013e-16	-8.022532e-07	1.937341e-19	0.003300824	-4.472412e-16
	0.003390199	-9.406316e-16	7.171162e-07	2.537026e-20	0.05543849	3.322598e-15	1.405977e-06	-1.911347e-19
	1.072505e-06	-7.934811e-22	0.003395581	-2.562562e-16	-2.192158e-08	1.202947e-21	0.05984993	5.133688e-16
1e+07	0.06888184	-0.003789959	2.965925e-06	-5.435976e-08	0.02218031	0.03646943	2.511499e-07	2.506122e-07
	7.372436e-07	7.856862e-07	0.06807738	-0.004711364	-4.063519e-07	7.674037e-07	0.02320791	0.03506735
	0.02306447	0.03529694	8.446239e-07	-4.292582e-08	0.06551999	-0.003619944	1.513935e-06	-2.921704e-08
	1.100622e-06	3.808559e-08	0.02324746	0.03506374	1.282579e-07	2.486485e-07	0.06925859	-0.005760923
2e+07	0.07226363	-0.01742859	3.056247e-06	-7.695187e-07	0.06267382	0.04264903	3.626909e-07	3.224988e-07
	1.343745e-06	7.174839e-07	0.07012523	-0.01860709	3.546577e-07	8.275485e-07	0.06232854	0.04119838
	0.06240906	0.04141876	9.177842e-07	-4.418751e-07	0.06848772	-0.01678375	1.738259e-06	-2.646224e-07
	1.106281e-06	-6.937864e-08	0.06231674	0.04114898	4.347995e-07	2.418639e-07	0.0702918	-0.02020396
3e+07	0.06421401	-0.03488718	2.163595e-06	-1.639087e-06	0.09048875	0.01388298	2.945296e-07	3.211949e-07
	1.150404e-06	1.810545e-07	0.0605575	-0.03504716	6.8232e-07	2.858787e-07	0.08926614	0.0137896
	0.08989592	0.01393894	4.712998e-07	-9.23469e-07	0.06002807	-0.03324452	1.864261e-06	-7.417127e-07
	8.989737e-07	-1.797991e-07	0.0891697	0.01372538	6.285354e-07	-3.18056e-08	0.05972071	-0.0363173
4e+07	0.04385379	-0.04416371	4.290649e-07	-1.553197e-06	0.0837794	-0.02473054	6.817511e-08	4.697842e-07
	1.175958e-07	2.468364e-07	0.03967252	-0.04213256	3.030943e-07	-1.597408e-07	0.08230765	-0.0241613
	0.08318724	-0.02434049	-4.203966e-07	-8.73236e-07	0.03976191	-0.04105755	1.724819e-06	-1.351966e-06
	5.609809e-07	-7.368354e-08	0.08217315	-0.02414129	5.398291e-07	-3.930494e-07	0.03832817	-0.04249109
5e+07	0.02120888	-0.03616555	-9.238576e-07	1.482183e-09	0.0481818	-0.04076005	-7.610856e-08	8.655803e-07
	-7.305399e-07	1.488448e-06	0.01805734	-0.03159871	-3.056314e-07	8.402094e-08	0.04710875	-0.03964109
	0.04786183	-0.04013541	-1.071094e-06	1.160584e-08	0.01799738	-0.03138072	1.264692e-06	-1.895123e-06
	3.601917e-07	2.899362e-07	0.04702421	-0.03954251	1.919104e-07	-5.843642e-07	0.01698047	-0.03103697
6e+07	0.01122608	-0.0128076	-6.112912e-07	2.103562e-06	0.01419905	-0.01937305	1.011308e-07	1.308695e-06
	-2.438235e-07	3.171823e-06	0.01071639	-0.006877691	-3.403929e-07	8.501957e-07	0.01377313	-0.01782751
	0.01419726	-0.01868324	-7.165493e-07	1.210093e-06	0.009834911	-0.006907273	5.936265e-07	-2.196747e-06
	5.180108e-07	6.397691e-07	0.01376958	-0.01767593	-1.662754e-07	-4.843255e-07	0.01046722	-0.005833249
7e+07	0.02330268	0.01134081	1.203104e-06	2.885445e-06	0.01276588	0.02370962	5.023078e-07	1.406517e-06
	1.445214e-06	3.696476e-06	0.02580458	0.01673787	4.067125e-07	1.266541e-06	0.01309909	0.02506033
	0.0130255	0.02425004	5.725836e-07	1.610117e-06	0.02417958	0.01733392	-1.376747e-07	-2.227396e-06
	8.504628e-07	5.630093e-07	0.01319713	0.02518954	-3.36972e-07	-2.319712e-07	0.02646041	0.01752815
8e+07	0.05144392	0.01855583	2.593716e-06	1.448747e-06	0.04943921	0.05312468	6.567383e-07	1.082436e-06
	2.642051e-06	2.329556e-06	0.05588098	0.02173489	1.163532e-06	7.412523e-07	0.0501704	0.05389202
	0.04978906	0.0534388	1.65668e-06	6.514308e-07	0.05426772	0.02348771	-8.508024e-07	-1.993393e-06
	8.031842e-07	3.602272e-08	0.05033143	0.05393322	-3.533634e-07	-2.014705e-08	0.05698679	0.02171075
9e+07	0.07766892	0.002055018	1.630008e-06	-9.256583e-07	0.09907481	0.04318368	2.643434e-07	7.555874e-07
	1.705356e-06	2.927944e-07	0.08211497	0.002569084	1.030158e-06	-2.711383e-07	0.09975355	0.04338601
	0.09938126	0.04333581	1.399005e-06	-9.322557e-07	0.08145439	0.005247419	-1.41696e-06	-1.476918e-06
	5.663981e-08	-4.042443e-07	0.09990844	0.0433178	-3.211046e-07	1.276788e-07	0.08297526	0.001656819
1e+08	0.08525795	-0.02912254	-1.71432e-06	-1.779695e-06	0.1262431	-0.002202496	-4.744215e-07	9.029847e-07
	-1.229295e-06	-2.087934e-07	0.08814004	-0.03024456	-5.469413e-08	-7.549263e-07	0.1265548	-0.002294576
	0.1264587	-0.002101263	-2.409779e-07	-1.764743e-06	0.08889523	-0.02751016	-1.664932e-06	-8.11118e-07
	-1.107594e-06	-1.73563e-07	0.1266294	-0.002437836	-2.636806e-07	2.182172e-07	0.08820354	-0.03163229
1.1e+08	0.06914776	-0.0571604	-5.378552e-06	5.007851e-07	0.1111887	-0.05345251	-1.073341e-06	1.682683e-06
	-4.157952e-06	2.135063e-06	0.07012102	-0.05818064	-1.279518e-06	-4.202423e-08	0.1111687	-0.05347395
	0.1113723	-0.05332631	-2.192388e-06	-9.245981e-07	0.07199103	-0.05633004	-1.606082e-06	-2.208023e-07
	-2.058502e-06	9.202197e-07	0.1111364	-0.05362125	-2.471077e-07	2.627849e-07	0.06922336	-0.05936125
1.2e+08	0.03840168	-0.06516591	-6.547661e-06	5.287722e-06	0.06375358	-0.07566047	-1.003552e-06	2.84126e-06
	-4.521592e-06	6.484334e-06	0.03852491	-0.06465278	-1.482042e-06	1.634794e-06	0.06363023	-0.07537394
	0.06397355	-0.0755031	-2.922666e-06	1.382154e-06	0.0406277	-0.06413859	-1.366265e-06	1.824232e-07
	-2.120328e-06	2.537493e-06	0.0635209	-0.07544653	-2.693143e-07	3.602e-07	0.03705632	-0.06498817
1.3e+08	0.01281772	-0.04714186	-3.766364e-06	9.602049e-06	0.01824129	-0.05305288	-4.259644e-08	3.641719e-06
	-1.244856e-06	9.86805e-06	0.01391288	-0.0449759	-2.174552e-08	2.965258e-06	0.01838164	-0.05248462
	0.01853665	-0.05291806	-1.469753e-06	3.603006e-06	0.01533244	-0.04544952	-1.037157e-06	3.210768e-07
	-1.00874e-06	3.762752e-06	0.01827638	-0.05245479	-1.762856e-07	5.006959e-07	0.01261026	-0.04424866
1.4e+08	0.0123121	-0.01500655	1.133673e-06	1.006369e-05	0.01039627	-0.003407429	1.159726e-06	3.282379e-06
	3.532755e-06	9.212818e-06	0.01570748	-0.01258184	2.14872e-06	2.388535e-06	0.01102521	-0.002891043
	0.01074644	-0.00334707	1.288183e-06	3.744423e-06	0.01613647	-0.01315079	-8.897594e-07	9.906384e-08
	5.332563e-07	3.597948e-06	0.01099879	-0.002800327	-9.610575e-09	4.409866e-07	0.01528111	-0.01116147
1.5e+08	0.04048981	0.00595171	3.859459e-06	6.372963e-06	0.0479676	0.03231744	1.351956e-06	2.007154e-06
	5.533652e-06	4.694595e-06	0.04596926	0.00660756	2.863974e-06	1.124654e-08	0.04893698	0.03237727
	0.04832846	0.03229137	2.908259e-06	1.532398e-06	0.04590373	0.006685885	-1.315159e-06	-1.383807e-07
	1.023929e-06	2.217859e-06	0.04900583	0.03244323	-1.277543e-07	2.457667e-07	0.04667485	0.007942389
1.6e+08	0.07876232	-0.003199029	1.813394e-06	2.213817e-06	0.1022628	0.02330724	1.846671e-07	1.159207e-06
	2.525888e-06	3.048112e-07	0.08467485	-0.005535357	1.147895e-06	-2.043277e-06	0.1032129	0.02278259
	0.1026209	0.02321495	1.937821e-06	-9.652599e-07	0.08491757	-0.004791387	-2.071423e-06	2.702061e-07
	-1.013158e-07	1.097531e-06	0.1033244	0.02275976	-4.932983e-07	3.70497e-07	0.08612654	-0.004997105
1.7e+08	0.1013547	-0.04012128	-3.353182e-06	1.697711e-06	0.132584	-0.02635591	-1.368516e-06	1.621267e-06
	-3.396528e-06	9.324328e-08	0.105646	-0.04515214	-1.682994e-06	-1.919879e-06	0.1331922	-0.02732576
	0.1329497	-0.02651547	-6.616992e-07	-1.592443e-06	0.1066797	-0.0443183	-2.394297e-06	1.354372e-06
	-1.911506e-06	1.374961e-06	0.1332647	-0.02744173	-6.143138e-07	8.678161e-07	0.1071131	-0.04563653
1.8e+08	0.09333924	-0.08531889	-7.550531e-06	5.910346e-06	0.1173723	-0.08428042	-2.230261e-06	3.135817e-06
	-7.912597e-06	4.836804e-06	0.094764	-0.0914753	-3.557281e-06	4.115159e-07	0.1175072	-0.08543842
	0.1177467	-0.0845453	-2.854936e-06	1.152015e-07	0.09643833	-0.09126149	-1.958777e-06	2.520776e-06
	-3.180498e-06	2.99842e-06	0.1174851	-0.08559335	-3.388944e-07	1.340732e-06	0.09559447	-0.09263993
1.9e+08	0.05711123	-0.1152045	-7.334455e-06	1.253312e-05	0.06597804	-0.1144693	-1.894058e-06	4.946526e-06
	-7.603733e-06	1.188378e-05	0.05579443	-0.1205689	-3.097817e-06	3.584601e-06	0.06567281	-0.1155625
	0.06631064	-0.1148896	-3.012452e-06	3.119341e-06	0.05747346	-0.1213062	-9.441499e-07	3.339798e-06
	-3.148318e-06	5.265831e-06	0.06555513	-0.1156828	1.528402e-07	1.61094e-06	0.05577257	-0.1217229
2e+08	0.01078278	-0.1131571	-2.001651e-06	1.722655e-05	0.01057942	-0.09934363	-3.210116e-07	6.103602e-06
	-1.976249e-06	1.667048e-05	0.008059141	-0.1164517	-1.66325e-07	5.502884e-06	0.01001156	-0.1001854
	0.01076335	-0.09991975	-5.897983e-07	5.405208e-06	0.009083767	-0.1178687	4.717357e-07	3.556201e-06
	-1.531609e-06	7.096206e-06	0.009844923	-0.1002207	8.391658e-07	1.616939e-06	0.007545356	-0.1169638
2.1e+08	-0.01848916	-0.07976167	5.251178e-06	1.612724e-05	-0.01318114	-0.05084314	1.676677e-06	5.571654e-06
	5.468109e-06	1.530014e-05	-0.02088651	-0.08107529	3.479405e-06	4.241233e-06	-0.01375936	-0.0514649
	-0.01325447	-0.05148315	3.030268e-06	4.816909e-06	-0.02066974	-0.08248624	1.86592e-06	2.786746e-06
	9.738815e-07	7.163934e-06	-0.0139121	-0.05141271	1.546671e-06	1.03238e-06	-0.02115187	-0.0807654
2.2e+08	-0.01075767	-0.03821108	8.591553e-06	9.537542e-06	0.009513268	-0.005609008	2.271612e-06	3.439601e-06
	8.639361e-06	8.269639e-06	-0.01180569	-0.03878001	4.558345e-06	1.777758e-07	0.009039332	-0.006222356
	0.009171611	-0.006134766	4.674863e-06	1.266008e-06	-0.01194127	-0.0397358	2.251134e-06	1.2131e-06
	2.405014e-06	5.219699e-06	0.008939686	-0.006116548	1.514027e-06	-9.517366e-08	-0.01116127	-0.038142
2.3e+08	0.02776734	-0.02105328	4.800685e-06	3.148697e-06	0.05792987	0.0008113635	5.309539e-07	1.761177e-06
	4.291851e-06	1.609496e-06	0.02775838	-0.02233591	1.536639e-06	-3.111149e-06	0.05742429	6.02395e-06
	0.0574567	0.0005449335	2.506182e-06	-2.090232e-06	0.02781696	-0.02304075	1.278925e-06	1.405036e-07
	1.451499e-06	3.164978e-06	0.05738283	0.0001255499	4.588664e-07	-7.033353e-07	0.02935993	-0.02223676
2.4e+08	0.06687214	-0.043429	-2.739199e-06	2.826865e-06	0.0909618	-0.03560904	-1.970332e-06	2.330921e-06
	-3.957032e-06	1.421185e-06	0.06665981	-0.04603627	-3.001709e-06	-2.446234e-06	0.0901857	-0.03660053
	0.0905652	-0.03562334	-1.416479e-06	-2.106346e-06	0.06690588	-0.04704106	1.149607e-07	4.395338e-07
	-6.994264e-07	2.98431e-06	0.09018906	-0.03649033	-5.694794e-07	-1.20906e-07	0.06856352	-0.04708832
2.5e+08	0.07691929	-0.09192124	-7.559067e-06	8.785907e-06	0.08245849	-0.08523334	-3.15035e-06	4.574118e-06
	-9.340397e-06	7.905279e-06	0.07529353	-0.09532013	-5.264475e-06	1.539058e-06	0.08125802	-0.08622602
	0.08226881	-0.08515712	-3.651267e-06	9.412782e-07	0.07519298	-0.09683853	-1.438824e-07	1.471118e-06
	-2.084179e-06	4.514163e-06	0.08129449	-0.08613463	-6.666719e-07	9.583184e-07	0.07660689	-0.0974399
2.6e+08	0.04841075	-0.1374217	-6.035439e-06	1.634337e-05	0.0394084	-0.1122059	-2.515187e-06	6.868594e-06
	-8.055909e-06	1.620657e-05	0.0449442	-0.1404093	-3.784024e-06	5.845459e-06	0.03779265	-0.1129546
	0.03938868	-0.1122416	-2.717856e-06	4.509094e-06	0.04396857	-0.1420295	5.045757e-07	2.341361e-06
	-2.01188e-06	6.484711e-06	0.03785506	-0.1128915	1.353677e-08	1.716793e-06	0.04514642	-0.1428837
2.7e+08	-0.005646482	-0.1533545	7.207952e-07	2.009621e-05	-0.008883306	-0.1001839	-6.330521e-07	8.098736e-06
	-1.173631e-06	2.072339e-05	-0.01045243	-0.1547724	4.316136e-07	7.708567e-06	-0.01073647	-0.1004965
	-0.008914704	-0.1004423	6.608303e-07	6.127645e-06	-0.01226938	-0.1557249	1.751732e-06	2.61714e-06
	-6.837703e-07	7.899919e-06	-0.01066385	-0.1004765	1.092697e-06	1.858343e-06	-0.01120327	-0.1567784
2.8e+08	-0.05684022	-0.1292026	7.985817e-06	1.713647e-05	-0.03249756	-0.05926581	1.52241e-06	7.603067e-06
	6.539628e-06	1.837305e-05	-0.06187999	-0.1285349	4.773688e-06	5.698131e-06	-0.03432047	-0.05912841
	-0.03276365	-0.05968006	4.257584e-06	4.4092e-06	-0.06381584	-0.1282745	3.182698e-06	1.875213e-06
	1.274153e-06	7.95264e-06	-0.03427263	-0.05915581	2.182227e-06	1.11215e-06	-0.06288227	-0.1296469
2.9e+08	-0.07610482	-0.07870797	9.951983e-06	9.188824e-06	-0.01881573	-0.0177579	2.388502e-06	5.486824e-06
	9.155153e-06	1.073823e-05	-0.08028037	-0.07625466	5.917273e-06	7.921946e-07	-0.02043119	-0.0173541
	-0.01943153	-0.01809057	5.061639e-06	1.220512e-07	-0.08130782	-0.07503938	3.818428e-06	3.058444e-08
	2.475843e-06	6.39744e-06	-0.02044889	-0.01739611	2.42128e-06	-4.971477e-07	-0.08076862	-0.07673476
3e+08	-0.05396629	-0.03465147	4.146233e-06	2.649881e-06	0.01883501	-0.004282893	8.501226e-07	3.526877e-06
	4.004065e-06	4.157147e-06	-0.05668457	-0.03122178	2.378867e-06	-3.12573e-06	0.01739589	-0.003833016
	0.01798143	-0.004256548	1.679081e-06	-3.223843e-06	-0.0563261	-0.03018101	2.837912e-06	-1.831399e-06
	1.688822e-06	4.601984e-06	0.01731259	-0.00381645	1.159942e-06	-1.869944e-06	-0.05640146	-0.03184848
3.1e+08	-0.01037749	-0.02587865	-5.058288e-06	3.705164e-06	0.04888438	-0.02621704	-1.848184e-06	3.870499e-06
	-4.736616e-06	4.891758e-06	-0.01169174	-0.02228598	-2.979851e-06	-2.31771e-06	0.0474396	-0.02579882
	0.04809907	-0.02571662	-3.240808e-06	-2.215316e-06	-0.01066222	-0.022615	9.342063e-07	-2.322999e-06
	-2.460246e-07	4.491195e-06	0.04736397	-0.02566714	-7.504587e-07	-1.71947e-06	-0.01112898	-0.02374716
3.2e+08	0.02019773	-0.05467024	-9.809112e-06	1.184652e-05	0.04683204	-0.06211498	-3.172562e-06	6.296593e-06
	-9.318553e-06	1.26138e-05	0.01994347	-0.05139068	-5.348285e-06	2.552774e-06	0.04523041	-0.06162619
	0.04641858	-0.06129529	-5.258044e-06	2.431928e-06	0.02008147	-0.05320465	-4.393783e-07	-1.474078e-06
	-1.255328e-06	5.995638e-06	0.04527377	-0.06140661	-1.792422e-06	-2.622164e-07	0.01988226	-0.05368462
3.3e+08	0.0152644	-0.09713157	-6.440271e-06	2.034632e-05	0.0162367	-0.08065257	-2.28139e-06	8.699196e-06
	-6.049998e-06	2.07885e-05	0.01569325	-0.09434283	-2.914436e-06	7.27398e-06	0.0144689	-0.07987816
	0.01628926	-0.0798353	-2.821884e-06	6.73257e-06	0.01382002	-0.09633944	-7.472058e-07	-2.666495e-07
	-7.010435e-07	7.444892e-06	0.01468882	-0.07968947	-1.489303e-06	1.316199e-06	0.01444604	-0.09670608
3.4e+08	-0.02224782	-0.1223399	1.847787e-06	2.274279e-05	-0.0169168	-0.06744051	-2.210385e-07	9.593708e-06
	1.997146e-06	2.309696e-05	-0.02143988	-0.1200704	2.19352e-06	8.310268e-06	-0.01864772	-0.06620291
	-0.0165567	-0.06690272	1.92699e-06	7.457443e-06	-0.02496777	-0.120407	-2.209101e-07	5.820555e-07
	5.260552e-07	7.786364e-06	-0.01830595	-0.06618211	-2.580558e-07	2.159062e-06	-0.02361154	-0.1215499
3.5e+08	-0.06834774	-0.1122552	8.331717e-06	1.762247e-05	-0.0271923	-0.03374844	1.57118e-06	8.7617e-06
	8.302853e-06	1.817051e-05	-0.06743066	-0.1104425	6.211113e-06	5.01009e-06	-0.02856638	-0.03210191
	-0.0268172	-0.03356329	5.399105e-06	4.159821e-06	-0.07082488	-0.1081295	6.74173e-07	6.32668e-07
	1.368985e-06	7.00137e-06	-0.02825288	-0.03231104	1.180454e-06	1.832932e-06	-0.06960741	-0.1106238
3.6e+08	-0.09393126	-0.07267086	7.616275e-06	9.257752e-06	-0.007809191	-0.005247138	1.876324e-06	6.93437e-06
	7.684035e-06	1.017001e-05	-0.09312887	-0.07109739	6.072258e-06	-2.636668e-07	-0.008644287	-0.003498344
	-0.007656731	-0.005255816	4.768979e-06	-7.520921e-07	-0.09431608	-0.0668919	1.157083e-06	-1.601699e-07
	1.00148e-06	5.736032e-06	-0.008523029	-0.003867813	1.837546e-06	4.753475e-07	-0.09439532	-0.07043406
3.7e+08	-0.08463651	-0.02924421	-3.414988e-07	4.900271e-06	0.02589043	-0.003125666	3.608565e-07	5.744903e-06
	1.897391e-07	6.088085e-06	-0.08397652	-0.02752696	1.647134e-06	-3.313747e-06	0.02547748	-0.001608032
	0.02578531	-0.003051274	1.148767e-07	-3.181614e-06	-0.08210834	-0.02365167	6.747393e-07	-1.06427e-06
	-6.654677e-07	5.31832e-06	0.02533714	-0.001956751	1.122794e-06	-8.818431e-07	-0.08412467	-0.02700639
3.8e+08	-0.05108671	-0.008633343	-9.288583e-06	9.185662e-06	0.04736231	-0.02852058	-1.583753e-06	6.535011e-06
	-8.059888e-06	1.027588e-05	-0.0502134	-0.006390877	-3.414357e-06	-1.409332e-06	0.04707813	-0.02735474
	0.0471936	-0.02816114	-4.803723e-06	-6.024661e-07	-0.04649627	-0.005058169	-3.582572e-07	-1.24481e-06
	-2.247935e-06	6.703595e-06	0.04676937	-0.02749657	-3.587428e-07	-1.14457e-06	-0.04990323	-0.006769638
3.9e+08	-0.0193495	-0.0185646	-1.149141e-05	1.940927e-05	0.0394555	-0.06039256	-2.023096e-06	8.646938e-06
	-9.654581e-06	1.990845e-05	-0.01753919	-0.01580547	-4.699164e-06	3.766878e-06	0.03905	-0.05946279
	0.03950716	-0.05977167	-5.613846e-06	5.072232e-06	-0.01455225	-0.01752373	-1.157573e-06	-7.324104e-07
	-2.072412e-06	8.947678e-06	0.03878417	-0.05934316	-1.484604e-06	-2.841339e-07	-0.01777683	-0.0169696
4e+08	-0.009970744	-0.04446839	-4.854178e-06	2.751354e-05	0.009363213	-0.07224987	-6.876224e-07	1.014959e-05
	-2.839578e-06	2.707169e-05	-0.006548371	-0.04191355	-1.285912e-06	7.685133e-06	0.008764732	-0.07131633
	0.009803587	-0.07160197	-1.566336e-06	9.161415e-06	-0.006379551	-0.04495206	-1.500848e-06	6.71788e-10
	-2.512209e-07	1.008355e-05	0.008725075	-0.07106514	-1.729518e-06	1.020509e-06	-0.007812991	-0.04292267
4.1e+08	-0.02412212	-0.06312162	5.281674e-06	2.720387e-05	-0.01722745	-0.05456348	1.067422e-06	9.978873e-06
	6.872803e-06	2.582495e-05	-0.01911631	-0.06201025	3.794266e-06	7.179581e-06	-0.01786242	-0.05342042
	-0.01645794	-0.05416992	4.089256e-06	8.487122e-06	-0.02173446	-0.06360294	-1.477486e-06	7.016008e-07
	1.560001e-06	9.268635e-06	-0.01765718	-0.05326385	-1.10791e-06	2.125448e-06	-0.02086576	-0.06189
4.2e+08	-0.04513136	-0.0603373	1.072332e-05	1.898446e-05	-0.01757567	-0.02233817	1.776446e-06	8.532125e-06
	1.140358e-05	1.707997e-05	-0.0395976	-0.06176717	6.333931e-06	2.702289e-06	-0.01796396	-0.0210209
	-0.0167126	-0.02234569	6.973433e-06	3.613539e-06	-0.04277608	-0.06014146	-1.218796e-06	1.201374e-06
	1.811974e-06	7.255794e-06	-0.01767606	-0.02112311	9.149622e-09	2.509351e-06	-0.04062829	-0.06037797
4.3e+08	-0.05253503	-0.04118628	6.800359e-06	9.783207e-06	0.0101503	-0.002873659	7.87572e-07	7.154598e-06
	6.465054e-06	8.004309e-06	-0.0482221	-0.04524721	4.033988e-06	-2.097389e-06	0.01014032	-0.001675817
	0.01085509	-0.003222176	4.709812e-06	-1.621812e-06	-0.04910263	-0.04103904	-9.759035e-07	1.517737e-06
	8.79622e-09	5.718544e-06	0.0102765	-0.002021027	9.166569e-07	2.102117e-06	-0.04764245	-0.04354704
4.4e+08	-0.03936373	-0.02506016	-3.618742e-06	7.80946e-06	0.04502647	-0.01473957	-1.152806e-06	7.32852e-06
	-4.608614e-06	6.708639e-06	-0.03774537	-0.03050353	-1.419527e-06	-2.972966e-06	0.04521437	-0.01395345
	0.04545543	-0.0152301	-9.626452e-07	-2.76418e-06	-0.03498704	-0.02640496	-7.169686e-07	1.912132e-06
	-2.766771e-06	6.307564e-06	0.04505334	-0.01435155	1.240527e-06	1.445385e-06	-0.03579588	-0.02986554
4.5e+08	-0.0179965	-0.02788293	-1.184101e-05	1.555619e-05	0.05867274	-0.05251122	-2.197616e-06	9.18304e-06
	-1.28645e-05	1.527713e-05	-0.01927707	-0.03267124	-5.338919e-06	1.035449e-06	0.05872362	-0.0521773
	0.05888455	-0.05295611	-5.163027e-06	1.282259e-06	-0.01414881	-0.03145751	-1.128415e-07	2.24291e-06
	-4.277642e-06	9.066584e-06	0.05831111	-0.0523914	1.222472e-06	9.058505e-07	-0.01725601	-0.03374744
4.6e+08	-0.008037382	-0.04775339	-1.078132e-05	2.718969e-05	0.03786448	-0.0895837	-1.359699e-06	1.108074e-05
	-1.133207e-05	2.741695e-05	-0.01086036	-0.05027581	-4.430554e-06	6.47181e-06	0.0375396	-0.0895101
	0.03800767	-0.08992809	-4.342377e-06	7.019217e-06	-0.00630803	-0.05270732	6.285142e-07	2.03501e-06
	-3.278531e-06	1.202437e-05	0.03708067	-0.08941779	9.570992e-07	4.371026e-07	-0.01010238	-0.05238878
4.7e+08	-0.01853235	-0.06761863	-1.086039e-06	3.368678e-05	-0.00415413	-0.09902168	4.405238e-07	1.149173e-05
	-1.040171e-06	3.387576e-05	-0.02078787	-0.06775483	3.00531e-07	8.919643e-06	-0.004892362	-0.09892468
	-0.003978632	-0.09934053	6.53074e-07	9.806033e-06	-0.01922456	-0.07206643	9.141727e-07	1.421405e-06
	-7.126825e-07	1.321216e-05	-0.005178726	-0.09859211	3.723374e-07	2.651741e-07	-0.02151863	-0.06937943
4.8e+08	-0.04063992	-0.07007673	9.866433e-06	3.017483e-05	-0.03808043	-0.07449484	1.664997e-06	1.034514e-05
	1.021731e-05	2.987464e-05	-0.04080281	-0.06933994	4.997546e-06	6.618373e-06	-0.03905229	-0.07417022
	-0.03789031	-0.07489495	5.922063e-06	7.594651e-06	-0.04237717	-0.07259959	6.952371e-07	9.434673e-07
