!$
! Info: Touchstone file created by Circ.  Input file=Tx_NPC_250mm_32AWG_BPK_1200mm_27AWG_BPK_250mm_32AWG_NPC_Rx.circ
!$
# Hz S RI R 50
0	0.09653156	9.881383e-17	-2.994067e-05	-2.487911e-19	0.002374389	3.660026e-16	-3.766779e-05	-2.725662e-18
	-4.092736e-05	4.743595e-20	0.04404272	-1.940426e-16	-3.244628e-05	6.241808e-21	0.003554744	-4.432333e-16
	0.003627949	7.452516e-16	-3.381088e-05	1.344806e-19	0.07329883	-3.270502e-16	-4.90613e-05	2.682795e-18
	-3.222179e-05	-1.531802e-18	0.003644596	-2.541589e-16	-3.89505e-05	1.148274e-19	0.06790106	5.359043e-16
1e+07	0.07475923	-0.01033133	-9.307296e-05	3.053645e-05	0.02890778	0.03791669	-5.156494e-05	-4.073826e-06
	-0.0001077858	3.379172e-05	0.07477346	-0.0109471	4.056292e-06	2.211804e-05	0.02908726	0.03780152
	0.02963626	0.0373783	4.603921e-06	2.42718e-05	0.07379743	-0.01043175	-0.0001113076	3.826272e-05
	-4.979947e-05	-8.317697e-06	0.02912208	0.03778869	-0.0001025771	3.300925e-05	0.07576236	-0.01214561
2e+07	0.07047753	-0.02939039	-9.791671e-05	2.968541e-05	0.07297019	0.03374548	-7.06577e-05	4.655414e-06
	-0.0001117914	4.465669e-05	0.06980812	-0.03011659	3.336028e-05	7.91641e-05	0.07308994	0.03356834
	0.07291854	0.03287996	3.654641e-05	7.938565e-05	0.06920016	-0.02930719	-0.0001120448	4.733598e-05
	-7.253683e-05	2.6071e-06	0.07305412	0.03352225	-0.0001071277	3.728736e-05	0.06949317	-0.03164502
3e+07	0.04992603	-0.04367042	-0.0001060631	5.560295e-05	0.08750895	-0.006502058	-9.423952e-05	3.76473e-05
	-0.0001058487	7.886828e-05	0.04854133	-0.04394186	7.669732e-05	8.27069e-05	0.08742327	-0.006691918
	0.08671452	-0.007028083	7.87151e-05	7.985855e-05	0.04837895	-0.04311364	-0.0001084043	8.061651e-05
	-9.443583e-05	3.769208e-05	0.08729499	-0.006701717	-0.0001107828	6.829252e-05	0.04730686	-0.04462105
4e+07	0.02260087	-0.03717798	-0.0001036899	0.0001144304	0.05669289	-0.03629713	-9.385467e-05	0.0001050216
	-8.778762e-05	0.0001299557	0.021093	-0.03647007	0.0001056536	7.781886e-05	0.05651383	-0.03640741
	0.055963	-0.03596464	0.0001049326	7.491802e-05	0.02114112	-0.0358881	-9.051862e-05	0.000137221
	-9.338942e-05	0.0001020749	0.05640329	-0.03630253	-0.0001013097	0.000128757	0.01997552	-0.03591775
5e+07	0.01082787	-0.009743979	-3.862019e-05	0.0001895844	0.01613104	-0.01903886	-2.851252e-05	0.0001789052
	-2.123186e-05	0.0001904695	0.01006289	-0.008101634	0.000167325	6.040025e-05	0.01599382	-0.01908798
	0.01613752	-0.01838289	0.0001660439	5.873419e-05	0.009984396	-0.00784877	-1.49468e-05	0.0002005493
	-3.36721e-05	0.0001751833	0.01599282	-0.01894389	-2.900494e-05	0.0002019283	0.01001329	-0.006998758
6e+07	0.02824321	0.01633485	8.860358e-05	0.0001933179	0.01523507	0.02859874	9.227229e-05	0.0001873183
	9.907728e-05	0.0001893788	0.02879178	0.01800565	0.0002336864	-3.520799e-05	0.01518781	0.02854882
	0.01594004	0.02887045	0.0002318648	-3.727806e-05	0.0283093	0.01833494	0.0001131007	0.0001897531
	8.387808e-05	0.0001916161	0.01529848	0.02865975	0.0001045672	0.0002000182	0.02981982	0.01856893
7e+07	0.06113406	0.01591619	0.0001721561	0.0001026413	0.06087821	0.05384205	0.0001893804	0.0001090503
	0.0001831514	9.965189e-05	0.06260408	0.01656385	0.0002003359	-0.0001835562	0.0608404	0.05365171
	0.06160165	0.05327327	0.0001958194	-0.0001846802	0.06189401	0.01742463	0.0001904729	8.8205e-05
	0.0001892182	0.0001207029	0.06099383	0.05365212	0.0001910465	9.956902e-05	0.06381664	0.01590665
8e+07	0.08013653	-0.01204548	0.0001780377	1.039125e-06	0.1091229	0.02632405	0.0002201707	3.070379e-06
	0.0001929167	-1.043883e-05	0.08137426	-0.01273158	6.978881e-05	-0.0002568315	0.1089212	0.02602287
	0.1091472	0.0252246	6.450896e-05	-0.0002532482	0.08101123	-0.01120961	0.0001874007	-1.95429e-05
	0.0002312768	9.356996e-06	0.1090153	0.02592057	0.0001929594	-1.264294e-05	0.08169922	-0.01429232
9e+07	0.06867578	-0.04372537	0.0001718735	-6.054285e-05	0.1120599	-0.03023207	0.000218909	-9.700699e-05
	0.0001770305	-8.625264e-05	0.06874545	-0.04494846	-2.828541e-05	-0.0002399757	0.1116184	-0.03044907
	0.1111893	-0.03112832	-2.884347e-05	-0.0002325962	0.06919995	-0.04323059	0.0001709996	-8.394406e-05
	0.000229627	-0.0001036615	0.1115992	-0.03056896	0.0001772912	-8.068404e-05	0.06777563	-0.0463597
1e+08	0.03672913	-0.05147346	0.000164565	-0.0001656987	0.06592628	-0.06142078	0.000178814	-0.0002253839
	0.0001467414	-0.0001908402	0.03577845	-0.05198439	-7.995104e-05	-0.0002589146	0.06537915	-0.06134339
	0.06463688	-0.06145942	-7.446509e-05	-0.0002540076	0.0369221	-0.05073442	0.0001511543	-0.0001876273
	0.0001778736	-0.0002364401	0.06528592	-0.06137917	0.0001584348	-0.0001863615	0.03409648	-0.05224249
1.1e+08	0.01451018	-0.02693921	3.809142e-05	-0.0002952418	0.01798144	-0.03523088	2.716118e-05	-0.000343346
	7.380233e-06	-0.000298635	0.01375218	-0.02614726	-0.0002117296	-0.0002812601	0.0176528	-0.03484563
	0.0170523	-0.03439873	-0.0002058063	-0.0002822735	0.01494841	-0.02564618	1.252598e-05	-0.0003071081
	1.940968e-05	-0.0003458209	0.01759023	-0.03477181	2.138339e-05	-0.0003101781	0.01255173	-0.02509354
1.2e+08	0.02808131	0.006287269	-0.0001966026	-0.0002633833	0.0220198	0.02053755	-0.0002060119	-0.0003163996
	-0.000216411	-0.0002464815	0.02872815	0.007607754	-0.000400157	-0.000128807	0.02211267	0.02088939
	0.02197382	0.02160377	-0.0003978963	-0.000131483	0.02941437	0.00774233	-0.0002251795	-0.0002572101
	-0.0002078425	-0.0003124259	0.02216602	0.0209916	-0.0002195115	-0.0002671251	0.02887606	0.009053251
1.3e+08	0.06857784	0.01127062	-0.000295795	-5.179852e-05	0.07770536	0.04315449	-0.0003480569	-0.0001320959
	-0.0002993029	-3.432992e-05	0.07061787	0.0115724	-0.0003865118	0.0001575705	0.07798791	0.04308702
	0.07830481	0.04368756	-0.0003844299	0.0001562687	0.07082083	0.01201591	-0.0003138053	-3.07654e-05
	-0.0003449526	-0.0001334078	0.07813248	0.04310121	-0.0003174907	-4.242067e-05	0.0718314	0.01219247
1.4e+08	0.09900707	-0.02210841	-0.0002097519	9.205776e-05	0.129466	0.004218727	-0.0003442469	5.805949e-05
	-0.0002100377	0.0001035481	0.1010788	-0.02368897	-0.0001759266	0.0002908674	0.1294625	0.003759681
	0.1299845	0.003991649	-0.0001724269	0.0002867939	0.1014005	-0.02261968	-0.0002128812	0.0001160302
	-0.0003475281	5.20398e-05	0.129588	0.003641967	-0.0002232782	0.0001115766	0.1022299	-0.02433483
1.5e+08	0.0924255	-0.06892343	-0.0001540504	0.0001056602	0.1268823	-0.06310763	-0.0002885995	0.0001935017
	-0.0001545471	0.00012123	0.09301981	-0.07174098	-4.33894e-05	0.0002362748	0.1263604	-0.06352966
	0.1267284	-0.06365294	-4.439258e-05	0.0002278106	0.09405258	-0.07042012	-0.0001477141	0.0001258019
	-0.0002989128	0.0001948181	0.1263661	-0.06371527	-0.0001557179	0.000129686	0.09313761	-0.07300487
1.6e+08	0.05252431	-0.09389556	-0.0001794799	0.0001853227	0.07095807	-0.09999545	-0.0002075378	0.0003345201
	-0.0001671613	0.0002066391	0.05130989	-0.09636166	-4.563999e-05	0.0002434325	0.07014833	-0.09992237
	0.07013266	-0.1001398	-5.515413e-05	0.0002379502	0.05302462	-0.09546037	-0.0001665021	0.0002026382
	-0.0002117	0.0003468749	0.07002716	-0.1000595	-0.0001680335	0.000207777	0.05033163	-0.09704991
1.7e+08	0.0107105	-0.07688247	-5.993546e-05	0.000370419	0.01216766	-0.07436583	-8.000773e-06	0.0004735096
	-2.877915e-05	0.0003789457	0.008798759	-0.07781288	7.723882e-05	0.0003714674	0.01164783	-0.07368884
	0.01127192	-0.07362929	6.625282e-05	0.0003769554	0.01065009	-0.07765862	-3.662166e-05	0.000382211
	2.312668e-06	0.0004834158	0.01148763	-0.07370316	-3.65674e-05	0.0003833159	0.007742007	-0.07715496
1.8e+08	0.005898743	-0.03363732	0.0002620292	0.000363754	0.007383227	-0.01372539	0.0003157743	0.0004350015
	0.0002916798	0.0003439975	0.004884411	-0.03335225	0.0003917933	0.000296057	0.007646193	-0.01295067
	0.007215338	-0.01232776	0.0003909086	0.0003078612	0.00638704	-0.03368666	0.0002923084	0.0003587213
	0.0003284029	0.000429469	0.007553804	-0.01287274	0.0002882913	0.0003599367	0.00505263	-0.03180405
1.9e+08	0.04482895	-0.01060114	0.0004256635	6.299604e-05	0.0598524	0.01529777	0.0005229611	0.0001500207
	0.0004297526	2.998746e-05	0.04521302	-0.01062797	0.000490479	-7.80562e-05	0.06068106	0.01537889
	0.0607069	0.01653822	0.0004982734	-7.289148e-05	0.04634535	-0.0110387	0.0004460364	3.873301e-05
	0.0005218939	0.0001383652	0.06068407	0.01545064	0.0004426615	4.671642e-05	0.04692989	-0.009621273
2e+08	0.08801211	-0.0365357	0.0002916355	-0.0001647477	0.1108016	-0.02027352	0.0004818313	-0.0001524725
	0.0002752567	-0.0001852501	0.08873888	-0.03802368	0.0002402183	-0.0003025574	0.1113485	-0.02109511
	0.1121792	-0.01990442	0.0002449064	-0.0003050136	0.08972252	-0.03836434	0.0002923842	-0.0001932263
	0.0004726938	-0.000153554	0.1113847	-0.02109494	0.0002982986	-0.0001833197	0.09094597	-0.03861087
2.1e+08	0.09275371	-0.09201222	0.0001759775	-0.0001806816	0.1067047	-0.08491275	0.0003400502	-0.0003322494
	0.0001593109	-0.0001854105	0.09234693	-0.09468454	6.415532e-05	-0.0002189059	0.1063548	-0.08603126
	0.1077888	-0.08542692	6.400754e-05	-0.0002194897	0.09329162	-0.0950217	0.0001646098	-0.0002012848
	0.0003385899	-0.0003245519	0.1063498	-0.08608625	0.0001768253	-0.0001999568	0.09362357	-0.09654539
2.2e+08	0.05131072	-0.1339793	0.0001854547	-0.0002483226	0.05106455	-0.1192868	0.00018715	-0.0004629274
	0.0001740731	-0.0002498813	0.04916737	-0.1364779	0.0001297017	-0.0002021048	0.04996009	-0.1198766
	0.05136295	-0.1200978	0.000132892	-0.0001994287	0.05004332	-0.1368531	0.0001695758	-0.0002624713
	0.0001951057	-0.0004607898	0.04988922	-0.1199273	0.0001773331	-0.0002703493	0.04899667	-0.1383117
2.3e+08	-0.007901609	-0.1298099	5.47625e-05	-0.0004504395	-0.00755935	-0.09534862	-5.480041e-05	-0.0005780099
	3.93441e-05	-0.0004519332	-0.01103091	-0.1308709	7.163956e-05	-0.0004337294	-0.008656534	-0.09502283
	-0.007900186	-0.09572759	7.964931e-05	-0.0004366434	-0.01022706	-0.1311783	3.200628e-05	-0.0004593299
	-5.055427e-05	-0.0005863759	-0.008766764	-0.09502353	3.119265e-05	-0.0004673147	-0.01185618	-0.1315176
2.4e+08	-0.03831715	-0.08208281	-0.0003267038	-0.0004656182	-0.01876044	-0.03732565	-0.0004283175	-0.0005218694
	-0.0003474543	-0.0004548008	-0.04097812	-0.08161181	-0.0003442789	-0.0005037369	-0.01903153	-0.03651544
	-0.01905651	-0.03693946	-0.00034225	-0.0005156569	-0.04001258	-0.08179405	-0.0003559184	-0.0004601397
	-0.0004355777	-0.0005286064	-0.0191425	-0.03645584	-0.0003584459	-0.0004623409	-0.04098679	-0.08112774
2.5e+08	-0.01393749	-0.03570049	-0.0005782397	-0.000103467	0.02381212	-0.003276047	-0.0007017668	-0.0001625177
	-0.0005869352	-7.595867e-05	-0.01532791	-0.03482803	-0.0006466447	-8.613568e-05	0.02444799	-0.003011757
	0.02426818	-0.002521982	-0.0006578209	-9.483482e-05	-0.01395748	-0.03525009	-0.0005991646	-7.899569e-05
	-0.0007094439	-0.0001576574	0.02436524	-0.002896892	-0.0005972948	-8.135514e-05	-0.01379253	-0.0346233
2.6e+08	0.03691849	-0.03820665	-0.0004368908	0.0002489214	0.07002389	-0.02743323	-0.0006416239	0.0002709373
	-0.0004222135	0.0002745436	0.03625062	-0.03805845	-0.0004306675	0.0003252778	0.07063763	-0.02834739
	0.07128011	-0.02715809	-0.0004435402	0.0003311422	0.03767147	-0.03930024	-0.0004384193	0.000278822
	-0.0006385677	0.0002776569	0.07061308	-0.02819206	-0.0004389038	0.000269904	0.03839706	-0.03952323
2.7e+08	0.05944439	-0.0873623	-0.0002326621	0.0003287024	0.06781095	-0.07982143	-0.0003885575	0.000522529
	-0.0002076599	0.0003353256	0.05843791	-0.0879814	-0.0001529678	0.0003152087	0.06736752	-0.0814291
	0.06918888	-0.08055087	-0.0001536795	0.0003273215	0.05897179	-0.08996399	-0.0002213605	0.0003520391
	-0.0003827147	0.0005194009	0.06742777	-0.08127222	-0.0002324435	0.0003440577	0.05946149	-0.09099539
2.8e+08	0.02877544	-0.1379969	-0.0001528713	0.0003968076	0.02074279	-0.1044208	-0.0001201999	0.0006357446
	-0.0001350034	0.000388542	0.02693659	-0.1386185	-0.0001775279	0.0002844723	0.01908288	-0.105612
	0.02143612	-0.1059315	-0.0001700501	0.0002889937	0.02609541	-0.1402999	-0.0001343176	0.0004146732
	-0.0001240046	0.0006284127	0.01921916	-0.105515	-0.0001502554	0.000418843	0.02604431	-0.1416327
2.9e+08	-0.0336523	-0.1461152	5.049396e-05	0.000556359	-0.02502645	-0.0792787	0.0001931532	0.0006811635
	5.895723e-05	0.0005458715	-0.03598541	-0.145985	-0.0001154041	0.0005528203	-0.02710898	-0.07930098
	-0.02535337	-0.08083803	-0.0001116846	0.0005501831	-0.0374919	-0.146233	7.965214e-05	0.0005660854
	0.0001822388	0.000683289	-0.02695876	-0.07931041	7.190049e-05	0.0005815713	-0.03792573	-0.147513
3e+08	-0.07947677	-0.1026916	0.0004667848	0.000505284	-0.0294405	-0.03001585	0.0005900289	0.0005488341
	0.000473252	0.0004954587	-0.08152307	-0.1016757	0.0003868727	0.0006898019	-0.03088285	-0.0290748
	-0.03046575	-0.03089945	0.0003856878	0.0006899097	-0.08217929	-0.100453	0.0005016587	0.0004947181
	0.000586714	0.0005620407	-0.03081432	-0.02916891	0.0005072208	0.0005099562	-0.08279891	-0.1016531
3.1e+08	-0.07230546	-0.04416358	0.0007335906	7.491418e-05	0.007466283	-0.003291045	0.0008721509	0.0001156583
	0.0007379416	5.952432e-05	-0.07358345	-0.04282768	0.0008616719	0.0002228361	0.007085529	-0.002392053
	0.006511141	-0.003289664	0.00086488	0.0002268785	-0.07240807	-0.04155131	0.0007543753	4.277218e-05
	0.0008827533	0.0001256595	0.007024827	-0.00245768	0.0007661859	4.903106e-05	-0.07323953	-0.04272117
3.2e+08	-0.02482319	-0.02230572	0.0005740145	-0.0003760008	0.04451568	-0.02306573	0.0007839118	-0.0004220044
	0.0005668877	-0.0003952103	-0.02554589	-0.02122765	0.0007092318	-0.0004091618	0.04455516	-0.02310078
	0.04425954	-0.02267546	0.0007180308	-0.0004116586	-0.02336055	-0.02169593	0.0005706245	-0.0004101674
	0.0007968333	-0.0004252138	0.04445653	-0.02301503	0.0005805823	-0.000410483	-0.02445157	-0.02263155
3.3e+08	0.01220859	-0.05151084	0.0002685991	-0.0005359194	0.04103339	-0.06303318	0.0004154121	-0.0007521386
	0.0002491393	-0.0005463663	0.01161658	-0.05070983	0.0002752144	-0.0005743255	0.04040282	-0.06390549
	0.04141133	-0.06304886	0.0002773926	-0.0005858617	0.01259876	-0.0531176	0.0002533969	-0.0005593926
	0.0004195442	-0.0007612408	0.04044443	-0.06369285	0.000262251	-0.0005615919	0.01157718	-0.05359555
3.4e+08	0.002832432	-0.09704503	4.570265e-05	-0.0005963895	0.003447527	-0.07616175	-2.807367e-06	-0.0008443156
	2.550222e-05	-0.0005921885	0.002331629	-0.0963118	9.959069e-05	-0.0005306531	0.001668417	-0.07690715
	0.003774262	-0.07696233	8.982399e-05	-0.0005385288	0.0007201705	-0.0986385	2.489936e-05	-0.0006154158
	-3.929018e-06	-0.0008498378	0.001927247	-0.07675498	3.491759e-05	-0.0006221597	0.0002619191	-0.09894861
3.5e+08	-0.04321126	-0.1129955	-0.0002704413	-0.0006463156	-0.02542293	-0.04866895	-0.0004193626	-0.0007758198
	-0.0002826267	-0.0006338123	-0.04347325	-0.1123923	-7.210034e-05	-0.0006847873	-0.02781236	-0.04838444
	-0.02585102	-0.04992698	-8.284735e-05	-0.0006804411	-0.04656301	-0.1122328	-0.0003056291	-0.0006575795
	-0.0004188845	-0.0007799877	-0.02746284	-0.0484748	-0.0002998611	-0.0006725699	-0.04649659	-0.1131108
3.6e+08	-0.08377574	-0.08328191	-0.0006869205	-0.0004310559	-0.01540134	-0.01034701	-0.0008226396	-0.0004931487
	-0.000692186	-0.0004171138	-0.08389055	-0.08305514	-0.0005927036	-0.0006968609	-0.01739347	-0.008987158
	-0.01676695	-0.01129927	-0.0005938379	-0.0006878687	-0.08566035	-0.08007515	-0.0007303244	-0.000415383
	-0.0008239924	-0.0005018014	-0.01719352	-0.009319505	-0.0007370319	-0.0004334208	-0.08587134	-0.08193972
3.7e+08	-0.08370296	-0.03458872	-0.0008466846	9.612951e-05	0.02256757	-0.0007381019	-0.00102583	4.809721e-05
	-0.000847352	0.0001117988	-0.08403626	-0.03479071	-0.001035902	-0.0001390957	0.02152349	0.0009398471
	0.02073676	-0.0007275515	-0.001031629	-0.0001360773	-0.08261809	-0.03129563	-0.0008697851	0.0001404513
	-0.001036828	3.987701e-05	0.02142442	0.0005782621	-0.0008884498	0.0001313081	-0.08405403	-0.03358622
3.8e+08	-0.04816496	-0.009389647	-0.0005888421	0.0005523929	0.04841016	-0.02949328	-0.0008379105	0.0006318309
	-0.0005807669	0.0005697732	-0.04901496	-0.009633305	-0.0008426718	0.0005755437	0.04801917	-0.02828253
	0.04695147	-0.02845493	-0.000842228	0.0005750621	-0.04543385	-0.00854935	-0.000577503	0.0005973661
	-0.0008546071	0.0006356011	0.04772198	-0.02841285	-0.0005970267	0.0006031888	-0.048138	-0.009970016
3.9e+08	-0.01430469	-0.02294349	-0.0002130167	0.0007082881	0.03452045	-0.06485666	-0.0003613859	0.0009752667
	-0.0001935564	0.0007190546	-0.01539702	-0.02267625	-0.0002991741	0.0008353936	0.03406887	-0.0642682
	0.03401879	-0.06340336	-0.0002998718	0.0008393742	-0.01279529	-0.02463336	-0.0001847524	0.0007337922
	-0.0003698805	0.0009913677	0.0338617	-0.06411214	-0.0001952122	0.000749077	-0.01553976	-0.02433288
4e+08	-0.01085381	-0.0525206	0.0001120681	0.0007437051	-0.002548133	-0.06756733	0.0001855519	0.001024402
	0.0001348894	0.0007397221	-0.01141991	-0.05177164	8.292158e-05	0.0007836838	-0.003507559	-0.06714402
	-0.002205528	-0.06651875	8.917542e-05	0.0007884044	-0.01196404	-0.05428455	0.0001431837	0.0007562149
	0.0001911296	0.001040532	-0.003423633	-0.06692687	0.000142741	0.000772804	-0.01321104	-0.05291171
4.1e+08	-0.03263486	-0.06515964	0.0005261176	0.0006696848	-0.02030014	-0.03525379	0.0007008892	0.0008184942
	0.0005410025	0.0006537151	-0.0322936	-0.06478487	0.0004140543	0.0007377527	-0.02160872	-0.0344535
	-0.01980609	-0.03500753	0.0004233023	0.0007335328	-0.03485257	-0.06468533	0.0005652316	0.0006705458
	0.000713414	0.0008255941	-0.02132536	-0.03446773	0.0005725034	0.0006850176	-0.03431438	-0.06402573
4.2e+08	-0.05038358	-0.0506965	0.0009064362	0.0002568206	0.002549122	-0.004685396	0.001082107	0.0003404004
	0.0009103552	0.0002377835	-0.04980912	-0.05160644	0.0008628869	0.000472378	0.001368733	-0.003414764
	0.002474742	-0.004937693	0.0008635228	0.0004617608	-0.05099662	-0.04829554	0.0009470739	0.0002311343
	0.001093803	0.0003401449	0.001547788	-0.003737746	0.000961922	0.0002406768	-0.05012269	-0.04962399
4.3e+08	-0.04362535	-0.02987335	0.0008728153	-0.0003624307	0.04311135	-0.0122404	0.001123741	-0.0003244327
	0.0008689521	-0.0003804337	-0.0441209	-0.03196075	0.001035536	-0.0001734634	0.04229566	-0.01080604
	0.04228315	-0.01221751	0.001027616	-0.0001779669	-0.04171428	-0.02813412	0.0008886148	-0.0004121769
	0.001134264	-0.0003287772	0.04213786	-0.01121641	0.0009079983	-0.0004135376	-0.0424645	-0.0308552
4.4e+08	-0.02270067	-0.02794469	0.0004570564	-0.0007246652	0.05739971	-0.0546442	0.0007592164	-0.0008818469
	0.0004449568	-0.000741381	-0.02497123	-0.02992823	0.0006730196	-0.0007263429	0.0568339	-0.05328656
	0.05635791	-0.05371268	0.0006684851	-0.000722568	-0.02021605	-0.02884805	0.000439102	-0.0007703243
	0.000767964	-0.0008924113	0.05640106	-0.05346455	0.0004532228	-0.0007842294	-0.02314168	-0.03087153
4.5e+08	-0.01289035	-0.0448558	6.957543e-05	-0.000765277	0.02742564	-0.09041141	0.0001919342	-0.001129782
	4.673872e-05	-0.0007747611	-0.01620713	-0.0453459	0.000179519	-0.000856008	0.0269786	-0.08912108
	0.0270457	-0.08862209	0.0001815595	-0.0008546404	-0.01249376	-0.04750611	3.567361e-05	-0.0007910449
	0.0001923373	-0.001146102	0.02656955	-0.08894557	3.736491e-05	-0.000809109	-0.01603502	-0.04718718
4.6e+08	-0.02325201	-0.05867467	-0.0002422496	-0.0007667426	-0.01817946	-0.08371669	-0.0003962187	-0.00109298
	-0.0002695161	-0.0007593848	-0.02597386	-0.05751659	-0.0001763371	-0.0008321297	-0.01846121	-0.08245616
	-0.01737	-0.08182048	-0.0001777556	-0.0008364899	-0.02530498	-0.06025925	-0.0002821301	-0.0007773035
	-0.0004079422	-0.001106195	-0.01859033	-0.08210446	-0.0002893958	-0.0007905164	-0.02715227	-0.05806487
4.7e+08	-0.03725068	-0.05266265	-0.0006956736	-0.000642457	-0.03386105	-0.04258627	-0.0009465477	-0.0007820896
	-0.0007125211	-0.0006179754	-0.03834261	-0.05122603	-0.0006163419	-0.0007443161	-0.03388144	-0.0415172
	-0.03210076	-0.04150115	-0.0006249777	-0.0007438021	-0.03932329	-0.0516071	-0.0007429473	-0.0006324641
	-0.0009636552	-0.0007833709	-0.03373939	-0.04128368	-0.0007530487	-0.0006407311	-0.0385849	-0.04981974
4.8e+08	-0.03158602	-0.03640561	-0.001059024	-9.31119e-05	-0.003973099	-0.01157124	-0.001295141	-0.0001424567
	-0.001056161	-6.476425e-05	-0.03172454	-0.03636437	-0.001053279	-0.0002539195	-0.003925568	-0.0110102
