!$
! Info: Touchstone file created by Circ.  Input file=Tx_NPC_250mm_32AWG_BPK_100mm_27AWG_BPK_250mm_32AWG_NPC_Rx.circ
!$
# Hz S RI R 50
0	0.0114837	-3.975188e-16	9.276416e-07	-2.15234e-20	0.003298096	-4.528466e-16	-1.394461e-06	-8.383974e-21
	2.644402e-06	-3.319939e-19	0.01272697	-2.117958e-16	-4.964322e-06	8.262056e-20	0.002573747	-4.583924e-16
	0.004395831	8.291328e-16	-1.091117e-07	-8.041195e-20	0.03438885	-2.561955e-17	-3.641959e-08	-2.636221e-20
	-2.605213e-06	-5.230654e-21	0.002682354	-2.626335e-16	1.833014e-06	-1.912065e-19	0.03767701	4.539912e-16
1e+07	0.04399235	0.006241126	1.076511e-06	-1.125375e-07	0.01036762	0.02301663	-1.309723e-06	4.517998e-07
	2.556488e-06	-8.465499e-07	0.04542374	0.005968833	-4.762038e-06	1.576276e-06	0.01009562	0.02303001
	0.0111829	0.02298158	-7.707572e-08	1.933246e-07	0.04394102	0.006477191	-2.558925e-08	1.238568e-07
	-2.536289e-06	7.214421e-07	0.01014109	0.02305238	1.757946e-06	-5.758489e-07	0.04697917	0.005449366
2e+07	0.0518277	0.00765664	1.087823e-06	-2.534463e-07	0.02710203	0.04088416	-1.091773e-06	8.401104e-07
	2.163917e-06	-1.619856e-06	0.05302468	0.007066336	-4.018237e-06	2.95697e-06	0.02686024	0.04122683
	0.02787119	0.04048246	3.917298e-08	3.576603e-07	0.0517864	0.008131799	3.761315e-08	2.325287e-07
	-2.250472e-06	1.384347e-06	0.02690344	0.0412047	1.465195e-06	-1.098435e-06	0.05431391	0.006034422
3e+07	0.06022008	0.004171033	1.07337e-06	-4.236392e-07	0.05008869	0.04894735	-7.773196e-07	1.123275e-06
	1.535131e-06	-2.243822e-06	0.06112595	0.003372314	-2.91083e-06	4.004663e-06	0.04981232	0.04956406
	0.05093644	0.04813988	2.134875e-07	4.607772e-07	0.06020241	0.0049491	1.316472e-07	3.081881e-07
	-1.810491e-06	1.937308e-06	0.04987652	0.04948067	9.993172e-07	-1.496817e-06	0.06203696	0.001987865
4e+07	0.06704607	-0.003609941	1.01711e-06	-6.140061e-07	0.07490425	0.04479962	-4.161552e-07	1.279385e-06
	7.200482e-07	-2.647216e-06	0.06763722	-0.004549841	-1.585061e-06	4.636179e-06	0.07479501	0.0454607
	0.07554599	0.04378318	4.181417e-07	4.843444e-07	0.06719737	-0.002675274	2.396738e-07	3.420635e-07
	-1.259808e-06	2.347184e-06	0.07483696	0.04535757	4.102498e-07	-1.715498e-06	0.06807708	-0.006108762
5e+07	0.07058387	-0.01422036	9.08492e-07	-8.124121e-07	0.09553977	0.03001451	-5.898212e-08	1.310254e-06
	-2.075857e-07	-2.774602e-06	0.07081298	-0.01520177	-1.938607e-07	4.832246e-06	0.09560551	0.03052309
	0.09588894	0.02895865	6.22049e-07	4.201811e-07	0.07096198	-0.01319419	3.440874e-07	3.359939e-07
	-6.452109e-07	2.599803e-06	0.0956212	0.03042813	-2.35801e-07	-1.716571e-06	0.07079486	-0.01682792
6e+07	0.06994388	-0.02633467	7.391991e-07	-9.976523e-07	0.107756	0.007238376	2.512127e-07	1.237872e-06
	-1.155777e-06	-2.59809e-06	0.06981118	-0.02725054	1.12999e-06	4.616593e-06	0.1079363	0.007633715
	0.1078347	0.006090901	7.912578e-07	2.715057e-07	0.07061267	-0.02525963	4.324165e-07	2.92565e-07
	-7.832052e-09	2.69464e-06	0.1079189	0.007529353	-8.498591e-07	-1.500741e-06	0.06936135	-0.02876138
7e+07	0.06493589	-0.03775312	5.087159e-07	-1.154667e-06	0.1089959	-0.01861507	4.878019e-07	1.094991e-06
	-2.026503e-06	-2.118361e-06	0.06445488	-0.0384911	2.276769e-06	4.059403e-06	0.1092282	-0.01837903
	0.1087907	-0.0197356	8.945864e-07	5.342609e-08	0.06589978	-0.03676885	4.94808e-07	2.250111e-07
	6.163499e-07	2.63962e-06	0.1091817	-0.01847471	-1.366191e-06	-1.087232e-06	0.06365151	-0.03978843
8e+07	0.05604162	-0.0468429	2.207845e-07	-1.259067e-06	0.099023	-0.04240929	6.41175e-07	9.218151e-07
	-2.72519e-06	-1.369611e-06	0.05527946	-0.04727046	3.174872e-06	3.242617e-06	0.09926067	-0.04231667
	0.09854721	-0.04343343	9.068111e-07	-2.071386e-07	0.05728879	-0.04605723	5.279223e-07	1.431279e-07
	1.199351e-06	2.446441e-06	0.0991851	-0.04239303	-1.721668e-06	-5.264865e-07	0.05421213	-0.04828699
9e+07	0.04437328	-0.05211345	-1.103829e-07	-1.288476e-06	0.07988351	-0.05934782	7.19641e-07	7.541773e-07
	-3.170674e-06	-4.141772e-07	0.04345775	-0.05211766	3.784781e-06	2.256795e-06	0.08011291	-0.05936797
	0.07916273	-0.06022747	8.151879e-07	-4.74418e-07	0.04585546	-0.05162985	5.325465e-07	5.588087e-08
	1.717384e-06	2.128912e-06	0.0800132	-0.05941651	-1.879087e-06	1.148795e-07	0.04222337	-0.05280489
1e+08	0.03173322	-0.05244923	-4.628444e-07	-1.225879e-06	0.05564771	-0.06592608	7.459022e-07	6.177186e-07
	-3.303606e-06	6.62042e-07	0.03082732	-0.05196698	4.095942e-06	1.190674e-06	0.05584706	-0.06606424
	0.05474017	-0.06658235	6.214263e-07	-7.09884e-07	0.03332187	-0.05237735	5.14371e-07	-2.864667e-08
	2.149032e-06	1.702264e-06	0.05573822	-0.06607631	-1.826785e-06	7.687506e-07	0.02952312	-0.05230396
1.1e+08	0.02006435	-0.04761285	-8.011385e-07	-1.060122e-06	0.03143345	-0.06085131	7.520894e-07	5.234944e-07
	-3.092416e-06	1.755022e-06	0.01941649	-0.04662982	4.112976e-06	1.158695e-07	0.03162213	-0.06109156
	0.03037972	-0.06126433	3.412799e-07	-8.795685e-07	0.02160661	-0.04801733	4.756419e-07	-1.118304e-07
	2.472782e-06	1.181388e-06	0.03151394	-0.06106371	-1.577933e-06	1.358258e-06	0.01812582	-0.04662028
1.2e+08	0.01176576	-0.0381073	-1.092206e-06	-7.997931e-07	0.01269819	-0.045248	7.679216e-07	4.616451e-07
	-2.542065e-06	2.754214e-06	0.01159176	-0.03675622	3.861015e-06	-9.004483e-07	0.01285578	-0.04558716
	0.01157855	-0.04537681	2.989611e-09	-9.594558e-07	0.01304226	-0.03892794	4.226173e-07	-1.944891e-07
	2.667364e-06	5.868837e-07	0.01276582	-0.04552205	-1.168665e-06	1.829776e-06	0.01040802	-0.03641971
1.3e+08	0.008752357	-0.02550507	-1.302701e-06	-4.650958e-07	0.00377622	-0.02264154	8.130755e-07	4.066376e-07
	-1.693373e-06	3.551437e-06	0.009214581	-0.02400498	3.366404e-06	-1.807108e-06	0.003892451	-0.02308556
	0.002666753	-0.02247933	-3.614885e-07	-9.381673e-07	0.009612158	-0.0266018	3.501622e-07	-2.840675e-07
	2.711135e-06	-5.521124e-08	0.003834518	-0.02299321	-6.527008e-07	2.138414e-06	0.008212246	-0.02337766
1.4e+08	0.01226903	-0.01221043	-1.413502e-06	-8.905805e-08	0.00699201	0.001749866	8.866362e-07	3.25363e-07
	-6.229437e-07	4.056644e-06	0.01342637	-0.01084746	2.66043e-06	-2.558375e-06	0.007046234	0.0011894
	0.005964876	0.002189265	-7.225662e-07	-8.163047e-07	0.0126372	-0.01338887	2.460323e-07	-3.8334e-07
	2.585977e-06	-7.091051e-07	0.007028519	0.001294319	-9.354331e-08	2.265243e-06	0.01267126	-0.009975766
1.5e+08	0.02249034	-0.001167184	-1.423443e-06	2.934498e-07	0.02203322	0.02210335	9.661891e-07	1.911124e-07
	5.661011e-07	4.210848e-06	0.02425863	-0.0002386242	1.780739e-06	-3.112516e-06	0.02198101	0.02143178
	0.02116952	0.02278495	-1.056916e-06	-6.012027e-07	0.02237851	-0.002190425	9.496099e-08	-4.856539e-07
	2.283212e-06	-1.330054e-06	0.0220047	0.02153011	4.49531e-07	2.216591e-06	0.02382049	0.0008179929
1.6e+08	0.03816118	0.004876866	-1.339592e-06	6.484327e-07	0.04589308	0.03341011	1.016644e-06	-8.014275e-09
	1.755119e-06	3.991666e-06	0.04035211	0.005127622	7.686023e-07	-3.428376e-06	0.04569445	0.03263659
	0.04523698	0.0342821	-1.346427e-06	-3.022064e-07	0.03768639	0.004175699	-1.219251e-07	-5.696645e-07
	1.807322e-06	-1.865167e-06	0.04575225	0.0327135	9.207717e-07	2.015361e-06	0.04027333	0.006295376
1.7e+08	0.05700262	0.003712729	-1.184431e-06	9.576847e-07	0.07360287	0.03251152	9.98852e-07	-2.596956e-07
	2.828995e-06	3.418733e-06	0.05931972	0.003143245	-3.175256e-07	-3.473133e-06	0.07321396	0.03168207
	0.07320032	0.03350508	-1.574952e-06	7.255688e-08	0.05634994	0.003472191	-4.04858e-07	-6.055851e-07
	1.182111e-06	-2.263395e-06	0.07329192	0.03172555	1.288911e-06	1.699132e-06	0.0596442	0.004328458
1.8e+08	0.07592258	-0.005633793	-9.781662e-07	1.207517e-06	0.09934861	0.01891729	8.83227e-07	-5.349785e-07
	3.684909e-06	2.544585e-06	0.07804217	-0.007034627	-1.409583e-06	-3.223077e-06	0.09874599	0.01808973
	0.09921539	0.01995883	-1.725014e-06	5.132262e-07	0.07531326	-0.005383976	-7.426061e-07	-5.583308e-07
	4.491043e-07	-2.479728e-06	0.09882712	0.01809658	1.531618e-06	1.306985e-06	0.07878626	-0.005937925
1.9e+08	0.09168931	-0.0228589	-7.421859e-07	1.393686e-06	0.117793	-0.005244563	6.553626e-07	-7.923434e-07
	4.24327e-06	1.448956e-06	0.09331138	-0.02497344	-2.428433e-06	-2.672906e-06	0.1169764	-0.006006421
	0.1179227	-0.004226108	-1.777765e-06	1.005823e-06	0.0913289	-0.02218713	-1.105609e-06	-3.996161e-07
	-3.3566e-07	-2.484361e-06	0.117045	-0.006031044	1.639718e-06	8.772329e-07	0.09445913	-0.02408068
2e+08	0.1013985	-0.04647832	-4.951443e-07	1.520122e-06	0.125157	-0.03580767	3.19434e-07	-9.858094e-07
	4.452783e-06	2.291555e-07	0.1022905	-0.04907971	-3.290565e-06	-1.840376e-06	0.1241536	-0.03643573
	0.1255275	-0.03488227	-1.715284e-06	1.529949e-06	0.1014583	-0.04552258	-1.452237e-06	-1.16474e-07
	-1.109027e-06	-2.266513e-06	0.1241981	-0.03648079	1.612129e-06	4.447328e-07	0.103797	-0.04850931
2.1e+08	0.1029311	-0.0739875	-2.564646e-07	1.590745e-06	0.1199304	-0.06749167	-1.04926e-07	-1.072595e-06
	4.288413e-06	-1.006096e-06	0.1029759	-0.0767898	-3.913509e-06	-7.654355e-07	0.1187749	-0.06795102
	0.120499	-0.06670575	-1.523834e-06	2.05865e-06	0.1034774	-0.0729467	-1.737233e-06	2.927591e-07
	-1.804587e-06	-1.835336e-06	0.1187925	-0.06800132	1.4502e-06	4.911218e-08	0.1047538	-0.07663798
2.2e+08	0.09508877	-0.1023255	-3.587436e-08	1.623324e-06	0.1029229	-0.09505387	-5.791641e-07	-1.016243e-06
	3.761116e-06	-2.146136e-06	0.09427734	-0.1050158	-4.2253e-06	4.847498e-07	0.1016604	-0.09531551
	0.1036408	-0.09444879	-1.19509e-06	2.560182e-06	0.0961303	-0.1014034	-1.915855e-06	8.066401e-07
	-2.363645e-06	-1.218945e-06	0.1016546	-0.09535773	1.167844e-06	-2.726048e-07	0.09621665	-0.1053652
2.3e+08	0.07784015	-0.1280916	1.613764e-07	1.634888e-06	0.07700498	-0.1142098	-1.051999e-06	-7.937946e-07
	2.911906e-06	-3.083805e-06	0.07628409	-0.1303898	-4.169289e-06	1.820426e-06	0.07567987	-0.114254
	0.07781727	-0.1138058	-7.277318e-07	2.998679e-06	0.07929211	-0.1274694	-1.949783e-06	1.393719e-06
	-2.735497e-06	-4.625979e-07	0.07566126	-0.1142792	7.912809e-07	-4.792348e-07	0.07824721	-0.131284
2.4e+08	0.05233952	-0.1479555	3.434727e-07	1.643936e-06	0.04641304	-0.1223161	-1.460377e-06	-4.0153e-07
	1.815975e-06	-3.728059e-06	0.05024232	-0.1496534	-3.714231e-06	3.130495e-06	0.04507589	-0.1221284
	0.04726597	-0.122117	-1.278075e-07	3.334539e-06	0.05405739	-0.1477561	-1.810495e-06	2.007775e-06
	-2.884588e-06	3.747865e-07	0.04505776	-0.1221349	3.659322e-07	-5.386301e-07	0.05207912	-0.1510926
2.5e+08	0.02093062	-0.1590469	5.326376e-07	1.660075e-06	0.01594897	-0.1186966	-1.737227e-06	1.379604e-07
	5.762096e-07	-4.017088e-06	0.0185492	-0.1600284	-2.862998e-06	4.288961e-06	0.01466342	-0.1182719
	0.01679194	-0.1186965	5.888228e-07	3.524152e-06	0.02275332	-0.1593439	-1.485186e-06	2.590062e-06
	-2.793488e-06	1.225463e-06	0.01465667	-0.1182658	-4.726032e-08	-4.390805e-07	0.02011095	-0.1619818
2.6e+08	-0.01293626	-0.1594329	7.514682e-07	1.678521e-06	-0.009828905	-0.1046562	-1.82403e-06	7.742641e-07
	-6.879276e-07	-3.923355e-06	-0.0153334	-0.1597078	-1.660778e-06	5.164538e-06	-0.01099111	-0.1040055
	-0.009034692	-0.1048316	1.391285e-06	3.520933e-06	-0.01118392	-0.1602028	-9.773729e-07	3.076621e-06
	-2.466272e-06	2.015145e-06	-0.01097951	-0.1039994	-3.793217e-07	-1.965695e-07	-0.01418323	-0.1620802
2.7e+08	-0.04513306	-0.1485593	1.026062e-06	1.670769e-06	-0.02735616	-0.08313226	-1.683829e-06	1.428626e-06
	-1.856924e-06	-3.467983e-06	-0.04731703	-0.1482262	-2.004694e-07	5.637834e-06	-0.02831436	-0.08229948
	-0.02664297	-0.08345902	2.229223e-06	3.280111e-06	-0.04358545	-0.1497517	-3.208088e-07	3.399087e-06
	-1.929926e-06	2.674564e-06	-0.02828779	-0.08230771	-5.758829e-07	1.363209e-07	-0.04668926	-0.1508978
2.8e+08	-0.07137567	-0.1276005	1.358614e-06	1.593917e-06	-0.03458983	-0.05821389	-1.31596e-06	2.008075e-06
	-2.828487e-06	-2.707427e-06	-0.07319549	-0.1268389	1.377569e-06	5.619626e-06	-0.03527475	-0.05727958
	-0.03397771	-0.05866283	3.027209e-06	2.768747e-06	-0.07012925	-0.129121	4.255401e-07	3.501297e-06
	-1.235286e-06	3.142949e-06	-0.03524499	-0.05731358	-6.117733e-07	4.831034e-07	-0.07315815	-0.1296488
2.9e+08	-0.08805018	-0.09949951	1.723948e-06	1.398863e-06	-0.03134228	-0.03441701	-7.628022e-07	2.422325e-06
	-3.531848e-06	-1.726692e-06	-0.08945687	-0.09851739	2.896857e-06	5.073745e-06	-0.03171596	-0.03349749
	-0.03084173	-0.03496062	3.687073e-06	1.980216e-06	-0.08715841	-0.1012483	1.17595e-06	3.351567e-06
	-4.527688e-07	3.380009e-06	-0.03170152	-0.03356055	-5.068219e-07	7.617767e-07	-0.0900267	-0.1012892
3e+08	-0.09301239	-0.06859557	2.064719e-06	1.048439e-06	-0.0193218	-0.01590005	-1.064341e-07	2.606372e-06
	-3.93427e-06	-6.208259e-07	-0.09405098	-0.06757279	4.167353e-06	4.033923e-06	-0.01939706	-0.01513338
	-0.01893986	-0.01651547	4.098877e-06	9.490215e-07	-0.09249947	-0.07049126	1.830132e-06	2.958012e-06
	3.363457e-07	3.373176e-06	-0.0194177	-0.01521596	-3.237835e-07	9.122726e-07	-0.09518633	-0.07013168
3.1e+08	-0.08616192	-0.03987405	2.302231e-06	5.451548e-07	-0.001866322	-0.005688535	5.48984e-07	2.53961e-06
	-4.030817e-06	5.225344e-07	-0.08696005	-0.03893008	5.016986e-06	2.611254e-06	-0.001715621	-0.005206325
	-0.001602459	-0.006357328	4.161746e-06	-2.389261e-07	-0.08602601	-0.04183753	2.299279e-06	2.372465e-06
	1.050053e-06	3.14169e-06	-0.001785607	-0.005289136	-1.480391e-07	9.181862e-07	-0.08855536	-0.04112187
3.2e+08	-0.06959387	-0.01790795	2.356348e-06	-7.276164e-08	0.01672263	-0.005004063	1.100408e-06	2.251516e-06
	-3.843063e-06	1.628767e-06	-0.07029125	-0.01706107	5.327452e-06	9.795734e-07	0.01696955	-0.004907528
	0.01686319	-0.00571199	3.810579e-06	-1.452774e-06	-0.06985054	-0.01989037	2.522346e-06	1.687303e-06
	1.623584e-06	2.733435e-06	0.01684875	-0.004961543	-6.068958e-08	8.142214e-07	-0.07220748	-0.01878262
3.3e+08	-0.04720082	-0.005898121	2.173504e-06	-7.201129e-07	0.03206055	-0.01298379	1.473039e-06	1.814542e-06
	-3.399041e-06	2.639267e-06	-0.04791017	-0.005079676	5.058637e-06	-6.503233e-07	0.03223409	-0.01331759
	0.03207153	-0.01371763	3.038646e-06	-2.533543e-06	-0.04787077	-0.007841297	2.489834e-06	1.009784e-06
	2.016318e-06	2.215799e-06	0.03207661	-0.01331436	-1.086059e-07	6.730962e-07	-0.04998508	-0.006283022
3.4e+08	-0.02381711	-0.00497951	1.744026e-06	-1.291239e-06	0.04071965	-0.02684963	1.635541e-06	1.323246e-06
	-2.73308e-06	3.50615e-06	-0.02457389	-0.004064004	4.256691e-06	-2.071002e-06	0.04063535	-0.02758827
	0.04059119	-0.02759365	1.907083e-06	-3.325675e-06	-0.02492631	-0.006808927	2.241589e-06	4.368321e-07
	2.218468e-06	1.661894e-06	0.04047026	-0.02750773	-2.910973e-07	5.799808e-07	-0.02664906	-0.004760714
3.5e+08	-0.004169144	-0.01405909	1.107187e-06	-1.683328e-06	0.04102794	-0.04259786	1.6029e-06	8.702875e-07
	-1.884133e-06	4.190184e-06	-0.004905351	-0.01292166	3.041703e-06	-3.113871e-06	0.04051461	-0.0436415
	0.04074732	-0.04332866	5.371128e-07	-3.707859e-06	-0.00574959	-0.01566475	1.853459e-06	3.261568e-08
	2.24843e-06	1.13764e-06	0.04038154	-0.04347948	-5.63365e-07	6.051783e-07	-0.006856464	-0.01316549
3.6e+08	0.008081726	-0.03016159	3.522129e-07	-1.818349e-06	0.03341963	-0.05600368	1.427593e-06	5.256379e-07
	-8.935056e-07	4.655618e-06	0.00751086	-0.02872772	1.583581e-06	-3.672886e-06	0.03235182	-0.05718563
	0.03297894	-0.05669196	-9.094475e-07	-3.615479e-06	0.006046351	-0.03140252	1.413511e-06	-1.862725e-07
	2.14606e-06	6.937231e-07	0.03228914	-0.05695762	-8.515471e-07	7.849766e-07	0.005776964	-0.02859769
3.7e+08	0.0110242	-0.04912807	-4.140045e-07	-1.662954e-06	0.02024887	-0.06367039	1.182699e-06	3.252555e-07
	1.895467e-07	4.877806e-06	0.01081739	-0.0474292	6.885613e-08	-3.715162e-06	0.01857163	-0.06477729
	0.01964544	-0.06427602	-2.261104e-06	-3.050444e-06	0.008588302	-0.04982956	1.000408e-06	-2.392594e-07
	1.965139e-06	3.566762e-07	0.01861014	-0.06451761	-1.075888e-06	1.115937e-06	0.009352149	-0.04700147
3.8e+08	0.00476429	-0.06649656	-1.072508e-06	-1.232192e-06	0.005101115	-0.06377699	9.450605e-07	2.672318e-07
	1.31359e-06	4.836709e-06	0.005101828	-0.06467782	-1.325435e-06	-3.276538e-06	0.002850219	-0.06458101
	0.004345135	-0.06425539	-3.360395e-06	-2.077907e-06	0.002065643	-0.06649248	6.6742e-07	-1.758183e-07
	1.762839e-06	1.277803e-07	0.003002376	-0.06433649	-1.166406e-06	1.558026e-06	0.003938464	-0.06402342
3.9e+08	-0.008659583	-0.07838856	-1.522064e-06	-5.875865e-07	-0.008100909	-0.05641179	7.78869e-07	3.156289e-07
	2.422549e-06	4.52046e-06	-0.00767295	-0.07669645	-2.455873e-06	-2.449386e-06	-0.01079647	-0.05671274
	-0.008984184	-0.05671754	-4.087215e-06	-8.135981e-07	-0.01140479	-0.07754915	4.381403e-07	-5.640448e-08
	1.588378e-06	-1.872028e-08	-0.01054037	-0.05653356	-1.077155e-06	2.043775e-06	-0.008509423	-0.07587241
4e+08	-0.02571776	-0.0822743	-1.694691e-06	1.749021e-07	-0.01599167	-0.0434391	7.225363e-07	4.095063e-07
	3.455349e-06	3.925312e-06	-0.0241019	-0.08101729	-3.228381e-06	-1.364147e-06	-0.01892882	-0.04310447
	-0.0169607	-0.0435306	-4.372773e-06	5.948385e-07	-0.02822607	-0.0805367	3.084388e-07	5.969667e-08
	1.47017e-06	-1.304308e-07	-0.01860046	-0.04303458	-7.944426e-07	2.489965e-06	-0.02458343	-0.08007088
4.1e+08	-0.0421114	-0.07750633	-1.561922e-06	9.325322e-07	-0.01644131	-0.02801118	7.798373e-07	4.760133e-07
	4.341518e-06	3.054099e-06	-0.04003362	-0.07697757	-3.605267e-06	-1.677097e-07	-0.01938025	-0.02700615
	-0.01743958	-0.02786088	-4.206512e-06	1.987058e-06	-0.04406391	-0.07493569	2.45976e-07	1.231077e-07
	1.405722e-06	-2.639226e-07	-0.01902914	-0.02707185	-3.423899e-07	2.808846e-06	-0.04012284	-0.07597087
4.2e+08	-0.05368564	-0.06551774	-1.150728e-06	1.567832e-06	-0.008958082	-0.01391163	9.163607e-07	4.485096e-07
	5.001308e-06	1.930783e-06	-0.05145257	-0.06594065	-3.607058e-06	1.000208e-06	-0.01167124	-0.01230327
	-0.009918158	-0.01350709	-3.63552e-06	3.215629e-06	-0.05477432	-0.0622924	2.026246e-07	1.048064e-07
	1.356895e-06	-4.683072e-07	-0.01135583	-0.01250893	2.152111e-07	2.927917e-06	-0.0511132	-0.06494844
4.3e+08	-0.05739337	-0.0495859	-5.332342e-07	1.975075e-06	0.005215093	-0.00480189	1.065303e-06	2.842704e-07
	5.347488e-06	6.044487e-07	-0.05540798	-0.05104111	-3.301025e-06	2.028781e-06	0.002898463	-0.002741077
	0.004365103	-0.004153542	-2.75576e-06	4.163904e-06	-0.05737901	-0.04601849	1.162186e-07	3.668094e-09
	1.257691e-06	-7.632297e-07	0.003121446	-0.003064852	7.809259e-07	2.806021e-06	-0.05461221	-0.05016727
4.4e+08	-0.05208893	-0.03414934	1.787281e-07	2.088955e-06	0.02328175	-0.003500512	1.141901e-06	-1.992763e-08
	5.299522e-06	-8.363807e-07	-0.05078238	-0.03653918	-2.783322e-06	2.85243e-06	0.02144813	-0.001183509
	0.02260994	-0.002642179	-1.694337e-06	4.764071e-06	-0.05085908	-0.03064868	-7.135579e-08	-1.478821e-07
	1.033046e-06	-1.124608e-06	0.02153511	-0.001580404	1.240824e-06	2.452439e-06	-0.04953154	-0.03591379
4.5e+08	-0.03892829	-0.02376931	8.549941e-07	1.898952e-06	0.0413503	-0.01135199	1.065628e-06	-4.215189e-07
	4.805972e-06	-2.262745e-06	-0.0386819	-0.02681561	-2.153633e-06	3.456853e-06	0.03999736	-0.008977307
	0.04091307	-0.01033803	-5.85771e-07	5.003818e-06	-0.03653415	-0.02078201	-3.966488e-07	-2.874523e-07
	6.260747e-07	-1.482417e-06	0.03992695	-0.009387029	1.492327e-06	1.933496e-06	-0.03702378	-0.02657954
4.6e+08	-0.02120714	-0.02198057	1.367279e-06	1.446072e-06	0.05517821	-0.0278036	7.830666e-07	-8.386761e-07
	3.862985e-06	-3.519204e-06	-0.02226407	-0.02525229	-1.489655e-06	3.868128e-06	0.054229	-0.02553778
	0.05501023	-0.02670631	4.50244e-07	4.921893e-06	-0.01789515	-0.01991838	-8.607053e-07	-3.325817e-07
	2.554474e-08	-1.735689e-06	0.05400847	-0.0258953	1.473409e-06	1.362524e-06	-0.02030725	-0.0255441
4.7e+08	-0.003620566	-0.03033129	1.624e-06	8.302492e-07	0.06109949	-0.05036394	2.862148e-07	-1.167432e-06
	2.536454e-06	-4.446963e-06	-0.006041059	-0.03331928	-8.324917e-07	4.135265e-06	0.06042767	-0.04831842
	0.06121209	-0.04926102	1.330395e-06	4.593347e-06	0.0002225584	-0.02948895	-1.419625e-06	-2.089135e-07
	-7.235007e-07	-1.783228e-06	0.0600907	-0.04856819	1.185738e-06	8.735214e-07	-0.00394181	-0.03423911
4.8e+08	0.008879114	-0.04794452	1.580174e-06	1.78142e-07	0.0569241	-0.07503639	-3.824102e-07	-1.306578e-06
	9.517258e-07	-4.918864e-06	0.00524707	-0.05014475	-1.853319e-07	4.301559e-06	0.05637925	-0.07325834
