!$
! Info: Touchstone file created by Circ.  Input file=Tx_NPC_250mm_32AWG_BPK_1400mm_27AWG_BPK_250mm_32AWG_NPC_Rx.circ
!$
# Hz S RI R 50
0	0.04828496	-3.390324e-16	1.042226e-06	-2.148292e-20	0.004269556	-4.214852e-16	-1.294408e-06	-1.742813e-20
	2.204942e-06	-3.128206e-19	0.04952451	-1.910093e-16	-4.56561e-06	8.557831e-20	0.003719229	-4.406122e-16
	0.005384006	7.702296e-16	1.710167e-07	-8.035537e-20	0.07014587	-1.64522e-17	-5.926763e-08	-2.465486e-20
	-2.586101e-06	-2.089034e-20	0.003805893	-2.528436e-16	1.792996e-06	-1.768898e-19	0.07319197	5.509967e-16
1e+07	0.07781585	-0.0144873	1.358397e-06	1.689347e-08	0.03311599	0.03878132	-9.93655e-07	6.288903e-07
	3.829619e-07	-2.977859e-06	0.078561	-0.01561836	-2.255272e-06	4.084499e-06	0.03316003	0.03904385
	0.0339578	0.03872751	1.30013e-06	1.520076e-06	0.07798674	-0.01417206	2.736659e-07	5.555839e-07
	-2.104456e-06	1.263856e-06	0.03319087	0.03902521	9.833187e-07	-1.444294e-06	0.07940786	-0.01689684
2e+07	0.06828106	-0.03631887	1.627495e-06	-3.628196e-07	0.07795287	0.02650965	-4.65829e-07	7.592277e-07
	-3.359812e-06	-2.725357e-06	0.06752928	-0.03735313	2.377943e-06	4.095061e-06	0.07851419	0.02679143
	0.07871607	0.0260823	3.502964e-06	1.007187e-06	0.06871971	-0.03597727	9.525507e-07	5.337748e-07
	-1.026576e-06	1.729178e-06	0.07846343	0.02675205	-6.704333e-07	-1.453149e-06	0.0669169	-0.03874978
3e+07	0.04034846	-0.04643241	1.511122e-06	-1.009511e-06	0.08004615	-0.01829329	-2.545917e-07	5.243394e-07
	-5.307783e-06	8.346114e-07	0.03884961	-0.0461187	4.727197e-06	2.07518e-07	0.0807979	-0.01854982
	0.08082014	-0.01907425	4.451401e-06	-1.530865e-06	0.04100462	-0.04630217	1.343622e-06	-7.923913e-08
	-2.415562e-07	1.380401e-06	0.08066511	-0.01851811	-1.490233e-06	-8.200506e-08	0.03753124	-0.04632453
4e+07	0.01334724	-0.02832828	9.202826e-07	-1.424802e-06	0.03748135	-0.0333425	-4.473481e-07	4.48589e-07
	-3.473402e-06	4.686932e-06	0.01256298	-0.02661556	2.659844e-06	-3.782664e-06	0.03771494	-0.03415403
	0.03807645	-0.03426852	2.905412e-06	-4.129587e-06	0.01372636	-0.02844262	1.072597e-06	-8.00763e-07
	-1.803218e-07	8.479069e-07	0.03764783	-0.03401006	-7.744821e-07	1.250703e-06	0.0119077	-0.02561948
5e+07	0.01549694	0.005420448	3.012594e-07	-1.306455e-06	0.009549882	0.005403994	-5.991063e-07	8.015166e-07
	7.450575e-07	5.527045e-06	0.01630359	0.007401706	-1.779528e-06	-4.112309e-06	0.009103093	0.004688806
	0.009919474	0.004442738	-1.271694e-07	-4.630696e-06	0.0154943	0.005368232	3.384124e-07	-1.009856e-06
	-6.009028e-07	7.885935e-07	0.009163805	0.004820307	6.70316e-07	1.300531e-06	0.01703408	0.008328358
6e+07	0.04747471	0.01905888	9.730202e-08	-9.519536e-07	0.03954675	0.04859274	-3.06994e-07	1.259265e-06
	3.743941e-06	2.667019e-06	0.0493344	0.01984769	-4.348431e-06	-6.157899e-07	0.03878795	0.04835869
	0.03970621	0.04750161	-2.235779e-06	-2.772572e-06	0.04730384	0.01944365	-1.915858e-07	-5.910235e-07
	-8.553045e-07	1.37535e-06	0.0389297	0.04839526	1.388671e-06	4.359985e-08	0.0506976	0.01952453
7e+07	0.07478103	-0.003369582	2.162011e-07	-8.428936e-07	0.09514535	0.03780022	2.687404e-07	1.346785e-06
	2.960682e-06	-1.113383e-06	0.07619025	-0.004016506	-2.867498e-06	3.263737e-06	0.09458814	0.03802606
	0.09501344	0.03667312	-2.009208e-06	-4.61241e-07	0.07487467	-0.002609139	-1.451102e-07	-4.850551e-08
	-4.337759e-07	2.183009e-06	0.09469157	0.03794651	5.649298e-07	-1.209352e-06	0.07676861	-0.005564064
8e+07	0.06817141	-0.03786071	2.255853e-07	-1.097055e-06	0.1100377	-0.01845819	6.571963e-07	1.038876e-06
	-5.128482e-07	-2.172626e-06	0.06817505	-0.03874311	9.918161e-07	4.108545e-06	0.1099207	-0.01815622
	0.1095849	-0.01950668	-3.002339e-07	2.301818e-07	0.06872826	-0.03706968	2.624842e-07	1.33939e-07
	6.194869e-07	2.544106e-06	0.1099063	-0.01826199	-9.899933e-07	-1.078451e-06	0.06725307	-0.04027416
9e+07	0.03493624	-0.04718116	-1.814487e-07	-1.394284e-06	0.06535605	-0.05464448	6.730954e-07	7.317953e-07
	-3.053424e-06	4.153454e-07	0.0341535	-0.04684634	3.700153e-06	1.428288e-06	0.06555509	-0.05463436
	0.06463353	-0.0555035	7.950742e-07	-1.082026e-06	0.03581298	-0.04672347	6.09018e-07	-1.594015e-07
	1.737567e-06	2.083639e-06	0.06546308	-0.05465052	-1.681303e-06	3.186239e-07	0.03242569	-0.04705772
1e+08	0.01369518	-0.01909109	-8.519202e-07	-1.290003e-06	0.01652034	-0.02526362	6.113833e-07	7.05988e-07
	-1.979449e-06	4.113065e-06	0.01378519	-0.01740295	2.88926e-06	-2.237087e-06	0.01669652	-0.02572993
	0.01566392	-0.02585244	-1.826669e-07	-2.868904e-06	0.0144774	-0.01906599	5.177487e-07	-7.099788e-07
	2.265922e-06	1.01268e-06	0.01665779	-0.02563586	-9.291445e-07	1.58499e-06	0.01278348	-0.0162111
1.1e+08	0.0348799	0.0136593	-1.297948e-06	-7.298856e-07	0.03008962	0.03301071	7.86914e-07	7.557066e-07
	1.998417e-06	5.24752e-06	0.0368237	0.0151655	-6.391312e-07	-3.492351e-06	0.02983709	0.03216753
	0.02918763	0.03263169	-2.693635e-06	-3.019284e-06	0.03523039	0.01354969	-8.597834e-08	-1.025453e-06
	1.937196e-06	-1.651523e-08	0.02993068	0.03226658	3.98012e-07	1.630111e-06	0.03737893	0.01640652
1.2e+08	0.07865551	0.007422545	-1.264593e-06	-1.105146e-07	0.09480221	0.04229044	1.076408e-06	5.582123e-07
	5.291671e-06	2.495088e-06	0.08144337	0.007119738	-3.606434e-06	-1.245018e-06	0.09390658	0.04161583
	0.09386893	0.04205848	-4.591169e-06	-9.295976e-07	0.07874717	0.007667588	-7.672299e-07	-7.687209e-07
	1.111296e-06	-3.436147e-07	0.09407002	0.04158977	1.031648e-06	6.062083e-07	0.08274512	0.007058816
1.3e+08	0.09716136	-0.03644851	-9.603956e-07	1.7125e-07	0.1346528	-0.01527336	1.149109e-06	1.249369e-07
	4.939377e-06	-1.714953e-06	0.09889027	-0.03843645	-3.480485e-06	2.431642e-06	0.1335345	-0.01527414
	0.1336314	-0.01534581	-4.324916e-06	1.889134e-06	0.09746291	-0.03579501	-1.066023e-06	-1.451649e-07
	6.075701e-07	1.319123e-07	0.1336267	-0.01543074	4.019183e-07	-3.661642e-07	0.09939945	-0.03970662
1.4e+08	0.07060675	-0.07653628	-8.198114e-07	1.199458e-07	0.1032184	-0.07924016	8.661837e-07	-2.154747e-07
	1.485452e-06	-3.695377e-06	0.07048263	-0.07849061	-4.721284e-07	4.489099e-06	0.1025359	-0.07867857
	0.1021048	-0.07904599	-2.288242e-06	3.485482e-06	0.07137984	-0.07580486	-8.83773e-07	4.533309e-07
	9.819427e-07	7.11493e-07	0.1024796	-0.0788474	-7.855331e-07	-1.822503e-07	0.06952428	-0.07958327
1.5e+08	0.0243145	-0.07411871	-9.980871e-07	1.20526e-07	0.03405895	-0.08072281	5.268372e-07	-1.573243e-07
	-1.770986e-06	-1.979548e-06	0.02349862	-0.07455388	2.963439e-06	3.247698e-06	0.03408909	-0.08019637
	0.03299612	-0.0801542	-1.252481e-07	3.057107e-06	0.02544836	-0.07367666	-3.482719e-07	6.686653e-07
	1.904357e-06	5.168191e-07	0.03394816	-0.0802497	-1.169031e-06	1.013255e-06	0.02199923	-0.07413778
1.6e+08	0.009087548	-0.03182142	-1.215224e-06	4.063335e-07	0.007797124	-0.01999493	5.863717e-07	4.543579e-08
	-1.858798e-06	1.481604e-06	0.00942418	-0.03119416	3.837344e-06	-3.385143e-07	0.008236541	-0.02013189
	0.006989065	-0.01909471	5.020032e-07	1.351826e-06	0.01033347	-0.03177881	5.508734e-08	2.430493e-07
	2.399216e-06	-6.548138e-07	0.008152085	-0.02006736	-3.596692e-07	1.922638e-06	0.009123837	-0.02945376
1.7e+08	0.04659904	-0.002866144	-1.247964e-06	8.636151e-07	0.05731805	0.02370429	8.448821e-07	-1.576543e-07
	1.139303e-06	3.142537e-06	0.04836091	-0.003022807	1.218765e-06	-2.984197e-06	0.05733204	0.02280652
	0.05688684	0.0247233	-8.06006e-07	3.297669e-07	0.04770794	-0.003168373	-3.292953e-07	-3.806184e-07
	1.711537e-06	-2.027652e-06	0.05736429	0.02286599	7.16229e-07	1.800081e-06	0.04991004	-0.001723437
1.8e+08	0.09301388	-0.02900921	-1.006716e-06	1.332829e-06	0.1186	-0.009143523	7.312573e-07	-6.776311e-07
	4.159494e-06	1.249299e-06	0.09468541	-0.03092592	-2.423006e-06	-2.128241e-06	0.1176831	-0.01001151
	0.1184434	-0.008202727	-2.38642e-06	1.400559e-06	0.09382965	-0.02947685	-1.253309e-06	-2.887344e-07
	1.186161e-07	-2.46902e-06	0.1177506	-0.01005466	1.210642e-06	9.872537e-07	0.09676285	-0.03142566
1.9e+08	0.09474662	-0.08730267	-5.6009e-07	1.565295e-06	0.1162078	-0.08202867	1.243581e-07	-1.004878e-06
	4.163605e-06	-2.502357e-06	0.09481327	-0.09012489	-3.710639e-06	1.449419e-06	0.1148655	-0.08205923
	0.1161494	-0.081167	-2.252948e-06	3.722577e-06	0.09525135	-0.08765174	-1.815575e-06	6.065674e-07
	-1.214144e-06	-1.595353e-06	0.1148557	-0.08217731	8.303395e-07	1.980271e-07	0.09566048	-0.09187435
2e+08	0.04645885	-0.1234331	-2.000179e-07	1.555029e-06	0.05157049	-0.1165605	-6.245956e-07	-7.395804e-07
	9.991199e-07	-4.712136e-06	0.04491705	-0.125447	-1.390939e-06	4.653871e-06	0.05070676	-0.1158013
	0.05156964	-0.1156389	-9.522825e-08	5.341729e-06	0.04692527	-0.1233938	-1.532949e-06	1.70348e-06
	-1.31534e-06	-2.189398e-07	0.05059055	-0.1158921	-4.206259e-09	2.346034e-07	0.04420294	-0.1266757
2.1e+08	-0.008799292	-0.1030804	6.284271e-08	1.524567e-06	-0.007399183	-0.07845455	-8.559363e-07	2.787689e-08
	-2.59566e-06	-3.464568e-06	-0.01045269	-0.1035139	2.794804e-06	4.515913e-06	-0.007319753	-0.07765434
	-0.007192912	-0.07737546	2.840196e-06	4.81413e-06	-0.00781872	-0.1026958	-4.680141e-07	2.216403e-06
	-3.748174e-07	3.747725e-07	-0.00747563	-0.07764674	-1.950969e-07	1.029808e-06	-0.01126809	-0.1030455
2.2e+08	-0.0139733	-0.04809582	3.205809e-07	1.374122e-06	0.002973793	-0.01390131	-3.505284e-07	4.710808e-07
	-3.602175e-06	-2.475572e-08	-0.01449139	-0.04794889	5.026444e-06	7.157444e-07	0.003641661	-0.01394786
	0.003600848	-0.01280012	4.386822e-06	2.129912e-06	-0.01214713	-0.04813332	4.783356e-07	1.548999e-06
	3.614917e-07	-3.132405e-07	0.003529442	-0.01385563	4.771694e-07	1.423948e-06	-0.01357095	-0.04668257
2.3e+08	0.03529931	-0.02637811	2.949039e-07	1.164963e-06	0.06458544	-0.004108488	3.991318e-08	1.034161e-07
	-1.461533e-06	2.470681e-06	0.0354613	-0.02702809	2.869355e-06	-3.219329e-06	0.06478878	-0.00517723
	0.06563193	-0.00330078	3.129659e-06	-4.826915e-07	0.03726686	-0.02768065	1.248053e-07	5.024482e-07
	-1.698e-07	-1.403854e-06	0.06475038	-0.005062843	1.043121e-06	1.053144e-06	0.03802418	-0.02716828
2.4e+08	0.07555259	-0.06784427	1.656878e-07	1.312726e-06	0.09386915	-0.06001601	-3.46387e-07	-3.797643e-07
	1.520108e-06	1.872872e-06	0.07512973	-0.069356	-1.559716e-06	-3.386987e-06	0.09293322	-0.06121949
	0.09505446	-0.05968776	6.693336e-07	-5.784533e-07	0.0763759	-0.0701109	-1.029086e-06	5.824083e-07
	-1.718321e-06	-1.540324e-06	0.09294681	-0.06112932	1.121679e-06	4.721464e-07	0.07720312	-0.07172606
2.5e+08	0.05669761	-0.1286817	3.788436e-07	1.634926e-06	0.0539662	-0.1109984	-1.157272e-06	-2.139977e-07
	2.313179e-06	-9.737658e-07	0.05515367	-0.1300593	-3.997144e-06	2.465892e-07	0.05233299	-0.1113441
	0.0550008	-0.1110403	-2.283987e-07	1.389392e-06	0.05598923	-0.1304919	-1.518936e-06	1.779805e-06
	-2.987125e-06	-2.08174e-07	0.05236543	-0.1112919	7.517345e-07	1.222594e-08	0.05509254	-0.1331079
2.6e+08	-0.007926906	-0.1480797	9.002983e-07	1.769415e-06	-0.009372211	-0.1007126	-1.602382e-06	7.127157e-07
	1.312409e-07	-3.087032e-06	-0.01001145	-0.1484436	-2.169111e-06	4.275041e-06	-0.0106708	-0.1000585
	-0.008540329	-0.100865	1.327895e-06	3.079454e-06	-0.009024731	-0.1482439	-7.574478e-07	3.005403e-06
	-2.787215e-06	1.725647e-06	-0.01064773	-0.1000427	1.885754e-07	8.900658e-08	-0.01158058	-0.1500155
2.7e+08	-0.05932519	-0.1052542	1.577243e-06	1.484368e-06	-0.02974501	-0.0434599	-1.090285e-06	1.710393e-06
	-2.965226e-06	-2.368272e-06	-0.0609523	-0.1047083	2.385439e-06	4.787303e-06	-0.0300045	-0.04260307
	-0.02893942	-0.04358727	4.046699e-06	2.433304e-06	-0.05895671	-0.1042927	7.918187e-07	3.154731e-06
	-1.276703e-06	2.722052e-06	-0.03002567	-0.04260233	1.484461e-07	5.175048e-07	-0.06179806	-0.1043928
2.8e+08	-0.04709768	-0.04475658	1.899253e-06	5.928885e-07	0.01043371	-0.004861309	-6.949207e-08	1.806281e-06
	-4.276488e-06	6.320872e-07	-0.04802684	-0.04416373	5.193599e-06	9.393137e-07	0.01088709	-0.004895436
	0.01140577	-0.005096641	5.197594e-06	-7.293021e-07	-0.04486424	-0.04490609	1.737414e-06	1.932397e-06
	8.87063e-08	2.180399e-06	0.01081373	-0.004842961	4.629786e-07	4.424618e-07	-0.04676617	-0.04390812
2.9e+08	0.007985674	-0.03505801	1.25928e-06	-2.104338e-07	0.05617809	-0.02893776	3.048984e-07	1.13219e-06
	-2.716378e-06	3.50183e-06	0.007138428	-0.03476949	3.204185e-06	-3.478776e-06	0.05614959	-0.03014545
	0.05724441	-0.0295593	3.063789e-06	-3.715099e-06	0.009896583	-0.03777217	1.094191e-06	7.228106e-07
	1.491922e-07	1.082581e-06	0.0561078	-0.0299841	3.016001e-07	7.227773e-08	0.009162296	-0.03673079
3e+08	0.03492037	-0.08327201	3.384646e-07	3.327697e-08	0.04684158	-0.07872535	-1.61926e-07	7.799704e-07
	3.44294e-07	3.927232e-06	0.03386049	-0.08285849	-1.564831e-06	-4.029407e-06	0.04546113	-0.08016733
	0.04766741	-0.0798132	-4.700486e-07	-3.677771e-06	0.03407373	-0.08698825	-6.58735e-08	9.470546e-07
	-8.256183e-07	8.247495e-07	0.04556713	-0.07996384	-1.205247e-07	7.178288e-08	0.03402528	-0.0866044
3.1e+08	2.842324e-05	-0.1312245	2.644532e-07	9.236712e-07	-0.003252214	-0.08820383	-6.373395e-07	1.260002e-06
	2.186067e-06	1.862467e-06	-0.000899695	-0.1304392	-4.482059e-06	-3.614423e-07	-0.005606165	-0.08863799
	-0.002930436	-0.08951062	-2.191363e-06	-1.108529e-06	-0.003214389	-0.1329193	-2.04705e-07	2.099514e-06
	-1.519315e-06	1.898189e-06	-0.005357835	-0.08855022	-3.680447e-07	3.283725e-07	-0.003268635	-0.1333633
3.2e+08	-0.06287223	-0.1251919	1.138102e-06	1.385606e-06	-0.03284381	-0.04760558	-3.351843e-07	2.100506e-06
	1.459864e-06	-4.806928e-07	-0.06338584	-0.1243377	-2.939191e-06	3.922097e-06	-0.03490171	-0.04672723
	-0.03299733	-0.04878749	-1.046623e-06	1.249523e-06	-0.06551124	-0.1237186	8.751237e-07	2.806339e-06
	-8.139691e-07	3.33763e-06	-0.03466654	-0.04684321	-3.506215e-07	6.238569e-07	-0.06624664	-0.1247019
3.3e+08	-0.09106909	-0.06905288	2.175346e-06	7.288651e-07	-0.01028236	-0.005409098	6.752511e-07	2.340454e-06
	-8.222983e-07	-9.849939e-07	-0.09141491	-0.06849924	1.400422e-06	4.722154e-06	-0.01115165	-0.004159936
	-0.01064704	-0.00630217	1.342912e-06	1.114001e-06	-0.09054796	-0.06670893	2.178771e-06	2.203862e-06
	8.837453e-07	3.683963e-06	-0.01110742	-0.004380242	-1.206555e-07	6.059402e-07	-0.09230893	-0.06738524
3.4e+08	-0.05961352	-0.02136983	2.16512e-06	-7.764905e-07	0.03416117	-0.00969521	1.409715e-06	1.66101e-06
	-2.530742e-06	8.18571e-07	-0.06028487	-0.02092094	4.109228e-06	1.409844e-06	0.034115	-0.009311401
	0.03382359	-0.01042422	2.079604e-06	-1.353773e-06	-0.05700704	-0.02170617	2.374617e-06	7.588113e-07
	2.153052e-06	2.717252e-06	0.03397188	-0.009402416	-3.048028e-07	2.143501e-07	-0.05918443	-0.02103669
3.5e+08	-0.01118455	-0.02843305	7.137406e-07	-1.632014e-06	0.04367859	-0.05059348	1.25032e-06	9.034068e-07
	-1.903949e-06	3.523357e-06	-0.01204417	-0.02740728	2.551042e-06	-2.463142e-06	0.04318572	-0.05139308
	0.04333561	-0.05139752	-1.272788e-07	-3.363081e-06	-0.01043757	-0.03189032	1.368577e-06	-2.92829e-08
	2.270228e-06	1.455932e-06	0.043097	-0.05124813	-1.060244e-06	2.993887e-07	-0.01148472	-0.02982211
3.6e+08	-0.002135293	-0.07086887	-7.511305e-07	-7.780459e-07	0.008457822	-0.0710883	7.687277e-07	8.497908e-07
	8.814363e-07	4.688802e-06	-0.00225836	-0.06921416	-1.511489e-06	-3.058084e-06	0.006571218	-0.07209023
	0.007858747	-0.07201049	-3.291907e-06	-2.510111e-06	-0.005275445	-0.07384767	5.02651e-07	4.033239e-07
	1.653245e-06	8.810985e-07	0.006747627	-0.07190476	-1.450765e-06	1.153454e-06	-0.004191048	-0.07193714
3.7e+08	-0.03804682	-0.09376176	-6.687355e-07	8.366805e-07	-0.02208555	-0.04420372	8.01263e-07	1.253842e-06
	3.577039e-06	3.140162e-06	-0.03699061	-0.09257028	-4.109848e-06	1.35101e-08	-0.02494814	-0.04405828
	-0.02310814	-0.0450003	-4.507467e-06	5.36734e-07	-0.0425686	-0.0928307	6.612185e-07	1.114677e-06
	1.295448e-06	1.135574e-06	-0.02460161	-0.04412497	-9.827626e-07	1.954543e-06	-0.04030752	-0.09300976
3.8e+08	-0.0745816	-0.07025395	7.924074e-07	1.435712e-06	-0.00731539	-0.005624245	1.424924e-06	1.282623e-06
	3.98602e-06	1.051665e-07	-0.07332024	-0.07049172	-2.992075e-06	3.691977e-06	-0.00977801	-0.004061217
	-0.008640349	-0.005992377	-2.996059e-06	3.110497e-06	-0.07621643	-0.06624627	1.405804e-06	1.058341e-06
	1.704771e-06	1.372593e-06	-0.009583702	-0.004429405	-1.74247e-07	1.977166e-06	-0.07519928	-0.06865053
3.9e+08	-0.07104092	-0.02836928	2.012351e-06	3.036728e-07	0.03496365	-0.005131335	1.852023e-06	5.578515e-07
	1.830338e-06	-1.90683e-06	-0.07099855	-0.02951457	4.042908e-07	4.680199e-06	0.03377231	-0.003153328
	0.03365763	-0.00497649	-5.336474e-07	3.306519e-06	-0.06872618	-0.02559767	1.668676e-06	1.739079e-07
	2.254155e-06	9.43634e-07	0.03360821	-0.003546177	6.00807e-08	1.311958e-06	-0.07034522	-0.02795084
4e+08	-0.03707683	-0.01347283	1.496589e-06	-1.457818e-06	0.051567	-0.04471161	1.437673e-06	-2.469386e-07
	-9.042652e-07	-1.13944e-06	-0.03840983	-0.01389171	2.796915e-06	2.6085e-06	0.05128373	-0.04352391
	0.05053736	-0.04421229	4.675571e-07	1.673426e-06	-0.03440098	-0.01467075	9.725925e-07	-5.800432e-07
	2.339135e-06	2.297281e-07	0.05091864	-0.04361605	-6.533381e-07	9.545859e-07	-0.03713803	-0.01451045
4.1e+08	-0.01414346	-0.03267258	-4.40197e-07	-1.882183e-06	0.02131105	-0.07440225	6.506844e-07	-2.862934e-07
	-1.507342e-06	1.627076e-06	-0.01530312	-0.03145808	2.368303e-06	-2.041204e-07	0.02073597	-0.07433391
	0.02055924	-0.07382853	-6.283825e-07	4.695379e-07	-0.01501384	-0.0355425	4.985198e-08	-4.380551e-07
	2.113498e-06	-3.299917e-07	0.02053961	-0.07412161	-1.402512e-06	1.708319e-06	-0.01578164	-0.03314796
4.2e+08	-0.02170898	-0.0541417	-1.79078e-06	-3.775689e-07	-0.01571555	-0.05671182	4.4583e-07	2.545045e-07
	7.847124e-07	3.555134e-06	-0.02108715	-0.05246889	-6.832332e-08	-1.239395e-06	-0.01747257	-0.05687528
	-0.01637318	-0.05616075	-2.222718e-06	1.191964e-06	-0.0254537	-0.05416961	-1.940174e-07	1.60833e-07
	1.834583e-06	-7.430638e-07	-0.01733771	-0.0566919	-1.040055e-06	2.941576e-06	-0.02300478	-0.05265592
4.3e+08	-0.03919728	-0.05133071	-1.155892e-06	1.460241e-06	-0.01008889	-0.01624212	9.640991e-07	3.966738e-07
	3.872987e-06	2.435518e-06	-0.03728202	-0.05135321	-2.169557e-06	2.020868e-07	-0.01267162	-0.01545309
	-0.01077848	-0.01559301	-2.424384e-06	3.174893e-06	-0.04131734	-0.04743221	1.021963e-07	2.899718e-07
	1.530017e-06	-1.20948e-06	-0.01243778	-0.01558629	2.571972e-07	3.309247e-06	-0.03804961	-0.04952792
4.4e+08	-0.03733088	-0.03502605	6.492897e-07	1.71298e-06	0.03292988	-0.00877077	1.283112e-06	-3.480489e-07
	4.631861e-06	-1.045444e-06	-0.03647314	-0.03721867	-2.205992e-06	2.682451e-06	0.03066336	-0.006762099
	0.03228856	-0.00785557	-9.46156e-07	4.645156e-06	-0.03508865	-0.03104222	4.874637e-08	-1.838298e-07
	8.540956e-07	-1.743722e-06	0.03063559	-0.007123917	1.149211e-06	2.443746e-06	-0.03474508	-0.03576927
4.5e+08	-0.01932843	-0.03460138	1.598555e-06	2.45676e-07	0.05798392	-0.05004771	5.645356e-07	-1.223132e-06
	2.058091e-06	-3.684137e-06	-0.02105374	-0.0369536	-3.422981e-07	4.224283e-06	0.05683774	-0.04759305
	0.05760953	-0.04884804	1.003417e-06	4.60231e-06	-0.01532781	-0.03451788	-7.397726e-07	-4.44635e-07
	-2.638472e-07	-1.719507e-06	0.0564712	-0.04781945	7.608957e-07	1.463928e-06	-0.01873097	-0.03796578
4.6e+08	-0.01326848	-0.05319059	6.553722e-07	-1.236007e-06	0.02952613	-0.09291205	-7.615867e-07	-1.090444e-06
	-1.493614e-06	-3.016516e-06	-0.01643884	-0.0533646	1.999807e-06	3.82793e-06	0.02929806	-0.09108394
	0.02958286	-0.0916031	2.153037e-06	3.468449e-06	-0.01214417	-0.05597585	-1.588342e-06	1.461593e-07
	-9.721751e-07	-8.796095e-07	0.02888081	-0.09094805	-1.926443e-07	1.610978e-06	-0.01615189	-0.05564734
4.7e+08	-0.02884844	-0.06484451	-1.122884e-06	-1.053189e-06	-0.02125134	-0.08638415	-1.396792e-06	1.126323e-07
	-2.773305e-06	1.648229e-07	-0.0307984	-0.06279272	3.205906e-06	1.81338e-06	-0.02154032	-0.08556114
	-0.02077053	-0.08520236	2.241819e-06	2.30998e-06	-0.03123833	-0.06580807	-1.62605e-06	1.161626e-06
	-7.264221e-07	-6.716003e-08	-0.02168993	-0.08520865	-2.869074e-07	2.69597e-06	-0.03218588	-0.06337041
4.8e+08	-0.04287347	-0.05212217	-1.806435e-06	5.645173e-07	-0.03478356	-0.03971038	-6.977839e-07	1.141112e-06
	-7.48584e-07	2.728058e-06	-0.04236606	-0.0503137	2.395827e-06	-3.708909e-07	-0.03590701	-0.039322
