!$
! Info: Touchstone file created by Circ.  Input file=Tx_NPC_250mm_32AWG_BPK_900mm_27AWG_BPK_250mm_32AWG_NPC_Rx.circ
!$
# Hz S RI R 50
0	0.09078866	-1.617961e-17	-6.746129e-05	1.327249e-19	0.003174185	1.112116e-15	-1.311591e-05	-1.210221e-18
	-4.588064e-05	1.488696e-19	0.03569992	-1.987013e-16	-5.876314e-05	2.07545e-19	0.003300824	-4.472412e-16
	0.002457213	2.101207e-17	-9.046866e-05	2.911341e-20	0.06322426	-5.230037e-16	-3.118315e-05	1.467419e-18
	-3.446797e-06	-3.092311e-18	0.003395581	-2.562562e-16	-1.685107e-05	4.582857e-18	0.05984993	5.133688e-16
1e+07	0.07044249	-0.004088694	-9.541846e-05	-4.091883e-06	0.02374224	0.03513639	-5.256628e-05	3.205029e-05
	-7.774631e-05	-1.470939e-05	0.06807738	-0.004711364	-5.777321e-05	-1.167017e-05	0.02320791	0.03506735
	0.02312529	0.03512891	-8.956834e-05	2.385978e-06	0.06555149	-0.003134419	-3.390435e-05	-1.95844e-05
	-4.590087e-05	2.564935e-05	0.02324746	0.03506374	-2.137772e-05	-2.688688e-05	0.06925859	-0.005760923
2e+07	0.07363757	-0.01816778	-0.000104612	3.668111e-05	0.06286828	0.0408817	-1.444464e-05	0.0001174258
	-9.501451e-05	2.004035e-05	0.07012523	-0.01860709	-7.893694e-05	-1.92938e-06	0.06232854	0.04119838
	0.06220249	0.04111382	-0.0001026947	2.760482e-05	0.06919433	-0.01614517	-5.23956e-05	-1.221782e-05
	-1.370457e-05	0.000111706	0.06231674	0.04114898	-4.522235e-05	-2.437038e-05	0.0702918	-0.02020396
3e+07	0.06517389	-0.03574323	-9.450372e-05	7.863401e-05	0.08984643	0.01309934	2.027588e-05	0.0001355254
	-9.328526e-05	6.103077e-05	0.0605575	-0.03504716	-0.0001014465	2.464974e-05	0.08926614	0.0137896
	0.08917323	0.01366618	-0.0001069745	6.511827e-05	0.06129853	-0.03296461	-7.58987e-05	3.942832e-06
	2.083582e-05	0.000133966	0.0891697	0.01372538	-7.528917e-05	-9.82306e-06	0.05972071	-0.0363173
4e+07	0.04447875	-0.04482123	-7.389548e-05	0.0001174987	0.082651	-0.02496142	5.588201e-05	0.0001432298
	-7.92621e-05	0.0001016445	0.03967252	-0.04213256	-0.0001166512	7.490789e-05	0.08230765	-0.0241613
	0.08222745	-0.02420022	-9.846988e-05	0.0001129401	0.0411101	-0.04144796	-9.934605e-05	3.997637e-05
	6.095156e-05	0.0001408004	0.08217315	-0.02414129	-0.0001049914	2.751101e-05	0.03832817	-0.04249109
5e+07	0.02182162	-0.03651636	-3.552187e-05	0.0001653421	0.04717054	-0.04031709	0.000105849	0.000155593
	-4.653563e-05	0.0001523792	0.01805734	-0.03159871	-9.939031e-05	0.0001518244	0.04710875	-0.03964109
	0.04707211	-0.03960406	-6.400435e-05	0.0001727037	0.01897424	-0.03232399	-0.0001008081	0.0001108484
	0.0001111728	0.0001456305	0.04702421	-0.03954251	-0.0001116577	0.000102089	0.01698047	-0.03103697
6e+07	0.01210622	-0.01305077	5.153976e-05	0.0002030482	0.01363872	-0.0183274	0.0001971987	0.0001443835
	3.491897e-05	0.0001951224	0.01071639	-0.006877691	-1.907259e-05	0.0002239886	0.01377313	-0.01782751
	0.01372532	-0.01778804	1.858746e-05	0.0002226426	0.01017368	-0.008069487	-3.483842e-05	0.0001906426
	0.0001930279	0.0001288759	0.01376958	-0.01767593	-4.909483e-05	0.0001876969	0.01046722	-0.005833249
7e+07	0.02441525	0.01082051	0.0001736401	0.0001688385	0.01298055	0.02484151	0.0002980301	5.124826e-05
	0.0001536556	0.0001697204	0.02580458	0.01673787	0.0001104306	0.0002320062	0.01309909	0.02506033
	0.01303476	0.02517969	0.0001387517	0.0002151397	0.02390329	0.01640656	9.236786e-05	0.0002029875
	0.0002817276	4.16414e-05	0.01319713	0.02518954	7.761912e-05	0.0002074246	0.02646041	0.01752815
8e+07	0.05241829	0.0175534	0.0002469106	4.768871e-05	0.05029377	0.05377378	0.0003182046	-0.0001137379
	0.0002293831	5.916686e-05	0.05588098	0.02173489	0.000223199	0.0001550118	0.0501704	0.05389202
	0.05018373	0.05409432	0.0002406672	0.0001315964	0.05364373	0.0230751	0.00019306	0.000118109
	0.000299534	-0.0001090048	0.05033143	0.05393322	0.0001817666	0.0001299244	0.05698679	0.02171075
9e+07	0.07807076	0.0007637414	0.0002270058	-7.612423e-05	0.1000676	0.04302727	0.0002282043	-0.00025161
	0.0002180989	-5.730954e-05	0.08211497	0.002569084	0.0002707084	3.902013e-05	0.09975355	0.04338601
	0.0998757	0.04355527	0.0002798562	1.142455e-05	0.08081738	0.005413656	0.0002054826	9.279152e-06
	0.0002193743	-0.0002371562	0.09990844	0.0433178	0.0002015519	2.610189e-05	0.08297526	0.001656819
1e+08	0.08493372	-0.03020568	0.0001651089	-0.0001380188	0.1267268	-0.003019402	0.0001143782	-0.0002977632
	0.0001668465	-0.000118504	0.08814004	-0.03024456	0.0002690905	-6.748414e-05	0.1265548	-0.002294576
	0.1266892	-0.002223293	0.0002672147	-0.0001003138	0.08854699	-0.02689718	0.0001769509	-4.945017e-05
	0.0001168706	-0.0002858553	0.1266294	-0.002437836	0.0001826349	-3.227607e-05	0.08820354	-0.03163229
1.1e+08	0.06839265	-0.05756046	0.0001364887	-0.0001681446	0.1108403	-0.05438438	5.388018e-05	-0.0002875383
	0.0001460653	-0.0001531458	0.07012102	-0.05818064	0.0002503667	-0.0001696758	0.1111687	-0.05347395
	0.1111975	-0.05345836	0.0002303276	-0.0002024833	0.07210585	-0.0554892	0.000181874	-9.167871e-05
	5.811425e-05	-0.00028405	0.1111364	-0.05362125	0.0001962601	-7.97667e-05	0.06922336	-0.05936125
1.2e+08	0.03777609	-0.06479774	0.0001130238	-0.000250129	0.06273121	-0.07603658	4.938117e-06	-0.0003319625
	0.0001263221	-0.0002409338	0.03852491	-0.06465278	0.000195109	-0.0002976208	0.06363023	-0.07537394
	0.06353614	-0.07529337	0.0001560444	-0.0003162532	0.04123542	-0.06341489	0.000187586	-0.0002007211
	2.602925e-06	-0.0003302086	0.0635209	-0.07544653	0.0002062617	-0.000198328	0.03705632	-0.06498817
1.3e+08	0.01275284	-0.04636546	-1.619688e-05	-0.0003605886	0.01715849	-0.05253927	-0.0001461807	-0.0003990558
	-9.441338e-07	-0.000356262	0.01391288	-0.0449759	4.099335e-05	-0.0004207938	0.01838164	-0.05248462
	0.01820647	-0.0522576	-3.941269e-06	-0.0004126591	0.01621228	-0.04516572	7.237194e-05	-0.0003516278
	-0.0001506346	-0.0003885874	0.01827638	-0.05245479	8.917195e-05	-0.0003592066	0.01261026	-0.04424866
1.4e+08	0.01279112	-0.01437514	-0.000257213	-0.0003415703	0.009919523	-0.002215551	-0.0003952079	-0.0003203238
	-0.0002399266	-0.0003428751	0.01570748	-0.01258184	-0.0002077913	-0.0004276051	0.01102521	-0.002891043
	0.01084444	-0.00242977	-0.0002384564	-0.0003951177	0.01683572	-0.01339973	-0.0001779731	-0.0003754128
	-0.0003884572	-0.0003023623	0.01099879	-0.002800327	-0.0001674856	-0.0003896766	0.01528111	-0.01116147
1.5e+08	0.04105964	0.006142158	-0.0004225993	-0.0001246028	0.04840625	0.0335552	-0.0005319744	-3.65663e-05
	-0.000405476	-0.0001343102	0.04596926	0.00660756	-0.0004180567	-0.0002596499	0.04893698	0.03237727
	0.04893914	0.03310963	-0.0004240466	-0.0002196241	0.04599254	0.006231716	-0.0003730375	-0.0001879145
	-0.0005093279	-2.6162e-05	0.04900583	0.03244323	-0.0003700878	-0.0002050022	0.04667485	0.007942389
1.6e+08	0.07893182	-0.00325029	-0.0003749413	0.0001197086	0.1033989	0.02394975	-0.0004147084	0.0002461483
	-0.0003636317	0.0001011688	0.08467485	-0.005535357	-0.0004738347	-1.728192e-05	0.1032129	0.02278259
	0.1035882	0.02362663	-0.0004608481	1.466329e-05	0.08433961	-0.004878507	-0.0003614041	4.80868e-05
	-0.0003886425	0.0002368494	0.1033244	0.02275976	-0.0003662329	3.075401e-05	0.08612654	-0.004997105
1.7e+08	0.1009889	-0.03988689	-0.0002279151	0.0002136881	0.1338039	-0.02662273	-0.0001910167	0.0003220455
	-0.000227496	0.000190888	0.105646	-0.04515214	-0.0004104898	0.0001730248	0.1331922	-0.02732576
	0.1339329	-0.02665179	-0.0003895684	0.0001933769	0.1058486	-0.0435506	-0.0002438529	0.0001502116
	-0.0001784955	0.0002978402	0.1332647	-0.02744173	-0.000257226	0.0001357622	0.1071131	-0.04563653
1.8e+08	0.09277475	-0.08433381	-0.0001615969	0.0002089406	0.1180274	-0.08524199	-8.874338e-05	0.000255968
	-0.0001726763	0.000188761	0.094764	-0.0914753	-0.0003203917	0.000299753	0.1175072	-0.08543842
	0.1183925	-0.08508903	-0.0002958686	0.0003121742	0.09602841	-0.08956106	-0.0001972315	0.0001602345
	-9.446583e-05	0.0002327071	0.1174851	-0.08559335	-0.0002181599	0.0001538682	0.09559447	-0.09263993
1.9e+08	0.05696593	-0.1133893	-0.0001679727	0.0002770739	0.0657774	-0.1155078	-0.0001175068	0.000270977
	-0.0001870853	0.0002647376	0.05579443	-0.1205689	-0.0002210428	0.0004234057	0.06567281	-0.1155625
	0.06648484	-0.1154733	-0.000190899	0.0004276544	0.05810197	-0.1191024	-0.0002177045	0.0002450844
	-0.0001318619	0.0002596488	0.06555513	-0.1156828	-0.0002406699	0.0002517391	0.05577257	-0.1217229
2e+08	0.01159272	-0.1109435	-6.520637e-05	0.000449103	0.009788187	-0.09983871	-5.580188e-05	0.0004430406
	-8.751121e-05	0.0004467092	0.008059141	-0.1164517	-4.168328e-05	0.0005577346	0.01001156	-0.1001854
	0.010673	-0.1002163	-7.462209e-06	0.0005466737	0.01094148	-0.1160001	-0.0001257981	0.0004386596
	-6.675764e-05	0.0004410073	0.009844923	-0.1002207	-0.0001415538	0.0004582877	0.007545356	-0.1169638
2.1e+08	-0.01667431	-0.07789902	0.0002454224	0.0005203245	-0.01396607	-0.05063551	0.0002572113	0.0005457699
	0.0002241662	0.0005277895	-0.02088651	-0.08107529	0.0002693676	0.0005940452	-0.01375936	-0.0514649
	-0.01326258	-0.05150867	0.0002960969	0.0005625635	-0.01809722	-0.0817686	0.000182953	0.0005393997
	0.0002510555	0.0005428582	-0.0139121	-0.05141271	0.0001816724	0.00056444	-0.02115187	-0.0807654
2.2e+08	-0.008518501	-0.03724922	0.0005629855	0.0002908244	0.009174084	-0.004997139	0.0006147377	0.0003071642
	0.0005464719	0.0003071409	-0.01180569	-0.03878001	0.0005947978	0.0003942445	0.009039332	-0.006222356
	0.009377652	-0.006131401	0.0005991473	0.000349909	-0.009729192	-0.04036327	0.0005170815	0.0003405137
	0.000604154	0.000300306	0.008939686	-0.006116548	0.0005294163	0.0003604575	-0.01116127	-0.038142
2.3e+08	0.02964903	-0.02085306	0.0005954373	-9.808155e-05	0.05810249	0.00140748	0.0006442803	-0.0001388609
	0.0005874396	-7.50735e-05	0.02775838	-0.02233591	0.0007179663	1.783375e-05	0.05742429	6.02395e-06
	0.05777952	0.000411018	0.0006955977	-2.122248e-05	0.02879433	-0.02425239	0.0005834523	-3.270461e-05
	0.0006236557	-0.0001398969	0.05738283	0.0001255499	0.0006020526	-2.30598e-05	0.02935993	-0.02223676
2.4e+08	0.06807167	-0.04331026	0.0003874573	-0.000324467	0.09147965	-0.0353334	0.0003663093	-0.0003812452
	0.0003910539	-0.0002991334	0.06665981	-0.04603627	0.000603038	-0.0003139851	0.0901857	-0.03660053
	0.09090493	-0.0359335	0.0005643239	-0.0003326932	0.06669773	-0.04767247	0.0004106359	-0.0002677502
	0.0003441028	-0.0003658474	0.09018906	-0.03649033	0.0004296549	-0.0002671097	0.06856352	-0.04708832
2.5e+08	0.07776853	-0.09126466	0.000220845	-0.0003506672	0.08301605	-0.08543243	0.0001564888	-0.0003314953
	0.0002364481	-0.0003290702	0.07529353	-0.09532013	0.0003981951	-0.0005023811	0.08125802	-0.08622602
	0.08252437	-0.08567754	0.0003589683	-0.000497991	0.07470096	-0.09619801	0.0002632619	-0.0003189242
	0.0001477182	-0.0003019378	0.08129449	-0.08613463	0.0002809546	-0.0003256239	0.07660689	-0.0974399
2.6e+08	0.04957781	-0.1360975	0.0001710308	-0.0003966143	0.03965568	-0.1127754	0.0001785953	-0.0002961086
	0.0001957204	-0.0003843307	0.0449442	-0.1404093	0.0001964773	-0.0006122878	0.03779265	-0.1129546
	0.03940117	-0.1129164	0.0001674053	-0.0005916365	0.04427498	-0.1403135	0.000214164	-0.0003891557
	0.0001903868	-0.0002663405	0.03785506	-0.1128915	0.0002284926	-0.0004037894	0.04514642	-0.1428837
2.7e+08	-0.00361214	-0.1517897	5.05486e-05	-0.0005564373	-0.009101559	-0.1007909	0.0001855906	-0.0004996489
	7.914256e-05	-0.0005569887	-0.01045243	-0.1547724	-4.097281e-05	-0.0007018084	-0.01073647	-0.1004965
	-0.009205748	-0.1010767	-5.689032e-05	-0.0006730556	-0.01053317	-0.1538476	8.640372e-05	-0.0005634272
	0.0002118255	-0.0004834305	-0.01066385	-0.1004765	9.238823e-05	-0.0005853571	-0.01120327	-0.1567784
2.8e+08	-0.05387128	-0.1281418	-0.0002858766	-0.0006492726	-0.03303136	-0.05962512	-0.0001319314	-0.0007502103
	-0.0002597387	-0.0006636799	-0.06187999	-0.1285349	-0.000382029	-0.0007080454	-0.03432047	-0.05912841
	-0.03322835	-0.06013641	-0.0003849602	-0.0006761271	-0.06086939	-0.1273904	-0.0002555478	-0.0006650934
	-0.0001042318	-0.0007513914	-0.03427263	-0.05915581	-0.0002628749	-0.0006886284	-0.06288227	-0.1296469
2.9e+08	-0.0727548	-0.07876053	-0.0006931526	-0.0004338124	-0.01945035	-0.01783427	-0.0006805611	-0.0006307902
	-0.0006762412	-0.0004600708	-0.08028037	-0.07625466	-0.000764174	-0.0004864434	-0.02043119	-0.0173541
	-0.01995958	-0.01842289	-0.0007531509	-0.0004550465	-0.07821269	-0.07583813	-0.0006683818	-0.0004609455
	-0.0006606636	-0.0006432056	-0.02044889	-0.01739611	-0.000688417	-0.0004767355	-0.08076862	-0.07673476
3e+08	-0.05112825	-0.03579424	-0.0008425572	4.844143e-05	0.01816651	-0.004108307	-0.0009723589	-7.020069e-05
	-0.0008404164	1.598075e-05	-0.05668457	-0.03122178	-0.0009634709	-1.926191e-05	0.01739589	-0.003833016
	0.01732634	-0.004496154	-0.000937543	5.179332e-06	-0.05440885	-0.03230833	-0.0008322517	9.088057e-06
	-0.0009606352	-8.600673e-05	0.01731259	-0.00381645	-0.0008571868	7.554134e-06	-0.05640146	-0.03184848
3.1e+08	-0.008608041	-0.02737728	-0.0006373646	0.0004610345	0.04825954	-0.02571464	-0.0007540661	0.0004735415
	-0.0006518882	0.0004307792	-0.01169174	-0.02228598	-0.0008370837	0.0004752548	0.0474396	-0.02579882
	0.04729841	-0.02570852	-0.0008000958	0.0004839397	-0.01052057	-0.02476738	-0.0006513136	0.0004206334
	-0.0007468794	0.0004560756	0.04736397	-0.02566714	-0.0006715375	0.0004321366	-0.01112898	-0.02374716
3.2e+08	0.0211284	-0.0556572	-0.0003315765	0.0006162481	0.04649904	-0.06130128	-0.0003574983	0.0006336386
	-0.0003597056	0.0005967148	0.01994347	-0.05139068	-0.0004986394	0.0007821938	0.04523041	-0.06162619
	0.04568617	-0.06094202	-0.0004612868	0.0007695191	0.01906115	-0.05409907	-0.0003657859	0.0005933166
	-0.0003555515	0.0006119275	0.04527377	-0.06140661	-0.0003763886	0.0006115889	0.01988226	-0.05368462
3.3e+08	0.01613029	-0.09727853	-0.0001098854	0.0006645135	0.01636634	-0.07979517	-0.0001577262	0.000598854
	-0.0001442885	0.0006613475	0.01569325	-0.09434283	-0.0001251739	0.0008958442	0.0144689	-0.07987816
	0.01582345	-0.07928876	-0.0001005355	0.0008649501	0.01295386	-0.0956323	-0.0001457742	0.0006674957
	-0.0001668657	0.0005741767	0.01468882	-0.07968947	-0.0001467826	0.0006868504	0.01444604	-0.09670608
3.4e+08	-0.02075338	-0.1220198	0.0001343997	0.00073626	-0.0164227	-0.06684962	-4.849437e-05	0.0007026731
	0.0001028843	0.0007502469	-0.02143988	-0.1200704	0.0002411591	0.0008963729	-0.01864772	-0.06620291
	-0.01676752	-0.06637865	0.000245334	0.0008583971	-0.02461462	-0.1188112	0.0001138443	0.0007556977
	-7.213073e-05	0.0006835978	-0.01830595	-0.06618211	0.0001208711	0.0007727651	-0.02361154	-0.1215499
3.5e+08	-0.06608072	-0.1122177	0.0005176975	0.0007026834	-0.02660068	-0.03357566	0.0003031327	0.0008680654
	0.0004968993	0.0007297921	-0.06743066	-0.1104425	0.0006353493	0.0007742822	-0.02856638	-0.03210191
	-0.0268998	-0.03317538	0.0006203644	0.0007416127	-0.06906599	-0.1068525	0.0005145136	0.000721888
	0.0002704006	0.0008647254	-0.02825288	-0.03231104	0.0005280485	0.0007341875	-0.06960741	-0.1106238
3.6e+08	-0.09138381	-0.07351376	0.0009002183	0.0003780743	-0.007427367	-0.005458821	0.0008787805	0.0006958765
	0.0008945024	0.000411411	-0.09312887	-0.07109739	0.001003681	0.0004363497	-0.008644287	-0.003498344
	-0.007767469	-0.005027726	0.000976823	0.0004163606	-0.09191137	-0.06686236	0.000904391	0.0003884747
	0.0008491035	0.000711406	-0.008523029	-0.003867813	0.0009222031	0.0003935667	-0.09439532	-0.07043406
3.7e+08	-0.0826203	-0.03096341	0.001000082	-0.0001716555	0.02579148	-0.003459227	0.001221996	5.665293e-05
	0.001010154	-0.0001394202	-0.08397652	-0.02752696	0.001159359	-0.0001179538	0.02547748	-0.001608032
	0.02546287	-0.002875737	0.00112807	-0.0001235862	-0.08025	-0.02490541	0.001003106	-0.0001667627
	0.00120579	8.454218e-05	0.02533714	-0.001956751	0.001021662	-0.0001705375	-0.08412467	-0.02700639
3.8e+08	-0.05013292	-0.01056928	0.0007426535	-0.0006409484	0.04678718	-0.02849965	0.001012369	-0.000644362
	0.0007665193	-0.0006164023	-0.0502134	-0.006390877	0.0009700882	-0.0006913024	0.04707813	-0.02735474
	0.04661945	-0.0277448	0.0009396302	-0.0006829064	-0.04597775	-0.006697347	0.0007453891	-0.0006363341
	0.001011938	-0.0006144507	0.04676937	-0.02749657	0.0007601948	-0.0006487588	-0.04990323	-0.006769638
3.9e+08	-0.0192794	-0.01987561	0.0003502091	-0.000848315	0.03884978	-0.05966189	0.0004839659	-0.0009724926
	0.0003836253	-0.0008371432	-0.01753919	-0.01580547	0.0005221369	-0.001061343	0.03905	-0.05946279
	0.03895846	-0.05885954	0.0004980292	-0.001039225	-0.01517938	-0.01839009	0.0003555827	-0.0008464489
	0.0004955186	-0.0009471531	0.03878417	-0.05934316	0.0003624321	-0.0008647313	-0.01777683	-0.0169696
4e+08	-0.01003782	-0.04476002	-1.786595e-07	-0.0009000321	0.009343666	-0.07094872	3.740042e-05	-0.0009750102
	3.574945e-05	-0.000906305	-0.006548371	-0.04191355	-4.217978e-06	-0.001173894	0.008764732	-0.07131633
	0.009700923	-0.07027528	-1.455477e-05	-0.001141398	-0.007186327	-0.04447719	2.999073e-06	-0.0009049612
	5.757019e-05	-0.0009562823	0.008725075	-0.07106514	-2.179143e-07	-0.0009239846	-0.007812991	-0.04292267
4.1e+08	-0.02357036	-0.06269278	-0.0003750071	-0.0008906388	-0.01635035	-0.0532708	-0.0002945377	-0.0009283984
	-0.0003461039	-0.0009143628	-0.01911631	-0.06201025	-0.00051532	-0.001077972	-0.01786242	-0.05342042
	-0.01589669	-0.05281104	-0.000506797	-0.001044455	-0.02171429	-0.06212245	-0.0003818524	-0.0008970984
	-0.000266872	-0.0009188335	-0.01765718	-0.05326385	-0.0003935799	-0.0009113027	-0.02086576	-0.06189
4.2e+08	-0.04370769	-0.05993062	-0.0008240115	-0.0006907828	-0.01600159	-0.0216921	-0.0007115054	-0.0008222065
	-0.0008108342	-0.0007259254	-0.0395976	-0.06176717	-0.0009795705	-0.0007778673	-0.01796396	-0.0210209
	-0.01559671	-0.02137483	-0.0009551336	-0.0007549592	-0.04153602	-0.05856478	-0.0008389523	-0.0006867476
	-0.0006798946	-0.0008268784	-0.01767606	-0.02112311	-0.0008545959	-0.0006931887	-0.04062829	-0.06037797
4.3e+08	-0.05065507	-0.04145344	-0.001140947	-0.0001788459	0.01181867	-0.003203199	-0.001143433	-0.0004069572
	-0.001146808	-0.000215084	-0.0482221	-0.04524721	-0.001293598	-0.0002445227	0.01014032	-0.001675817
	0.01216582	-0.002878933	-0.001263394	-0.000238224	-0.0470405	-0.04021066	-0.001150461	-0.0001597147
	-0.001117052	-0.0004284174	0.0102765	-0.002021027	-0.0011658	-0.0001593574	-0.04764245	-0.04354704
4.4e+08	-0.03779649	-0.0260583	-0.001060022	0.0004594888	0.04610095	-0.01584705	-0.001222896	0.0002888629
	-0.001081532	0.0004315907	-0.03774537	-0.03050353	-0.001285198	0.0004264281	0.04521437	-0.01395345
	0.04652342	-0.01544022	-0.00125877	0.0004187693	-0.03294983	-0.0265355	-0.001052738	0.0004834445
	-0.001211906	0.0002563296	0.04505334	-0.01435155	-0.001066787	0.0004885876	-0.03579588	-0.02986554
4.5e+08	-0.01723783	-0.02901096	-0.0006340519	0.0008660021	0.05881733	-0.05373834	-0.0008316482	0.0008448048
	-0.000664507	0.0008512948	-0.01927707	-0.03267124	-0.0009151023	0.0009875161	0.05872362	-0.0521773
	0.05946464	-0.05333846	-0.0008956512	0.0009715685	-0.01274984	-0.03204395	-0.0006132981	0.0008806568
	-0.0008389602	0.0008129829	0.05831111	-0.0523914	-0.0006261193	0.0008913734	-0.01725601	-0.03374744
4.6e+08	-0.007888239	-0.04825271	-0.000187947	0.0009476454	0.03735364	-0.09025077	-0.0003126421	0.00100209
	-0.0002211895	0.0009472872	-0.01086036	-0.05027581	-0.0003561291	0.001263408	0.0375396	-0.0895101
	0.0382427	-0.09006349	-0.0003436074	0.001241453	-0.005493673	-0.0530368	-0.000164759	0.0009502683
	-0.0003322959	0.0009799842	0.03708067	-0.08941779	-0.0001727164	0.0009683803	-0.01010238	-0.05238878
4.7e+08	-0.01826971	-0.06718837	0.000132268	0.0009235343	-0.004656964	-0.09889572	4.421895e-05	0.0009659225
	0.0001015071	0.0009376275	-0.02078787	-0.06775483	0.0002074515	0.001278497	-0.004892362	-0.09892468
	-0.003691533	-0.09908801	0.0002101681	0.001250945	-0.01844768	-0.07183021	0.0001546327	0.0009194177
	1.995682e-05	0.0009548272	-0.005178726	-0.09859211	0.0001579836	0.0009417906	-0.02151863	-0.06937943
4.8e+08	-0.03957311	-0.06907354	0.0004876485	0.0009032814	-0.0379824	-0.07389271	0.0003740962	0.0009681987
	0.0004656696	0.0009307206	-0.04080281	-0.06933994	0.0007311307	0.001111134	-0.03905229	-0.07417022
