!$
! Info: Touchstone file created by Circ.  Input file=Tx_NPC_250mm_32AWG_BPK_500mm_27AWG_BPK_250mm_32AWG_NPC_Rx.circ
!$
# Hz S RI R 50
0	0.02548562	-1.478239e-17	8.693366e-07	1.984525e-19	0.003842237	1.103028e-15	-1.467709e-06	-4.27841e-20
	6.219343e-06	2.068942e-21	0.02434807	-2.051231e-16	-3.744405e-07	1.540612e-19	0.002947075	-4.52729e-16
	0.003199548	2.620166e-17	-1.678969e-06	-4.072922e-21	0.04361459	-5.217236e-16	-4.796997e-06	-2.8058e-20
	1.039715e-05	-3.065583e-19	0.003048613	-2.592952e-16	4.292284e-07	2.749745e-19	0.04889377	4.835362e-16
1e+07	0.05898647	0.002302926	9.089625e-07	-2.63366e-07	0.01658301	0.0299373	-9.179984e-07	1.140537e-06
	5.420531e-06	-2.667078e-06	0.05748955	0.001837194	-4.736009e-07	-6.275973e-08	0.01606883	0.02986132
	0.01600709	0.02991191	-1.607662e-06	3.379175e-07	0.05407314	0.003232784	-4.122333e-06	2.194771e-06
	9.136454e-06	-4.808326e-06	0.0161125	0.02987057	2.370024e-07	-5.757938e-07	0.05888662	0.001031638
2e+07	0.06686779	-0.003463121	8.723168e-07	-6.507583e-07	0.04542699	0.04492324	2.222814e-07	1.590088e-06
	3.585974e-06	-4.635052e-06	0.06459781	-0.003998863	-5.780727e-07	-4.30017e-08	0.04485437	0.0452254
	0.04479319	0.04508497	-1.422287e-06	5.682449e-07	0.0623298	-0.001384037	-2.462088e-06	3.634648e-06
	5.775381e-06	-8.399806e-06	0.04487325	0.04518384	-2.446928e-07	-9.676649e-07	0.06538909	-0.005438962
3e+07	0.07059525	-0.01611754	6.02074e-07	-1.112619e-06	0.07675316	0.03755393	1.353596e-06	1.163017e-06
	1.107289e-06	-5.483726e-06	0.06747837	-0.01618293	-6.621183e-07	8.297281e-08	0.07603595	0.03823686
	0.07602533	0.03800377	-1.245252e-06	6.923677e-07	0.06675178	-0.01308251	-4.301864e-07	3.987947e-06
	1.136493e-06	-9.928039e-06	0.07601565	0.0381354	-9.191484e-07	-1.042011e-06	0.06750163	-0.0178122
4e+07	0.0661338	-0.03113373	1.731203e-08	-1.44285e-06	0.09577071	0.01103915	1.934667e-06	1.442666e-07
	-1.407065e-06	-5.065829e-06	0.06243348	-0.03016472	-6.528623e-07	2.982212e-07	0.0952102	0.01190159
	0.09516033	0.01173349	-1.129262e-06	7.991522e-07	0.06313911	-0.02755526	1.35883e-06	3.344804e-06
	-3.642239e-06	-9.013239e-06	0.09513347	0.01181857	-1.613664e-06	-6.982211e-07	0.06170833	-0.03155866
5e+07	0.05330657	-0.04229373	-7.760986e-07	-1.393107e-06	0.09317761	-0.02110467	1.779811e-06	-9.405308e-07
	-3.355307e-06	-3.511745e-06	0.04941084	-0.03983751	-4.85833e-07	5.519392e-07	0.09286292	-0.02025089
	0.09281969	-0.02027886	-1.031153e-06	9.799717e-07	0.05105865	-0.03833864	2.511992e-06	2.060119e-06
	-7.345653e-06	-5.830683e-06	0.09276715	-0.02027902	-2.084916e-06	8.962241e-08	0.04819024	-0.04073401
6e+07	0.03546065	-0.04467243	-1.483309e-06	-8.351188e-07	0.07016073	-0.04369262	1.095299e-06	-1.621633e-06
	-4.21686e-06	-1.219709e-06	0.03215137	-0.04062058	-1.277587e-07	7.406811e-07	0.07009959	-0.04280707
	0.07010732	-0.04279984	-8.343394e-07	1.256738e-06	0.0339302	-0.04052102	2.912181e-06	5.639382e-07
	-8.89039e-06	-1.141199e-06	0.06998743	-0.04277526	-2.045113e-06	1.187872e-06	0.03076266	-0.04083145
7e+07	0.01909984	-0.03590935	-1.743765e-06	1.229783e-07	0.03784752	-0.04501949	3.284235e-07	-1.719566e-06
	-3.711088e-06	1.137033e-06	0.01715368	-0.03042108	4.030496e-07	7.285757e-07	0.0380729	-0.04424623
	0.03808656	-0.04423791	-4.257902e-07	1.54319e-06	0.01823815	-0.03149125	2.66065e-06	-7.882077e-07
	-7.658744e-06	3.724252e-06	0.03798896	-0.04415378	-1.284045e-06	2.251272e-06	0.01595091	-0.0299932
8e+07	0.01120654	-0.01820314	-1.330656e-06	1.100723e-06	0.01259064	-0.02342269	-1.077956e-07	-1.434351e-06
	-1.975727e-06	2.750711e-06	0.01132641	-0.01188128	9.602792e-07	3.803938e-07	0.01305396	-0.02291063
	0.01300875	-0.02287227	2.156235e-07	1.658322e-06	0.01115818	-0.0134753	1.968672e-06	-1.797399e-06
	-3.859824e-06	7.135035e-06	0.01302962	-0.0227781	1.326584e-07	2.776376e-06	0.01057754	-0.01101583
9e+07	0.01651991	0.001900726	-3.51971e-07	1.611934e-06	0.008449373	0.01145928	-1.111939e-07	-1.198356e-06
	3.318712e-07	2.997006e-06	0.01906165	0.008062993	1.288298e-06	-3.108042e-07	0.0089936	0.01160225
	0.00888454	0.01176157	9.510906e-07	1.428381e-06	0.0175522	0.00682335	1.034753e-06	-2.406474e-06
	1.27246e-06	7.761985e-06	0.009046602	0.01174208	1.754219e-06	2.365011e-06	0.01889746	0.009083044
1e+08	0.03470411	0.01564969	7.410952e-07	1.3617e-06	0.02994739	0.04267707	3.058835e-08	-1.349285e-06
	2.258502e-06	1.806311e-06	0.03949407	0.0205826	1.151731e-06	-1.138612e-06	0.03032879	0.04244136
	0.03025685	0.04281023	1.522446e-06	8.247387e-07	0.03711012	0.02047684	-1.447631e-08	-2.61102e-06
	5.838406e-06	5.284063e-06	0.03045453	0.04253984	2.906098e-06	1.031886e-06	0.03989259	0.02146333
1.1e+08	0.05982222	0.01623314	1.398323e-06	4.564031e-07	0.06933808	0.05419	-1.399458e-07	-1.845446e-06
	3.02762e-06	-2.67577e-07	0.06618392	0.01895126	5.316417e-07	-1.736352e-06	0.06939239	0.05378406
	0.06948665	0.05431673	1.701959e-06	2.546931e-08	0.06369376	0.02032365	-1.079007e-06	-2.372281e-06
	8.110787e-06	6.361265e-07	0.06956613	0.05380977	3.081833e-06	-7.195322e-07	0.06696974	0.01943567
1.2e+08	0.08304324	0.001713075	1.298263e-06	-6.449612e-07	0.1104637	0.03866116	-8.869647e-07	-2.271764e-06
	2.416869e-06	-2.340944e-06	0.08976443	0.001763799	-3.214701e-07	-1.814408e-06	0.1102071	0.03835925
	0.1105152	0.0389142	1.451186e-06	-6.667308e-07	0.08807415	0.004476158	-1.993706e-06	-1.636314e-06
	7.331777e-06	-4.418524e-06	0.1103787	0.03829157	2.249758e-06	-2.181497e-06	0.09068866	0.001752383
1.3e+08	0.09617939	-0.02436829	5.064798e-07	-1.403964e-06	0.1363742	0.0004468157	-2.056286e-06	-2.108958e-06
	7.540304e-07	-3.661744e-06	0.1020591	-0.02674845	-1.011543e-06	-1.324034e-06	0.1360085	0.0004301284
	0.1364766	0.0008860928	9.475327e-07	-9.976172e-07	0.1017964	-0.02331572	-2.497682e-06	-4.231879e-07
	3.907883e-06	-8.115595e-06	0.1361304	0.0002817023	8.31556e-07	-2.821205e-06	0.1028666	-0.02722502
1.4e+08	0.09450077	-0.05476144	-5.924054e-07	-1.463212e-06	0.1364775	-0.04693946	-3.117828e-06	-1.070639e-06
	-1.334098e-06	-3.849982e-06	0.0986627	-0.05879623	-1.20731e-06	-4.806763e-07	0.1362709	-0.04667802
	0.1367897	-0.04636352	4.973419e-07	-8.903963e-07	0.100013	-0.05548415	-2.297556e-06	1.074076e-06
	-9.085859e-07	-9.311587e-06	0.136308	-0.04687121	-5.524207e-07	-2.494811e-06	0.09915305	-0.05959394
1.5e+08	0.07774915	-0.08087506	-1.482101e-06	-7.823113e-07	0.110279	-0.08655307	-3.410716e-06	6.847916e-07
	-3.189742e-06	-2.921295e-06	0.07985429	-0.08548924	-7.731342e-07	3.495134e-07	0.1104153	-0.08619605
	0.1108991	-0.08598639	3.976645e-07	-4.858787e-07	0.08253807	-0.08312245	-1.194214e-06	2.456654e-06
	-5.541517e-06	-7.742821e-06	0.1103565	-0.08638345	-1.346071e-06	-1.436949e-06	0.07993544	-0.08639273
1.6e+08	0.0500881	-0.09494227	-1.722982e-06	3.483367e-07	0.06724542	-0.1043711	-2.471303e-06	2.529209e-06
	-4.291776e-06	-1.187008e-06	0.05041264	-0.09914643	1.937029e-07	7.731543e-07	0.06776813	-0.1041781
	0.06817718	-0.1040087	8.031976e-07	-1.042229e-07	0.05375787	-0.09821698	7.689859e-07	3.16526e-06
	-8.559205e-06	-3.985829e-06	0.06763206	-0.1043134	-1.227128e-06	-1.522238e-07	0.05008694	-0.09990616
1.7e+08	0.01981781	-0.09208877	-1.140928e-06	1.394014e-06	0.02355844	-0.09444971	-3.505001e-07	3.554481e-06
	-4.354882e-06	8.1557e-07	0.01909491	-0.09522134	1.376862e-06	5.0014e-07	0.02433933	-0.09465328
	0.02467554	-0.09446661	1.619466e-06	-1.413037e-07	0.02227237	-0.09582038	3.166487e-06	2.64218e-06
	-9.067141e-06	6.9737e-07	0.02416578	-0.09470755	-2.167786e-07	7.360282e-07	0.01851717	-0.09562547
1.8e+08	-0.002468044	-0.07284798	2.075226e-08	1.790601e-06	-0.00375022	-0.06178069	2.213447e-06	2.988832e-06
	-3.433403e-06	2.476514e-06	-0.003318485	-0.07483474	2.29326e-06	-5.43229e-07	-0.002942607	-0.06251254
	-0.002666898	-0.06225679	2.455381e-06	-8.732214e-07	-0.001019239	-0.07656947	5.163736e-06	6.225419e-07
	-7.026936e-06	4.743529e-06	-0.003106581	-0.06248491	1.254283e-06	6.90794e-07	-0.003896768	-0.07476918
1.9e+08	-0.007549135	-0.04463321	1.140896e-06	1.280667e-06	-0.003860029	-0.02127983	3.983778e-06	7.405865e-07
	-1.953921e-06	3.332428e-06	-0.007807295	-0.04596482	2.443454e-06	-2.089771e-06	-0.003299475	-0.02253737
	-0.003048737	-0.02214963	2.750549e-06	-2.220166e-06	-0.006722391	-0.04814564	5.759285e-06	-2.523079e-06
	-3.358371e-06	6.860144e-06	-0.003418318	-0.02245253	2.428808e-06	-4.38858e-07	-0.008091477	-0.04547196
2e+08	0.007520256	-0.02004731	1.563818e-06	1.621851e-07	0.02217936	0.008035149	3.876382e-06	-2.303602e-06
	-5.372488e-07	3.330917e-06	0.008077309	-0.02153548	1.578884e-06	-3.535134e-06	0.02224203	0.006401326
	0.02256013	0.006973059	2.116115e-06	-3.657836e-06	0.00806139	-0.02345535	4.33828e-06	-5.706746e-06
	4.305507e-07	6.648022e-06	0.02218062	0.006507331	2.576402e-06	-2.201761e-06	0.008331687	-0.02083131
2.1e+08	0.03672658	-0.01124389	1.074914e-06	-8.516565e-07	0.06107373	0.01214655	1.723277e-06	-4.633286e-06
	3.931255e-07	2.848195e-06	0.03773196	-0.01363827	-5.527191e-08	-4.185992e-06	0.06049558	0.010405
	0.06102012	0.01113848	6.763905e-07	-4.476378e-06	0.03708315	-0.01488142	1.191594e-06	-7.57242e-06
	3.046134e-06	4.760484e-06	0.06048115	0.010502	1.485356e-06	-3.693162e-06	0.03860789	-0.01304169
2.2e+08	0.06758593	-0.02404733	7.197777e-08	-1.14166e-06	0.09376394	-0.01088756	-1.508273e-06	-5.008495e-06
	8.543595e-07	2.386747e-06	0.06827577	-0.02769996	-1.765574e-06	-3.681595e-06	0.09256708	-0.01242728
	0.09341363	-0.01165123	-9.456546e-07	-4.263378e-06	0.06752191	-0.02820016	-2.509489e-06	-7.270825e-06
	4.057909e-06	2.407234e-06	0.09257872	-0.0123522	-3.234689e-07	-4.109527e-06	0.06966882	-0.02754634
2.3e+08	0.0869617	-0.05541103	-7.512697e-07	-5.984005e-07	0.1050442	-0.05050924	-4.274006e-06	-3.182144e-06
	1.202082e-06	2.164633e-06	0.08649474	-0.06013953	-2.781029e-06	-2.226793e-06	0.1034081	-0.05162049
	0.1046013	-0.05097037	-2.029397e-06	-3.164933e-06	0.08601347	-0.06012599	-5.340907e-06	-4.918761e-06
	3.912584e-06	5.358074e-07	0.1034287	-0.05156444	-1.917739e-06	-3.257159e-06	0.08813263	-0.06064844
2.4e+08	0.0862531	-0.09562319	-8.698153e-07	3.803452e-07	0.09016974	-0.08985653	-5.284537e-06	4.543115e-08
	1.762181e-06	2.014386e-06	0.08402493	-0.1007925	-2.662809e-06	-4.705912e-07	0.08834571	-0.0904515
	0.08980888	-0.0900871	-2.167511e-06	-1.743863e-06	0.08394095	-0.1005886	-6.311764e-06	-1.446833e-06
	3.384905e-06	-5.924488e-07	0.08836993	-0.09040537	-2.51901e-06	-1.628289e-06	0.08556442	-0.1020005
2.5e+08	0.06361391	-0.1322387	-1.767032e-07	1.180936e-06	0.05541559	-0.1137412	-4.047641e-06	3.290484e-06
	2.567188e-06	1.568545e-06	0.05943465	-0.1369691	-1.474214e-06	8.310288e-07	0.05363612	-0.1138672
	0.05521942	-0.1138879	-1.400463e-06	-6.475069e-07	0.05968943	-0.1368364	-5.178858e-06	1.890453e-06
	3.010014e-06	-1.301011e-06	0.05366776	-0.113827	-1.889302e-06	-7.58083e-08	0.06057893	-0.1387444
2.6e+08	0.0240511	-0.1537051	1.024965e-06	1.274555e-06	0.01407968	-0.1142851	-9.892644e-07	5.168936e-06
	3.304031e-06	5.449967e-07	0.018202	-0.1571615	2.892883e-07	1.117472e-06	0.0124876	-0.1140861
	0.01401647	-0.1145019	-1.242421e-07	-3.505775e-07	0.01862551	-0.1572029	-2.410457e-06	3.962286e-06
	2.805452e-06	-2.090628e-06	0.01253225	-0.114058	-3.902085e-07	6.111234e-07	0.01877834	-0.1592352
2.7e+08	-0.0218254	-0.1526211	2.147765e-06	4.151435e-07	-0.01922106	-0.09279268	2.709553e-06	4.79506e-06
	3.477395e-06	-1.031591e-06	-0.02871393	-0.1541836	1.884431e-06	2.289679e-07	-0.02058028	-0.09242668
	-0.01926809	-0.09317225	1.05754e-06	-1.018764e-06	-0.0282262	-0.1543954	9.894208e-07	4.076222e-06
	2.351707e-06	-3.22384e-06	-0.02052828	-0.09242398	1.179055e-06	5.431218e-08	-0.0287183	-0.1562762
2.8e+08	-0.06031839	-0.1285167	2.506552e-06	-1.217796e-06	-0.03365028	-0.05850782	5.495399e-06	2.160429e-06
	2.645441e-06	-2.723129e-06	-0.06742998	-0.1279408	2.579385e-06	-1.500531e-06	-0.03480904	-0.05810065
	-0.03383445	-0.05904368	1.512491e-06	-2.423764e-06	-0.06689223	-0.1282863	3.757398e-06	2.21537e-06
	1.097343e-06	-4.434887e-06	-0.03476992	-0.05813163	1.917831e-06	-1.505121e-06	-0.06788699	-0.1298229
2.9e+08	-0.07920818	-0.08929027	1.611696e-06	-2.960325e-06	-0.02583644	-0.02512132	6.049451e-06	-1.707148e-06
	7.542276e-07	-3.76118e-06	-0.08574507	-0.08670652	1.985399e-06	-3.288059e-06	-0.02685665	-0.02474697
	-0.02627698	-0.02570417	8.31641e-07	-3.92418e-06	-0.08511113	-0.08723588	4.803909e-06	-8.376656e-07
	-1.149942e-06	-4.934475e-06	-0.02685907	-0.02480056	1.273035e-06	-3.214189e-06	-0.08644669	-0.08827137
3e+08	-0.07314446	-0.04927157	-4.528426e-07	-3.843714e-06	-0.001337497	-0.005700972	4.007791e-06	-5.038859e-06
	-1.620358e-06	-3.399885e-06	-0.07846572	-0.04509412	3.531845e-07	-4.215048e-06	-0.002275167	-0.005401504
	-0.00205811	-0.006161629	-8.605847e-07	-4.655249e-06	-0.07777065	-0.04598468	3.766208e-06	-3.70833e-06
	-3.806767e-06	-3.822868e-06	-0.00233669	-0.005440132	-5.412219e-07	-3.974476e-06	-0.07921467	-0.04637758
3.1e+08	-0.04683308	-0.02346338	-2.843602e-06	-3.122507e-06	0.02717993	-0.007080165	3.570999e-07	-6.185409e-06
	-3.368142e-06	-1.452956e-06	-0.05058755	-0.01829042	-1.445578e-06	-3.757003e-06	0.02626166	-0.006894926
	0.02626958	-0.007263789	-2.789173e-06	-4.003976e-06	-0.05004227	-0.01971922	1.322245e-06	-5.091078e-06
	-5.539612e-06	-8.201046e-07	0.02615513	-0.006870196	-2.511278e-06	-3.1117e-06	-0.05127	-0.01942623
3.2e+08	-0.01339137	-0.02062088	-4.310192e-06	-8.690884e-07	0.04557328	-0.02624519	-2.981398e-06	-4.624908e-06
	-3.43948e-06	1.363184e-06	-0.0154623	-0.01506501	-2.387589e-06	-2.171905e-06	0.04457528	-0.02620422
	0.04464082	-0.0260869	-3.882588e-06	-2.091331e-06	-0.01549034	-0.01704469	-1.133045e-06	-4.523714e-06
	-4.970214e-06	3.202441e-06	0.04447744	-0.02608192	-3.366725e-06	-9.032288e-07	-0.01611404	-0.01620435
3.3e+08	0.0118833	-0.03939739	-3.96188e-06	1.922332e-06	0.0453674	-0.05168954	-4.261463e-06	-1.332551e-06
	-1.528969e-06	3.706581e-06	0.01138344	-0.03400188	-1.933585e-06	-3.609064e-07	0.04414444	-0.05175343
	0.04457822	-0.05123795	-3.438672e-06	1.981691e-07	0.01034474	-0.03621952	-2.341943e-06	-2.638179e-06
	-1.619742e-06	6.444484e-06	0.04412841	-0.05154402	-2.3898e-06	1.517055e-06	0.01062509	-0.03520115
3.4e+08	0.01823657	-0.06970605	-1.845046e-06	3.884802e-06	0.02795231	-0.06961592	-2.911158e-06	1.814701e-06
	1.669108e-06	4.3236e-06	0.01906161	-0.06489469	-3.063532e-07	6.813464e-07	0.02638486	-0.06962664
	0.0273985	-0.06899795	-1.566675e-06	1.733758e-06	0.01679268	-0.06672139	-1.886169e-06	-6.744395e-07
	3.60856e-06	7.077387e-06	0.02650824	-0.06939161	1.570064e-07	2.817129e-06	0.01805391	-0.06606018
3.5e+08	0.003322286	-0.09760947	1.090102e-06	4.031906e-06	0.003142568	-0.07108173	2.386246e-07	3.099234e-06
	4.796427e-06	2.680762e-06	0.00515063	-0.09370615	1.700363e-06	3.756815e-07	0.001241455	-0.07079987
	0.002819211	-0.07043333	9.095386e-07	1.761336e-06	0.001859948	-0.09436523	-2.736255e-07	2.767461e-07
	8.731367e-06	4.193626e-06	0.001514347	-0.07063331	3.191759e-06	2.161938e-06	0.003861513	-0.09463036
3.6e+08	-0.02657992	-0.1109768	3.482447e-06	2.217861e-06	-0.0164015	-0.05583973	3.459817e-06	1.800443e-06
	6.414446e-06	-8.207127e-07	-0.02415592	-0.1081703	3.12205e-06	-1.229764e-06	-0.01845423	-0.05505923
	-0.01656906	-0.05524294	2.889941e-06	2.290907e-07	-0.02776486	-0.1070648	1.458869e-06	-2.170304e-07
	1.147865e-05	-1.695081e-06	-0.01808427	-0.0550501	5.320562e-06	-4.130735e-07	-0.02557551	-0.108653
3.7e+08	-0.05940324	-0.1039326	4.155326e-06	-8.087529e-07	-0.0212385	-0.03152953	4.966803e-06	-1.495104e-06
	5.552029e-06	-4.948317e-06	-0.05684201	-0.1022827	3.204533e-06	-3.487061e-06	-0.02315134	-0.03019902
	-0.02133853	-0.03099093	3.476754e-06	-2.214739e-06	-0.05971719	-0.09928477	2.279166e-06	-1.797689e-06
	1.021045e-05	-8.696583e-06	-0.02278617	-0.03039508	5.404032e-06	-3.973073e-06	-0.0581182	-0.1022573
3.8e+08	-0.0820859	-0.07919028	2.626556e-06	-3.670583e-06	-0.008954218	-0.009766083	3.760577e-06	-5.124858e-06
	2.135333e-06	-8.013917e-06	-0.0798496	-0.07853967	1.74756e-06	-5.346445e-06	-0.01045239	-0.008018083
	-0.009035669	-0.009232363	2.351033e-06	-4.462216e-06	-0.08094291	-0.07419616	1.65475e-06	-3.483607e-06
	4.702417e-06	-1.408685e-05	-0.01021189	-0.008399007	3.106554e-06	-6.95096e-06	-0.08069758	-0.07814303
3.9e+08	-0.08613775	-0.04694098	-5.747369e-07	-4.896305e-06	0.01507743	-0.001084074	2.156143e-07	-7.076988e-06
	-2.77387e-06	-8.485046e-06	-0.08456798	-0.04691274	-6.657481e-07	-5.780594e-06	0.01415202	0.0008180524
	0.01503213	-0.0004879918	2.254962e-09	-5.381765e-06	-0.08327304	-0.04236856	-9.967438e-08	-4.126122e-06
	-3.43448e-06	-1.532664e-05	0.01417432	0.0003428691	-7.471164e-07	-7.777303e-06	-0.08484094	-0.04645191
4e+08	-0.0714751	-0.02027941	-3.983546e-06	-3.650916e-06	0.03988035	-0.01038532	-3.924961e-06	-6.04425e-06
	-7.20525e-06	-5.792616e-06	-0.07065915	-0.02035564	-2.790058e-06	-4.389122e-06	0.03952949	-0.008639123
	0.03994505	-0.009696923	-2.369043e-06	-4.403323e-06	-0.06715188	-0.01699758	-1.850345e-06	-3.089123e-06
	-1.109511e-05	-1.133187e-05	0.03930692	-0.009073484	-4.327701e-06	-5.758899e-06	-0.07044734	-0.02017483
4.1e+08	-0.04630051	-0.009017947	-5.843833e-06	-3.153504e-07	0.0535134	-0.03435711	-6.368095e-06	-2.292115e-06
	-9.158792e-06	-8.494236e-07	-0.04598887	-0.008702908	-3.355726e-06	-1.803662e-06	0.05358213	-0.03304878
	0.05377926	-0.03361603	-3.412232e-06	-1.94751e-06	-0.04127368	-0.007599482	-2.237465e-06	-7.913766e-07
	-1.497056e-05	-3.318922e-06	0.05317355	-0.03331119	-5.679426e-06	-1.693509e-06	-0.04560059	-0.009019749
4.2e+08	-0.02268597	-0.01515384	-5.076633e-06	3.585033e-06	0.04886782	-0.06249337	-5.575524e-06	2.324725e-06
	-7.70615e-06	4.244213e-06	-0.02234572	-0.01419895	-1.882327e-06	5.645048e-07	0.04905881	-0.06180155
	0.04938603	-0.06180514	-2.406239e-06	7.00004e-07	-0.01791533	-0.01564061	-5.749065e-07	1.392335e-06
	-1.323161e-05	5.518157e-06	0.04859084	-0.06181885	-3.878928e-06	2.408182e-06	-0.02217039	-0.01495331
4.3e+08	-0.01057591	-0.03263277	-1.911601e-06	6.171156e-06	0.0274062	-0.08196056	-1.701338e-06	5.33587e-06
	-3.545767e-06	7.303896e-06	-0.009571404	-0.03118856	9.799604e-07	1.347309e-06	0.02734721	-0.08187337
	0.02815074	-0.0814565	2.935628e-07	2.089774e-06	-0.006831664	-0.03451111	2.613518e-06	1.918811e-06
	-6.5251e-06	1.150772e-05	0.02696516	-0.08166093	3.747156e-07	4.406197e-06	-0.009869974	-0.0320528
4.4e+08	-0.01335645	-0.05090806	2.251478e-06	6.184823e-06	-0.001354083	-0.0839388	3.453736e-06	4.98104e-06
	1.421217e-06	7.143442e-06	-0.01121766	-0.04955555	3.839269e-06	-2.409428e-08	-0.001973377	-0.08422294
	-0.0004899057	-0.0837176	3.463356e-06	1.377351e-06	-0.01091977	-0.05336698	5.823748e-06	-1.086827e-08
	2.356164e-06	1.221022e-05	-0.002163728	-0.08387707	5.156059e-06	3.154423e-06	-0.0119488	-0.05007288
4.5e+08	-0.02678854	-0.06012892	5.545194e-06	3.549122e-06	-0.02448749	-0.06781274	7.323744e-06	1.096236e-06
	5.033098e-06	4.023193e-06	-0.02347645	-0.0597458	5.274857e-06	-3.096663e-06	-0.02577805	-0.06810051
	-0.02365405	-0.06789266	5.626376e-06	-1.303137e-06	-0.02539486	-0.06244136	7.3219e-06	-3.99874e-06
	9.743031e-06	7.411264e-06	-0.02574987	-0.06775682	8.259677e-06	-1.021087e-06	-0.02425698	-0.05956661
4.6e+08	-0.04120378	-0.05577256	6.443533e-06	-6.213019e-07	-0.03159334	-0.04124858	7.748099e-06	-4.747983e-06
	5.768225e-06	-5.563308e-07	-0.03726167	-0.05720886	4.431233e-06	-6.618943e-06	-0.03342962	-0.04120246
	-0.0309237	-0.04155549	5.688217e-06	-4.906128e-06	-0.04021651	-0.05762088	5.941257e-06	-8.557025e-06
	1.257962e-05	-8.427735e-07	-0.03323972	-0.04098029	8.115898e-06	-6.484988e-06	-0.03750813	-0.05632366
4.7e+08	-0.04611818	-0.04114449	4.427743e-06	-4.431358e-06	-0.01930055	-0.01688375	4.017236e-06	-9.804854e-06
	3.306842e-06	-4.431721e-06	-0.04262197	-0.04487624	1.386885e-06	-8.987009e-06	-0.02142353	-0.01632951
	-0.01885352	-0.01727961	3.426532e-06	-7.854691e-06	-0.0449169	-0.04277286	1.687362e-06	-1.162456e-05
	9.639533e-06	-8.995745e-06	-0.02118411	-0.01628682	4.456692e-06	-1.087741e-05	-0.04181103	-0.04369948
4.8e+08	-0.03588938	-0.02638434	3.674599e-07	-5.977429e-06	0.007078619	-0.007046142	-2.535583e-06	-1.131105e-05
