!$
! Info: Touchstone file created by Circ.  Input file=Tx_NPC_250mm_32AWG_BPK_900mm_27AWG_BPK_250mm_32AWG_NPC_Rx.circ
!$
# Hz S RI R 50
0	0.03686265	-1.699621e-17	8.607842e-07	1.956781e-19	0.004197966	1.118581e-15	-1.394497e-06	-5.144629e-20
	6.114212e-06	1.244894e-21	0.03569992	-1.987013e-16	-3.852981e-07	1.707385e-19	0.003300824	-4.472412e-16
	0.003525276	2.175299e-17	-1.678206e-06	-5.672099e-21	0.05467884	-5.250455e-16	-4.728896e-06	-3.252383e-20
	1.021424e-05	-2.970463e-19	0.003395581	-2.562562e-16	3.65965e-07	2.692185e-19	0.05984993	5.133688e-16
1e+07	0.06992444	-0.003828354	8.46533e-07	-3.940785e-07	0.02374008	0.03512865	-5.224546e-07	1.442008e-06
	4.737127e-06	-3.386017e-06	0.06807738	-0.004711364	-5.098933e-07	-6.258842e-08	0.02320791	0.03506735
	0.02312322	0.03512057	-1.598132e-06	3.287604e-07	0.06506189	-0.002939874	-3.547135e-06	2.800885e-06
	7.833637e-06	-6.229641e-06	0.02324746	0.03506374	-1.94e-08	-8.013615e-07	0.06925859	-0.005760923
2e+07	0.07344261	-0.01783452	6.058988e-07	-8.650782e-07	0.06288292	0.04086688	1.140098e-06	1.55845e-06
	1.686989e-06	-5.060767e-06	0.07012523	-0.01860709	-6.381379e-07	2.41026e-08	0.06232854	0.04119838
	0.0622168	0.04109813	-1.434428e-06	5.249621e-07	0.06893925	-0.01589301	-8.926012e-07	3.936986e-06
	2.068939e-06	-9.296948e-06	0.06231674	0.04114898	-9.12493e-07	-1.081656e-06	0.0702918	-0.02020396
3e+07	0.06515205	-0.03563059	-2.500574e-09	-1.181917e-06	0.08988967	0.01310453	2.258591e-06	3.181424e-07
	-1.552862e-06	-4.363972e-06	0.0605575	-0.03504716	-6.610904e-07	2.588763e-07	0.08926614	0.0137896
	0.08921554	0.01367067	-1.337013e-06	6.622902e-07	0.06124686	-0.03285183	1.622028e-06	3.023578e-06
	-4.146512e-06	-7.80178e-06	0.0891697	0.01372538	-1.860413e-06	-5.908215e-07	0.05972071	-0.0363173
4e+07	0.04443503	-0.04493743	-8.069727e-07	-9.759493e-07	0.08273992	-0.02494944	2.080654e-06	-1.283417e-06
	-3.387491e-06	-1.775923e-06	0.03967252	-0.04213256	-4.58117e-07	5.355821e-07	0.08230765	-0.0241613
	0.08231564	-0.02418782	-1.270068e-06	8.943978e-07	0.04109223	-0.04159504	2.75068e-06	8.625052e-07
	-7.665898e-06	-2.54969e-06	0.08217315	-0.02414129	-2.282839e-06	6.060941e-07	0.03832817	-0.04249109
5e+07	0.02162846	-0.0367572	-1.275639e-06	-1.381655e-07	0.04729402	-0.0403341	9.219039e-07	-2.156001e-06
	-2.848811e-06	1.273383e-06	0.01805734	-0.03159871	7.01527e-09	6.452691e-07	0.04710875	-0.03964109
	0.04719482	-0.03961996	-1.056427e-06	1.250752e-06	0.01878848	-0.03268092	2.177771e-06	-1.258983e-06
	-6.49629e-06	3.711855e-06	0.04702421	-0.03954251	-1.671249e-06	1.993512e-06	0.01698047	-0.03103697
6e+07	0.01174372	-0.01327073	-8.92301e-07	8.614541e-07	0.01375367	-0.01838431	-2.327564e-07	-1.957004e-06
	-2.089416e-07	2.89436e-06	0.01071639	-0.006877691	5.346563e-07	3.514735e-07	0.01377313	-0.01782751
	0.0138404	-0.01784493	-5.488991e-07	1.547103e-06	0.009718237	-0.008443882	5.015751e-07	-2.287523e-06
	-1.034292e-06	7.279005e-06	0.01376958	-0.01767593	-5.744212e-08	2.64713e-06	0.01046722	-0.005833249
7e+07	0.02396714	0.01072843	2.292865e-07	1.189599e-06	0.01305725	0.02477634	-6.440037e-07	-1.283364e-06
	2.795338e-06	1.905643e-06	0.02580458	0.01673787	7.110331e-07	-3.206015e-07	0.01309909	0.02506033
	0.01311218	0.02511635	1.493902e-07	1.500299e-06	0.02326001	0.01622345	-1.221248e-06	-1.919464e-06
	5.492267e-06	5.64564e-06	0.01319713	0.02518954	1.660597e-06	1.909535e-06	0.02646041	0.01752815
8e+07	0.05201103	0.01760547	1.227316e-06	4.257643e-07	0.05034165	0.05373995	-4.864476e-07	-9.591686e-07
	4.063667e-06	-1.095965e-06	0.05588098	0.02173489	2.927754e-07	-9.023017e-07	0.0501704	0.05389202
	0.05023191	0.05406032	6.733493e-07	1.034076e-06	0.05303415	0.02315728	-2.164229e-06	-6.081328e-07
	8.845461e-06	-4.039565e-07	0.05033143	0.05393322	2.313412e-06	1.710985e-07	0.05698679	0.02171075
9e+07	0.07780377	0.0008893302	1.218205e-06	-9.173718e-07	0.10012	0.04304028	-4.872852e-07	-1.113448e-06
	2.739996e-06	-4.169957e-06	0.08211497	0.002569084	-4.107455e-07	-8.963306e-07	0.09975355	0.04338601
	0.09992764	0.04356809	7.340196e-07	4.615478e-07	0.08044273	0.005639987	-2.074597e-06	9.477196e-07
	6.818673e-06	-7.163863e-06	0.09990844	0.0433178	1.534826e-06	-1.379749e-06	0.08297526	0.001656819
1e+08	0.08484966	-0.03012171	9.429202e-08	-1.805534e-06	0.1268148	-0.00297082	-9.783358e-07	-1.143053e-06
	-3.956131e-07	-5.532931e-06	0.08814004	-0.03024456	-8.051201e-07	-2.773909e-07	0.1265548	-0.002294576
	0.1267762	-0.002174725	4.543584e-07	2.286466e-07	0.08845455	-0.02675781	-1.066084e-06	2.211026e-06
	5.57181e-07	-1.064883e-05	0.1266294	-0.002437836	-1.523241e-08	-1.765629e-06	0.08820354	-0.03163229
1.1e+08	0.06847623	-0.05767273	-1.404776e-06	-1.50255e-06	0.1109701	-0.05434017	-1.480624e-06	-5.045219e-07
	-3.708755e-06	-4.456352e-06	0.07012102	-0.05818064	-4.940699e-07	5.136315e-07	0.1111687	-0.05347395
	0.1113274	-0.05341372	3.089281e-07	4.888699e-07	0.07216124	-0.05565089	6.497835e-07	2.770897e-06
	-6.484943e-06	-8.845415e-06	0.1111364	-0.05362125	-1.230085e-06	-8.035232e-07	0.06922336	-0.05936125
1.2e+08	0.03781994	-0.06522615	-2.191822e-06	-8.749375e-08	0.06286034	-0.07604106	-1.174022e-06	5.628019e-07
	-5.494081e-06	-1.426582e-06	0.03852491	-0.06465278	4.993927e-07	8.838957e-07	0.06363023	-0.07537394
	0.06366479	-0.07529575	7.434987e-07	9.044181e-07	0.04115857	-0.06393011	2.686912e-06	2.201022e-06
	-1.037207e-05	-2.601017e-06	0.0635209	-0.07544653	-1.148849e-06	8.70253e-07	0.03705632	-0.06498817
1.3e+08	0.01249747	-0.04699624	-1.587864e-06	1.47055e-06	0.0172188	-0.05256609	1.683301e-07	1.011278e-06
	-4.724611e-06	1.943202e-06	0.01391288	-0.0449759	1.704505e-06	3.322657e-07	0.01838164	-0.05248462
	0.01826787	-0.05228228	1.724945e-06	8.16498e-07	0.01575033	-0.04582683	4.236327e-06	2.332536e-07
	-8.68947e-06	4.556255e-06	0.01827638	-0.05245479	4.881904e-07	1.951094e-06	0.01261026	-0.04424866
1.4e+08	0.01217179	-0.01489239	-1.476308e-08	1.952702e-06	0.009909444	-0.002178692	1.547235e-06	-5.932919e-08
	-1.962199e-06	3.602117e-06	0.01570748	-0.01258184	2.250866e-06	-1.157516e-06	0.01102521	-0.002891043
	0.0108365	-0.002392099	2.569274e-06	-1.645612e-07	0.01600011	-0.01384061	4.17948e-06	-2.650992e-06
	-2.485472e-06	8.11496e-06	0.01099879	-0.002800327	2.657736e-06	1.212334e-06	0.01528111	-0.01116147
1.5e+08	0.04031727	0.005988201	1.216526e-06	1.048929e-06	0.04842051	0.03369708	1.422406e-06	-2.148559e-06
	7.050086e-07	2.743448e-06	0.04596926	0.00660756	1.447415e-06	-2.730018e-06	0.04893698	0.03237727
	0.04895505	0.03325069	2.492897e-06	-1.591733e-06	0.04511174	0.006229756	2.012841e-06	-4.950633e-06
	3.875684e-06	5.992666e-06	0.04900583	0.03244323	3.521668e-06	-1.141117e-06	0.04667485	0.007942389
1.6e+08	0.0784191	-0.003098025	1.19116e-06	-2.991744e-07	0.1035199	0.02412174	-6.170764e-07	-3.476521e-06
	1.534967e-06	5.970832e-07	0.08467485	-0.005535357	-3.126398e-07	-3.156519e-06	0.1032129	0.02278259
	0.1037093	0.02379736	1.482966e-06	-2.506706e-06	0.08378963	-0.004586304	-1.274363e-06	-5.102217e-06
	6.237324e-06	3.760532e-07	0.1033244	0.02275976	2.269462e-06	-3.310707e-06	0.08612654	-0.004997105
1.7e+08	0.1008678	-0.03974179	1.993122e-07	-9.331108e-07	0.1340055	-0.02652425	-3.248022e-06	-2.635143e-06
	5.849474e-07	-9.985442e-07	0.105646	-0.04515214	-1.718635e-06	-2.086221e-06	0.1331922	-0.02732576
	0.1341333	-0.0265535	3.251719e-07	-2.396578e-06	0.1057376	-0.04334518	-3.738735e-06	-2.854074e-06
	3.901531e-06	-4.563869e-06	0.1332647	-0.02744173	-9.576171e-09	-3.725466e-06	0.1071131	-0.04563653
1.8e+08	0.09290717	-0.08451732	-7.751372e-07	-4.692301e-07	0.11822	-0.0852489	-4.492677e-06	1.991854e-07
	-9.651302e-07	-1.223249e-06	0.094764	-0.0914753	-1.744053e-06	-3.647211e-07	0.1175072	-0.08543842
	0.1185842	-0.08509442	-1.532019e-07	-1.555895e-06	0.09613781	-0.08976418	-3.862255e-06	5.48647e-07
	-8.197363e-07	-6.071382e-06	0.1174851	-0.08559335	-1.580368e-06	-2.402157e-06	0.09559447	-0.09263993
1.9e+08	0.05701089	-0.1140165	-8.835994e-07	6.117435e-07	0.06588832	-0.1155855	-3.099545e-06	3.358313e-06
	-2.057287e-06	-3.234817e-07	0.05579443	-0.1205689	-3.855223e-07	7.40062e-07	0.06567281	-0.1155625
	0.06659656	-0.1155485	3.779746e-07	-7.717727e-07	0.05804025	-0.1197626	-1.369843e-06	3.13237e-06
	-4.878556e-06	-3.906207e-06	0.06555513	-0.1156828	-1.489271e-06	-5.610795e-07	0.05577257	-0.1217229
2e+08	0.01121607	-0.1118172	6.010374e-08	1.328533e-06	0.009779929	-0.09991169	5.348848e-07	4.557684e-06
	-2.219336e-06	9.933464e-07	0.008059141	-0.1164517	1.448586e-06	3.654257e-07	0.01001156	-0.1001854
	0.01066762	-0.1002876	1.560048e-06	-8.95714e-07	0.01039659	-0.1168436	2.548781e-06	3.080036e-06
	-6.155833e-06	2.389628e-07	0.009844923	-0.1002207	1.73678e-08	3.679961e-07	0.007545356	-0.1169638
2.1e+08	-0.01753623	-0.07860033	1.293392e-06	8.500842e-07	-0.01405027	-0.05060153	4.096464e-06	2.387301e-06
	-1.560837e-06	2.016521e-06	-0.02088651	-0.08107529	2.424352e-06	-1.430938e-06	-0.01375936	-0.0514649
	-0.01334317	-0.05147544	2.340344e-06	-2.274601e-06	-0.01911125	-0.08234517	5.41191e-06	-1.763099e-07
	-4.317569e-06	3.852916e-06	-0.0139121	-0.05141271	1.686071e-06	-4.154696e-07	-0.02115187	-0.0807654
2.2e+08	-0.009539521	-0.03745064	1.525144e-06	-5.61341e-07	0.009152171	-0.004830002	4.621673e-06	-1.989758e-06
	-6.380559e-07	2.408302e-06	-0.01180569	-0.03878001	1.612432e-06	-3.479423e-06	0.009039332	-0.006222356
	0.009357848	-0.005967115	1.614951e-06	-4.095982e-06	-0.01081307	-0.0403936	4.779765e-06	-4.844035e-06
	-9.209434e-07	5.10426e-06	0.008939686	-0.006116548	1.979772e-06	-2.386941e-06	-0.01116127	-0.038142
2.3e+08	0.02893583	-0.02063978	3.774992e-07	-1.466741e-06	0.05824244	0.001593557	1.354066e-06	-5.075175e-06
	9.555865e-08	2.449664e-06	0.02775838	-0.02233591	-5.72818e-07	-4.162147e-06	0.05742429	6.02395e-06
	0.05791914	0.0005942079	-4.499676e-07	-4.751125e-06	0.02811196	-0.02391188	6.533581e-07	-7.492425e-06
	1.897653e-06	4.091655e-06	0.05738283	0.0001255499	4.31264e-07	-3.823964e-06	0.02935993	-0.02223676
2.4e+08	0.06786801	-0.04310758	-9.385128e-07	-8.809907e-07	0.09172213	-0.03527391	-3.037091e-06	-4.257641e-06
	8.024033e-07	2.522418e-06	0.06665981	-0.04603627	-2.464253e-06	-2.868904e-06	0.0901857	-0.03660053
	0.09114583	-0.03587516	-2.250688e-06	-3.56918e-06	0.06654524	-0.04744208	-4.018202e-06	-6.11356e-06
	3.249885e-06	2.261838e-06	0.09018906	-0.03649033	-1.66074e-06	-3.371986e-06	0.06856352	-0.04708832
2.5e+08	0.07786791	-0.09147472	-1.041457e-06	5.596091e-07	0.083218	-0.08551301	-5.010868e-06	-2.965764e-07
	1.874052e-06	2.416619e-06	0.07529353	-0.09532013	-2.618503e-06	-6.207435e-07	0.08125802	-0.08622602
	0.0827254	-0.08575754	-2.438775e-06	-1.574967e-06	0.07478511	-0.0964535	-6.048696e-06	-1.881777e-06
	3.665643e-06	6.159134e-07	0.08129449	-0.08613463	-2.477601e-06	-1.445468e-06	0.07660689	-0.0974399
2.6e+08	0.04955251	-0.1368232	2.251154e-07	1.44378e-06	0.03974616	-0.1129026	-3.139252e-06	3.744379e-06
	3.132793e-06	1.518801e-06	0.0449442	-0.1404093	-9.796171e-07	8.896251e-07	0.03779265	-0.1129546
	0.03949243	-0.1130427	-1.084398e-06	-3.129083e-07	0.04413904	-0.141072	-4.426716e-06	2.308034e-06
	3.722345e-06	-9.383692e-07	0.03785506	-0.1128915	-1.392972e-06	2.698875e-07	0.04514642	-0.1428837
2.7e+08	-0.004122254	-0.1527755	1.881746e-06	8.345619e-07	-0.009103719	-0.100878	1.26796e-06	4.939812e-06
	3.729461e-06	-3.825489e-07	-0.01045243	-0.1547724	1.236877e-06	5.68876e-07	-0.01073647	-0.1004965
	-0.009205763	-0.1011641	6.905626e-07	-6.512088e-07	-0.01120455	-0.1547867	-4.154759e-07	3.955171e-06
	3.188732e-06	-2.741273e-06	-0.01066385	-0.1004765	6.087661e-07	3.151219e-07	-0.01120327	-0.1567784
2.8e+08	-0.05491171	-0.1289333	2.519458e-06	-1.161165e-06	-0.03307111	-0.05962352	5.157703e-06	2.26644e-06
	2.742208e-06	-2.552544e-06	-0.06187999	-0.1285349	2.376664e-06	-1.390254e-06	-0.03432047	-0.05912841
	-0.03326612	-0.06013718	1.485455e-06	-2.394326e-06	-0.06203891	-0.1280415	3.397701e-06	2.162773e-06
	1.360224e-06	-4.356609e-06	-0.03427263	-0.05915581	1.72003e-06	-1.395239e-06	-0.06288227	-0.1296469
2.9e+08	-0.07398609	-0.07901837	1.144758e-06	-3.237722e-06	-0.01944395	-0.01773534	5.565121e-06	-2.541745e-06
	1.760275e-07	-3.437891e-06	-0.08028037	-0.07625466	1.476262e-06	-3.476424e-06	-0.02043119	-0.0173541
	-0.01995318	-0.0183277	3.956963e-07	-4.250853e-06	-0.07948114	-0.07592207	4.466251e-06	-1.752088e-06
	-1.736577e-06	-4.352771e-06	-0.02044889	-0.01739611	7.346756e-07	-3.307469e-06	-0.08076862	-0.07673476
3e+08	-0.05205489	-0.03558718	-1.714335e-06	-3.46938e-06	0.01829641	-0.003989202	2.017068e-06	-5.770066e-06
	-2.366648e-06	-1.856685e-06	-0.05668457	-0.03122178	-7.245559e-07	-3.882067e-06	0.01739589	-0.003833016
	0.01745377	-0.004380004	-2.036544e-06	-4.452259e-06	-0.05529067	-0.03197915	2.185805e-06	-4.798729e-06
	-4.31866e-06	-1.543023e-06	0.01731259	-0.00381645	-1.602736e-06	-3.37165e-06	-0.05640146	-0.03184848
3.1e+08	-0.008992842	-0.02715388	-3.80796e-06	-1.129988e-06	0.04847741	-0.02570113	-2.494113e-06	-4.783066e-06
	-2.60724e-06	1.393361e-06	-0.01169174	-0.02228598	-2.199605e-06	-2.258153e-06	0.0474396	-0.02579882
	0.04751298	-0.02569558	-3.775634e-06	-2.408463e-06	-0.01085474	-0.02451728	-1.269318e-06	-4.732425e-06
	-3.725495e-06	3.002801e-06	0.04736397	-0.02566714	-2.963682e-06	-1.170194e-06	-0.01112898	-0.02374716
3.2e+08	0.02106579	-0.05586871	-3.15706e-06	2.077854e-06	0.04666789	-0.06141764	-4.091957e-06	-7.096196e-07
	1.177735e-07	3.700326e-06	0.01994347	-0.05139068	-1.612136e-06	-1.501189e-07	0.04523041	-0.06162619
	0.04585302	-0.06105717	-3.150228e-06	3.440926e-07	0.01897302	-0.05433986	-2.968497e-06	-2.164002e-06
	8.158211e-07	5.912883e-06	0.04527377	-0.06140661	-1.756638e-06	1.423778e-06	0.01988226	-0.05368462
3.3e+08	0.01590881	-0.09801932	-1.499316e-07	3.493003e-06	0.01640605	-0.07993568	-1.658692e-06	2.713755e-06
	4.002103e-06	2.906617e-06	0.01569325	-0.09434283	5.064107e-07	5.872685e-07	0.0144689	-0.07987816
	0.015863	-0.0794282	-5.706505e-07	1.571356e-06	0.01261756	-0.09637113	-1.947823e-06	3.961533e-07
	6.811658e-06	4.225678e-06	0.01468882	-0.07968947	1.305441e-06	2.064693e-06	0.01444604	-0.09670608
3.4e+08	-0.02150063	-0.1229792	2.841313e-06	1.904233e-06	-0.01647115	-0.06690556	2.503487e-06	2.589014e-06
	6.186357e-06	-9.590475e-07	-0.02143988	-0.1200704	2.458505e-06	-7.000199e-07	-0.01864772	-0.06620291
	-0.01681543	-0.06643497	1.982304e-06	3.530712e-07	-0.02550508	-0.1196746	4.776306e-07	9.944603e-07
	1.008277e-05	-2.053832e-06	-0.01830595	-0.06618211	3.920478e-06	-7.858308e-08	-0.02361154	-0.1215499
3.5e+08	-0.06734433	-0.1129155	3.394665e-06	-1.593495e-06	-0.02664363	-0.03351245	4.810782e-06	-9.783174e-07
	4.678334e-06	-5.689497e-06	-0.06743066	-0.1104425	2.655778e-06	-3.130758e-06	-0.02856638	-0.03210191
	-0.02694318	-0.03311394	2.602048e-06	-2.366568e-06	-0.07041715	-0.1073711	2.185225e-06	-4.787971e-07
	7.564475e-06	-9.573798e-06	-0.02825288	-0.03231104	3.885082e-06	-3.699728e-06	-0.06960741	-0.1106238
3.6e+08	-0.09278237	-0.07365392	7.546213e-07	-4.33541e-06	-0.007374176	-0.005311985	3.160833e-06	-5.03581e-06
	-2.630153e-07	-8.034085e-06	-0.09312887	-0.07109739	7.493337e-07	-4.775821e-06	-0.008644287	-0.003498344
	-0.007716676	-0.004882646	7.690194e-07	-4.464866e-06	-0.09329656	-0.06681121	1.883931e-06	-2.429849e-06
	-3.373178e-07	-1.327162e-05	-0.008523029	-0.003867813	7.775584e-07	-5.990363e-06	-0.09439532	-0.07043406
3.7e+08	-0.08367737	-0.03066625	-3.351365e-06	-3.856568e-06	0.02598593	-0.003331708	-1.223565e-06	-5.988814e-06
	-5.657668e-06	-5.804749e-06	-0.08397652	-0.02752696	-1.728793e-06	-4.045446e-06	0.02547748	-0.001608032
	0.02565349	-0.002748165	-2.068519e-06	-4.080153e-06	-0.08122469	-0.02448524	2.425036e-07	-2.866668e-06
	-9.001857e-06	-9.694668e-06	0.02533714	-0.001956751	-3.120041e-06	-4.645072e-06	-0.08412467	-0.02700639
3.8e+08	-0.05065828	-0.01029047	-5.632427e-06	-5.507459e-08	0.04705681	-0.02850749	-4.466926e-06	-2.801088e-06
	-7.53235e-06	-1.249334e-07	-0.0502134	-0.006390877	-2.372347e-06	-1.432957e-06	0.04707813	-0.02735474
	0.04688575	-0.02775006	-3.348154e-06	-1.315291e-06	-0.04643128	-0.006389167	-5.597409e-07	-1.409284e-06
	-1.215836e-05	-4.063256e-07	0.04676937	-0.02749657	-4.224792e-06	-3.399066e-07	-0.04990323	-0.006769638
3.9e+08	-0.01952517	-0.02003776	-3.983023e-06	4.270448e-06	0.03904651	-0.05980987	-3.490526e-06	1.707662e-06
	-4.36692e-06	4.862176e-06	-0.01753919	-0.01580547	-3.204181e-07	5.920212e-07	0.03905	-0.05946279
	0.03915418	-0.05900367	-1.65289e-06	1.513256e-06	-0.01543418	-0.01856458	8.626218e-07	6.269266e-08
	-6.987148e-06	8.211381e-06	0.03878417	-0.05934316	-1.047266e-06	3.29389e-06	-0.01777683	-0.0169696
4e+08	-0.01049083	-0.0454132	5.006368e-07	5.707291e-06	0.009385545	-0.0711093	9.918875e-07	3.341521e-06
	1.345299e-06	5.440744e-06	-0.006548371	-0.04191355	2.758099e-06	-3.100865e-08	0.008764732	-0.07131633
	0.009744107	-0.07043296	1.866255e-06	1.890172e-06	-0.007727437	-0.04509648	3.4314e-06	-6.481471e-07
	3.099328e-06	9.783472e-06	0.008725075	-0.07106514	4.171579e-06	2.898757e-06	-0.007812991	-0.04292267
4.1e+08	-0.02456776	-0.06347964	4.423464e-06	3.094999e-06	-0.01640448	-0.05330984	5.056537e-06	3.008689e-07
	5.219328e-06	1.304654e-06	-0.01911631	-0.06201025	4.247368e-06	-3.11012e-06	-0.01786242	-0.05342042
	-0.01594897	-0.05284934	4.500132e-06	-7.201172e-07	-0.02280692	-0.06277995	4.584908e-06	-3.746612e-06
	1.091218e-05	2.889274e-06	-0.01765718	-0.05326385	7.376891e-06	-1.723051e-06	-0.02086576	-0.06189
4.2e+08	-0.04516961	-0.06035661	4.750655e-06	-1.597731e-06	-0.01601588	-0.02157349	4.828153e-06	-5.215101e-06
	4.221123e-06	-4.392431e-06	-0.0395976	-0.06176717	2.660292e-06	-6.445671e-06	-0.01796396	-0.0210209
	-0.01561056	-0.02125694	4.145974e-06	-4.487331e-06	-0.04301448	-0.05879248	2.585527e-06	-7.087642e-06
	1.058264e-05	-7.843726e-06	-0.01767606	-0.02112311	5.794755e-06	-7.484521e-06	-0.04062829	-0.06037797
4.3e+08	-0.05212541	-0.04127675	1.13611e-06	-4.639976e-06	0.01196518	-0.003004471	-2.38394e-07	-8.500799e-06
	-1.187697e-06	-7.170396e-06	-0.0482221	-0.04524721	-1.186098e-06	-7.315674e-06	0.01014032	-0.001675817
	0.01231079	-0.002680424	9.520838e-07	-6.497043e-06	-0.04842201	-0.0398537	-1.792663e-06	-7.684671e-06
	1.805546e-06	-1.465647e-05	0.0102765	-0.002021027	7.719713e-08	-1.001267e-05	-0.04764245	-0.04354704
4.4e+08	-0.03880177	-0.02550336	-3.484469e-06	-3.388062e-06	0.04643193	-0.0157246	-6.333864e-06	-6.132966e-06
	-6.993957e-06	-4.448604e-06	-0.03774537	-0.03050353	-4.337198e-06	-4.60537e-06	0.04521437	-0.01395345
	0.04685219	-0.01531579	-2.478756e-06	-5.026266e-06	-0.03381142	-0.02589435	-5.267214e-06	-4.237879e-06
	-9.315702e-06	-1.215819e-05	0.04505334	-0.01435155	-5.575447e-06	-6.945644e-06	-0.03579588	-0.02986554
4.5e+08	-0.01767338	-0.02859417	-5.10046e-06	1.215322e-06	0.05921131	-0.05381718	-8.129013e-06	5.82703e-07
	-8.522893e-06	1.969975e-06	-0.01927707	-0.03267124	-3.935888e-06	-2.883524e-07	0.05872362	-0.0521773
	0.05985799	-0.05341318	-3.089783e-06	-1.322213e-06	-0.01308227	-0.03163809	-4.510795e-06	1.050148e-06
	-1.452894e-05	-1.946006e-06	0.05831111	-0.0523914	-6.475493e-06	-4.78717e-07	-0.01725601	-0.03374744
4.6e+08	-0.008098409	-0.04836696	-2.23882e-06	5.288022e-06	0.03763203	-0.09050087	-3.629044e-06	6.293405e-06
	-4.571478e-06	7.190565e-06	-0.01086036	-0.05027581	-5.496626e-08	1.994119e-06	0.0375396	-0.0895101
	0.03852342	-0.09030927	-2.196271e-07	1.318914e-06	-0.005698767	-0.05318798	5.561295e-07	3.849322e-06
	-1.016004e-05	8.45916e-06	0.03708067	-0.08941779	-1.747162e-06	4.133855e-06	-0.01010238	-0.05238878
4.7e+08	-0.01877246	-0.0678065	2.837756e-06	5.475415e-06	-0.004569	-0.09915834	3.933972e-06	6.198753e-06
	1.71889e-06	7.501956e-06	-0.02078787	-0.06775483	4.285854e-06	2.32339e-07	-0.004892362	-0.09892468
	-0.003598964	-0.09934845	3.846394e-06	5.115619e-07	-0.01902148	-0.07242337	6.339454e-06	1.448926e-06
	2.57884e-07	1.180287e-05	-0.005178726	-0.09859211	4.918629e-06	3.172293e-06	-0.02151863	-0.06937943
4.8e+08	-0.04067828	-0.06977277	6.212266e-06	1.518656e-06	-0.03801281	-0.07402524	8.727902e-06	-1.055971e-07
