!$
! Info: Touchstone file created by Circ.  Input file=Tx_NPC_250mm_32AWG_BPK_300mm_27AWG_BPK_250mm_32AWG_NPC_Rx.circ
!$
# Hz S RI R 50
0	0.07263982	1.243627e-16	-3.225451e-05	-6.378485e-20	0.00151585	3.694597e-16	-4.143295e-05	-1.402473e-18
	-4.186046e-05	5.010511e-20	0.01857136	-2.084274e-16	-3.517252e-05	-1.86e-20	0.002762973	-4.555383e-16
	0.002803064	7.442164e-16	-3.602035e-05	9.419274e-20	0.04850817	-3.374231e-16	-5.35594e-05	1.469651e-18
	-3.266412e-05	-1.563222e-18	0.002868009	-2.609257e-16	-4.193713e-05	5.250085e-20	0.04331838	4.687244e-16
1e+07	0.05138444	0.004421528	-0.0001049578	6.529651e-06	0.01279742	0.02671109	-5.565951e-05	-1.728678e-05
	-0.0001166354	6.315905e-06	0.05160926	0.004229019	-7.381547e-06	2.029186e-05	0.01291265	0.02663516
	0.01372171	0.02648021	-7.657572e-06	2.189519e-05	0.05049541	0.004571556	-0.000125355	1.144419e-05
	-4.901972e-05	-2.269747e-05	0.0129575	0.02665096	-0.0001149779	7.025238e-06	0.05309273	0.00356197
2e+07	0.05930009	0.002485553	-0.0001131333	-1.73207e-05	0.03559516	0.04434592	-7.409301e-05	-2.631869e-05
	-0.0001278385	-1.531863e-05	0.05946879	0.002147832	-2.063107e-05	9.332451e-05	0.03569846	0.04424576
	0.0362708	0.04359748	-1.901961e-05	9.547196e-05	0.05843713	0.002831476	-0.0001323324	-7.37425e-06
	-7.2219e-05	-3.44779e-05	0.03573055	0.04421269	-0.0001245357	-1.516433e-05	0.06053287	0.00088444
3e+07	0.0659449	-0.005411138	-0.0001258008	-1.280599e-05	0.06395805	0.04620982	-0.0001008433	-2.305163e-05
	-0.0001426336	-5.344233e-06	0.06596894	-0.005934378	-3.8026e-06	0.0001382922	0.06397313	0.0460633
	0.06434231	0.0449534	-2.946042e-07	0.0001394019	0.06513454	-0.00490333	-0.0001424858	2.325482e-06
	-0.0001041605	-3.055144e-05	0.06399636	0.04596375	-0.0001380783	-7.496392e-06	0.06645784	-0.007515216
4e+07	0.06811385	-0.0173469	-0.0001365416	1.510039e-06	0.08891191	0.03106307	-0.0001273405	-5.659531e-06
	-0.0001522523	1.669104e-05	0.06790278	-0.01801543	1.91944e-05	0.0001583383	0.08886124	0.03086458
	0.08876022	0.02973807	2.356029e-05	0.0001571646	0.06738346	-0.01669532	-0.000149011	2.1449e-05
	-0.0001342403	-9.64169e-06	0.0888413	0.03075816	-0.0001482542	1.086978e-05	0.06774552	-0.01962407
5e+07	0.06412904	-0.02992003	-0.0001478261	1.929365e-05	0.1015842	0.004830868	-0.0001509074	2.417042e-05
	-0.0001578982	4.20385e-05	0.06356859	-0.03059647	4.625414e-05	0.0001657332	0.1014612	0.004584174
	0.1009722	0.003759904	4.989318e-05	0.0001621192	0.06351471	-0.0291134	-0.0001543788	4.290735e-05
	-0.0001585628	2.493956e-05	0.1014114	0.004506844	-0.0001572082	3.272314e-05	0.06285158	-0.03203487
6e+07	0.05419996	-0.03993815	-0.0001640928	4.458411e-05	0.09792059	-0.02406441	-0.0001690571	6.751283e-05
	-0.0001644307	7.184417e-05	0.05329269	-0.04044692	6.887908e-05	0.0001675738	0.0976769	-0.02429124
	0.09691545	-0.02482247	7.034624e-05	0.0001622219	0.05370983	-0.03901298	-0.0001634699	6.988213e-05
	-0.0001745838	7.233518e-05	0.09758816	-0.0243437	-0.0001695945	6.116148e-05	0.05215241	-0.0414848
7e+07	0.04040258	-0.04409542	-0.000181448	8.824042e-05	0.07917882	-0.04592082	-0.0001745116	0.0001285972
	-0.0001700498	0.0001148934	0.0392175	-0.04423589	8.875306e-05	0.0001757196	0.07882869	-0.04607605
	0.07798317	-0.046213	8.742368e-05	0.0001701803	0.04006385	-0.04305526	-0.000173125	0.0001129799
	-0.000176087	0.0001353118	0.07872443	-0.04608484	-0.000182008	0.0001067178	0.03785395	-0.04477594
8e+07	0.02607617	-0.04073893	-0.0001683715	0.0001706098	0.05165288	-0.05337249	-0.0001538466	0.0002062492
	-0.0001463309	0.0001908447	0.02481782	-0.04034067	0.0001183686	0.0001962102	0.05123816	-0.05339879
	0.05047074	-0.05317344	0.0001146593	0.0001920536	0.02592245	-0.03959359	-0.000152611	0.0001922717
	-0.0001513235	0.0002120904	0.05113803	-0.05335748	-0.0001633873	0.0001893842	0.0234337	-0.04036369
9e+07	0.01535218	-0.02998629	-0.0001092306	0.0002568799	0.02487695	-0.04356858	-9.34352e-05	0.0002848136
	-8.073371e-05	0.0002661717	0.01432614	-0.02900462	0.0001788107	0.0002214543	0.02447488	-0.0434297
	0.0238872	-0.0429308	0.0001739757	0.0002196119	0.01542146	-0.02875283	-8.711626e-05	0.0002730993
	-8.839711e-05	0.0002875428	0.02440023	-0.0433406	-9.856702e-05	0.0002742553	0.01310946	-0.02855452
1e+08	0.01219853	-0.01421159	2.282938e-06	0.0003112844	0.008714607	-0.01947346	1.005847e-05	0.0003383783
	3.122629e-05	0.0003080374	0.01172061	-0.01277169	0.0002773423	0.0002294611	0.008418539	-0.01919527
	0.008093348	-0.0185396	0.0002728647	0.0002298225	0.01254465	-0.01292124	2.891273e-05	0.0003200137
	1.500066e-05	0.0003372867	0.008394234	-0.01907726	1.834248e-05	0.0003254508	0.01082519	-0.0119461
1.1e+08	0.01881942	0.002129558	0.0001339394	0.0003049103	0.009818654	0.01076398	0.0001374111	0.0003434186
	0.0001574775	0.0002910599	0.01914764	0.003739719	0.0003691944	0.0001789416	0.009709642	0.0111137
	0.009626274	0.01183235	0.0003659734	0.0001805555	0.01949277	0.003417256	0.000162317	0.0003047444
	0.0001398048	0.0003396723	0.009746617	0.01124025	0.0001543674	0.0003140296	0.01867345	0.004783878
1.2e+08	0.03483944	0.01365461	0.0002532264	0.0002318661	0.02925625	0.03638981	0.0002624749	0.0002915165
	0.0002678458	0.0002119596	0.03604632	0.0150133	0.0004366236	5.881511e-05	0.02935756	0.03669058
	0.02949667	0.03738457	0.0004345836	6.052321e-05	0.03589	0.01485263	0.0002801231	0.0002224627
	0.0002612918	0.0002875817	0.02945502	0.03679046	0.0002763461	0.0002343524	0.03603495	0.01611444
1.3e+08	0.05691923	0.01589114	0.0003179692	0.0001099149	0.06180699	0.04780371	0.0003553136	0.0001916862
	0.0003233802	8.913721e-05	0.05886146	0.016563	0.0004366347	-9.557807e-05	0.06207136	0.04793526
	0.06238926	0.04855821	0.0004349226	-9.431539e-05	0.05836605	0.01686904	0.0003400338	9.239205e-05
	0.0003513999	0.0001900841	0.06221227	0.04798133	0.0003413253	0.0001048986	0.05929038	0.0175644
1.4e+08	0.0798368	0.006648785	0.0003114958	-1.528667e-05	0.09783786	0.03988931	0.0003996469	6.920886e-05
	0.0003100973	-3.316437e-05	0.08215706	0.006303705	0.0003587247	-0.0002314361	0.09815711	0.0397731
	0.09861592	0.04030096	0.0003564702	-0.0002301884	0.08164394	0.007254596	0.0003261606	-3.836734e-05
	0.0003952938	7.128882e-05	0.09831241	0.03974919	0.0003323602	-2.753949e-05	0.08295884	0.007072411
1.5e+08	0.09800817	-0.01340177	0.0002545785	-0.0001002069	0.1266222	0.01355906	0.0003987549	-4.966334e-05
	0.000249834	-0.0001139398	0.1002027	-0.01488485	0.0002324862	-0.0003026011	0.1268539	0.01318423
	0.1274156	0.01359398	0.0002295605	-0.0003002889	0.1000736	-0.01331619	0.0002608012	-0.0001255003
	0.0003966065	-4.43473e-05	0.1269878	0.01308936	0.0002706349	-0.0001183291	0.1012884	-0.01445081
1.6e+08	0.1069144	-0.04107929	0.0001912904	-0.0001305354	0.1397348	-0.02486319	0.0003685626	-0.0001505141
	0.0001859233	-0.0001411424	0.1085003	-0.04357619	0.0001116347	-0.0002960895	0.1397558	-0.02543385
	0.1403945	-0.02515347	0.0001089463	-0.0002917567	0.1090655	-0.04162453	0.0001897035	-0.0001547945
	0.0003704367	-0.0001439664	0.1398392	-0.02558256	0.0002011065	-0.0001523833	0.109728	-0.04353956
1.7e+08	0.1039401	-0.07164053	0.0001604491	-0.0001279125	0.1333138	-0.06586358	0.0003254553	-0.0002338312
	0.0001553621	-0.0001375911	0.1045176	-0.07480625	4.458979e-05	-0.0002394264	0.1330378	-0.06651032
	0.1337127	-0.06637264	4.374797e-05	-0.0002329788	0.1059583	-0.07286295	0.0001529092	-0.0001490438
	0.0003316076	-0.0002288331	0.1330511	-0.06668454	0.0001636036	-0.0001513615	0.1057574	-0.07518284
1.8e+08	0.08870161	-0.09967554	0.0001716897	-0.0001353869	0.108782	-0.09951892	0.0002768805	-0.000309827
	0.0001657887	-0.0001459833	0.0880789	-0.103024	4.811214e-05	-0.0001870207	0.1081898	-0.1000897
	0.1088597	-0.1001013	5.068752e-05	-0.0001795897	0.09034188	-0.1015254	0.0001603075	-0.0001527189
	0.0002858474	-0.0003088757	0.1081302	-0.100256	0.0001683867	-0.000158678	0.08919577	-0.1037811
1.9e+08	0.06310388	-0.1199344	0.0001984208	-0.0001905212	0.07216487	-0.1180503	0.0002175569	-0.0003896835
	0.0001893529	-0.0002023356	0.06133185	-0.1229553	9.575929e-05	-0.0001926514	0.0713163	-0.1183964
	0.07192787	-0.118551	0.0001024526	-0.0001864024	0.06414568	-0.1222623	0.0001846156	-0.0002044949
	0.0002265784	-0.0003940583	0.07119666	-0.1185254	0.0001889919	-0.0002122881	0.06221201	-0.1240091
2e+08	0.03132447	-0.1281815	0.0001905214	-0.0003004987	0.03244113	-0.1176681	0.0001310528	-0.000475977
	0.0001759403	-0.00031174	0.02867291	-0.130434	0.0001260998	-0.0002790261	0.03146767	-0.1176728
	0.03196204	-0.1179397	0.0001361458	-0.0002764913	0.03161507	-0.1307463	0.000174517	-0.0003118009
	0.0001369372	-0.0004851412	0.03131087	-0.1177455	0.0001751692	-0.0003193848	0.02924993	-0.1316731
2.1e+08	-0.0005817083	-0.1222742	0.0001016381	-0.0004310111	-0.000712537	-0.09948588	-2.128004e-06	-0.0005542759
	8.074021e-05	-0.0004380882	-0.00367227	-0.1235154	7.149935e-05	-0.0004168346	-0.001619392	-0.09910874
	-0.001302695	-0.09943611	8.253342e-05	-0.0004199032	-0.001074556	-0.1247715	8.285087e-05	-0.0004395121
	-1.838447e-06	-0.0005658196	-0.001785487	-0.09912112	8.082384e-05	-0.0004451933	-0.003422924	-0.1247978
2.2e+08	-0.02560358	-0.1032333	-7.977903e-05	-0.0005167867	-0.01938548	-0.06934662	-0.0001896802	-0.0005913058
	-0.0001052719	-0.0005155648	-0.02864285	-0.1034422	-0.0001005759	-0.0005281124	-0.02001652	-0.06865252
	-0.01991467	-0.06893757	-9.197932e-05	-0.0005370541	-0.02677592	-0.1053715	-0.0001018512	-0.0005210871
	-0.0001956371	-0.0006016225	-0.02017045	-0.06861209	-0.0001047322	-0.0005240908	-0.02867665	-0.1046424
2.3e+08	-0.03768768	-0.07578712	-0.0003130388	-0.0004945603	-0.01970834	-0.03644769	-0.000411625	-0.0005468623
	-0.0003386809	-0.0004821917	-0.04025614	-0.07518756	-0.0003545688	-0.0005233217	-0.01990038	-0.03562238
	-0.01999871	-0.03572976	-0.0003517214	-0.0005361847	-0.03930662	-0.07735585	-0.0003375458	-0.0004923965
	-0.0004221249	-0.0005524981	-0.02002988	-0.03554331	-0.0003393554	-0.0004932642	-0.04047733	-0.0762057
2.4e+08	-0.03388398	-0.04764135	-0.0005177036	-0.0003439756	-0.003262838	-0.01080827	-0.0006179954	-0.0003986416
	-0.0005375421	-0.0003206004	-0.03575093	-0.04661886	-0.0005917941	-0.0003593701	-0.002970996	-0.01012291
	-0.00317142	-0.009914559	-0.0005964047	-0.0003722976	-0.03564817	-0.04857268	-0.0005419538	-0.0003335639
	-0.0006294763	-0.0003978372	-0.003073898	-0.01001781	-0.0005415764	-0.0003340442	-0.03602493	-0.04741219
2.5e+08	-0.01587221	-0.02731838	-0.0006176169	-0.0001082501	0.02310855	-6.335314e-05	-0.0007496363	-0.0001634975
	-0.0006263794	-7.754155e-05	-0.01704032	-0.02628313	-0.0007041574	-7.941841e-05	0.02377076	0.000206509
	0.0236569	0.0008098333	-0.0007152642	-8.798569e-05	-0.01750521	-0.02770234	-0.0006378209	-8.967019e-05
	-0.0007581818	-0.0001570839	0.02369249	0.0003331769	-0.00063568	-9.194934e-05	-0.01723188	-0.02689218
2.6e+08	0.01019515	-0.02119801	-0.0005892169	0.0001285605	0.04949538	-0.006731823	-0.0007711519	0.0001059278
	-0.0005844712	0.0001604023	0.009514401	-0.02046482	-0.0006460316	0.0002049872	0.05026458	-0.007064397
	0.05046751	-0.006092014	-0.0006600635	0.000203867	0.008869014	-0.02125039	-0.0006021333	0.0001528655
	-0.0007742886	0.0001148947	0.05021177	-0.006915387	-0.0006002067	0.0001473883	0.009504054	-0.020985
2.7e+08	0.03568195	-0.0314412	-0.0004738944	0.0002955561	0.06643154	-0.02735079	-0.000688811	0.0003500303
	-0.0004569355	0.0003221118	0.03518269	-0.03113027	-0.0004667007	0.0003844986	0.06697523	-0.02830968
	0.06770453	-0.02713167	-0.0004788819	0.0003911791	0.03467854	-0.03140772	-0.0004783301	0.0003219519
	-0.0006865441	0.0003577678	0.06695793	-0.02813513	-0.0004792788	0.000313564	0.03537848	-0.03170743
2.8e+08	0.0522512	-0.05535904	-0.0003427138	0.000377743	0.06829899	-0.05394829	-0.000539493	0.0005325336
	-0.0003178374	0.0003945198	0.05165415	-0.05540443	-0.0002755779	0.0004226364	0.06830777	-0.05538086
	0.06967391	-0.05426171	-0.0002819115	0.0004345794	0.05144782	-0.0554296	-0.0003396285	0.0004031142
	-0.0005340983	0.000536256	0.06834336	-0.05518564	-0.0003454945	0.000393903	0.05199759	-0.05616887
2.9e+08	0.05421845	-0.0865655	-0.0002439227	0.000413447	0.05496408	-0.07719784	-0.0003637746	0.0006496779
	-0.0002166095	0.0004189957	0.05336105	-0.0867779	-0.000167693	0.0003733049	0.05424098	-0.07881423
	0.05621267	-0.07805975	-0.0001664996	0.0003862508	0.05341566	-0.08680518	-0.0002351583	0.0004363973
	-0.0003586011	0.0006486741	0.05434791	-0.0786163	-0.0002463721	0.0004294639	0.05373352	-0.08780891
3e+08	0.03978773	-0.1168749	-0.000175217	0.0004550743	0.03124887	-0.08968209	-0.000185278	0.0007184928
	-0.0001502714	0.0004507612	0.03865799	-0.1170404	-0.0001642389	0.0003390349	0.0297611	-0.09113227
	0.03215467	-0.09101739	-0.0001565648	0.000348746	0.03880015	-0.1172036	-0.000161854	0.0004756547
	-0.0001832937	0.000714227	0.02994966	-0.09096379	-0.0001769835	0.0004739803	0.03891239	-0.118339
3.1e+08	0.01133616	-0.1383103	-9.496784e-05	0.0005273009	0.004814634	-0.08804776	-5.298988e-06	0.0007578678
	-7.535881e-05	0.0005162099	0.01003797	-0.1382701	-0.0002018799	0.0004024352	0.002699358	-0.08900379
	0.005214372	-0.08969652	-0.0001908332	0.0004062103	0.01006563	-0.1385436	-7.66683e-05	0.0005455653
	-7.940142e-06	0.0007532951	0.002961844	-0.0889047	-9.280431e-05	0.0005510121	0.01006033	-0.1397619
3.2e+08	-0.02525854	-0.1449491	4.26796e-05	0.0006096318	-0.01650615	-0.07346366	0.0001898413	0.0007730042
	5.614209e-05	0.0005952046	-0.02655645	-0.1446431	-0.0001722722	0.0005715086	-0.01897283	-0.07370445
	-0.01670848	-0.0752217	-0.0001616994	0.0005689098	-0.02676393	-0.1448626	6.704536e-05	0.0006241993
	0.000183223	0.0007714212	-0.0186662	-0.07371281	5.348401e-05	0.0006369878	-0.0268348	-0.1462129
3.3e+08	-0.06180435	-0.1344021	0.0002539879	0.0006478672	-0.02692431	-0.05084645	0.0004133934	0.0007473822
	0.0002622041	0.0006327514	-0.06294236	-0.1338881	1.149683e-05	0.0007660499	-0.02939541	-0.05030937
	-0.02773941	-0.05248658	1.83976e-05	0.0007588089	-0.06335925	-0.1338318	0.000284589	0.0006555405
	0.0004054205	0.0007511706	-0.0290955	-0.05044762	0.0002770019	0.0006741006	-0.06351989	-0.1354069
3.4e+08	-0.08980731	-0.108673	0.0005089902	0.0005844183	-0.02410183	-0.02717418	0.0006595362	0.0006483863
	0.0005136572	0.0005698039	-0.09069324	-0.1080917	0.000354243	0.0008551366	-0.02624906	-0.02597192
	-0.02545671	-0.02847994	0.000355969	0.0008463166	-0.09113742	-0.1075848	0.0005434898	0.0005813057
	0.0006539957	0.0006579485	-0.02601859	-0.02623528	0.0005442668	0.0006025371	-0.09151215	-0.1094559
3.5e+08	-0.1028144	-0.07390547	0.0007391625	0.0003926257	-0.009613598	-0.009531171	0.0008920732	0.0004465586
	0.0007416845	0.0003782233	-0.1034606	-0.07342839	0.0007595841	0.0007309023	-0.01121553	-0.007918627
	-0.0113631	-0.01032314	0.0007567143	0.0007236479	-0.1036409	-0.07243701	0.0007724275	0.000376294
	0.0008925504	0.000459841	-0.01111315	-0.008268574	0.0007822893	0.0003961667	-0.104436	-0.07457911
3.6e+08	-0.09845132	-0.03884993	0.0008680844	9.878437e-05	0.01145411	-0.00316168	0.001051746	0.0001411312
	0.0008686609	8.351197e-05	-0.09898739	-0.03860812	0.001071525	0.0003797544	0.01045662	-0.00145771
	0.009518726	-0.003328525	0.001066306	0.0003760199	-0.09861025	-0.03729036	0.0008936267	7.026463e-05
	0.001060102	0.0001540581	0.01039541	-0.001826294	0.0009112472	8.473603e-05	-0.1000268	-0.0395414
3.7e+08	-0.07933634	-0.01215282	0.0008527583	-0.0002240563	0.03193242	-0.009794364	0.001083926	-0.0002267993
	0.000850174	-0.0002409627	-0.07994761	-0.01216733	0.001161395	-9.756748e-05	0.03142714	-0.008283836
	0.03004556	-0.009304932	0.001156583	-9.775966e-05	-0.07884379	-0.01086351	0.0008655073	-0.0002599115
	0.001099248	-0.0002189312	0.03120637	-0.008588131	0.0008877285	-0.0002538227	-0.08099266	-0.01291305
3.8e+08	-0.05222929	0.0003650087	0.0007092774	-0.0004938093	0.04472758	-0.02689108	0.0009688845	-0.0005876153
	0.0007015117	-0.0005117214	-0.05308274	0.0002060036	0.001004518	-0.0005394223	0.0444848	-0.02574173
	0.04312089	-0.02580832	0.001001975	-0.0005378095	-0.05131328	0.001077166	0.0007079353	-0.0005300781
	0.0009875506	-0.0005882927	0.04415271	-0.02590856	0.0007305504	-0.0005334222	-0.0541173	-0.0003929214
3.9e+08	-0.02569392	-0.002473492	0.0004997041	-0.000666006	0.04534953	-0.04828183	0.0007315479	-0.0008758752
	0.000485189	-0.0006825765	-0.02684642	-0.002568305	0.0006904603	-0.0008189931	0.04510716	-0.04750541
	0.0442117	-0.04675167	0.0006902177	-0.0008179526	-0.02472487	-0.002474243	0.000487155	-0.0006968335
	0.0007484715	-0.0008859254	0.04474593	-0.04749555	0.00050613	-0.000708487	-0.02788964	-0.003034231
4e+08	-0.00721348	-0.01714076	0.0002864416	-0.0007522877	0.03362878	-0.06630402	0.0004234144	-0.001057535
	0.0002652153	-0.000764092	-0.008560336	-0.01696767	0.0003567617	-0.0009128062	0.03318196	-0.06577178
	0.03307831	-0.0645279	0.0003571259	-0.0009138948	-0.006587625	-0.01775868	0.0002676818	-0.000775331
	0.0004339132	-0.0010748	0.03288452	-0.06559501	0.0002802763	-0.0007925325	-0.00963935	-0.01725424
4.1e+08	-0.0009442697	-0.03692505	9.128935e-05	-0.0007954115	0.01379007	-0.07456352	9.340621e-05	-0.001133405
	6.548148e-05	-0.0007991714	-0.002255756	-0.03637562	9.766941e-05	-0.0008937297	0.01305449	-0.07406752
	0.01385621	-0.07277024	9.631599e-05	-0.0008966987	-0.0009377562	-0.03785047	7.029414e-05	-0.0008118875
	9.479931e-05	-0.001153617	0.01289509	-0.07378059	7.559963e-05	-0.0008313055	-0.003349585	-0.03639647
4.2e+08	-0.006657562	-0.05428572	-0.000108249	-0.0008233221	-0.007112102	-0.07027778	-0.0002312934	-0.001122072
	-0.0001349004	-0.000817152	-0.007658708	-0.05343609	-8.616053e-05	-0.0008599414	-0.008078756	-0.06961081
	-0.006481369	-0.06868163	-9.074327e-05	-0.0008627962	-0.007324899	-0.05510107	-0.0001306137	-0.000835772
	-0.0002389801	-0.00114038	-0.00806621	-0.06930138	-0.000131908	-0.0008546158	-0.00866198	-0.05308779
4.3e+08	-0.02012724	-0.06327502	-0.0003459251	-0.000820902	-0.02175278	-0.05505172	-0.0005448745	-0.001037303
	-0.0003690549	-0.0008049738	-0.02062076	-0.06237412	-0.0002658986	-0.0008555457	-0.02277833	-0.05409107
	-0.02068289	-0.053829	-0.00027337	-0.0008555473	-0.02127049	-0.06359813	-0.0003714159	-0.0008301641
	-0.0005591927	-0.00104983	-0.02261062	-0.05385057	-0.0003778503	-0.0008468148	-0.02134006	-0.06161236
4.4e+08	-0.03460157	-0.0614265	-0.0006254028	-0.0007377552	-0.02493439	-0.03424275	-0.000846763	-0.0008742526
	-0.0006411963	-0.000714308	-0.03456505	-0.0608323	-0.0005121417	-0.0008370164	-0.02580347	-0.03300491
	-0.02360278	-0.03350917	-0.0005201917	-0.0008321271	-0.03582889	-0.06105246	-0.0006558002	-0.0007414646
	-0.000863871	-0.0008791392	-0.02554198	-0.03290182	-0.0006661057	-0.0007553935	-0.03475749	-0.05973035
4.5e+08	-0.04312563	-0.05065349	-0.0008989693	-0.0005250304	-0.01518155	-0.01520878	-0.001119431	-0.0006133614
	-0.0009051169	-0.0004977721	-0.04276142	-0.0507224	-0.0008220029	-0.0007077323	-0.01573106	-0.01385366
	-0.01379317	-0.01500714	-0.0008271914	-0.0006978289	-0.04397746	-0.0496391	-0.0009331375	-0.0005186854
	-0.001135465	-0.0006110471	-0.01546323	-0.01391424	-0.0009468202	-0.0005297411	-0.04220968	-0.04949735
4.6e+08	-0.04111195	-0.03672068	-0.001080555	-0.0001784185	0.004779047	-0.005089319	-0.0013159	-0.0002433415
	-0.001076747	-0.0001515728	-0.04081791	-0.03766862	-0.001098276	-0.000399902	0.004573635	-0.003861024
	0.006016339	-0.005377086	-0.001097541	-0.0003872502	-0.04122824	-0.03539434	-0.001113245	-0.0001585957
	-0.001328242	-0.0002360108	0.00476092	-0.004061294	-0.001130396	-0.0001660631	-0.03942638	-0.03666985
4.7e+08	-0.02833223	-0.02726424	-0.001089821	0.0002386602	0.0285921	-0.008617496	-0.001372213	0.0002096996
	-0.001077644	0.0002614982	-0.02862152	-0.02907505	-0.001203659	5.15827e-05	0.02858617	-0.007739752
	0.0295042	-0.009273381	-0.001195851	6.298845e-05	-0.02759443	-0.02613	-0.001113522	0.0002711074
	-0.001380084	0.0002193057	0.02863222	-0.008014307	-0.001133913	0.000268976	-0.02647912	-0.02869979
4.8e+08	-0.009362976	-0.02878703	-0.0009060622	0.0006137862	0.04803923	-0.02636443	-0.00124411	0.0006721711
	-0.0008882631	0.0006304604	-0.01071199	-0.03115963	-0.001061422	0.0005052147	0.04796155	-0.02593166
