!$
! Info: Touchstone file created by Circ.  Input file=Tx_NPC_250mm_32AWG_BPK_500mm_27AWG_BPK_250mm_32AWG_NPC_Rx.circ
!$
# Hz S RI R 50
0	0.0792292	-1.44982e-16	0.9469362	-8.292589e-16	0.001994862	-3.417367e-15	-0.004365357	-1.040251e-16
	0.9470475	4.333523e-17	0.02434807	-2.051231e-16	0.0003780043	5.441188e-16	0.002947075	-4.52729e-16
	0.001944168	-9.550475e-16	-0.00172962	1.108019e-16	0.05293316	3.407524e-15	0.9470566	6.955598e-16
	-0.004780865	-4.694445e-17	0.003048613	-2.592952e-16	0.9485055	2.332185e-15	0.04889377	4.835362e-16
1e+07	0.05851349	0.002241583	0.8817071	-0.3361236	0.01491185	0.03084011	-0.005636585	-0.0008825115
	0.8818365	-0.3361426	0.05748955	0.001837194	-0.002289183	-0.002330192	0.01606883	0.02986132
	0.01609782	0.02994293	-0.004099948	-0.001529951	0.05544274	0.00260347	0.8812054	-0.3362368
	-0.006037957	-0.0006921275	0.0161125	0.02987057	0.8825159	-0.3368426	0.05888662	0.001031638
2e+07	0.06614839	-0.003385889	0.703128	-0.6233851	0.04457809	0.04641269	-0.007402689	0.0003448874
	0.7032575	-0.623455	0.06459781	-0.003998863	-0.004922258	-0.002289223	0.04485437	0.0452254
	0.04494313	0.04530108	-0.006297863	-0.0008517481	0.06295209	-0.002564416	0.7024581	-0.6235611
	-0.007720702	0.0006326222	0.04487325	0.04518384	0.7034003	-0.6246282	0.06538909	-0.005438962
3e+07	0.06977584	-0.0156957	0.4374419	-0.8272708	0.07677198	0.03845291	-0.008041519	0.002864177
	0.4374785	-0.8273799	0.06747837	-0.01618293	-0.006811127	-0.0004968008	0.07603595	0.03823686
	0.07638286	0.03835241	-0.007581849	0.001442552	0.06647623	-0.01428231	0.4364222	-0.8273671
	-0.008257963	0.003235899	0.07601565	0.0381354	0.4369232	-0.8287171	0.06750163	-0.0178122
4e+07	0.06541044	-0.03035453	0.1198978	-0.9250476	0.09621742	0.01188611	-0.00731123	0.00513025
	0.1198841	-0.9251639	0.06243348	-0.03016472	-0.007487846	0.001587939	0.0952102	0.01190159
	0.09571335	0.01195604	-0.007462622	0.003674019	0.06216697	-0.02815822	0.1185767	-0.9248337
	-0.007392452	0.005562747	0.09513347	0.01181857	0.1185165	-0.9262663	0.06170833	-0.03155866
5e+07	0.05282462	-0.04123484	-0.2104716	-0.9069182	0.09386378	-0.02060137	-0.00639344	0.006666775
	-0.210536	-0.9070165	0.04941084	-0.03983751	-0.007925249	0.003513319	0.09286292	-0.02025089
	0.09339431	-0.02029386	-0.007104624	0.005416657	0.04984017	-0.03804162	-0.2119665	-0.9061694
	-0.006323754	0.00709462	0.09276715	-0.02027902	-0.2125746	-0.9074705	0.04819024	-0.04073401
6e+07	0.03529879	-0.04347446	-0.5141129	-0.7754984	0.0710684	-0.04359006	-0.006124569	0.008365589
	-0.5142136	-0.7755567	0.03215137	-0.04062058	-0.008739013	0.006075161	0.07009959	-0.04280707
	0.07071211	-0.04307977	-0.007245793	0.007534343	0.03296737	-0.03930221	-0.515526	-0.7740679
	-0.005903764	0.008763224	0.06998743	-0.04277526	-0.5165923	-0.7750355	0.03076266	-0.04083145
7e+07	0.01926857	-0.03469872	-0.7534483	-0.5456666	0.03874657	-0.04538613	-0.00566675	0.01173814
	-0.7535614	-0.5456722	0.01715368	-0.03042108	-0.00892778	0.01066323	0.0380729	-0.04424623
	0.03860551	-0.04475874	-0.006982495	0.01143767	0.01802294	-0.02963228	-0.7544327	-0.5435371
	-0.00531093	0.01204516	0.03798896	-0.04415378	-0.7557998	-0.5440175	0.01595091	-0.0299932
8e+07	0.01166266	-0.0170896	-0.8966905	-0.2451902	0.01326803	-0.02424981	-0.002665872	0.01675777
	-0.896789	-0.2451456	0.01132641	-0.01188128	-0.006036223	0.01703556	0.01305396	-0.02291063
	0.01336737	-0.0236201	-0.003935195	0.01699715	0.01192757	-0.01146911	-0.8968944	-0.2425306
	-0.002206983	0.01692544	0.01302962	-0.0227781	-0.8983492	-0.2424369	0.01057754	-0.01101583
9e+07	0.01718869	0.002851578	-0.9234625	0.08677331	0.008679111	0.0102617	0.004746046	0.02086821
	-0.9235253	0.08685251	0.01906165	0.008062993	0.001802515	0.02240241	0.0089936	0.01160225
	0.008980727	0.0108001	0.003731951	0.02154888	0.01922905	0.008439695	-0.9226339	0.08962024
	0.005258143	0.02085765	0.009046602	0.01174208	-0.9239394	0.09028086	0.01889746	0.009083044
1e+08	0.0355224	0.01643426	-0.8301732	0.4050371	0.02955747	0.0413897	0.0156249	0.02018745
	-0.8301924	0.4051283	0.03949407	0.0205826	0.01354998	0.0226764	0.03032879	0.04244136
	0.02998132	0.04176649	0.01498714	0.02114254	0.03932324	0.02129501	-0.8282277	0.4076224
	0.01611309	0.01998154	0.03045453	0.04253984	-0.8291696	0.4087454	0.03989259	0.02146333
1.1e+08	0.06076302	0.01676889	-0.6315491	0.666858	0.06830925	0.05314027	0.02580877	0.01258119
	-0.631528	0.6669395	0.06618392	0.01895126	0.02485309	0.01559531	0.06939239	0.05378406
	0.06878353	0.05336202	0.02558661	0.0136235	0.065979	0.02023692	-0.6286189	0.6687282
	0.02619943	0.01219109	0.06956613	0.05380977	-0.6290455	0.6701264	0.06696974	0.01943567
1.2e+08	0.08397032	0.002002449	-0.3570116	0.8401293	0.1090449	0.03820386	0.03054949	-0.0003235112
	-0.356963	0.8401868	0.08976443	0.001763799	0.03077635	0.002751533	0.1102071	0.03835925
	0.1095106	0.03829326	0.03069154	0.0006589441	0.08995414	0.003626069	-0.3534066	0.8409224
	0.03077046	-0.0008472632	0.1103787	0.03829157	-0.353258	0.8423734	0.09068866	0.001752383
1.3e+08	0.09701981	-0.02424277	-0.04328208	0.9070083	0.1349667	0.0007138373	0.02759435	-0.01383081
	-0.04322163	0.9070359	0.1020591	-0.02674845	0.02889653	-0.01110688	0.1360085	0.0004301284
	0.1354046	0.0007076026	0.02801871	-0.01300012	0.1030023	-0.02457235	-0.03941901	0.9065088
	0.02760164	-0.01441323	0.1361304	0.0002817023	-0.03872502	0.9077904	0.1028666	-0.02722502
1.4e+08	0.09525615	-0.05471095	0.2717327	0.8632466	0.1354772	-0.04607132	0.01863908	-0.02314682
	0.2717902	0.8632461	0.0986627	-0.05879623	0.02080396	-0.02110395	0.1362709	-0.04667802
	0.1358934	-0.04615289	0.01927175	-0.022519	0.1005127	-0.05675053	0.2753961	0.8614033
	0.01842235	-0.02370177	0.136308	-0.04687121	0.2765299	0.8623252	0.09915305	-0.05959394
1.5e+08	0.07848068	-0.08085515	0.5524585	0.7157848	0.1099554	-0.08542343	0.008008295	-0.02628101
	0.5525036	0.7157642	0.07985429	-0.08548924	0.01074466	-0.02515783	0.1104153	-0.08619605
	0.1103509	-0.08557865	0.008790908	-0.02587858	0.08248675	-0.08406484	0.5554699	0.7126842
	0.007594224	-0.02672353	0.1103565	-0.08638345	0.556881	0.7131068	0.07993544	-0.08639273
1.6e+08	0.05086269	-0.09496781	0.7670872	0.4809954	0.06761764	-0.1033829	-0.0002860797	-0.02489761
	0.7671147	0.480965	0.05041264	-0.09914643	0.002679522	-0.02483624	0.06776813	-0.1041781
	0.06798625	-0.1036318	0.0005866925	-0.02475879	0.05344214	-0.09867071	0.7690319	0.476858
	-0.0008460052	-0.0251611	0.06763206	-0.1043134	0.7705123	0.4767045	0.05008694	-0.09990616
1.7e+08	0.02067602	-0.09224481	0.888971	0.1843841	0.02442401	-0.09397159	-0.00526766	-0.02282442
	0.8889828	0.1843526	0.01909491	-0.09522134	-0.002463618	-0.02386172	0.02433933	-0.09465328
	0.02472949	-0.0943229	-0.004374352	-0.02298253	0.02200022	-0.09577975	0.8894855	0.1795565
	-0.005897794	-0.02286596	0.02416578	-0.09470755	0.8908076	0.178831	0.01851717	-0.09562547
1.8e+08	-0.001569552	-0.07324956	0.8996272	-0.1393369	-0.002766702	-0.06199952	-0.009538564	-0.02269844
	0.8996279	-0.1393644	-0.003318485	-0.07483474	-0.00730793	-0.0247258	-0.002942607	-0.06251254
	-0.002575098	-0.06243764	-0.008737168	-0.02316952	-0.001009034	-0.07620019	0.8984428	-0.1443725
	-0.01015464	-0.02250355	-0.003106581	-0.06248491	0.8993851	-0.1455725	-0.003896768	-0.07476918
1.9e+08	-0.006751642	-0.04535691	0.7936239	-0.4481922	-0.003178577	-0.02213568	-0.01687153	-0.02328125
	0.7936176	-0.4482143	-0.007807295	-0.04596482	-0.01556802	-0.02601874	-0.003299475	-0.02253737
	-0.003142737	-0.02260729	-0.01628416	-0.0240232	-0.006346529	-0.04770236	0.7906173	-0.452817
	-0.01738835	-0.02286494	-0.003418318	-0.02245253	0.7910107	-0.4543029	-0.008091477	-0.04547196
2e+08	0.008027484	-0.02105639	0.583002	-0.6989046	0.02223921	0.006836731	-0.02811397	-0.01988892
	0.5829904	-0.6989217	0.008077309	-0.02153548	-0.02795825	-0.02291175	0.02224203	0.006401326
	0.02211747	0.00641154	-0.02784011	-0.02079919	0.00872603	-0.0231691	0.5783046	-0.7024147
	-0.02845459	-0.01929674	0.02218062	0.006507331	0.5780767	-0.7039388	0.008331687	-0.02083131
2.1e+08	0.03680223	-0.01237544	0.2974074	-0.8561295	0.06043256	0.01103797	-0.03907668	-0.008535893
	0.2973921	-0.8561398	0.03773196	-0.01363827	-0.04007273	-0.01136704	0.06049558	0.010405
	0.0602022	0.01072931	-0.03915017	-0.009468283	0.03785142	-0.01486019	0.2914561	-0.8578549
	-0.03918047	-0.007838052	0.06048115	0.010502	0.2906504	-0.8591603	0.03860789	-0.01304169
2.2e+08	0.06721722	-0.02508261	-0.02207847	-0.9004315	0.09260965	-0.01151919	-0.04309519	0.009840681
	-0.02209464	-0.900433	0.06827577	-0.02769996	-0.04505176	0.007619759	0.09256708	-0.01242728
	0.09235706	-0.01168526	-0.04348009	0.009010215	0.0682176	-0.02843307	-0.02854904	-0.8999099
	-0.0429309	0.01055154	0.09257872	-0.0123522	-0.02978968	-0.9007939	0.06966882	-0.02754634
2.3e+08	0.08625736	-0.05617048	-0.3323722	-0.8305606	0.1037414	-0.0504856	-0.03616433	0.02907474
	-0.3323834	-0.8305536	0.08649474	-0.06013953	-0.03876008	0.02774215	0.1034081	-0.05162049
	0.1035504	-0.05054293	-0.03678853	0.02842802	0.08651865	-0.06052007	-0.3384644	-0.8276715
	-0.03573531	0.02969634	0.1034287	-0.05156444	-0.339938	-0.8280118	0.08813263	-0.06064844
2.4e+08	0.08538941	-0.09602639	-0.5958883	-0.6601352	0.08909097	-0.08923829	-0.02003549	0.04186717
	-0.5958893	-0.6601249	0.08402493	-0.1007925	-0.02291154	0.04155426	0.08834571	-0.0904515
	0.0890059	-0.08926679	-0.02083091	0.0414493	0.08421059	-0.1010323	-0.6007204	-0.655137
	-0.01938404	0.04230101	0.08836993	-0.09040537	-0.6022074	-0.6548977	0.08556442	-0.1020005
2.5e+08	0.06276341	-0.1323179	-0.7837816	-0.4125626	0.05481659	-0.1127679	-0.0009134725	0.04443653
	-0.7837721	-0.4125571	0.05943465	-0.1369691	-0.003716917	0.04516079	0.05363612	-0.1138672
	0.05482118	-0.11286	-0.001825454	0.04428211	0.05971836	-0.137226	-0.7866548	-0.406036
	-0.0001190453	0.04460354	0.05366776	-0.113827	-0.7879473	-0.4052561	0.06057893	-0.1387444
2.6e+08	0.02331846	-0.1535729	-0.8764243	-0.1172827	0.01402779	-0.1132679	0.01468618	0.03836947
	-0.876411	-0.1172899	0.018202	-0.1571615	0.01228793	0.04005853	0.0124876	-0.1140861
	0.01404628	-0.1134912	0.01372607	0.03852443	0.01844652	-0.1574609	-0.8769167	-0.1099969
	0.01551519	0.03822061	0.01253225	-0.114058	-0.8778288	-0.1087818	0.01877834	-0.1592352
2.7e+08	-0.02243671	-0.1524174	-0.8635189	0.192318	-0.01882629	-0.09200381	0.02381666	0.02878414
	-0.8635119	0.1922975	-0.02871393	-0.1541836	0.02214788	0.03128021	-0.02058028	-0.09242668
	-0.0189057	-0.09236645	0.02290978	0.02929398	-0.02858147	-0.1544446	-0.8614954	0.1995266
	0.02455454	0.02831617	-0.02052828	-0.09242398	-0.8618865	0.2010133	-0.0287183	-0.1562762
2.8e+08	-0.06090708	-0.1283322	-0.7449242	0.4805196	-0.03302166	-0.05809571	0.02822191	0.02038679
	-0.7449327	0.4804927	-0.06742998	-0.1279408	0.02757517	0.02341086	-0.03480904	-0.05810065
	-0.03330751	-0.05852954	0.02752098	0.02125298	-0.06737517	-0.1280512	-0.7405056	0.4868385
	0.02874278	0.01964715	-0.03476992	-0.05813163	-0.7402972	0.4883825	-0.06788699	-0.1298229
2.9e+08	-0.07991506	-0.08909917	-0.5322035	0.7117104	-0.02519466	-0.0250825	0.03204046	0.01407737
	-0.5322299	0.7116889	-0.08574507	-0.08670652	0.03261151	0.01721224	-0.02685665	-0.02474697
	-0.02574267	-0.02545147	0.03171436	0.01521328	-0.08562796	-0.08662419	-0.5257223	0.7163825
	0.0322415	0.01316644	-0.02685907	-0.02480056	-0.5249245	0.7177426	-0.08644669	-0.08827137
3e+08	-0.0740425	-0.04892391	-0.2497376	0.8546335	-0.0008215054	-0.005929929	0.03762418	0.006708924
	-0.2497755	0.8546275	-0.07846572	-0.04509412	0.03942092	0.009435938	-0.002275167	-0.005401504
	-0.001593058	-0.006071625	0.03779345	0.007932376	-0.0781463	-0.04492902	-0.2417518	0.8569815
	0.03745247	0.005768272	-0.00233669	-0.005440132	-0.2404762	0.857933	-0.07921467	-0.04637758
3.1e+08	-0.04785403	-0.02277391	0.06648876	0.888238	0.02754909	-0.007461521	0.04284529	-0.005499144
	0.06644995	0.8882522	-0.05058755	-0.01829042	0.04561936	-0.003681515	0.02626166	-0.006894926
	0.02669148	-0.007252156	0.04351665	-0.004428429	-0.05004692	-0.01826491	0.07517374	0.8877319
	0.04231286	-0.006312698	0.02615513	-0.006870196	0.07672357	0.8881117	-0.05127	-0.01942623
3.2e+08	-0.01433339	-0.01948621	0.3739739	0.8070432	0.04582167	-0.02673562	0.04251665	-0.02266463
	0.3739445	0.807074	-0.0154623	-0.01506501	0.04580124	-0.02210208	0.04457528	-0.02620422
	0.04507624	-0.02615202	0.04357412	-0.02195875	-0.01490594	-0.01538477	0.3823123	0.8034322
	0.04170504	-0.02321684	0.04447744	-0.02608192	0.3838863	0.8031815	-0.01611404	-0.01620435
3.3e+08	0.01126577	-0.03787242	0.6315579	0.6227717	0.04548957	-0.05230319	0.03293648	-0.04011485
	0.6315438	0.6228119	0.01138344	-0.03400188	0.03616191	-0.04089453	0.04414444	-0.05175343
	0.04503926	-0.05144147	0.03417905	-0.03989607	0.01159511	-0.03466837	0.6383904	0.6162295
	0.03197237	-0.04032117	0.04412841	-0.05154402	0.6397415	0.6153974	0.01062509	-0.03520115
3.4e+08	0.01811513	-0.0679874	0.8066204	0.3613356	0.02788217	-0.07035185	0.01523865	-0.05162341
	0.8066226	0.3613778	0.01906161	-0.06489469	0.01788051	-0.0535787	0.02638486	-0.06962664
	0.02782538	-0.06939462	0.01644896	-0.051906	0.01859864	-0.06560503	0.8108829	0.3525084
	0.01426326	-0.05145934	0.02650824	-0.06939161	0.8118124	0.3512322	0.01805391	-0.06606018
3.5e+08	0.003728049	-0.09596629	0.8789765	0.05732508	0.002801608	-0.071869	-0.005439594	-0.05380941
	0.8789927	0.05736365	0.00515063	-0.09370615	-0.003766642	-0.05659858	0.001241455	-0.07079987
	0.003119695	-0.07101915	-0.004446246	-0.05452508	0.003949227	-0.09391664	0.8799164	0.04725351
	-0.006297221	-0.0533021	0.001514347	-0.07063331	0.8802973	0.04572508	0.003861513	-0.09463036
3.6e+08	-0.02577818	-0.1096509	0.8416993	-0.2512648	-0.01704368	-0.05655761	-0.02380079	-0.0477804
	0.8417273	-0.2512336	-0.02415592	-0.1081703	-0.02330751	-0.0509711	-0.01845423	-0.05505923
	-0.01647093	-0.05596648	-0.02316114	-0.04880622	-0.02575749	-0.1073391	0.839003	-0.2613245
	-0.02443134	-0.04699026	-0.01808427	-0.0550501	0.8387848	-0.2628834	-0.02557551	-0.108653
3.7e+08	-0.05845724	-0.10305	0.7005327	-0.5271413	-0.02213935	-0.03204331	-0.03757573	-0.0370747
	0.7005692	-0.5271196	-0.05684201	-0.1022827	-0.03831706	-0.04020927	-0.02315134	-0.03019902
	-0.02148662	-0.03176878	-0.03737551	-0.0382568	-0.05814586	-0.1001409	0.6943524	-0.5358963
	-0.03789406	-0.03608878	-0.02278617	-0.03039508	0.6935646	-0.5372648	-0.0581182	-0.1022573
3.8e+08	-0.08127473	-0.07869409	0.4728366	-0.7370008	-0.01000681	-0.009969342	-0.04757035	-0.0242397
	0.4728791	-0.7369899	-0.0798496	-0.07853967	-0.04944521	-0.02686789	-0.01045239	-0.008018083
	-0.009438706	-0.009964114	-0.04783739	-0.02539924	-0.08004519	-0.0753119	0.4637483	-0.743271
	-0.04751318	-0.02317064	-0.01021189	-0.008399007	0.462499	-0.7442485	-0.08069758	-0.07814303
3.9e+08	-0.08563987	-0.04660612	0.186248	-0.8547669	0.01403701	-0.000925039	-0.05498518	-0.009136954
	0.1862944	-0.8547684	-0.08456798	-0.04691274	-0.05773347	-0.0108574	0.01415202	0.0008180524
	0.01442193	-0.001064532	-0.05567412	-0.01008974	-0.08306567	-0.04332554	0.1752107	-0.8575975
	-0.05452475	-0.008125663	0.01417432	0.0003428691	0.1736781	-0.8580342	-0.08484094	-0.04645191
4e+08	-0.07127218	-0.01981771	-0.123609	-0.8650519	0.03905213	-0.009911861	-0.05874277	0.009606947
	-0.1235607	-0.8650671	-0.07065915	-0.02035564	-0.06195194	0.009083495	0.03952949	-0.008639123
	0.03925103	-0.01004844	-0.05973024	0.009013658	-0.06739896	-0.01743202	-0.1353086	-0.8638294
	-0.05790808	0.01040303	0.03930692	-0.009073484	-0.1368995	-0.8636542	-0.07044734	-0.02017483
4.1e+08	-0.04617307	-0.008229564	-0.4172073	-0.7661717	0.05305664	-0.03375073	-0.05547312	0.03148996
	-0.4171611	-0.7662039	-0.04598887	-0.008702908	-0.05862763	0.03225744	0.05358213	-0.03304878
	0.05315677	-0.03377837	-0.05657767	0.03133589	-0.0415594	-0.007363622	-0.4280646	-0.7607594
	-0.05436408	0.03192286	0.05317355	-0.03331119	-0.4294733	-0.7599956	-0.04560059	-0.009019749
4.2e+08	-0.02233168	-0.0140428	-0.6569502	-0.5711685	0.04879591	-0.0620352	-0.04240612	0.05253564
	-0.656912	-0.5712196	-0.02234572	-0.01419895	-0.0449902	0.05446093	0.04905881	-0.06180155
	0.04892464	-0.06193169	-0.04343858	0.0528081	-0.01781974	-0.01486293	-0.6654416	-0.5620257
	-0.04118568	0.05251158	0.04859084	-0.06181885	-0.6664605	-0.5607871	-0.02217039	-0.01495331
4.3e+08	-0.009758071	-0.03141259	-0.8129499	-0.3056938	0.02752991	-0.08189647	-0.0203666	0.06702423
	-0.8129288	-0.3057629	-0.009571404	-0.03118856	-0.02197786	0.06976743	0.02734721	-0.08187337
	0.02779334	-0.08172956	-0.02117726	0.06763332	-0.006096809	-0.03354317	-0.8177911	-0.2938522
	-0.01922731	0.0665285	0.02696516	-0.08166093	-0.8182728	-0.2923214	-0.009869974	-0.0320528
4.4e+08	-0.0120221	-0.04991538	-0.8667828	-0.003584278	-0.001358024	-0.08434069	0.006048184	0.07105505
	-0.8667884	-0.003665146	-0.01121766	-0.04955555	0.005624112	0.07415639	-0.001973377	-0.08422294
	-0.0009255616	-0.08423014	0.005545301	0.07187214	-0.00953727	-0.05264336	-0.8671628	0.009494217
	0.006927888	0.0701553	-0.002163728	-0.08387707	-0.867039	0.01109707	-0.0119488	-0.05007288
4.5e+08	-0.02511275	-0.05969096	-0.8127151	0.2978939	-0.02493021	-0.06853188	0.03128099	0.06460858
	-0.8127536	0.2978123	-0.02347645	-0.0597458	0.03205821	0.06758535	-0.02577805	-0.06810051
	-0.02437869	-0.06859127	0.0311121	0.065501	-0.02360357	-0.06233715	-0.8084064	0.3105528
	0.03177042	0.0634329	-0.02574987	-0.06775682	-0.8076914	0.3120008	-0.02425698	-0.05956661
4.6e+08	-0.03955297	-0.05606587	-0.6574443	0.5619891	-0.03264295	-0.04197426	0.05187941	0.05042781
	-0.6575168	0.561922	-0.03726167	-0.05720886	0.05369312	0.05285052	-0.03342962	-0.04120246
	-0.03208315	-0.04226281	0.05202596	0.0512763	-0.03844751	-0.05831929	-0.6487978	0.5725881
	0.05190413	0.04913706	-0.03323972	-0.04098029	-0.6475876	0.5736697	-0.03750813	-0.05632366
4.7e+08	-0.04493207	-0.04208691	-0.4194087	0.7558164	-0.02093017	-0.01724845	0.06709561	0.03106809
	-0.4195093	0.7557777	-0.04262197	-0.04487624	0.06965013	0.03260478	-0.02142353	-0.01632951
	-0.0204828	-0.01774719	0.06750492	0.03177316	-0.04365897	-0.04418179	-0.407315	0.7629013
	0.06664011	0.02983353	-0.02118411	-0.01628682	-0.4057778	0.7634526	-0.04181103	-0.04369948
4.8e+08	-0.03549132	-0.02761885	-0.1277938	0.8538731	0.0051027	-0.006729946	0.07668857	0.007158843
	-0.127911	0.8538746	-0.03413941	-0.03218822	0.07958984	0.007611675	0.004929331	-0.005980779
	0.00535442	-0.007356151	0.07727715	0.007650028	-0.03386546	-0.03019457	-0.1136278	0.8563083
	0.07579187	0.006152444	0.005100082	-0.006095432	-0.1119889	0.856238	-0.03210308	-0.03145593
4.9e+08	-0.01409509	-0.02453199	0.1797196	0.8422354	0.03324697	-0.01715123	0.07841658	-0.02124648
	0.179602	0.8422846	-0.0147294	-0.03040654	0.0812249	-0.02191032	0.033175	-0.0168334
	0.0332866	-0.01779888	0.07908384	-0.02099595	-0.01254949	-0.02824888	0.1941617	0.8394072
	0.07717847	-0.02186587	0.03320286	-0.01701856	0.195654	0.8387208	-0.01182865	-0.03087924
5e+08	0.008294089	-0.03988313	0.4618547	0.7223933	0.04920362	-0.04582523	0.06837462	-0.05144409
	0.4617561	0.7224912	0.004976366	-0.04599568	0.07067687	-0.05308014	0.04887097	-0.04598459
	0.04907559	-0.04641362	0.06903108	-0.05141137	0.008812814	-0.0449369	0.4745652	0.7144278
	0.06695757	-0.05155734	0.04875414	-0.04613245	0.4756862	0.7132308	0.007924656	-0.04808299
5.1e+08	0.01814237	-0.07126599	0.6811764	0.5121429	0.04352718	-0.08112323	0.04463661	-0.07672838
	0.681119	0.5122819	0.01214124	-0.07624259	0.04612955	-0.07904124	0.04261676	-0.08155278
	0.04329934	-0.08162631	0.04523293	-0.07686206	0.01664431	-0.07709377	0.6902956	0.4999952
	0.04325221	-0.07628665	0.04241944	-0.08158583	0.6908839	0.4984736	0.01418264	-0.07974993
5.2e+08	0.006595354	-0.107595	0.8111746	0.2417471	0.01657069	-0.1079757	0.01075864	-0.08932069
	0.8111761	0.2419094	-0.001341878	-0.1102032	0.011295	-0.09194556	0.01495459	-0.1083072
	0.01628932	-0.1084175	0.01128862	-0.0895785	0.002586742	-0.1129866	0.8154015	0.2270624
	0.009625825	-0.08836996	0.01476713	-0.1082096	0.815385	0.225439	-0.0008549508	-0.1143752
