!$
! Info: Touchstone file created by Circ.  Input file=Tx_NPC_250mm_32AWG_BPK_300mm_27AWG_BPK_250mm_32AWG_NPC_Rx.circ
!$
# Hz S RI R 50
0	0.01969566	-1.365124e-17	8.734601e-07	1.998778e-19	0.003657139	1.095093e-15	-1.505294e-06	-3.838454e-20
	6.273421e-06	2.482019e-21	0.01857136	-2.084274e-16	-3.685562e-07	1.456392e-19	0.002762973	-4.555383e-16
	0.003029798	2.850743e-17	-1.679375e-06	-3.296143e-21	0.03798368	-5.200006e-16	-4.831877e-06	-2.612143e-20
	1.04912e-05	-3.114362e-19	0.002868009	-2.609257e-16	4.618348e-07	2.778927e-19	0.04331838	4.687244e-16
1e+07	0.05296519	0.004455396	9.288369e-07	-1.922595e-07	0.01341603	0.02671605	-1.091969e-06	9.550601e-07
	5.704772e-06	-2.246416e-06	0.05160926	0.004229019	-4.544225e-07	-5.920768e-08	0.01291265	0.02663516
	0.01286227	0.02668538	-1.613515e-06	3.413471e-07	0.04802134	0.005399115	-4.360564e-06	1.840544e-06
	9.672671e-06	-3.982086e-06	0.0129575	0.02665096	3.479759e-07	-4.395608e-07	0.05309273	0.00356197
2e+07	0.06126998	0.002393709	9.658456e-07	-5.014385e-07	0.03627352	0.04396102	-2.292568e-07	1.45212e-06
	4.439325e-06	-4.111608e-06	0.05946879	0.002147832	-5.361604e-07	-6.626924e-08	0.03569846	0.04424576
	0.03566695	0.04409432	-1.424364e-06	5.914133e-07	0.05668825	0.004529163	-3.174338e-06	3.224694e-06
	7.426573e-06	-7.344601e-06	0.03573055	0.04421269	6.261032e-08	-8.010093e-07	0.06053287	0.00088444
3e+07	0.06825423	-0.005936087	8.620097e-07	-9.329282e-07	0.06473475	0.04540612	7.34839e-07	1.32566e-06
	2.590463e-06	-5.344015e-06	0.06596894	-0.005934378	-6.217033e-07	2.497655e-10	0.06397313	0.0460633
	0.06401069	0.04579023	-1.210162e-06	7.295943e-07	0.06436146	-0.002770875	-1.601743e-06	3.922965e-06
	4.061534e-06	-9.599898e-06	0.06399636	0.04596375	-3.825179e-07	-1.018845e-06	0.06645784	-0.007515216
4e+07	0.07058107	-0.01856761	5.062055e-07	-1.376172e-06	0.08950604	0.03000578	1.421138e-06	6.826833e-07
	4.441696e-07	-5.781527e-06	0.06790278	-0.01801543	-6.664093e-07	1.441133e-07	0.08886124	0.03086458
	0.08884121	0.03061406	-1.037549e-06	8.029405e-07	0.06763375	-0.01476956	-4.558416e-09	3.921229e-06
	6.753377e-08	-1.038323e-05	0.0888413	0.03075816	-9.340291e-07	-1.013312e-06	0.06774552	-0.01962407
5e+07	0.06653369	-0.03196804	-1.1821e-07	-1.649802e-06	0.1018814	0.003699289	1.612022e-06	-1.839562e-07
	-1.68475e-06	-5.372208e-06	0.06356859	-0.03059647	-6.245901e-07	3.531706e-07	0.1014612	0.004584174
	0.1013904	0.004464176	-9.170158e-07	8.850687e-07	0.06452699	-0.02779469	1.345334e-06	3.362036e-06
	-3.950709e-06	-9.521872e-06	0.1014114	0.004506844	-1.493931e-06	-7.111516e-07	0.06285158	-0.03203487
6e+07	0.05620277	-0.04279895	-8.982486e-07	-1.58522e-06	0.09787147	-0.025257	1.314774e-06	-9.335834e-07
	-3.466561e-06	-4.164295e-06	0.05329269	-0.04044692	-4.552354e-07	5.810805e-07	0.0976769	-0.02429124
	0.09761992	-0.02432905	-7.963927e-07	1.035813e-06	0.05512442	-0.03856802	2.312823e-06	2.459745e-06
	-7.317025e-06	-7.066133e-06	0.09758816	-0.0243437	-1.905611e-06	-8.667131e-08	0.05215241	-0.0414848
7e+07	0.04169615	-0.04769485	-1.619515e-06	-1.091042e-06	0.07875136	-0.04702109	7.373326e-07	-1.313521e-06
	-4.592902e-06	-2.344624e-06	0.0392175	-0.04423589	-1.251844e-07	7.701019e-07	0.07882869	-0.04607605
	0.07880253	-0.0460573	-5.871601e-07	1.263529e-06	0.04139114	-0.043526	2.88655e-06	1.415256e-06
	-9.374598e-06	-3.360325e-06	0.07872443	-0.04608484	-1.976777e-06	8.028975e-07	0.03785395	-0.04477594
8e+07	0.02639579	-0.04485925	-2.021641e-06	-2.296254e-07	0.05086921	-0.05422597	1.941807e-07	-1.2666e-06
	-4.823146e-06	-2.358492e-07	0.02481782	-0.04034067	3.615289e-07	8.212369e-07	0.05123816	-0.05339879
	0.05122043	-0.05335357	-2.017602e-07	1.500885e-06	0.02675981	-0.04079462	3.13399e-06	3.573256e-07
	-9.6054e-06	9.460697e-07	0.05113803	-0.05335748	-1.537528e-06	1.766937e-06	0.0234337	-0.04036369
9e+07	0.01451023	-0.03430093	-1.907492e-06	7.731974e-07	0.02383264	-0.04402291	-4.123815e-08	-9.590365e-07
	-4.083315e-06	1.713013e-06	0.01432614	-0.02900462	9.379854e-07	6.27599e-07	0.02447488	-0.0434297
	0.02442106	-0.0433524	3.890702e-07	1.616344e-06	0.01551148	-0.03034765	3.130519e-06	-6.712401e-07
	-7.827137e-06	4.939821e-06	0.02440023	-0.0433406	-5.387972e-07	2.498083e-06	0.01310946	-0.02855452
1e+08	0.01010921	-0.01836602	-1.249056e-06	1.588016e-06	0.007609893	-0.01939827	1.187735e-07	-7.085386e-07
	-2.553508e-06	3.032827e-06	0.01172061	-0.01277169	1.459372e-06	1.165119e-07	0.008418539	-0.01919527
	0.008309266	-0.0190089	1.113781e-06	1.463915e-06	0.01181166	-0.0144807	2.898902e-06	-1.679876e-06
	-4.359133e-06	7.646182e-06	0.008394234	-0.01907726	8.619873e-07	2.66144e-06	0.01082519	-0.0119461
1.1e+08	0.01547597	-0.001415725	-2.41215e-07	1.910784e-06	0.008895878	0.01135288	5.029976e-07	-8.18133e-07
	-6.603329e-07	3.394017e-06	0.01914764	0.003739719	1.722203e-06	-6.729097e-07	0.009709642	0.0111137
	0.009576308	0.01147341	1.797224e-06	9.58264e-07	0.01808376	0.002246686	2.386927e-06	-2.658081e-06
	-3.45661e-08	8.335081e-06	0.009746617	0.01124025	2.288663e-06	2.053816e-06	0.01867345	0.004783878
1.2e+08	0.03051566	0.01119919	7.626908e-07	1.618994e-06	0.02874851	0.03732531	7.55335e-07	-1.393975e-06
	1.033139e-06	2.772854e-06	0.03604632	0.0150133	1.563163e-06	-1.572198e-06	0.02935756	0.03669058
	0.02929179	0.03724568	2.22811e-06	1.489227e-07	0.03411141	0.01434807	1.521623e-06	-3.508929e-06
	4.001388e-06	6.843171e-06	0.02945502	0.03679046	3.280709e-06	7.410139e-07	0.03603495	0.01611444
1.3e+08	0.0520694	0.01480902	1.400598e-06	8.356969e-07	0.0618206	0.0488105	5.14229e-07	-2.252848e-06
	2.057909e-06	1.461551e-06	0.05886146	0.016563	9.500483e-07	-2.309738e-06	0.06207136	0.04793526
	0.06217663	0.048651	2.254221e-06	-7.823958e-07	0.05659733	0.01707461	2.919904e-07	-4.039751e-06
	6.690924e-06	3.651223e-06	0.06221227	0.04798133	3.488886e-06	-9.249294e-07	0.05929038	0.0175644
1.4e+08	0.07497282	0.007003429	1.466713e-06	-1.223277e-07	0.09830585	0.04067315	-3.808924e-07	-2.987132e-06
	2.208709e-06	-5.003365e-08	0.08215706	0.006303705	3.077123e-08	-2.632724e-06	0.09815711	0.0397731
	0.0985008	0.04055426	1.865152e-06	-1.587894e-06	0.08019621	0.008021638	-1.17261e-06	-4.030013e-06
	7.425739e-06	-2.811191e-07	0.09831241	0.03974919	2.844575e-06	-2.44572e-06	0.08295884	0.007072411
1.5e+08	0.09359902	-0.01174383	9.896832e-07	-8.915626e-07	0.1273265	0.01391126	-1.78597e-06	-3.149216e-06
	1.592316e-06	-1.282491e-06	0.1002027	-0.01488485	-9.185863e-07	-2.418976e-06	0.1268539	0.01318423
	0.1274411	0.01391377	1.201727e-06	-2.05972e-06	0.09913043	-0.01223636	-2.599269e-06	-3.338248e-06
	6.213139e-06	-3.878238e-06	0.1269878	0.01308936	1.580903e-06	-3.386187e-06	0.1012884	-0.01445081
1.6e+08	0.1032961	-0.03839016	1.934028e-07	-1.208398e-06	0.1403698	-0.02498775	-3.290776e-06	-2.449236e-06
	5.186381e-07	-1.935356e-06	0.1085003	-0.04357619	-1.592057e-06	-1.726925e-06	0.1397558	-0.02543385
	0.1405217	-0.02484773	4.947069e-07	-2.107471e-06	0.1086307	-0.04050204	-3.636716e-06	-1.983265e-06
	3.570308e-06	-6.294266e-06	0.1398392	-0.02558256	1.224437e-07	-3.530432e-06	0.109728	-0.04353956
1.7e+08	0.1013315	-0.0682669	-5.996988e-07	-9.886938e-07	0.1336054	-0.06633573	-4.360508e-06	-8.837356e-07
	-6.264252e-07	-1.932996e-06	0.1045176	-0.07480625	-1.772209e-06	-7.671722e-07	0.1330378	-0.06651032
	0.1338947	-0.06610684	-1.426023e-08	-1.785417e-06	0.1059451	-0.07189903	-3.958766e-06	-1.740431e-07
	3.11515e-07	-7.104335e-06	0.1330511	-0.06668454	-1.083713e-06	-2.929848e-06	0.1057574	-0.07518284
1.8e+08	0.08717159	-0.09596899	-1.085291e-06	-3.369867e-07	0.1085673	-0.1000732	-4.512103e-06	1.238442e-06
	-1.527104e-06	-1.395284e-06	0.0880789	-0.103024	-1.377403e-06	1.644302e-07	0.1081898	-0.1000897
	0.1090558	-0.09985679	-1.501116e-07	-1.266791e-06	0.09060199	-0.1008327	-3.354398e-06	1.71955e-06
	-2.730905e-06	-6.33286e-06	0.1081302	-0.100256	-1.699106e-06	-1.853206e-06	0.08919577	-0.1037811
1.9e+08	0.06261378	-0.1162165	-1.063132e-06	4.929792e-07	0.07145193	-0.1183702	-3.478326e-06	3.355727e-06
	-1.993182e-06	-5.5909e-07	0.06133185	-0.1229553	-4.860781e-07	7.671543e-07	0.0713163	-0.1183964
	0.07213928	-0.1182929	1.484581e-07	-7.998244e-07	0.06453401	-0.1218639	-1.804966e-06	3.226792e-06
	-4.892803e-06	-4.373891e-06	0.07119666	-0.1185254	-1.577811e-06	-6.957898e-07	0.06221201	-0.1240091
2e+08	0.03175317	-0.1247225	-5.012429e-07	1.16518e-06	0.03141151	-0.1174798	-1.332306e-06	4.788421e-06
	-1.988405e-06	2.965092e-07	0.02867291	-0.130434	6.78736e-07	8.079775e-07	0.03146767	-0.1176728
	0.03222677	-0.1176564	7.983777e-07	-6.474333e-07	0.03202512	-0.1306164	4.63792e-07	3.870249e-06
	-5.815347e-06	-1.855325e-06	0.03131087	-0.1177455	-7.990029e-07	1.268603e-07	0.02924993	-0.1316731
2.1e+08	0.0005984014	-0.1192405	4.261855e-07	1.360204e-06	-0.001737262	-0.09863764	1.456471e-06	4.938004e-06
	-1.624144e-06	9.410956e-07	-0.00367227	-0.1235154	1.782107e-06	1.835439e-07	-0.001619392	-0.09910874
	-0.0009228237	-0.09914217	1.564978e-06	-1.006356e-06	-0.0006940562	-0.1248523	2.96658e-06	3.293758e-06
	-5.50228e-06	5.49828e-07	-0.001785487	-0.09912112	3.387499e-07	2.894074e-07	-0.003422924	-0.1247978
2.2e+08	-0.023853	-0.1007504	1.356757e-06	8.995977e-07	-0.0200276	-0.06788589	4.084206e-06	3.528618e-06
	-1.124401e-06	1.245634e-06	-0.02864285	-0.1034422	2.453744e-06	-1.013978e-06	-0.02001652	-0.06865252
	-0.01937375	-0.06871502	2.098403e-06	-1.916317e-06	-0.02644009	-0.105636	5.020208e-06	1.42712e-06
	-4.305846e-06	2.3007e-06	-0.02017045	-0.06861209	1.380513e-06	-3.205723e-07	-0.02867665	-0.1046424
2.3e+08	-0.03554196	-0.07391748	1.84618e-06	-1.280646e-07	-0.01966699	-0.03461917	5.63812e-06	8.092223e-07
	-7.37003e-07	1.261365e-06	-0.04025614	-0.07518756	2.396535e-06	-2.479033e-06	-0.01990038	-0.03562238
	-0.01932033	-0.0356869	2.044664e-06	-3.178137e-06	-0.03902056	-0.07781134	5.924529e-06	-1.387658e-06
	-2.777835e-06	3.180939e-06	-0.02002988	-0.03554331	1.851691e-06	-1.520039e-06	-0.04047733	-0.0762057
2.4e+08	-0.03151222	-0.04640952	1.571719e-06	-1.334329e-06	-0.002405643	-0.008990071	5.461788e-06	-2.415602e-06
	-6.115444e-07	1.201117e-06	-0.03575093	-0.04661886	1.528772e-06	-3.747074e-06	-0.002970996	-0.01012291
	-0.002453726	-0.01014288	1.218403e-06	-4.365552e-06	-0.03545335	-0.0492579	5.244519e-06	-4.40033e-06
	-1.436657e-06	3.353262e-06	-0.003073898	-0.01001781	1.4613e-06	-2.840394e-06	-0.03602493	-0.04741219
2.5e+08	-0.01344701	-0.02670857	5.388632e-07	-2.166118e-06	0.02469785	0.001346455	3.504783e-06	-5.033145e-06
	-6.939615e-07	1.340182e-06	-0.01704032	-0.02628313	7.196031e-08	-4.356425e-06	0.02377076	0.000206509
	0.02425726	0.000288616	-2.472698e-07	-4.976648e-06	-0.01750953	-0.02863534	3.063657e-06	-6.67822e-06
	-5.206282e-07	3.247386e-06	0.02369249	0.0003331769	2.764676e-07	-3.694009e-06	-0.01723188	-0.02689218
2.6e+08	0.01254158	-0.02114228	-8.612243e-07	-2.179662e-06	0.05154037	-0.006022825	4.273408e-07	-6.08637e-06
	-7.122792e-07	1.835169e-06	0.009514401	-0.02046482	-1.494834e-06	-4.050743e-06	0.05026458	-0.007064397
	0.05079658	-0.006836169	-1.897229e-06	-4.679516e-06	0.008530043	-0.02238694	2.215123e-08	-7.484837e-06
	1.227056e-07	3.276386e-06	0.05021177	-0.006915387	-1.259257e-06	-3.640824e-06	0.009504054	-0.020985
2.7e+08	0.03784047	-0.03183408	-2.021046e-06	-1.291068e-06	0.06856096	-0.02745368	-2.650514e-06	-5.209156e-06
	-3.30356e-07	2.601662e-06	0.03518269	-0.03113027	-2.620651e-06	-2.914612e-06	0.06697523	-0.02830968
	0.06766013	-0.02794201	-3.147866e-06	-3.501657e-06	0.0338802	-0.03259836	-2.92465e-06	-6.602899e-06
	8.99341e-07	3.580425e-06	0.06695793	-0.02813513	-2.502778e-06	-2.618002e-06	0.03537848	-0.03170743
2.8e+08	0.0541842	-0.05608172	-2.412906e-06	1.733285e-07	0.07015555	-0.05478024	-4.623863e-06	-2.772622e-06
	6.716259e-07	3.303896e-06	0.05165415	-0.05540443	-2.908178e-06	-1.338128e-06	0.06830777	-0.05538086
	0.06924952	-0.05494805	-3.550823e-06	-1.825886e-06	0.0501531	-0.05645639	-4.900242e-06	-4.396971e-06
	2.196828e-06	3.907994e-06	0.06834336	-0.05518564	-2.900734e-06	-9.744984e-07	0.05199759	-0.05616887
2.9e+08	0.05594229	-0.0875204	-1.824247e-06	1.634356e-06	0.05629294	-0.07853315	-4.830258e-06	3.014713e-07
	2.247652e-06	3.499087e-06	0.05336105	-0.0867779	-2.255621e-06	1.411466e-07	0.05424098	-0.07881423
	0.05549527	-0.07845239	-2.975516e-06	-2.147182e-07	0.0517057	-0.08743659	-5.413972e-06	-1.620291e-06
	4.114566e-06	3.743747e-06	0.05434791	-0.0786163	-2.216876e-06	6.750229e-07	0.05373352	-0.08780891
3e+08	0.04135105	-0.1180077	-4.235125e-07	2.505575e-06	0.03193614	-0.09123062	-3.248113e-06	2.913027e-06
	4.07325e-06	2.820582e-06	0.03865799	-0.1170404	-8.685329e-07	1.029464e-06	0.0297611	-0.09113227
	0.03129968	-0.09100513	-1.626851e-06	8.123955e-07	0.03687521	-0.1172536	-4.464213e-06	8.856541e-07
	6.349872e-06	2.556576e-06	0.02994966	-0.09096379	-6.146047e-07	1.687869e-06	0.03891239	-0.118339
3.1e+08	0.01279599	-0.1396194	1.323045e-06	2.397993e-06	0.004891145	-0.08952091	-4.519099e-07	4.154823e-06
	5.620149e-06	1.120062e-06	0.01003797	-0.1382701	8.233565e-07	1.01806e-06	0.002699358	-0.08900379
	0.004404161	-0.08924743	5.55288e-08	9.361059e-07	0.008197064	-0.1379408	-2.464076e-06	2.446781e-06
	8.241944e-06	5.893137e-08	0.002961844	-0.0889047	1.405973e-06	1.612772e-06	0.01006033	-0.1397619
3.2e+08	-0.02386185	-0.1464687	2.800694e-06	1.233473e-06	-0.01689885	-0.07464091	2.58997e-06	3.580318e-06
	6.310343e-06	-1.434578e-06	-0.02655645	-0.1446431	2.283833e-06	6.691285e-08	-0.01897283	-0.07370445
	-0.01728897	-0.0743809	1.533807e-06	1.155128e-07	-0.02827097	-0.1436656	-8.727247e-08	2.714564e-06
	8.97246e-06	-3.5996e-06	-0.0186662	-0.07371281	3.146381e-06	3.411932e-07	-0.0268348	-0.1462129
3.3e+08	-0.06046087	-0.1362105	3.419415e-06	-7.184836e-07	-0.02757516	-0.05160941	4.808433e-06	1.339468e-06
	5.669338e-06	-4.352473e-06	-0.06294236	-0.1338881	3.012994e-06	-1.569484e-06	-0.02939541	-0.05030937
	-0.02793617	-0.0513744	2.313552e-06	-1.405051e-06	-0.06424497	-0.1322432	1.923885e-06	1.740792e-06
	7.823697e-06	-7.758939e-06	-0.0290955	-0.05044762	3.921669e-06	-1.818279e-06	-0.06351989	-0.1354069
3.4e+08	-0.08855693	-0.1108735	2.791292e-06	-2.874712e-06	-0.02479299	-0.02752471	5.363463e-06	-1.832091e-06
	3.519721e-06	-6.875543e-06	-0.09069324	-0.1080917	2.705065e-06	-3.372116e-06	-0.02624906	-0.02597192
	-0.02517662	-0.02728027	2.083318e-06	-3.131589e-06	-0.09125207	-0.1059272	2.967301e-06	-2.709171e-08
	4.495569e-06	-1.132577e-05	-0.02601859	-0.02623528	3.29617e-06	-4.170844e-06	-0.09151215	-0.1094559
3.5e+08	-0.1017743	-0.07660984	9.037893e-07	-4.463741e-06	-0.01018677	-0.009571255	3.958996e-06	-4.80006e-06
	1.433793e-07	-8.161159e-06	-0.1034606	-0.07342839	1.402606e-06	-4.686255e-06	-0.01121553	-0.007918627
	-0.01060606	-0.009257124	8.494932e-07	-4.431453e-06	-0.1030089	-0.07110174	2.795075e-06	-1.860518e-06
	-6.30636e-07	-1.304593e-05	-0.01111315	-0.008268574	1.312803e-06	-5.812725e-06	-0.104436	-0.07457911
3.6e+08	-0.09783158	-0.04212936	-1.776148e-06	-4.769437e-06	0.01105758	-0.003040212	1.032647e-06	-6.405581e-06
	-3.675828e-06	-7.572638e-06	-0.09898739	-0.03860812	-4.402345e-07	-4.961589e-06	0.01045662	-0.00145771
	0.01063782	-0.002595407	-9.926275e-07	-4.739064e-06	-0.09746293	-0.03661906	1.652071e-06	-3.002581e-06
	-6.409471e-06	-1.194794e-05	0.01039541	-0.001826294	-1.407384e-06	-5.9693e-06	-0.1000268	-0.0395414
3.7e+08	-0.07942899	-0.01597475	-4.375565e-06	-3.443101e-06	0.03166568	-0.009625636	-2.318307e-06	-5.937673e-06
	-6.814694e-06	-5.023371e-06	-0.07994761	-0.01216733	-2.071077e-06	-4.024271e-06	0.03142714	-0.008283836
	0.03131859	-0.009021523	-2.731794e-06	-3.808058e-06	-0.07757549	-0.01105437	2.272722e-07	-2.99867e-06
	-1.116742e-05	-7.842151e-06	0.03120637	-0.008588131	-3.812932e-06	-4.367714e-06	-0.08099266	-0.01291305
3.8e+08	-0.05334174	-0.003806305	-5.910559e-06	-7.359189e-07	0.04449943	-0.02670025	-4.730324e-06	-3.497898e-06
	-8.225257e-06	-1.126762e-06	-0.05308274	0.0002060036	-2.75363e-06	-2.223038e-06	0.0444848	-0.02574173
	0.04431248	-0.02595729	-3.602513e-06	-1.885354e-06	-0.05037895	6.36824e-05	-6.337175e-07	-1.947693e-06
	-1.327214e-05	-1.582331e-06	0.04415271	-0.02590856	-4.836279e-06	-1.462863e-06	-0.0541173	-0.0003929214
3.9e+08	-0.02805496	-0.006631187	-5.702704e-06	2.524707e-06	0.045103	-0.04800337	-5.149688e-06	-2.596606e-08
	-7.384357e-06	2.952082e-06	-0.02684642	-0.002568305	-2.116424e-06	-3.136853e-07	0.04510716	-0.04750541
	0.04514482	-0.04719286	-3.122377e-06	3.375214e-07	-0.02450082	-0.004034152	-3.373794e-07	-4.909834e-07
	-1.180046e-05	5.098854e-06	0.04474593	-0.04749555	-3.877827e-06	1.689671e-06	-0.02788964	-0.003034231
4e+08	-0.01088678	-0.02080264	-3.68798e-06	5.239834e-06	0.0333974	-0.06583799	-3.300095e-06	3.064444e-06
	-4.542948e-06	5.935028e-06	-0.008560336	-0.01696767	-3.323555e-07	8.698e-07	0.03318196	-0.06577178
	0.03368975	-0.06506282	-1.320046e-06	1.99674e-06	-0.007259534	-0.01943537	1.157735e-06	4.797615e-07
	-6.964175e-06	1.01721e-05	0.03288452	-0.06559501	-1.090292e-06	3.85501e-06	-0.00963935	-0.01725424
4.1e+08	-0.005768387	-0.03958716	-4.542078e-07	6.464033e-06	0.01369326	-0.073858	1.900828e-07	4.455184e-06
	-6.179535e-07	6.916433e-06	-0.002255756	-0.03637562	1.965517e-06	7.663491e-07	0.01305449	-0.07406752
	0.01420162	-0.07322106	1.269051e-06	2.403323e-06	-0.002440386	-0.0391817	3.311734e-06	2.296981e-07
	-7.604396e-08	1.202739e-05	0.01289509	-0.07378059	2.674541e-06	4.111183e-06	-0.003349585	-0.03639647
4.2e+08	-0.01226356	-0.0555124	2.980389e-06	5.743811e-06	-0.006920736	-0.06936953	4.026366e-06	3.430344e-06
	3.133561e-06	5.641339e-06	-0.007658708	-0.05343609	3.943214e-06	-7.252282e-07	-0.008078756	-0.06961081
	-0.006279347	-0.06894076	3.813587e-06	1.290312e-06	-0.009385425	-0.05571968	5.228042e-06	-1.5085e-06
	6.866896e-06	9.997983e-06	-0.00806621	-0.06930138	6.191743e-06	2.163645e-06	-0.00866198	-0.05308779
4.3e+08	-0.02597203	-0.06280179	5.507862e-06	3.255762e-06	-0.02115136	-0.05407312	6.701778e-06	1.407769e-07
	5.533646e-06	2.557768e-06	-0.02062076	-0.06237412	4.844054e-06	-3.229903e-06	-0.02277833	-0.05409107
	-0.0204808	-0.05386923	5.461604e-06	-1.106804e-06	-0.02347108	-0.0633164	5.982183e-06	-4.420873e-06
	1.179345e-05	4.569894e-06	-0.02261062	-0.05385057	8.25298e-06	-1.56558e-06	-0.02134006	-0.06161236
4.4e+08	-0.04005272	-0.05922207	6.271958e-06	-2.407985e-07	-0.02387865	-0.03338794	7.007689e-06	-4.406602e-06
	5.800697e-06	-1.332014e-06	-0.03456505	-0.0608323	4.21043e-06	-6.006786e-06	-0.02580347	-0.03300491
	-0.02327075	-0.03337008	5.603989e-06	-4.114443e-06	-0.03771067	-0.05990555	4.945315e-06	-7.680328e-06
	1.315002e-05	-2.736471e-06	-0.02554198	-0.03290182	8.027439e-06	-6.049286e-06	-0.03475749	-0.05973035
4.5e+08	-0.04756193	-0.04694163	4.949496e-06	-3.6009e-06	-0.01372493	-0.01469	4.48002e-06	-8.616009e-06
	3.786703e-06	-4.721479e-06	-0.04276142	-0.0507224	2.044723e-06	-8.128578e-06	-0.01573106	-0.01385366
	-0.01323117	-0.01478015	4.081666e-06	-6.792136e-06	-0.04515237	-0.04787936	2.04228e-06	-1.015856e-05
	1.038382e-05	-9.740624e-06	-0.01546323	-0.01391424	5.341061e-06	-9.90241e-06	-0.04220968	-0.04949735
4.6e+08	-0.04405506	-0.03198278	1.924114e-06	-5.62893e-06	0.006471529	-0.005089917	-3.257855e-07	-1.07967e-05
	1.007634e-07	-6.378739e-06	-0.04081791	-0.03766862	-1.099888e-06	-8.748797e-06	0.004573635	-0.003861024
	0.006855628	-0.00520224	1.307317e-06	-8.204341e-06	-0.0414771	-0.03344287	-2.102591e-06	-1.077037e-05
	4.220912e-06	-1.42144e-05	0.00476092	-0.004061294	8.454701e-07	-1.177211e-05	-0.03942638	-0.03666985
4.7e+08	-0.0295326	-0.02213323	-1.743047e-06	-5.518688e-06	0.03026276	-0.009235667	-5.874292e-06	-9.809649e-06
	-3.986808e-06	-5.563688e-06	-0.02862152	-0.02907505	-4.199525e-06	-7.442576e-06	0.02858617	-0.007739752
	0.03059128	-0.009308907	-1.78196e-06	-7.784354e-06	-0.02693569	-0.02446134	-6.236149e-06	-8.920209e-06
	-3.428471e-06	-1.462062e-05	0.02863222	-0.008014307	-4.064878e-06	-1.084501e-05	-0.02647912	-0.02869979
4.8e+08	-0.008871705	-0.02393388	-4.649525e-06	-3.250646e-06	0.04937859	-0.02755088	-1.01254e-05	-5.63572e-06
