!$
! Info: Touchstone file created by Circ.  Input file=Tx_NPC_250mm_32AWG_BPK_500mm_27AWG_BPK_250mm_32AWG_NPC_Rx.circ
!$
# Hz S RI R 50
0	0.02352162	1.587178e-16	3.854694e-06	5.592969e-20	0.002880332	3.666458e-16	-1.73491e-06	-1.347314e-21
	-3.967356e-07	-1.728901e-20	0.02434807	-2.051231e-16	4.286296e-06	4.580165e-20	0.002947075	-4.52729e-16
	0.004141739	7.427265e-16	6.028211e-06	2.733859e-19	0.04564644	-3.35368e-16	-8.186959e-07	-6.843173e-21
	-1.01541e-06	3.477575e-21	0.003048613	-2.592952e-16	7.654597e-06	-1.310163e-19	0.04889377	4.835362e-16
1e+07	0.05661042	0.002252486	3.616378e-06	-1.016219e-06	0.01578176	0.0300222	-1.794316e-06	3.228585e-07
	-4.752532e-08	8.506123e-07	0.05748955	0.001837194	3.514164e-06	-2.104046e-06	0.01606883	0.02986132
	0.01667586	0.02971366	5.617535e-06	-1.801029e-06	0.05586914	0.002293852	-9.612744e-07	-3.572483e-08
	-6.234086e-07	1.079784e-06	0.0161125	0.02987057	6.600217e-06	-3.584547e-06	0.05888662	0.001031638
2e+07	0.06403788	-0.003185761	3.024431e-06	-1.864688e-06	0.04464505	0.0454069	-1.903906e-06	7.703854e-07
	6.779884e-07	1.32461e-06	0.06459781	-0.003998863	1.713186e-06	-3.483054e-06	0.04485437	0.0452254
	0.04517231	0.0445682	4.465108e-06	-3.233997e-06	0.0631662	-0.003053482	-1.30293e-06	1.09274e-07
	2.943544e-07	1.732762e-06	0.04487325	0.04518384	3.824535e-06	-6.053341e-06	0.06538909	-0.005438962
3e+07	0.06748887	-0.01519976	2.153593e-06	-2.413386e-06	0.07602199	0.03846843	-1.935381e-06	1.390502e-06
	1.513518e-06	1.260818e-06	0.06747837	-0.01618293	-6.593549e-07	-3.68265e-06	0.07603595	0.03823686
	0.07606291	0.03720442	2.821063e-06	-4.043484e-06	0.06652699	-0.01485105	-1.707345e-06	5.282095e-07
	1.425802e-06	1.724732e-06	0.07601565	0.0381354	1.802369e-07	-6.726232e-06	0.06750163	-0.0178122
4e+07	0.06307429	-0.02936048	1.154867e-06	-2.581637e-06	0.09535982	0.01215542	-1.75734e-06	2.120782e-06
	2.124937e-06	7.167727e-07	0.06243348	-0.03016472	-2.932207e-06	-2.600458e-06	0.0952102	0.01190159
	0.09479255	0.01104085	1.004789e-06	-4.109148e-06	0.06209298	-0.02875863	-2.010539e-06	1.225663e-06
	2.35729e-06	1.041429e-06	0.09513347	0.01181857	-3.296747e-06	-5.470696e-06	0.06170833	-0.03155866
5e+07	0.05057256	-0.03962815	2.016335e-07	-2.377142e-06	0.0931607	-0.02000283	-1.307236e-06	2.82478e-06
	2.294694e-06	-9.857275e-08	0.04941084	-0.03983751	-4.473729e-06	-4.847414e-07	0.09286292	-0.02025089
	0.09223651	-0.02063736	-6.501064e-07	-3.465586e-06	0.0496757	-0.03873429	-2.066942e-06	2.132744e-06
	2.744181e-06	-1.110979e-07	0.09276715	-0.02027902	-5.683929e-06	-2.673176e-06	0.04819024	-0.04073401
6e+07	0.03342628	-0.04127731	-5.646452e-07	-1.870659e-06	0.07053479	-0.04270098	-6.188641e-07	3.368299e-06
	1.957503e-06	-8.944872e-07	0.03215137	-0.04062058	-4.866571e-06	2.206851e-06	0.07009959	-0.04280707
	0.06944032	-0.04279731	-1.873053e-06	-2.278521e-06	0.03268309	-0.04010014	-1.779491e-06	3.118436e-06
	2.396843e-06	-1.367054e-06	0.06998743	-0.04277526	-6.390406e-06	8.985168e-07	0.03076266	-0.04083145
7e+07	0.01802223	-0.03198178	-1.045315e-06	-1.20033e-06	0.03851132	-0.04433657	2.193935e-07	3.653829e-06
	1.225099e-06	-1.409766e-06	0.01715368	-0.03042108	-3.954577e-06	4.789032e-06	0.0380729	-0.04424623
	0.03758836	-0.0439086	-2.490274e-06	-8.22829e-07	0.01754274	-0.03053507	-1.109279e-06	4.016764e-06
	1.357777e-06	-2.305289e-06	0.03798896	-0.04415378	-5.262169e-06	4.300289e-06	0.01595091	-0.0299932
8e+07	0.01126732	-0.01405558	-1.222754e-06	-5.343269e-07	0.0133477	-0.02315293	1.092227e-06	3.642767e-06
	3.311699e-07	-1.508853e-06	0.01132641	-0.01188128	-1.945121e-06	6.601968e-06	0.01305396	-0.02291063
	0.012827	-0.02238731	-2.476095e-06	5.722378e-07	0.01116926	-0.0123967	-9.788674e-08	4.637278e-06
	-9.439369e-08	-2.598645e-06	0.01302962	-0.0227781	-2.639123e-06	6.615553e-06	0.01057754	-0.01101583
9e+07	0.0177869	0.005869935	-1.182736e-06	-3.325994e-08	0.009060916	0.01134977	1.880709e-06	3.345043e-06
	-4.868089e-07	-1.230611e-06	0.01906165	0.008062993	6.061088e-07	7.156785e-06	0.0089936	0.01160225
	0.009033457	0.0121909	-1.987784e-06	1.59502e-06	0.0181823	0.007632676	1.106924e-06	4.811159e-06
	-1.553558e-06	-2.139112e-06	0.009046602	0.01174208	6.955626e-07	7.214937e-06	0.01889746	0.009083044
1e+08	0.03711397	0.0190571	-1.102295e-06	2.301374e-07	0.03022134	0.04236303	2.481245e-06	2.826712e-06
	-1.102572e-06	-7.24567e-07	0.03949407	0.0205826	2.925254e-06	6.341257e-06	0.03032879	0.04244136
	0.03061767	0.04298004	-1.343155e-06	2.074294e-06	0.03808118	0.02074361	2.266461e-06	4.469521e-06
	-2.642816e-06	-1.05468e-06	0.03045453	0.04253984	3.721e-06	5.988209e-06	0.03989259	0.02146333
1.1e+08	0.06317888	0.01861979	-1.15443e-06	3.236014e-07	0.06926765	0.05394988	2.85298e-06	2.197318e-06
	-1.511636e-06	-1.300861e-07	0.06618392	0.01895126	4.335154e-06	4.526292e-06	0.06939239	0.05378406
	0.06989347	0.05417978	-8.960976e-07	2.064838e-06	0.06470286	0.01998529	3.134875e-06	3.687478e-06
	-3.128616e-06	3.609604e-07	0.06956613	0.05380977	5.532252e-06	3.401296e-06	0.06696974	0.01943567
1.2e+08	0.08685433	0.002795073	-1.423397e-06	4.008273e-07	0.1102246	0.03874598	3.023174e-06	1.535e-06
	-1.769654e-06	4.764955e-07	0.08976443	0.001763799	4.473875e-06	2.353148e-06	0.1102071	0.03835925
	0.110802	0.03853357	-8.896144e-07	1.807404e-06	0.08880492	0.003625828	3.556963e-06	2.649604e-06
	-2.961727e-06	1.761513e-06	0.1103787	0.03829157	5.646104e-06	3.021403e-07	0.09068866	0.001752383
1.3e+08	0.09992513	-0.02461022	-1.879251e-06	6.210096e-07	0.1362856	0.0009282881	3.025394e-06	8.510553e-07
	-1.927677e-06	1.079951e-06	0.1020591	-0.02674845	3.392883e-06	5.09628e-07	0.1360085	0.0004301284
	0.1365755	0.0003837918	-1.385548e-06	1.621007e-06	0.1020813	-0.02446073	3.478175e-06	1.56529e-06
	-2.282687e-06	2.8313e-06	0.1361304	0.0002817023	4.080202e-06	-2.401904e-06	0.1028666	-0.02722502
1.4e+08	0.09772809	-0.05613236	-2.421884e-06	1.098909e-06	0.1368509	-0.04622823	2.8248e-06	1.373965e-07
	-2.013297e-06	1.701726e-06	0.0986627	-0.05879623	1.434641e-06	-4.699218e-07	0.1362709	-0.04667802
	0.1367104	-0.04689196	-2.276734e-06	1.806174e-06	0.09981371	-0.05670546	2.919514e-06	6.419364e-07
	-1.378909e-06	3.397426e-06	0.136308	-0.04687121	1.244485e-06	-3.962854e-06	0.09915305	-0.05959394
1.5e+08	0.08015566	-0.08300762	-2.903071e-06	1.899695e-06	0.1112558	-0.08597049	2.34255e-06	-5.370297e-07
	-2.006433e-06	2.383367e-06	0.07985429	-0.08548924	-8.825421e-07	-2.613166e-07	0.1104153	-0.08619605
	0.1106663	-0.08648105	-3.311168e-06	2.586275e-06	0.08188792	-0.08422218	1.982572e-06	8.679682e-08
	-5.647496e-07	3.501369e-06	0.1103565	-0.08638345	-2.181287e-06	-3.88402e-06	0.07993544	-0.08639273
1.6e+08	0.0515747	-0.09743598	-3.121871e-06	3.013607e-06	0.06871508	-0.1043203	1.57139e-06	-1.00522e-06
	-1.814315e-06	3.135654e-06	0.05041264	-0.09914643	-2.910263e-06	1.204142e-06	0.06776813	-0.1041781
	0.06780315	-0.1044488	-4.112539e-06	4.039963e-06	0.0527336	-0.09905953	8.844162e-07	7.03688e-08
	-2.762233e-08	3.367768e-06	0.06763206	-0.1043134	-5.331233e-06	-1.99837e-06	0.05008694	-0.09990616
1.7e+08	0.02048918	-0.09454287	-2.868012e-06	4.293283e-06	0.02515278	-0.09520967	6.510165e-07	-1.107852e-06
	-1.310939e-06	3.854888e-06	0.01909491	-0.09522134	-3.988831e-06	3.665599e-06	0.02433933	-0.09465328
	0.02416232	-0.09479343	-4.259133e-06	6.0048e-06	0.02099498	-0.09626231	-3.890815e-08	6.169859e-07
	2.756401e-07	3.238558e-06	0.02416578	-0.09470755	-7.256797e-06	1.422801e-06	0.01851717	-0.09562547
1.8e+08	-0.00233925	-0.07501234	-2.0403e-06	5.430318e-06	-0.002525012	-0.06335865	-1.808366e-07	-8.319586e-07
	-4.71504e-07	4.288586e-06	-0.003318485	-0.07483474	-3.630943e-06	6.468082e-06	-0.002942607	-0.06251254
	-0.003285039	-0.06239009	-3.461755e-06	8.037571e-06	-0.002371378	-0.07651125	-4.701422e-07	1.509772e-06
	5.263735e-07	3.193408e-06	-0.003106581	-0.06248491	-7.199323e-06	5.564295e-06	-0.003896768	-0.07476918
1.9e+08	-0.007623695	-0.0464663	-7.858312e-07	6.073036e-06	-0.003428503	-0.02337701	-7.538757e-07	-3.363652e-07
	4.784098e-07	4.170708e-06	-0.007807295	-0.04596482	-1.816475e-06	8.707778e-06	-0.003299475	-0.02253737
	-0.003673404	-0.02202046	-1.776526e-06	9.548304e-06	-0.007910018	-0.04756455	-3.100015e-07	2.341906e-06
	8.40492e-07	3.114768e-06	-0.003418318	-0.02245253	-4.958873e-06	9.205477e-06	-0.008091477	-0.04547196
2e+08	0.007522471	-0.02173511	5.215496e-07	6.052479e-06	0.02163713	0.005922444	-1.063509e-06	1.776237e-07
	1.106779e-06	3.478307e-06	0.008077309	-0.02153548	8.884062e-07	9.613214e-06	0.02224203	0.006401326
	0.02207903	0.007355771	3.549826e-07	1.010065e-05	0.007308012	-0.02247165	2.296283e-07	2.743338e-06
	1.138568e-06	2.860055e-06	0.02218062	0.006507331	-1.119787e-06	1.115912e-05	0.008331687	-0.02083131
2.1e+08	0.03686711	-0.01311322	1.505733e-06	5.493245e-06	0.05970142	0.01053827	-1.207233e-06	5.848851e-07
	1.061888e-06	2.541618e-06	0.03773196	-0.01363827	3.561788e-06	8.914124e-06	0.06049558	0.010405
	0.06079643	0.01169293	2.336632e-06	9.63775e-06	0.03693859	-0.01374636	7.624162e-07	2.595261e-06
	1.244569e-06	2.443452e-06	0.06048115	0.010502	3.117701e-06	1.080264e-05	0.03860789	-0.01304169
2.2e+08	0.06767469	-0.02641247	1.986383e-06	4.69927e-06	0.09196309	-0.01164967	-1.307245e-06	8.397529e-07
	3.249179e-07	1.853851e-06	0.06827577	-0.02769996	5.347068e-06	6.93181e-06	0.09256708	-0.01242728
	0.09350063	-0.01107122	3.705857e-06	8.442937e-06	0.06800869	-0.02727074	9.461506e-07	2.031995e-06
	1.057315e-06	2.015599e-06	0.09257872	-0.0123522	6.443851e-06	8.30166e-06	0.06966882	-0.02754634
2.3e+08	0.08660299	-0.05839995	1.988698e-06	3.958243e-06	0.1033244	-0.05038004	-1.506076e-06	9.497279e-07
	-8.16735e-07	1.777313e-06	0.08649474	-0.06013953	5.745541e-06	4.347513e-06	0.1034081	-0.05162049
	0.1049748	-0.05051437	4.255424e-06	6.938883e-06	0.08694773	-0.05972191	5.855561e-07	1.334464e-06
	5.930378e-07	1.750739e-06	0.1034287	-0.05156444	7.884571e-06	4.487302e-06	0.08813263	-0.06064844
2.4e+08	0.08500185	-0.0990913	1.649114e-06	3.476276e-06	0.08896405	-0.08907298	-1.955311e-06	1.039459e-06
	-1.960009e-06	2.438101e-06	0.08402493	-0.1007925	4.682134e-06	1.947836e-06	0.08834571	-0.0904515
	0.09038761	-0.08987478	4.002205e-06	5.551411e-06	0.08498504	-0.1008918	-3.499977e-07	8.486307e-07
	-5.479888e-08	1.804079e-06	0.08836993	-0.09040537	7.053858e-06	5.403925e-07	0.08556442	-0.1020005
2.5e+08	0.06113293	-0.1357821	1.179355e-06	3.375558e-06	0.05494317	-0.1127278	-2.686395e-06	1.37474e-06
	-2.705686e-06	3.763238e-06	0.05943465	-0.1369691	2.467986e-06	4.345113e-07	0.05363612	-0.1138672
	0.05587166	-0.1140036	3.159769e-06	4.639001e-06	0.06043565	-0.1378292	-1.689884e-06	9.227236e-07
	-6.961088e-07	2.306874e-06	0.05366776	-0.113827	4.221485e-06	-2.336059e-06	0.06057893	-0.1387444
2.6e+08	0.02024212	-0.1567712	8.485239e-07	3.645342e-06	0.01426654	-0.1135088	-3.486184e-06	2.222447e-06
	-2.700909e-06	5.495651e-06	0.018202	-0.1571615	-2.78244e-07	2.608907e-07	0.0124876	-0.1140861
	0.01456925	-0.1149715	2.110371e-06	4.392797e-06	0.01872993	-0.1586492	-3.040265e-06	1.776384e-06
	-1.01344e-06	3.279513e-06	0.01253225	-0.114058	2.599107e-07	-3.239154e-06	0.01877834	-0.1592352
2.7e+08	-0.02678532	-0.1546158	8.966044e-07	4.08384e-06	-0.01870514	-0.09256744	-3.933559e-06	3.631034e-06
	-1.721895e-06	7.168495e-06	-0.02871393	-0.1541836	-2.77091e-06	1.489005e-06	-0.02058028	-0.09242668
	-0.0190166	-0.09391055	1.292604e-06	4.72829e-06	-0.02896376	-0.1558837	-3.892384e-06	3.328854e-06
	-6.435056e-07	4.484034e-06	-0.02052828	-0.09242398	-3.5902e-06	-1.871006e-06	-0.0287183	-0.1562762
2.8e+08	-0.06597491	-0.1289573	1.363995e-06	4.328925e-06	-0.03325058	-0.05886467	-3.643041e-06	5.293667e-06
	1.472093e-07	8.159125e-06	-0.06742998	-0.1279408	-4.318187e-06	3.726162e-06	-0.03480904	-0.05810065
	-0.03401864	-0.05983039	9.764156e-07	5.273498e-06	-0.06841537	-0.1293214	-3.870395e-06	5.144443e-06
	5.804926e-07	5.385113e-06	-0.03476992	-0.05813163	-6.10445e-06	1.319229e-06	-0.06788699	-0.1298229
2.9e+08	-0.08489075	-0.08792514	1.98527e-06	4.058371e-06	-0.025894	-0.02579945	-2.545629e-06	6.669431e-06
	2.380576e-06	7.933818e-06	-0.08574507	-0.08670652	-4.593345e-06	6.260034e-06	-0.02685665	-0.02474697
	-0.02685623	-0.02624384	1.069762e-06	5.570836e-06	-0.0870686	-0.08739206	-2.99276e-06	6.604928e-06
	2.379095e-06	5.342878e-06	-0.02685907	-0.02480056	-6.534962e-06	5.261003e-06	-0.08644669	-0.08827137
3e+08	-0.07807506	-0.04618601	2.295612e-06	3.245559e-06	-0.00192088	-0.006302287	-9.819574e-07	7.301272e-06
	4.125238e-06	6.404215e-06	-0.07846572	-0.04509412	-3.749839e-06	8.369038e-06	-0.002275167	-0.005401504
	-0.002777619	-0.006236796	1.158294e-06	5.401014e-06	-0.07956893	-0.04509276	-1.714876e-06	7.266918e-06
	3.996394e-06	4.008949e-06	-0.00233669	-0.005440132	-4.89181e-06	8.677366e-06	-0.07921467	-0.04637758
3.1e+08	-0.05036008	-0.0191445	1.934602e-06	2.235973e-06	0.02627185	-0.007294219	4.911781e-07	7.091374e-06
	4.61592e-06	4.10735e-06	-0.05058755	-0.01829042	-2.284174e-06	9.61464e-06	0.02626166	-0.006894926
	0.0257609	-0.006894019	8.173951e-07	4.954733e-06	-0.05105647	-0.01802177	-6.550326e-07	7.136711e-06
	4.533004e-06	1.661793e-06	0.02615513	-0.006870196	-1.884989e-06	1.057606e-05	-0.05127	-0.01942623
3.2e+08	-0.0151779	-0.01583419	8.983502e-07	1.533106e-06	0.04465546	-0.02598949	1.420991e-06	6.318758e-06
	3.624631e-06	1.974821e-06	-0.0154623	-0.01506501	-7.604359e-07	9.91996e-06	0.04457528	-0.02620422
	0.04459341	-0.0255301	-7.188428e-08	4.667148e-06	-0.01534094	-0.01514775	-2.264245e-07	6.624551e-06
	3.440305e-06	-8.33587e-07	0.04447744	-0.02608192	1.41108e-06	1.056349e-05	-0.01611404	-0.01620435
3.3e+08	0.01170933	-0.03494494	-4.926835e-07	1.499917e-06	0.04468838	-0.05107999	1.643556e-06	5.456321e-06
	1.566382e-06	8.533794e-07	0.01138344	-0.03400188	3.630019e-07	9.485009e-06	0.04414444	-0.05175343
	0.04500179	-0.05084166	-1.289487e-06	4.904184e-06	0.01158438	-0.03485615	-4.498981e-07	6.26625e-06
	8.522308e-07	-2.40574e-06	0.04412841	-0.05154402	3.948858e-06	8.886276e-06	0.01062509	-0.03520115
3.4e+08	0.01917447	-0.06615059	-1.787321e-06	2.223783e-06	0.02762072	-0.06884968	1.31872e-06	4.963125e-06
	-7.482025e-07	1.136003e-06	0.01906161	-0.06489469	8.198609e-07	8.678458e-06	0.02638486	-0.06962664
	0.0280949	-0.06901746	-2.454334e-06	5.794892e-06	0.01862503	-0.06643621	-1.011346e-06	6.46134e-06
	-2.44589e-06	-2.258062e-06	0.02650824	-0.06939161	5.030571e-06	6.284642e-06	0.01805391	-0.06606018
3.5e+08	0.004724358	-0.09514135	-2.568666e-06	3.527848e-06	0.003147017	-0.07034332	8.721896e-07	5.100264e-06
	-2.472647e-06	2.670973e-06	0.00515063	-0.09370615	5.884298e-07	7.923244e-06	0.001241455	-0.07079987
	0.00350486	-0.07095526	-3.183156e-06	7.229706e-06	0.00357235	-0.09531486	-1.410316e-06	7.322434e-06
	-5.309054e-06	-2.062237e-07	0.001514347	-0.07063331	4.503928e-06	3.704814e-06	0.003861513	-0.09463036
3.6e+08	-0.0252876	-0.109405	-2.575095e-06	5.01743e-06	-0.01615087	-0.05525676	8.296915e-07	5.779122e-06
	-3.012061e-06	4.868331e-06	-0.02415592	-0.1081703	-1.158116e-07	7.546029e-06	-0.01845423	-0.05505923
	-0.01616105	-0.05619426	-3.195369e-06	8.881963e-06	-0.02683286	-0.1089728	-1.153304e-06	8.59573e-06
	-6.658028e-06	3.199421e-06	-0.01808427	-0.0550501	2.762316e-06	1.942594e-06	-0.02557551	-0.108653
3.7e+08	-0.05854519	-0.102846	-1.82764e-06	6.172274e-06	-0.02086304	-0.03114875	1.549702e-06	6.532511e-06
	-2.221377e-06	6.90131e-06	-0.05684201	-0.1022827	-9.824221e-07	7.636435e-06	-0.02315134	-0.03019902
	-0.02140356	-0.03218361	-2.44615e-06	1.025976e-05	-0.05996281	-0.1015683	-8.116356e-09	9.709025e-06
	-5.924301e-06	6.83991e-06	-0.02278617	-0.03039508	4.985734e-07	1.359368e-06	-0.0581182	-0.1022573
3.8e+08	-0.08167697	-0.07810399	-7.066935e-07	6.564075e-06	-0.008550145	-0.009551053	2.963154e-06	6.715847e-06
	-4.738459e-07	8.006354e-06	-0.0798496	-0.07853967	-1.801797e-06	8.091928e-06	-0.01045239	-0.008018083
	-0.009650474	-0.01039488	-1.262025e-06	1.088904e-05	-0.08236994	-0.07615067	1.78783e-06	1.000127e-05
	-3.325811e-06	9.426749e-06	-0.01021189	-0.008399007	-1.643461e-06	1.85495e-06	-0.08069758	-0.07814303
3.9e+08	-0.08590062	-0.04548221	1.703747e-07	6.120081e-06	0.01549929	-0.0009639625	4.530055e-06	5.863688e-06
	1.454518e-06	7.79949e-06	-0.08456798	-0.04691274	-2.550482e-06	8.800255e-06	0.01415202	0.0008180524
	0.01395578	-0.001336965	-2.824287e-07	1.062476e-05	-0.08548689	-0.04341078	3.538359e-06	9.108038e-06
	1.607204e-07	1.003704e-05	0.01417432	0.0003428691	-3.317044e-06	3.086689e-06	-0.08484094	-0.04645191
4e+08	-0.07095549	-0.01833505	2.762265e-07	5.23136e-06	0.04039154	-0.01035033	5.479535e-06	3.99529e-06
	2.71246e-06	6.469168e-06	-0.07065915	-0.02035564	-3.261163e-06	9.80262e-06	0.03952949	-0.008639123
	0.0386508	-0.01004832	-1.236025e-07	9.847633e-06	-0.06949828	-0.01687677	4.414982e-06	7.2529e-06
	3.172814e-06	8.526326e-06	0.03930692	-0.009073484	-4.451125e-06	4.758319e-06	-0.07044734	-0.02017483
4.1e+08	-0.04504373	-0.006796311	-5.029665e-07	4.563757e-06	0.0541708	-0.03451713	5.209214e-06	1.663609e-06
	2.769369e-06	4.692455e-06	-0.04598887	-0.008702908	-3.811956e-06	1.123636e-05	0.05358213	-0.03304878
	0.05256643	-0.03347901	-9.649961e-07	9.314949e-06	-0.04308822	-0.006509296	3.924921e-06	5.201223e-06
	4.525326e-06	5.61985e-06	0.05317355	-0.03331119	-5.043795e-06	6.728658e-06	-0.04560059	-0.009019749
4.2e+08	-0.0204412	-0.01312498	-1.801247e-06	4.681166e-06	0.04959675	-0.06303028	3.594212e-06	-2.894373e-07
	1.641073e-06	3.310706e-06	-0.02234572	-0.01419895	-3.897921e-06	1.312778e-05	0.04905881	-0.06180155
	0.04846283	-0.06135945	-2.394384e-06	9.719352e-06	-0.01880073	-0.01410387	2.207846e-06	3.885255e-06
	3.721826e-06	2.62545e-06	0.04859084	-0.06181885	-5.004898e-06	8.92716e-06	-0.02217039	-0.01495331
4.3e+08	-0.007402884	-0.03135998	-2.979788e-06	5.776952e-06	0.02796669	-0.08298443	1.075892e-06	-1.090086e-06
	-1.443331e-07	2.947798e-06	-0.009571404	-0.03118856	-3.180033e-06	1.524588e-05	0.02734721	-0.08187337
	0.02755566	-0.0809394	-3.624315e-06	1.131467e-05	-0.006788563	-0.03314772	-1.754912e-08	3.946171e-06
	1.176251e-06	8.934871e-07	0.02696516	-0.08166093	-4.154161e-06	1.118638e-05	-0.009869974	-0.0320528
4.4e+08	-0.009617831	-0.05086064	-3.411737e-06	7.611062e-06	-0.001272357	-0.08537116	-1.484019e-06	-3.808003e-07
	-1.801109e-06	3.755081e-06	-0.01121766	-0.04955555	-1.477776e-06	1.713733e-05	-0.001973377	-0.08422294
	-0.0008562449	-0.08330256	-3.857119e-06	1.379679e-05	-0.01029062	-0.05263624	-1.75961e-06	5.437686e-06
	-1.936008e-06	1.234979e-06	-0.002163728	-0.08387707	-2.334703e-06	1.315584e-05	-0.0119488	-0.05007288
4.5e+08	-0.02304969	-0.06155107	-2.716672e-06	9.59574e-06	-0.02512059	-0.06937663	-3.141538e-06	1.56966e-06
	-2.632324e-06	5.354265e-06	-0.02347645	-0.0597458	1.122929e-06	1.82372e-05	-0.02577805	-0.06810051
	-0.0239427	-0.06764572	-2.602861e-06	1.640347e-05	-0.02467992	-0.06250314	-2.165388e-06	7.758736e-06
	-4.174904e-06	3.541982e-06	-0.02574987	-0.06775682	4.274406e-07	1.429558e-05	-0.02425698	-0.05956661
4.6e+08	-0.03809532	-0.05860566	-9.337619e-07	1.097456e-05	-0.03298511	-0.04254315	-3.308986e-06	3.911589e-06
	-2.352987e-06	6.999813e-06	-0.03726167	-0.05720886	4.196463e-06	1.800229e-05	-0.03342962	-0.04120246
	-0.03127496	-0.04144556	8.992589e-08	1.814099e-05	-0.03988844	-0.05832246	-9.27109e-07	9.834567e-06
	-4.488693e-06	6.803905e-06	-0.03323972	-0.04098029	3.737494e-06	1.399324e-05	-0.03750813	-0.05632366
4.7e+08	-0.04418758	-0.0450488	1.392418e-06	1.111091e-05	-0.02126323	-0.01751324	-2.103348e-06	5.57537e-06
	-1.25085e-06	7.943698e-06	-0.04262197	-0.04487624	6.951696e-06	1.613659e-05	-0.02142353	-0.01632951
	-0.01936106	-0.0172093	3.511951e-06	1.814306e-05	-0.04525197	-0.0437418	1.469415e-06	1.055767e-05
	-2.723358e-06	9.570798e-06	-0.02118411	-0.01628682	6.740139e-06	1.184968e-05	-0.04181103	-0.04369948
4.8e+08	-0.0354627	-0.03080099	3.361836e-06	9.837847e-06	0.004955486	-0.006752522	-3.464405e-07	5.814399e-06
	-5.386652e-08	7.831949e-06	-0.03413941	-0.03218822	8.389079e-06	1.288175e-05	0.004929331	-0.005980779
	0.006663656	-0.007219568	6.443234e-06	1.613344e-05	-0.03524252	-0.02924918	3.841615e-06	9.362199e-06
