!$
! Info: Touchstone file created by Circ.  Input file=Tx_NPC_250mm_32AWG_BPK_700mm_27AWG_BPK_250mm_32AWG_NPC_Rx.circ
!$
# Hz S RI R 50
0	0.03036465	-1.302973e-16	2.664694e-06	2.184754e-19	0.003236754	-3.432e-15	2.267221e-07	-4.318691e-21
	2.623274e-07	-1.51192e-21	0.03005796	-2.018816e-16	-7.897945e-07	1.935384e-19	0.003126035	-4.499641e-16
	0.003230392	-9.485772e-16	7.106822e-07	2.906052e-20	0.04997517	3.361057e-15	1.405474e-06	-1.894788e-19
	1.091548e-06	-8.678845e-22	0.003224148	-2.577401e-16	-2.705858e-08	1.399409e-21	0.05440402	4.984201e-16
1e+07	0.06363648	-0.0004537574	2.946312e-06	3.391177e-09	0.0183368	0.03391821	2.491112e-07	2.466932e-07
	6.916087e-07	7.750029e-07	0.06299893	-0.001160424	-4.613689e-07	7.208515e-07	0.0195168	0.0326795
	0.01937942	0.03287366	8.381202e-07	-1.621165e-09	0.06034966	-0.0001660428	1.472574e-06	-7.645666e-08
	1.112585e-06	3.056139e-08	0.01955871	0.03268227	8.981332e-08	2.221282e-07	0.06429513	-0.002093983
2e+07	0.06977973	-0.009974619	3.144859e-06	-5.907272e-07	0.05385265	0.04556663	3.642716e-07	3.385079e-07
	1.304411e-06	8.282869e-07	0.06819475	-0.01103942	2.317141e-07	8.827601e-07	0.05387532	0.04417441
	0.05390778	0.04435926	9.848015e-07	-3.318428e-07	0.06627983	-0.009231653	1.618785e-06	-2.850315e-07
	1.125953e-06	-7.029183e-08	0.05387936	0.04412729	3.46824e-07	2.572396e-07	0.06868208	-0.01259245
3e+07	0.06846223	-0.02565633	2.568008e-06	-1.523694e-06	0.08574319	0.02727507	3.380743e-07	3.341416e-07
	1.335944e-06	3.300687e-07	0.06558036	-0.02624505	6.716298e-07	4.767025e-07	0.08475445	0.0270468
	0.08523819	0.02723537	7.286067e-07	-8.584918e-07	0.06470779	-0.02417013	1.709489e-06	-6.567688e-07
	9.503943e-07	-2.083902e-07	0.08469275	0.02695764	5.556284e-07	7.534132e-08	0.06514494	-0.02776753
4e+07	0.05613297	-0.03962999	1.041505e-06	-1.946798e-06	0.0941494	-0.007927185	1.390269e-07	4.070642e-07
	5.118854e-07	7.121221e-08	0.05236956	-0.03873245	5.236722e-07	-4.04576e-08	0.09281099	-0.007704372
	0.09356378	-0.007706292	-3.588129e-08	-1.114768e-06	0.05237158	-0.03706933	1.636542e-06	-1.141231e-06
	5.992552e-07	-1.940356e-07	0.09269255	-0.007742081	5.773205e-07	-2.296483e-07	0.05121925	-0.03968256
5e+07	0.03628131	-0.04330969	-7.710763e-07	-1.11659e-06	0.07385435	-0.03732077	-9.59824e-08	6.963969e-07
	-6.36224e-07	7.729545e-07	0.03254662	-0.04022248	-4.86654e-08	-1.25176e-07	0.07263811	-0.03659149
	0.07341396	-0.03683241	-9.501073e-07	-6.775785e-07	0.03294196	-0.03936271	1.335842e-06	-1.634086e-06
	2.468251e-07	8.550423e-08	0.07252972	-0.03655421	3.647894e-07	-4.928613e-07	0.03118582	-0.04037693
6e+07	0.01773159	-0.03261109	-1.708989e-06	9.122048e-07	0.03823552	-0.04143661	-1.468341e-07	1.177876e-06
	-1.086043e-06	2.429226e-06	0.01546678	-0.02754352	-4.729273e-07	4.164368e-07	0.03733091	-0.04012245
	0.03802542	-0.04077281	-1.350728e-06	4.409538e-07	0.01552866	-0.02740702	8.271694e-07	-2.00292e-06
	1.389118e-07	5.582075e-07	0.03725259	-0.04001115	2.575093e-08	-5.565507e-07	0.01441637	-0.02693257
7e+07	0.01125432	-0.01098347	-9.72926e-07	3.021888e-06	0.0112389	-0.01595279	1.318463e-07	1.598126e-06
	-1.450613e-07	4.065212e-06	0.01152788	-0.00492283	-2.157676e-07	1.18217e-06	0.01100168	-0.01440262
	0.01131863	-0.01528481	-7.512894e-07	1.608928e-06	0.01083325	-0.004973545	2.055614e-07	-2.176256e-06
	3.889176e-07	9.211728e-07	0.01100233	-0.01425399	-2.600549e-07	-4.046812e-07	0.01116272	-0.003920898
8e+07	0.02253879	0.01057605	9.737614e-07	3.710085e-06	0.01295042	0.02371994	5.704546e-07	1.644045e-06
	1.729792e-06	4.368122e-06	0.02561304	0.01606307	6.559886e-07	1.423677e-06	0.01339738	0.02507224
	0.01325396	0.02425003	6.019214e-07	1.925114e-06	0.02423434	0.01653923	-4.567945e-07	-2.163468e-06
	7.680164e-07	8.392297e-07	0.01348897	0.02520249	-3.861833e-07	-1.8041e-07	0.02599714	0.01695197
9e+07	0.04767261	0.01935109	2.481853e-06	2.380615e-06	0.04571274	0.05182269	7.558912e-07	1.288496e-06
	3.026669e-06	2.89103e-06	0.05274737	0.02280628	1.41056e-06	7.761206e-07	0.04659327	0.05268294
	0.0461229	0.05216491	1.738308e-06	1.016093e-06	0.05127585	0.02429262	-1.145028e-06	-1.943916e-06
	7.938887e-07	3.186253e-07	0.04675442	0.05274457	-4.214654e-07	-7.330392e-11	0.05363681	0.02317112
1e+08	0.07458186	0.008866573	1.9588e-06	4.274561e-08	0.09229364	0.04897432	4.204869e-07	8.866768e-07
	2.360091e-06	6.612715e-07	0.08015799	0.009679941	1.311468e-06	-3.289926e-07	0.09320524	0.04923727
	0.09269534	0.04914589	1.729823e-06	-5.435149e-07	0.07937163	0.0120968	-1.766366e-06	-1.44705e-06
	1.705842e-07	-2.025975e-07	0.09337874	0.04919735	-4.362361e-07	1.600967e-07	0.08112784	0.009347595
1.1e+08	0.09018608	-0.01749997	-8.468173e-07	-1.347143e-06	0.1268919	0.013868	-3.167994e-07	8.66545e-07
	-3.623477e-07	-4.882369e-07	0.09478503	-0.01893123	2.619209e-07	-1.036437e-06	0.1276013	0.01373013
	0.1272513	0.01394153	4.23758e-07	-1.670501e-06	0.09520937	-0.01616756	-2.141975e-06	-7.124178e-07
	-9.540184e-07	-2.039278e-07	0.1277303	0.01359773	-4.212707e-07	3.243034e-07	0.09537386	-0.01986371
1.2e+08	0.08693774	-0.04883642	-4.636677e-06	-2.235745e-07	0.1304809	-0.03660148	-1.080506e-06	1.429528e-06
	-3.791802e-06	8.131583e-07	0.08967782	-0.05131915	-1.162203e-06	-7.067821e-07	0.1308622	-0.03691979
	0.1307957	-0.0365716	-1.518514e-06	-1.510446e-06	0.09136105	-0.04901915	-2.175944e-06	7.576476e-08
	-2.10984e-06	5.732309e-07	0.1308948	-0.03709865	-3.632106e-07	4.644967e-07	0.0896122	-0.05248229
1.3e+08	0.06558289	-0.07210252	-7.256197e-06	3.634042e-06	0.1005109	-0.07722184	-1.446366e-06	2.497881e-06
	-5.856105e-06	4.596601e-06	0.06654643	-0.07423848	-2.059878e-06	7.290166e-07	0.1006043	-0.07749393
	0.100816	-0.07721748	-2.994942e-06	1.318416e-07	0.06899667	-0.07306605	-1.924904e-06	7.554434e-07
	-2.755201e-06	2.047191e-06	0.1005349	-0.07765296	-3.05661e-07	5.903848e-07	0.06581029	-0.0751737
1.4e+08	0.03493928	-0.07686053	-6.817285e-06	8.758795e-06	0.05237674	-0.08728599	-1.064681e-06	3.707245e-06
	-4.856248e-06	9.279179e-06	0.03507874	-0.07767883	-1.614299e-06	2.628276e-06	0.05235311	-0.08736141
	0.05269198	-0.08732627	-2.940089e-06	2.603123e-06	0.03747694	-0.07782867	-1.456038e-06	1.248539e-06
	-2.432823e-06	3.774312e-06	0.05221767	-0.08744461	-2.015033e-07	7.577623e-07	0.03393224	-0.07798987
1.5e+08	0.009804423	-0.06016576	-2.97998e-06	1.243832e-05	0.01247146	-0.06193729	9.405353e-08	4.391514e-06
	-7.012519e-07	1.216791e-05	0.01048461	-0.05961215	3.170197e-07	3.721581e-06	0.01256727	-0.06181992
	0.0127824	-0.06204698	-9.972953e-07	4.467491e-06	0.01208308	-0.06068285	-8.333311e-07	1.420081e-06
	-1.067238e-06	4.943998e-06	0.01243061	-0.06180791	6.128196e-08	8.687264e-07	0.009408437	-0.05912801
1.6e+08	0.004648263	-0.03051832	2.210558e-06	1.228558e-05	0.004153645	-0.0168735	1.389076e-06	3.944945e-06
	4.353148e-06	1.106954e-05	0.006886283	-0.02953566	2.645585e-06	2.863954e-06	0.004540309	-0.01676616
	0.00442224	-0.01705374	1.820083e-06	4.286679e-06	0.007451171	-0.03075182	-3.348383e-07	1.128812e-06
	6.474601e-07	4.788164e-06	0.004460954	-0.0166874	3.67045e-07	6.938882e-07	0.006378721	-0.02840825
1.7e+08	0.02446068	-0.005856783	5.232938e-06	8.37078e-06	0.03261014	0.01897619	1.753412e-06	2.575035e-06
	6.751302e-06	6.364589e-06	0.02831989	-0.005879698	3.513479e-06	2.849982e-07	0.03324234	0.01880031
	0.03281112	0.01876133	3.512989e-06	1.995585e-06	0.02821307	-0.006569168	-3.955112e-07	6.161132e-07
	1.477494e-06	3.416837e-06	0.03324254	0.01888608	3.383852e-07	2.981731e-07	0.02870747	-0.004570488
1.8e+08	0.05926131	-0.003027631	3.855057e-06	3.691256e-06	0.07987013	0.0217507	7.380729e-07	1.406111e-06
	4.447017e-06	1.313851e-06	0.06377579	-0.005164758	1.969826e-06	-2.19465e-06	0.08051917	0.02113552
	0.08001958	0.02154517	2.814979e-06	-7.200261e-07	0.06367052	-0.005168188	-1.006398e-06	5.121393e-07
	7.762798e-07	1.992471e-06	0.0805743	0.02117441	-9.839356e-08	1.497651e-07	0.06501786	-0.004239175
1.9e+08	0.09009138	-0.02679638	-9.491127e-07	1.854467e-06	0.1167154	-0.01158652	-9.647039e-07	1.418769e-06
	-1.285404e-06	-4.066201e-07	0.09379441	-0.03124778	-1.050826e-06	-2.736633e-06	0.1171287	-0.0126077
	0.1168628	-0.01177228	3.385942e-07	-1.913682e-06	0.09419736	-0.03092292	-1.565709e-06	1.126394e-06
	-8.875184e-07	1.659683e-06	0.1171881	-0.01263483	-5.042998e-07	5.034673e-07	0.09551095	-0.03111707
2e+08	0.10052	-0.0681352	-5.956785e-06	4.396505e-06	0.1216584	-0.06300908	-2.291904e-06	2.6316e-06
	-6.97925e-06	2.613963e-06	0.1021323	-0.07413755	-3.671999e-06	-9.438095e-07	0.1216612	-0.06427677
	0.1218444	-0.06321508	-2.206433e-06	-9.126049e-07	0.1031239	-0.07404931	-1.549647e-06	2.126178e-06
	-2.436133e-06	2.637972e-06	0.1216792	-0.0643512	-4.998153e-07	1.088355e-06	0.1037973	-0.07489184
2.1e+08	0.08397152	-0.1104098	-8.003261e-06	1.014272e-05	0.09194064	-0.1062425	-2.643955e-06	4.429437e-06
	-9.368561e-06	8.996568e-06	0.08296599	-0.1166348	-4.457392e-06	2.243366e-06	0.09148099	-0.1075638
	0.09216038	-0.1065433	-3.347488e-06	1.638644e-06	0.08418629	-0.1172018	-9.282635e-07	3.033382e-06
	-3.139885e-06	4.456129e-06	0.09144037	-0.1076453	-1.306338e-07	1.557705e-06	0.08412628	-0.118023
2.2e+08	0.04500992	-0.1366985	-5.580235e-06	1.617275e-05	0.04228795	-0.1210808	-1.903954e-06	6.133589e-06
	-6.965928e-06	1.56286e-05	0.0417006	-0.1417695	-2.902555e-06	5.3041e-06	0.04140196	-0.1222542
	0.0424694	-0.1215369	-2.390317e-06	4.42492e-06	0.04261814	-0.1430345	1.371249e-07	3.608043e-06
	-2.689191e-06	6.473966e-06	0.04131314	-0.1223067	4.581702e-07	1.809999e-06	0.04217194	-0.1433504
2.3e+08	-0.002136499	-0.1355431	5.161024e-07	1.916284e-05	-0.003717264	-0.1020175	-2.40512e-07	7.065974e-06
	-6.645592e-07	1.905439e-05	-0.006728511	-0.1385807	5.006894e-07	6.621548e-06	-0.004886863	-0.1029015
	-0.003694676	-0.1026296	4.396994e-07	5.88634e-06	-0.006518814	-0.1401759	1.539575e-06	3.641553e-06
	-1.066626e-06	7.93395e-06	-0.004997443	-0.1029078	1.243582e-06	1.749598e-06	-0.006813218	-0.1399095
2.4e+08	-0.03760696	-0.1066614	7.171313e-06	1.696947e-05	-0.02462991	-0.06025991	1.675035e-06	6.572555e-06
	6.283502e-06	1.706762e-05	-0.04222289	-0.107574	4.093502e-06	5.059582e-06	-0.0258901	-0.06083849
	-0.02488371	-0.06093366	3.737152e-06	4.774678e-06	-0.04271446	-0.1089463	2.956691e-06	2.805583e-06
	1.175448e-06	7.993761e-06	-0.02599967	-0.0608008	2.037943e-06	1.098513e-06	-0.04247654	-0.1084105
2.5e+08	-0.04471742	-0.06420347	1.013942e-05	1.039325e-05	-0.01181852	-0.01909921	2.550771e-06	4.673924e-06
	9.485605e-06	1.048905e-05	-0.04839278	-0.06361752	5.440299e-06	1.080846e-06	-0.01303293	-0.01948467
	-0.01238425	-0.01965642	5.202956e-06	1.295255e-06	-0.04916313	-0.06443518	3.627996e-06	1.114349e-06
	2.726191e-06	6.422669e-06	-0.01313159	-0.0194087	2.222714e-06	-1.622575e-07	-0.04837461	-0.06406927
2.6e+08	-0.02105578	-0.03163042	6.943405e-06	3.646387e-06	0.02428593	-0.002016695	1.430907e-06	2.693342e-06
	6.365053e-06	3.635782e-06	-0.02352836	-0.03052381	3.135478e-06	-2.724291e-06	0.02309638	-0.002366621
	0.02350527	-0.002275375	3.35771e-06	-2.261261e-06	-0.02405566	-0.03094402	2.987878e-06	-5.867975e-07
	2.438357e-06	4.335113e-06	0.02301548	-0.002251859	1.33387e-06	-1.290222e-06	-0.02299546	-0.03097954
2.7e+08	0.01771809	-0.02782509	-5.116473e-07	1.650327e-06	0.05892986	-0.01775316	-1.014371e-06	2.343269e-06
	-1.18358e-06	1.56493e-06	0.01608874	-0.02694125	-1.425925e-06	-3.416701e-06	0.05764557	-0.01812966
	0.05814529	-0.01763418	-6.681613e-07	-3.126644e-06	0.01592507	-0.02749186	1.513488e-06	-1.258943e-06
	6.712414e-07	3.408656e-06	0.05760162	-0.01797041	-1.299627e-07	-1.384349e-06	0.01700227	-0.0278728
2.8e+08	0.04739763	-0.05478427	-7.099122e-06	5.923476e-06	0.06933164	-0.05389359	-2.98312e-06	3.959987e-06
	-7.95728e-06	5.892395e-06	0.04596644	-0.05435166	-5.00288e-06	-4.206312e-07	0.06782191	-0.05423393
	0.06875757	-0.05347711	-3.940161e-06	-6.630034e-07	0.04574879	-0.05543343	2.857165e-07	-7.833932e-07
	-1.03781e-06	4.163759e-06	0.06784738	-0.05404166	-1.135325e-06	-4.406973e-07	0.04681121	-0.05598994
2.9e+08	0.04993964	-0.09774764	-8.599722e-06	1.356168e-05	0.04978501	-0.08631794	-3.335861e-06	6.389276e-06
	-9.636791e-06	1.373821e-05	0.0482026	-0.09751633	-5.324419e-06	4.197404e-06	0.04799618	-0.08646513
	0.0495284	-0.08580106	-4.357058e-06	3.302785e-06	0.04729138	-0.09899512	-1.310801e-07	1.734614e-07
	-1.629468e-06	5.755226e-06	0.04811775	-0.08627978	-1.206227e-06	8.05232e-07	0.04848507	-0.09970045
3e+08	0.02185834	-0.1347626	-4.409896e-06	1.98405e-05	0.01312226	-0.0958167	-2.202617e-06	8.342065e-06
	-5.539199e-06	2.035444e-05	0.01966678	-0.1342716	-2.396932e-06	7.707017e-06	0.01112937	-0.0955889
	0.01313688	-0.09541065	-1.901194e-06	6.30553e-06	0.01772152	-0.1354721	1.968232e-07	1.018685e-06
	-1.106868e-06	7.170732e-06	0.0113436	-0.09547119	-5.111386e-07	1.739581e-06	0.01913829	-0.1365347
3.1e+08	-0.02567317	-0.1472888	2.736947e-06	2.122157e-05	-0.01967197	-0.07839762	-2.985265e-07	9.126563e-06
	1.664207e-06	2.215803e-05	-0.02813499	-0.1461375	2.12003e-06	8.28766e-06	-0.02166384	-0.07768646
	-0.0195534	-0.07822476	1.930046e-06	6.702699e-06	-0.03082614	-0.1462423	1.050353e-06	1.400832e-06
	6.301704e-08	7.853896e-06	-0.0214042	-0.07769173	6.333171e-07	2.037774e-06	-0.02932785	-0.1479766
3.2e+08	-0.07218698	-0.1281601	8.51395e-06	1.69793e-05	-0.03184257	-0.04491189	1.518996e-06	8.51318e-06
	7.696723e-06	1.835722e-05	-0.07455115	-0.1261608	5.843362e-06	5.566855e-06	-0.03358335	-0.0437799
	-0.03182472	-0.04495297	4.964513e-06	4.170717e-06	-0.07709251	-0.1247379	2.079474e-06	1.010793e-06
	1.291055e-06	7.543827e-06	-0.0333622	-0.04392595	1.796951e-06	1.463915e-06	-0.07597966	-0.1273182
3.3e+08	-0.09701779	-0.08554097	9.10349e-06	9.623154e-06	-0.01869746	-0.01398332	2.259427e-06	6.803802e-06
	8.767051e-06	1.135612e-05	-0.09891147	-0.08273312	6.541998e-06	8.93647e-07	-0.02004216	-0.01265231
	-0.0189199	-0.01408067	5.163112e-06	-7.307471e-09	-0.1002348	-0.08011877	2.629252e-06	-1.909991e-07
	1.781513e-06	6.372333e-06	-0.01994799	-0.01289374	2.295715e-06	9.203096e-08	-0.1001053	-0.08331907
3.4e+08	-0.09021679	-0.03984445	3.497522e-06	4.005966e-06	0.01050468	-0.002257574	1.291439e-06	5.135811e-06
	3.828273e-06	5.876404e-06	-0.09136316	-0.036396	3.493586e-06	-2.878022e-06	0.009507124	-0.0009747653
	0.01004973	-0.002189044	1.925276e-06	-3.129875e-06	-0.09085951	-0.03368512	2.132864e-06	-1.605908e-06
	9.670729e-07	5.226183e-06	0.009432039	-0.001206034	1.60589e-06	-1.358074e-06	-0.09208634	-0.03681069
3.5e+08	-0.05882942	-0.01276388	-5.118251e-06	4.50221e-06	0.03720483	-0.01510515	-7.813072e-07	4.918411e-06
	-4.059554e-06	6.187659e-06	-0.05900783	-0.008872792	-1.433949e-06	-3.06291e-06	0.03636953	-0.01399593
	0.03668711	-0.0147046	-2.864457e-06	-2.700936e-06	-0.05705113	-0.007395928	7.694751e-07	-2.344406e-06
	-6.472862e-07	5.269869e-06	0.03617181	-0.01409784	2.279685e-08	-1.915236e-06	-0.05941673	-0.009542166
3.6e+08	-0.02269017	-0.01447693	-1.099522e-05	1.151577e-05	0.04448531	-0.0425151	-2.34681e-06	6.457273e-06
	-9.33185e-06	1.267407e-05	-0.02169418	-0.01038985	-4.789164e-06	5.519795e-07	0.04361606	-0.04153736
	0.04415728	-0.04177661	-5.847278e-06	1.334493e-06	-0.01958076	-0.0108739	-6.581253e-07	-2.073198e-06
	-1.680067e-06	6.674373e-06	0.04342204	-0.04145248	-1.489338e-06	-1.25258e-06	-0.0222249	-0.01146016
3.7e+08	-0.002007151	-0.03844458	-1.007915e-05	2.075568e-05	0.02854303	-0.06513447	-2.300335e-06	8.605807e-06
	-8.11262e-06	2.11409e-05	0.000385587	-0.03457862	-4.293018e-06	5.384579e-06	0.02754517	-0.06412948
	0.02860239	-0.06422854	-4.8993e-06	6.328915e-06	0.001125215	-0.03656872	-1.545818e-06	-1.168777e-06
	-1.291861e-06	8.331998e-06	0.02749561	-0.06390998	-2.18867e-06	1.424451e-07	-0.000682193	-0.03576095
3.8e+08	-0.005965647	-0.06695783	-3.022733e-06	2.641846e-05	0.001257531	-0.06754546	-9.047388e-07	9.971609e-06
	-1.157771e-06	2.597245e-05	-0.0021545	-0.06395011	-4.560441e-07	8.200146e-06	0.0001905781	-0.06632148
	0.001742986	-0.06673157	-6.765776e-07	9.081608e-06	-0.003573275	-0.06595838	-1.793461e-06	-1.21884e-07
	7.602941e-08	9.038899e-06	0.000352159	-0.06611049	-1.924669e-06	1.582217e-06	-0.003798302	-0.06468661
3.9e+08	-0.02906035	-0.08199625	5.53386e-06	2.519329e-05	-0.01841294	-0.0484039	7.972786e-07	9.958628e-06
	6.908915e-06	2.408679e-05	-0.02421139	-0.08056279	4.159435e-06	7.297536e-06	-0.01933004	-0.04686642
	-0.01763388	-0.04790066	4.172712e-06	7.986125e-06	-0.02725644	-0.08088818	-1.522505e-06	7.326028e-07
	1.350648e-06	8.445104e-06	-0.01901033	-0.0468206	-9.084822e-07	2.522738e-06	-0.02598562	-0.08039989
4e+08	-0.05534666	-0.07500469	1.006918e-05	1.814566e-05	-0.01691269	-0.02043974	1.779267e-06	8.80779e-06
	1.071849e-05	1.67443e-05	-0.0503079	-0.07563284	6.632577e-06	3.260902e-06	-0.01742342	-0.01871334
	-0.01606923	-0.02032881	6.70669e-06	3.733433e-06	-0.05331215	-0.07338686	-9.919823e-07	1.161219e-06
	1.613307e-06	7.000912e-06	-0.01709752	-0.0189162	3.803871e-07	2.607984e-06	-0.05150592	-0.07458036
4.1e+08	-0.06805007	-0.05137981	7.455159e-06	1.004395e-05	0.00594379	-0.002126728	1.41558e-06	7.371e-06
	7.39645e-06	8.785039e-06	-0.06391902	-0.05396181	5.255926e-06	-1.386971e-06	0.005939143	-0.0005229897
	0.006640886	-0.002331847	5.246443e-06	-1.058457e-06	-0.06496565	-0.04970019	-5.879643e-07	1.189662e-06
	4.31163e-07	5.675901e-06	0.006094931	-0.0009323006	1.281113e-06	1.902001e-06	-0.0640061	-0.05258395
4.2e+08	-0.05990777	-0.02674774	-9.53266e-07	6.662599e-06	0.03691899	-0.006695363	-1.060158e-07	6.811845e-06
	-1.442389e-06	5.88094e-06	-0.05760181	-0.03049372	7.388493e-07	-3.496591e-06	0.03725178	-0.005524546
	0.03736905	-0.007039817	5.696558e-07	-3.167696e-06	-0.05563359	-0.02603547	-4.770447e-07	1.165511e-06
	-1.781016e-06	5.637188e-06	0.03712857	-0.0059863	1.421799e-06	9.713508e-07	-0.05660112	-0.02961036
4.3e+08	-0.03764218	-0.01648912	-9.711356e-06	1.100599e-05	0.05671567	-0.03388497	-1.632975e-06	7.764559e-06
	-1.021606e-05	1.078275e-05	-0.03740299	-0.02013167	-3.906907e-06	-1.476779e-06	0.05705549	-0.03325666
	0.05696039	-0.03419478	-4.204016e-06	-9.712492e-07	-0.03293924	-0.01760626	-4.083389e-07	1.324298e-06
	-3.667931e-06	7.404771e-06	0.05667497	-0.03357744	1.023678e-06	3.649832e-07	-0.03594762	-0.02032784
4.4e+08	-0.01665484	-0.02541608	-1.278832e-05	2.086327e-05	0.05176889	-0.06911567	-1.935805e-06	9.600567e-06
	-1.295352e-05	2.099734e-05	-0.017829	-0.02778593	-5.492299e-06	3.300047e-06	0.05181248	-0.06890607
	0.05194179	-0.06931241	-5.762628e-06	4.117852e-06	-0.01276069	-0.02839843	-1.551965e-07	1.475014e-06
	-3.882115e-06	1.013636e-05	0.05132083	-0.06895454	4.920379e-07	1.665766e-07	-0.01680357	-0.02899859
4.5e+08	-0.01007335	-0.04545564	-7.882984e-06	3.018921e-05	0.02337332	-0.09210385	-8.654527e-07	1.099082e-05
	-7.576851e-06	3.030607e-05	-0.0113623	-0.04610432	-3.096794e-06	7.578135e-06	0.02297273	-0.09204562
	0.02360243	-0.09223046	-3.101519e-06	8.723861e-06	-0.007905846	-0.04940937	1.163726e-07	1.402738e-06
	-2.292494e-06	1.224992e-05	0.02256331	-0.09182094	-2.20474e-08	2.682166e-07	-0.01132679	-0.04760823
4.6e+08	-0.02048142	-0.06195605	2.108786e-06	3.329214e-05	-0.01281617	-0.08964884	6.944376e-07	1.112267e-05
	2.74014e-06	3.302403e-05	-0.02058425	-0.06145814	1.53946e-06	8.676937e-06	-0.01360428	-0.08945933
	-0.01248951	-0.08982258	2.033447e-06	1.000317e-05	-0.02001944	-0.06560965	1.963806e-07	1.232029e-06
	6.274087e-08	1.27266e-05	-0.01379138	-0.08908488	-4.121893e-07	6.818055e-07	-0.02136556	-0.06231972
4.7e+08	-0.03872103	-0.06330185	1.115111e-05	2.832899e-05	-0.03644465	-0.06370317	1.707185e-06	1.008189e-05
	1.175066e-05	2.748223e-05	-0.03706358	-0.06304471	5.429034e-06	5.994229e-06	-0.03738438	-0.06322892
	-0.03608159	-0.06402523	6.548249e-06	7.212591e-06	-0.03903297	-0.06584223	1.297741e-07	1.137123e-06
	1.899417e-06	1.155925e-05	-0.03732838	-0.06287965	-4.4755e-07	1.296448e-06	-0.03778382	-0.06273821
4.8e+08	-0.0494788	-0.04861567	1.360213e-05	1.827569e-05	-0.03430628	-0.0299816	1.473219e-06	8.545981e-06
	1.374676e-05	1.69299e-05	-0.04663603	-0.05011741	5.977167e-06	1.165818e-06	-0.03513522	-0.02931782
	-0.03402336	-0.03047384	7.661147e-06	1.923958e-06	-0.04934006	-0.05024876	-2.114274e-08	1.138283e-06
