!$
! Info: Touchstone file created by Circ.  Input file=Tx_NPC_250mm_32AWG_BPK_300mm_27AWG_BPK_250mm_32AWG_NPC_Rx.circ
!$
# Hz S RI R 50
0	0.0188774	-1.218917e-16	2.642302e-06	2.221074e-19	0.002869495	-3.434904e-15	2.440666e-07	-4.239868e-21
	2.75921e-07	-1.543734e-21	0.01857136	-2.084274e-16	-7.64642e-07	1.931397e-19	0.002762973	-4.555383e-16
	0.002897891	-9.648664e-16	6.97558e-07	3.657495e-20	0.03885398	3.440073e-15	1.404226e-06	-1.861031e-19
	1.130304e-06	-1.020987e-21	0.002868009	-2.609257e-16	-3.773185e-08	1.79952e-21	0.04331838	4.687244e-16
1e+07	0.05198482	0.004448134	2.887152e-06	1.128136e-07	0.01148238	0.02749349	2.458399e-07	2.382634e-07
	6.035572e-07	7.381714e-07	0.05160926	0.004229019	-5.564447e-07	6.088483e-07	0.01291265	0.02663516
	0.01279973	0.02675925	8.106764e-07	7.895281e-08	0.04880466	0.004992084	1.405241e-06	-1.851535e-07
	1.138849e-06	1.946395e-08	0.0129575	0.02665096	2.130669e-08	1.559501e-07	0.05309273	0.00356197
2e+07	0.06006929	0.002627297	3.196243e-06	-1.885759e-07	0.03500925	0.04528044	3.566319e-07	3.71407e-07
	1.155655e-06	1.015003e-06	0.05946879	0.002147832	-4.041849e-08	9.08073e-07	0.03569846	0.04424576
	0.0356623	0.04432925	1.03986e-06	-7.556263e-08	0.05702496	0.003733073	1.403208e-06	-4.024047e-07
	1.164295e-06	-5.823829e-08	0.03573055	0.04421269	1.682323e-07	2.292129e-07	0.06053287	0.00088444
3e+07	0.06707138	-0.005333633	3.172869e-06	-9.320163e-07	0.06442202	0.04630246	4.042994e-07	3.984751e-07
	1.521861e-06	7.711833e-07	0.06596894	-0.005934378	4.719019e-07	8.024614e-07	0.06397313	0.0460633
	0.06416415	0.04617837	1.122469e-06	-4.965353e-07	0.06420171	-0.003710787	1.356288e-06	-6.55278e-07
	1.070397e-06	-2.10355e-07	0.06399636	0.04596375	3.264514e-07	1.933806e-07	0.06645784	-0.007515216
4e+07	0.0696282	-0.01765665	2.475296e-06	-1.815462e-06	0.08957158	0.03100578	3.229127e-07	3.927246e-07
	1.340453e-06	2.763277e-07	0.06790278	-0.01801543	7.185906e-07	4.092879e-07	0.08886124	0.03086458
	0.08920612	0.03097179	8.568189e-07	-1.025764e-06	0.06701172	-0.0155194	1.239197e-06	-9.23825e-07
	8.02701e-07	-3.390264e-07	0.0888413	0.03075816	4.331464e-07	6.449146e-08	0.06774552	-0.01962407
5e+07	0.06592991	-0.03090841	1.032667e-06	-2.349936e-06	0.1022864	0.004542868	1.129216e-07	4.568032e-07
	5.132723e-07	-2.165196e-08	0.06356859	-0.03059647	5.748461e-07	-2.037369e-08	0.1014612	0.004584174
	0.1018862	0.004678696	1.908275e-07	-1.396192e-06	0.06360536	-0.02817862	1.042193e-06	-1.182988e-06
	3.835261e-07	-3.367713e-07	0.1014114	0.004506844	4.440146e-07	-1.189109e-07	0.06285158	-0.03203487
6e+07	0.05595126	-0.041796	-8.888656e-07	-2.054697e-06	0.09864073	-0.02460636	-1.703686e-07	6.694817e-07
	-7.327912e-07	3.248349e-07	0.05329269	-0.04044692	1.045077e-07	-2.093668e-07	0.0976769	-0.02429124
	0.09826071	-0.02430808	-7.408739e-07	-1.340375e-06	0.0540654	-0.03851862	7.636622e-07	-1.40132e-06
	-1.008899e-07	-1.136186e-07	0.09758816	-0.0243437	3.439816e-07	-2.908908e-07	0.05215241	-0.0414848
7e+07	0.04169021	-0.04688817	-2.715883e-06	-6.804235e-07	0.07975792	-0.04672543	-4.109745e-07	1.07402e-06
	-1.886691e-06	1.542666e-06	0.0392175	-0.04423589	-4.552068e-07	3.099742e-08	0.07882869	-0.04607605
	0.07948526	-0.04628239	-1.637008e-06	-7.05827e-07	0.04041041	-0.04303126	4.13233e-07	-1.549328e-06
	-5.134761e-07	3.579579e-07	0.07872443	-0.04608484	1.450583e-07	-3.94695e-07	0.03785395	-0.04477594
8e+07	0.0264739	-0.04429665	-3.766766e-06	1.618061e-06	0.05196337	-0.0543775	-4.746868e-07	1.628633e-06
	-2.338149e-06	3.474916e-06	0.02481782	-0.04034067	-7.704781e-07	6.926042e-07	0.05123816	-0.05339879
	0.05185291	-0.05384457	-2.116051e-06	4.43631e-07	0.02602528	-0.03992374	2.314833e-08	-1.596782e-06
	-6.978106e-07	1.01781e-06	0.05113803	-0.05335748	-9.385069e-08	-3.773507e-07	0.0234337	-0.04036369
9e+07	0.01452793	-0.03391811	-3.530727e-06	4.238391e-06	0.02484104	-0.04466417	-2.61759e-07	2.193137e-06
	-1.653917e-06	5.549163e-06	0.01432614	-0.02900462	-5.602343e-07	1.525774e-06	0.02447488	-0.0434297
	0.02491225	-0.04411022	-1.872087e-06	1.785831e-06	0.01514928	-0.02921633	-3.582735e-07	-1.543678e-06
	-5.451073e-07	1.696091e-06	0.02440023	-0.0433406	-2.880394e-07	-2.403184e-07	0.01310946	-0.02855452
1e+08	0.01001315	-0.0179969	-1.967475e-06	6.295255e-06	0.008310136	-0.02046303	2.13591e-07	2.556216e-06
	1.42139e-07	6.948536e-06	0.01172061	-0.01277169	2.29969e-07	2.10772e-06	0.008418539	-0.01919527
	0.00855424	-0.0199694	-8.567844e-07	2.817083e-06	0.01191329	-0.01326098	-7.023706e-07	-1.429027e-06
	-7.914184e-08	2.152432e-06	0.008394234	-0.01907726	-3.798411e-07	-4.702108e-08	0.01082519	-0.0119461
1.1e+08	0.01541506	-0.0009652987	3.4759e-07	7.014177e-06	0.009145926	0.009977031	7.734371e-07	2.550922e-06
	2.443042e-06	6.989167e-06	0.01914764	0.003739719	1.325062e-06	2.043806e-06	0.009709642	0.0111137
	0.009520013	0.01036897	6.16423e-07	3.070335e-06	0.01868252	0.003385896	-1.027227e-06	-1.295771e-06
	5.015164e-07	2.192641e-06	0.009746617	0.01124025	-3.7366e-07	1.06262e-07	0.01867345	0.004783878
1.2e+08	0.03058323	0.01168398	2.408523e-06	6.11467e-06	0.02843701	0.03588047	1.137796e-06	2.160801e-06
	4.263027e-06	5.49548e-06	0.03604632	0.0150133	2.214023e-06	1.213443e-06	0.02935756	0.03669058
	0.0288853	0.0361375	1.9651e-06	2.372547e-06	0.0351399	0.01518017	-1.396431e-06	-1.131714e-06
	8.809174e-07	1.795917e-06	0.02945502	0.03679046	-3.570024e-07	1.86792e-07	0.03603495	0.01611444
1.3e+08	0.05231863	0.01524936	3.209387e-06	4.042394e-06	0.06095226	0.04755599	1.073826e-06	1.581788e-06
	4.658824e-06	2.99102e-06	0.05886146	0.016563	2.401354e-06	-1.183218e-07	0.06207136	0.04793526
	0.06142396	0.04768226	2.607807e-06	9.745976e-07	0.05790236	0.01744756	-1.830414e-06	-8.534981e-07
	7.922735e-07	1.169035e-06	0.06221227	0.04798133	-3.997651e-07	2.399618e-07	0.05929038	0.0175644
1.4e+08	0.07540798	0.007300619	2.219599e-06	1.799612e-06	0.09700461	0.03984571	5.343191e-07	1.121694e-06
	3.189257e-06	5.154979e-07	0.08215706	0.006303705	1.676111e-06	-1.412077e-06	0.09815711	0.0397731
	0.09746788	0.03986291	2.250046e-06	-5.585016e-07	0.08158569	0.007863188	-2.257423e-06	-3.710006e-07
	1.643542e-07	6.501828e-07	0.09831241	0.03974919	-4.959663e-07	3.510422e-07	0.08295884	0.007072411
1.5e+08	0.09417804	-0.01168648	-3.78164e-07	5.201721e-07	0.1258381	0.01367503	-3.263706e-07	1.041613e-06
	1.275179e-07	-8.065522e-07	0.1002027	-0.01488485	2.102499e-07	-2.115739e-06	0.1268539	0.01318423
	0.1262749	0.01360565	1.000658e-06	-1.614881e-06	0.1003915	-0.01292553	-2.540894e-06	3.273266e-07
	-8.51844e-07	5.409083e-07	0.1269878	0.01308936	-5.669582e-07	5.607368e-07	0.1012884	-0.01445081
1.6e+08	0.1039297	-0.03864411	-3.767962e-06	1.021173e-06	0.138964	-0.02460621	-1.245809e-06	1.451534e-06
	-3.647493e-06	-2.012668e-07	0.1085003	-0.04357619	-1.546769e-06	-1.889373e-06	0.1397558	-0.02543385
	0.1393814	-0.02474847	-7.170616e-07	-1.776548e-06	0.1095996	-0.04164426	-2.568992e-06	1.151284e-06
	-1.980766e-06	9.898301e-07	0.1398392	-0.02558256	-5.494042e-07	8.286136e-07	0.109728	-0.04353956
1.7e+08	0.1019033	-0.06886535	-6.81755e-06	3.533108e-06	0.1325604	-0.06544395	-1.970992e-06	2.309629e-06
	-6.966211e-06	2.500402e-06	0.1045176	-0.07480625	-3.044208e-06	-6.952243e-07	0.1330378	-0.06651032
	0.1329594	-0.06565962	-2.345889e-06	-9.245471e-07	0.106469	-0.07336905	-2.311742e-06	1.974177e-06
	-2.933342e-06	1.983956e-06	0.1330511	-0.06668454	-4.245957e-07	1.092729e-06	0.1057574	-0.07518284
1.8e+08	0.08755262	-0.09689434	-8.422082e-06	7.636499e-06	0.1080667	-0.09889399	-2.311017e-06	3.477198e-06
	-8.721145e-06	6.819346e-06	0.0880789	-0.103024	-3.791518e-06	1.228282e-06	0.1081898	-0.1000897
	0.1084431	-0.09919729	-3.353365e-06	7.702679e-07	0.0905856	-0.1024623	-1.804707e-06	2.699571e-06
	-3.474483e-06	3.397734e-06	0.1081302	-0.100256	-2.223609e-07	1.320469e-06	0.08919577	-0.1037811
1.9e+08	0.06268545	-0.1173978	-7.825117e-06	1.236403e-05	0.07154962	-0.1171821	-2.140528e-06	4.757566e-06
	-8.174946e-06	1.173933e-05	0.06133185	-0.1229553	-3.454057e-06	3.42208e-06	0.0713163	-0.1183964
	0.07188183	-0.1175922	-3.339353e-06	2.892742e-06	0.06394022	-0.1234574	-1.085117e-06	3.276912e-06
	-3.428066e-06	5.027803e-06	0.07119666	-0.1185254	5.107095e-08	1.517571e-06	0.06221201	-0.1240091
2e+08	0.03143006	-0.1260431	-4.863059e-06	1.641691e-05	0.03202361	-0.1165571	-1.405335e-06	5.893283e-06
	-5.197706e-06	1.592782e-05	0.02867291	-0.130434	-1.943324e-06	5.266678e-06	0.03146767	-0.1176728
	0.03226962	-0.1170808	-2.135885e-06	4.836848e-06	0.0308852	-0.1319547	-1.610236e-07	3.648627e-06
	-2.691632e-06	6.586808e-06	0.03131087	-0.1177455	4.372467e-07	1.66489e-06	0.02924993	-0.1316731
2.1e+08	-0.0001542431	-0.1205555	-1.218447e-07	1.848747e-05	-0.000822901	-0.09815528	-1.808339e-07	6.565608e-06
	-4.170811e-07	1.806659e-05	-0.00367227	-0.1235154	4.771685e-07	6.096774e-06	-0.001619392	-0.09910874
	-0.0007190484	-0.09878204	7.376605e-08	5.910453e-06	-0.00226187	-0.1257493	9.415854e-07	3.698441e-06
	-1.302247e-06	7.707303e-06	-0.001785487	-0.09912112	9.682523e-07	1.670014e-06	-0.003422924	-0.1247978
2.2e+08	-0.02500828	-0.1019072	5.073489e-06	1.770835e-05	-0.01907723	-0.06789438	1.242926e-06	6.476148e-06
	4.802128e-06	1.729274e-05	-0.02864285	-0.1034422	3.127908e-06	5.414014e-06	-0.02001652	-0.06865252
	-0.0191701	-0.06857592	2.67393e-06	5.555394e-06	-0.02823914	-0.105938	2.085677e-06	3.274709e-06
	4.648319e-07	8.019243e-06	-0.02017045	-0.06861209	1.570227e-06	1.37398e-06	-0.02867665	-0.1046424
2.3e+08	-0.03700944	-0.0747847	8.961984e-06	1.4103e-05	-0.0189013	-0.03502692	2.356746e-06	5.532492e-06
	8.668308e-06	1.365602e-05	-0.04025614	-0.07518756	5.026738e-06	3.200676e-06	-0.01990038	-0.03562238
	-0.01922454	-0.03568417	4.710682e-06	3.662646e-06	-0.04079311	-0.07746067	2.986148e-06	2.322771e-06
	2.0845e-06	7.351784e-06	-0.02002988	-0.03554331	2.012039e-06	6.974102e-07	-0.04047733	-0.0762057
2.4e+08	-0.03315111	-0.04690908	9.986321e-06	8.824402e-06	-0.001946624	-0.00962432	2.619652e-06	4.028101e-06
	9.611771e-06	8.345985e-06	-0.03575093	-0.04661886	5.26871e-06	1.20619e-07	-0.002970996	-0.01012291
	-0.002492766	-0.01015913	5.257434e-06	7.977514e-07	-0.03692619	-0.0483177	3.321897e-06	1.020979e-06
	2.960504e-06	5.926464e-06	-0.003073898	-0.01001781	2.010708e-06	-2.246103e-07	-0.03602493	-0.04741219
2.5e+08	-0.01509873	-0.02683852	7.557624e-06	3.874532e-06	0.02483419	0.0006655868	1.786807e-06	2.611511e-06
	7.051994e-06	3.400752e-06	-0.01704032	-0.02628313	3.537078e-06	-2.628266e-06	0.02377076	0.000206509
	0.02412511	0.0003450882	3.926299e-06	-1.918517e-06	-0.01845072	-0.02729521	2.95421e-06	-2.326953e-07
	2.75733e-06	4.349874e-06	0.02369249	0.0003331769	1.443422e-06	-1.044974e-06	-0.01723188	-0.02689218
2.6e+08	0.01100648	-0.02097716	2.473799e-06	1.282881e-06	0.05142914	-0.006618166	1.240001e-07	1.96858e-06
	1.816313e-06	8.759539e-07	0.009514401	-0.02046482	3.881067e-07	-3.857715e-06	0.05026458	-0.007064397
	0.05065651	-0.006667879	1.166949e-06	-3.327278e-06	0.008227336	-0.02092978	2.059677e-06	-1.036484e-06
	1.636709e-06	3.310396e-06	0.05021177	-0.006915387	4.854735e-07	-1.406831e-06	0.009504054	-0.020985
2.7e+08	0.03648779	-0.03149302	-3.357561e-06	2.171632e-06	0.06829938	-0.02789917	-1.714437e-06	2.431549e-06
	-4.155083e-06	1.897415e-06	0.03518269	-0.03113027	-2.980116e-06	-2.999184e-06	0.06697523	-0.02830968
	0.06758369	-0.02767704	-1.925565e-06	-2.830743e-06	0.03418253	-0.03132988	1.020757e-06	-1.21935e-06
	1.5709e-07	3.196737e-06	0.06695793	-0.02813513	-4.974608e-07	-1.177426e-06	0.03537848	-0.03170743
2.8e+08	0.05300484	-0.05568483	-7.775924e-06	6.273446e-06	0.06983761	-0.05506986	-3.060215e-06	3.834041e-06
	-8.672061e-06	6.184928e-06	0.05165415	-0.05540443	-5.310549e-06	-3.489063e-07	0.06830777	-0.05538086
	0.06928466	-0.05463172	-4.168353e-06	-6.481173e-07	0.05088184	-0.05562193	1.859526e-07	-8.914858e-07
	-1.07136e-06	3.933955e-06	0.06834336	-0.05518564	-1.177326e-06	-4.922877e-07	0.05199759	-0.05616887
2.9e+08	0.05487082	-0.08714967	-9.254705e-06	1.214406e-05	0.05598635	-0.07869705	-3.543429e-06	5.689965e-06
	-1.01934e-05	1.227146e-05	0.05336105	-0.0867779	-5.820712e-06	3.162309e-06	0.05424098	-0.07881423
	0.05566158	-0.07814054	-4.8034e-06	2.388012e-06	0.05259413	-0.0871617	-2.81258e-07	-2.912936e-07
	-1.689222e-06	5.142343e-06	0.05434791	-0.0786163	-1.412828e-06	3.916624e-07	0.05373352	-0.08780891
3e+08	0.04029931	-0.1176892	-7.386791e-06	1.781351e-05	0.03167861	-0.09131265	-3.145906e-06	7.482362e-06
	-8.311742e-06	1.816665e-05	0.03865799	-0.1170404	-4.393883e-06	6.412229e-06	0.0297611	-0.09113227
	0.03159292	-0.09075236	-3.691034e-06	5.246319e-06	0.03763738	-0.117527	-3.681064e-07	3.719018e-07
	-1.641566e-06	6.401447e-06	0.02994966	-0.09096379	-1.214983e-06	1.250632e-06	0.03891239	-0.118339
3.1e+08	0.0116813	-0.1393254	-2.890979e-06	2.148512e-05	0.004687353	-0.0895725	-2.068427e-06	8.831466e-06
	-3.749821e-06	2.206026e-05	0.01003797	-0.1382701	-1.484036e-06	8.444577e-06	0.002699358	-0.08900379
	0.004797147	-0.08910847	-1.228392e-06	7.038267e-06	0.008595898	-0.1386179	-1.153657e-07	9.474562e-07
	-1.061776e-06	7.398177e-06	0.002961844	-0.0889047	-6.491841e-07	1.923668e-06	0.01006033	-0.1397619
3.2e+08	-0.02509057	-0.1461305	2.701777e-06	2.204653e-05	-0.01706825	-0.07469354	-6.037316e-07	9.504668e-06
	1.956229e-06	2.283614e-05	-0.02655645	-0.1446431	2.07384e-06	8.66869e-06	-0.01897283	-0.07370445
	-0.01684732	-0.07439121	1.82191e-06	7.205149e-06	-0.02838149	-0.1445174	4.207353e-07	1.297696e-06
	-1.555227e-07	7.93178e-06	-0.0186662	-0.07371281	1.953061e-07	2.267426e-06	-0.0268348	-0.1462129
3.3e+08	-0.06181221	-0.1357363	7.49573e-06	1.935348e-05	-0.02774253	-0.0516679	8.952633e-07	9.386152e-06
	6.914684e-06	2.034674e-05	-0.06294236	-0.1338881	5.24561e-06	6.962324e-06	-0.02939541	-0.05030937
	-0.02751267	-0.05154044	4.499141e-06	5.62697e-06	-0.06488736	-0.1329994	1.112915e-06	1.277608e-06
	8.080447e-07	7.881321e-06	-0.0290955	-0.05044762	1.1562e-06	2.142447e-06	-0.06351989	-0.1354069
3.4e+08	-0.08998798	-0.110168	9.748482e-06	1.430826e-05	-0.02497659	-0.0275614	2.009911e-06	8.518994e-06
	9.39289e-06	1.548551e-05	-0.09069324	-0.1080917	7.012653e-06	3.758266e-06	-0.02624906	-0.02597192
	-0.02483037	-0.02756812	5.84752e-06	2.712776e-06	-0.09231998	-0.1063337	1.726948e-06	8.098921e-07
	1.481736e-06	7.25508e-06	-0.02601859	-0.02623528	1.963667e-06	1.491388e-06	-0.09151215	-0.1094559
3.5e+08	-0.1031875	-0.07559982	8.42161e-06	8.705103e-06	-0.01036374	-0.009547838	2.340214e-06	7.198919e-06
	8.362374e-06	1.002663e-05	-0.1034606	-0.07342839	6.683076e-06	4.313015e-08	-0.01121553	-0.007918627
	-0.01035846	-0.009605431	5.220993e-06	-5.915201e-07	-0.1042848	-0.07097613	1.98178e-06	-1.226962e-08
	1.51549e-06	6.291947e-06	-0.01111315	-0.008268574	2.308066e-06	4.43886e-07	-0.104436	-0.07457911
3.6e+08	-0.09908583	-0.04079164	3.659961e-06	4.760799e-06	0.01095103	-0.002943267	1.710055e-06	5.975603e-06
	3.968851e-06	6.152547e-06	-0.09898739	-0.03860812	4.238429e-06	-2.866304e-06	0.01045662	-0.00145771
	0.01081428	-0.002949091	2.629893e-06	-3.019624e-06	-0.09865435	-0.03590937	1.70018e-06	-9.021441e-07
	7.561802e-07	5.475947e-06	0.01039541	-0.001826294	2.002587e-06	-6.653398e-07	-0.1000268	-0.0395414
3.7e+08	-0.08036845	-0.01436633	-3.039249e-06	4.321109e-06	0.0317085	-0.009507117	3.562607e-07	5.445509e-06
	-2.30835e-06	5.670924e-06	-0.07994761	-0.01216733	5.04182e-07	-3.81975e-06	0.03142714	-0.008283836
	0.03148555	-0.00937209	-1.091927e-06	-3.473351e-06	-0.07839148	-0.009858414	9.45388e-07	-1.51571e-06
	-5.634349e-07	5.334442e-06	0.03120637	-0.008588131	1.121072e-06	-1.437864e-06	-0.08099266	-0.01291305
3.8e+08	-0.05384417	-0.002067072	-9.243269e-06	8.023566e-06	0.04472702	-0.02667751	-1.117486e-06	5.916821e-06
	-8.076673e-06	9.184622e-06	-0.05308274	0.0002060036	-3.099044e-06	-2.39158e-06	0.0444848	-0.02574173
	0.04451813	-0.02635666	-4.530525e-06	-1.576866e-06	-0.05061201	0.001505304	-1.136244e-08	-1.643974e-06
	-1.868549e-06	6.118735e-06	0.04415271	-0.02590856	-2.64695e-08	-1.619146e-06	-0.0541173	-0.0003929214
3.9e+08	-0.0280784	-0.004957474	-1.253462e-05	1.487936e-05	0.04546176	-0.04821839	-2.054436e-06	7.211349e-06
	-1.09783e-05	1.568881e-05	-0.02684642	-0.002568305	-5.17074e-06	8.621231e-07	0.04510716	-0.04750541
	0.04538002	-0.04772916	-6.305669e-06	2.071511e-06	-0.02409357	-0.002662882	-8.643664e-07	-1.312299e-06
	-2.54881e-06	7.611581e-06	0.04474593	-0.04749555	-1.0747e-06	-1.209334e-06	-0.02788964	-0.003034231
4e+08	-0.01049059	-0.01939629	-1.155064e-05	2.260773e-05	0.03373828	-0.0663898	-2.101642e-06	8.783431e-06
	-9.719146e-06	2.291492e-05	-0.008560336	-0.01696767	-4.961607e-06	4.658589e-06	0.03318196	-0.06577178
	0.03387327	-0.06580933	-5.697009e-06	6.156605e-06	-0.006315342	-0.01843391	-1.437572e-06	-6.977296e-07
	-2.305642e-06	9.250837e-06	0.03288452	-0.06559501	-1.777829e-06	-3.905831e-07	-0.00963935	-0.01725424
4.1e+08	-0.005100464	-0.03860114	-6.54051e-06	2.856629e-05	0.01381833	-0.0747461	-1.336743e-06	1.00444e-05
	-4.613185e-06	2.826266e-05	-0.002255756	-0.03637562	-2.637185e-06	7.575549e-06	0.01305449	-0.07406752
	0.01420792	-0.07419103	-2.905376e-06	9.232176e-06	-0.001195429	-0.03875466	-1.698227e-06	2.025622e-08
	-1.267248e-06	1.045222e-05	0.01289509	-0.07378059	-2.039145e-06	6.14038e-07	-0.003349585	-0.03639647
4.2e+08	-0.01152572	-0.05501861	7.789502e-07	3.07594e-05	-0.007196724	-0.07048192	-1.337463e-07	1.062151e-05
	2.577727e-06	2.980878e-05	-0.007658708	-0.05343609	8.8439e-07	8.594465e-06	-0.008078756	-0.06961081
	-0.006578612	-0.07007277	1.113667e-06	1.026573e-05	-0.008126267	-0.05593897	-1.680987e-06	7.151888e-07
	1.48631e-07	1.086312e-05	-0.00806621	-0.06930138	-1.854592e-06	1.608225e-06	-0.00866198	-0.05308779
4.3e+08	-0.02537642	-0.06277604	7.889639e-06	2.851183e-05	-0.02193973	-0.05521051	1.047081e-06	1.042289e-05
	9.321002e-06	2.696859e-05	-0.02062076	-0.06237412	4.31963e-06	7.387706e-06	-0.02277833	-0.05409107
	-0.02117519	-0.05504013	5.034719e-06	8.92289e-06	-0.02247759	-0.0641188	-1.437356e-06	1.29175e-06
	1.449502e-06	1.042127e-05	-0.02261062	-0.05385057	-1.274888e-06	2.407674e-06	-0.02134006	-0.06161236
4.4e+08	-0.03977966	-0.05954893	1.231324e-05	2.264767e-05	-0.02518721	-0.03431075	1.787888e-06	9.587335e-06
	1.316379e-05	2.066267e-05	-0.03456505	-0.0608323	6.416599e-06	4.367389e-06	-0.02580347	-0.03300491
	-0.02439107	-0.03442054	7.560167e-06	5.619054e-06	-0.03719985	-0.06111892	-1.060542e-06	1.670622e-06
	2.194255e-06	9.301856e-06	-0.02554198	-0.03290182	-4.369469e-07	2.849388e-06	-0.03475749	-0.05973035
4.5e+08	-0.047721	-0.04743663	1.239315e-05	1.525014e-05	-0.01545032	-0.01516653	1.779575e-06	8.448194e-06
	1.251789e-05	1.305803e-05	-0.04276142	-0.0507224	6.317367e-06	5.87395e-07	-0.01573106	-0.01385366
	-0.01473932	-0.01553884	7.782747e-06	1.425167e-06	-0.04524451	-0.04926543	-6.924183e-07	1.842712e-06
	2.059771e-06	7.881748e-06	-0.01546323	-0.01391424	4.353654e-07	2.867388e-06	-0.04220968	-0.04949735
4.6e+08	-0.04465291	-0.0324297	7.892888e-06	9.067664e-06	0.004535471	-0.004947404	9.269557e-07	7.502062e-06
	7.248955e-06	6.952262e-06	-0.04081791	-0.03766862	3.889639e-06	-2.519412e-06	0.004573635	-0.003861024
	0.005071388	-0.005514937	5.521637e-06	-2.186803e-06	-0.04217206	-0.03473489	-4.426739e-07	1.914427e-06
	9.487921e-07	6.708717e-06	0.00476092	-0.004061294	1.123354e-06	2.552325e-06	-0.03942638	-0.03666985
4.7e+08	-0.03046797	-0.02234461	2.351009e-07	6.611346e-06	0.02839741	-0.008401972	-5.210413e-07	7.266034e-06
	-1.098368e-06	4.857008e-06	-0.02862152	-0.02907505	-8.512961e-08	-3.625246e-06	0.02858617	-0.007739752
	0.02871565	-0.009070441	1.523976e-06	-3.827043e-06	-0.02812215	-0.02543405	-2.834997e-07	2.046288e-06
	-8.710438e-07	6.35817e-06	0.02863222	-0.008014307	1.54898e-06	2.105987e-06	-0.02647912	-0.02869979
4.8e+08	-0.009961831	-0.02380938	-7.838454e-06	9.140109e-06	0.04788668	-0.0260968	-1.983352e-06	7.993522e-06
	-9.672407e-06	7.974546e-06	-0.01071199	-0.03115963	-4.094122e-06	-2.123533e-06	0.04796155	-0.02593166
	0.04799546	-0.02677433	-2.7017e-06	-2.807043e-06	-0.008148514	-0.0278842	-4.57618e-08	2.291199e-06
