!$
! Info: Touchstone file created by Circ.  Input file=Tx_NPC_250mm_32AWG_BPK_1200mm_27AWG_BPK_250mm_32AWG_NPC_Rx.circ
!$
# Hz S RI R 50
0	0.0977205	-1.588048e-16	0.9278806	-8.184049e-16	0.002702273	-3.410894e-15	-0.004964915	-1.064657e-16
	0.9279899	3.597541e-17	0.04404272	-1.940426e-16	-0.0003420801	5.304733e-16	0.003554744	-4.432333e-16
	0.002595078	-9.272697e-16	-0.002397247	9.42842e-17	0.07208473	3.273332e-15	0.9279872	7.524415e-16
	-0.005363499	-6.352561e-17	0.003644596	-2.541589e-16	0.9294056	2.356445e-15	0.06790106	5.359043e-16
1e+07	0.07630612	-0.009890587	0.7829677	-0.4900287	0.02843406	0.03930755	-0.006545158	8.664606e-05
	0.7831154	-0.4900673	0.07477346	-0.0109471	-0.003607354	-0.001939962	0.02908726	0.03780152
	0.02905929	0.0379818	-0.005170729	-0.0008614516	0.07293537	-0.009947531	0.7822534	-0.4904386
	-0.006873101	0.0003117462	0.02912208	0.03778869	0.783368	-0.4912738	0.07576236	-0.01214561
2e+07	0.07297974	-0.02924502	0.4054671	-0.8246985	0.07399669	0.03487714	-0.007408111	0.002347459
	0.4055785	-0.8248476	0.06980812	-0.03011659	-0.006142387	-0.0009611026	0.07308994	0.03356834
	0.07326993	0.0337456	-0.006872696	0.0008146481	0.06879316	-0.02864267	0.4039684	-0.8250605
	-0.00760955	0.002690131	0.07305412	0.03352225	0.404403	-0.8263391	0.06949317	-0.03164502
3e+07	0.05297378	-0.0447747	-0.08699007	-0.9116302	0.08879795	-0.006939084	-0.007831696	0.004546843
	-0.08702599	-0.9117461	0.04854133	-0.04394186	-0.008649855	0.001131847	0.08742327	-0.006691918
	0.08814553	-0.006701336	-0.008249087	0.003136084	0.04830608	-0.04264358	-0.08928199	-0.9109819
	-0.007825358	0.004968457	0.08729499	-0.006701717	-0.08959858	-0.9123507	0.04730686	-0.04462105
4e+07	0.02502535	-0.03979032	-0.5516219	-0.7293603	0.0577519	-0.03745478	-0.009159566	0.008996003
	-0.5517229	-0.7294258	0.021093	-0.03647007	-0.01174127	0.006655862	0.05651383	-0.03640741
	0.05728357	-0.03684939	-0.01028559	0.008115182	0.02102447	-0.0357091	-0.5538055	-0.7270846
	-0.008926334	0.00937466	0.05640329	-0.03630253	-0.5548353	-0.7280463	0.01997552	-0.03591775
5e+07	0.01173186	-0.01318946	-0.8515921	-0.3291861	0.01644795	-0.02037702	-0.005766138	0.01819774
	-0.8517035	-0.3291744	0.01006289	-0.008101634	-0.009172027	0.01774238	0.01599382	-0.01908798
	0.0163899	-0.0197167	-0.007149922	0.01812418	0.009586244	-0.007627725	-0.852419	-0.3254019
	-0.005363788	0.01839288	0.01599282	-0.01894389	-0.853823	-0.3256165	0.01001329	-0.006998758
6e+07	0.0276068	0.01338291	-0.8933807	0.1682508	0.01495238	0.0273927	0.008105844	0.02394453
	-0.893455	0.1683196	0.02879178	0.01800565	0.005084851	0.02545799	0.01518781	0.02854882
	0.01517603	0.02788543	0.006980542	0.02463337	0.02783427	0.01893943	-0.8919184	0.1725279
	0.008573385	0.02388518	0.01529848	0.02865975	-0.8931964	0.1731482	0.02981982	0.01856893
7e+07	0.05989869	0.01408515	-0.6676765	0.6079295	0.06034777	0.05307091	0.02449857	0.01585459
	-0.6676989	0.6080188	0.06260408	0.01656385	0.02287085	0.01873092	0.0608404	0.05365171
	0.06059843	0.05330121	0.02396469	0.01699866	0.06176328	0.01837369	-0.6637813	0.61126
	0.02486001	0.01554615	0.06099383	0.05365212	-0.6644806	0.6124887	0.06381664	0.01590665
8e+07	0.07926599	-0.01307939	-0.2512298	0.861705	0.1086596	0.02586492	0.03006168	-0.00164182
	-0.2512037	0.8617893	0.08137426	-0.01273158	0.03028342	0.001592548	0.1089212	0.02602287
	0.1087725	0.02598777	0.03023071	-0.0004343656	0.08138624	-0.01029567	-0.2455689	0.8627547
	0.03020025	-0.002094264	0.1090153	0.02592057	-0.2454614	0.8641552	0.08169922	-0.01429232
9e+07	0.06842725	-0.04485741	0.2329032	0.864836	0.111732	-0.03061831	0.02463374	-0.01617551
	0.2329714	0.8648932	0.06874545	-0.04494846	0.02657082	-0.01362205	0.1116184	-0.03044907
	0.1117455	-0.03042003	0.02541656	-0.01527945	0.06986373	-0.0426679	0.2390055	0.8626718
	0.02451601	-0.01663638	0.1115992	-0.03056896	0.2398718	0.8637758	0.06777563	-0.0463597
1e+08	0.03645249	-0.0534101	0.6510794	0.6171137	0.06562308	-0.06189079	0.01651811	-0.02592656
	0.6511706	0.6171201	0.03577845	-0.05198439	0.01952022	-0.02488255	0.06537915	-0.06134339
	0.06569197	-0.06156044	0.01764659	-0.02562678	0.03752721	-0.05051921	0.6557269	0.6115095
	0.01617814	-0.02626882	0.06528592	-0.06137917	0.6570713	0.6119472	0.03409648	-0.05224249
1.1e+08	0.01322132	-0.02948829	0.8795315	0.1826294	0.01753347	-0.03579213	0.004402807	-0.03616581
	0.8796058	0.1825779	0.01375218	-0.02614726	0.007444055	-0.03696821	0.0176528	-0.03484563
	0.01777344	-0.0354234	0.005453988	-0.03654804	0.01536738	-0.02552175	0.8806502	0.1746049
	0.003910975	-0.03629104	0.01759023	-0.03477181	0.8820177	0.1742067	0.01255173	-0.02509354
1.2e+08	0.02531274	0.004168314	0.8405621	-0.3084875	0.02133185	0.0200254	-0.01916772	-0.03997515
	0.8405846	-0.30857	0.02872815	0.007607754	-0.01714279	-0.0422866	0.02211267	0.02088939
	0.02173089	0.02029377	-0.01856089	-0.04082085	0.02978333	0.007971518	0.836913	-0.3165266
	-0.01968016	-0.03981	0.02216602	0.0209916	0.8378161	-0.3176323	0.02887606	0.009053251
1.3e+08	0.06494191	0.01061864	0.5481359	-0.6985155	0.0768019	0.04282554	-0.04460751	-0.02296548
	0.5481044	-0.6985847	0.07061787	0.0115724	-0.04419737	-0.02591045	0.07798791	0.04308702
	0.07726388	0.04293697	-0.04455149	-0.02390623	0.07135303	0.0122811	0.5402833	-0.7036968
	-0.04496151	-0.02252231	0.07813248	0.04310121	0.5404058	-0.7051113	0.0718314	0.01219247
1.4e+08	0.09567763	-0.0211254	0.1034007	-0.8737748	0.1284028	0.004170518	-0.0507697	0.009237665
	0.103344	-0.8738041	0.1010788	-0.02368897	-0.05195549	0.006608237	0.1294625	0.003759681
	0.1288601	0.004147615	-0.05113953	0.008465026	0.1020974	-0.02253741	0.09351036	-0.8741272
	-0.05081587	0.009823446	0.129588	0.003641967	0.09283049	-0.8753641	0.1022299	-0.02433483
1.5e+08	0.09024576	-0.06704452	-0.3615021	-0.7978573	0.1257847	-0.06277389	-0.03491221	0.03457313
	-0.3615534	-0.7978508	0.09301981	-0.07174098	-0.03726873	0.03297701	0.1263604	-0.06352966
	0.1262132	-0.06290635	-0.03556867	0.03406661	0.09471402	-0.07061062	-0.3706534	-0.792879
	-0.03462082	0.0350933	0.1263661	-0.06371527	-0.3719062	-0.7935398	0.09313761	-0.07300487
1.6e+08	0.05148197	-0.09212223	-0.7237426	-0.4963617	0.07002577	-0.09922718	-0.01341969	0.04397746
	-0.7237756	-0.4963374	0.05130989	-0.09636166	-0.01628617	0.04386435	0.07014833	-0.09992237
	0.0704078	-0.09947739	-0.01425669	0.04383557	0.0535043	-0.09579217	-0.7294745	-0.4868809
	-0.01288636	0.0442566	0.07002716	-0.1000595	-0.7309009	-0.4867353	0.05033163	-0.09704991
1.7e+08	0.01006057	-0.07581738	-0.8808673	-0.04492917	0.01166441	-0.07331232	0.005349096	0.04703373
	-0.8808851	-0.04489792	0.008798759	-0.07781288	0.002843748	0.04852433	0.01164783	-0.07368884
	0.0119371	-0.07366672	0.004520839	0.04736529	0.01099649	-0.07797982	-0.8809502	-0.03303542
	0.005955507	0.04698611	0.01148763	-0.07370316	-0.8820646	-0.03209674	0.007742007	-0.07715496
1.8e+08	0.004747236	-0.03298599	-0.7730117	0.4278938	0.007390872	-0.01273014	0.03015301	0.04611022
	-0.7730135	0.4279302	0.004884411	-0.03335225	0.02890658	0.04875753	0.007646193	-0.01295067
	0.007503907	-0.01310455	0.02964739	0.04685601	0.006727303	-0.03402691	-0.7664008	0.4388008
	0.03065664	0.04574292	0.007553804	-0.01287274	-0.7667818	0.4402172	0.00505263	-0.03180405
1.9e+08	0.04297105	-0.009407171	-0.4272463	0.7676054	0.06012819	0.01593085	0.05910668	0.02537329
	-0.4272257	0.7676365	0.04521302	-0.01062797	0.05954272	0.02821389	0.06068106	0.01537889
	0.06013624	0.01564874	0.05909829	0.02623234	0.04663781	-0.01153459	-0.415176	0.7736241
	0.05935022	0.02477113	0.06068407	0.01545064	-0.414687	0.7749943	0.04692989	-0.009621273
2e+08	0.08621885	-0.03408076	0.03793251	0.8683573	0.1109526	-0.01997794	0.06740994	-0.01667399
	0.0379661	0.8683648	0.08873888	-0.03802368	0.06925299	-0.01458983	0.1113485	-0.02109511
	0.110996	-0.0201614	0.06780032	-0.01598248	0.08978229	-0.03900013	0.05187982	0.8669806
	0.06728511	-0.01734394	0.1113847	-0.02109494	0.05303308	0.8678341	0.09094597	-0.03861087
2.1e+08	0.09209562	-0.08852453	0.4778525	0.7167975	0.1065192	-0.08460421	0.04369139	-0.05303664
	0.4778734	0.7167821	0.09234693	-0.09468454	0.04629215	-0.05222586	0.1063548	-0.08603126
	0.1066768	-0.0848247	0.04431512	-0.05260192	0.09302127	-0.09560358	0.4893585	0.7080976
	0.04319562	-0.05355013	0.1063498	-0.08608625	0.4907797	0.7081832	0.09362357	-0.09654539
2.2e+08	0.05232366	-0.1304555	0.7770076	0.3671736	0.05073148	-0.11857	0.007306244	-0.06360564
	0.7770063	0.3671592	0.04916737	-0.1364779	0.009978523	-0.06424089	0.04996009	-0.1198766
	0.0509141	-0.1189843	0.008101589	-0.06346836	0.04955889	-0.1371566	0.7826309	0.353401
	0.006581564	-0.06376158	0.04988922	-0.1199273	0.7838821	0.3526943	0.04899667	-0.1383117
2.3e+08	-0.00558733	-0.1273191	0.8581291	-0.08866829	-0.007539434	-0.09412921	-0.02116045	-0.05628484
	0.8581243	-0.08866443	-0.01103091	-0.1308709	-0.0191485	-0.05829891	-0.008656534	-0.09502283
	-0.00755156	-0.09475786	-0.02030083	-0.05658947	-0.01064541	-0.1311608	0.8559254	-0.1040181
	-0.02186666	-0.05600029	-0.008766764	-0.09502353	0.8565915	-0.1053249	-0.01185618	-0.1315176
2.4e+08	-0.03573713	-0.08108705	0.6882664	-0.5277831	-0.01794944	-0.03602468	-0.04410362	-0.0444549
	0.6882793	-0.5277743	-0.04097812	-0.08161181	-0.04351164	-0.04736081	-0.01903153	-0.03651544
	-0.01833702	-0.03666287	-0.04349945	-0.04527222	-0.0401612	-0.08171002	0.6780027	-0.5404957
	-0.04453665	-0.04381526	-0.0191425	-0.03645584	0.6778086	-0.5419773	-0.04098679	-0.08112774
2.5e+08	-0.01211879	-0.03569856	0.3058114	-0.8122962	0.02529899	-0.002582085	-0.06824542	-0.0208234
	0.3058332	-0.8123053	-0.01532791	-0.03482803	-0.06944381	-0.02360279	0.02444799	-0.003011757
	0.02461443	-0.002914417	-0.06824535	-0.02189541	-0.01401203	-0.03542701	0.2895766	-0.818063
	-0.06825711	-0.02004758	0.02436524	-0.002896892	0.2885643	-0.8191712	-0.01379253	-0.0346233
2.6e+08	0.03783897	-0.03808827	-0.1677253	-0.8461246	0.07152913	-0.02765722	-0.07647753	0.02310049
	-0.1677162	-0.8461497	0.03625062	-0.03805845	-0.07902211	0.02151002	0.07063763	-0.02834739
	0.07088078	-0.02756557	-0.07709681	0.02223932	0.03728786	-0.03969198	-0.1852702	-0.8422288
	-0.07606989	0.02376537	0.07061308	-0.02819206	-0.1867133	-0.8425623	0.03839706	-0.03952323
2.7e+08	0.06032034	-0.08647237	-0.5798169	-0.6278171	0.06871115	-0.08062307	-0.05052345	0.06612852
	-0.5798238	-0.6278404	0.05843791	-0.0879814	-0.05345334	0.0661963	0.06736752	-0.0814291
	0.06838148	-0.08032845	-0.05147749	0.06575574	0.0581192	-0.09011785	-0.5930096	-0.6148591
	-0.04981431	0.06648789	0.06742777	-0.08127222	-0.5943733	-0.6143474	0.05946149	-0.09099539
2.8e+08	0.0305897	-0.1367519	-0.8156454	-0.235025	0.02093468	-0.1051427	-0.004324209	0.08099928
	-0.8156592	-0.2350427	0.02693659	-0.1386185	-0.006747136	0.08258514	0.01908288	-0.105612
	0.0208914	-0.1049887	-0.005326681	0.08115767	0.02510993	-0.1398485	-0.8202629	-0.2166994
	-0.003501526	0.08092902	0.01921916	-0.105515	-0.8211253	-0.2155377	0.02604431	-0.1416327
2.9e+08	-0.03069466	-0.1455878	-0.8184589	0.2201402	-0.02509946	-0.07945916	0.03554945	0.06841773
	-0.818481	0.220125	-0.03598541	-0.145985	0.03429667	0.07107925	-0.02710898	-0.07930098
	-0.02515673	-0.07960436	0.03473041	0.0690872	-0.03809309	-0.1452398	-0.8129083	0.2387055
	0.03623757	0.06788908	-0.02695876	-0.07931041	-0.813003	0.2401607	-0.03792573	-0.147513
3e+08	-0.07613103	-0.1037651	-0.5864179	0.6148681	-0.02914883	-0.02976014	0.06210722	0.04451682
	-0.5864532	0.614864	-0.08152307	-0.1016757	0.0625075	0.0475402	-0.03088285	-0.0290748
	-0.02953079	-0.03003241	0.06175593	0.0455954	-0.08212248	-0.09939916	-0.5716832	0.6284812
	0.06239915	0.04365482	-0.03081432	-0.02916891	-0.5709473	0.6297683	-0.08279891	-0.1016531
3.1e+08	-0.06980563	-0.04683998	-0.1781178	0.833028	0.00838159	-0.003203746	0.0808442	0.01188966
	-0.1781562	0.8330502	-0.07358345	-0.04282768	0.08294792	0.01424093	0.007085529	-0.002392053
	0.007648891	-0.003212203	0.08119585	0.01303333	-0.07195923	-0.04096327	-0.1576243	0.8372859
	0.08058672	0.01098784	0.007024827	-0.00245768	-0.1562781	0.837944	-0.07323953	-0.04272117
3.2e+08	-0.02402456	-0.02560155	0.2862363	0.8014345	0.04566326	-0.02369979	0.08289581	-0.03439735
	0.2862181	0.8014803	-0.02554589	-0.02122765	0.0860078	-0.03367967	0.04455516	-0.02310078
	0.04492789	-0.02318999	0.08387052	-0.03366956	-0.02313449	-0.02160335	0.3067482	0.7940215
	0.08216869	-0.03499922	0.04445653	-0.02301503	0.30823	0.7938051	-0.02445157	-0.02263155
3.3e+08	0.0115596	-0.05415788	0.6611065	0.5295736	0.04174133	-0.0643796	0.05312973	-0.07910792
	0.6611201	0.5296223	0.01161658	-0.05070983	0.0560615	-0.08028236	0.04040282	-0.06390549
	0.04142667	-0.06351383	0.0543258	-0.07907876	0.01229387	-0.05297309	0.6750481	0.5118772
	0.05220026	-0.0792111	0.04044443	-0.06369285	0.6761458	0.510881	0.01157718	-0.05359555
3.4e+08	0.001825445	-0.09854837	0.8357104	0.105971	0.003321954	-0.07770193	0.0005827159	-0.09635307
	0.8357483	0.1060029	0.002331629	-0.0963118	0.00233786	-0.09890641	0.001668417	-0.07690715
	0.00352767	-0.0769177	0.001568501	-0.09697801	0.000233705	-0.09791539	0.8383255	0.08304604
	-0.000258416	-0.09595262	0.001927247	-0.07675498	0.8386929	0.08162509	0.0002619191	-0.09894861
3.5e+08	-0.04366512	-0.1139112	0.7658712	-0.3430061	-0.02624348	-0.04979589	-0.04909107	-0.08136607
	0.7659184	-0.3429982	-0.04347325	-0.1123923	-0.04900074	-0.08443734	-0.02781236	-0.04838444
	-0.02580545	-0.0494076	-0.04860817	-0.08241734	-0.04658863	-0.1109712	0.7559804	-0.3644104
	-0.04961612	-0.08057312	-0.02746284	-0.0484748	0.7555159	-0.3658007	-0.04649659	-0.1131108
3.6e+08	-0.08365864	-0.08459938	0.4746515	-0.6903011	-0.01640294	-0.0108025	-0.08285757	-0.04718334
	0.4746967	-0.6903173	-0.08389055	-0.08305514	-0.08446298	-0.04983677	-0.01739347	-0.008987158
	-0.01612666	-0.01075257	-0.08303545	-0.0483337	-0.08490233	-0.07884865	0.4546252	-0.7038834
	-0.08288823	-0.04619056	-0.01719352	-0.009319505	0.4534708	-0.7047975	-0.08587134	-0.08193972
3.7e+08	-0.08382352	-0.03685768	0.04469903	-0.835802	0.02184592	-0.0007352443	-0.09964079	-0.001003677
	0.04473208	-0.8358385	-0.08403626	-0.03479071	-0.102495	-0.002337708	0.02152349	0.0009398471
	0.02180278	-0.0006767708	-0.1004417	-0.001851398	-0.08137729	-0.03071864	0.01976872	-0.837109
	-0.09909859	-0.000111807	0.02142442	0.0005782621	0.01829281	-0.8372349	-0.08405403	-0.03358622
3.8e+08	-0.04950036	-0.01225054	-0.3981439	-0.7346369	0.04806325	-0.02944908	-0.09164489	0.05363935
	-0.3981319	-0.7346871	-0.04901496	-0.009633305	-0.09477424	0.05416611	0.04801917	-0.02828253
	0.04791757	-0.02907466	-0.09276571	0.05341247	-0.04439901	-0.008702964	-0.4208099	-0.7223472
	-0.09066173	0.05408926	0.04772198	-0.02841285	-0.4221093	-0.7216332	-0.048138	-0.009970016
3.9e+08	-0.01719651	-0.02533242	-0.7214274	-0.4171625	0.03432161	-0.0650503	-0.05074409	0.09919586
	-0.7214427	-0.4172149	-0.01539702	-0.02267625	-0.05299543	0.1013907	0.03406887	-0.0642682
	0.03445167	-0.06439381	-0.05175045	0.09962633	-0.01237883	-0.0249854	-0.7346299	-0.3941533
	-0.04966316	0.09901365	0.0338617	-0.06411214	-0.7353165	-0.3928458	-0.01553976	-0.02433288
4e+08	-0.0146903	-0.0534514	-0.8308851	0.02075092	-0.002921754	-0.06799691	0.01108272	0.1131726
	-0.8309262	0.02071173	-0.01141991	-0.05177164	0.01046621	0.1161904	-0.003507559	-0.06714402
	-0.002345371	-0.0674003	0.01050946	0.1140387	-0.01192104	-0.05425454	-0.8300242	0.0479054
	0.01188781	0.1124267	-0.003423633	-0.06692687	-0.8298827	0.04937051	-0.01321104	-0.05291171
4.1e+08	-0.03629339	-0.06445471	-0.6962999	0.4505971	-0.02105074	-0.03568058	0.06914023	0.09125131
	-0.6963564	0.4505839	-0.0322936	-0.06478487	0.0702633	0.09405286	-0.02160872	-0.0344535
	-0.02021293	-0.03547016	0.06911975	0.09224484	-0.03459752	-0.06421457	-0.6810364	0.4738108
	0.06942384	0.09018593	-0.02132536	-0.03446773	-0.6801187	0.4749593	-0.03431438	-0.06402573
4.2e+08	-0.05303818	-0.04900992	-0.3570891	0.7464845	0.001466044	-0.004796165	0.1077897	0.04428293
	-0.3571456	0.7464991	-0.04980912	-0.05160644	0.1102312	0.04599505	0.001368733	-0.003414764
	0.002213077	-0.005007543	0.108288	0.04510673	-0.05021107	-0.04785115	-0.3313583	0.7586122
	0.107461	0.04320627	0.001547788	-0.003737746	-0.329959	0.7590718	-0.05012269	-0.04962399
4.3e+08	-0.04523544	-0.02815782	0.08597632	0.820103	0.04193827	-0.01183805	0.1196669	-0.01766233
	0.08592961	0.8201418	-0.0441209	-0.03196075	0.1226299	-0.01757408	0.04229566	-0.01080604
	0.0423859	-0.01222998	0.1205049	-0.017255	-0.04064158	-0.02821725	0.1149438	0.8169002
	0.1187835	-0.01841908	0.04213786	-0.01121641	0.1163662	0.8165162	-0.0424645	-0.0308552
4.4e+08	-0.02391296	-0.02676036	0.4992628	0.6513307	0.05645821	-0.05372058	0.09622671	-0.08138187
	0.499234	0.651392	-0.02497123	-0.02992823	0.09872266	-0.08293917	0.0568339	-0.05328656
	0.05668368	-0.05403022	0.0971091	-0.08149204	-0.01940411	-0.02950727	0.522752	0.6330034
	0.095037	-0.08153545	0.05640106	-0.05346455	0.5237296	0.6319054	-0.02314168	-0.03087153
4.5e+08	-0.01448218	-0.04401038	0.7619942	0.294836	0.02700108	-0.0891728	0.03848328	-0.1234975
	0.7619979	0.2949149	-0.01620713	-0.0453459	0.03967689	-0.1261425	0.0269786	-0.08912108
	0.02722755	-0.08934969	0.03912967	-0.1240303	-0.01225935	-0.04832274	0.7725977	0.2663855
	0.03738432	-0.1229588	0.02656955	-0.08894557	0.7728193	0.2649334	-0.01603502	-0.04718718
4.6e+08	-0.02550008	-0.05740114	0.802292	-0.1441097	-0.01799736	-0.08254322	-0.03320629	-0.1263929
	0.8023433	-0.1440342	-0.02597386	-0.05751659	-0.03366229	-0.1292082	-0.01846121	-0.08245616
	-0.01765074	-0.0827427	-0.03295031	-0.127138	-0.02547097	-0.06078719	0.7963964	-0.1744719
	-0.03383832	-0.1253299	-0.01859033	-0.08210446	0.7957916	-0.1758141	-0.02715227	-0.05806487
4.7e+08	-0.03965374	-0.05022967	0.609089	-0.5411023	-0.03328929	-0.04183819	-0.09468273	-0.09218587
	0.6091833	-0.5410622	-0.03834261	-0.05122603	-0.0965787	-0.09425084	-0.03388144	-0.0415172
	-0.03290408	-0.04221723	-0.09484063	-0.09291081	-0.03948134	-0.05178735	0.5877968	-0.5644536
	-0.09464293	-0.09093463	-0.03373939	-0.04128368	0.5865483	-0.5652518	-0.0385849	-0.04981974
4.8e+08	-0.03316348	-0.03273021	0.2349233	-0.7791412	-0.003451196	-0.01133791	-0.132319	-0.03167603
	0.2350335	-0.7791602	-0.03172454	-0.03636437	-0.13499	-0.0323452	-0.003925568	-0.0110102
	-0.003194132	-0.01189867	-0.132793	-0.03217772	-0.03106511	-0.03445991	0.2038207	-0.788084
	-0.1316	-0.03061842	-0.003750647	-0.01103491	0.2023329	-0.7880608	-0.02929091	-0.03500636
4.9e+08	-0.006756842	-0.03406266	-0.208243	-0.7828076	0.03887162	-0.02728594	-0.1346578	0.04463173
	-0.2081529	-0.7828884	-0.007874473	-0.03987698	-0.1371958	0.04552022	0.03832437	-0.02723997
	0.03892201	-0.02790412	-0.1352565	0.04444897	-0.004167475	-0.03869115	-0.2400098	-0.7737682
	-0.1334467	0.04514507	0.03830627	-0.02739789	-0.2412323	-0.772929	-0.003947713	-0.04131181
5e+08	0.009072926	-0.06579515	-0.582116	-0.5538415	0.04454749	-0.07708348	-0.09113881	0.1143002
	-0.5820785	-0.5539682	0.004109768	-0.07107708	-0.09273579	0.1163596	0.04356127	-0.07720328
	0.04443881	-0.07765953	-0.09169852	0.1143876	0.008527662	-0.0730594	-0.6045527	-0.5290742
	-0.08981131	0.1140564	0.04334753	-0.07725582	-0.6051113	-0.5277152	0.006251883	-0.07548765
5.1e+08	-0.01063746	-0.1033208	-0.7787578	-0.1700711	0.002238838	-0.1106499	-0.01352122	0.1458537
	-0.7787972	-0.1702104	-0.01792632	-0.1053157	-0.013778	0.1483695	0.0007631698	-0.1105424
	0.002030789	-0.1111854	-0.01399218	0.1461403	-0.01596428	-0.1094131	-0.7849767	-0.1370483
	-0.01253544	0.1449015	0.0005399613	-0.1103804	-0.7847171	-0.1356137	-0.01936614	-0.1096919
5.2e+08	-0.05588754	-0.1113737	-0.7518852	0.2555463	-0.05021499	-0.09490162	0.06452215	0.1283951
	-0.7520044	0.255441	-0.062376	-0.1096228	0.06559461	0.1306452	-0.05187768	-0.09431005
	-0.05054464	-0.09542142	0.06418529	0.1288846	-0.06332775	-0.112582	-0.7401644	0.2873478
	0.06482554	0.1270471	-0.05194364	-0.0940219	-0.7391737	0.2884248	-0.0655427	-0.1107813
5.3e+08	-0.08907653	-0.07879567	-0.5115313	0.6089104	-0.06632534	-0.04478024	0.1186392	0.07791776
	-0.5117035	0.6088858	-0.09254785	-0.0755109	0.1207473	0.07928108	-0.06777253	-0.04384
