!$
! Info: Touchstone file created by Circ.  Input file=Tx_NPC_250mm_32AWG_BPK_100mm_27AWG_BPK_250mm_32AWG_NPC_Rx.circ
!$
# Hz S RI R 50
0	0.0683167	-1.369537e-16	0.9581819	-8.355387e-16	0.001563731	-3.42118e-15	-0.003999865	-1.02542e-16
	0.9582944	4.781788e-17	0.01272697	-2.117958e-16	0.0008150587	5.521728e-16	0.002573747	-4.583924e-16
	0.001546566	-9.716639e-16	-0.001323713	1.207737e-16	0.04163114	3.488072e-15	0.9583105	6.606418e-16
	-0.004425526	-3.687002e-17	0.002682354	-2.626335e-16	0.9597775	2.316511e-15	0.03767701	4.539912e-16
1e+07	0.04627644	0.005912777	0.9250016	-0.2388669	0.008748225	0.02361883	-0.004801783	-0.001048501
	0.9251216	-0.2388831	0.04542374	0.005968833	-0.001269059	-0.002126467	0.01009562	0.02303001
	0.01017563	0.02306444	-0.003205367	-0.001516975	0.04329842	0.006556132	0.9245533	-0.2387905
	-0.005249735	-0.0008927135	0.01014109	0.02305238	0.9259536	-0.2392396	0.04697917	0.005449366
2e+07	0.05386388	0.006992755	0.834175	-0.4590255	0.02604205	0.04194389	-0.006383684	-0.0007905545
	0.8342918	-0.4590691	0.05302468	0.007066336	-0.00334371	-0.002837034	0.02686024	0.04122683
	0.02694068	0.04121825	-0.005042939	-0.001705521	0.05106284	0.008245102	0.8337691	-0.4588747
	-0.006778627	-0.0005577516	0.02690344	0.0412047	0.8349676	-0.4597139	0.05431391	0.006034422
3e+07	0.06197708	0.003319215	0.6928559	-0.6480811	0.05008576	0.04963834	-0.007803471	0.0007351229
	0.6929213	-0.6481701	0.06112595	0.003372314	-0.005511462	-0.002072278	0.04981232	0.04956406
	0.04996048	0.04953824	-0.006894863	-0.0004594332	0.05949471	0.005113259	0.6924457	-0.6479001
	-0.008135514	0.001029985	0.04987652	0.04948067	0.6933807	-0.6490298	0.06203696	0.001987865
4e+07	0.0685479	-0.004618983	0.5109514	-0.7953976	0.07514561	0.04551715	-0.008276117	0.003052957
	0.5109861	-0.7955016	0.06763722	-0.004549841	-0.006895126	-0.0002582172	0.07479501	0.0454607
	0.07495142	0.0454482	-0.007772937	0.001674185	0.06650898	-0.002365319	0.5105587	-0.7951661
	-0.008532796	0.003426738	0.07483696	0.04535757	0.5111312	-0.79651	0.06807708	-0.006108762
5e+07	0.07185945	-0.01533945	0.3001957	-0.893275	0.09599624	0.03052222	-0.007623723	0.005531265
	0.3001955	-0.893384	0.07081298	-0.01520177	-0.007253282	0.002012956	0.09560551	0.03052309
	0.09574695	0.03054859	-0.007547736	0.004093412	0.07031702	-0.0126742	0.2998166	-0.8929818
	-0.007778294	0.005946155	0.0956212	0.03042813	0.2999862	-0.8944306	0.07079486	-0.01682792
6e+07	0.0709945	-0.02752285	0.07336545	-0.9371176	0.108385	0.007552289	-0.005985024	0.007450411
	0.07333176	-0.9372191	0.06981118	-0.02725054	-0.006611188	0.004007589	0.1079363	0.007633715
	0.1081232	0.007668598	-0.006319069	0.006093916	0.07002066	-0.02463184	0.0730075	-0.936759
	-0.006036478	0.007905794	0.1079189	0.007529353	0.07276264	-0.9381947	0.06936135	-0.02876138
7e+07	0.06576419	-0.03902751	-0.1564943	-0.9251633	0.1096943	-0.01855872	-0.003936818	0.008462125
	-0.1565576	-0.9252471	0.06445488	-0.0384911	-0.005483666	0.005374002	0.1092282	-0.01837903
	0.1094607	-0.01834137	-0.004625072	0.007292554	0.06537658	-0.03598607	-0.1568187	-0.9247252
	-0.003876117	0.008923248	0.1091817	-0.01847471	-0.1574577	-0.9260367	0.06365151	-0.03978843
8e+07	0.05663998	-0.0481928	-0.3764114	-0.8584616	0.09971218	-0.0426077	-0.0020904	0.00860501
	-0.376496	-0.858519	0.05527946	-0.04727046	-0.004407058	0.006103154	0.09926067	-0.04231667
	0.09954907	-0.04230347	-0.003050206	0.007708073	0.05684851	-0.04509987	-0.3766807	-0.8579351
	-0.001916277	0.009046308	0.0991851	-0.04239303	-0.3776658	-0.8590183	0.05421213	-0.04828699
9e+07	0.04472117	-0.05351516	-0.573913	-0.7407383	0.08051902	-0.05978288	-0.0008791254	0.008311122
	-0.5740084	-0.740764	0.04345775	-0.05211766	-0.003763621	0.006569982	0.08011291	-0.05936797
	0.08045505	-0.05942235	-0.002010092	0.007739702	0.0455165	-0.0504767	-0.5741008	-0.7401242
	-0.0005938521	0.008708401	0.0800132	-0.05941651	-0.5753571	-0.7408904	0.04222337	-0.05280489
1e+08	0.03177517	-0.05388139	-0.737418	-0.5783625	0.05615466	-0.06658299	-0.0003166967	0.008236488
	-0.737513	-0.5783558	0.03082732	-0.05196698	-0.003527384	0.0073757	0.05584706	-0.06606424
	0.05621125	-0.06620809	-0.001518723	0.008007071	0.03315563	-0.05097354	-0.7374881	-0.5776648
	6.650517e-05	0.008559324	0.05573822	-0.06607631	-0.7389207	-0.5780479	0.02952312	-0.05230396
1.1e+08	0.01981608	-0.04900593	-0.8567099	-0.3804069	0.03179335	-0.06171211	-3.919772e-05	0.008883088
	-0.8567927	-0.3803711	0.01941649	-0.04662982	-0.003324814	0.00893772	0.03162213	-0.06109156
	0.03196494	-0.06136407	-0.001206953	0.008986787	0.02177238	-0.04632498	-0.8566304	-0.3796493
	0.0004301003	0.009108368	0.03151394	-0.06106371	-0.8581223	-0.3796098	0.01812582	-0.04662028
1.2e+08	0.0111992	-0.0394274	-0.9238907	-0.1585403	0.01284274	-0.04625636	0.0007727823	0.01045669
	-0.9239533	-0.1584825	0.01159176	-0.03675622	-0.002331128	0.01140054	0.01285578	-0.04558716
	0.01311295	-0.04597718	-0.0002800584	0.0108522	0.013722	-0.03707204	-0.9236312	-0.1577616
	0.001302113	0.01056027	0.01276582	-0.04552205	-0.9250607	-0.1572943	0.01040802	-0.03641971
1.3e+08	0.007849447	-0.02669544	-0.9340423	0.07357726	0.003665094	-0.02374265	0.002917044	0.01252045
	-0.9340795	0.07364761	0.009214581	-0.02400498	0.00022503	0.01425425	0.003892451	-0.02308556
	0.004001015	-0.02356051	0.002043732	0.01314864	0.01091845	-0.02478656	-0.9335832	0.07432811
	0.003475771	0.01248413	0.003834518	-0.02299321	-0.9348268	0.07519089	0.008212246	-0.02337766
1.4e+08	0.01101734	-0.0131966	-0.8859844	0.3010478	0.006594317	0.0006178249	0.006845505	0.01411232
	-0.885995	0.3011207	0.01342637	-0.01084746	0.004758501	0.01648109	0.007046234	0.0011894
	0.006955877	0.0006924511	0.006197274	0.01490425	0.01458106	-0.01187281	-0.8853268	0.301715
	0.007397381	0.01392527	0.007028519	0.001294319	-0.8862748	0.3029043	0.01267126	-0.009975766
1.5e+08	0.02088864	-0.001831889	-0.7827324	0.5089488	0.02133236	0.02103855	0.01236476	0.01400954
	-0.7827188	0.5090155	0.02425863	-0.0002386242	0.0110208	0.01681126	0.02198101	0.02143178
	0.02167956	0.02100958	0.01195284	0.01489416	0.02484985	-0.00124222	-0.7818891	0.5094706
	0.01286706	0.01367269	0.0220047	0.02153011	-0.7824581	0.5108881	0.02382049	0.0008179929
1.6e+08	0.03625021	0.004646847	-0.6313981	0.6837496	0.04489465	0.03248764	0.01847459	0.01123202
	-0.6313657	0.6838023	0.04035211	0.005127622	0.01793716	0.01424467	0.04569445	0.03263659
	0.04519959	0.03237836	0.01829536	0.01213873	0.04047032	0.004361181	-0.6304052	0.6840729
	0.0188855	0.01075523	0.04575225	0.0327135	-0.6305445	0.6855949	0.04027333	0.006295376
1.7e+08	0.05487765	0.004060646	-0.442502	0.8145585	0.0723521	0.03183784	0.02367613	0.005410731
	-0.4424577	0.8145928	0.05931972	0.003143245	0.0239528	0.00841117	0.07321396	0.03168207
	0.0725979	0.03167563	0.02370484	0.006292674	0.05914767	0.002786966	-0.4414122	0.8146338
	0.02395527	0.004820118	0.07329192	0.03172555	-0.4411121	0.8161331	0.0596442	0.004328458
1.8e+08	0.07374172	-0.004595178	-0.2288489	0.8939977	0.09792355	0.01857278	0.02637023	-0.00287562
	-0.2288006	0.8940118	0.07804217	-0.007034627	0.02740784	-9.607263e-05	0.09874599	0.01808973
	0.09811015	0.01838623	0.02657846	-0.00205744	0.07780954	-0.006917699	-0.2277331	0.8937999
	0.02648452	-0.003542983	0.09882712	0.01809658	-0.2270219	0.8951521	0.07878626	-0.005937925
1.9e+08	0.08965764	-0.02106902	-0.004253262	0.9185021	0.116294	-0.005209272	0.02542988	-0.01223366
	-0.004208983	0.9184972	0.09331138	-0.02497344	0.02712704	-0.009845065	0.1169764	-0.006006421
	0.1164341	-0.005399058	0.02578658	-0.01149714	0.09324006	-0.02442839	-0.003188328	0.9180181
	0.02535734	-0.01293102	0.117045	-0.006031044	-0.002127813	0.9191152	0.09445913	-0.02408068
2e+08	0.09976993	-0.04394827	0.2176019	0.8881159	0.123712	-0.03537229	0.02058057	-0.02082049
	0.217636	0.8880959	0.1022905	-0.04907971	0.02280865	-0.01896408	0.1241536	-0.03643573
	0.123823	-0.03555553	0.02106654	-0.02017487	0.102567	-0.04823985	0.2185335	0.8873676
	0.02031432	-0.02149421	0.1241981	-0.03648079	0.2198578	0.888127	0.103797	-0.04850931
2.1e+08	0.1019348	-0.07081348	0.4240031	0.8060105	0.1186424	-0.06669211	0.01255461	-0.02685149
	0.424022	0.8059817	0.1029759	-0.0767898	0.01516412	-0.02562297	0.1187749	-0.06795102
	0.118744	-0.06687372	0.01315424	-0.02630969	0.1036797	-0.07585207	0.4247303	0.8050388
	0.0121011	-0.02744675	0.1187925	-0.06800132	0.4262129	0.8054029	0.1047538	-0.07663798
2.2e+08	0.09495088	-0.0986952	0.6037123	0.6779222	0.1018915	-0.09395694	0.002863477	-0.02914834
	0.6037146	0.6778918	0.09427734	-0.1050158	0.005695533	-0.02861487	0.1016604	-0.09531551
	0.101994	-0.09415089	0.003573097	-0.02872262	0.09541485	-0.1041924	0.6041797	0.6767966
	0.002247065	-0.02961328	0.1016546	-0.09535773	0.6057098	0.6767394	0.09621665	-0.1053652
2.3e+08	0.07871207	-0.1242609	0.7472547	0.511629	0.07629359	-0.112899	-0.006577949	-0.02743928
	0.747242	0.5116044	0.07628409	-0.1303898	-0.003689011	-0.02763442	0.07567987	-0.114254
	0.07639641	-0.1131262	-0.005764858	-0.02715519	0.07775724	-0.1298636	0.7474361	0.5104313
	-0.00731952	-0.027729	0.07566126	-0.1142792	0.7488989	0.5099551	0.07824721	-0.131284
2.4e+08	0.05429136	-0.144235	0.8471147	0.316565	0.04605945	-0.1208804	-0.01400987	-0.02244681
	0.8470914	0.3165525	0.05024232	-0.1496534	-0.011235	-0.02337365	0.04507589	-0.1221284
	0.04614775	-0.1211614	-0.01310952	-0.02234012	0.05188474	-0.1495402	0.8470102	0.315376
	-0.01482679	-0.02252745	0.04505776	-0.1221349	0.848295	0.314512	0.05207912	-0.1510926
2.5e+08	0.02393327	-0.1557872	0.8979152	0.1034756	0.01597372	-0.1172338	-0.01831249	-0.01565125
	0.897888	0.1034779	0.0185492	-0.1600284	-0.01582961	-0.01728128	0.01466342	-0.1182719
	0.01601964	-0.1175802	-0.01735513	-0.0157643	0.02016964	-0.1603684	0.897557	0.1023685
	-0.01914583	-0.01550406	0.01465667	-0.1182658	0.8985651	0.1011744	0.02011095	-0.1619818
2.6e+08	-0.009033646	-0.15695	0.8966239	-0.1159094	-0.009427946	-0.1032499	-0.01931474	-0.00885675
	0.8966008	-0.1158917	-0.0153334	-0.1597078	-0.01730016	-0.01111756	-0.01099111	-0.1040055
	-0.009462411	-0.1036608	-0.01836056	-0.009224287	-0.01392663	-0.1604342	0.8960617	-0.1168887
	-0.02010014	-0.00847719	-0.01097951	-0.1039994	0.8967076	-0.118327	-0.01418323	-0.1620802
2.7e+08	-0.04058934	-0.1471422	0.8428225	-0.3292823	-0.02659492	-0.08188052	-0.01781744	-0.003602529
	0.8428097	-0.3292529	-0.04731703	-0.1482262	-0.01644354	-0.006375903	-0.02831436	-0.08229948
	-0.02674883	-0.08233432	-0.01694338	-0.004244757	-0.04625977	-0.1492127	0.842109	-0.330112
	-0.01849027	-0.00300609	-0.02828779	-0.08230771	0.8423341	-0.3316894	-0.04668926	-0.1508978
2.8e+08	-0.06654715	-0.1274361	0.738891	-0.524254	-0.03350677	-0.05720933	-0.01529163	-0.000686916
	0.7388927	-0.5242187	-0.07319549	-0.1268389	-0.01470478	-0.00379871	-0.03527475	-0.05727958
	-0.03381261	-0.05766452	-0.01459155	-0.001591297	-0.07255237	-0.1279109	0.7380713	-0.52494
	-0.0157907	9.338553e-05	-0.03524499	-0.05731358	0.7378466	-0.5265339	-0.07315815	-0.1296488
2.9e+08	-0.08335281	-0.1006459	0.5901748	-0.689002	-0.0300004	-0.03374581	-0.01333657	9.893577e-05
	0.5901924	-0.6889678	-0.08945687	-0.09851739	-0.01363657	-0.003125273	-0.03171596	-0.03349749
	-0.0304736	-0.03414354	-0.01290368	-0.00101593	-0.08920408	-0.09949363	0.5892661	-0.6895601
	-0.01361007	0.001012174	-0.03170152	-0.03356055	0.5885989	-0.6910411	-0.0900267	-0.1012892
3e+08	-0.08887585	-0.07096576	0.4049573	-0.8130441	-0.01781521	-0.01563752	-0.01306411	-0.0001411544
	0.4049882	-0.8130172	-0.09405098	-0.06757279	-0.01428295	-0.003211937	-0.01939706	-0.01513338
	-0.01844483	-0.01590966	-0.01297286	-0.001378976	-0.09408945	-0.06831482	0.4039567	-0.813487
	-0.01307654	0.0008386622	-0.0194177	-0.01521596	0.4028919	-0.8147325	-0.09518633	-0.07013168
3.1e+08	-0.08294748	-0.04321858	0.1941969	-0.8880805	-0.0003027302	-0.005876811	-0.01466218	0.0001268309
	0.1942375	-0.8880659	-0.08696005	-0.03893008	-0.01673877	-0.002514383	-0.001715621	-0.005206325
	-0.001049128	-0.00595749	-0.01494855	-0.00111322	-0.08713363	-0.03936177	0.1930803	-0.8883994
	-0.01439609	0.001095641	-0.001785607	-0.005289136	0.1917013	-0.8893006	-0.08855536	-0.04112187
3.2e+08	-0.06757292	-0.02187052	-0.02908716	-0.9088487	0.01821535	-0.005657776	-0.01730582	0.00222167
	-0.0290425	-0.908848	-0.07029125	-0.01706107	-0.02008953	0.0002666105	0.01696955	-0.004907528
	0.01742122	-0.005498339	-0.01796064	0.001106402	-0.07044825	-0.01720105	-0.03034023	-0.908999
	-0.01677019	0.003098776	0.01684875	-0.004961543	-0.03192355	-0.9094796	-0.07220748	-0.01878262
3.3e+08	-0.04648137	-0.01005033	-0.2507409	-0.8737145	0.03335759	-0.01408083	-0.01950878	0.0066661
	-0.2506972	-0.8737277	-0.04791017	-0.005079676	-0.02276409	0.005592697	0.03223409	-0.01331759
	0.03260428	-0.01366131	-0.0204733	0.0057926	-0.04793793	-0.005017236	-0.2521289	-0.8736288
	-0.01873659	0.007374756	0.03207661	-0.01331436	-0.2537872	-0.873648	-0.04998508	-0.006283022
3.4e+08	-0.02434554	-0.00889602	-0.4566445	-0.784919	0.04170485	-0.0283367	-0.01974827	0.012958
	-0.4566056	-0.7849445	-0.02457389	-0.004064004	-0.02318488	0.0128734	0.04063535	-0.02758827
	0.04108689	-0.02767367	-0.02092539	0.01241264	-0.0244316	-0.003931099	-0.4581256	-0.7845127
	-0.01879506	0.01343445	0.04047026	-0.02750773	-0.4597247	-0.7840701	-0.02664906	-0.004760714
3.5e+08	-0.005758921	-0.01737655	-0.6338781	-0.6483569	0.04159483	-0.04439047	-0.01709752	0.01977231
	-0.6338463	-0.648392	-0.004905351	-0.01292166	-0.02040648	0.02068461	0.04051461	-0.0436415
	0.04119654	-0.04353812	-0.01837042	0.0196001	-0.004644856	-0.0128402	-0.6353657	-0.6475598
	-0.01603535	0.01997397	0.04038154	-0.04347948	-0.6367814	-0.646693	-0.006856464	-0.01316549
3.6e+08	0.005734201	-0.03263656	-0.7716606	-0.4729719	0.03348913	-0.05799401	-0.0115747	0.02550781
	-0.7716381	-0.4730148	0.00751086	-0.02872772	-0.0144684	0.02732125	0.03235182	-0.05718563
	0.03336977	-0.05703563	-0.012821	0.02570855	0.007775865	-0.02876664	-0.77303	-0.4717431
	-0.01048467	0.02541314	0.03228914	-0.05695762	-0.7741529	-0.4705232	0.005776964	-0.02859769
3.7e+08	0.008246718	-0.05064113	-0.862021	-0.2699292	0.01976426	-0.06572113	-0.00407557	0.02891129
	-0.8620084	-0.2699775	0.01081739	-0.0474292	-0.006315268	0.03145402	0.01857163	-0.06477729
	0.01994735	-0.06475812	-0.005188421	0.02944825	0.01093826	-0.04756038	-0.8631293	-0.2682827
	-0.003038338	0.028525	0.01861014	-0.06451761	-0.8638782	-0.2668033	0.009352149	-0.04700147
3.8e+08	0.001877144	-0.06706078	-0.9000645	-0.05175291	0.004047879	-0.06573532	0.004049478	0.02949097
	-0.9000627	-0.05180482	0.005101828	-0.06467782	0.002631352	0.03253349	0.002850219	-0.06458101
	0.00451783	-0.06487027	0.003154866	0.03029889	0.004961953	-0.06478044	-0.9007716	-0.04975133
	0.004958996	0.02883755	0.003002376	-0.06433649	-0.901093	-0.04812341	0.003938464	-0.06402342
3.9e+08	-0.01139821	-0.0781179	-0.8840581	0.1684794	-0.009691056	-0.05812173	0.01155819	0.0275713
	-0.8840681	0.1684256	-0.00767295	-0.07669645	0.01105176	0.03085563	-0.01079647	-0.05671274
	-0.008985868	-0.05744322	0.01093939	0.02856788	-0.008110863	-0.07657953	-0.8842502	0.1707264
	0.01227561	0.02669207	-0.01054037	-0.05653356	-0.8841211	0.1723834	-0.008509423	-0.07587241
4e+08	-0.02813821	-0.08133085	-0.8153366	0.3778334	-0.01803894	-0.04475474	0.01776347	0.02399421
	-0.815359	0.3777795	-0.0241019	-0.08101729	0.0181856	0.02725694	-0.01892882	-0.04310447
	-0.01717767	-0.04432512	0.0174506	0.0250904	-0.02476086	-0.08046032	-0.8149347	0.3801795
	0.01823824	0.02294297	-0.01860046	-0.04303458	-0.8143629	0.3817467	-0.02458343	-0.08007088
4.1e+08	-0.04413657	-0.07608133	-0.6981077	0.5640938	-0.01882784	-0.02882328	0.02265869	0.01961865
	-0.6981438	0.5640428	-0.04003362	-0.07697757	0.02395153	0.02260991	-0.01938025	-0.02700615
	-0.01790321	-0.02867053	0.02265472	0.02072362	-0.04071947	-0.07580728	-0.6970723	0.5663728
	0.02285077	0.01845896	-0.01902914	-0.02707185	-0.6960969	0.5677332	-0.04012284	-0.07597087
4.2e+08	-0.05531196	-0.06375423	-0.5392503	0.716325	-0.01153902	-0.01414392	0.02672477	0.0148844
	-0.5393006	0.7162794	-0.05145257	-0.06594065	0.02877321	0.01738093	-0.01167124	-0.01230327
	-0.01064423	-0.0142605	0.02700878	0.01591434	-0.05187187	-0.06407112	-0.5375945	0.7183635
	0.02661017	0.01368707	-0.01135583	-0.01250893	-0.5362824	0.7194163	-0.0511132	-0.06494844
4.3e+08	-0.05866147	-0.04757986	-0.3480555	0.8253638	0.002595654	-0.004422638	0.03046174	0.009605252
	-0.3481203	0.8253276	-0.05540798	-0.05104111	0.03309493	0.01142506	0.002898463	-0.002741077
	0.003381613	-0.004769224	0.03099004	0.01048801	-0.05522306	-0.04853193	-0.3458344	0.8269822
	0.03003063	0.008448558	0.003121446	-0.003064852	-0.3442794	0.8276453	-0.05461221	-0.05016727
4.4e+08	-0.05304	-0.03193444	-0.1358904	0.88438	0.02078186	-0.002517467	0.03391887	0.003133571
	-0.135969	0.884358	-0.05078238	-0.03653918	0.03692332	0.004148327	0.02144813	-0.001183509
	0.02140467	-0.003032468	0.03462966	0.003815752	-0.04967967	-0.03360812	-0.1332145	0.8854156
	0.03318018	0.002101127	0.02153511	-0.001580404	-0.1315309	0.8856346	-0.04953154	-0.03591379
4.5e+08	-0.03956195	-0.02133435	0.08429302	0.8894582	0.03912758	-0.00981201	0.0364266	-0.005181013
	0.08420236	0.8894555	-0.0386819	-0.02681561	0.0395611	-0.005036632	0.03999736	-0.008977307
	0.03956276	-0.01042411	0.0372474	-0.00472836	-0.03644148	-0.02382281	0.08726321	0.8897719
	0.03541213	-0.006005762	0.03992695	-0.009387029	0.0889508	0.889526	-0.03702378	-0.02657954
4.6e+08	-0.02148718	-0.01931126	0.2987004	0.8400995	0.05337203	-0.02579753	0.03671159	-0.01542347
	0.2986029	0.8401224	-0.02226407	-0.02525229	0.03972721	-0.01613809	0.054229	-0.02553778
	0.05362543	-0.02644047	0.0375694	-0.01520283	-0.01883705	-0.02265	0.3017536	0.8395971
	0.035479	-0.0159609	0.05400847	-0.0258953	0.303315	0.8389025	-0.02030725	-0.0255441
4.7e+08	-0.003445745	-0.02744265	0.4937367	0.7395258	0.05982764	-0.04802635	0.03339682	-0.02674009
	0.4936394	0.7395789	-0.006041059	-0.03331928	0.03606091	-0.02823251	0.06042767	-0.04831842
	0.05992698	-0.04864977	0.03422918	-0.0267294	-0.001567893	-0.03157239	0.4966297	0.7381881
	0.03202859	-0.02692902	0.0600907	-0.04856819	0.4979482	0.7370959	-0.00394181	-0.03423911
4.8e+08	0.009619742	-0.04491094	0.6571456	0.5945396	0.05625405	-0.07253788	0.02567884	-0.03737217
	0.6570588	0.5946253	0.00524707	-0.05014475	0.0277995	-0.03949664	0.05637925	-0.07325834
	0.05623816	-0.07311509	0.02644262	-0.03753425	0.01043211	-0.04963961	0.6596253	0.5924262
	0.02427774	-0.03717626	0.05598018	-0.07336514	0.6606026	0.5910188	0.007285715	-0.05173017
4.9e+08	0.01366947	-0.06865156	0.7790896	0.4149267	0.04246436	-0.09473103	0.0138578	-0.04515158
	0.7790254	0.4150434	0.007765226	-0.0726893	0.01530181	-0.04771848	0.0419616	-0.095676
	0.04236939	-0.09525881	0.01453222	-0.04544515	0.01318668	-0.07365244	0.7809376	0.4121891
	0.01253669	-0.04456773	0.04156315	-0.095632	0.7815034	0.4105716	0.009533373	-0.07490092
5e+08	0.00648713	-0.0940629	0.8528782	0.2124895	0.02037713	-0.1104431	-0.0005599157	-0.04826202
	0.8528481	0.2126313	-0.000521237	-0.09645605	0.0001381463	-0.05106375	0.01918483	-0.1113603
	0.02022573	-0.1109344	2.280773e-05	-0.04865369	0.004603043	-0.09891248	0.8539441	0.209343
	-0.001691748	-0.04732261	0.01884416	-0.1111848	0.8540601	0.2076315	0.0007950555	-0.09917949
5.1e+08	-0.01188391	-0.1159931	0.8752394	-4.599031e-05	-0.006495989	-0.1168424	-0.01525122	-0.04589102
	0.8752535	0.0001090176	-0.01942471	-0.1164793	-0.0153038	-0.04872286	-0.008335411	-0.1174783
	-0.006700912	-0.1173167	-0.01475402	-0.04636234	-0.01509829	-0.1202323	0.875451	-0.003355766
	-0.01609665	-0.04466038	-0.008577192	-0.1172124	0.8751106	-0.005038337	-0.01869274	-0.119537
5.2e+08	-0.03914709	-0.1297997	0.8461777	-0.2100668	-0.03390493	-0.1129837	-0.0278015	-0.03853775
	0.8462413	-0.2099131	-0.04660337	-0.1283141	-0.02856281	-0.04121619	-0.03625422	-0.1131177
	-0.03417861	-0.1134531	-0.0273854	-0.0390845	-0.04345837	-0.133009	0.8455525	-0.213297
	-0.02828894	-0.03710466	-0.03638014	-0.1128119	0.8447794	-0.2148351	-0.04650861	-0.1315026
