!$
! Info: Touchstone file created by Circ.  Input file=Tx_NPC_250mm_32AWG_BPK_1400mm_27AWG_BPK_250mm_32AWG_NPC_Rx.circ
!$
# Hz S RI R 50
0	0.05071635	-1.967527e-17	8.495714e-07	1.923455e-19	0.004618815	1.137456e-15	-1.306502e-06	-6.202379e-20
	5.988248e-06	2.188736e-22	0.04952451	-1.910093e-16	-3.97257e-07	1.912771e-19	0.003719229	-4.406122e-16
	0.003909873	1.648521e-17	-1.677353e-06	-7.748484e-21	0.06815066	-5.289749e-16	-4.646744e-06	-3.914345e-20
	9.994885e-06	-2.855939e-19	0.003805893	-2.528436e-16	2.903808e-07	2.621734e-19	0.07319197	5.509967e-16
1e+07	0.08094554	-0.01434867	7.327061e-07	-5.279444e-07	0.03370595	0.03908102	3.184966e-08	1.67802e-06
	3.722123e-06	-4.026322e-06	0.078561	-0.01561836	-5.491937e-07	-5.193901e-08	0.03316003	0.03904385
	0.03304629	0.03910539	-1.591049e-06	3.147712e-07	0.0761234	-0.0135313	-2.689413e-06	3.339921e-06
	5.877547e-06	-7.510393e-06	0.03319087	0.03902521	-3.843478e-07	-9.893017e-07	0.07940786	-0.01689684
2e+07	0.07209622	-0.03693278	2.025533e-07	-9.391419e-07	0.07903379	0.02644271	2.09753e-06	9.968493e-07
	-5.782716e-07	-4.42545e-06	0.06752928	-0.03735313	-6.665286e-07	1.256876e-07	0.07851419	0.02679143
	0.07837302	0.02676677	-1.471509e-06	4.877737e-07	0.06752398	-0.03515386	9.464798e-07	3.353823e-06
	-2.385889e-06	-8.116699e-06	0.07846343	0.02675205	-1.690309e-06	-8.22802e-07	0.0669169	-0.03874978
3e+07	0.04422647	-0.04848464	-5.99054e-07	-7.581734e-07	0.0813401	-0.01917942	2.370566e-06	-1.177229e-06
	-3.008645e-06	-1.174174e-06	0.03884961	-0.0461187	-5.223733e-07	4.332906e-07	0.0807979	-0.01854982
	0.0808106	-0.01855292	-1.440786e-06	7.032912e-07	0.04003687	-0.04583958	2.654226e-06	4.896089e-07
	-7.099077e-06	-1.583959e-06	0.08066511	-0.01851811	-2.333354e-06	6.037797e-07	0.03753124	-0.04632453
4e+07	0.01616416	-0.03169212	-8.894624e-07	1.696254e-07	0.03808653	-0.03477438	7.141513e-07	-2.361689e-06
	-1.286014e-06	2.397074e-06	0.01256298	-0.02661556	-3.854416e-08	5.090808e-07	0.03771494	-0.03415403
	0.03785303	-0.03416149	-1.285278e-06	1.093582e-06	0.01239721	-0.02808653	1.135902e-06	-2.164891e-06
	-3.705879e-06	5.744271e-06	0.03764783	-0.03401006	-1.326916e-06	2.154366e-06	0.0119077	-0.02561948
5e+07	0.0167029	0.001617542	-2.932052e-08	9.102572e-07	0.009390562	0.004293515	-7.723491e-07	-1.599606e-06
	2.806989e-06	2.33172e-06	0.01630359	0.007401706	3.318909e-07	2.792127e-08	0.009103093	0.004688806
	0.009253237	0.004672388	-7.72173e-07	1.410827e-06	0.01389763	0.006412133	-1.708042e-06	-2.071622e-06
	4.643519e-06	6.154375e-06	0.009163805	0.004820307	6.922878e-07	2.090128e-06	0.01703408	0.008328358
6e+07	0.04749866	0.01592852	1.134273e-06	2.808237e-07	0.03925962	0.04798067	-6.71934e-07	-4.274477e-07
	4.660744e-06	-1.572969e-06	0.0493344	0.01984769	6.094591e-09	-5.115131e-07	0.03878795	0.04835869
	0.03894403	0.04834261	-1.574365e-07	1.258071e-06	0.04631973	0.02124373	-2.929902e-06	3.338808e-07
	9.114072e-06	-1.327507e-06	0.0389297	0.04839526	1.593172e-06	3.31724e-07	0.0506976	0.01952453
7e+07	0.07454467	-0.005737972	9.898704e-07	-1.228499e-06	0.09513964	0.03733348	6.25031e-08	-3.312735e-07
	2.155197e-06	-5.293769e-06	0.07619025	-0.004016506	-6.086523e-07	-3.262838e-07	0.09458814	0.03802606
	0.0947524	0.03797259	9.239377e-09	8.455317e-07	0.07492323	-0.0008556162	-1.635582e-06	2.585756e-06
	4.77301e-06	-9.178322e-06	0.09469157	0.03794651	5.139725e-07	-1.117153e-06	0.07676861	-0.005564064
8e+07	0.06817673	-0.04007448	-6.003937e-07	-1.827713e-06	0.1101124	-0.01919601	1.400323e-07	-8.12293e-07
	-2.400938e-06	-5.295088e-06	0.06817505	-0.03874311	-6.196369e-07	4.365915e-07	0.1099207	-0.01815622
	0.1100131	-0.01824768	-1.705529e-07	8.347347e-07	0.06924444	-0.03604397	8.745918e-07	2.97899e-06
	-4.3427e-06	-9.651911e-06	0.1099063	-0.01826199	-1.186876e-06	-6.901929e-07	0.06725307	-0.04027416
9e+07	0.03486658	-0.04996922	-1.975401e-06	-5.874713e-07	0.06510008	-0.05563355	-1.712329e-07	-8.361374e-07
	-4.92251e-06	-1.50983e-06	0.0341535	-0.04684634	2.646424e-07	9.338354e-07	0.06555509	-0.05463436
	0.06551718	-0.05472124	4.909719e-08	1.291817e-06	0.03600687	-0.04620213	2.852384e-06	1.389017e-06
	-9.56847e-06	-2.032167e-06	0.06546308	-0.05465052	-1.43634e-06	1.292184e-06	0.03242569	-0.04705772
1e+08	0.01255561	-0.02251366	-1.430633e-06	1.267658e-06	0.01576366	-0.02609763	2.240416e-08	-6.672575e-07
	-2.936804e-06	2.417043e-06	0.01378519	-0.01740295	1.448231e-06	3.071021e-07	0.01669652	-0.02572993
	0.01645197	-0.02563726	9.744856e-07	1.407491e-06	0.01430073	-0.01823422	2.994177e-06	-1.172674e-06
	-5.402624e-06	6.228156e-06	0.01665779	-0.02563586	6.877621e-07	2.535782e-06	0.01278348	-0.0162111
1.1e+08	0.03201788	0.01067992	4.590149e-07	1.47872e-06	0.02913428	0.03263348	3.231849e-07	-1.271703e-06
	1.14653e-06	2.220811e-06	0.0368237	0.0151655	1.50432e-06	-1.278966e-06	0.02983709	0.03216753
	0.02960859	0.03270834	1.790695e-06	5.766982e-07	0.03556083	0.01493226	1.07179e-06	-2.880843e-06
	3.65859e-06	6.078337e-06	0.02993068	0.03226658	3.006104e-06	9.318057e-07	0.03737893	0.01640652
1.2e+08	0.07477297	0.006133454	1.269879e-06	-1.223736e-07	0.09401604	0.04221826	-5.234347e-07	-2.168967e-06
	2.378183e-06	-1.336336e-06	0.08144337	0.007119738	5.140233e-08	-2.031108e-06	0.09390658	0.04161583
	0.09414552	0.04237786	1.607204e-06	-5.106956e-07	0.08004713	0.008746367	-1.410003e-06	-2.254679e-06
	7.239327e-06	-1.88506e-06	0.09407002	0.04158977	2.586946e-06	-1.848133e-06	0.08274512	0.007058816
1.3e+08	0.09363317	-0.03594676	9.80625e-08	-1.375793e-06	0.1339578	-0.01534147	-2.226834e-06	-1.68161e-06
	-2.119863e-07	-3.854385e-06	0.09889027	-0.03843645	-1.125584e-06	-9.992198e-07	0.1335345	-0.01527414
	0.1341336	-0.01481544	8.157234e-07	-7.54683e-07	0.09906724	-0.03577668	-2.200369e-06	2.822491e-07
	1.947471e-06	-8.501587e-06	0.1336267	-0.01543074	1.904899e-07	-2.611046e-06	0.09939945	-0.03970662
1.4e+08	0.06827087	-0.07519811	-1.511593e-06	-7.31748e-07	0.1023747	-0.07923163	-2.721674e-06	5.273049e-07
	-3.733142e-06	-2.902294e-06	0.07048263	-0.07849061	-5.653066e-07	4.988473e-07	0.1025359	-0.07867857
	0.1030237	-0.07858564	6.183476e-07	-1.014344e-07	0.07236949	-0.07653784	-2.119496e-07	2.538268e-06
	-6.373889e-06	-7.189945e-06	0.1024796	-0.0788474	-1.303686e-06	-9.172307e-07	0.06952428	-0.07958327
1.5e+08	0.022853	-0.07310545	-1.518215e-06	1.079018e-06	0.03313547	-0.08038656	-5.988765e-07	2.241196e-06
	-4.893052e-06	6.557633e-07	0.02349862	-0.07455388	1.270902e-06	6.315774e-07	0.03408909	-0.08019637
	0.03422525	-0.08015652	1.624979e-06	2.425718e-07	0.02575384	-0.0742832	3.364572e-06	1.940255e-06
	-9.483058e-06	7.199174e-07	0.03394816	-0.0802497	-1.952564e-07	1.12389e-06	0.02199923	-0.07413778
1.6e+08	0.007348145	-0.03135039	1.770295e-07	1.738626e-06	0.007090549	-0.01930626	2.166003e-06	7.208487e-07
	-2.523092e-06	3.412067e-06	0.00942418	-0.03119416	2.42708e-06	-1.240933e-06	0.008236541	-0.02013189
	0.008084436	-0.01973294	2.710818e-06	-9.456514e-07	0.01068751	-0.03194782	4.952311e-06	-2.090582e-06
	-4.133734e-06	7.161266e-06	0.008152085	-0.02006736	2.470497e-06	7.080761e-07	0.009123837	-0.02945376
1.7e+08	0.04391395	-0.001849473	1.243717e-06	4.802842e-07	0.05699435	0.02447186	1.605758e-06	-2.745239e-06
	4.960712e-07	2.721619e-06	0.04836091	-0.003022807	1.125508e-06	-3.350828e-06	0.05733204	0.02280652
	0.05742511	0.02380152	2.096963e-06	-2.727834e-06	0.04859281	-0.003481288	1.916009e-06	-5.815088e-06
	3.399343e-06	5.441223e-06	0.05736429	0.02286599	3.126747e-06	-2.266683e-06	0.04991004	-0.001723437
1.8e+08	0.09020794	-0.02632541	5.016403e-07	-6.586992e-07	0.1184787	-0.008581146	-2.122053e-06	-3.499776e-06
	9.697465e-07	4.83803e-07	0.09468541	-0.03092592	-1.370813e-06	-3.03205e-06	0.1176831	-0.01001151
	0.1185426	-0.008932439	3.732451e-07	-3.006393e-06	0.09481763	-0.03061679	-2.890137e-06	-4.914637e-06
	4.940538e-06	-1.056726e-06	0.1177506	-0.01005466	6.54954e-07	-4.026791e-06	0.09676285	-0.03142566
1.9e+08	0.09326287	-0.0831047	-5.777408e-07	-2.698314e-07	0.115934	-0.08158501	-4.519996e-06	-1.596406e-07
	-3.575561e-07	-4.334946e-07	0.09481327	-0.09012489	-2.022185e-06	-7.162166e-07	0.1148655	-0.08205923
	0.1161768	-0.08158615	-3.933893e-07	-1.799379e-06	0.09548836	-0.08947088	-4.389976e-06	-3.53656e-07
	6.130074e-07	-4.748078e-06	0.1148557	-0.08217731	-1.672807e-06	-2.643856e-06	0.09566048	-0.09187435
2e+08	0.04706654	-0.1189923	-4.173543e-07	8.781454e-07	0.05113015	-0.1158207	-2.449774e-06	3.851432e-06
	-1.46541e-06	2.298943e-07	0.04491705	-0.125447	-1.718305e-07	7.568014e-07	0.05070676	-0.1158013
	0.05179321	-0.1159315	5.362638e-07	-8.29787e-07	0.04617265	-0.1250268	-1.053595e-06	3.203045e-06
	-4.120686e-06	-2.947185e-06	0.05059055	-0.1158921	-1.321099e-06	-3.059633e-07	0.04420294	-0.1266757
2.1e+08	-0.006610277	-0.09979913	9.408211e-07	1.027638e-06	-0.007507369	-0.07724398	2.535599e-06	3.797837e-06
	-1.496169e-06	1.437091e-06	-0.01045269	-0.1035139	2.023572e-06	-4.063711e-07	-0.007319753	-0.07765434
	-0.006746231	-0.07790449	2.021893e-06	-1.662541e-06	-0.008884161	-0.1035954	3.997809e-06	1.758829e-06
	-4.896638e-06	1.732619e-06	-0.00747563	-0.07764674	8.878751e-07	9.008127e-08	-0.01126809	-0.1030455
2.2e+08	-0.01170744	-0.04638808	1.511859e-06	-4.670544e-07	0.003592899	-0.01272557	4.633856e-06	-1.137668e-06
	-6.912983e-07	2.201293e-06	-0.01449139	-0.04794889	1.836052e-06	-3.07992e-06	0.003641661	-0.01394786
	0.003871623	-0.01382299	1.707055e-06	-3.901292e-06	-0.01284109	-0.04871072	4.921814e-06	-3.928603e-06
	-1.594804e-06	4.6419e-06	0.003529442	-0.01385563	1.979274e-06	-2.008791e-06	-0.01357095	-0.04668257
2.3e+08	0.03661242	-0.02506334	9.471445e-08	-1.392132e-06	0.06559818	-0.003537144	6.659915e-07	-4.91129e-06
	2.056991e-07	2.379366e-06	0.0354613	-0.02702809	-8.050909e-07	-3.991634e-06	0.06478878	-0.00517723
	0.065255	-0.004473692	-7.933683e-07	-4.586029e-06	0.03672804	-0.02863949	-1.263435e-07	-7.245656e-06
	2.061141e-06	3.762951e-06	0.06475038	-0.005062843	2.160072e-07	-3.813732e-06	0.03802418	-0.02716828
2.4e+08	0.07664481	-0.06558133	-1.051119e-06	-1.798595e-07	0.09466718	-0.06001234	-4.161117e-06	-2.510304e-06
	1.168134e-06	2.349889e-06	0.07512973	-0.069356	-2.634643e-06	-1.920042e-06	0.09293322	-0.06121949
	0.09416956	-0.06044673	-2.360798e-06	-2.621442e-06	0.07528037	-0.07142675	-5.173035e-06	-4.147771e-06
	3.428715e-06	1.219513e-06	0.09294681	-0.06112932	-2.071943e-06	-2.749173e-06	0.07720312	-0.07172606
2.5e+08	0.05908045	-0.1256479	-8.024392e-08	1.243299e-06	0.05428824	-0.1110614	-3.77214e-06	2.832802e-06
	2.393922e-06	1.650541e-06	0.05515367	-0.1300593	-1.468356e-06	4.948339e-07	0.05233299	-0.1113441
	0.05407569	-0.1112506	-1.26604e-06	-6.552157e-07	0.05408481	-0.1314705	-4.770501e-06	1.455602e-06
	3.069188e-06	-9.282746e-07	0.05236543	-0.1112919	-1.848787e-06	-3.777528e-07	0.05509254	-0.1331079
2.6e+08	-0.003641801	-0.1457183	1.828451e-06	7.070724e-07	-0.009192708	-0.1003503	1.379362e-06	4.788031e-06
	2.868909e-06	-1.840435e-07	-0.01001145	-0.1484436	1.17839e-06	3.755482e-07	-0.0106708	-0.1000585
	-0.009174939	-0.1007473	8.634322e-07	-9.868876e-07	-0.01121678	-0.1483204	1.511522e-07	3.680088e-06
	1.755028e-06	-2.414847e-06	-0.01064773	-0.1000427	3.392715e-07	9.566712e-08	-0.01158058	-0.1500155
2.7e+08	-0.05402557	-0.1050289	2.144958e-06	-1.702705e-06	-0.02905039	-0.04282022	5.536436e-06	7.966691e-07
	1.345698e-06	-1.877593e-06	-0.0609523	-0.1047083	2.072018e-06	-2.130629e-06	-0.0300045	-0.04260307
	-0.0292277	-0.04355402	1.298341e-06	-3.328843e-06	-0.06067341	-0.1036756	4.288015e-06	3.41202e-07
	-5.448699e-07	-2.709109e-06	-0.03002567	-0.04260233	1.306278e-06	-1.880452e-06	-0.06179806	-0.1043928
2.8e+08	-0.04266078	-0.04680017	-3.798815e-07	-3.186472e-06	0.01172371	-0.004704678	3.458958e-06	-4.707355e-06
	-1.122325e-06	-1.065322e-06	-0.04802684	-0.04416373	2.348309e-08	-3.792152e-06	0.01088709	-0.004895436
	0.01104936	-0.005415192	-1.123771e-06	-4.750733e-06	-0.0460295	-0.04435299	2.896555e-06	-4.678824e-06
	-2.569411e-06	-4.657146e-07	0.01081373	-0.004842961	-5.264854e-07	-3.268052e-06	-0.04676617	-0.04390812
2.9e+08	0.01043605	-0.03775664	-2.916767e-06	-1.134033e-06	0.05735275	-0.02960277	-2.250711e-06	-4.649309e-06
	-1.12339e-06	1.939643e-06	0.007138428	-0.03476949	-2.099743e-06	-2.366168e-06	0.05614959	-0.03014545
	0.05640347	-0.02986033	-3.563369e-06	-2.768621e-06	0.008629724	-0.03751524	-2.012002e-06	-5.150833e-06
	-1.213708e-06	3.284516e-06	0.0561078	-0.0299841	-2.41554e-06	-1.64554e-06	0.009162296	-0.03673079
3e+08	0.03628546	-0.08499213	-1.775176e-06	2.035632e-06	0.04735349	-0.07975552	-3.905082e-06	4.761586e-07
	2.221809e-06	3.211351e-06	0.03386049	-0.08285849	-1.410085e-06	3.40648e-08	0.04546113	-0.08016733
	0.0465811	-0.07959604	-2.604294e-06	2.893282e-07	0.03237921	-0.0864736	-4.061559e-06	-1.121277e-06
	3.801532e-06	4.048362e-06	0.04556713	-0.07996384	-1.323099e-06	8.236467e-07	0.03402528	-0.0866044
3.1e+08	0.001983574	-0.1321247	1.653392e-06	2.020837e-06	-0.003316994	-0.08898962	2.338774e-07	3.606463e-06
	5.35787e-06	3.526953e-07	-0.000899695	-0.1304392	1.093163e-06	2.527177e-07	-0.005606165	-0.08863799
	-0.00379231	-0.08877651	4.626246e-07	5.845309e-07	-0.004919644	-0.1316628	-1.470813e-06	2.078418e-06
	7.737813e-06	-6.7168e-07	-0.005357835	-0.08855022	1.576871e-06	6.709889e-07	-0.003268635	-0.1333633
3.2e+08	-0.05979948	-0.126761	2.959042e-06	-1.392445e-06	-0.0329587	-0.04790759	4.648497e-06	8.64525e-07
	4.34005e-06	-4.453441e-06	-0.06338584	-0.1243377	2.271699e-06	-2.025974e-06	-0.03490171	-0.04672723
	-0.03337776	-0.04784421	1.855728e-06	-2.050796e-06	-0.06657706	-0.1218923	2.168329e-06	1.212554e-06
	5.516757e-06	-7.491761e-06	-0.03466654	-0.04684321	2.540661e-06	-2.294317e-06	-0.06624664	-0.1247019
3.3e+08	-0.08798543	-0.07252501	-1.493758e-09	-4.209423e-06	-0.01000821	-0.005608852	3.710326e-06	-4.305397e-06
	-8.802304e-07	-6.105883e-06	-0.09141491	-0.06849924	4.948026e-07	-3.901559e-06	-0.01115165	-0.004159936
	-0.01061231	-0.005548092	-2.049525e-07	-4.298562e-06	-0.09081898	-0.06498105	2.747231e-06	-2.005405e-06
	-2.411165e-06	-9.201994e-06	-0.01110742	-0.004380242	-2.179712e-07	-4.264098e-06	-0.09230893	-0.06738524
3.4e+08	-0.05832816	-0.02640083	-4.184964e-06	-2.394301e-06	0.03459121	-0.01033026	-1.38734e-06	-5.157902e-06
	-4.849609e-06	-1.900901e-06	-0.06028487	-0.02092094	-1.741318e-06	-2.612489e-06	0.034115	-0.009311401
	0.03386963	-0.009993134	-3.199254e-06	-2.906086e-06	-0.0570104	-0.02047155	4.044191e-07	-3.210678e-06
	-7.975531e-06	-2.288081e-06	0.03397188	-0.009402416	-3.117941e-06	-1.827605e-06	-0.05918443	-0.02103669
3.5e+08	-0.01240082	-0.03316212	-4.12026e-06	2.452334e-06	0.0437051	-0.05160207	-3.578364e-06	-7.381375e-07
	-2.406058e-06	3.410828e-06	-0.01204417	-0.02740728	-8.894434e-07	-7.782129e-08	0.04318572	-0.05139308
	0.04316369	-0.05095705	-2.808165e-06	6.789211e-07	-0.01063329	-0.03079848	-7.393426e-07	-1.495053e-06
	-3.631399e-06	6.137782e-06	0.043097	-0.05124813	-1.364148e-06	2.09097e-06	-0.01148472	-0.02982211
3.6e+08	-0.004625715	-0.07377499	4.268994e-07	4.255422e-06	0.007931256	-0.07199951	3.432468e-09	2.417433e-06
	3.525773e-06	2.982431e-06	-0.00225836	-0.06921416	1.986358e-06	-2.030431e-07	0.006571218	-0.07209023
	0.007701974	-0.07130122	8.37098e-07	1.696581e-06	-0.005428742	-0.07243212	8.179227e-07	-4.151962e-07
	6.455144e-06	5.491717e-06	0.006747627	-0.07190476	3.39892e-06	1.806007e-06	-0.004191048	-0.07193714
3.7e+08	-0.04006642	-0.0950876	3.767641e-06	7.205085e-07	-0.02289366	-0.04468746	4.094013e-06	-2.345228e-07
	5.50746e-06	-3.023601e-06	-0.03699061	-0.09257028	3.003301e-06	-3.136504e-06	-0.02494814	-0.04405828
	-0.02297769	-0.04411446	3.238368e-06	-1.235182e-06	-0.04216512	-0.09122063	2.196031e-06	-1.902054e-06
	1.044429e-05	-4.658666e-06	-0.02460161	-0.04412497	5.224114e-06	-3.01519e-06	-0.04030752	-0.09300976
3.8e+08	-0.07557494	-0.07145928	1.596696e-06	-3.743352e-06	-0.008026455	-0.005719854	2.714426e-06	-5.222797e-06
	4.539123e-07	-7.765986e-06	-0.07332024	-0.07049172	5.258138e-07	-5.32747e-06	-0.00977801	-0.004061217
	-0.008135556	-0.005173577	1.467608e-06	-4.483867e-06	-0.07517817	-0.06499872	9.360002e-07	-3.703273e-06
	2.521096e-06	-1.340948e-05	-0.009583702	-0.004429405	1.324991e-06	-6.855904e-06	-0.07519928	-0.06865053
3.9e+08	-0.07199914	-0.03051041	-3.609045e-06	-3.217157e-06	0.0344574	-0.005145385	-2.766241e-06	-5.483273e-06
	-6.505487e-06	-5.091186e-06	-0.07099855	-0.02951457	-2.510575e-06	-3.592502e-06	0.03377231	-0.003153328
	0.03439758	-0.004456905	-2.137366e-06	-3.797139e-06	-0.06753546	-0.02503536	-1.26801e-06	-2.622736e-06
	-9.541642e-06	-9.999812e-06	0.03360821	-0.003546177	-3.928651e-06	-4.436169e-06	-0.07034522	-0.02795084
4e+08	-0.03939708	-0.01609	-5.050924e-06	2.11699e-06	0.05105585	-0.0447788	-4.74565e-06	-1.314989e-07
	-7.038605e-06	2.4738e-06	-0.03840983	-0.01389171	-1.599955e-06	4.474969e-08	0.05128373	-0.04352391
	0.05125271	-0.04399148	-2.465942e-06	3.001755e-08	-0.03351269	-0.0145008	-3.401812e-07	2.607512e-07
	-1.17218e-05	2.671616e-06	0.05091864	-0.04361605	-3.255929e-06	1.697948e-06	-0.03713803	-0.01451045
4.1e+08	-0.0180829	-0.03423302	-5.400539e-07	5.570323e-06	0.02068019	-0.07437318	-4.243102e-08	3.46471e-06
	-5.464989e-07	5.865104e-06	-0.01530312	-0.03145808	2.497186e-06	2.693427e-07	0.02073597	-0.07433391
	0.02117273	-0.07373145	1.34579e-06	1.692049e-06	-0.01429077	-0.03532165	3.547452e-06	7.234849e-08
	-1.134067e-06	9.936718e-06	0.02053961	-0.07412161	3.215115e-06	3.251678e-06	-0.01578164	-0.03314796
4.2e+08	-0.02606246	-0.0535691	4.400842e-06	2.761095e-06	-0.01636305	-0.05646582	5.125544e-06	-1.376648e-07
	4.783796e-06	1.274056e-06	-0.02108715	-0.05246889	4.351442e-06	-3.822189e-06	-0.01747257	-0.05687528
	-0.01579816	-0.05610978	4.540786e-06	-1.364375e-06	-0.02449343	-0.05397526	5.105433e-06	-4.447523e-06
	9.791366e-06	3.238027e-06	-0.01733771	-0.0566919	7.456738e-06	-2.520766e-06	-0.02300478	-0.05265592
4.3e+08	-0.04241156	-0.0489977	3.622986e-06	-2.813673e-06	-0.01061974	-0.01581446	3.23336e-06	-6.760877e-06
	2.311523e-06	-5.369727e-06	-0.03728202	-0.05135321	1.08794e-06	-7.418932e-06	-0.01267162	-0.01545309
	-0.0101873	-0.01558684	2.983497e-06	-5.596022e-06	-0.040128	-0.04770721	1.082851e-06	-8.259822e-06
	7.969846e-06	-9.655755e-06	-0.01243778	-0.01558629	3.724106e-06	-9.145844e-06	-0.03804961	-0.04952792
4.4e+08	-0.03885695	-0.0323198	-1.882236e-06	-3.907089e-06	0.03253773	-0.008275594	-4.299423e-06	-7.26932e-06
	-5.161751e-06	-5.389682e-06	-0.03647314	-0.03721867	-3.766175e-06	-5.65918e-06	0.03066336	-0.006762099
	0.03293662	-0.00794419	-1.462341e-06	-5.608361e-06	-0.03415965	-0.03194892	-4.584527e-06	-5.85287e-06
	-4.911595e-06	-1.31489e-05	0.03063559	-0.007123917	-4.123255e-06	-8.283822e-06	-0.03474508	-0.03576927
4.5e+08	-0.01993074	-0.03259139	-4.641797e-06	1.052331e-06	0.05764473	-0.04950149	-7.617386e-06	1.096798e-07
	-8.119794e-06	1.829527e-06	-0.02105374	-0.0369536	-3.794068e-06	-2.618322e-07	0.05683774	-0.04759305
	0.05827713	-0.04911406	-2.722533e-06	-1.377127e-06	-0.01503828	-0.03564019	-4.424763e-06	8.193139e-07
	-1.334071e-05	-2.656607e-06	0.0564712	-0.04781945	-6.170756e-06	-5.329377e-07	-0.01873097	-0.03796578
4.6e+08	-0.01408031	-0.05173359	-7.905505e-07	5.379092e-06	0.02926751	-0.09220129	-1.663969e-06	6.126076e-06
	-2.755536e-06	7.422937e-06	-0.01643884	-0.0533646	1.453961e-06	1.699941e-06	0.02929806	-0.09108394
	0.03017955	-0.0920684	1.122603e-06	1.150229e-06	-0.01224483	-0.05681915	2.328566e-06	3.29269e-06
	-7.422058e-06	9.132961e-06	0.02888081	-0.09094805	4.293039e-07	4.160611e-06	-0.01615189	-0.05564734
4.7e+08	-0.03018937	-0.06295854	4.785978e-06	3.35333e-06	-0.02123975	-0.08552564	6.471892e-06	2.695061e-06
	4.201514e-06	4.963742e-06	-0.0307984	-0.06279272	5.432441e-06	-2.594519e-06	-0.02154032	-0.08556114
	-0.02034438	-0.08584361	5.145951e-06	-1.736573e-06	-0.03124086	-0.06647268	7.687895e-06	-2.38021e-06
	5.278811e-06	8.781764e-06	-0.02168993	-0.08520865	7.449136e-06	-2.914118e-07	-0.03218588	-0.06337041
4.8e+08	-0.0440002	-0.04905306	5.049179e-06	-2.724958e-06	-0.0344092	-0.03893366	6.299854e-06	-6.667085e-06
