!$
! Info: Touchstone file created by Circ.  Input file=Tx_NPC_250mm_32AWG_BPK_500mm_27AWG_BPK_250mm_32AWG_NPC_Rx.circ
!$
# Hz S RI R 50
0	0.02465446	-1.261053e-16	2.65359e-06	2.202735e-19	0.003055711	-3.433444e-15	2.35375e-07	-4.279915e-21
	2.691086e-07	-1.535226e-21	0.02434807	-2.051231e-16	-7.772566e-07	1.933402e-19	0.002947075	-4.52729e-16
	0.003066609	-9.566526e-16	7.041615e-07	3.279567e-20	0.04444727	3.400209e-15	1.404892e-06	-1.878018e-19
	1.110812e-06	-9.43708e-22	0.003048613	-2.592952e-16	-3.232792e-08	1.598256e-21	0.04889377	4.835362e-16
1e+07	0.05798332	0.002308947	2.920009e-06	5.9374e-08	0.01475386	0.03091818	2.473393e-07	2.425804e-07
	6.468516e-07	7.591451e-07	0.05748955	0.001837194	-5.116462e-07	6.678523e-07	0.01606883	0.02986132
	0.01594159	0.03002016	8.267979e-07	3.919698e-08	0.054757	0.002721836	1.436153e-06	-1.285989e-07
	1.125374e-06	2.432818e-08	0.0161125	0.02987057	5.399342e-08	1.911519e-07	0.05888662	0.001031638
2e+07	0.06566123	-0.003169854	3.19275e-06	-3.940295e-07	0.04448089	0.04647749	3.623462e-07	3.5506e-07
	1.240927e-06	9.292042e-07	0.06459781	-0.003998863	9.800952e-08	9.10291e-07	0.04485437	0.0452254
	0.04484718	0.04536402	1.026504e-06	-2.078132e-07	0.0624091	-0.00227068	1.505248e-06	-3.314904e-07
	1.145683e-06	-6.65745e-08	0.04487325	0.04518384	2.56578e-07	2.531117e-07	0.06538909	-0.005438962
3e+07	0.06947751	-0.01543929	2.917544e-06	-1.280409e-06	0.0767573	0.03851605	3.759951e-07	3.605129e-07
	1.464899e-06	5.33586e-07	0.06747837	-0.01618293	5.99231e-07	6.552132e-07	0.07603595	0.03823686
	0.07636794	0.03841375	9.541211e-07	-7.1179e-07	0.06617853	-0.01395919	1.533886e-06	-6.266136e-07
	1.009503e-06	-2.193398e-07	0.07601565	0.0381354	4.512437e-07	1.53203e-07	0.06750163	-0.0178122
4e+07	0.06532493	-0.03020889	1.769154e-06	-2.041679e-06	0.09627675	0.01193198	2.291087e-07	3.799555e-07
	9.468034e-07	8.078882e-08	0.06243348	-0.03016472	6.71259e-07	1.623377e-07	0.0952102	0.01190159
	0.09577236	0.01200153	4.179298e-07	-1.169891e-06	0.0620914	-0.02799163	1.463499e-06	-9.879124e-07
	6.844507e-07	-2.881429e-07	0.09513347	0.01181857	5.388547e-07	-6.607213e-08	0.06170833	-0.03155866
5e+07	0.05285633	-0.04134813	-4.651216e-08	-1.987465e-06	0.0939843	-0.0205776	-2.415724e-08	5.463113e-07
	-1.755652e-07	2.137701e-07	0.04941084	-0.03983751	2.793003e-07	-1.620913e-07	0.09286292	-0.02025089
	0.09351371	-0.02027032	-4.820523e-07	-1.19797e-06	0.04985295	-0.03816282	1.25569e-06	-1.368413e-06
	2.569219e-07	-1.450206e-07	0.09276715	-0.02027902	4.601018e-07	-3.180988e-07	0.04819024	-0.04073401
6e+07	0.03525848	-0.04390384	-1.816449e-06	-7.133577e-07	0.07121658	-0.04363069	-2.487152e-07	9.233407e-07
	-1.276373e-06	1.315962e-06	0.03215137	-0.04062058	-2.941603e-07	-1.740743e-09	0.07009959	-0.04280707
	0.07085828	-0.04311916	-1.356915e-06	-5.581661e-07	0.03287319	-0.03973228	8.993389e-07	-1.697296e-06
	-9.862864e-08	2.600208e-07	0.06998743	-0.04277526	2.310632e-07	-4.850451e-07	0.03076266	-0.04083145
7e+07	0.01895314	-0.03535416	-2.617357e-06	1.538581e-06	0.03885497	-0.04549977	-2.586881e-07	1.449804e-06
	-1.542427e-06	3.170605e-06	0.01715368	-0.03042108	-5.85268e-07	6.564335e-07	0.0380729	-0.04424623
	0.03871303	-0.04487032	-1.683324e-06	6.383185e-07	0.01763749	-0.03025387	4.280775e-07	-1.908838e-06
	-1.879242e-07	8.276934e-07	0.03798896	-0.04415378	-6.640106e-08	-4.868082e-07	0.01595091	-0.0299932
8e+07	0.01096773	-0.01775305	-1.891037e-06	3.835437e-06	0.01328155	-0.02438404	4.134444e-08	1.908952e-06
	-5.073576e-07	4.924353e-06	0.01132641	-0.01188128	-2.380726e-07	1.425326e-06	0.01305396	-0.02291063
	0.01338132	-0.02375229	-1.113824e-06	1.866923e-06	0.01117827	-0.01206084	-9.038064e-08	-1.981432e-06
	7.792328e-08	1.301323e-06	0.01302962	-0.0227781	-2.983586e-07	-3.332045e-07	0.01057754	-0.01101583
9e+07	0.01618278	0.002427714	5.438615e-08	4.983271e-06	0.00860333	0.01019192	5.301316e-07	2.037746e-06
	1.479963e-06	5.513287e-06	0.01906165	0.008062993	6.714969e-07	1.716264e-06	0.0089936	0.01160225
	0.008906135	0.01073165	1.964763e-07	2.420506e-06	0.01820868	0.008106277	-6.253621e-07	-1.943634e-06
	5.411459e-07	1.38871e-06	0.009046602	0.01174208	-4.02782e-07	-1.343932e-07	0.01889746	0.009083044
1e+08	0.03443391	0.01640145	2.03063e-06	4.311784e-06	0.02946548	0.04144029	8.815551e-07	1.746142e-06
	3.27491e-06	4.406161e-06	0.03949407	0.0205826	1.588938e-06	1.179699e-06	0.03032879	0.04244136
	0.02989096	0.04181719	1.559212e-06	1.888749e-06	0.03825814	0.0213348	-1.202684e-06	-1.789994e-06
	8.247713e-07	1.004106e-06	0.03045453	0.04253984	-4.363316e-07	2.305253e-08	0.03989259	0.02146333
1.1e+08	0.0598692	0.01708871	2.643957e-06	2.251388e-06	0.06829686	0.05327588	7.91597e-07	1.248602e-06
	3.595307e-06	2.116802e-06	0.06618392	0.01895126	1.845189e-06	2.726147e-08	0.06939239	0.05378406
	0.06877336	0.05349787	2.163113e-06	5.067415e-07	0.06511291	0.02058604	-1.812381e-06	-1.43938e-06
	5.792968e-07	3.956493e-07	0.06956613	0.05380977	-4.82818e-07	1.474435e-07	0.06696974	0.01943567
1.2e+08	0.08344637	0.002464225	1.173593e-06	1.23685e-07	0.1091379	0.03835342	2.120479e-07	9.193074e-07
	1.86271e-06	-2.898508e-08	0.08976443	0.001763799	1.143254e-06	-1.09129e-06	0.1102071	0.03835925
	0.1096036	0.03844179	1.600474e-06	-9.807504e-07	0.08943955	0.004092017	-2.332526e-06	-8.197275e-07
	-2.542373e-07	2.225937e-09	0.1103787	0.03829157	-5.361663e-07	3.18961e-07	0.09068866	0.001752383
1.3e+08	0.09687206	-0.02390603	-1.996643e-06	-5.7478e-07	0.13514	0.0008170622	-6.32817e-07	1.048723e-06
	-1.434094e-06	-6.105142e-07	0.1020591	-0.02674845	-2.785953e-07	-1.508218e-06	0.1360085	0.0004301284
	0.135577	0.0008104078	7.203268e-08	-1.769131e-06	0.102841	-0.02423511	-2.596921e-06	9.678224e-09
	-1.426684e-06	1.771417e-07	0.1361304	0.0002817023	-5.31773e-07	5.398298e-07	0.1028666	-0.02722502
1.4e+08	0.09533025	-0.05471259	-5.581995e-06	1.067018e-06	0.1356897	-0.04604307	-1.411199e-06	1.714881e-06
	-4.967247e-06	1.169252e-06	0.0986627	-0.05879623	-1.812707e-06	-8.739642e-07	0.1362709	-0.04667802
	0.1361041	-0.04612375	-1.777537e-06	-1.374454e-06	0.1005593	-0.05673994	-2.530561e-06	8.891818e-07
	-2.545594e-06	1.042721e-06	0.136308	-0.04687121	-4.478769e-07	7.562717e-07	0.09915305	-0.05959394
1.5e+08	0.07852191	-0.08127103	-7.948247e-06	4.96855e-06	0.1101614	-0.08547345	-1.813812e-06	2.81249e-06
	-7.125614e-06	5.114046e-06	0.07985429	-0.08548924	-2.747186e-06	7.279544e-07	0.1104153	-0.08619605
	0.1105565	-0.08562711	-3.137106e-06	2.191023e-07	0.08250053	-0.08445547	-2.168052e-06	1.680549e-06
	-3.220252e-06	2.500952e-06	0.1103565	-0.08638345	-3.125693e-07	9.443454e-07	0.07993544	-0.08639273
1.6e+08	0.05061773	-0.09571249	-7.746286e-06	1.000023e-05	0.06777681	-0.1034962	-1.597671e-06	4.082995e-06
	-6.643531e-06	1.000982e-05	0.05041264	-0.09914643	-2.495973e-06	2.782825e-06	0.06776813	-0.1041781
	0.06814627	-0.1037434	-3.277888e-06	2.531933e-06	0.05317648	-0.09937712	-1.557128e-06	2.31273e-06
	-3.124298e-06	4.262717e-06	0.06763206	-0.1043134	-1.2071e-07	1.134591e-06	0.05008694	-0.09990616
1.7e+08	0.01998492	-0.0930807	-4.551428e-06	1.426027e-05	0.02450356	-0.09410928	-6.638877e-07	5.096799e-06
	-3.214705e-06	1.392018e-05	0.01909491	-0.09522134	-8.551869e-07	4.393626e-06	0.02433933	-0.09465328
	0.02481114	-0.09445942	-1.84635e-06	4.628021e-06	0.02130061	-0.09657082	-7.145748e-07	2.685438e-06
	-2.094287e-06	5.817946e-06	0.02416578	-0.09470755	2.120094e-07	1.284691e-06	0.01851717	-0.09562547
1.8e+08	-0.00268421	-0.0738767	6.524036e-07	1.576819e-05	-0.00276931	-0.06209869	7.490574e-07	5.325726e-06
	2.044898e-06	1.490488e-05	-0.003318485	-0.07483474	1.675758e-06	4.565011e-06	-0.002942607	-0.06251254
	-0.002575035	-0.06253706	7.772044e-07	5.385936e-06	-0.002119143	-0.07678178	2.50442e-07	2.617151e-06
	-3.464925e-07	6.526513e-06	-0.003106581	-0.06248491	6.903763e-07	1.216898e-06	-0.003896768	-0.07476918
1.9e+08	-0.008069257	-0.04554494	5.543836e-06	1.357836e-05	-0.003214737	-0.02214268	1.955492e-06	4.485653e-06
	6.717856e-06	1.21349e-05	-0.007807295	-0.04596482	3.836512e-06	2.829373e-06	-0.003299475	-0.02253737
	-0.003176728	-0.0226161	3.366817e-06	4.150512e-06	-0.00764652	-0.04784992	1.003302e-06	2.010633e-06
	1.388579e-06	5.981137e-06	-0.003418318	-0.02245253	1.07764e-06	7.748567e-07	-0.008091477	-0.04547196
2e+08	0.006836162	-0.02077498	7.537064e-06	8.70743e-06	0.02225095	0.006923037	2.14371e-06	2.951275e-06
	8.205846e-06	6.78903e-06	0.008077309	-0.02153548	4.218549e-06	-1.379555e-07	0.02224203	0.006401326
	0.02212994	0.006495124	4.428929e-06	1.40785e-06	0.007563705	-0.02285656	1.148394e-06	1.126511e-06
	2.182116e-06	4.470064e-06	0.02218062	0.006507331	1.023081e-06	1.192517e-07	0.008331687	-0.02083131
2.1e+08	0.03600851	-0.01182055	5.456867e-06	3.866938e-06	0.06054815	0.0111546	1.04603e-06	1.67956e-06
	5.422061e-06	1.725619e-06	0.03773196	-0.01363827	2.330993e-06	-2.697849e-06	0.06049558	0.010405
	0.06031684	0.01084345	3.279966e-06	-1.312868e-06	0.03709202	-0.01428889	6.495885e-07	5.151502e-07
	1.613267e-06	2.94127e-06	0.06048115	0.010502	4.692897e-07	-2.973592e-07	0.03860789	-0.01304169
2.2e+08	0.06689588	-0.02457455	4.228117e-07	1.843003e-06	0.09281719	-0.01145193	-7.680473e-07	1.504714e-06
	-3.608473e-07	-2.066729e-07	0.06827577	-0.02769996	-9.270064e-07	-3.347229e-06	0.09256708	-0.01242728
	0.09256256	-0.01161924	5.988174e-07	-2.482829e-06	0.06792962	-0.02792481	-6.110135e-08	5.494544e-07
	1.156088e-07	2.315955e-06	0.09257872	-0.0123522	-2.169145e-07	-1.621181e-07	0.06966882	-0.02754634
2.3e+08	0.08626858	-0.05599449	-4.894048e-06	3.811835e-06	0.103982	-0.05050621	-2.365915e-06	2.542464e-06
	-6.321819e-06	2.139147e-06	0.08649474	-0.06013953	-3.915297e-06	-1.704578e-06	0.1034081	-0.05162049
	0.1037889	-0.05056319	-2.136286e-06	-1.575737e-06	0.0865529	-0.06035674	-4.725508e-07	1.118653e-06
	-1.439879e-06	2.852976e-06	0.1034287	-0.05156444	-6.013986e-07	4.061273e-07	0.08813263	-0.06064844
2.4e+08	0.08545746	-0.09631571	-7.871156e-06	8.903775e-06	0.08931003	-0.08933487	-3.115628e-06	4.297182e-06
	-9.741329e-06	7.802721e-06	0.08402493	-0.1007925	-5.29394e-06	1.47041e-06	0.08834571	-0.0904515
	0.08922389	-0.08936181	-3.635298e-06	8.460899e-07	0.08428472	-0.1013362	-3.850249e-07	1.854505e-06
	-2.395223e-06	4.205857e-06	0.08836993	-0.09040537	-5.428211e-07	1.06973e-06	0.08556442	-0.1020005
2.5e+08	0.06259532	-0.1330139	-7.117035e-06	1.491141e-05	0.05498924	-0.1129094	-2.874189e-06	6.14325e-06
	-9.192584e-06	1.447222e-05	0.05943465	-0.1369691	-4.533695e-06	4.89491e-06	0.05363612	-0.1138672
	0.05499433	-0.1129997	-3.312204e-06	3.678764e-06	0.05954354	-0.1379333	1.373884e-07	2.477141e-06
	-2.509807e-06	5.856986e-06	0.05366776	-0.113827	-1.346243e-07	1.596274e-06	0.06057893	-0.1387444
2.6e+08	0.02271457	-0.1544613	-2.845783e-06	1.93167e-05	0.01414739	-0.1134286	-1.782401e-06	7.587524e-06
	-4.894113e-06	1.954189e-05	0.018202	-0.1571615	-1.879213e-06	7.296232e-06	0.0124876	-0.1140861
	0.01416781	-0.113651	-1.283376e-06	5.767253e-06	0.01782809	-0.1583456	1.000211e-06	2.836358e-06
	-1.792614e-06	7.355805e-06	0.01253225	-0.114058	5.255228e-07	1.890196e-06	0.01877834	-0.1592352
2.7e+08	-0.02351177	-0.1532032	3.283555e-06	2.01859e-05	-0.01876372	-0.09215941	-1.254887e-07	8.230979e-06
	1.467787e-06	2.100768e-05	-0.02871393	-0.1541836	1.790954e-06	7.692225e-06	-0.02058028	-0.09242668
	-0.01884059	-0.0925228	1.730577e-06	6.167687e-06	-0.02966936	-0.1552133	2.125817e-06	2.755562e-06
	-3.911983e-07	8.273745e-06	-0.02052828	-0.09242398	1.378815e-06	1.81744e-06	-0.0287183	-0.1562762
2.8e+08	-0.06230148	-0.1287518	8.643457e-06	1.689383e-05	-0.03300894	-0.05821215	1.577516e-06	7.766113e-06
	7.228826e-06	1.81887e-05	-0.06742998	-0.1279408	5.065789e-06	5.687399e-06	-0.03480904	-0.05810065
	-0.03329296	-0.05864865	4.469868e-06	4.444561e-06	-0.06876986	-0.1284408	3.268127e-06	2.004949e-06
	1.281202e-06	8.209082e-06	-0.03476992	-0.05813163	2.215285e-06	1.183673e-06	-0.06788699	-0.1298229
2.9e+08	-0.0813366	-0.08903326	1.053473e-05	1.066205e-05	-0.0251948	-0.02512971	2.535402e-06	6.255647e-06
	9.639391e-06	1.226051e-05	-0.08574507	-0.08670652	6.354879e-06	1.893186e-06	-0.02685665	-0.02474697
	-0.02574293	-0.02550249	5.45321e-06	1.102141e-06	-0.08703396	-0.08652776	3.929606e-06	5.56325e-07
	2.480509e-06	7.081747e-06	-0.02685907	-0.02480056	2.586229e-06	-2.18785e-08	-0.08644669	-0.08827137
3e+08	-0.07518389	-0.04846908	7.544099e-06	4.460527e-06	-0.0007766842	-0.005916013	2.076394e-06	4.433205e-06
	7.219177e-06	6.163549e-06	-0.07846572	-0.04509412	4.73078e-06	-1.947263e-06	-0.002275167	-0.005401504
	-0.001550817	-0.00606114	3.790572e-06	-2.262733e-06	-0.07925726	-0.04445354	3.636036e-06	-1.158578e-06
	2.497075e-06	5.467831e-06	-0.00233669	-0.005440132	2.070671e-06	-1.371238e-06	-0.07921467	-0.04637758
3.1e+08	-0.04853757	-0.022208	7.302809e-07	1.735422e-06	0.02767243	-0.007442168	2.980385e-07	3.449095e-06
	9.525838e-07	3.340619e-06	-0.05058755	-0.01829042	8.10536e-07	-3.71182e-06	0.02626166	-0.006894926
	0.02681048	-0.007234292	4.938091e-08	-3.668275e-06	-0.05069331	-0.01769693	2.393866e-06	-2.405813e-06
	1.304046e-06	4.398074e-06	0.02615513	-0.006870196	7.308487e-07	-2.155312e-06	-0.05127	-0.01942623
3.2e+08	-0.01460444	-0.01913811	-6.546108e-06	4.322954e-06	0.04599888	-0.02677296	-1.797724e-06	4.021755e-06
	-5.873924e-06	5.655628e-06	-0.0154623	-0.01506501	-3.329666e-06	-2.305464e-06	0.04457528	-0.02620422
	0.04524897	-0.02618821	-3.809551e-06	-2.101349e-06	-0.01515185	-0.0150517	7.706415e-07	-2.70494e-06
	-2.786203e-07	4.560489e-06	0.04447744	-0.02608192	-8.254029e-07	-1.941701e-06	-0.01611404	-0.01620435
3.3e+08	0.01115643	-0.03795541	-1.053136e-05	1.114447e-05	0.04565915	-0.05241457	-3.038125e-06	5.856373e-06
	-9.561854e-06	1.208296e-05	0.01138344	-0.03400188	-5.450975e-06	1.526265e-06	0.04414444	-0.05175343
	0.04520582	-0.05154959	-5.679771e-06	1.695035e-06	0.01149145	-0.03477391	-5.71088e-07	-2.147373e-06
	-1.247839e-06	5.73904e-06	0.04412841	-0.05154402	-1.9091e-06	-8.883292e-07	0.01062509	-0.03520115
3.4e+08	0.01784671	-0.06850559	-9.306362e-06	1.88646e-05	0.02799704	-0.07050438	-2.913367e-06	7.981959e-06
	-8.224709e-06	1.935798e-05	0.01906161	-0.06489469	-4.539655e-06	5.76528e-06	0.02638486	-0.06962664
	0.0279395	-0.06954317	-4.641521e-06	5.775565e-06	0.01831477	-0.0661362	-1.305842e-06	-1.155911e-06
	-1.190406e-06	7.121405e-06	0.02650824	-0.06939161	-2.197442e-06	5.005662e-07	0.01805391	-0.06606018
3.5e+08	0.003054529	-0.0967225	-3.682994e-06	2.386247e-05	0.002854287	-0.07201446	-1.695014e-06	9.50559e-06
	-2.678197e-06	2.39424e-05	0.00515063	-0.09370615	-1.162718e-06	8.388874e-06	0.001241455	-0.07079987
	0.00317369	-0.07116135	-1.291769e-06	8.216658e-06	0.003249672	-0.09466274	-1.42455e-06	-1.204411e-07
	-3.733186e-07	7.993431e-06	0.001514347	-0.07063331	-1.723135e-06	1.751652e-06	0.003861513	-0.09463036
3.6e+08	-0.02692504	-0.1103422	3.471124e-06	2.400952e-05	-0.01703305	-0.0566607	-2.375691e-08	9.990643e-06
	4.244135e-06	2.378869e-05	-0.02415592	-0.1081703	3.073355e-06	8.267063e-06	-0.01845423	-0.05505923
	-0.01645788	-0.05606795	2.789222e-06	7.975134e-06	-0.02692274	-0.107992	-1.047013e-06	6.766393e-07
	6.503436e-07	8.05928e-06	-0.01808427	-0.0550501	-6.893397e-07	2.514465e-06	-0.02557551	-0.108653
3.7e+08	-0.05994243	-0.1033962	8.66051e-06	1.946857e-05	-0.02213918	-0.03208478	1.415973e-06	9.415876e-06
	9.121558e-06	1.912521e-05	-0.05684201	-0.1022827	6.264768e-06	5.465301e-06	-0.02315134	-0.03019902
	-0.02148417	-0.03181043	5.754375e-06	5.166986e-06	-0.05962738	-0.1004324	-3.973711e-07	1.017592e-06
	1.332591e-06	7.373802e-06	-0.02278617	-0.03039508	5.582348e-07	2.55112e-06	-0.0581182	-0.1022573
3.8e+08	-0.08281748	-0.07855974	9.233872e-06	1.257778e-05	-0.009975877	-0.009946239	2.0165e-06	8.121933e-06
	9.410613e-06	1.230785e-05	-0.0798496	-0.07853967	6.891374e-06	1.206251e-06	-0.01045239	-0.008018083
	-0.009406702	-0.009942373	6.147717e-06	1.032382e-06	-0.08155355	-0.07512198	1.675081e-07	8.453102e-07
	1.20827e-06	6.28411e-06	-0.01021189	-0.008399007	1.534793e-06	1.847159e-06	-0.08069758	-0.07814303
3.9e+08	-0.0869337	-0.04606281	4.595487e-06	6.965263e-06	0.01414291	-0.0008632998	1.454598e-06	6.824462e-06
	4.625414e-06	6.917942e-06	-0.08456798	-0.04691274	4.508075e-06	-2.482614e-06	0.01415202	0.0008180524
	0.01452725	-0.001004192	3.582913e-06	-2.409431e-06	-0.08429906	-0.04274487	3.247965e-07	3.918833e-07
	7.933077e-08	5.455102e-06	0.01417432	0.0003428691	1.81958e-06	7.458832e-07	-0.08484094	-0.04645191
4e+08	-0.07212349	-0.0191182	-3.235708e-06	5.952726e-06	0.03925247	-0.009870598	1.50549e-08	6.368111e-06
	-3.145282e-06	6.16885e-06	-0.07065915	-0.02035564	1.953203e-07	-3.656962e-06	0.03952949	-0.008639123
	0.03944955	-0.01000739	-8.091606e-07	-3.239938e-06	-0.06818112	-0.01672562	4.965116e-08	5.783398e-08
	-1.678809e-06	5.636476e-06	0.03930692	-0.009073484	1.358681e-06	-1.951765e-07	-0.07044734	-0.02017483
4.1e+08	-0.04659852	-0.007691925	-1.032909e-05	1.071826e-05	0.05331949	-0.03379286	-1.418615e-06	7.14716e-06
	-9.978544e-06	1.110007e-05	-0.04598887	-0.008702908	-3.815782e-06	-1.618034e-06	0.05358213	-0.03304878
	0.05341779	-0.03381891	-4.754648e-06	-8.047449e-07	-0.04192698	-0.006849031	-3.710702e-07	7.775351e-08
	-3.139312e-06	7.101922e-06	0.05317355	-0.03331119	4.984024e-07	-5.86065e-07	-0.04560059	-0.009019749
4.2e+08	-0.022547	-0.0139002	-1.286973e-05	1.937655e-05	0.04905035	-0.0621821	-1.955213e-06	8.737731e-06
	-1.21479e-05	1.971395e-05	-0.02234572	-0.01419895	-5.415134e-06	2.543361e-06	0.04905881	-0.06180155
	0.04917856	-0.06207559	-6.118172e-06	3.743578e-06	-0.01800575	-0.01475739	-6.497253e-07	3.554195e-07
	-3.42414e-06	9.297338e-06	0.04859084	-0.06181885	-3.334149e-07	-4.152512e-07	-0.02217039	-0.01495331
4.3e+08	-0.01007703	-0.03170368	-9.325458e-06	2.789657e-05	0.02771239	-0.08211282	-1.348673e-06	1.022988e-05
	-8.264981e-06	2.793477e-05	-0.009571404	-0.03118856	-3.873588e-06	6.621453e-06	0.02734721	-0.08187337
	0.02797733	-0.08194271	-4.172077e-06	8.122641e-06	-0.006417025	-0.03386204	-7.366339e-07	6.851888e-07
	-2.35474e-06	1.120326e-05	0.02696516	-0.08166093	-9.063175e-07	1.26029e-07	-0.009869974	-0.0320528
4.4e+08	-0.01271037	-0.05047015	-1.25162e-06	3.227748e-05	-0.001267747	-0.08456212	-5.160228e-08	1.090292e-05
	-3.410877e-08	3.180535e-05	-0.01121766	-0.04955555	-1.122183e-07	8.599017e-06	-0.001973377	-0.08422294
	-0.0008320157	-0.08444955	1.253236e-07	1.02394e-05	-0.01024314	-0.05319732	-7.123293e-07	9.833655e-07
	-4.92029e-07	1.202997e-05	-0.002163728	-0.08387707	-1.135759e-06	8.670154e-07	-0.0119488	-0.05007288
4.5e+08	-0.02626918	-0.0602073	7.601653e-06	3.052028e-05	-0.02490939	-0.06870148	1.216652e-06	1.056172e-05
	8.687802e-06	2.944763e-05	-0.02347645	-0.0597458	3.950424e-06	7.583751e-06	-0.02577805	-0.06810051
	-0.02435395	-0.06876087	4.784208e-06	9.142851e-06	-0.02477047	-0.06281843	-6.101202e-07	1.244958e-06
	1.317223e-06	1.156687e-05	-0.02574987	-0.06775682	-9.599484e-07	1.636521e-06	-0.02425698	-0.05956661
4.6e+08	-0.04106172	-0.05624066	1.307015e-05	2.346531e-05	-0.03264336	-0.04205953	1.827579e-06	9.453048e-06
	1.370489e-05	2.186929e-05	-0.03726167	-0.05720886	6.292405e-06	4.065158e-06	-0.03342962	-0.04120246
	-0.03208034	-0.04235004	7.682219e-06	5.295854e-06	-0.03993598	-0.05843644	-4.51179e-07	1.428032e-06
	2.321504e-06	1.009987e-05	-0.03323972	-0.04098029	-4.124241e-07	2.193572e-06	-0.03750813	-0.05632366
4.7e+08	-0.04650248	-0.04175338	1.23792e-05	1.446045e-05	-0.02089028	-0.01724761	1.381137e-06	8.143226e-06
	1.230862e-05	1.258841e-05	-0.04262197	-0.04487624	5.58351e-06	-2.610205e-07	-0.02142353	-0.01632951
	-0.02044139	-0.01774939	7.375221e-06	4.142562e-07	-0.04516897	-0.04379289	-3.410309e-07	1.531845e-06
	2.019304e-06	8.288388e-06	-0.02118411	-0.01628682	2.812905e-07	2.372907e-06	-0.04181103	-0.04369948
4.8e+08	-0.03678091	-0.02683576	5.530896e-06	8.055458e-06	0.005241508	-0.006682885	-9.376965e-08	7.432399e-06
	4.655287e-06	6.271754e-06	-0.03413941	-0.03218822	1.907204e-06	-3.074764e-06	0.004929331	-0.005980779
	0.005492869	-0.007311886	3.838906e-06	-3.100371e-06	-0.03506235	-0.02938474	-3.282732e-07	1.71271e-06
