!$
! Info: Touchstone file created by Circ.  Input file=Tx_NPC_250mm_32AWG_BPK_500mm_27AWG_BPK_250mm_32AWG_NPC_Rx.circ
!$
# Hz S RI R 50
0	0.02310582	-3.793046e-16	9.645662e-07	-2.151175e-20	0.003615865	-4.427684e-16	-1.363046e-06	-1.122498e-20
	2.504388e-06	-3.256771e-19	0.02434807	-2.051231e-16	-4.835926e-06	8.357008e-20	0.002947075	-4.52729e-16
	0.004718799	8.10022e-16	-1.97426e-08	-8.039753e-20	0.04568358	-2.254971e-17	-4.412621e-08	-2.597398e-20
	-2.598184e-06	-1.016071e-20	0.003048613	-2.592952e-16	1.820611e-06	-1.866281e-19	0.04889377	4.835362e-16
1e+07	0.05620442	0.002431968	1.155526e-06	-4.996108e-08	0.01626197	0.02974698	-1.224901e-06	5.326697e-07
	2.04586e-06	-1.681287e-06	0.05748955	0.001837194	-4.174102e-06	2.555961e-06	0.01606883	0.02986132
	0.01708702	0.02970827	2.50023e-07	7.166568e-07	0.05622069	0.002716063	3.415152e-08	2.843508e-07
	-2.443939e-06	9.23328e-07	0.0161125	0.02987057	1.587053e-06	-9.068654e-07	0.05888662	0.001031638
2e+07	0.06391947	-0.002957768	1.267648e-06	-2.001472e-07	0.04484421	0.04477203	-8.885571e-07	9.17815e-07
	6.739162e-07	-2.848231e-06	0.06459781	-0.003998863	-2.263698e-06	4.331214e-06	0.04485437	0.0452254
	0.04561595	0.04436182	9.832591e-07	1.113661e-06	0.06406126	-0.0024368	2.687706e-07	4.733066e-07
	-1.935015e-06	1.684279e-06	0.04487325	0.04518384	8.792291e-07	-1.55556e-06	0.06538909	-0.005438962
3e+07	0.0675401	-0.01508932	1.34172e-06	-4.718995e-07	0.07579416	0.03761038	-4.75793e-07	1.087771e-06
	-1.193741e-06	-3.114992e-06	0.06747837	-0.01618293	2.178794e-07	4.861562e-06	0.07603595	0.03823686
	0.07661496	0.03679157	1.918368e-06	9.767023e-07	0.06791754	-0.01432767	5.73867e-07	5.059939e-07
	-1.222241e-06	2.169774e-06	0.07601565	0.0381354	-7.801581e-08	-1.733337e-06	0.06750163	-0.0178122
4e+07	0.0631588	-0.02938914	1.298161e-06	-8.327657e-07	0.09469502	0.01150463	-1.161218e-07	1.063323e-06
	-3.030831e-06	-2.334522e-06	0.06243348	-0.03016472	2.550941e-06	4.084728e-06	0.0952102	0.01190159
	0.09529266	0.01049264	2.73377e-06	2.593209e-07	0.06380661	-0.02868583	8.626226e-07	3.728858e-07
	-4.492551e-07	2.347943e-06	0.09513347	0.01181857	-9.908976e-07	-1.381027e-06	0.06170833	-0.03155866
5e+07	0.05060075	-0.03972839	1.085309e-06	-1.212441e-06	0.09230236	-0.02022855	1.101312e-07	9.332407e-07
	-4.306034e-06	-6.422021e-07	0.04941084	-0.03983751	4.12822e-06	2.296173e-06	0.09286292	-0.02025089
	0.09260616	-0.02125781	3.127227e-06	-9.205384e-07	0.0514802	-0.03924656	1.060657e-06	1.03512e-07
	2.621017e-07	2.254206e-06	0.09276715	-0.02027902	-1.590602e-06	-6.102118e-07	0.04819024	-0.04073401
6e+07	0.03338662	-0.04136187	6.979392e-07	-1.512242e-06	0.06961829	-0.04246174	1.980991e-07	8.086883e-07
	-4.618366e-06	1.578891e-06	0.03215137	-0.04062058	4.588557e-06	1.432847e-08	0.07009959	-0.04280707
	0.06965851	-0.04354572	2.885301e-06	-2.306002e-06	0.03435563	-0.04119296	1.117267e-06	-2.537157e-07
	8.32193e-07	1.957355e-06	0.06998743	-0.04277526	-1.705961e-06	3.295505e-07	0.03076266	-0.04083145
7e+07	0.01796921	-0.0319929	1.859424e-07	-1.645025e-06	0.0378056	-0.04366504	2.132492e-07	7.683228e-07
	-3.7987e-06	3.797681e-06	0.01715368	-0.03042108	3.866237e-06	-2.148625e-06	0.0380729	-0.04424623
	0.03759105	-0.04469408	1.94288e-06	-3.553648e-06	0.01881536	-0.03216094	1.002702e-06	-6.24023e-07
	1.220254e-06	1.539585e-06	0.03798896	-0.04415378	-1.346352e-06	1.168689e-06	0.01595091	-0.0299932
8e+07	0.01127209	-0.01400221	-3.495133e-07	-1.561312e-06	0.01303767	-0.02219953	2.554032e-07	8.216283e-07
	-1.953092e-06	5.447209e-06	0.01132641	-0.01188128	2.196354e-06	-3.645374e-06	0.01305396	-0.02291063
	0.01260189	-0.02311965	4.199704e-07	-4.314856e-06	0.0118143	-0.01440995	7.257422e-07	-9.320615e-07
	1.418596e-06	1.076952e-06	0.01302962	-0.0227781	-6.478982e-07	1.678791e-06	0.01057754	-0.01101583
9e+07	0.01788518	0.005925153	-7.989962e-07	-1.282151e-06	0.009235252	0.01237528	3.966864e-07	9.030479e-07
	5.350213e-07	6.064011e-06	0.01906165	0.008062993	4.334324e-08	-4.12629e-06	0.0089936	0.01160225
	0.008614724	0.01158975	-1.392213e-06	-4.340312e-06	0.01801397	0.005488881	3.294187e-07	-1.112101e-06
	1.441446e-06	6.343614e-07	0.009046602	0.01174208	1.595941e-07	1.746232e-06	0.01889746	0.009083044
1e+08	0.03727863	0.01903909	-1.089403e-06	-8.826217e-07	0.03084799	0.04320002	6.380443e-07	9.147515e-07
	3.076481e-06	5.431541e-06	0.03949407	0.0205826	-2.037465e-06	-3.524712e-06	0.03032879	0.04244136
	0.0300939	0.04258858	-3.107734e-06	-3.562387e-06	0.03702815	0.01883915	-1.158422e-07	-1.127268e-06
	1.316718e-06	2.674317e-07	0.03045453	0.04253984	8.321519e-07	1.398831e-06	0.03989259	0.02146333
1.1e+08	0.06333131	0.01852314	-1.201342e-06	-4.573018e-07	0.07019719	0.05443018	9.106041e-07	7.858341e-07
	5.031825e-06	3.668439e-06	0.06618392	0.01895126	-3.562423e-06	-2.049914e-06	0.06939239	0.05378406
	0.0693338	0.05398781	-4.361704e-06	-2.118155e-06	0.06283664	0.01879736	-5.436216e-07	-9.836679e-07
	1.087479e-06	2.869836e-08	0.06956613	0.05380977	1.173738e-06	7.737022e-07	0.06696974	0.01943567
1.2e+08	0.08695924	0.002649901	-1.167724e-06	-8.606421e-08	0.111216	0.03874522	1.115153e-06	5.093858e-07
	5.923256e-06	1.219768e-06	0.08976443	0.001763799	-4.235589e-06	-8.351446e-08	0.1102071	0.03835925
	0.1102756	0.0384876	-4.918405e-06	-3.009304e-07	0.08660844	0.003510032	-8.966304e-07	-7.081683e-07
	8.287953e-07	-4.900795e-08	0.1103787	0.03829157	1.102152e-06	9.569653e-08	0.09068866	0.001752383
1.3e+08	0.09996766	-0.02476718	-1.051161e-06	1.826068e-07	0.137076	0.0004758736	1.167071e-06	1.410518e-07
	5.571183e-06	-1.301534e-06	0.1020591	-0.02674845	-3.973557e-06	1.940975e-06	0.1360085	0.0004301284
	0.1360841	0.0004168994	-4.717656e-06	1.542553e-06	0.1001105	-0.02347891	-1.146991e-06	-3.3878e-07
	6.337139e-07	2.517631e-08	0.1361304	0.0002817023	6.553056e-07	-4.08382e-07	0.1028666	-0.02722502
1.4e+08	0.09771508	-0.05626939	-9.275032e-07	3.456971e-07	0.1372279	-0.04696581	1.027575e-06	-2.208534e-07
	4.126212e-06	-3.295863e-06	0.0986627	-0.05879623	-2.871452e-06	3.631949e-06	0.1362709	-0.04667802
	0.1362099	-0.04680736	-3.856861e-06	3.10721e-06	0.09854641	-0.054884	-1.274933e-06	9.256339e-08
	5.821386e-07	1.845442e-07	0.136308	-0.04687121	-1.434202e-08	-5.634315e-07	0.09915305	-0.05959394
1.5e+08	0.08010549	-0.0831078	-8.557748e-07	4.477478e-07	0.1111194	-0.08671987	7.218246e-07	-4.651309e-07
	1.998901e-06	-4.330851e-06	0.07985429	-0.08548924	-1.148603e-06	4.683292e-06	0.1104153	-0.08619605
	0.1101256	-0.08631713	-2.53019e-06	4.182614e-06	0.08160571	-0.08203804	-1.254601e-06	5.51276e-07
	7.035264e-07	3.221057e-07	0.1103565	-0.08638345	-6.788518e-07	-2.980915e-07	0.07993544	-0.08639273
1.6e+08	0.05150319	-0.09749599	-8.448486e-07	5.633741e-07	0.06813726	-0.1048065	3.457681e-07	-5.057698e-07
	-2.609495e-07	-4.226208e-06	0.05041264	-0.09914643	8.80372e-07	4.882297e-06	0.06776813	-0.1041781
	0.0672201	-0.1041444	-9.698197e-07	4.657071e-06	0.05342015	-0.09701815	-1.0625e-06	9.844961e-07
	9.625568e-07	3.247029e-07	0.06763206	-0.1043134	-1.100542e-06	3.24171e-07	0.05008694	-0.09990616
1.7e+08	0.02040593	-0.09456448	-8.414556e-07	7.454208e-07	0.02435305	-0.09522116	4.457728e-08	-3.36613e-07
	-2.089264e-06	-3.092465e-06	0.01909491	-0.09522134	2.831358e-06	4.140472e-06	0.02433933	-0.09465328
	0.02360203	-0.09430081	5.841093e-07	4.498701e-06	0.02237404	-0.09481017	-6.917889e-07	1.294537e-06
	1.260114e-06	1.11353e-07	0.02416578	-0.09470755	-1.106179e-06	1.10359e-06	0.01851717	-0.09562547
1.8e+08	-0.00242842	-0.07499606	-7.670808e-07	9.795772e-07	-0.003240869	-0.06284907	-5.445518e-08	-6.176849e-08
	-3.05552e-06	-1.297989e-06	-0.003318485	-0.07483474	4.262849e-06	2.532925e-06	-0.002942607	-0.06251254
	-0.003731841	-0.06171015	1.880855e-06	3.74848e-06	-0.0007661096	-0.0758503	-2.137599e-07	1.365344e-06
	1.456516e-06	-3.385845e-07	-0.003106581	-0.06248491	-6.779893e-07	1.765461e-06	-0.003896768	-0.07476918
1.9e+08	-0.007712005	-0.04641285	-5.912893e-07	1.187597e-06	-0.003778862	-0.02248271	6.496807e-08	1.377436e-07
	-2.976354e-06	6.272896e-07	-0.007807295	-0.04596482	4.763588e-06	3.661768e-07	-0.003299475	-0.02253737
	-0.003927666	-0.02121029	2.666221e-06	2.555807e-06	-0.006566774	-0.04759607	2.005483e-07	1.131179e-06
	1.404757e-06	-9.606795e-07	-0.003418318	-0.02245253	2.352905e-08	2.083238e-06	-0.008091477	-0.04547196
2e+08	0.007438643	-0.02164975	-3.674907e-07	1.304111e-06	0.02182728	0.006912179	2.724153e-07	1.197352e-07
	-1.961536e-06	2.145812e-06	0.008077309	-0.02153548	4.108999e-06	-1.82685e-06	0.02224203	0.006401326
	0.02206979	0.008186697	2.756665e-06	1.220416e-06	0.008049769	-0.02283001	3.37799e-07	6.711001e-07
	1.004966e-06	-1.6043e-06	0.02218062	0.006507331	7.455969e-07	1.991209e-06	0.008331687	-0.02083131
2.1e+08	0.03678449	-0.01299744	-1.722997e-07	1.337596e-06	0.06038856	0.01131053	3.724482e-07	-1.174186e-07
	-3.663774e-07	2.86028e-06	0.03773196	-0.01363827	2.404609e-06	-3.420629e-06	0.06049558	0.010405
	0.06099873	0.01244998	2.167688e-06	1.442487e-07	0.03704234	-0.01394771	8.549774e-08	2.241391e-07
	2.558372e-07	-2.070378e-06	0.06048115	0.010502	1.281525e-06	1.586292e-06	0.03860789	-0.01304169
2.2e+08	0.06758917	-0.02625691	-3.197412e-08	1.354647e-06	0.09294719	-0.01132902	2.314346e-07	-4.36727e-07
	1.312092e-06	2.606751e-06	0.06827577	-0.02769996	1.002373e-07	-3.941321e-06	0.09256708	-0.01242728
	0.09384657	-0.0104492	1.16951e-06	-3.391841e-07	0.06772993	-0.02690333	-4.705153e-07	4.979065e-08
	-7.314346e-07	-2.180577e-06	0.09257872	-0.0123522	1.546496e-06	1.020776e-06	0.06966882	-0.02754634
2.3e+08	0.08652403	-0.0581861	8.663439e-08	1.396069e-06	0.1043167	-0.05059207	-1.613289e-07	-6.603646e-07
	2.5666e-06	1.491495e-06	0.08649474	-0.06013953	-2.171886e-06	-3.226095e-06	0.1034081	-0.05162049
	0.105382	-0.05003958	1.764498e-07	-1.274227e-07	0.08673554	-0.05861288	-1.095158e-06	2.838421e-07
	-1.762831e-06	-1.833138e-06	0.1034287	-0.05156444	1.528546e-06	4.24149e-07	0.08813263	-0.06064844
2.4e+08	0.08495713	-0.09880769	2.213919e-07	1.46115e-06	0.08968616	-0.08973294	-7.15448e-07	-6.439222e-07
	3.014647e-06	-1.361764e-07	0.08402493	-0.1007925	-3.797781e-06	-1.455425e-06	0.08834571	-0.0904515
	0.09078804	-0.08951232	-4.357257e-07	6.314375e-07	0.08530342	-0.09915571	-1.540296e-06	8.894219e-07
	-2.610213e-06	-1.033578e-06	0.08836993	-0.09040537	1.240535e-06	-9.023402e-08	0.08556442	-0.1020005
2.5e+08	0.06115632	-0.1354362	3.936271e-07	1.537251e-06	0.05520871	-0.1136212	-1.276513e-06	-3.10597e-07
	2.510223e-06	-1.78014e-06	0.05943465	-0.1369691	-4.333648e-06	9.215095e-07	0.05363612	-0.1138672
	0.05623978	-0.1136893	-4.448967e-07	1.634831e-06	0.06161902	-0.1358184	-1.636725e-06	1.714191e-06
	-3.06598e-06	9.836576e-08	0.05366776	-0.113827	7.355436e-07	-3.964271e-07	0.06057893	-0.1387444
2.6e+08	0.02036051	-0.1563899	6.212009e-07	1.615066e-06	0.01404123	-0.1143641	-1.659411e-06	3.274418e-07
	1.188871e-06	-2.9421e-06	0.018202	-0.1571615	-3.593517e-06	3.292177e-06	0.0124876	-0.1140861
	0.0149401	-0.1146386	1.961918e-07	2.528617e-06	0.0208716	-0.1568326	-1.308054e-06	2.558209e-06
	-3.000354e-06	1.343496e-06	0.01253225	-0.114058	1.561946e-07	-3.858615e-07	0.01877834	-0.1592352
2.7e+08	-0.02656134	-0.1542322	9.483045e-07	1.660771e-06	-0.01931232	-0.09314945	-1.692913e-06	1.144709e-06
	-5.771107e-07	-3.282758e-06	-0.02871393	-0.1541836	-1.709534e-06	5.002341e-06	-0.02058028	-0.09242668
	-0.01856234	-0.09355045	1.370917e-06	2.969624e-06	-0.02600704	-0.1547355	-5.770536e-07	3.200987e-06
	-2.410764e-06	2.436983e-06	-0.02052828	-0.09242398	-2.836352e-07	-6.626289e-08	-0.0287183	-0.1562762
2.8e+08	-0.06564571	-0.1286045	1.392962e-06	1.582415e-06	-0.0340348	-0.05904783	-1.299639e-06	1.914257e-06
	-2.313126e-06	-2.712657e-06	-0.06742998	-0.1279408	8.549806e-07	5.509379e-06	-0.03480904	-0.05810065
	-0.03340739	-0.05951295	2.797053e-06	2.68047e-06	-0.06500797	-0.1291931	4.241232e-07	3.436264e-06
	-1.437364e-06	3.139746e-06	-0.03476992	-0.05813163	-4.095476e-07	3.901315e-07	-0.06788699	-0.1298229
2.9e+08	-0.0844667	-0.08763788	1.881675e-06	1.252678e-06	-0.02664217	-0.02558929	-5.648459e-07	2.381494e-06
	-3.598203e-06	-1.388213e-06	-0.08574507	-0.08670652	3.368319e-06	4.568408e-06	-0.02685665	-0.02474697
	-0.02608918	-0.02609628	4.036829e-06	1.540896e-06	-0.08371466	-0.08842707	1.439025e-06	3.141506e-06
	-3.32621e-07	3.321819e-06	-0.02685907	-0.02480056	-2.286445e-07	7.186463e-07	-0.08644669	-0.08827137
3e+08	-0.07758396	-0.04599764	2.217587e-06	6.12687e-07	-0.002481667	-0.005795911	2.649663e-07	2.393507e-06
	-4.165137e-06	3.828466e-07	-0.07846572	-0.04509412	5.027199e-06	2.385303e-06	-0.002275167	-0.005401504
	-0.001965746	-0.006368626	4.58673e-06	-2.960609e-07	-0.07681175	-0.04717833	2.147826e-06	2.376563e-06
	6.205488e-07	3.015582e-06	-0.00233669	-0.005440132	4.799805e-08	7.470862e-07	-0.07921467	-0.04637758
3.1e+08	-0.04984983	-0.01907188	2.172356e-06	-2.114048e-07	0.02596456	-0.006618686	8.956166e-07	1.999673e-06
	-3.907364e-06	2.23988e-06	-0.05058755	-0.01829042	5.258532e-06	-3.824035e-07	0.02626166	-0.006894926
	0.02644691	-0.007311006	4.07835e-06	-2.3603e-06	-0.04931149	-0.02076701	2.325417e-06	1.410552e-06
	1.213347e-06	2.405086e-06	0.02615513	-0.006870196	1.595826e-07	5.288519e-07	-0.05127	-0.01942623
3.2e+08	-0.01470045	-0.01586071	1.651988e-06	-9.345385e-07	0.04461431	-0.02525373	1.145264e-06	1.430016e-06
	-2.873869e-06	3.820431e-06	-0.0154623	-0.01506501	3.970661e-06	-2.855459e-06	0.04457528	-0.02620422
	0.04500878	-0.02611761	2.492324e-06	-4.004424e-06	-0.01478688	-0.01799887	1.979263e-06	6.080601e-07
	1.386742e-06	1.74385e-06	0.04447744	-0.02608192	-9.183969e-09	2.858962e-07	-0.01611404	-0.01620435
3.3e+08	0.01212419	-0.03502514	7.977144e-07	-1.257379e-06	0.04489988	-0.05037429	1.032582e-06	9.583779e-07
	-1.261257e-06	4.807557e-06	0.01138344	-0.03400188	1.584141e-06	-4.271863e-06	0.04414444	-0.05175343
	0.04511088	-0.05142141	2.132474e-07	-4.679217e-06	0.01109016	-0.03725291	1.352963e-06	2.209136e-07
	1.227224e-06	1.25766e-06	0.04412841	-0.05154402	-3.725337e-07	2.250974e-07	0.01062509	-0.03520115
3.4e+08	0.01953375	-0.06623274	-8.207073e-08	-1.045841e-06	0.02805116	-0.06825612	7.34945e-07	7.623525e-07
	6.009321e-07	5.006232e-06	0.01906161	-0.06489469	-1.15865e-06	-4.248029e-06	0.02638486	-0.06962664
	0.02797315	-0.06943544	-2.133924e-06	-4.167222e-06	0.01748003	-0.0679898	7.652377e-07	2.729775e-07
	9.224097e-07	1.078661e-06	0.02650824	-0.06939161	-7.502555e-07	4.153228e-07	0.01805391	-0.06606018
3.5e+08	0.005067199	-0.09519174	-6.688728e-07	-3.864935e-07	0.003734443	-0.0699342	4.827004e-07	8.629556e-07
	2.334002e-06	4.404899e-06	0.00515063	-0.09370615	-3.465043e-06	-2.856114e-06	0.001241455	-0.07079987
	0.003289964	-0.07113425	-3.938279e-06	-2.631834e-06	0.002286768	-0.09589561	4.445229e-07	6.006304e-07
	7.006029e-07	1.207865e-06	0.001514347	-0.07063331	-9.896464e-07	7.997909e-07	0.003861513	-0.09463036
3.6e+08	-0.02490787	-0.1094249	-7.57517e-07	4.706084e-07	-0.01549466	-0.05507229	4.588181e-07	1.137445e-06
	3.61546e-06	3.160295e-06	-0.02415592	-0.1081703	-4.72485e-06	-5.546323e-07	-0.01845423	-0.05505923
	-0.01632013	-0.05614679	-4.795115e-06	-5.131795e-07	-0.02777894	-0.1087356	4.596847e-07	9.648686e-07
	7.492268e-07	1.502882e-06	-0.01808427	-0.0550501	-1.007409e-06	1.259331e-06	-0.02557551	-0.108653
3.7e+08	-0.05808274	-0.1028748	-3.210546e-07	1.208462e-06	-0.02023904	-0.03119428	7.270785e-07	1.373513e-06
	4.238758e-06	1.533748e-06	-0.05684201	-0.1022827	-4.671146e-06	1.97377e-06	-0.02315134	-0.03019902
	-0.02139302	-0.03199614	-4.593785e-06	1.636435e-06	-0.06025031	-0.1008646	7.37831e-07	1.155444e-06
	1.121982e-06	1.721602e-06	-0.02278617	-0.03039508	-7.961558e-07	1.650704e-06	-0.0581182	-0.1022573
3.8e+08	-0.08111857	-0.07821147	4.92693e-07	1.538573e-06	-0.008058112	-0.009790676	1.194096e-06	1.360861e-06
	4.111742e-06	-1.761335e-07	-0.0798496	-0.07853967	-3.434757e-06	4.034023e-06	-0.01045239	-0.008018083
	-0.009424327	-0.01020776	-3.513722e-06	3.31019e-06	-0.08191928	-0.07544212	1.100587e-06	1.045601e-06
	1.689597e-06	1.63887e-06	-0.01021189	-0.008399007	-4.381795e-07	1.834155e-06	-0.08069758	-0.07814303
3.9e+08	-0.08528401	-0.04574361	1.385849e-06	1.292334e-06	0.01576888	-0.001316406	1.638234e-06	9.98157e-07
	3.246275e-06	-1.647508e-06	-0.08456798	-0.04691274	-1.480957e-06	5.136895e-06	0.01415202	0.0008180524
	0.0143449	-0.001297217	-1.954572e-06	4.184136e-06	-0.08448719	-0.04312178	1.325731e-06	6.425804e-07
	2.195188e-06	1.17764e-06	0.01417432	0.0003428691	-1.138458e-07	1.745161e-06	-0.08484094	-0.04645191
4e+08	-0.07036624	-0.01879558	1.991409e-06	5.012517e-07	0.04038196	-0.01067555	1.813435e-06	3.625011e-07
	1.791258e-06	-2.548917e-06	-0.07065915	-0.02035564	5.756815e-07	5.142339e-06	0.03952949	-0.008639123
	0.03905815	-0.01023732	-4.038085e-07	4.202099e-06	-0.06835073	-0.01724635	1.240494e-06	9.921622e-08
	2.399974e-06	4.61184e-07	0.03930692	-0.009073484	-2.711913e-08	1.475942e-06	-0.07044734	-0.02017483
4.1e+08	-0.04458869	-0.007441526	2.012634e-06	-5.791375e-07	0.05391435	-0.0346319	1.583595e-06	-3.144684e-07
	7.508893e-08	-2.619364e-06	-0.04598887	-0.008702908	2.202826e-06	4.251967e-06	0.05358213	-0.03304878
	0.05282004	-0.0338593	7.252869e-07	3.574535e-06	-0.04226655	-0.007485897	8.131262e-07	-3.470526e-07
	2.222388e-06	-2.652232e-07	0.05317355	-0.03331119	-2.634442e-07	1.26478e-06	-0.04560059	-0.009019749
4.2e+08	-0.02020506	-0.01388115	1.35605e-06	-1.536932e-06	0.04925008	-0.06276978	9.993864e-07	-7.631047e-07
	-1.435448e-06	-1.797392e-06	-0.02234572	-0.01419895	3.10733e-06	2.865492e-06	0.04905881	-0.06180155
	0.0484581	-0.06177892	1.229412e-06	2.681281e-06	-0.01865792	-0.01535971	1.82434e-07	-4.995321e-07
	1.760514e-06	-7.899075e-07	0.04859084	-0.06181885	-6.97532e-07	1.361703e-06	-0.02217039	-0.01495331
4.3e+08	-0.007421011	-0.03211814	2.093045e-07	-1.975088e-06	0.02779142	-0.0823013	2.769965e-07	-8.098688e-07
	-2.282972e-06	-2.989738e-07	-0.009571404	-0.03118856	3.250916e-06	1.39846e-06	0.02734721	-0.08187337
	0.0273154	-0.08121232	1.160745e-06	1.91302e-06	-0.007417822	-0.03419996	-4.218525e-07	-3.039921e-07
	1.200068e-06	-1.031277e-06	0.02696516	-0.08166093	-1.045149e-06	1.859612e-06	-0.009869974	-0.0320528
4.4e+08	-0.00986768	-0.05150659	-1.025679e-06	-1.687634e-06	-0.001006691	-0.08439378	-3.062204e-07	-4.582832e-07
	-2.187982e-06	1.432114e-06	-0.01121766	-0.04955555	2.771433e-06	1.694857e-07	-0.001973377	-0.08422294
	-0.001197105	-0.0833004	7.686033e-07	1.522792e-06	-0.01148797	-0.05302542	-7.976963e-07	1.31253e-07
	7.072023e-07	-1.034259e-06	-0.002163728	-0.08387707	-1.020152e-06	2.625259e-06	-0.0119488	-0.05007288
4.5e+08	-0.02345376	-0.06199386	-1.900429e-06	-7.557464e-07	-0.02424889	-0.06838638	-5.345484e-07	1.136628e-07
	-1.144905e-06	2.859757e-06	-0.02347645	-0.0597458	1.890779e-06	-6.359193e-07	-0.02577805	-0.06810051
	-0.02419931	-0.06734442	3.667929e-07	1.550613e-06	-0.02601005	-0.06194579	-8.639673e-07	5.974609e-07
	3.768253e-07	-9.189506e-07	-0.02574987	-0.06775682	-4.861807e-07	3.356125e-06	-0.02425698	-0.05956661
4.6e+08	-0.03853482	-0.0588048	-2.110915e-06	4.773332e-07	-0.03152845	-0.04189224	-3.494979e-07	6.227516e-07
	5.672775e-07	3.503869e-06	-0.03726167	-0.05720886	8.419171e-07	-9.575531e-07	-0.03342962	-0.04120246
	-0.03128328	-0.04093112	1.899395e-07	1.846863e-06	-0.04080934	-0.05682337	-6.944995e-07	8.833421e-07
	2.122548e-07	-8.378953e-07	-0.03323972	-0.04098029	4.655933e-07	3.711429e-06	-0.03750813	-0.05632366
4.7e+08	-0.04454012	-0.04504138	-1.620481e-06	1.567721e-06	-0.01943749	-0.01751183	1.062351e-07	8.019779e-07
	2.441017e-06	3.083681e-06	-0.04262197	-0.04487624	-1.847924e-07	-8.280737e-07	-0.02142353	-0.01632951
	-0.01902347	-0.01664717	3.032883e-07	2.17945e-06	-0.04528846	-0.04160181	-4.933506e-07	8.711607e-07
	1.018274e-07	-9.210741e-07	-0.02118411	-0.01628682	1.534479e-06	3.465374e-06	-0.04181103	-0.04369948
4.8e+08	-0.03565757	-0.03068922	-6.705516e-07	2.144089e-06	0.006771208	-0.007563215	5.309227e-07	5.334623e-07
	3.85375e-06	1.625828e-06	-0.03413941	-0.03218822	-1.060897e-06	-3.148021e-07	0.004929331	-0.005980779
