!$
! Info: Touchstone file created by Circ.  Input file=Tx_NPC_250mm_32AWG_BPK_500mm_27AWG_BPK_250mm_32AWG_NPC_Rx.circ
!$
# Hz S RI R 50
0	0.07805854	1.186404e-16	-3.172217e-05	-1.068405e-19	0.001714774	3.686544e-16	-4.056574e-05	-1.70875e-18
	-4.164933e-05	4.949871e-20	0.02434807	-2.051231e-16	-3.454544e-05	-1.282943e-20	0.002947075	-4.52729e-16
	0.002994196	7.445093e-16	-3.551249e-05	1.037518e-19	0.05413096	-3.349609e-16	-5.252406e-05	1.750377e-18
	-3.256541e-05	-1.556118e-18	0.003048613	-2.592952e-16	-4.125066e-05	6.691905e-20	0.04889377	4.835362e-16
1e+07	0.05729307	0.002134334	-0.0001027753	1.246575e-05	0.01593715	0.02994365	-5.49656e-05	-1.388243e-05
	-0.0001152247	1.271407e-05	0.05748955	0.001837194	-4.969803e-06	2.13535e-05	0.01606883	0.02986132
	0.0168308	0.02963503	-5.115448e-06	2.312214e-05	0.05640043	0.002227006	-0.0001226191	1.80575e-05
	-4.958763e-05	-1.936933e-05	0.0161125	0.02987057	-0.0001126907	1.340637e-05	0.05888662	0.001031638
2e+07	0.06457843	-0.003500879	-0.0001110566	-4.943285e-06	0.0447405	0.04534189	-7.391668e-05	-1.828019e-05
	-0.0001268311	-6.189704e-07	0.06459781	-0.003998863	-7.041501e-06	9.396427e-05	0.04485437	0.0452254
	0.045267	0.04450352	-4.934005e-06	9.589761e-05	0.06365391	-0.003246104	-0.0001293476	6.627503e-06
	-7.389248e-05	-2.548583e-05	0.04487325	0.04518384	-0.0001222224	-1.560675e-06	0.06538909	-0.005438962
3e+07	0.06778445	-0.01552203	-0.0001218072	4.373226e-06	0.07603547	0.03840776	-0.0001002196	-8.9336e-06
	-0.000137915	1.683437e-05	0.06747837	-0.01618293	2.218571e-05	0.0001314548	0.07603595	0.03823686
	0.07607541	0.0371449	2.597678e-05	0.0001315619	0.06682795	-0.01510496	-0.0001364062	2.214442e-05
	-0.0001047293	-1.374302e-05	0.07601565	0.0381354	-0.0001330485	1.178585e-05	0.06750163	-0.0178122
4e+07	0.06315036	-0.02952446	-0.0001325856	2.220469e-05	0.09530202	0.01211161	-0.0001254806	1.629815e-05
	-0.0001429753	4.351385e-05	0.06243348	-0.03016472	5.054738e-05	0.0001400867	0.0952102	0.01190159
	0.09473321	0.01099762	5.415565e-05	0.0001374683	0.06218095	-0.02890408	-0.0001407754	4.514461e-05
	-0.0001312361	1.593274e-05	0.09513347	0.01181857	-0.0001417657	3.404209e-05	0.06170833	-0.03155866
5e+07	0.05055989	-0.03950734	-0.0001478175	4.994909e-05	0.0930435	-0.02002733	-0.0001455615	5.898145e-05
	-0.000146888	7.59647e-05	0.04941084	-0.03983751	7.524934e-05	0.0001398757	0.09286292	-0.02025089
	0.09211864	-0.02066026	7.68502e-05	0.0001354108	0.04964888	-0.03861979	-0.0001473324	7.550571e-05
	-0.0001491877	6.20749e-05	0.09276715	-0.02027902	-0.0001529161	6.534252e-05	0.04819024	-0.04073401
6e+07	0.03351993	-0.04084997	-0.0001610256	0.0001009088	0.0703894	-0.04266499	-0.0001503488	0.0001224024
	-0.0001471403	0.0001241103	0.03215137	-0.04062058	9.870869e-05	0.0001459347	0.07009959	-0.04280707
	0.0692961	-0.04276013	9.759385e-05	0.0001413745	0.0327296	-0.03967032	-0.0001509963	0.0001253554
	-0.0001505146	0.0001259624	0.06998743	-0.04277526	-0.0001607742	0.0001181298	0.03076266	-0.04083145
7e+07	0.01840388	-0.03136334	-0.0001460787	0.0001789714	0.03840221	-0.04423046	-0.0001198961	0.0002026325
	-0.0001229865	0.0001923103	0.01715368	-0.03042108	0.0001414098	0.0001612124	0.0380729	-0.04424623
	0.03748083	-0.04380189	0.00013846	0.000158166	0.01786617	-0.02988187	-0.0001272942	0.0001985362
	-0.0001180205	0.0002039622	0.03798896	-0.04415378	-0.0001398356	0.0001962165	0.01595091	-0.0299932
8e+07	0.01200936	-0.01346427	-5.571337e-05	0.0002631525	0.01332846	-0.02302607	-3.584466e-05	0.0002748289
	-3.088183e-05	0.0002637369	0.01132641	-0.01188128	0.0002211829	0.000160931	0.01305396	-0.02291063
	0.01280946	-0.02226072	0.0002179203	0.0001596623	0.01187251	-0.0117396	-3.063829e-05	0.0002744485
	-3.489015e-05	0.0002734934	0.01302962	-0.0227781	-4.331814e-05	0.0002782768	0.01057754	-0.01101583
9e+07	0.01879994	0.006210381	8.557399e-05	0.0002826204	0.009127155	0.01141587	9.040807e-05	0.0002972058
	0.0001050851	0.0002731726	0.01906165	0.008062993	0.000324544	0.0001040257	0.0089936	0.01160225
	0.009101165	0.01225576	0.0003217698	0.0001036078	0.01919342	0.008043941	0.0001130919	0.0002836371
	8.834022e-05	0.000295487	0.009046602	0.01174208	0.0001035705	0.000293239	0.01889746	0.009083044
1e+08	0.03817474	0.0190284	0.0002171432	0.0002074213	0.03030358	0.04231442	0.0002173875	0.0002481212
	0.0002285719	0.0001940201	0.03949407	0.0205826	0.0004003539	-1.887773e-05	0.03032879	0.04244136
	0.03070018	0.04292981	0.0003975296	-1.930788e-05	0.03917074	0.02076281	0.0002426536	0.0001980968
	0.0002130445	0.0002492822	0.03045453	0.04253984	0.0002390756	0.0002110732	0.03989259	0.02146333
1.1e+08	0.06403957	0.01826582	0.0002715431	8.047645e-05	0.06927422	0.05381967	0.000301518	0.0001478925
	0.0002770481	6.822003e-05	0.06618392	0.01895126	0.0003746009	-0.0001616172	0.06939239	0.05378406
	0.06989808	0.05404714	0.0003706725	-0.0001616155	0.06560028	0.01967005	0.0002910581	6.296067e-05
	0.0002982639	0.0001534546	0.06956613	0.05380977	0.0002943112	7.553459e-05	0.06696974	0.01943567
1.2e+08	0.08735095	0.002319674	0.0002484758	-3.255196e-05	0.1101303	0.03860161	0.0003323738	3.226711e-05
	0.0002523586	-4.270604e-05	0.08976443	0.001763799	0.0002671654	-0.0002710869	0.1102071	0.03835925
	0.1107063	0.03838862	0.0002620648	-0.0002690389	0.08934705	0.003173654	0.0002598007	-5.471283e-05
	0.0003338905	4.045156e-05	0.1103787	0.03829157	0.0002683068	-4.609608e-05	0.09068866	0.001752383
1.3e+08	0.1000583	-0.02494906	0.0001905534	-8.844279e-05	0.1361138	0.0008271747	0.0003234088	-7.141806e-05
	0.0001952406	-9.93724e-05	0.1020591	-0.02674845	0.0001361664	-0.0002972779	0.1360085	0.0004301284
	0.1364022	0.0002831316	0.0001315862	-0.000291774	0.1022586	-0.02479652	0.0001936161	-0.0001115083
	0.0003310511	-6.48682e-05	0.1361304	0.0002817023	0.0002040887	-0.0001086371	0.1028666	-0.02722502
1.4e+08	0.09765303	-0.05613103	0.0001567998	-9.723492e-05	0.1366396	-0.04625836	0.0002970774	-0.0001591202
	0.0001606533	-0.0001126572	0.0986627	-0.05879623	5.004997e-05	-0.0002577318	0.1362709	-0.04667802
	0.136499	-0.04692093	4.876563e-05	-0.0002490732	0.0997697	-0.05671736	0.000153133	-0.0001186514
	0.0003086932	-0.0001585731	0.136308	-0.04687121	0.0001621419	-0.00012098	0.09915305	-0.05959394
1.5e+08	0.08012307	-0.08259777	0.0001699878	-0.0001140743	0.111048	-0.08592511	0.0002628361	-0.0002454046
	0.0001679559	-0.000135035	0.07985429	-0.08548924	3.548435e-05	-0.0002185077	0.1104153	-0.08619605
	0.1104586	-0.08643366	3.972299e-05	-0.0002092379	0.08186653	-0.08382754	0.0001613128	-0.0001330516
	0.0002734815	-0.0002528329	0.1103565	-0.08638345	0.000166687	-0.0001382537	0.07993544	-0.08639273
1.6e+08	0.05183117	-0.09670633	0.0001919509	-0.0001912128	0.0685497	-0.1042115	0.0002070266	-0.0003450675
	0.0001786497	-0.0002138755	0.05041264	-0.09914643	5.247153e-05	-0.0002434292	0.06776813	-0.1041781
	0.06763927	-0.1043382	6.224853e-05	-0.0002375123	0.05298809	-0.09833954	0.0001788743	-0.000207826
	0.000211215	-0.0003585034	0.06763206	-0.1043134	0.0001804108	-0.0002130002	0.05008694	-0.09990616
1.7e+08	0.02118801	-0.09372981	0.0001469616	-0.0003244823	0.02506335	-0.09507339	9.877605e-05	-0.0004509401
	0.0001206023	-0.0003408228	0.01909491	-0.09522134	1.601292e-05	-0.000336903	0.02433933	-0.09465328
	0.02407564	-0.09465628	2.83599e-05	-0.0003378312	0.02168709	-0.09544852	0.0001286887	-0.0003381614
	9.342247e-05	-0.0004647658	0.02416578	-0.09470755	0.0001280825	-0.0003411215	0.01851717	-0.09562547
1.8e+08	-0.001224814	-0.07441121	-1.395065e-05	-0.0004361429	-0.00253313	-0.06325562	-8.344966e-05	-0.0005198907
	-4.866701e-05	-0.0004375193	-0.003318485	-0.07483474	-0.0001353075	-0.0004193427	-0.002942607	-0.06251254
	-0.003289921	-0.062288	-0.0001255306	-0.0004278454	-0.001259826	-0.07590225	-3.804872e-05	-0.0004442515
	-9.665096e-05	-0.0005273048	-0.003106581	-0.06248491	-3.807074e-05	-0.0004447015	-0.003896768	-0.07476918
1.9e+08	-0.00631467	-0.04630163	-0.0002509037	-0.0004239896	-0.003400196	-0.02336127	-0.0003153378	-0.0004899589
	-0.0002835041	-0.0004064625	-0.007807295	-0.04596482	-0.0003650965	-0.0003760765	-0.003299475	-0.02253737
	-0.003642639	-0.02200758	-0.0003625889	-0.0003888804	-0.00659825	-0.04739152	-0.0002789421	-0.0004225193
	-0.0003299864	-0.000486989	-0.003418318	-0.02245253	-0.0002762771	-0.0004224713	-0.008091477	-0.04547196
2e+08	0.008699909	-0.02203258	-0.0004433768	-0.0002554466	0.02162294	0.005846855	-0.0005197837	-0.0003326625
	-0.0004625851	-0.0002232077	0.008077309	-0.02153548	-0.000539187	-0.000166073	0.02224203	0.006401326
	0.02206539	0.007276233	-0.0005450685	-0.0001771878	0.008489247	-0.02276665	-0.0004700758	-0.0002418568
	-0.0005282336	-0.0003211715	0.02218062	0.006507331	-0.0004650458	-0.0002445833	0.008331687	-0.02083131
2.1e+08	0.03764671	-0.0136751	-0.0004888137	-1.396631e-05	0.05958866	0.01043049	-0.0006180149	-9.117654e-05
	-0.0004888598	2.22345e-05	0.03773196	-0.01363827	-0.0005365376	0.000114018	0.06049558	0.010405
	0.0606821	0.01158149	-0.0005472271	0.0001096197	0.03771773	-0.01431048	-0.0005076029	9.96534e-06
	-0.0006163017	-7.805029e-05	0.06048115	0.010502	-0.0005033722	2.429917e-06	0.03860789	-0.01304169
2.2e+08	0.06798658	-0.02691998	-0.0003968938	0.0001710161	0.09176107	-0.01171257	-0.0005916755	0.0001498762
	-0.0003803239	0.0001999056	0.06827577	-0.02769996	-0.0003688212	0.0003034326	0.09256708	-0.01242728
	0.09329562	-0.0111364	-0.0003784184	0.000306563	0.06831109	-0.02777984	-0.0004038676	0.0001996254
	-0.0005819926	0.0001571974	0.09257872	-0.0123522	-0.0004045285	0.0001884485	0.06966882	-0.02754634
2.3e+08	0.08658987	-0.05857179	-0.0002710368	0.0002417125	0.1030886	-0.05035984	-0.0004845331	0.0003314658
	-0.0002461299	0.0002570629	0.08649474	-0.06013953	-0.0001734881	0.000322107	0.1034081	-0.05162049
	0.1047357	-0.05049479	-0.0001777531	0.0003292817	0.08691969	-0.05988861	-0.0002668166	0.0002687458
	-0.0004734198	0.0003295088	0.1034287	-0.05156444	-0.0002745268	0.0002580112	0.08813263	-0.06064844
2.4e+08	0.08493942	-0.0987988	-0.0002018607	0.0002483339	0.08874642	-0.08897982	-0.0003516252	0.0004491869
	-0.0001774181	0.0002505594	0.08402493	-0.1007925	-8.893817e-05	0.000234921	0.08834571	-0.0904515
	0.09016714	-0.08978098	-8.759625e-05	0.0002412599	0.08491011	-0.1005883	-0.0001900287	0.0002702723
	-0.0003458164	0.0004399232	0.08836993	-0.09040537	-0.0002035397	0.0002646109	0.08556442	-0.1020005
2.5e+08	0.06131158	-0.1350871	-0.0001907834	0.0002828563	0.05476758	-0.1125899	-0.000218088	0.0005311809
	-0.0001721057	0.0002767882	0.05943465	-0.1369691	-0.0001405878	0.000188359	0.05363612	-0.1138672
	0.05569396	-0.1138643	-0.0001366503	0.0001908042	0.0606066	-0.1371162	-0.0001746309	0.0002994433
	-0.00022102	0.0005203849	0.05366776	-0.113827	-0.0001899987	0.0003016147	0.06057893	-0.1387444
2.6e+08	0.02085789	-0.1558891	-0.0001613163	0.0003902398	0.0141405	-0.1133489	-7.235598e-05	0.0006022533
	-0.0001490604	0.0003814459	0.018202	-0.1571615	-0.000222015	0.0002899596	0.0124876	-0.1140861
	0.01444177	-0.11481	-0.0002192616	0.0002887401	0.01934589	-0.1577524	-0.0001419487	0.0004023665
	-8.276005e-05	0.000596368	0.01253225	-0.114058	-0.0001544559	0.0004121258	0.01877834	-0.1592352
2.7e+08	-0.02569998	-0.1538401	-2.916333e-05	0.0005278022	-0.0187752	-0.0924081	0.0001167683	0.0006570695
	-2.064484e-05	0.0005195912	-0.02871393	-0.1541836	-0.0001720323	0.000516765	-0.02058028	-0.09242668
	-0.01908749	-0.09374941	-0.0001725093	0.0005146769	-0.02787358	-0.1550987	-6.039067e-06	0.0005349922
	0.0001041141	0.0006600877	-0.02052828	-0.09242398	-1.215214e-05	0.0005494773	-0.0287183	-0.1562762
2.8e+08	-0.06457293	-0.1285491	0.0002247761	0.0005899946	-0.03326862	-0.05873995	0.000366974	0.0006502379
	0.0002328153	0.0005821273	-0.06742998	-0.1279408	9.94633e-05	0.0007097753	-0.03480904	-0.05810065
	-0.03403688	-0.0597039	9.668306e-05	0.0007100473	-0.0670122	-0.1289149	0.0002513114	0.0005896227
	0.000358735	0.0006616626	-0.03476992	-0.05813163	0.0002527247	0.0006046568	-0.06788699	-0.1298229
2.9e+08	-0.08346371	-0.08800159	0.0005217131	0.0004820641	-0.02589436	-0.02574158	0.0006447131	0.0005187906
	0.000530307	0.0004717149	-0.08574507	-0.08670652	0.0005144953	0.0006771725	-0.02685665	-0.02474697
	-0.02685625	-0.02618453	0.0005126693	0.0006810526	-0.08564863	-0.08747438	0.0005483313	0.0004712053
	0.000645571	0.0005336798	-0.02685907	-0.02480056	0.0005558266	0.0004830513	-0.08644669	-0.08827137
3e+08	-0.07692876	-0.04664951	0.0007236615	0.0002015173	-0.001960758	-0.006306754	0.0008595455	0.0002382779
	0.0007303628	0.0001860511	-0.07846572	-0.04509412	0.0008522478	0.0003547274	-0.002275167	-0.005401504
	-0.002816923	-0.006240323	0.0008546375	0.0003601981	-0.07844129	-0.04555946	0.0007445653	0.0001801327
	0.0008695483	0.0002497984	-0.00233669	-0.005440132	0.0007551161	0.0001869554	-0.07921467	-0.04637758
3.1e+08	-0.04967059	-0.01971718	0.0007347668	-0.0001415853	0.02615693	-0.007308436	0.0009180726	-0.0001343322
	0.0007350676	-0.000161634	-0.05058755	-0.01829042	0.000915058	-0.0001138021	0.02626166	-0.006894926
	0.02564642	-0.006907695	0.0009221392	-0.0001110214	-0.05039459	-0.01858635	0.000745111	-0.0001691172
	0.0009326655	-0.0001310161	0.02615513	-0.006870196	0.0007558605	-0.0001668817	-0.05127	-0.01942623
3.2e+08	-0.01489851	-0.01618808	0.0005810381	-0.0004076903	0.04448664	-0.02595228	0.0007963983	-0.00048872
	0.0005717417	-0.0004280135	-0.0154623	-0.01506501	0.000699693	-0.0004839674	0.04457528	-0.02620422
	0.0444248	-0.02549244	0.00070812	-0.000487344	-0.01508364	-0.01548018	0.0005804011	-0.0004350587
	0.0008093936	-0.0004939001	0.04447744	-0.02608192	0.0005900836	-0.0004357784	-0.01611404	-0.01620435
3.3e+08	0.01183015	-0.03486849	0.000374753	-0.0005434585	0.04452417	-0.05097248	0.0005507114	-0.0007391687
	0.0003565542	-0.0005582558	0.01138344	-0.03400188	0.0003910914	-0.000620452	0.04414444	-0.05175343
	0.04483771	-0.05073364	0.0003956065	-0.0006297001	0.01169512	-0.03474888	0.000366747	-0.0005668778
	0.0005579946	-0.0007492136	0.04412841	-0.05154402	0.0003757034	-0.0005694048	0.01062509	-0.03520115
3.4e+08	0.01945683	-0.06564192	0.0001974216	-0.0006018692	0.02750702	-0.06870192	0.0002603251	-0.000868683
	0.0001746344	-0.0006071976	0.01906161	-0.06489469	0.0001797448	-0.0005944405	0.02638486	-0.06962664
	0.02798137	-0.06886924	0.0001768117	-0.0006052397	0.01891398	-0.06589947	0.0001854383	-0.0006219658
	0.0002615592	-0.0008789863	0.02650824	-0.06939161	0.000194369	-0.0006265678	0.01805391	-0.06606018
3.5e+08	0.005411924	-0.09439908	3.550931e-05	-0.0006529574	0.003092127	-0.0702009	-2.946828e-05	-0.0009060389
	1.355098e-05	-0.0006484539	0.00515063	-0.09370615	9.499281e-05	-0.0005808385	0.001241455	-0.07079987
	0.003449943	-0.07081252	8.52928e-05	-0.0005874635	0.004278196	-0.09455894	1.902853e-05	-0.000671862
	-3.182997e-05	-0.0009138369	0.001514347	-0.07063331	2.761391e-05	-0.0006798193	0.003861513	-0.09463036
3.6e+08	-0.02412962	-0.1087315	-0.0001736586	-0.000696227	-0.01616504	-0.05515362	-0.0003167822	-0.0008762571
	-0.0001908421	-0.000684488	-0.02415592	-0.1081703	4.852574e-06	-0.0006752079	-0.01845423	-0.05505923
	-0.01617574	-0.05609065	-7.027338e-06	-0.0006740662	-0.02565765	-0.1083072	-0.0001981552	-0.0007128061
	-0.000319921	-0.0008816422	-0.01808427	-0.0550501	-0.0001918354	-0.000725129	-0.02557551	-0.108653
3.7e+08	-0.05705391	-0.1025188	-0.0004524242	-0.0006591648	-0.02086583	-0.03110438	-0.0006123619	-0.000769372
	-0.0004635415	-0.0006437248	-0.05684201	-0.1022827	-0.0002383037	-0.0007983452	-0.02315134	-0.03019902
	-0.02140727	-0.03213794	-0.0002465996	-0.0007900561	-0.05846666	-0.1012637	-0.0004867	-0.0006673185
	-0.0006152406	-0.0007742628	-0.02278617	-0.03039508	-0.0004856304	-0.0006834283	-0.0581182	-0.1022573
3.8e+08	-0.08013299	-0.07825501	-0.0007370993	-0.0004676853	-0.008581354	-0.009569932	-0.0008964088	-0.0005479319
	-0.0007429392	-0.0004510531	-0.0798496	-0.07853967	-0.0006385028	-0.0007621307	-0.01045239	-0.008018083
	-0.009682213	-0.01041116	-0.0006395933	-0.0007511024	-0.0808427	-0.0763295	-0.0007766512	-0.0004597328
	-0.0009004321	-0.0005538747	-0.01021189	-0.008399007	-0.0007834633	-0.0004767404	-0.08069758	-0.07814303
3.9e+08	-0.08460801	-0.04603727	-0.0009091731	-0.000124359	0.01539546	-0.001022108	-0.001099481	-0.0001924659
	-0.0009109044	-0.0001071666	-0.08456798	-0.04691274	-0.001019962	-0.000443501	0.01415202	0.0008180524
	0.01385291	-0.001391485	-0.001014408	-0.00043524	-0.0842321	-0.04398401	-0.0009434823	-9.727151e-05
	-0.001107176	-0.0001986444	0.01417432	0.0003428691	-0.0009586696	-0.000110485	-0.08484094	-0.04645191
4e+08	-0.07010435	-0.01904091	-0.0008823188	0.0002692498	0.04019432	-0.01038998	-0.001136286	0.0002517042
	-0.000879794	0.0002874594	-0.07065915	-0.02035564	-0.001158732	8.269018e-05	0.03952949	-0.008639123
	0.03845674	-0.01008441	-0.001150725	8.497208e-05	-0.06869467	-0.01757962	-0.0009005188	0.000309992
	-0.001148735	0.0002486857	0.03930692	-0.009073484	-0.0009213224	0.0003052044	-0.07044734	-0.02017483
4.1e+08	-0.04461443	-0.0073367	-0.0006769544	0.0005770849	0.05391026	-0.03447539	-0.0009711752	0.0006801195
	-0.0006683537	0.0005958998	-0.04598887	-0.008702908	-0.0009746192	0.0005856097	0.05358213	-0.03304878
	0.05231111	-0.03343515	-0.0009690085	0.0005829114	-0.04270113	-0.007022724	-0.0006747828	0.0006198871
	-0.0009861179	0.0006841745	0.05317355	-0.03331119	-0.0006957848	0.0006256706	-0.04560059	-0.009019749
4.2e+08	-0.0202168	-0.01327004	-0.0004033953	0.0007341349	0.04934251	-0.06288453	-0.0006483216	0.0009924426
	-0.0003867798	0.0007508236	-0.02234572	-0.01419895	-0.0005959841	0.00086961	0.04905881	-0.06180155
	0.04821491	-0.06121409	-0.0005948272	0.0008660097	-0.01859747	-0.01420826	-0.0003853414	0.0007686708
	-0.0006606369	0.001005002	0.04859084	-0.06181885	-0.0004008689	0.0007833551	-0.02217039	-0.01495331
4.3e+08	-0.007070842	-0.03107452	-0.0001581625	0.0007846984	0.02778216	-0.08276818	-0.0002538161	0.001148722
	-0.0001337564	0.0007945901	-0.009571404	-0.03118856	-0.0002288804	0.0009239948	0.02734721	-0.08187337
	0.02737718	-0.08072644	-0.0002302108	0.0009232666	-0.006451975	-0.03282595	-0.000132662	0.0008076242
	-0.0002582435	0.001167183	0.02696516	-0.08166093	-0.0001394719	0.0008266069	-0.009869974	-0.0320528
4.4e+08	-0.008915923	-0.05031664	5.761635e-05	0.0008087173	-0.001365875	-0.08514725	0.0001451469	0.001166648
	8.621824e-05	0.0008073748	-0.01121766	-0.04955555	2.936967e-05	0.0008855745	-0.001973377	-0.08422294
	-0.0009453788	-0.08308453	2.964349e-05	0.0008881812	-0.00956725	-0.05207748	8.519972e-05	0.0008228188
	0.0001510588	0.001185352	-0.002163728	-0.08387707	8.679446e-05	0.0008411388	-0.0119488	-0.05007288
4.5e+08	-0.02188337	-0.06104984	0.0003106737	0.0008191202	-0.02514393	-0.06920137	0.0005258172	0.001075801
	0.0003372842	0.0008047543	-0.02347645	-0.0597458	0.0002459443	0.0008687409	-0.02577805	-0.06810051
	-0.02396453	-0.06747799	0.0002505906	0.0008714666	-0.02349306	-0.06201629	0.0003407151	0.0008272585
	0.0005403763	0.001088734	-0.02574987	-0.06775682	0.000347981	0.000842029	-0.02425698	-0.05956661
4.6e+08	-0.03658355	-0.05844649	0.0006353067	0.0007379586	-0.03298443	-0.04244984	0.0008870115	0.0008765252
	0.0006533173	0.0007127236	-0.03726167	-0.05720886	0.0005379909	0.0008386625	-0.03342962	-0.04120246
	-0.03127633	-0.04135982	0.0005459821	0.0008370126	-0.03837734	-0.05820053	0.0006700172	0.0007380438
	0.0009052274	0.0008801289	-0.03323972	-0.04098029	0.0006802632	0.0007490878	-0.03750813	-0.05632366
4.7e+08	-0.04262093	-0.04539293	0.000959959	0.0004705078	-0.02129888	-0.01750577	0.001200617	0.0005387597
	0.0009649681	0.0004400524	-0.04262197	-0.04487624	0.000904739	0.0006475422	-0.02142353	-0.01632951
	-0.01940202	-0.0172075	0.0009114356	0.0006392132	-0.04371747	-0.04412798	0.0009970725	0.00045656
	0.001216674	0.0005334258	-0.02118411	-0.01628682	0.001009599	0.000464911	-0.04181103	-0.04369948
4.8e+08	-0.0341797	-0.03158492	0.001129854	1.491362e-05	0.004824329	-0.00679359	0.001382426	5.2329e-05
	0.001121435	-1.36519e-05	-0.03413941	-0.03218822	0.001172965	0.000209544	0.004929331	-0.005980779
