!$
! Info: Touchstone file created by Circ.  Input file=Tx_NPC_250mm_32AWG_BPK_500mm_27AWG_BPK_250mm_32AWG_NPC_Rx.circ
!$
# Hz S RI R 50
0	0.07766992	-3.007664e-16	5.534573e-06	3.579624e-18	0.002431174	-4.435711e-16	-1.913459e-05	-5.765393e-19
	-4.28676e-05	2.361528e-18	0.02434807	-2.051231e-16	-4.792388e-05	-2.571512e-20	0.002947075	-4.52729e-16
	0.003549684	8.06019e-16	3.45977e-06	9.037554e-19	0.05417327	-1.831943e-17	-1.940103e-05	3.130645e-19
	-3.277207e-05	-1.088012e-18	0.003048613	-2.592952e-16	-2.45214e-05	1.350671e-18	0.04889377	4.835362e-16
1e+07	0.05674795	0.002281027	1.732231e-05	-2.743909e-05	0.01626343	0.02975926	-6.027461e-06	-1.920259e-05
	-2.664447e-05	-8.187582e-06	0.05748955	0.001837194	-3.135434e-05	-4.216676e-06	0.01606883	0.02986132
	0.01708827	0.02972025	1.541522e-05	-2.460823e-05	0.05680627	0.002497708	-1.413897e-05	-1.105762e-05
	-1.812439e-05	-1.316726e-05	0.0161125	0.02987057	-1.804692e-05	-8.072382e-06	0.05888662	0.001031638
2e+07	0.06430996	-0.003236514	-1.218856e-06	-3.517374e-05	0.04483273	0.0447969	-1.982071e-05	-2.036109e-05
	-3.317259e-05	-1.837126e-06	0.06459781	-0.003998863	-5.10208e-05	-3.408901e-06	0.04485437	0.0452254
	0.04560385	0.04438663	-1.681772e-05	-3.933419e-05	0.06439842	-0.002761187	-3.411209e-05	-1.338732e-05
	-2.752447e-05	-1.101912e-05	0.04487325	0.04518384	-3.534345e-05	-9.229649e-06	0.06538909	-0.005438962
3e+07	0.06774172	-0.01533665	-2.283176e-05	-3.48211e-05	0.07577101	0.03762214	-3.525112e-05	-1.541058e-05
	-3.984733e-05	5.786618e-06	0.06747837	-0.01618293	-6.32042e-05	1.51812e-05	0.07603595	0.03823686
	0.07659074	0.03680378	-4.548264e-05	-2.921937e-05	0.06805161	-0.01458817	-4.922611e-05	-1.822363e-06
	-3.881049e-05	-5.696958e-06	0.07601565	0.0381354	-4.821754e-05	1.496232e-06	0.06750163	-0.0178122
4e+07	0.06321144	-0.02950762	-4.342628e-05	-2.546744e-05	0.09464997	0.01149687	-4.872591e-05	-3.480283e-06
	-4.592837e-05	1.671085e-05	0.06243348	-0.03016472	-6.563425e-05	3.93646e-05	0.0952102	0.01190159
	0.09524558	0.01048459	-6.473762e-05	-6.75789e-06	0.06382992	-0.02879469	-5.793546e-05	1.646489e-05
	-4.997131e-05	5.347253e-06	0.09513347	0.01181857	-5.628733e-05	1.817619e-05	0.06170833	-0.03155866
5e+07	0.05059376	-0.03964987	-6.127832e-05	-6.861279e-06	0.09222354	-0.02024833	-5.870171e-05	1.539896e-05
	-5.076543e-05	3.329656e-05	0.04941084	-0.03983751	-5.875504e-05	6.608131e-05	0.09286292	-0.02025089
	0.09252568	-0.02127678	-7.308843e-05	2.335803e-05	0.05148891	-0.03918806	-6.008125e-05	3.953631e-05
	-5.901279e-05	2.41359e-05	0.09276715	-0.02027902	-5.910636e-05	4.038084e-05	0.04819024	-0.04073401
6e+07	0.03344077	-0.04107887	-7.174428e-05	2.211596e-05	0.06950795	-0.04246728	-6.174243e-05	4.212628e-05
	-4.911903e-05	5.776222e-05	0.03215137	-0.04062058	-4.064088e-05	9.387386e-05	0.07009959	-0.04280707
	0.06954768	-0.04355046	-6.811041e-05	5.830311e-05	0.03442521	-0.04099856	-5.315899e-05	6.714694e-05
	-6.064865e-05	5.229534e-05	0.06998743	-0.04277526	-5.281667e-05	6.869896e-05	0.03076266	-0.04083145
7e+07	0.01819102	-0.03156996	-6.731779e-05	5.920108e-05	0.03768571	-0.04364056	-5.110081e-05	7.460893e-05
	-3.284865e-05	8.706913e-05	0.01715368	-0.03042108	-7.05884e-06	0.0001177574	0.0380729	-0.04424623
	0.0374707	-0.04466855	-4.55524e-05	9.281873e-05	0.01899099	-0.03188511	-3.167298e-05	9.596917e-05
	-4.625495e-05	8.650415e-05	0.03798896	-0.04415378	-3.042571e-05	9.893203e-05	0.01595091	-0.0299932
8e+07	0.01171275	-0.01355829	-4.166414e-05	9.481798e-05	0.01293634	-0.02215158	-2.115407e-05	0.0001038271
	3.206432e-06	0.0001099273	0.01132641	-0.01188128	4.249129e-05	0.0001266577	0.01305396	-0.02291063
	0.01250042	-0.02307042	-3.954889e-06	0.0001162544	0.01210969	-0.01411358	7.548037e-06	0.0001160187
	-1.009682e-05	0.0001151152	0.01302962	-0.0227781	1.154699e-05	0.0001193148	0.01057754	-0.01101583
9e+07	0.01851467	0.006261543	2.87851e-06	0.000114752	0.009167043	0.01241845	2.534081e-05	0.0001163043
	5.332412e-05	0.0001116126	0.01906165	0.008062993	9.815579e-05	0.0001084943	0.0089936	0.01160225
	0.008546997	0.01163413	4.910435e-05	0.0001162076	0.01841543	0.005749157	5.83549e-05	0.0001146234
	4.276865e-05	0.0001225547	0.009046602	0.01174208	6.5517e-05	0.0001155908	0.01889746	0.009083044
1e+08	0.03799306	0.01918279	5.328469e-05	0.0001096247	0.03080222	0.04320604	7.517403e-05	0.000103382
	0.0001006116	8.533775e-05	0.03949407	0.0205826	0.0001403783	6.017443e-05	0.03032879	0.04244136
	0.0300487	0.04259566	9.653146e-05	8.717976e-05	0.03750484	0.01902934	0.0001047248	8.594248e-05
	9.55751e-05	0.0001005179	0.03045453	0.04253984	0.0001129876	8.206075e-05	0.03989259	0.02146333
1.1e+08	0.06399488	0.01842535	9.455456e-05	8.280071e-05	0.07015818	0.05437039	0.0001128761	6.856434e-05
	0.0001286084	3.981813e-05	0.06618392	0.01895126	0.000150989	4.925912e-07	0.06939239	0.05378406
	0.06929437	0.05392773	0.000120808	4.369515e-05	0.06335355	0.01883895	0.0001324488	4.312207e-05
	0.0001304544	5.557528e-05	0.06956613	0.05380977	0.0001382297	3.39271e-05	0.06696974	0.01943567
1.2e+08	0.08740077	0.002397933	0.0001192127	4.449347e-05	0.1111392	0.0386416	0.0001308248	2.415681e-05
	0.0001322707	-9.255141e-06	0.08976443	0.001763799	0.0001362791	-5.292851e-05	0.1102071	0.03835925
	0.1101995	0.03838443	0.0001259593	-7.895151e-07	0.08701409	0.003399396	0.0001415313	-3.502643e-06
	0.0001402325	3.979841e-06	0.1103787	0.03829157	0.000141547	-1.578316e-05	0.09068866	0.001752383
1.3e+08	0.10012	-0.02498829	0.0001289947	4.5552e-06	0.1369501	0.0003717703	0.0001322735	-1.817619e-05
	0.0001185958	-4.91509e-05	0.1020591	-0.02674845	0.0001103156	-8.985908e-05	0.1360085	0.0004301284
	0.1359588	0.000313112	0.0001217932	-3.823113e-05	0.1002993	-0.02362653	0.000134756	-4.610869e-05
	0.0001310243	-4.002837e-05	0.1361304	0.0002817023	0.000127809	-5.759322e-05	0.1028666	-0.02722502
1.4e+08	0.09764422	-0.05626824	0.0001306022	-3.406223e-05	0.1370662	-0.04703305	0.00012568	-5.569028e-05
	9.993737e-05	-7.754119e-05	0.0986627	-0.05879623	8.077137e-05	-0.0001130833	0.1362709	-0.04667802
	0.1360495	-0.04687439	0.0001114178	-7.099975e-05	0.09851567	-0.05490138	0.0001207513	-8.24384e-05
	0.0001149205	-7.352325e-05	0.136308	-0.04687121	0.0001081616	-8.925005e-05	0.09915305	-0.05959394
1.5e+08	0.07998951	-0.08277262	0.0001263661	-7.628788e-05	0.1109569	-0.08673038	0.0001148459	-9.405274e-05
	8.270076e-05	-0.0001026604	0.07985429	-0.08548924	5.375125e-05	-0.0001306607	0.1104153	-0.08619605
	0.1099635	-0.08632681	9.744932e-05	-0.0001047206	0.08147041	-0.08178489	0.0001027754	-0.0001184823
	9.854305e-05	-0.0001041092	0.1103565	-0.08638345	8.782633e-05	-0.0001181051	0.07993544	-0.08639273
1.6e+08	0.05155968	-0.09683844	0.0001091659	-0.0001267162	0.06801482	-0.1047623	9.33013e-05	-0.000139182
	6.135718e-05	-0.0001336232	0.05041264	-0.09914643	2.428599e-05	-0.0001509331	0.06776813	-0.1041781
	0.06709865	-0.104099	7.305134e-05	-0.0001442516	0.05337293	-0.09645359	7.406178e-05	-0.0001594792
	7.648919e-05	-0.000140747	0.06763206	-0.1043134	6.087768e-05	-0.0001516306	0.05008694	-0.09990616
1.7e+08	0.02081451	-0.09374272	6.570767e-05	-0.0001797963	0.02430885	-0.09515425	4.751943e-05	-0.000186623
	2.16956e-05	-0.0001691204	0.01909491	-0.09522134	-1.998414e-05	-0.0001722121	0.02433933	-0.09465328
	0.02355967	-0.09423291	2.584567e-05	-0.0001841714	0.02260828	-0.09403428	2.182909e-05	-0.0002
	3.42111e-05	-0.00018201	0.02416578	-0.09470755	1.408762e-05	-0.0001866982	0.01851717	-0.09562547
1.8e+08	-0.001622545	-0.074262	-1.123619e-05	-0.000215413	-0.003197248	-0.06282148	-3.039199e-05	-0.0002166692
	-4.628571e-05	-0.0001917312	-0.003318485	-0.07483474	-8.649004e-05	-0.000178434	-0.002942607	-0.06251254
	-0.003685611	-0.06168233	-4.998107e-05	-0.0002053422	-0.0001579604	-0.07508198	-5.989552e-05	-0.0002201469
	-3.890242e-05	-0.0002097578	-0.003106581	-0.06248491	-6.034068e-05	-0.000205144	-0.003896768	-0.07476918
1.9e+08	-0.006645953	-0.04600645	-0.0001091233	-0.0002080966	-0.003692086	-0.02255453	-0.0001281562	-0.0002035306
	-0.0001332626	-0.0001763528	-0.007807295	-0.04596482	-0.0001643634	-0.0001480856	-0.003299475	-0.02253737
	-0.003838024	-0.02128316	-0.0001408943	-0.0001846346	-0.005667086	-0.04708038	-0.0001568612	-0.0001957221
	-0.000133606	-0.0001973464	-0.003418318	-0.02245253	-0.000150725	-0.0001829695	-0.008091477	-0.04547196
2e+08	0.008491505	-0.0216641	-0.0001954419	-0.0001478085	0.02185552	0.006745645	-0.0002126264	-0.000136942
	-0.0002086101	-0.000111471	0.008077309	-0.02153548	-0.0002243703	-7.420587e-05	0.02224203	0.006401326
	0.02210031	0.008017782	-0.000215165	-0.0001151571	0.009003377	-0.02270055	-0.0002355722	-0.0001194085
	-0.0002180225	-0.0001315915	0.02218062	0.006507331	-0.0002255338	-0.0001113015	0.008331687	-0.02083131
2.1e+08	0.03755232	-0.01331811	-0.0002386129	-5.316839e-05	0.06030116	0.01111505	-0.0002512883	-3.631657e-05
	-0.0002405328	-1.426801e-05	0.03773196	-0.01363827	-0.0002392616	2.332021e-05	0.06049558	0.010405
	0.06091239	0.0122513	-0.000244199	-1.761926e-05	0.03777949	-0.01414036	-0.0002654167	-1.309769e-05
	-0.0002579542	-2.916681e-05	0.06048115	0.010502	-0.0002544116	-9.739435e-06	0.03860789	-0.01304169
2.2e+08	0.0679445	-0.02662108	-0.0002318526	4.109953e-05	0.09275574	-0.01146794	-0.0002372795	6.178394e-05
	-0.0002211178	8.021366e-05	0.06827577	-0.02769996	-0.0002063468	0.0001105415	0.09256708	-0.01242728
	0.09365474	-0.01059131	-0.0002248002	7.359787e-05	0.06808989	-0.02719115	-0.0002424968	8.637236e-05
	-0.0002432221	7.36064e-05	0.09257872	-0.0123522	-0.0002321212	8.623387e-05	0.06966882	-0.02754634
2.3e+08	0.08653374	-0.05831676	-0.0001941772	0.0001110044	0.1040868	-0.05062857	-0.0001911832	0.0001317796
	-0.0001694485	0.0001460565	0.08649474	-0.06013953	-0.0001475529	0.0001656417	0.1034081	-0.05162049
	0.1051506	-0.05007857	-0.000178149	0.0001369511	0.08674247	-0.05872396	-0.0001892119	0.0001551131
	-0.0001921075	0.0001484852	0.1034287	-0.05156444	-0.0001796314	0.0001525707	0.08813263	-0.06064844
2.4e+08	0.08483933	-0.09853346	-0.0001494948	0.0001566798	0.08948541	-0.08967977	-0.0001393257	0.0001737145
	-0.0001115906	0.0001816315	0.08402493	-0.1007925	-8.828089e-05	0.0001912433	0.08834571	-0.0904515
	0.09058532	-0.08946065	-0.0001280473	0.0001751649	0.08514358	-0.0988989	-0.0001316856	0.0001950714
	-0.0001314449	0.0001918767	0.08836993	-0.09040537	-0.0001225754	0.0001902288	0.08556442	-0.1020005
2.5e+08	0.06118419	-0.1347529	-0.0001068434	0.0001933387	0.0550702	-0.1135218	-9.259428e-05	0.000204406
	-6.005216e-05	0.0002021516	0.05943465	-0.1369691	-3.821395e-05	0.0002046362	0.05363612	-0.1138672
	0.05609941	-0.1135904	-8.212657e-05	0.0002046211	0.06155189	-0.1351495	-7.941253e-05	0.0002235602
	-7.516884e-05	0.0002182351	0.05366776	-0.113827	-7.100738e-05	0.0002156716	0.06057893	-0.1387444
2.6e+08	0.02075693	-0.1554523	-5.652464e-05	0.0002326029	0.01396648	-0.1142587	-4.148315e-05	0.0002378701
	-8.431884e-06	0.0002215398	0.018202	-0.1571615	1.176004e-05	0.000219167	0.0124876	-0.1140861
	0.01486399	-0.1145333	-2.953042e-05	0.0002365115	0.02113456	-0.155879	-2.204869e-05	0.0002533718
	-1.785466e-05	0.0002417889	0.01253225	-0.114058	-1.568637e-05	0.0002416371	0.01877834	-0.1592352
2.7e+08	-0.02570625	-0.1533037	1.897415e-05	0.0002687266	-0.0193339	-0.09306735	3.296888e-05	0.0002699901
	5.904176e-05	0.0002381961	-0.02871393	-0.1541836	7.824661e-05	0.0002311605	-0.02058028	-0.09242668
	-0.01858473	-0.09346838	4.694339e-05	0.0002639615	-0.02529596	-0.1537409	5.845298e-05	0.000278682
	5.62472e-05	0.0002613842	-0.02052828	-0.09242398	6.031263e-05	0.000263241	-0.0287183	-0.1562762
2.8e+08	-0.06442151	-0.127959	0.0001269346	0.0002771359	-0.03402217	-0.05901513	0.0001401136	0.0002761095
	0.0001504868	0.0002325105	-0.06742998	-0.1279408	0.000167942	0.0002194268	-0.03480904	-0.05810065
	-0.0333953	-0.05948068	0.0001528485	0.000262182	-0.06390976	-0.1284392	0.0001688216	0.0002743877
	0.0001558033	0.0002570412	-0.03476992	-0.05813163	0.0001634659	0.0002573315	-0.06788699	-0.1298229
2.9e+08	-0.0831241	-0.08744266	0.0002494473	0.0002285994	-0.02663355	-0.02562412	0.0002630561	0.000225275
	0.0002518113	0.0001792683	-0.08574507	-0.08670652	0.0002643641	0.0001594193	-0.02685665	-0.02474697
	-0.02608135	-0.0261321	0.0002684205	0.0002037772	-0.08245767	-0.08809872	0.000289513	0.0002115621
	0.0002666592	0.0002021204	-0.02685907	-0.02480056	0.0002756586	0.0001971295	-0.08644669	-0.08827137
3e+08	-0.07642985	-0.04621969	0.0003450491	0.0001137541	-0.002529103	-0.005883348	0.0003592476	0.0001062979
	0.0003273755	7.013172e-05	-0.07846572	-0.04509412	0.000330924	4.575002e-05	-0.002275167	-0.005401504
	-0.002014771	-0.006457301	0.0003522785	8.283757e-05	-0.07570097	-0.04727159	0.0003775068	8.286295e-05
	0.0003515193	8.679931e-05	-0.00233669	-0.005440132	0.0003570034	7.606027e-05	-0.07921467	-0.04637758
3.1e+08	-0.04910314	-0.01948114	0.0003732298	-4.117008e-05	0.02583294	-0.006701403	0.0003857483	-5.46122e-05
	0.0003418855	-7.159844e-05	-0.05058755	-0.01829042	0.0003344039	-9.524817e-05	0.02626166	-0.006894926
	0.02631266	-0.007394548	0.0003669211	-7.170368e-05	-0.04858244	-0.02107371	0.000392451	-8.223524e-05
	0.0003722076	-6.555726e-05	0.02615513	-0.006870196	0.0003704082	-7.833671e-05	-0.05127	-0.01942623
3.2e+08	-0.01437698	-0.01613664	0.0003244793	-0.0001876789	0.04442738	-0.02526851	0.0003314516	-0.0002065591
	0.0002876354	-0.0002026918	-0.0154623	-0.01506501	0.0002710637	-0.00021989	0.04457528	-0.02620422
	0.04481852	-0.02613208	0.0003070729	-0.0002115713	-0.01447526	-0.01820617	0.0003273086	-0.0002325255
	0.0003186816	-0.0002094121	0.04447744	-0.02608192	0.0003098139	-0.0002187505	-0.01611404	-0.01620435
3.3e+08	0.01222558	-0.03492152	0.0002248138	-0.0002888053	0.04472585	-0.05030385	0.0002234309	-0.0003096089
	0.0001886666	-0.0002904613	0.01138344	-0.03400188	0.0001679259	-0.0002980825	0.04414444	-0.05175343
	0.04493353	-0.05134917	0.0002013901	-0.0003028479	0.01116091	-0.0371029	0.0002117624	-0.0003305406
	0.0002148101	-0.0003087988	0.04412841	-0.05154402	0.0002028872	-0.0003111287	0.01062509	-0.03520115
3.4e+08	0.01971853	-0.06569049	0.0001100223	-0.0003394372	0.0279444	-0.06813949	0.0001005524	-0.0003575439
	7.73951e-05	-0.0003309466	0.01906161	-0.06489469	5.76146e-05	-0.0003294326	0.02638486	-0.06962664
	0.02786389	-0.06931568	8.538848e-05	-0.0003438144	0.01760822	-0.06740397	8.446722e-05	-0.0003729069
	9.483187e-05	-0.0003574734	0.02650824	-0.06939161	8.482568e-05	-0.0003530448	0.01805391	-0.06606018
3.5e+08	0.005604287	-0.09435822	-1.692911e-06	-0.0003555169	0.003703123	-0.06983108	-1.62335e-05	-0.0003678781
	-2.997796e-05	-0.0003387712	0.00515063	-0.09370615	-4.561558e-05	-0.0003308163	0.001241455	-0.07079987
	0.003257456	-0.07102724	-2.47186e-05	-0.000352033	0.002748468	-0.09500302	-3.542221e-05	-0.0003780973
	-2.284809e-05	-0.0003696259	0.001514347	-0.07063331	-2.789323e-05	-0.0003615824	0.003861513	-0.09463036
3.6e+08	-0.02390228	-0.1085804	-0.0001136641	-0.0003488229	-0.01547932	-0.05502676	-0.0001298029	-0.0003552197
	-0.00013648	-0.0003241513	-0.02415592	-0.1081703	-0.0001470754	-0.0003126293	-0.01845423	-0.05505923
	-0.01630455	-0.05609728	-0.0001339688	-0.0003388995	-0.02685245	-0.1078099	-0.0001517876	-0.0003596486
	-0.0001400765	-0.000356087	-0.01808427	-0.0550501	-0.0001400425	-0.0003480576	-0.02557551	-0.108653
3.7e+08	-0.05669371	-0.1023124	-0.0002335297	-0.000312405	-0.02022054	-0.03122524	-0.0002494497	-0.0003143782
	-0.0002481057	-0.0002801355	-0.05684201	-0.1022827	-0.0002538673	-0.0002668904	-0.02315134	-0.03019902
	-0.02137303	-0.03202356	-0.0002500249	-0.0002963933	-0.05892639	-0.1001996	-0.000272956	-0.0003111412
	-0.0002626754	-0.0003101541	-0.02278617	-0.03039508	-0.0002592623	-0.0003043343	-0.0581182	-0.1022573
3.8e+08	-0.07959748	-0.07810772	-0.0003524757	-0.0002270546	-0.008085029	-0.00989343	-0.0003683655	-0.0002257087
	-0.0003548875	-0.0001895417	-0.0798496	-0.07853967	-0.0003558215	-0.0001756512	-0.01045239	-0.008018083
	-0.009448865	-0.01030779	-0.0003628535	-0.000205339	-0.08044172	-0.07522858	-0.0003899852	-0.0002133939
	-0.0003803395	-0.000213891	-0.01021189	-0.008399007	-0.0003753883	-0.000210802	-0.08069758	-0.07814303
3.9e+08	-0.08394115	-0.04607621	-0.0004389481	-8.331773e-05	0.01565159	-0.001456209	-0.0004553335	-7.797255e-05
	-0.0004262198	-4.594258e-05	-0.08456798	-0.04691274	-0.0004219494	-3.287125e-05	0.01415202	0.0008180524
	0.01423042	-0.001435291	-0.0004401345	-5.814476e-05	-0.08316794	-0.04335109	-0.0004705061	-5.76842e-05
	-0.0004607693	-5.996951e-05	0.01417432	0.0003428691	-0.0004554004	-5.9405e-05	-0.08484094	-0.04645191
4e+08	-0.06942921	-0.01934617	-0.0004551338	9.891039e-05	0.04015804	-0.01078658	-0.0004708981	0.0001099967
	-0.0004277173	0.0001288024	-0.07065915	-0.02035564	-0.0004185817	0.0001387275	0.03952949	-0.008639123
	0.03883703	-0.01034752	-0.0004454431	0.000122839	-0.06742573	-0.01770882	-0.0004763727	0.0001342049
	-0.0004667515	0.0001292143	0.03930692	-0.009073484	-0.000461726	0.0001273111	-0.07044734	-0.02017483
4.1e+08	-0.04408783	-0.007895956	-0.0003855753	0.000273561	0.0536214	-0.0346466	-0.0003975861	0.0002910678
	-0.0003483453	0.0002895696	-0.04598887	-0.008702908	-0.0003363402	0.0002941746	0.05358213	-0.03304878
	0.05252958	-0.03387372	-0.0003666126	0.000290838	-0.0417789	-0.007867166	-0.0003933089	0.0003140464
	-0.0003849948	0.0003057378	0.05317355	-0.03331119	-0.0003813926	0.0003015091	-0.04560059	-0.009019749
4.2e+08	-0.0199617	-0.0139795	-0.0002509637	0.0003964591	0.04896739	-0.06266555	-0.0002557744	0.0004184353
	-0.0002115978	0.0003960077	-0.02234572	-0.01419895	-0.0001998541	0.0003947609	0.04905881	-0.06180155
	0.04817771	-0.06167458	-0.0002273086	0.000403599	-0.0184355	-0.01539401	-0.0002445037	0.0004366776
	-0.000239163	0.000425304	0.04859084	-0.06181885	-0.0002381829	0.0004196792	-0.02217039	-0.01495331
4.3e+08	-0.007131891	-0.0317787	-9.141056e-05	0.0004519813	0.02759095	-0.08211854	-8.750602e-05	0.0004745299
	-5.715831e-05	0.0004370461	-0.009571404	-0.03118856	-4.832765e-05	0.0004313773	0.02734721	-0.08187337
	0.02711738	-0.08102953	-6.838332e-05	0.0004488	-0.007158669	-0.03379733	-7.24158e-05	0.0004872347
	-7.159388e-05	0.0004741087	0.02696516	-0.08166093	-7.358565e-05	0.0004688023	-0.009869974	-0.0320528
4.4e+08	-0.009247851	-0.05086073	6.353185e-05	0.0004525822	-0.001101942	-0.08420729	7.507293e-05	0.0004719955
	8.837596e-05	0.0004279028	-0.01121766	-0.04955555	9.321363e-05	0.0004201448	-0.001973377	-0.08422294
	-0.001289466	-0.08311427	8.204691e-05	0.0004414025	-0.01090304	-0.05231125	9.23604e-05	0.0004797668
	8.790841e-05	0.0004671459	-0.002163728	-0.08387707	8.387625e-05	0.0004636034	-0.0119488	-0.05007288
4.5e+08	-0.02236544	-0.06132685	0.0002081148	0.0004148883	-0.02426739	-0.06826256	0.0002249376	0.0004292486
	0.0002225367	0.0003852567	-0.02347645	-0.0597458	0.0002236991	0.0003773479	-0.02577805	-0.06810051
	-0.02421457	-0.06722187	0.0002203268	0.0003987585	-0.0249548	-0.06120436	0.0002441596	0.0004319595
	0.0002351482	0.0004224967	-0.02574987	-0.06775682	0.0002304795	0.0004209424	-0.02425698	-0.05956661
4.6e+08	-0.03705363	-0.05843179	0.0003470927	0.0003384276	-0.03152884	-0.04186616	0.0003674483	0.0003472911
	0.000351783	0.0003069396	-0.03726167	-0.05720886	0.0003500222	0.0002998823	-0.03342962	-0.04120246
	-0.03128062	-0.0409076	0.0003525703	0.0003198201	-0.03935572	-0.05637315	0.0003877123	0.0003433593
	0.0003766063	0.0003389146	-0.03323972	-0.04098029	0.0003719039	0.0003386339	-0.03750813	-0.05632366
4.7e+08	-0.04293383	-0.04516404	0.0004708146	0.0002069601	-0.01949009	-0.01758061	0.0004939249	0.0002096664
	0.0004661126	0.0001751727	-0.04262197	-0.04487624	0.0004618279	0.000169582	-0.02142353	-0.01632951
	-0.01907398	-0.01671973	0.0004692508	0.0001878326	-0.04370259	-0.04164941	0.0005122132	0.0001976751
	0.0005022719	0.0001978914	-0.02118411	-0.01628682	0.0004969778	0.00019863	-0.04181103	-0.04369948
4.8e+08	-0.03427374	-0.03128991	0.0005430046	1.35153e-05	0.006603815	-0.007678612	0.0005675886	8.235136e-06
	0.0005279319	-1.680695e-05	-0.03413941	-0.03218822	0.0005214446	-1.985427e-05	0.004929331	-0.005980779
