# GHz S RI R 45
0.000     0.012390991791    0.001357392401    0.000000292800    0.000000357658    0.000589922633    0.001244795785    0.000000428270    0.000000573522
            0.000000292778    0.000000357658    0.012219423400    0.001861957483    0.000000425924    0.000000557347    0.000625522419    0.001662521780
            0.000589922503    0.001244795736    0.000000425937    0.000000557347    0.012394004404    0.001370031141    0.000000603806    0.000000840448
            0.000000428320    0.000000573522    0.000625522628    0.001662521808    0.000000603800    0.000000840448    0.012149829135    0.001873965064
0.025     0.015557127825    0.009847551845    0.000000504882    0.000000791152    0.001549384357    0.008745921465    0.000000741575    0.000001265406
            0.000000504883    0.000000791155    0.015367370360    0.010526979167    0.000000737695    0.000001237331    0.001616362609    0.009372185291
            0.001546111557    0.008746207755    0.000000737689    0.000001237331    0.015493072176    0.009862807126    0.000001044185    0.000001856959
            0.000000741576    0.000001265405    0.001616616512    0.009371611485    0.000001044183    0.000001856959    0.015298345405    0.010506299828
0.050     0.019563422552    0.016773198718    0.000000880254    0.000001332743    0.004296683193    0.016931939327    0.000001294485    0.000002161216
            0.000000880254    0.000001332743    0.019479590360    0.018022204568    0.000001287125    0.000002107480    0.004451437574    0.018149569524
            0.004296728466    0.016931895856    0.000001287125    0.000002107480    0.019472370644    0.016818986597    0.000001820243    0.000003192031
            0.000001294485    0.000002161216    0.004451532220    0.018149563814    0.000001820243    0.000003192031    0.019363397379    0.017989283309
0.075     0.024367879246    0.022423313398    0.000001303806    0.000001749306    0.008551416918    0.024182098002    0.000001919212    0.000002881745
            0.000001303806    0.000001749306    0.024363009855    0.024248340341    0.000001907615    0.000002801018    0.008823117938    0.026013192612
            0.008551420983    0.024182093383    0.000001907615    0.000002801019    0.024252556163    0.022513246443    0.000002696031    0.000004288120
            0.000001919212    0.000002881745    0.008823113397    0.026013194152    0.000002696031    0.000004288120    0.024190263887    0.024229299868
0.100     0.029861607609    0.026694015388    0.000001777069    0.000002065315    0.013996436263    0.030237480805    0.000002623730    0.000003465352
            0.000001777069    0.000002065315    0.029937616281    0.029158187514    0.000002605542    0.000003355646    0.014438917631    0.032715358557
            0.013996435736    0.030237481049    0.000002605542    0.000003355646    0.029721341663    0.026842990680    0.000003688043    0.000005201862
            0.000002623730    0.000003465352    0.014438891867    0.032715366648    0.000003688043    0.000005201862    0.029699012081    0.029179672966
0.125     0.035652669321    0.029418527430    0.000002285796    0.000002278817    0.020305947099    0.034931529731    0.000003392431    0.000003908485
            0.000002285796    0.000002278817    0.035786832712    0.032597302195    0.000003363954    0.000003768030    0.021004183912    0.038098097004
            0.020305947099    0.034931529731    0.000003363954    0.000003768030    0.035489505865    0.029635297080    0.000004778483    0.000005928106
            0.000003392431    0.000003908485    0.021004183912    0.038098097004    0.000004778483    0.000005928106    0.035486503045    0.032697677106
0.150     0.041435995700    0.030737861786    0.000002809185    0.000002400296    0.027115442802    0.038116754679    0.000004199346    0.000004223921
            0.000002809185    0.000002400296    0.041807224349    0.034763180947    0.000004156250    0.000004051034    0.028163048311    0.042000896060
            0.027115442802    0.038116754679    0.000004156250    0.000004051034    0.041261118511    0.031051546580    0.000005936969    0.000006481920
            0.000004199346    0.000004223921    0.028163048311    0.042000896060    0.000005936969    0.000006481920    0.041448767236    0.034967479069
0.175     0.046845501218    0.030709335563    0.000003334360    0.000002437665    0.034040204187    0.039772554624    0.000005028476    0.000004419369
            0.000003334360    0.000002437665    0.047608689152    0.035655687964    0.000004965225    0.000004213138    0.035559165298    0.044401296777
            0.034040204187    0.039772554624    0.000004965225    0.000004213138    0.046683044988    0.031135978668    0.000007142886    0.000006870295
            0.000005028476    0.000004419369    0.035559165298    0.044401296777    0.000007142886    0.000006870295    0.047214794320    0.035993991988
0.200     0.051529075478    0.029519427886    0.000003851420    0.000002403146    0.040710673456    0.039979332654    0.000005866672    0.000004508707
            0.000003851420    0.000002403146    0.052862593594    0.035442249499    0.000005776989    0.000004269232    0.042851550521    0.045363188498
            0.040710673456    0.039979332654    0.000005776989    0.000004269232    0.051407010083    0.030066062198    0.000008378545    0.000007109169
            0.000005866672    0.000004508707    0.042851550521    0.045363188498    0.000008378545    0.000007109169    0.052468687895    0.035938207839
0.225     0.055206372276    0.027445934578    0.000004355364    0.000002307798    0.046795771550    0.038901777406    0.000006706602    0.000004503725
            0.000004355364    0.000002307798    0.057326878949    0.034370394739    0.000006583674    0.000004232280    0.049730968728    0.045022543297
            0.046795771550    0.038901777406    0.000006583674    0.000004232280    0.055155048400    0.028111435313    0.000009633370    0.000007211140
            0.000006706602    0.000004503725    0.049730968728    0.045022543297    0.000009633370    0.000007211140    0.056976811443    0.035036329162
0.250     0.057686297355    0.024847992836    0.000004845998    0.000002163042    0.052023183869    0.036783887274    0.000007546848    0.000004417562
            0.000004845998    0.000002163042    0.060847676955    0.032754052246    0.000007383644    0.000004116606    0.055941018970    0.043589489056
            0.052023183869    0.036783887274    0.000007383644    0.000004116606    0.057736416033    0.025623463407    0.000010903998    0.000007191285
            0.000007546848    0.000004417562    0.055941018970    0.043589489056    0.000010903998    0.000007191285    0.060589092553    0.033589029279
0.275     0.058889118832    0.022116148943    0.000005326964    0.000001976246    0.056193845967    0.033923976787    0.000008390655    0.000004257804
            0.000005326964    0.000001976246    0.063369456954    0.030923348868    0.000008180058    0.000003931055    0.061291203356    0.041321743541
            0.056193845967    0.033923976787    0.000008180058    0.000003931055    0.059070054818    0.022984441390    0.000012192708    0.000007057443
            0.000008390655    0.000004257804    0.061291203356    0.041321743541    0.000012192708    0.000007057443    0.063249959845    0.031912354507
0.300     0.058846307192    0.019656862665    0.000005804880    0.000001751992    0.059195800139    0.030662548310    0.000009245236    0.000004029042
            0.000005804880    0.000001751992    0.064933113151    0.029214816067    0.000008980311    0.000003681590    0.065670965081    0.038515169154
            0.059195800139    0.030662548310    0.000008980311    0.000003681590    0.059183952068    0.020592538218    0.000013506308    0.000006814170
            0.000009245236    0.000004029042    0.065670965081    0.038515169154    0.000013506308    0.000006814170    0.064996231500    0.030329022549
0.325     0.057700907352    0.017847851425    0.000006287358    0.000001489377    0.061008518086    0.027353134703    0.000010118712    0.000003728502
            0.000006287358    0.000001489377    0.065671565342    0.027929439382    0.000009792749    0.000003366727    0.069050124561    0.035473428661
            0.061008518086    0.027353134703    0.000009792749    0.000003366727    0.058214932233    0.018818197495    0.000014852790    0.000006456789
            0.000010118712    0.000003728502    0.069050124561    0.035473428661    0.000014852790    0.000006456789    0.065952969639    0.029128129846
0.350     0.055696918373    0.017023870080    0.000006782047    0.000001183420    0.061709330699    0.024346333236    0.000011019749    0.000003348559
            0.000006782047    0.000001183420    0.065799310101    0.027325135522    0.000010626610    0.000002980341    0.071485626459    0.032496346854
            0.061709330699    0.024346333236    0.000010626610    0.000002980341    0.056399137116    0.017990329294    0.000016240521    0.000005975256
            0.000011019749    0.000003348559    0.071485626459    0.032496346854    0.000016240521    0.000005975256    0.066323743536    0.028557727197
0.375     0.053164034908    0.017440257183    0.000007294345    0.000000823715    0.061465809562    0.021957352467    0.000011953248    0.000002874072
            0.000007294345    0.000000823715    0.065595074330    0.027583335641    0.000011487827    0.000002508809    0.073109291658    0.029848615648
            0.061465809562    0.021957352467    0.000011487827    0.000002508809    0.054056785911    0.018360731697    0.000017673272    0.000005350204
            0.000011953248    0.000002874072    0.073109291658    0.029848615648    0.000017673272    0.000005350204    0.066373579264    0.028792890417
0.400     0.050499340568    0.019263049128    0.000007826474    0.000000396182    0.060531520077    0.020451071102    0.000012920648    0.000002285753
            0.000007826474    0.000000396182    0.065384399975    0.028806531600    0.000012378751    0.000001934221    0.074126633136    0.027750460830
            0.060531520077    0.020451071102    0.000012378751    0.000001934221    0.051573851135    0.020094227540    0.000019150407    0.000004557577
            0.000012920648    0.000002285753    0.074126633136    0.027750460830    0.000019150407    0.000004557577    0.066413449996    0.029933635791
0.425     0.048139213666    0.022543559130    0.000008375121    -0.000000117064    0.059225870671    0.020010815099    0.000013915260    0.000001558902
            0.000008375121    -0.000000117064    0.065513079516    0.030997071467    0.000013294474    0.000001233260    0.074793579946    0.026349206149
            0.059225870671    0.020010815099    0.000013294474    0.000001233260    0.049375743653    0.023243896394    0.000020661245    0.000003567004
            0.000013915260    0.000001558902    0.074793579946    0.026349206149    0.000020661245    0.000003567004    0.066774130220    0.031984063496
0.450     0.046534155641    0.027216989175    0.000008930583    -0.000000735442    0.057917255693    0.020729817883    0.000014922394    0.000000667622
            0.000008930583    -0.000000735442    0.066327017486    0.034062507031    0.000014222452    0.000000380960    0.075405421159    0.025716146796
            0.057917255693    0.020729817883    0.000014222452    0.000000380960    0.047902499684    0.027749593381    0.000022185826    0.000002346922
            0.000014922394    0.000000667622    0.075405421159    0.025716146796    0.000022185826    0.000002346922    0.067787283044    0.034857527511
0.475     0.046113154848    0.033092186494    0.000009475336    -0.000001478901    0.056991803415    0.022590065459    0.000015916363    -0.000000414767
            0.000009475336    -0.000001478901    0.068139373145    0.037808775595    0.000015139945    -0.000000648538    0.076265185531    0.025827834991
            0.056991803415    0.022590065459    0.000015139945    -0.000000648538    0.047573653351    0.033427780979    0.000023690809    0.000000865081
            0.000015916363    -0.000000414767    0.076265185531    0.025827834991    0.000023690809    0.000000865081    0.069754827574    0.038369503761
0.500     0.047255087686    0.039864616536    0.000009984903    -0.000002363217    0.056828242522    0.025466815855    0.000016863167    -0.000001709324
            0.000009984903    -0.000002363217    0.071211622099    0.041957333470    0.000016015561    -0.000001875430    0.077668007151    0.026572913889
            0.056828242522    0.025466815855    0.000016015561    -0.000001875430    0.048761607381    0.039983839677    0.000025132531    -0.000000903638
            0.000016863167    -0.000001709324    0.077668007151    0.026572913889    0.000025132531    -0.000000903638    0.072931456675    0.042251238434
0.525     0.050253070676    0.047124758776    0.000010425043    -0.000003398179    0.057760923408    0.029125001756    0.000017715949    -0.000003228814
            0.000010425043    -0.000003398179    0.075723168083    0.046154257814    0.000016804887    -0.000003313634    0.079862093580    0.027745462892
            0.057760923408    0.029125001756    0.000016804887    -0.000003313634    0.051755385754    0.047020759455    0.000026452234    -0.000002974754
            0.000017715949    -0.000003228814    0.079862093580    0.027745462892    0.000026452234    -0.000002974754    0.077489589678    0.046152781380
0.550     0.055292751493    0.054388152926    0.000010756210    -0.000004584692    0.060056414884    0.033242189700    0.000018422044    -0.000004974120
            0.000010756210    -0.000004584692    0.081761521201    0.050000378062    0.000017458132    -0.000004966031    0.083024474152    0.029074477549
            0.060056414884    0.033242189700    0.000017458132    -0.000004966031    0.056740879219    0.054067986125    0.000027584379    -0.000005349118
            0.000018422044    -0.000004974120    0.083024474152    0.029074477549    0.000027584379    -0.000005349118    0.083490405757    0.049678660819
0.575     0.062427160102    0.061121054561    0.000010936030    -0.000005913413    0.063881522766    0.037422458040    0.000018924359    -0.000006932746
            0.000010936030    -0.000005913413    0.089301995183    0.053072517771    0.000017920729    -0.000006822483    0.087245439605    0.030261445651
            0.063881522766    0.037422458040    0.000017920729    -0.000006822483    0.063772503787    0.060606768671    0.000028458358    -0.000008011755
            0.000018924359    -0.000006932746    0.087245439605    0.030261445651    0.000028458358    -0.000008011755    0.090884227269    0.052451777832
0.600     0.071572484663    0.066781798665    0.000010922666    -0.000007361338    0.069294809959    0.041234179204    0.000019167651    -0.000009076045
            0.000010922666    -0.000007361338    0.098210062297    0.054955277550    0.000018138975    -0.000008856617    0.092561170817    0.030981075917
            0.069294809959    0.041234179204    0.000018138975    -0.000008856617    0.072771155699    0.066108506146    0.000029005798    -0.000010928604
            0.000019167651    -0.000009076045    0.092561170817    0.030981075917    0.000029005798    -0.000010928604    0.099569240932    0.054099566925
0.625     0.082501801797    0.070855073948    0.000010678189    -0.000008892274    0.076230555388    0.044233193615    0.000019100065    -0.000011358390
            0.000010678189    -0.000008892274    0.108236199244    0.055268917395    0.000018062459    -0.000011025830    0.098897573245    0.030878999540
            0.076230555388    0.044233193615    0.000018062459    -0.000011025830    0.083518183256    0.070067933391    0.000029161314    -0.000014045596
            0.000019100065    -0.000011358390    0.098897573245    0.030878999540    0.000029161314    -0.000014045596    0.109328557859    0.054244791771
0.650     0.094864736996    0.072890834340    0.000010174420    -0.000010458514    0.084512675312    0.046004955473    0.000018682974    -0.000013719285
            0.000010174420    -0.000010458514    0.119041626344    0.053699155857    0.000017652528    -0.000013272888    0.106083497985    0.029632048153
            0.084512675312    0.046004955473    0.000017652528    -0.000013272888    0.095674230239    0.072041928111    0.000028875062    -0.000017290440
            0.000018682975    -0.000013719286    0.106083497985    0.029632048153    0.000028875062    -0.000017290440    0.119838779141    0.052575461383
0.675     0.108200736581    0.072532537591    0.000009395878    -0.000012003539    0.093856779448    0.046185682337    0.000017892077    -0.000016086849
            0.000009395878    -0.000012003539    0.130209144865    0.050018471261    0.000016884344    -0.000015528974    0.113857393742    0.026969202294
            0.093856779448    0.046185682337    0.000016884344    -0.000015528974    0.108793271056    0.071677913940    0.000028113359    -0.000020576748
            0.000017892077    -0.000016086849    0.113857393742    0.026969202294    0.000028113359    -0.000020576748    0.130696931555    0.048869212548
0.700     0.121977139668    0.069541521241    0.000008342678    -0.000013466810    0.103900991129    0.044494509430    0.000016723636    -0.000018384241
            0.000008342678    -0.000013466810    0.141277271881    0.044103114304    0.000015752623    -0.000017719885    0.121902514918    0.022691603487
            0.103900991129    0.044494509430    0.000015752623    -0.000017719885    0.122356635876    0.068738574746    0.000026867034    -0.000023811862
            0.000016723636    -0.000018384241    0.121902514918    0.022691603487    0.000026867034    -0.000023811862    0.141458296096    0.043005793062
0.725     0.135612628834    0.063810371400    0.000007030886    -0.000014788447    0.114218898871    0.040741878078    0.000015191927    -0.000020534125
            0.000007030886    -0.000014788447    0.151758567902    0.035940552206    0.000014269655    -0.000019770177    0.129850396205    0.016680769865
            0.114218898871    0.040741878078    0.000014269655    -0.000019770177    0.135799035658    0.063113445842    0.000025147345    -0.000026901170
            0.000015191927    -0.000020534125    0.129850396205    0.016680769865    0.000025147345    -0.000026901170    0.151653097079    0.034970926822
0.750     0.148520537012    0.055365506287    0.000005491936    -0.000015914147    0.124357291283    0.034845133111    0.000013331462    -0.000022465630
            0.000005491936    -0.000015914147    0.161175018117    0.025628007782    0.000012467858    -0.000021610404    0.137318368548    0.008906744139
            0.124357291283    0.034845133111    0.000012467858    -0.000021610404    0.148546288650    0.054824306361    0.000022990486    -0.000029756896
            0.000013331462    -0.000022465630    0.137318368548    0.008906744139    0.000022990486    -0.000029756896    0.160820698457    0.024857640777
0.775     0.160131763076    0.044364703137    0.000003769899    -0.000016798949    0.133850082386    0.026822505279    0.000011191502    -0.000024117666
            0.000003769899    -0.000016798949    0.169075393470    0.013368980388    0.000010394354    -0.000023180112    0.143913860074    -0.000572803390
            0.133850082386    0.026822505279    0.000010394354    -0.000023180112    0.160041516441    0.044019880039    0.000020449581    -0.000032301350
            0.000011191502    -0.000024117666    0.143913860074    -0.000572803390    0.000020449581    -0.000032301350    0.168526162672    0.012859409525
0.800     0.169929459602    0.031082466938    0.000001918688    -0.000017411012    0.142252886615    0.016795330955    0.000008834859    -0.000025444647
            0.000001918688    -0.000017411012    0.175064542209    -0.000541604881    0.000008109979    -0.000024433781    0.149270767535    -0.011615173223
