# GHz S RI R 45
0.000     0.013328058365    0.001495108709    -0.000000000475    -0.000000057504    0.000662908101    0.001404491495    0.000000014626    -0.000000031140
            -0.000000000475    -0.000000057504    0.012219423400    0.001861957483    -0.000000004935    -0.000000065232    0.000625522419    0.001662521780
            0.000662907433    0.001404491478    -0.000000004935    -0.000000065232    0.013263700280    0.001499218785    0.000000010120    -0.000000038968
            0.000000014626    -0.000000031140    0.000625522628    0.001662521808    0.000000010120    -0.000000038968    0.012149829135    0.001873965064
0.025     0.016845332968    0.010860070586    -0.000000013051    -0.000000134382    0.001873197945    0.009932292880    0.000000015157    -0.000000076652
            -0.000000013051    -0.000000134382    0.015367370360    0.010526979167    -0.000000020388    -0.000000151581    0.001616362609    0.009372185291
            0.001875588808    0.009931947511    -0.000000020388    -0.000000151581    0.016790327776    0.010924717435    0.000000007735    -0.000000094097
            0.000000015157    -0.000000076652    0.001616616512    0.009371611485    0.000000007735    -0.000000094097    0.015298345405    0.010506299828
0.050     0.021587600255    0.018370789709    -0.000000044052    -0.000000253791    0.005358640395    0.019095792312    0.000000005907    -0.000000153990
            -0.000000044052    -0.000000253791    0.019479590360    0.018022204568    -0.000000056883    -0.000000285039    0.004451437574    0.018149569524
            0.005358675047    0.019095799206    -0.000000056883    -0.000000285039    0.021550779174    0.018500975357    -0.000000007023    -0.000000185607
            0.000000005907    -0.000000153990    0.004451532220    0.018149563814    -0.000000007023    -0.000000185607    0.019363397379    0.017989283309
0.075     0.027335171118    0.024257677878    -0.000000083105    -0.000000365330    0.010702270882    0.026977056253    -0.000000008238    -0.000000229325
            -0.000000083105    -0.000000365330    0.024363009855    0.024248340341    -0.000000102799    -0.000000409101    0.008823117938    0.026013192612
            0.010702285603    0.026977059020    -0.000000102799    -0.000000409101    0.027333618412    0.024453572218    -0.000000028127    -0.000000273651
            -0.000000008238    -0.000000229325    0.008823113397    0.026013194152    -0.000000028127    -0.000000273651    0.024190263887    0.024229299868
0.100     0.033863696937    0.028356723575    -0.000000130572    -0.000000470619    0.017450844011    0.033213664829    -0.000000027149    -0.000000302961
            -0.000000130572    -0.000000470619    0.029937616281    0.029158187514    -0.000000158455    -0.000000525744    0.014438917631    0.032715358557
            0.017450843431    0.033213665134    -0.000000158455    -0.000000525744    0.033913608628    0.028609519299    -0.000000055345    -0.000000358814
            -0.000000027149    -0.000000302961    0.014438891867    0.032715366648    -0.000000055345    -0.000000358814    0.029699012081    0.029179672966
0.125     0.040573062324    0.030477789360    -0.000000185478    -0.000000569720    0.025114245050    0.037586745879    -0.000000049819    -0.000000375104
            -0.000000185478    -0.000000569720    0.035786832712    0.032597302195    -0.000000222867    -0.000000635124    0.021004183912    0.038098097004
            0.025114245050    0.037586745879    -0.000000222867    -0.000000635124    0.040680753840    0.030771986979    -0.000000087625    -0.000000441216
            -0.000000049819    -0.000000375104    0.021004183912    0.038098097004    -0.000000087625    -0.000000441216    0.035486503045    0.032697677106
0.150     0.047130734494    0.030808931269    -0.000000246123    -0.000000663014    0.033151440557    0.039951932336    -0.000000075556    -0.000000445871
            -0.000000246123    -0.000000663014    0.041807224349    0.034763180947    -0.000000294142    -0.000000737288    0.028163048311    0.042000896060
            0.033151471407    0.039951918433    -0.000000294142    -0.000000737288    0.047313698723    0.031133924395    -0.000000124155    -0.000000521016
            -0.000000075556    -0.000000445871    0.028163048311    0.042000896060    -0.000000124155    -0.000000521016    0.041448767236    0.034967479069
0.175     0.052970862241    0.029464765221    -0.000000311643    -0.000000751692    0.041014977399    0.040347633378    -0.000000103732    -0.000000516377
            -0.000000311643    -0.000000751692    0.047608689152    0.035655687964    -0.000000371269    -0.000000833481    0.035559165298    0.044401296777
            0.041014994352    0.040347624700    -0.000000371269    -0.000000833481    0.053240142670    0.029801532512    -0.000000164216    -0.000000599229
            -0.000000103732    -0.000000516377    0.035559165298    0.044401296777    -0.000000164216    -0.000000599229    0.047214794320    0.035993991988
0.200     0.057617352093    0.026766646201    -0.000000381411    -0.000000836955    0.048196520650    0.038959965226    -0.000000134024    -0.000000587490
            -0.000000381411    -0.000000836955    0.052862593594    0.035442249499    -0.000000453516    -0.000000924988    0.042851550521    0.045363188498
            0.048196520650    0.038959965226    -0.000000453516    -0.000000924988    0.057977785132    0.027092015154    -0.000000207330    -0.000000676737
            -0.000000134024    -0.000000587490    0.042851550521    0.045363188498    -0.000000207330    -0.000000676737    0.052468687895    0.035938207839
0.225     0.060726749837    0.023156581085    -0.000000455561    -0.000000920453    0.054261414082    0.036097844475    -0.000000166690    -0.000000660852
            -0.000000455561    -0.000000920453    0.057326878949    0.034370394739    -0.000000540948    -0.000001013453    0.049730968728    0.045022543297
            0.054261414082    0.036097844475    -0.000000540948    -0.000001013453    0.061176845244    0.023444989501    -0.000000253666    -0.000000755127
            -0.000000166690    -0.000000660852    0.049730968728    0.045022543297    -0.000000253666    -0.000000755127    0.056976811443    0.035036329162
0.250     0.062100799608    0.019169842412    -0.000000534578    -0.000001003584    0.058879142777    0.032177708501    -0.000000202261    -0.000000737603
            -0.000000534578    -0.000001003584    0.060847676955    0.032754052246    -0.000000633989    -0.000001100291    0.055941018970    0.043589489056
            0.058879142777    0.032177708501    -0.000000633989    -0.000001100291    0.062631715891    0.019395196177    -0.000000303660    -0.000000835570
            -0.000000202261    -0.000000737603    0.055941018970    0.043589489056    -0.000000303660    -0.000000835570    0.060589092553    0.033589029279
0.275     0.061704191148    0.015371939952    -0.000000619953    -0.000001087888    0.061844105986    0.027685966590    -0.000000242110    -0.000000819446
            -0.000000619953    -0.000001087888    0.063369456954    0.030923348868    -0.000000734091    -0.000001186997    0.061291203356    0.041321743541
            0.061844105986    0.027685966590    -0.000000734091    -0.000001186997    0.062299707247    0.015509676341    -0.000000358646    -0.000000919710
            -0.000000242110    -0.000000819446    0.061291203356    0.041321743541    -0.000000358646    -0.000000919710    0.063249959845    0.031912354507
0.300     0.059664907585    0.012329994190    -0.000000713481    -0.000001174251    0.063094266757    0.023153273304    -0.000000287841    -0.000000907298
            -0.000000713481    -0.000001174251    0.064933113151    0.029214816067    -0.000000843026    -0.000001274423    0.065670965081    0.038515169154
            0.063094266757    0.023153273304    -0.000000843026    -0.000001274423    0.060301130993    0.012358898902    -0.000000420184    -0.000001008445
            -0.000000287841    -0.000000907298    0.065670965081    0.038515169154    -0.000000420184    -0.000001008445    0.064996231500    0.030329022549
0.325     0.056269937734    0.010555046598    -0.000000817970    -0.000001263299    0.062715493498    0.019108762841    -0.000000342038    -0.000001002349
            -0.000000817970    -0.000001263299    0.065671565342    0.027929439382    -0.000000963563    -0.000001363087    0.069050124561    0.035473428661
            0.062715493498    0.019108762841    -0.000000963563    -0.000001363087    0.056916142895    0.010459771719    -0.000000490829    -0.000001102841
            -0.000000342038    -0.000001002349    0.069050124561    0.035473428661    -0.000000490829    -0.000001102841    0.065952969639    0.029128129846
0.350     0.051949128841    0.010474366623    -0.000000936297    -0.000001354560    0.060946395300    0.016048985051    -0.000000407421    -0.000001104661
            -0.000000936297    -0.000001354560    0.065799310101    0.027325135522    -0.000001098549    -0.000001452429    0.071485626459    0.032496346854
            0.060946395300    0.016048985051    -0.000001098549    -0.000001452429    0.052568874388    0.010247442902    -0.000000573248    -0.000001202878
            -0.000000407421    -0.000001104661    0.071485626459    0.032496346854    -0.000000573248    -0.000001202878    0.066323743536    0.028557727197
0.375     0.047248803349    0.012381509064    -0.000001072097    -0.000001446870    0.058162199128    0.014387951578    -0.000000487673    -0.000001214155
            -0.000001072097    -0.000001446870    0.065595074330    0.027583335641    -0.000001251546    -0.000001541121    0.073109291658    0.029848615648
            0.058162199128    0.014387951578    -0.000001251546    -0.000001541121    0.047802147563    0.012025468204    -0.000000671053    -0.000001308290
            -0.000000487673    -0.000001214155    0.073109291658    0.029848615648    -0.000000671053    -0.000001308290    0.066373579264    0.028792890417
0.400     0.042798649608    0.016416328411    -0.000001228586    -0.000001537627    0.054857788590    0.014426752098    -0.000000586314    -0.000001329193
            -0.000001228586    -0.000001537627    0.065384399975    0.028806531600    -0.000001425680    -0.000001626401    0.074126633136    0.027750460830
            0.054857788590    0.014426752098    -0.000001425680    -0.000001626401    0.043244672823    0.015944995427    -0.000000787638    -0.000001417312
            -0.000000586314    -0.000001329193    0.074126633136    0.027750460830    -0.000000787638    -0.000001417312    0.066413449996    0.029933635791
0.425     0.039264605254    0.022532158577    -0.000001409209    -0.000001623207    0.051608459900    0.016310379372    -0.000000707550    -0.000001447568
            -0.000001409209    -0.000001623207    0.065513079516    0.030997071467    -0.000001624235    -0.000001704445    0.074793579946    0.026349206149
            0.051608459900    0.016310379372    -0.000001624235    -0.000001704445    0.039564907532    0.021970964156    -0.000000927029    -0.000001527491
            -0.000000707550    -0.000001447568    0.074793579946    0.026349206149    -0.000000927029    -0.000001527491    0.066774130220    0.031984063496
0.450     0.037301104686    0.030492986715    -0.000001616225    -0.000001698424    0.049030005730    0.020012923555    -0.000000854779    -0.000001565130
            -0.000001616225    -0.000001698424    0.066327017486    0.034062507031    -0.000001849272    -0.000001769898    0.075405421159    0.025716146796
            0.049030005730    0.020012923555    -0.000001849272    -0.000001769898    0.037423182437    0.029879205446    -0.000001092384    -0.000001634564
            -0.000000854779    -0.000001565130    0.075405421159    0.025716146796    -0.000001092384    -0.000001634564    0.067787283044    0.034857527511
0.475     0.037490317261    0.039870346674    -0.000001851247    -0.000001757286    0.047719347202    0.025317920069    -0.000001031321    -0.000001677061
            -0.000001851247    -0.000001757286    0.068139373145    0.037808775595    -0.000002102112    -0.000001816591    0.076265185531    0.025827834991
            0.047719347202    0.025317920069    -0.000002102112    -0.000001816591    0.037411127036    0.039251010601    -0.000001286738    -0.000001733548
            -0.000001031321    -0.000001677061    0.076265185531    0.025827834991    -0.000001286738    -0.000001733548    0.069754827574    0.038369503761
0.500     0.040291811392    0.050072108747    -0.000002113395    -0.000001792507    0.048204202610    0.031835350030    -0.000001238343    -0.000001776551
            -0.000002113395    -0.000001792507    0.071211622099    0.041957333470    -0.000002381534    -0.000001837121    0.077668007151    0.026572913889
            0.048204202610    0.031835350030    -0.000002381534    -0.000001837121    0.040001922983    0.049501307418    -0.000001510866    -0.000001817562
            -0.000001238343    -0.000001776551    0.077668007151    0.026572913889    -0.000001510866    -0.000001817562    0.072931456675    0.042251238434
0.525     0.045988458472    0.060374448287    -0.000002400660    -0.000001796361    0.050882323298    0.039019510636    -0.000001476293    -0.000001856126
            -0.000002400660    -0.000001796361    0.075723168083    0.046154257814    -0.000002685148    -0.000001823682    0.079862093580    0.027745462892
            0.050882323298    0.039019510636    -0.000002685148    -0.000001823682    0.045494599211    0.059910915915    -0.000001764858    -0.000001879080
            -0.000001476293    -0.000001856126    0.079862093580    0.027745462892    -0.000001764858    -0.000001879080    0.077489589678    0.046152781380
0.550     0.054658296109    0.069983610349    -0.000002708129    -0.000001761408    0.055987023571    0.046221485984    -0.000001742694    -0.000001907678
            -0.000002708129    -0.000001761408    0.081761521201    0.050000378062    -0.000003007611    -0.000001768863    0.083024474152    0.029074477549
            0.055987023571    0.046221485984    -0.000003007611    -0.000001768863    0.053984607537    0.069686333958    -0.000002045802    -0.000001910084
            -0.000001742694    -0.000001907678    0.083024474152    0.029074477549    -0.000002045802    -0.000001910084    0.083490405757    0.049678660819
0.575     0.066151196138    0.078094268533    -0.000003029343    -0.000001681389    0.063550388408    0.052737662473    -0.000002033704    -0.000001923959
            -0.000003029343    -0.000001681389    0.089301995183    0.053072517771    -0.000003342050    -0.000001666532    0.087245439605    0.030261445651
            0.063550388408    0.052737662473    -0.000003342050    -0.000001666532    0.065338370683    0.078019987038    -0.000002349483    -0.000001903459
            -0.000002033704    -0.000001923959    0.087245439605    0.030261445651    -0.000002349483    -0.000001903459    0.090884227269    0.052451777832
0.600     0.080102382797    0.083961716712    -0.000003355082    -0.000001551514    0.073407655548    0.057878356019    -0.000002342337    -0.000001898062
            -0.000003355082    -0.000001551514    0.098210062297    0.054955277550    -0.000003678817    -0.000001512114    0.092561170817    0.030981075917
            0.073407655548    0.057878356019    -0.000003678817    -0.000001512114    0.079204120612    0.084158846871    -0.000002668496    -0.000001852539
            -0.000002342337    -0.000001898062    0.092561170817    0.030981075917    -0.000002668496    -0.000001852539    0.099569240932    0.054099566925
0.625     0.095950788803    0.086958210513    -0.000003675361    -0.000001369444    0.085200877839    0.061018224494    -0.000002660357    -0.000001825168
            -0.000003675361    -0.000001369444    0.108236199244    0.055268917395    -0.000004007518    -0.000001303543    0.098897573245    0.030878999540
            0.085200879969    0.061018221520    -0.000004007518    -0.000001303542    0.095031557538    0.087461142245    -0.000002994259    -0.000001752788
            -0.000002660357    -0.000001825168    0.098897573245    0.030878999540    -0.000002994259    -0.000001752788    0.109328557859    0.054244791771
0.650     0.112992382055    0.086623774429    -0.000003978790    -0.000001135604    0.098423596889    0.061652572280    -0.000002977320    -0.000001702699
            -0.000003978790    -0.000001135604    0.119041626344    0.053699155857    -0.000004316457    -0.000001041685    0.106083497985    0.029632048153
            0.098423596889    0.061652572280    -0.000004316457    -0.000001041685    0.112123921965    0.087449297690    -0.000003315982    -0.000001602055
            -0.000002977320    -0.000001702699    0.106083497985    0.029632048153    -0.000003315982    -0.000001602055    0.119838779141    0.052575461383
0.675     0.130425300070    0.082692734756    -0.000004254893    -0.000000853364    0.112451418003    0.059424383425    -0.000003283081    -0.000001531064
            -0.000004254893    -0.000000853364    0.130209144865    0.050018471261    -0.000004594870    -0.000000730334    0.113857393742    0.026969202294
            0.112451418003    0.059424383425    -0.000004594870    -0.000000730334    0.129683747438    0.083838022624    -0.000003623329    -0.000001401164
            -0.000003283081    -0.000001531064    0.113857393742    0.026969202294    -0.000003623329    -0.000001401164    0.130696931555    0.048869212548
0.700     0.147417251438    0.075106939742    -0.000004493563    -0.000000528958    0.126604219640    0.054148510618    -0.000003567020    -0.000001313392
            -0.000004493563    -0.000000528958    0.141277271881    0.044103114304    -0.000004832508    -0.000000376259    0.121902514918    0.022691603487
            0.126604219640    0.054148510618    -0.000004832508    -0.000000376259    0.146879240888    0.076549581956    -0.000003905516    -0.000001153779
            -0.000003567020    -0.000001313392    0.121902514918    0.022691603487    -0.000003905516    -0.000001153779    0.141458296096    0.043005793062
0.725     0.163151305908    0.064008472429    -0.000004687247    -0.000000170846    0.140178761541    0.045807535607    -0.000003820571    -0.000001055446
            -0.000004687247    -0.000000170846    0.151758567902    0.035940552206    -0.000005021787    0.000000011598    0.129850396205    0.016680769865
            0.140178761541    0.045807535607    -0.000005021787    0.000000011598    0.162889639628    0.065707197298    -0.000004153956    -0.000000866107
            -0.000003820571    -0.000001055446    0.129850396205    0.016680769865    -0.000004153956    -0.000000866107    0.151653097079    0.034970926822
0.750     0.176882335273    0.049718342825    -0.000004830156    0.000000210626    0.152503332720    0.034546396472    -0.000004036181    -0.000000765113
            -0.000004830156    0.000000210626    0.161175018117    0.025628007782    -0.000005156957    0.000000422346    0.137318368548    0.008906744139
            0.152503332720    0.034546396472    -0.000005156957    0.000000422346    0.176959870806    0.051615800039    -0.000004361151    -0.000000546592
            -0.000004036181    -0.000000765113    0.137318368548    0.008906744139    -0.000004361151    -0.000000546592    0.160820698457    0.024857640777
0.775     0.187962480970    0.032710427820    -0.000004919922    0.000000604414    0.162957122345    0.020649441559    -0.000004209498    -0.000000451625
            -0.000004919922    0.000000604414    0.169075393470    0.013368980388    -0.000005235795    0.000000844466    0.143913860074    -0.000572803390
            0.162957122345    0.020649441559    -0.000005235795    0.000000844466    0.188430422307    0.034733907208    -0.000004522897    -0.000000204899
