# GHz S RI R 45
0.000     0.011929642134    0.001432919903    -0.000008624317    -0.000021725486    0.000563619560    0.001235939453    -0.000008680689    -0.000022912529
            -0.000008624298    -0.000021725484    0.012219423400    0.001861957483    -0.000007942002    -0.000019427718    0.000625522419    0.001662521780
            0.000563619560    0.001235939453    -0.000007942006    -0.000019427719    0.011745396557    0.001428182987    -0.000008953352    -0.000022277600
            -0.000008680762    -0.000022912528    0.000625522628    0.001662521808    -0.000008953312    -0.000022277601    0.012149829135    0.001873965064
0.025     0.015546133016    0.009420392715    -0.000020506822    -0.000051843115    0.001827477370    0.008313218389    -0.000020678272    -0.000053145611
            -0.000020506820    -0.000051843110    0.015367370360    0.010526979167    -0.000018803143    -0.000047959317    0.001616362609    0.009372185291
            0.001827220978    0.008313488531    -0.000018803175    -0.000047959373    0.015477535767    0.009365671545    -0.000021137145    -0.000053471141
            -0.000020678282    -0.000053145608    0.001616616512    0.009371611485    -0.000021137139    -0.000053471127    0.015298345405    0.010506299828
0.050     0.020827954358    0.015610231828    -0.000046056127    -0.000091999150    0.005473047067    0.015830519300    -0.000046761937    -0.000094494402
            -0.000046056122    -0.000091999141    0.019479590360    0.018022204568    -0.000042447702    -0.000085331966    0.004451437574    0.018149569524
            0.005473034910    0.015830523503    -0.000042447703    -0.000085331968    0.020741256209    0.015524603170    -0.000047317518    -0.000094963024
            -0.000046761937    -0.000094494402    0.004451532220    0.018149563814    -0.000047317551    -0.000094963131    0.019363397379    0.017989283309
0.075     0.027581699698    0.019931632737    -0.000080359882    -0.000123498266    0.011100025031    0.021967784420    -0.000081879469    -0.000127043008
            -0.000080359882    -0.000123498266    0.024363009855    0.024248340341    -0.000074351562    -0.000114614432    0.008823117938    0.026013192612
            0.011100017476    0.021967783756    -0.000074351562    -0.000114614432    0.027474879590    0.019821914185    -0.000082458503    -0.000127663366
            -0.000081879469    -0.000127043008    0.008823113397    0.026013194152    -0.000082458503    -0.000127663366    0.024190263887    0.024229299868
0.100     0.035534794689    0.022058007770    -0.000122000140    -0.000145680559    0.018259126957    0.026293572203    -0.000124609052    -0.000150099044
            -0.000122000140    -0.000145680559    0.029937616281    0.029158187514    -0.000113106539    -0.000135164662    0.014438917631    0.032715358557
            0.018259126957    0.026293572203    -0.000113106539    -0.000135164662    0.035409110862    0.021936083721    -0.000125182438    -0.000150928116
            -0.000124609052    -0.000150099044    0.014438891867    0.032715366648    -0.000125182444    -0.000150928124    0.029699012081    0.029179672966
0.125     0.044053964471    0.021596761322    -0.000168942658    -0.000157441552    0.026433093846    0.028499926351    -0.000172884089    -0.000162499449
            -0.000168942658    -0.000157441552    0.035786832712    0.032597302195    -0.000156793753    -0.000145994177    0.021004183912    0.038098097004
            0.026433093531    0.028499928007    -0.000156793753    -0.000145994177    0.043914224834    0.021484370679    -0.000173471408    -0.000163611462
            -0.000172884089    -0.000162499449    0.021004183912    0.038098097004    -0.000173471400    -0.000163611455    0.035486503045    0.032697677106
0.150     0.052593615656    0.018606757388    -0.000218900258    -0.000158381390    0.035058182186    0.028352245101    -0.000224386647    -0.000163790281
            -0.000218900258    -0.000158381390    0.041807224349    0.034763180947    -0.000203251605    -0.000146682400    0.028163048311    0.042000896060
            0.035058182257    0.028352248195    -0.000203251605    -0.000146682400    0.052454305122    0.018511384854    -0.000225055333    -0.000165263887
            -0.000224386647    -0.000163790281    0.028163048311    0.042000896060    -0.000225055333    -0.000165263887    0.041448767236    0.034967479069
0.175     0.060452185209    0.013044087117    -0.000269737878    -0.000148441975    0.043519104421    0.025784825713    -0.000276922507    -0.000153870859
            -0.000269737887    -0.000148441980    0.047608689152    0.035655687964    -0.000250457594    -0.000137210116    0.035559165298    0.044401296777
            0.043519098901    0.025784840914    -0.000250457594    -0.000137210116    0.060332758588    0.012971509858    -0.000277782210    -0.000155751087
            -0.000276922507    -0.000153870859    0.035559165298    0.044401296777    -0.000277782210    -0.000155751087    0.047214794320    0.035993991988
0.200     0.066949111623    0.005086809228    -0.000319545330    -0.000128039638    0.051209444834    0.020881139323    -0.000328524043    -0.000133112861
            -0.000319545330    -0.000128039638    0.052862593594    0.035442249499    -0.000296624624    -0.000117981549    0.042851550521    0.045363188498
            0.051209444834    0.020881139323    -0.000296624624    -0.000117981549    0.066872359989    0.005038242671    -0.000329705844    -0.000135406047
            -0.000328524043    -0.000133112861    0.042851550521    0.045363188498    -0.000329705844    -0.000135406047    0.052468687895    0.035938207839
0.225     0.071460113255    -0.004918252297    -0.000366674105    -0.000097744617    0.057555358851    0.013860667784    -0.000377466828    -0.000102059790
            -0.000366674105    -0.000097744617    0.057326878949    0.034370394739    -0.000340208428    -0.000089560515    0.049730968728    0.045022543297
            0.057555358851    0.013860667784    -0.000340208428    -0.000089560515    0.071451041202    -0.004948545318    -0.000379102960    -0.000104737489
            -0.000377466828    -0.000102059790    0.049730968728    0.045022543297    -0.000379102960    -0.000104737489    0.056976811443    0.035036329162
0.250     0.073468650559    -0.016467946368    -0.000409769642    -0.000058319294    0.062048770701    0.005069978388    -0.000422318153    -0.000061455547
            -0.000409769642    -0.000058319294    0.060847676955    0.032754052246    -0.000379951561    -0.000052678635    0.055941018970    0.043589489056
            0.062048770701    0.005069978388    -0.000379951561    -0.000052678635    0.073552350794    -0.016493257538    -0.000424534464    -0.000064435600
            -0.000422318153    -0.000061455547    0.055941018970    0.043589489056    -0.000424534464    -0.000064435600    0.060589092553    0.033589029279
0.275     0.072580683496    -0.028947362114    -0.000447663986    -0.000010498347    0.064265628570    -0.005033365519    -0.000461820561    -0.000012037704
            -0.000447663986    -0.000010498347    0.063369456954    0.030923348868    -0.000414771181    -0.000008055043    0.061291203356    0.041321743541
            0.064265628570    -0.005033365519    -0.000414771181    -0.000008055043    0.072780309748    -0.028988984108    -0.000464715398    -0.000015220352
            -0.000461820561    -0.000012037704    0.061291203356    0.041321743541    -0.000464715398    -0.000015220352    0.063249959845    0.031912354507
0.300     0.068560905109    -0.041655863444    -0.000479371324    0.000044951907    0.063894774509    -0.015902213101    -0.000494896248    0.000045410817
            -0.000479371324    0.000044951907    0.064933113151    0.029214816067    -0.000443764701    0.000043583295    0.065670965081    0.038515169154
            0.063894774509    -0.015902213101    -0.000443764701    0.000043583295    0.068895582549    -0.041743418805    -0.000498537792    0.000042166235
            -0.000494896248    0.000045410817    0.065670965081    0.038515169154    -0.000498537782    0.000042166234    0.064996231500    0.030329022549
0.325     0.061333191887    -0.053845157730    -0.000503920159    0.000107349919    0.060749828298    -0.026921406122    -0.000520484857    0.000110167890
            -0.000503920159    0.000107349919    0.065671565342    0.027929439382    -0.000466047706    0.000101586544    0.069050124561    0.035473428661
            0.060749828298    -0.026921406122    -0.000466047706    0.000101586544    0.061815293573    -0.054014920532    -0.000524902191    0.000106994831
            -0.000520484857    0.000110167890    0.069050124561    0.035473428661    -0.000524902191    0.000106994831    0.065952969639    0.029128129846
0.350     0.051000916752    -0.064757409125    -0.000520358444    0.000176015114    0.054788292113    -0.037439503161    -0.000537554557    0.000181482680
            -0.000520358444    0.000176015114    0.065799310101    0.027325135522    -0.000480754557    0.000165296835    0.071485626459    0.032496346854
            0.054788292113    -0.037439503161    -0.000480754557    0.000165296835    0.051634055986    -0.065051622655    -0.000542742014    0.000178517029
            -0.000537554557    0.000181482680    0.071485626459    0.032496346854    -0.000542742014    0.000178517029    0.066323743536    0.028557727197
0.375     0.037837270645    -0.073659876643    -0.000527603049    0.000250195592    0.046115635241    -0.046794521959    -0.000544948065    0.000258539411
            -0.000527603049    0.000250195592    0.065595074330    0.027583335641    -0.000486902312    0.000234008396    0.073109291658    0.029848615648
            0.046115635241    -0.046794521959    -0.000486902312    0.000234008396    0.038614645555    -0.074123940511    -0.000550879444    0.000255881884
            -0.000544948065    0.000258539411    0.073109291658    0.029848615648    -0.000550879444    0.000255881884    0.066373579264    0.028792890417
0.400     0.022286356298    -0.079889482477    -0.000524508089    0.000329000088    0.034990528937    -0.054355081109    -0.000541470267    0.000340340410
            -0.000524508089    0.000329000088    0.065384399975    0.028806531600    -0.000483443232    0.000306901361    0.074126633136    0.027750460830
            0.034990528937    -0.054355081109    -0.000483443232    0.000306901361    0.023189033555    -0.080569894431    -0.000548098663    0.000338085671
            -0.000541470267    0.000340340410    0.074126633136    0.027750460830    -0.000548098663    0.000338085671    0.066413449996    0.029933635791
0.425     0.004942776325    -0.082883984869    -0.000509786959    0.000411278795    0.021817162251    -0.059546870639    -0.000525804645    0.000425627925
            -0.000509786959    0.000411278795    0.065513079516    0.030997071467    -0.000469214018    0.000382886618    0.074793579946    0.026349206149
            0.021817162251    -0.059546870639    -0.000469214018    0.000382886618    0.005938905163    -0.083824764446    -0.000533085377    0.000423842820
            -0.000525804645    0.000425627925    0.074793579946    0.026349206149    -0.000533085377    0.000423842820    0.066774130220    0.031984063496
0.450     -0.013470310372    -0.082224231812    -0.000482192861    0.000495513138    0.007131985525    -0.061895835173    -0.000496708318    0.000512757482
            -0.000482192861    0.000495513138    0.066327017486    0.034062507031    -0.000443072103    0.000460571249    0.075405421159    0.025716146796
            0.007131985525    -0.061895835173    -0.000443072103    0.000460571249    -0.012425749995    -0.083463574179    -0.000504609752    0.000511486480
            -0.000496708318    0.000512757482    0.075405421159    0.025716146796    -0.000504609752    0.000511486480    0.067787283044    0.034857527511
0.475     -0.032134361015    -0.077656905090    -0.000440562647    0.000579716341    -0.008417971401    -0.061051156136    -0.000453025783    0.000599645458
            -0.000440562647    0.000579716341    0.068139373145    0.037808775595    -0.000403950550    0.000538120173    0.076265185531    0.025827834991
            -0.008417971401    -0.061051156136    -0.000403950550    0.000538120173    -0.031098095151    -0.079224015119    -0.000461536202    0.000598941053
            -0.000453025783    0.000599645458    0.076265185531    0.025827834991    -0.000461536202    0.000598941053    0.069754827574    0.038369503761
0.500     -0.050177179751    -0.069121803531    -0.000384056982    0.000661471762    -0.024110381905    -0.056820103228    -0.000393957682    0.000683760942
            -0.000384056982    0.000661471762    0.071211622099    0.041957333470    -0.000351083561    0.000613305907    0.077668007151    0.026572913889
            -0.024110381905    -0.056820103228    -0.000351083561    0.000613305907    -0.049217339328    -0.071034883161    -0.000403110790    0.000683677101
            -0.000393957682    0.000683760942    0.077668007151    0.026572913889    -0.000403110790    0.000683677101    0.072931456675    0.042251238434
0.525     -0.066718185615    -0.056757777228    -0.000312256031    0.000737903242    -0.039180941950    -0.049176420813    -0.000319182588    0.000762100070
            -0.000312256031    0.000737903242    0.075723168083    0.046154257814    -0.000284142158    0.000683452116    0.079862093580    0.027745462892
            -0.039180941950    -0.049176420813    -0.000284142158    0.000683452116    -0.065910513902    -0.059023061564    -0.000329034594    0.000762750348
            -0.000319182588    0.000762100070    0.079862093580    0.027745462892    -0.000329034594    0.000762750348    0.077489589678    0.046152781380
0.550     -0.080924817451    -0.040906275923    -0.000225432313    0.000805874094    -0.052875917223    -0.038275640068    -0.000229067210    0.000831457184
            -0.000225432313    0.000805874094    0.081761521201    0.050000378062    -0.000203386183    0.000745680569    0.083024474152    0.029074477549
            -0.052875917223    -0.038275640068    -0.000203386183    0.000745680569    -0.080346564203    -0.043517049791    -0.000239709537    0.000833001018
            -0.000229067210    0.000831457184    0.083024474152    0.029074477549    -0.000239709537    0.000833001018    0.083490405757    0.049678660819
0.575     -0.092058180565    -0.022097441284    -0.000124612769    0.000862154625    -0.064489234943    -0.024444292942    -0.000124788274    0.000888593596
            -0.000124612769    0.000862154625    0.089301995183    0.053072517771    -0.000109813048    0.000796992644    0.087245439605    0.030261445651
            -0.064489234943    -0.024444292942    -0.000109813048    0.000796992644    -0.091780811560    -0.025031941541    -0.000136305269    0.000891234344
            -0.000124788274    0.000888593596    0.087245439605    0.030261445651    -0.000136305269    0.000891234344    0.090884227269    0.052451777832
0.600     -0.099520708900    -0.001026825360    -0.000011633999    0.000903719888    -0.073414287023    -0.008169788090    -0.000008227531    0.000930496626
            -0.000011633999    0.000903719888    0.098210062297    0.054955277550    -0.000005148898    0.000834577367    0.092561170817    0.030981075917
            -0.073414287023    -0.008169788090    -0.000005148898    0.000834577367    -0.099605037091    -0.004243861944    -0.000020711698    0.000934464259
            -0.000008227531    0.000930496626    0.092561170817    0.030981075917    -0.000020711698    0.000934464259    0.099569240932    0.054099566925
0.625     -0.102882199656    0.021483541649    0.000110833548    0.000927846376    -0.079166685619    0.009932146474    0.000117848250    0.000954423395
            0.000110833548    0.000927846376    0.108236199244    0.055268917395    0.000108114113    0.000855928460    0.098897573245    0.030878999540
            -0.079166685619    0.009932146474    0.000108114113    0.000855928460    -0.103379205991    0.018046334081    0.000104407773    0.000960015265
            0.000117848250    0.000954423395    0.098897573245    0.030878999540    0.000104407773    0.000960015265    0.109328557859    0.054244791771
0.650     -0.101909019787    0.044538440476    0.000239435445    0.000932478679    -0.081420454298    0.029154843519    0.000249990336    0.000958330253
            0.000239435445    0.000932478679    0.119041626344    0.053699155857    0.000226893327    0.000859189077    0.106083497985    0.029632048153
            -0.081420454298    0.029154843519    0.000226893330    0.000859189087    -0.102858953675    0.040958961366    0.000235707845    0.000965901623
            0.000249990336    0.000958330253    0.106083497985    0.029632048153    0.000235707845    0.000965901623    0.119838779141    0.052575461383
0.675     -0.096572150062    0.067218127607    0.000370329468    0.000916330661    -0.080012610780    0.048742585356    0.000384288431    0.000940958527
            0.000370329468    0.000916330661    0.130209144865    0.050018471261    0.000347596544    0.000843228163    0.113857393742    0.026969202294
            -0.080012610780    0.048742585356    0.000347596544    0.000843228163    -0.098002444739    0.063584284667    0.000369407842    0.000950912019
            0.000384288431    0.000940958527    0.113857393742    0.026969202294    0.000369407842    0.000950912019    0.130696931555    0.048869212548
0.700     -0.087047466704    0.088632455567    0.000499475902    0.000879086366    -0.074955968697    0.067937535949    0.000516614606    0.000902043853
            0.000499475902    0.000879086366    0.141277271881    0.044103114304    0.000466510923    0.000807807241    0.121902514918    0.022691603487
            -0.074955968697    0.067937535949    0.000466510923    0.000807807241    -0.088969203617    0.085036089138    0.000501501558    0.000914790985
            0.000516614606    0.000902043853    0.121902514918    0.022691603487    0.000501501558    0.000914790985    0.141458296096    0.043005793062
0.725     -0.073697099937    0.107961253859    0.000622848291    0.000821340486    -0.066419817784    0.086013222107    0.000642896798    0.000842245061
            0.000622848291    0.000821340486    0.151758567902    0.035940552206    0.000579900239    0.000753536369    0.129850396205    0.016680769865
            -0.066419817784    0.086013222107    0.000579900239    0.000753536369    -0.076102995710    0.104494945470    0.000628049674    0.000858133409
            0.000642896798    0.000842245061    0.129850396205    0.016680769865    0.000628049674    0.000858133409    0.151653097079    0.034970926822
0.750     -0.057042814110    0.124497977360    0.000736770156    0.000744585771    -0.054720256790    0.102316533178    0.000759431559    0.000763092643
            0.000736770156    0.000744585771    0.161175018117    0.025628007782    0.000684399472    0.000681839121    0.137318368548    0.008906744139
            -0.054720256790    0.102316533178    0.000684399472    0.000681839121    -0.059906867412    0.121249946688    0.000745462117    0.000782423001
            0.000759431559    0.000763092643    0.137318368548    0.008906744139    0.000745462117    0.000782423001    0.160820698457    0.024857640777
0.775     -0.037731443770    0.137672720196    0.000838008932    0.000651051298    -0.040288085368    0.116283805724    0.000862931243    0.000666891512
            0.000838008932    0.000651051298    0.169075393470    0.013368980388    0.000777053227    0.000594799571    0.143913860074    -0.000572803390
            -0.040288085368    0.116283805724    0.000777053227    0.000594799571    -0.041010123935    0.134724192355    0.000850591313    0.000689792876
            0.000862931243    0.000666891512    0.143913860074    -0.000572803390    0.000850591313    0.000689792876    0.168526162672    0.012859409525
