# GHz S RI R 45
0.000     0.011886697895    0.001759375882    -0.000014946033    -0.000039529406    0.000601744599    0.001483678322    -0.000011546966    -0.000029680873
            -0.000014946072    -0.000039529407    0.012219423400    0.001861957483    -0.000021053178    -0.000055057584    0.000625522419    0.001662521780
            0.000601745270    0.001483678266    -0.000021053233    -0.000055057581    0.011798259451    0.001774118502    -0.000015218970    -0.000039948577
            -0.000011546966    -0.000029680873    0.000625522628    0.001662521808    -0.000015218860    -0.000039948580    0.012149829135    0.001873965064
0.025     0.015571147713    0.009700110452    -0.000034587738    -0.000087617371    0.001948105780    0.008553524760    -0.000026801021    -0.000066532794
            -0.000034587745    -0.000087617388    0.015367370360    0.010526979167    -0.000048188045    -0.000121719660    0.001616362609    0.009372185291
            0.001945809051    0.008551779005    -0.000048188063    -0.000121719706    0.015495691181    0.009699042367    -0.000035172478    -0.000088498534
            -0.000026801599    -0.000066532687    0.001616616512    0.009371611485    -0.000035172512    -0.000088498619    0.015298345405    0.010506299828
0.050     0.021051003209    0.016049517108    -0.000077298530    -0.000155844504    0.005767968769    0.016264841765    -0.000059756959    -0.000117988268
            -0.000077298530    -0.000155844504    0.019479590360    0.018022204568    -0.000106768578    -0.000216388425    0.004451437574    0.018149569524
            0.005767949511    0.016264831618    -0.000106768578    -0.000216388425    0.020996562692    0.016065344034    -0.000078572853    -0.000157170950
            -0.000059756959    -0.000117988268    0.004451532220    0.018149563814    -0.000078573268    -0.000157171849    0.019363397379    0.017989283309
0.075     0.028089982283    0.020484387453    -0.000134927952    -0.000209717264    0.011679818398    0.022539693742    -0.000104155808    -0.000158145553
            -0.000134927916    -0.000209717288    0.024363009855    0.024248340341    -0.000185314988    -0.000291602300    0.008823117938    0.026013192612
            0.011679810656    0.022539693248    -0.000185314993    -0.000291602309    0.028057295622    0.020513873325    -0.000136956933    -0.000211039737
            -0.000104155808    -0.000158145553    0.008823113397    0.026013194152    -0.000136956933    -0.000211039737    0.024190263887    0.024229299868
0.100     0.036408753236    0.022653656792    -0.000205122698    -0.000248148035    0.019213636840    0.026930045662    -0.000157981184    -0.000186086816
            -0.000205122698    -0.000248148035    0.029937616281    0.029158187514    -0.000280909154    -0.000346194959    0.014438917631    0.032715358557
            0.019213636951    0.026930046811    -0.000280909154    -0.000346194959    0.036410777774    0.022696238844    -0.000207764772    -0.000249022247
            -0.000157981184    -0.000186086816    0.014438891867    0.032715366648    -0.000207764778    -0.000249022254    0.029699012081    0.029179672966
0.125     0.045341124693    0.022155316808    -0.000284607546    -0.000269195686    0.027839310694    0.029106721080    -0.000218505367    -0.000200395515
            -0.000284607607    -0.000269195650    0.035786832712    0.032597302195    -0.000389316378    -0.000377603617    0.021004183912    0.038098097004
            0.027839310694    0.029106721080    -0.000389316378    -0.000377603617    0.045390292035    0.022220619907    -0.000287490606    -0.000269263017
            -0.000218505367    -0.000200395515    0.021004183912    0.038098097004    -0.000287490606    -0.000269263017    0.035486503045    0.032697677106
0.150     0.054374831264    0.019015783936    -0.000369660852    -0.000272000982    0.036971084091    0.028820841699    -0.000282695070    -0.000200557386
            -0.000369660852    -0.000272000982    0.041807224349    0.034763180947    -0.000505714620    -0.000384674285    0.028163048311    0.042000896060
            0.036971084091    0.028820841699    -0.000505714620    -0.000384674285    0.054492267775    0.019090470851    -0.000372219197    -0.000271102541
            -0.000282695070    -0.000200557386    0.028163048311    0.042000896060    -0.000372219197    -0.000271102541    0.041448767236    0.034967479069
0.175     0.062755611262    0.013176381906    -0.000456673987    -0.000256273489    0.045976074872    0.025994518136    -0.000347684200    -0.000186578308
            -0.000456673987    -0.000256273489    0.047608689152    0.035655687964    -0.000625385689    -0.000366959731    0.035559165298    0.044401296777
            0.045976074872    0.025994518136    -0.000625385689    -0.000366959731    0.062960884886    0.013247900067    -0.000458245208    -0.000254534264
            -0.000347684200    -0.000186578308    0.035559165298    0.044401296777    -0.000458245208    -0.000254534264    0.047214794320    0.035993991988
0.200     0.069779375101    0.004819036415    -0.000542370315    -0.000222517036    0.054226933514    0.020700395650    -0.000410951738    -0.000159109269
            -0.000542370315    -0.000222517036    0.052862593594    0.035442249499    -0.000744049445    -0.000325032105    0.042851550521    0.045363188498
            0.054226933514    0.020700395650    -0.000744049445    -0.000325032105    0.070090949654    0.004871088246    -0.000542321455    -0.000220390894
            -0.000410951738    -0.000159109269    0.042851550521    0.045363188498    -0.000542321455    -0.000220390894    0.052468687895    0.035938207839
0.225     0.074804735739    -0.005712400427    -0.000623820971    -0.000171537519    0.061125239465    0.013150301013    -0.000470347546    -0.000118999630
            -0.000623820971    -0.000171537519    0.057326878949    0.034370394739    -0.000857861633    -0.000259871779    0.049730968728    0.045022543297
            0.061125239465    0.013150301013    -0.000857861633    -0.000259871779    0.075239505823    -0.005702191426    -0.000621679609    -0.000169784035
            -0.000470347546    -0.000118999630    0.049730968728    0.045022543297    -0.000621679609    -0.000169784035    0.056976811443    0.035036329162
0.250     0.077296584425    -0.017920255791    -0.000698540496    -0.000104495048    0.066137927581    0.003687436484    -0.000524141455    -0.000067363516
            -0.000698540496    -0.000104495048    0.060847676955    0.032754052246    -0.000963579569    -0.000172904510    0.055941018970    0.043589489056
            0.066137927581    0.003687436484    -0.000963579569    -0.000172904510    0.077867466489    -0.017979789436    -0.000694131850    -0.000104159844
            -0.000524141455    -0.000067363516    0.055941018970    0.043589489056    -0.000694131850    -0.000104159844    0.060589092553    0.033589029279
0.275     0.076837281710    -0.031193217613    -0.000764299155    -0.000022624056    0.068814167274    -0.007230469834    -0.000570872807    -0.000005277476
            -0.000764299155    -0.000022624056    0.063369456954    0.030923348868    -0.001058294087    -0.000065601679    0.061291203356    0.041321743541
            0.068814167274    -0.007230469834    -0.001058294087    -0.000065601679    0.077552013520    -0.031355909628    -0.000757861020    -0.000024881967
            -0.000570872807    -0.000005277476    0.061291203356    0.041321743541    -0.000757861020    -0.000024881967    0.063249959845    0.031912354507
0.300     0.073165554102    -0.044830195466    -0.000819174938    0.000072751744    0.068816427176    -0.019052276180    -0.000609359862    0.000066173130
            -0.000819174938    0.000072751744    0.064933113151    0.029214816067    -0.001139482906    0.000060421158    0.065670965081    0.038515169154
            0.068816427176    -0.019052276180    -0.001139482906    0.000060421158    0.074024715955    -0.045134088513    -0.000811429591    0.000066704812
            -0.000609359862    0.000066173130    0.065670965081    0.038515169154    -0.000811429591    0.000066704812    0.064996231500    0.030329022549
0.325     0.066177043978    -0.058077116159    -0.000861283201    0.000180271741    0.065930830934    -0.031154825468    -0.000638454700    0.000146028753
            -0.000861283201    0.000180271741    0.065671565342    0.027929439382    -0.001204678859    0.000203596357    0.069050124561    0.035473428661
            0.065930830934    -0.031154825468    -0.001204678859    0.000203596357    0.067172452875    -0.058563158351    -0.000853453520    0.000169451854
            -0.000638454700    0.000146028753    0.069050124561    0.035473428661    -0.000853453520    0.000169451854    0.065952969639    0.029128129846
0.350     0.055947318672    -0.070166233207    -0.000888849702    0.000298516104    0.060087802591    -0.042875287928    -0.000657063937    0.000233350905
            -0.000888849702    0.000298516104    0.065799310101    0.027325135522    -0.001251499348    0.000362302907    0.071485626459    0.032496346854
            0.060087802591    -0.042875287928    -0.001251499348    0.000362302907    0.057060705173    -0.070876354733    -0.000882610277    0.000282303488
            -0.000657063937    0.000233350905    0.071485626459    0.032496346854    -0.000882610277    0.000282303488    0.066323743536    0.028557727197
0.375     0.042721142256    -0.080349127341    -0.000899970299    0.000425891272    0.051364946603    -0.053535068618    -0.000663932274    0.000327136601
            -0.000899970299    0.000425891272    0.065595074330    0.027583335641    -0.001277352704    0.000534720132    0.073109291658    0.029848615648
            0.051364946603    -0.053535068618    -0.001277352704    0.000534720132    0.043923277848    -0.081323875379    -0.000897330952    0.000404207005
            -0.000663932274    0.000327136601    0.073109291658    0.029848615648    -0.000897330952    0.000404207005    0.066373579264    0.028792890417
0.400     0.026914919674    -0.087941963614    -0.000892782375    0.000560511104    0.039994363941    -0.062481494748    -0.000657722600    0.000426280573
            -0.000892782375    0.000560511104    0.065384399975    0.028806531600    -0.001279618709    0.000718717109    0.074126633136    0.027750460830
            0.039994363941    -0.062481494748    -0.001279618709    0.000718717109    0.028165647431    -0.089217360843    -0.000895890279    0.000533982983
            -0.000657722600    0.000426280573    0.074126633136    0.027750460830    -0.000895890279    0.000533982983    0.066413449996    0.029933635791
0.425     0.009096547995    -0.092355331543    -0.000865337379    0.000700037730    0.026353965956    -0.069112037518    -0.000636936995    0.000529299127
            -0.000865337379    0.000700037730    0.065513079516    0.030997071467    -0.001255469200    0.000911571374    0.074793579946    0.026349206149
            0.026353965956    -0.069112037518    -0.001255469200    0.000911571374    0.010344458204    -0.093960097877    -0.000876234314    0.000670082702
            -0.000636936995    0.000529299127    0.074793579946    0.026349206149    -0.000876234314    0.000670082702    0.066774130220    0.031984063496
0.450     -0.010034869575    -0.093135912580    -0.000815889325    0.000841660534    0.010957144008    -0.072918754182    -0.000600101813    0.000634326585
            -0.000815889325    0.000841660534    0.066327017486    0.034062507031    -0.001202201093    0.001109916075    0.075405421159    0.025716146796
            0.010957144008    -0.072918754182    -0.001202201093    0.001109916075    -0.008850918368    -0.095088719836    -0.000836283796    0.000810407736
            -0.000600101813    0.000634326585    0.075405421159    0.025716146796    -0.000836283796    0.000810407736    0.067787283044    0.034857527511
0.475     -0.029680420320    -0.089988110989    -0.000742928729    0.000981860461    -0.005568399752    -0.073507952037    -0.000545828040    0.000738896576
            -0.000742928729    0.000981860461    0.068139373145    0.037808775595    -0.001117294336    0.001309440911    0.076265185531    0.025827834991
            -0.005568399752    -0.073507952037    -0.001117294336    0.001309440911    -0.028630028584    -0.092294930553    -0.000773881557    0.000952146953
            -0.000545828040    0.000738896576    0.076265185531    0.025827834991    -0.000773881557    0.000952146953    0.069754827574    0.038369503761
0.500     -0.048981377734    -0.082802040921    -0.000645560658    0.001116560928    -0.022512326794    -0.070637819193    -0.000473101530    0.000840019274
            -0.000645560658    0.001116560928    0.071211622099    0.041957333470    -0.000998898874    0.001505038332    0.077668007151    0.026572913889
            -0.022512326794    -0.070637819193    -0.000998898874    0.001505038332    -0.048139838176    -0.085455162973    -0.000687261274    0.001091696312
            -0.000473101530    0.000840019274    0.077668007151    0.026572913889    -0.000687261274    0.001091696312    0.072931456675    0.042251238434
0.525     -0.067061054169    -0.071659420236    -0.000523646781    0.001241106480    -0.039113396473    -0.064225142565    -0.000381481466    0.000934107125
            -0.000523646781    0.001241106480    0.075723168083    0.046154257814    -0.000846055936    0.001690644453    0.079862093580    0.027745462892
            -0.039113396473    -0.064225142565    -0.000846055936    0.001690644453    -0.066505511804    -0.074637724170    -0.000575272293    0.001224600631
            -0.000381481466    0.000934107125    0.079862093580    0.027745462892    -0.000575272293    0.001224600631    0.077489589678    0.046152781380
0.550     -0.083078222097    -0.056840152762    -0.000378047078    0.001350638095    -0.054608617770    -0.054364977820    -0.000271365358    0.001017255471
            -0.000378047078    0.001350638095    0.081761521201    0.050000378062    -0.000659074744    0.001859730542    0.083024474152    0.029074477549
            -0.054608617770    -0.054364977820    -0.000659074744    0.001859730542    -0.082881333910    -0.060109445355    -0.000437811427    0.001345783256
            -0.000271365358    0.001017255471    0.083024474152    0.029074477549    -0.000437811427    0.001345783256    0.083490405757    0.049678660819
0.575     -0.096271101232    -0.038811034303    -0.000210777450    0.001440261926    -0.068268386528    -0.041321145639    -0.000144106030    0.001085524461
            -0.000210777450    0.001440261926    0.089301995183    0.053072517771    -0.000439812125    0.002005416411    0.087245439605    0.030261445651
            -0.068268386528    -0.041321145639    -0.000439812125    0.002005416411    -0.096492865388    -0.042322681777    -0.000275959987    0.001449926816
            -0.000144106030    0.001085524461    0.087245439605    0.030261445651    -0.000275959987    0.001449926816    0.090884227269    0.052451777832
0.600     -0.106002664021    -0.018208036832    -0.000025068578    0.001505569111    -0.079446731579    -0.025521535717    -0.000002011455    0.001135222418
            -0.000025068578    0.001505569111    0.098210062297    0.054955277550    -0.000191623573    0.002121149199    0.092561170817    0.030981075917
            -0.079446731579    -0.025521535717    -0.000191623573    0.002121149199    -0.106686754387    -0.021894774985    -0.000092012376    0.001531780547
            -0.000002011455    0.001135222418    0.092561170817    0.030981075917    -0.000092012376    0.001531780547    0.099569240932    0.054099566925
0.625     -0.111786142775    0.004200117033    0.000174641835    0.001542688907    -0.087603366309    -0.007529526095    0.000151560988    0.001163014663
            0.000174641835    0.001542688907    0.108236199244    0.055268917395    0.000080488092    0.002200864222    0.098897573245    0.030878999540
            -0.087603366309    -0.007529526095    0.000080488092    0.002200864222    -0.112961616763    0.000423333657    0.000110359436    0.001586314296
            0.000151560988    0.001163014663    0.098897573245    0.030878999540    0.000110359436    0.001586314296    0.109328557859    0.054244791771
0.650     -0.113317325963    0.027558924787    0.000383028826    0.001548830109    -0.092343326604    0.011988584175    0.000312370180    0.001166374485
            0.000383028826    0.001548830109    0.119041626344    0.053699155857    0.000370086052    0.002239735947    0.106083497985    0.029632048153
            -0.092343326604    0.011988584175    0.000370086052    0.002239735947    -0.114998770901    0.023788706720    0.000326147600    0.001609438794
            0.000312370180    0.001166374485    0.106083497985    0.029632048153    0.000326147600    0.001609438794    0.119838779141    0.052575461383
0.675     -0.110485231407    0.050973628838    0.000594095138    0.001522368343    -0.093422682177    0.032302559721    0.000475562331    0.001143766176
            0.000594095138    0.001522368343    0.130209144865    0.050018471261    0.000669611319    0.002234317584    0.113857393742    0.026969202294
            -0.093422682177    0.032302559721    0.000669611319    0.002234317584    -0.112671174082    0.047311354374    0.000549327926    0.001598171430
            0.000475562331    0.001143766176    0.113857393742    0.026969202294    0.000549327926    0.001598171430    0.130696931555    0.048869212548
0.700     -0.103378331645    0.073559849581    0.000801794705    0.001463151945    -0.090768384744    0.052660519820    0.000636081151    0.001094902096
            0.000801794705    0.001463151945    0.141277271881    0.044103114304    0.000970898307    0.002182997440    0.121902514918    0.022691603487
            -0.090768384744    0.052660519820    0.000970898307    0.002182997440    -0.106048655773    0.070104721486    0.000773246821    0.001551078400
            0.000636081151    0.001094902096    0.121902514918    0.022691603487    0.000773246821    0.001551078400    0.141458296096    0.043005793062
0.725     -0.092269991743    0.094483268203    0.001000061509    0.001372347398    -0.084461458639    0.072323110302    0.000788924702    0.001020596425
            0.001000061509    0.001372347398    0.151758567902    0.035940552206    0.001265592955    0.002085874787    0.129850396205    0.016680769865
            -0.084461458639    0.072323110302    0.001265592955    0.002085874787    -0.095384667239    0.091328981692    0.000991037396    0.001468181004
            0.000788924702    0.001020596425    0.129850396205    0.016680769865    0.000991037396    0.001468181004    0.151653097079    0.034970926822
0.750     -0.077598585202    0.113002654040    0.001183560006    0.001252418288    -0.074735543024    0.090604582506    0.000929490814    0.000922864523
            0.001183560006    0.001252418288    0.161175018117    0.025628007782    0.001545698180    0.001944946919    0.137318368548    0.008906744139
            -0.074735543024    0.090604582506    0.001545698180    0.001944946919    -0.081098809953    0.110232635665    0.001196094023    0.001351112769
            0.000929490814    0.000922864523    0.137318368548    0.008906744139    0.001196094023    0.001351112769    0.160820698457    0.024857640777
0.775     -0.059937027126    0.128496078789    0.001347593087    0.001106829689    -0.061946590063    0.106891680398    0.001053792922    0.000804601672
            0.001347593087    0.001106829689    0.169075393470    0.013368980388    0.001803920838    0.001763683122    0.143913860074    -0.000572803390
            -0.061946590063    0.106891680398    0.001803920838    0.001763683122    -0.063746795426    0.126180350526    0.001382300625    0.001202860718
            0.001053792922    0.000804601672    0.143913860074    -0.000572803390    0.001382300625    0.001202860718    0.168526162672    0.012859409525
