# GHz S RI R 45
0.000     0.013342879458    0.001847363327    0.000000439210    0.000000935573    0.000776356979    0.001658114094    0.000000454205    0.000001012192
            0.000000439305    0.000000935571    0.012219423400    0.001861957483    0.000000481227    0.000001015323    0.000625522419    0.001662521780
            0.000776356315    0.001658114184    0.000000481068    0.000001015326    0.013278260680    0.001833942938    0.000000486867    0.000001102542
            0.000000454295    0.000001012190    0.000625522628    0.001662521808    0.000000486796    0.000001102543    0.012149829135    0.001873965064
0.025     0.017030802015    0.011351184101    0.000000810937    0.000002123400    0.001983223135    0.010263150830    0.000000845672    0.000002264990
            0.000000810942    0.000002123397    0.015367370360    0.010526979167    0.000000892754    0.000002337247    0.001616362609    0.009372185291
            0.001983790176    0.010262145969    0.000000892746    0.000002337252    0.016968207659    0.011289352423    0.000000909683    0.000002463248
            0.000000845671    0.000002264987    0.001616616512    0.009371611485    0.000000909686    0.000002463264    0.015298345405    0.010506299828
0.050     0.021914317877    0.019353629371    0.000001573071    0.000003880102    0.005520860695    0.019776566047    0.000001638744    0.000004140623
            0.000001573071    0.000003880102    0.019479590360    0.018022204568    0.000001736705    0.000004267690    0.004451437574    0.018149569524
            0.005520924413    0.019776587712    0.000001736706    0.000004267690    0.021791497295    0.019235573784    0.000001764421    0.000004507494
            0.000001638744    0.000004140623    0.004451532220    0.018149563814    0.000001764421    0.000004507494    0.019363397379    0.017989283309
0.075     0.027851105983    0.025689211001    0.000002587520    0.000005401564    0.010965923370    0.028006742792    0.000002692897    0.000005779373
            0.000002587520    0.000005401564    0.024363009855    0.024248340341    0.000002863173    0.000005937376    0.008823117938    0.026013192612
            0.010965929476    0.028006742549    0.000002863173    0.000005937376    0.027663703787    0.025542886676    0.000002899723    0.000006299427
            0.000002692897    0.000005779373    0.008823113397    0.026013194152    0.000002899723    0.000006299427    0.024190263887    0.024229299868
0.100     0.034622095587    0.030208245813    0.000003812587    0.000006686794    0.017861853719    0.034587672443    0.000003969332    0.000007183092
            0.000003812587    0.000006686793    0.029937616281    0.029158187514    0.000004225501    0.000007341552    0.014438917631    0.032715358557
            0.017861852367    0.034587674267    0.000004225501    0.000007341552    0.034358857903    0.030062512905    0.000004276677    0.000007842733
            0.000003969332    0.000007183092    0.014438891867    0.032715366648    0.000004276677    0.000007842733    0.029699012081    0.029179672966
0.125     0.041678195658    0.032755076278    0.000005198217    0.000007719259    0.025717453242    0.039296774292    0.000005421671    0.000008335321
            0.000005198217    0.000007719259    0.035786832712    0.032597302195    0.000005766241    0.000008459596    0.021004183912    0.038098097004
            0.025717453242    0.039296774292    0.000005766241    0.000008459596    0.041330358596    0.032638176046    0.000005848115    0.000009120406
            0.000005421671    0.000008335321    0.021004183912    0.038098097004    0.000005848115    0.000009120406    0.035486503045    0.032697677106
0.150     0.048558079978    0.033443893225    0.000006687699    0.000008507207    0.033993326957    0.041995494691    0.000006996491    0.000009243323
            0.000006687699    0.000008507207    0.041807224349    0.034763180947    0.000007420116    0.000009298454    0.028163048311    0.042000896060
            0.033993326957    0.041995494691    0.000007420116    0.000009298454    0.048145420468    0.033395508265    0.000007559130    0.000010136910
            0.000006996491    0.000009243323    0.028163048311    0.042000896060    0.000007559130    0.000010136910    0.041448767236    0.034967479069
0.175     0.054752804649    0.032447224700    0.000008236893    0.000009064212    0.042144208304    0.042720905516    0.000008652734    0.000009918094
            0.000008236893    0.000009064212    0.047608689152    0.035655687964    0.000009134343    0.000009872389    0.035559165298    0.044401296777
            0.042144208304    0.042720905516    0.000009134343    0.000009872389    0.054303807628    0.032494776596    0.000009366369    0.000010902568
            0.000008652734    0.000009918094    0.035559165298    0.044401296777    0.000009366369    0.000010902568    0.047214794320    0.035993991988
0.200     0.059807850628    0.030093602597    0.000009811716    0.000009418163    0.049667319175    0.041661047521    0.000010358859    0.000010384354
            0.000009811716    0.000009418163    0.052862593594    0.035442249499    0.000010867127    0.000010213067    0.042851550521    0.045363188498
            0.049667319175    0.041661047521    0.000010867127    0.000010213067    0.059358772820    0.030253200755    0.000011236870    0.000011441923
            0.000010358859    0.000010384354    0.042851550521    0.045363188498    0.000011236870    0.000011441923    0.052468687895    0.035938207839
0.225     0.063392717631    0.026824990241    0.000011392623    0.000009597831    0.056138173039    0.039124614975    0.000012097292    0.000010666274
            0.000011392623    0.000009597831    0.057326878949    0.034370394739    0.000012592890    0.000010354339    0.049730968728    0.045022543297
            0.056138173039    0.039124614975    0.000012592890    0.000010354339    0.062984587625    0.027099626325    0.000013151829    0.000011778090
            0.000012097292    0.000010666274    0.049730968728    0.045022543297    0.000013151829    0.000011778090    0.056976811443    0.035036329162
0.250     0.065323029703    0.023175867672    0.000012975169    0.000009634327    0.061240816817    0.035524486037    0.000013864763    0.000010789924
            0.000012975169    0.000009634327    0.060847676955    0.032754052246    0.000014302884    0.000010333968    0.055941018970    0.043589489056
            0.061240816817    0.035524486037    0.000014302884    0.000010333968    0.064998137025    0.023554867480    0.000015106402    0.000011936125
            0.000013864763    0.000010789924    0.055941018970    0.043589489056    0.000015106402    0.000011936125    0.060589092553    0.033589029279
0.275     0.065582889613    0.019703496223    0.000014566552    0.000009549849    0.064786113573    0.031336650932    0.000015668480    0.000010771288
            0.000014566552    0.000009549849    0.063369456954    0.030923348868    0.000016002659    0.000010181568    0.061291203356    0.041321743541
            0.064786113573    0.031336650932    0.000016002659    0.000010181568    0.065380525020    0.020162201077    0.000017106461    0.000011931049
            0.000015668480    0.000010771288    0.061291203356    0.041321743541    0.000017106461    0.000011931049    0.063249959845    0.031912354507
0.300     0.064321903359    0.016959023257    0.000016185290    0.000009359826    0.066729061178    0.027074087132    0.000017525630    0.000010619249
            0.000016185290    0.000009359826    0.064933113151    0.029214816067    0.000017711342    0.000009919770    0.065670965081    0.038515169154
            0.066729061178    0.027074087132    0.000017711342    0.000009919770    0.064274046850    0.017459399212    0.000019167617    0.000011770687
            0.000017525630    0.000010619249    0.065670965081    0.038515169154    0.000019167617    0.000011770687    0.064996231500    0.030329022549
0.325     0.061846982004    0.015425282102    0.000017854212    0.000009064756    0.067169942179    0.023239571224    0.000019455902    0.000010327302
            0.000017854212    0.000009064756    0.065671565342    0.027929439382    0.000019454416    0.000009555633    0.069050124561    0.035473428661
            0.067169942179    0.023239571224    0.000019454416    0.000009555633    0.061974320163    0.015918475146    0.000021307888    0.000011447371
            0.000019455902    0.000010327302    0.069050124561    0.035473428661    0.000021307888    0.000011447371    0.065952969639    0.029128129846
0.350     0.058602247764    0.015491123465    0.000019599708    0.000008653247    0.066356402905    0.020295339047    0.000021481049    0.000009877378
            0.000019599708    0.000008653247    0.065799310101    0.027325135522    0.000021263271    0.000009083032    0.071485626459    0.032496346854
            0.066356402905    0.020295339047    0.000021263271    0.000009083032    0.058910950037    0.015920543069    0.000023547346    0.000010941996
            0.000021481049    0.000009877378    0.071485626459    0.032496346854    0.000023547346    0.000010941996    0.066323743536    0.028557727197
0.375     0.055137673718    0.017401499326    0.000021443112    0.000008097299    0.064663085827    0.018613132253    0.000023615426    0.000009235159
            0.000021443112    0.000008097299    0.065595074330    0.027583335641    0.000023165548    0.000008477291    0.073109291658    0.029848615648
            0.064663085827    0.018613132253    0.000023165548    0.000008477291    0.055616494471    0.017707298478    0.000025898358    0.000010218983
            0.000023615426    0.000009235159    0.073109291658    0.029848615648    0.000025898358    0.000010218983    0.066373579264    0.028792890417
0.400     0.052072762658    0.021241484365    0.000023399925    0.000007356564    0.062573509876    0.018447428163    0.000025865861    0.000008355475
            0.000023399925    0.000007356564    0.065384399975    0.028806531600    0.000025184199    0.000007699201    0.074126633136    0.027750460830
            0.062573509876    0.018447428163    0.000025184199    0.000007699201    0.052692224221    0.021365627940    0.000028365690    0.000009231902
            0.000025865861    0.000008355475    0.074126633136    0.027750460830    0.000028365690    0.000009231902    0.066413449996    0.029933635791
0.425     0.050045397572    0.026906967509    0.000025469947    0.000006377155    0.060635244090    0.019894518119    0.000028221581    0.000007181274
            0.000025469947    0.000006377155    0.065513079516    0.030997071467    0.000027326464    0.000006693102    0.074793579946    0.026349206149
            0.060635244090    0.019894518119    0.000027326464    0.000006693102    0.050758089600    0.026798487133    0.000030935976    0.000007922591
            0.000028221581    0.000007181274    0.074793579946    0.026349206149    0.000030935976    0.000007922591    0.066774130220    0.031984063496
0.450     0.049663290685    0.034108374797    0.000027637540    0.000005098252    0.059421619582    0.022883855956    0.000030655231    0.000005651469
            0.000027637540    0.000005098252    0.066327017486    0.034062507031    0.000029583810    0.000005394461    0.075405421159    0.025716146796
            0.059421619582    0.022883855956    0.000029583810    0.000005394461    0.050406411615    0.033729015597    0.000033578955    0.000006228627
            0.000030655231    0.000005651469    0.075405421159    0.025716146796    0.000033578955    0.000006228627    0.067787283044    0.034857527511
0.475     0.051442921443    0.042373120797    0.000029861922    0.000003455816    0.059469269301    0.027162903214    0.000033113870    0.000003704172
            0.000029861922    0.000003455816    0.068139373145    0.037808775595    0.000031921281    0.000003732368    0.076265185531    0.025827834991
            0.059469269301    0.027162903214    0.000031921281    0.000003732368    0.052141204078    0.041701882527    0.000036238072    0.000004087385
            0.000033113870    0.000003704172    0.076265185531    0.025827834991    0.000036238072    0.000004087385    0.069754827574    0.038369503761
0.500     0.055762290559    0.051081680462    0.000032081659    0.000001391586    0.061233724695    0.032320683197    0.000035524182    0.000001286919
            0.000032081659    0.000001391586    0.071211622099    0.041957333470    0.000034280969    0.000001640357    0.077668007151    0.026572913889
            0.061233724695    0.032320683197    0.000034280969    0.000001640357    0.056334621526    0.050117633286    0.000038836014    0.000001445717
            0.000035524182    0.000001286919    0.077668007151    0.026572913889    0.000038836014    0.000001445717    0.072931456675    0.042251238434
0.525     0.062811344913    0.059504452273    0.000034207831    -0.000001139064    0.065029766480    0.037810272592    0.000037786453    -0.000001636280
            0.000034207831    -0.000001139064    0.075723168083    0.046154257814    0.000036575322    -0.000000936344    0.079862093580    0.027745462892
            0.065029766480    0.037810272592    0.000036575322    -0.000000936344    0.063177153367    0.058270297129    0.000041268666    -0.000001732518
            0.000037786453    -0.000001636280    0.079862093580    0.027745462892    0.000041268666    -0.000001732518    0.077489589678    0.046152781380
0.550     0.072571475764    0.066867804649    0.000036136417    -0.000004157819    0.071006741984    0.043004239680    0.000039788290    -0.000005074757
            0.000036136417    -0.000004157819    0.081761521201    0.050000378062    0.000038698294    -0.000004029868    0.083024474152    0.029074477549
            0.071006741984    0.043004239680    0.000038698294    -0.000004029868    0.072657740908    0.065408833427    0.000043418270    -0.000005455690
            0.000039788290    -0.000005074757    0.083024474152    0.029074477549    0.000043418270    -0.000005455690    0.083490405757    0.049678660819
0.575     0.084799820643    0.072412705176    0.000037748077    -0.000007657235    0.079116249773    0.047243738076    0.000041406397    -0.000009006812
            0.000037748077    -0.000007657235    0.089301995183    0.053072517771    0.000040525900    -0.000007643041    0.087245439605    0.030261445651
            0.079116249773    0.047243738076    0.000040525900    -0.000007643041    0.084546306849    0.070796922910    0.000045156555    -0.000009699797
            0.000041406397    -0.000009006812    0.087245439605    0.030261445651    0.000045156555    -0.000009699797    0.090884227269    0.052451777832
0.600     0.099051523043    0.075465074904    0.000038924696    -0.000011597396    0.089126746563    0.049905176400    0.000042522889    -0.000013379689
            0.000038924696    -0.000011597396    0.098210062297    0.054955277550    0.000041932176    -0.000011745166    0.092561170817    0.030981075917
            0.089126746563    0.049905176400    0.000041932176    -0.000011745166    0.098414588184    0.073777627609    0.000046361248    -0.000014408962
            0.000042522889    -0.000013379689    0.092561170817    0.030981075917    0.000046361248    -0.000014408962    0.099569240932    0.054099566925
0.625     0.114703658609    0.075488240369    0.000039551897    -0.000015902271    0.100629434068    0.050445285210    0.000043024750    -0.000018105093
            0.000039551897    -0.000015902271    0.108236199244    0.055268917395    0.000042791816    -0.000016267697    0.098897573245    0.030878999540
            0.100629434068    0.050445285210    0.000042791816    -0.000016267697    0.113660577467    0.073824305581    0.000046914935    -0.000019491197
            0.000043024750    -0.000018105093    0.098897573245    0.030878999540    0.000046914935    -0.000019491197    0.109328557859    0.054244791771
0.650     0.131014897448    0.072125251521    0.000039538828    -0.000020466079    0.113090252495    0.048452197611    0.000042826024    -0.000023065212
            0.000039538828    -0.000020466079    0.119041626344    0.053699155857    0.000043001115    -0.000021109067    0.106083497985    0.029632048153
            0.113090252495    0.048452197611    0.000043001115    -0.000021109067    0.129565751603    0.070583605226    0.000046727514    -0.000024823520
            0.000042826024    -0.000023065212    0.106083497985    0.029632048153    0.000046727514    -0.000024823520    0.119838779141    0.052575461383
0.675     0.147170107067    0.065221464120    0.000038819454    -0.000025156500    0.125877837322    0.043665566626    0.000041867814    -0.000028117887
            0.000038819454    -0.000025156500    0.130209144865    0.050018471261    0.000042479619    -0.000026138495    0.113857393742    0.026969202294
            0.125877837322    0.043665566626    0.000042479619    -0.000026138495    0.145339742291    0.063896633674    0.000045736763    -0.000030257762
            0.000041867814    -0.000028117887    0.113857393742    0.026969202294    0.000045736763    -0.000030257762    0.130696931555    0.048869212548
0.700     0.162349970176    0.054826937596    0.000037365971    -0.000029829630    0.138327666312    0.035993760357    0.000040131527    -0.000033111327
            0.000037365971    -0.000029829630    0.141277271881    0.044103114304    0.000041184772    -0.000031209597    0.121902514918    0.022691603487
            0.138327666312    0.035993760357    0.000041184772    -0.000031209597    0.160186023127    0.053804979327    0.000043922771    -0.000035635331
            0.000040131527    -0.000033111327    0.121902514918    0.022691603487    0.000043922771    -0.000035635331    0.141458296096    0.043005793062
0.725     0.175772707659    0.041186687077    0.000035184210    -0.000034334860    0.149769483866    0.025507080948    0.000037632280    -0.000037889856
            0.000035184210    -0.000034334860    0.151758567902    0.035940552206    0.000039107516    -0.000036166190    0.129850396205    0.016680769865
            0.149769483866    0.025507080948    0.000039107516    -0.000036166190    0.173343617120    0.040539035986    0.000041299817    -0.000040793641
            0.000037632280    -0.000037889856    0.129850396205    0.016680769865    0.000041299817    -0.000040793641    0.151653097079    0.034970926822
0.750     0.186746699257    0.024713141425    0.000032318618    -0.000038531385    0.159581056596    0.012426523681    0.000034424700    -0.000042309661
            0.000032318618    -0.000038531385    0.161175018117    0.025628007782    0.000036279214    -0.000040857838    0.137318368548    0.008906744139
            0.159581056596    0.012426523681    0.000036279214    -0.000040857838    0.184135761956    0.024494063335    0.000037924118    -0.000045581846
            0.000034424700    -0.000042309661    0.137318368548    0.008906744139    0.000037924118    -0.000045581846    0.160820698457    0.024857640777
0.775     0.194692669365    0.005959254672    0.000028842249    -0.000042290405    0.167200313681    -0.002896465082    0.000030591361    -0.000046241096
            0.000028842249    -0.000042290405    0.169075393470    0.013368980388    0.000032761857    -0.000045143380    0.143913860074    -0.000572803390
            0.167200313681    -0.002896465082    0.000032761857    -0.000045143380    0.191994692077    0.006201768052    0.000033880634    -0.000049863743
            0.000030591361    -0.000046241096    0.143913860074    -0.000572803390    0.000033880634    -0.000049863743    0.168526162672    0.012859409525
0.800     0.199173182401    -0.014420704278    0.000024856561    -0.000045509173    0.172164263105    -0.020003194345    0.000026242856    -0.000049581910
            0.000024856561    -0.000045509173    0.175064542209    -0.000541604881    0.000028648149    -0.000048904615    0.149270767535    -0.011615173223
