# GHz S RI R 45
0.000     0.012614529818    0.001863793619    0.000001887110    0.000003785650    0.000661622611    0.001664424435    0.000002052738    0.000004430239
            0.000001886954    0.000003785652    0.012219423400    0.001861957483    0.000002271829    0.000004449862    0.000625522419    0.001662521780
            0.000661622408    0.001664424516    0.000002271837    0.000004449862    0.012569679065    0.001851731339    0.000002480615    0.000005280458
            0.000002053084    0.000004430233    0.000625522628    0.001662521808    0.000002480534    0.000005280459    0.012149829135    0.001873965064
0.025     0.016102186275    0.011028344246    0.000003501249    0.000008941525    0.001778605023    0.009777085586    0.000003778900    0.000009999339
            0.000003501268    0.000008941519    0.015367370360    0.010526979167    0.000004369094    0.000011028880    0.001616362609    0.009372185291
            0.001770703179    0.009774900925    0.000004369097    0.000011028895    0.016036974965    0.010943847297    0.000004579960    0.000012114214
            0.000003778920    0.000009999350    0.001616616512    0.009371611485    0.000004579954    0.000012114204    0.015298345405    0.010506299828
0.050     0.020632720188    0.018825657060    0.000006818205    0.000016283158    0.004919015242    0.018868758449    0.000007268167    0.000018264532
            0.000006818205    0.000016283158    0.019479590360    0.018022204568    0.000008618591    0.000019980972    0.004451437574    0.018149569524
            0.004919075332    0.018868692146    0.000008618592    0.000019980973    0.020522122044    0.018701139619    0.000008831906    0.000022122718
            0.000007268167    0.000018264532    0.004451532220    0.018149563814    0.000008831906    0.000022122719    0.019363397379    0.017989283309
0.075     0.026078033142    0.025149406389    0.000011213352    0.000022567970    0.009760389655    0.026885037674    0.000011858996    0.000025490795
            0.000011213353    0.000022567970    0.024363009855    0.024248340341    0.000014247175    0.000027541473    0.008823117938    0.026013192612
            0.009760388076    0.026885090376    0.000014247176    0.000027541473    0.025909723350    0.024986792413    0.000014425132    0.000030861265
            0.000011858996    0.000025490794    0.008823113397    0.026013194152    0.000014425133    0.000030861266    0.024190263887    0.024229299868
0.100     0.032287542792    0.029906364399    0.000016499435    0.000027789501    0.015931764572    0.033532983556    0.000017408639    0.000031714911
            0.000016499435    0.000027789501    0.029937616281    0.029158187514    0.000020996197    0.000033667606    0.014438917631    0.032715358557
            0.015931763987    0.033532983834    0.000020996197    0.000033667606    0.032048574540    0.029728586451    0.000021192257    0.000038368084
            0.000017408639    0.000031714911    0.014438891867    0.032715366648    0.000021192257    0.000038368084    0.029699012081    0.029179672966
0.125     0.038807354524    0.032959752706    0.000022447468    0.000031869711    0.023052925275    0.038624955443    0.000023736222    0.000036864532
            0.000022447468    0.000031869711    0.035786832712    0.032597302195    0.000028535498    0.000038241279    0.021004183912    0.038098097004
            0.023052925275    0.038624955443    0.000028535498    0.000038241279    0.038502581861    0.032794584717    0.000028909217    0.000044543745
            0.000023736222    0.000036864532    0.021004183912    0.038098097004    0.000028909217    0.000044543745    0.035486503045    0.032697677106
0.150     0.045305022490    0.034428137303    0.000028791036    0.000034834223    0.030701488482    0.042018567485    0.000030618644    0.000040960934
            0.000028791036    0.000034834223    0.041807224349    0.034763180947    0.000036482029    0.000041287889    0.028163048311    0.042000896060
            0.030701488482    0.042018567485    0.000036482029    0.000041287889    0.044933463807    0.034296348880    0.000037296022    0.000049404301
            0.000030618644    0.000040960934    0.028163048311    0.042000896060    0.000037296022    0.000049404301    0.041448767236    0.034967479069
0.175     0.051367261480    0.034416661144    0.000035315398    0.000036743105    0.038441186639    0.043708788496    0.000037884527    0.000044038841
            0.000035315398    0.000036743105    0.047608689152    0.035655687964    0.000044511115    0.000042894386    0.035559165298    0.044401296777
            0.038441186639    0.043708788496    0.000044511115    0.000042894386    0.050939818915    0.034341269773    0.000046129376    0.000052984851
            0.000037884527    0.000044038841    0.035559165298    0.044401296777    0.000046129376    0.000052984851    0.047214794320    0.035993991988
0.200     0.056612076046    0.033165579864    0.000041845747    0.000037721525    0.045861056923    0.043809528213    0.000045395449    0.000046188876
            0.000041845747    0.000037721525    0.052862593594    0.035442249499    0.000052349968    0.000043247103    0.042851550521    0.045363188498
            0.045861056923    0.043809528213    0.000052349968    0.000043247103    0.056148204138    0.033165609297    0.000055221412    0.000055393483
            0.000045395449    0.000046188876    0.042851550521    0.045363188498    0.000055221412    0.000055393483    0.052468687895    0.035938207839
0.225     0.060751740506    0.031008758476    0.000048266653    0.000037908013    0.052602500725    0.042528477740    0.000053064418    0.000047500160
            0.000048266653    0.000037908013    0.057326878949    0.034370394739    0.000059807473    0.000042567994    0.049730968728    0.045022543297
            0.052602500725    0.042528477740    0.000059807473    0.000042567994    0.060277397221    0.031095991597    0.000064444944    0.000056743170
            0.000053064418    0.000047500160    0.049730968728    0.045022543297    0.000064444944    0.000056743170    0.056976811443    0.035036329162
0.250     0.063610644214    0.028361755213    0.000054527172    0.000037461739    0.058384109972    0.040159573077    0.000060857785    0.000048074677
            0.000054527172    0.000037461739    0.060847676955    0.032754052246    0.000066785865    0.000041120729    0.055941018970    0.043589489056
            0.058384109972    0.040159573077    0.000066785865    0.000041120729    0.063155216932    0.028539448791    0.000073736868    0.000057170977
            0.000060857785    0.000048074677    0.055941018970    0.043589489056    0.000073736868    0.000057170977    0.060589092553    0.033589029279
0.275     0.065144681572    0.025661482467    0.000060631470    0.000036516456    0.063014766389    0.037050194424    0.000068783090    0.000047979667
            0.000060631470    0.000036516456    0.063369456954    0.030923348868    0.000073275038    0.000039150861    0.061291203356    0.041321743541
            0.063014766389    0.037050194424    0.000073275038    0.000039150861    0.064738623578    0.025923260438    0.000083087262    0.000056780213
            0.000068783090    0.000047979667    0.061291203356    0.041321743541    0.000083087262    0.000056780213    0.063249959845    0.031912354507
0.300     0.065439181061    0.023347737892    0.000066638953    0.000035187624    0.066409550322    0.033585063763    0.000076887958    0.000047260293
            0.000066638953    0.000035187624    0.064933113151    0.029214816067    0.000079354953    0.000036887024    0.065670965081    0.038515169154
            0.066409550322    0.033585063763    0.000079354953    0.000036887024    0.065111004303    0.023677309742    0.000092539350    0.000055653763
            0.000076887958    0.000047260293    0.065670965081    0.038515169154    0.000092539350    0.000055653763    0.064996231500    0.030329022549
0.325     0.064703056292    0.021810919193    0.000072639691    0.000033537816    0.068589769092    0.030150211710    0.000085231823    0.000045906623
            0.000072639691    0.000033537816    0.065671565342    0.027929439382    0.000085169516    0.000034493413    0.069050124561    0.035473428661
            0.068589769092    0.030150211710    0.000085169516    0.000034493413    0.064475943636    0.022182736129    0.000102160296    0.000053815645
            0.000085231823    0.000045906623    0.069050124561    0.035473428661    0.000102160296    0.000053815645    0.065952969639    0.029128129846
0.350     0.063253754778    0.021375666459    0.000078755463    0.000031585649    0.069688380505    0.027113241341    0.000093888061    0.000043869301
            0.000078755463    0.000031585649    0.065799310101    0.027325135522    0.000090925854    0.000032072889    0.071485626459    0.032496346854
            0.069688380505    0.027113241341    0.000090925854    0.000032072889    0.063143328180    0.021756642187    0.000112041682    0.000051244492
            0.000093888061    0.000043869301    0.071485626459    0.032496346854    0.000112041682    0.000051244492    0.066323743536    0.028557727197
0.375     0.061493374365    0.022260312612    0.000085105229    0.000029282362    0.069934576560    0.024785096103    0.000102906182    0.000041039047
            0.000085105229    0.000029282362    0.065595074330    0.027583335641    0.000096849476    0.000029631095    0.073109291658    0.029848615648
            0.069934576560    0.024785096103    0.000096849476    0.000029631095    0.061505454165    0.022612059256    0.000122260902    0.000047848626
            0.000102906182    0.000041039047    0.073109291658    0.029848615648    0.000122260902    0.000047848626    0.066373579264    0.028792890417
0.400     0.059883227059    0.024567920951    0.000091804203    0.000026525028    0.069645925562    0.023403362517    0.000112317252    0.000037267464
            0.000091804203    0.000026525028    0.065384399975    0.028806531600    0.000103182478    0.000027087249    0.074126633136    0.027750460830
            0.069645925562    0.023403362517    0.000103182478    0.000027087249    0.060012056846    0.024849488421    0.000132880238    0.000043485160
            0.000112317252    0.000037267464    0.074126633136    0.027750460830    0.000132880238    0.000043485160    0.066413449996    0.029933635791
0.425     0.058906057991    0.028261234863    0.000098925753    0.000023144769    0.069197061957    0.023099347505    0.000122092472    0.000032358475
            0.000098925753    0.000023144769    0.065513079516    0.030997071467    0.000110127820    0.000024253924    0.074793579946    0.026349206149
            0.069197061957    0.023099347505    0.000110127820    0.000024253924    0.059134092634    0.028432457488    0.000143905744    0.000037949523
            0.000122092472    0.000032358475    0.074793579946    0.026349206149    0.000143905744    0.000037949523    0.066774130220    0.031984063496
0.450     0.059033147805    0.033167733655    0.000106498027    0.000018927054    0.068997707151    0.023892130319    0.000132149184    0.000026095687
            0.000106498027    0.000018927054    0.066327017486    0.034062507031    0.000117837766    0.000020858943    0.075405421159    0.025716146796
            0.068997707151    0.023892130319    0.000117837766    0.000020858943    0.059331650734    0.033191966018    0.000155288359    0.000031003042
            0.000132149184    0.000026095687    0.075405421159    0.025716146796    0.000155288359    0.000031003042    0.067787283044    0.034857527511
0.475     0.060678681591    0.038977314297    0.000114462131    0.000013618699    0.069448199490    0.025672283415    0.000142318208    0.000018250711
            0.000114462131    0.000013618699    0.068139373145    0.037808775595    0.000126364073    0.000016551248    0.076265185531    0.025827834991
            0.069448199490    0.025672283415    0.000126364073    0.000016551248    0.061010443255    0.038823090203    0.000166879403    0.000022379750
            0.000142318208    0.000018250711    0.076265185531    0.025827834991    0.000166879403    0.000022379750    0.069754827574    0.038369503761
0.500     0.064164609074    0.045272672826    0.000122684724    0.000006963196    0.070910625643    0.028219390272    0.000152358373    0.000008618835
            0.000122684724    0.000006963196    0.071211622099    0.041957333470    0.000135649913    0.000010941656    0.077668007151    0.026572913889
            0.070910625643    0.028219390272    0.000135649913    0.000010941656    0.064491539994    0.044908160802    0.000178450302    0.000011824928
            0.000152358373    0.000008618835    0.077668007151    0.026572913889    0.000178450302    0.000011824928    0.072931456675    0.042251238434
0.525     0.069630872329    0.051597020905    0.000130919777    -0.000001250596    0.073633246357    0.031237774025    0.000161942988    -0.000002945345
            0.000130919777    -0.000001250596    0.075723168083    0.046154257814    0.000145497300    0.000003636599    0.079862093580    0.027745462892
            0.073633246357    0.031237774025    0.000145497300    0.000003636599    0.069975514922    0.050938970017    0.000189658453    -0.000000876922
            0.000161942988    -0.000002945345    0.079862093580    0.027745462892    0.000189658453    -0.000000876922    0.077489589678    0.046152781380
0.550     0.077175998345    0.056548380990    0.000138638937    -0.000011396127    0.077807047694    0.033803718398    0.000170451250    -0.000016514387
            0.000138638937    -0.000011396127    0.081761521201    0.050000378062    0.000155504897    -0.000005688309    0.083024474152    0.029074477549
            0.077807047694    0.033803718398    0.000155504897    -0.000005688309    0.077489004815    0.056360436454    0.000199996325    -0.000015828974
            0.000170451250    -0.000016514387    0.083024474152    0.029074477549    0.000199996325    -0.000015828974    0.083490405757    0.049678660819
0.575     0.087020271764    0.061144273814    0.000145906848    -0.000023303895    0.083735374757    0.036431043800    0.000177840418    -0.000032165934
            0.000145906848    -0.000023303895    0.089301995183    0.053072517771    0.000165331886    -0.000017386836    0.087245439605    0.030261445651
            0.083735374757    0.036431043800    0.000165331886    -0.000017386836    0.087001994708    0.060565216472    0.000209089494    -0.000033138052
            0.000177840418    -0.000032165934    0.087245439605    0.030261445651    0.000209089494    -0.000033138052    0.090884227269    0.052451777832
0.600     0.098395551394    0.063761515885    0.000151883949    -0.000037063029    0.091013980046    0.037957701565    0.000183376960    -0.000049606947
            0.000151883949    -0.000037063029    0.098210062297    0.054955277550    0.000174340248    -0.000031526239    0.092561170817    0.030981075917
            0.091013980046    0.037957701565    0.000174340248    -0.000031526239    0.098242563572    0.062966200678    0.000216336438    -0.000052612770
            0.000183376960    -0.000049606947    0.092561170817    0.030981075917    0.000216336438    -0.000052612770    0.099569240932    0.054099566925
0.625     0.111079158492    0.064105489848    0.000156191835    -0.000052503383    0.099386128783    0.038082692800    0.000186664051    -0.000068585272
            0.000156191835    -0.000052503383    0.108236199244    0.055268917395    0.000181920000    -0.000048036487    0.098897573245    0.030878999540
            0.099386128783    0.038082692800    0.000181920000    -0.000048036487    0.110552059876    0.063132915156    0.000221251276    -0.000073958863
            0.000186664051    -0.000068585272    0.098897573245    0.030878999540    0.000221251276    -0.000073958863    0.109328557859    0.054244791771
0.650     0.124558519329    0.061822411840    0.000158421249    -0.000069379321    0.108721906328    0.036569775281    0.000187340219    -0.000088750261
            0.000158421249    -0.000069379321    0.119041626344    0.053699155857    0.000187536389    -0.000066794490    0.106083497985    0.029632048153
            0.108721906328    0.036569775281    0.000187536389    -0.000066794490    0.123709225679    0.060922645393    0.000223416817    -0.000096898164
            0.000187340219    -0.000088750261    0.106083497985    0.029632048153    0.000223416817    -0.000096898164    0.119838779141    0.052575461383
0.675     0.138214323133    0.056702793332    0.000158187741    -0.000087270050    0.118581789793    0.033024424263    0.000185093555    -0.000109584116
            0.000158187741    -0.000087270050    0.130209144865    0.050018471261    0.000190570794    -0.000087441268    0.113857393742    0.026969202294
            0.118581789793    0.033024424263    0.000190570794    -0.000087441268    0.137099410971    0.055918620254    0.000222392448    -0.000120889095
            0.000185093555    -0.000109584116    0.113857393742    0.026969202294    0.000222392448    -0.000120889095    0.130696931555    0.048869212548
0.700     0.151401833388    0.048686608088    0.000155256179    -0.000105680848    0.128469060617    0.027296522725    0.000179782855    -0.000130517582
            0.000155256179    -0.000105680848    0.141277271881    0.044103114304    0.000190574260    -0.000109470820    0.121902514918    0.022691603487
            0.128469060617    0.027296522725    0.000190574260    -0.000109470820    0.150047409890    0.048067888263    0.000217958605    -0.000145320065
            0.000179782855    -0.000130517582    0.121902514918    0.022691603487    0.000217958605    -0.000145320065    0.141458296096    0.043005793062
0.725     0.163472487032    0.037867555885    0.000149504621    -0.000124058668    0.137874481442    0.019349003190    0.000171387498    -0.000150948679
            0.000149504621    -0.000124058668    0.151758567902    0.035940552206    0.000187213507    -0.000132270336    0.129850396205    0.016680769865
            0.137874481442    0.019349003190    0.000187213507    -0.000132270336    0.161913245360    0.037466015988    0.000210020525    -0.000169534527
            0.000171387498    -0.000150948679    0.129850396205    0.016680769865    0.000210020525    -0.000169534527    0.151653097079    0.034970926822
0.750     0.173819247986    0.024483399498    0.000140961387    -0.000141850977    0.146303807990    0.009259185269    0.000160045697    -0.000170301395
            0.000140961387    -0.000141850977    0.161175018117    0.025628007782    0.000180322390    -0.000155178739    0.137318368548    0.008906744139
            0.146303807990    0.009259185269    0.000180322390    -0.000155178739    0.172102330031    0.024344848717    0.000198655882    -0.000192886345
            0.000160045697    -0.000170301395    0.137318368548    0.008906744139    0.000198655882    -0.000192886345    0.160820698457    0.024857640777
0.775     0.181900776602    0.008903374834    0.000129772156    -0.000158516585    0.153283527869    -0.002788518796    0.000146009338    -0.000188034605
            0.000129772156    -0.000158516585    0.169075393470    0.013368980388    0.000169880057    -0.000177500564    0.143913860074    -0.000572803390
            0.153283527869    -0.002788518796    0.000169880057    -0.000177500564    0.180084115434    0.009062290340    0.000184070395    -0.000214753213
            0.000146009338    -0.000188034605    0.143913860074    -0.000572803390    0.000184070395    -0.000214753213    0.168526162672    0.012859409525
0.800     0.187273301006    -0.008397452832    0.000116213001    -0.000173588788    0.158397344600    -0.016511623939    0.000129653154    -0.000203702837
            0.000116213001    -0.000173588788    0.175064542209    -0.000541604881    0.000156030112    -0.000198575750    0.149270767535    -0.011615173223
