# GHz S RI R 45
0.000     0.010965727991    0.001577792252    0.000000330696    0.000001235518    0.000518220973    0.001403453506    0.000000380807    0.000001317874
            0.000000330696    0.000001235518    0.012219423400    0.001861957483    0.000000286730    0.000001152230    0.000625522419    0.001662521780
            0.000518220718    0.001403453494    0.000000286730    0.000001152230    0.010930726410    0.001561545805    0.000000355293    0.000001266150
            0.000000380807    0.000001317874    0.000625522628    0.001662521808    0.000000355293    0.000001266150    0.012149829135    0.001873965064
0.025     0.014554426141    0.008804021063    0.000000910708    0.000002757254    0.001754310205    0.007818690153    0.000001011955    0.000002938271
            0.000000910706    0.000002757249    0.015367370360    0.010526979167    0.000000812944    0.000002577539    0.001616362609    0.009372185291
            0.001754690141    0.007817944055    0.000000812948    0.000002577543    0.014488177157    0.008724559442    0.000000950771    0.000002827259
            0.000001011957    0.000002938275    0.001616616512    0.009371611485    0.000000950768    0.000002827260    0.015298345405    0.010506299828
0.050     0.019625543349    0.014557602530    0.000002173303    0.000004923548    0.005291733185    0.014888354286    0.000002368444    0.000005227664
            0.000002173303    0.000004923548    0.019479590360    0.018022204568    0.000001981770    0.000004626314    0.004451437574    0.018149569524
            0.005291761775    0.014888351554    0.000001981770    0.000004626314    0.019524656681    0.014442169316    0.000002246340    0.000005046962
            0.000002368444    0.000005227664    0.004451532220    0.018149563814    0.000002246340    0.000005046962    0.019363397379    0.017989283309
0.075     0.026192265533    0.018600943922    0.000003861596    0.000006697289    0.010785152379    0.020682365229    0.000004168139    0.000007094228
            0.000003861596    0.000006697289    0.024363009855    0.024248340341    0.000003560386    0.000006311193    0.008823117938    0.026013192612
            0.010785147066    0.020682369128    0.000003560386    0.000006311193    0.026053608648    0.018452499123    0.000003975056    0.000006862843
            0.000004168139    0.000007094228    0.008823113397    0.026013194152    0.000003975056    0.000006862843    0.024190263887    0.024229299868
0.100     0.034025399037    0.020605587208    0.000005933308    0.000008048988    0.017837528030    0.024791716579    0.000006369475    0.000008511249
            0.000005933308    0.000008048988    0.029937616281    0.029158187514    0.000005504841    0.000007601088    0.014438917631    0.032715358557
            0.017837528030    0.024791716579    0.000005504841    0.000007601088    0.033845046614    0.020441813027    0.000006094636    0.000008247908
            0.000006369475    0.000008511249    0.014438891867    0.032715366648    0.000006094636    0.000008247908    0.029699012081    0.029179672966
0.125     0.042537617900    0.020178393778    0.000008304382    0.000008923591    0.025992864698    0.026909619987    0.000008884168    0.000009420191
            0.000008304382    0.000008923591    0.035786832712    0.032597302195    0.000007735478    0.000008443747    0.021004183912    0.038098097004
            0.025992864698    0.026909619987    0.000007735478    0.000008443747    0.042320836514    0.020029267740    0.000008520473    0.000009145467
            0.000008884168    0.000009420191    0.021004183912    0.038098097004    0.000008520473    0.000009145467    0.035486503045    0.032697677106
0.150     0.051321934314    0.017339315377    0.000010879226    0.000009292826    0.034747402742    0.026784021571    0.000011611171    0.000009793153
            0.000010879226    0.000009292826    0.041807224349    0.034763180947    0.000010161906    0.000008810941    0.028163048311    0.042000896060
            0.034747402742    0.026784021571    0.000010161906    0.000008810941    0.051073746940    0.017218389061    0.000011155492    0.000009527178
            0.000011611171    0.000009793153    0.028163048311    0.042000896060    0.000011155492    0.000009527178    0.041448767236    0.034967479069
0.175     0.059695758923    0.011975063625    0.000013565150    0.000009143829    0.043544350646    0.024310195825    0.000014452110    0.000009615932
            0.000013565150    0.000009143829    0.047608689152    0.035655687964    0.000012696595    0.000008690280    0.035559165298    0.044401296777
            0.043544350646    0.024310195825    0.000012696595    0.000008690280    0.059434611046    0.011900914664    0.000013904979    0.000009378645
            0.000014452110    0.000009615932    0.035559165298    0.044401296777    0.000013904979    0.000009378645    0.047214794320    0.035993991988
0.200     0.067019777643    0.004198662690    0.000016277305    0.000008482309    0.051824346140    0.019512905338    0.000017316618    0.000008895229
            0.000016277305    0.000008482309    0.052862593594    0.035442249499    0.000015259653    0.000008086543    0.042851550521    0.045363188498
            0.051824346140    0.019512905338    0.000015259653    0.000008086543    0.066771583982    0.004184253014    0.000016681913    0.000008705332
            0.000017316618    0.000008895229    0.042851550521    0.045363188498    0.000016681913    0.000008705332    0.052468687895    0.035938207839
0.225     0.072702338541    -0.005734381998    0.000018940173    0.000007320959    0.059043859209    0.012537209607    0.000020123859    0.000007645046
            0.000018940173    0.000007320959    0.057326878949    0.034370394739    0.000017779677    0.000007011177    0.049730968728    0.045022543297
            0.059043859209    0.012537209607    0.000017779677    0.000007011177    0.072497284245    -0.005683628737    0.000019408193    0.000007519765
            0.000020123859    0.000007645046    0.049730968728    0.045022543297    0.000019408193    0.000007519765    0.056976811443    0.035036329162
0.250     0.076233189900    -0.017429452112    0.000021488002    0.000005680536    0.064706829843    0.003644684122    0.000022803597    0.000005888599
            0.000021488002    0.000005680536    0.060847676955    0.032754052246    0.000020194533    0.000005483157    0.055941018970    0.043589489056
            0.064706829843    0.003644684122    0.000020194533    0.000005483157    0.076103441250    -0.017315533892    0.000022015814    0.000005843548
            0.000022803597    0.000005888599    0.055941018970    0.043589489056    0.000022015814    0.000005843548    0.060589092553    0.033589029279
0.275     0.077192615067    -0.030387021743    0.000023861924    0.000003582141    0.068379167365    -0.006799320775    0.000025293335    0.000003649658
            0.000023861924    0.000003582141    0.063369456954    0.030923348868    0.000022448736    0.000003522038    0.061291203356    0.041321743541
            0.068379167365    -0.006799320775    0.000022448736    0.000003522038    0.077171180371    -0.030220108316    0.000024443832    0.000003698807
            0.000025293335    0.000003649658    0.061291203356    0.041321743541    0.000024443832    0.000003698807    0.063249959845    0.031912354507
0.300     0.075288038150    -0.044018349887    0.000026009083    0.000001048259    0.069717415556    -0.018342477034    0.000027536753    0.000000953839
            0.000026009083    0.000001048259    0.064933113151    0.029214816067    0.000024491986    0.000001148539    0.065670965081    0.038515169154
            0.069717415556    -0.018342477034    0.000024491986    0.000001148539    0.075407066316    -0.043817792429    0.000026637501    0.000001109795
            0.000027536753    0.000000953839    0.065670965081    0.038515169154    0.000026637501    0.000001109795    0.064996231500    0.030329022549
0.325     0.070355089016    -0.057677810263    0.000027876585    -0.000001900750    0.068477149625    -0.030462508365    0.000029478592    -0.000002175171
            0.000027876585    -0.000001900750    0.065671565342    0.027929439382    0.000026274493    -0.000001618520    0.069050124561    0.035473428661
            0.068477149625    -0.030462508365    0.000026274493    -0.000001618520    0.070642876486    -0.057471825326    0.000028542724    -0.000001901121
            0.000029478592    -0.000002175171    0.069050124561    0.035473428661    0.000028542724    -0.000001901121    0.065952969639    0.029128129846
0.350     0.062380670012    -0.070693664716    0.000029410813    -0.000005243543    0.064532668291    -0.042593504350    0.000031063252    -0.000005712679
            0.000029410813    -0.000005243543    0.065799310101    0.027325135522    0.000027745161    -0.000004759475    0.071485626459    0.032496346854
            0.064532668291    -0.042593504350    0.000027745161    -0.000004759475    0.062859997318    -0.070518633056    0.000030105167    -0.000005310254
            0.000031063252    -0.000005712679    0.071485626459    0.032496346854    0.000030105167    -0.000005310254    0.066323743536    0.028557727197
0.375     0.051494308355    -0.082396131909    0.000030552000    -0.000008956706    0.057878794544    -0.054144918258    0.000032229389    -0.000009631892
            0.000030552000    -0.000008956706    0.065595074330    0.027583335641    0.000028847278    -0.000008252670    0.073109291658    0.029848615648
            0.057878794544    -0.054144918258    0.000028847278    -0.000008252670    0.052179576744    -0.082295566127    0.000031265181    -0.000009091897
            0.000032229389    -0.000009631892    0.073109291658    0.029848615648    0.000031265181    -0.000009091897    0.066373579264    0.028792890417
0.400     0.037973546720    -0.092155039048    0.000031234600    -0.000013009570    0.048639288871    -0.064535848129    0.000032910751    -0.000013898861
            0.000031234600    -0.000013009570    0.065384399975    0.028806531600    0.000029518622    -0.000012069681    0.074126633136    0.027750460830
            0.048639288871    -0.064535848129    0.000029518622    -0.000012069681    0.038869089069    -0.092177151702    0.000031958231    -0.000013213393
            0.000032910751    -0.000013898861    0.074126633136    0.027750460830    0.000031958231    -0.000013213393    0.066413449996    0.029933635791
0.425     0.022228033063    -0.099403051815    0.000031385697    -0.000017360607    0.037060005318    -0.073212261708    0.000033034019    -0.000018469085
            0.000031385697    -0.000017360607    0.065513079516    0.030997071467    0.000029689559    -0.000016171985    0.074793579946    0.026349206149
            0.037060005318    -0.073212261708    0.000029689559    -0.000016171985    0.023326179935    -0.099598882747    0.000032113116    -0.000017631872
            0.000033034019    -0.000018469085    0.074793579946    0.026349206149    0.000032113116    -0.000017631872    0.066774130220    0.031984063496
0.450     0.004786211778    -0.103670505007    0.000030928481    -0.000021954872    0.023503844425    -0.079682854029    0.000032522198    -0.000023283910
            0.000030928481    -0.000021954872    0.066327017486    0.034062507031    0.000029286974    -0.000020508906    0.075405421159    0.025716146796
            0.023503844425    -0.079682854029    0.000029286974    -0.000020508906    0.006066606972    -0.104090492737    0.000031655580    -0.000022291338
            0.000032522198    -0.000023283910    0.075405421159    0.025716146796    0.000031655580    -0.000022291338    0.067787283044    0.034857527511
0.475     -0.013727350215    -0.104602017080    0.000029796642    -0.000026722551    0.008435668820    -0.083533153743    0.000031307880    -0.000028269164
            0.000029796642    -0.000026722551    0.068139373145    0.037808775595    0.000028249010    -0.000025015148    0.076265185531    0.025827834991
            0.008435668820    -0.083533153743    0.000028249010    -0.000025015148    -0.012298370046    -0.105294308470    0.000030520440    -0.000027120072
            0.000031307880    -0.000028269164    0.076265185531    0.025827834991    0.000030520440    -0.000027120072    0.069754827574    0.038369503761
0.500     -0.032619488302    -0.101981161578    0.000027935981    -0.000031546731    -0.007597459945    -0.084456649499    0.000029334362    -0.000033307279
            0.000027935981    -0.000031546731    0.071211622099    0.041957333470    0.000026524625    -0.000029579544    0.077668007151    0.026572913889
            -0.007597459945    -0.084456649499    0.000026524625    -0.000029579544    -0.031089024650    -0.102989162424    0.000028652993    -0.000032005770
            0.000029334362    -0.000033307279    0.077668007151    0.026572913889    0.000028652993    -0.000032005770    0.072931456675    0.042251238434
0.525     -0.051158880037    -0.095736811947    0.000025281039    -0.000036298698    -0.023987745124    -0.082259959629    0.000026538452    -0.000038266983
            0.000025281039    -0.000036298698    0.075723168083    0.046154257814    0.000024050205    -0.000034079302    0.079862093580    0.027745462892
            -0.023987745124    -0.082259959629    0.000024050205    -0.000034079302    -0.049584509350    -0.097098424203    0.000025992254    -0.000036821788
            0.000026538452    -0.000038266983    0.079862093580    0.027745462892    0.000025992254    -0.000036821788    0.077489589678    0.046152781380
0.550     -0.068614751376    -0.085954429788    0.000021803888    -0.000040842099    -0.040100310425    -0.076884682854    0.000022893521    -0.000043007181
            0.000021803888    -0.000040842099    0.081761521201    0.050000378062    0.000020798627    -0.000038387491    0.083024474152    0.029074477549
            -0.040100310425    -0.076884682854    0.000020798627    -0.000038387491    -0.067060182659    -0.087699688837    0.000022512720    -0.000041433287
            0.000022893521    -0.000043007181    0.083024474152    0.029074477549    0.000022512720    -0.000041433287    0.083490405757    0.049678660819
0.575     -0.084286897418    -0.072874314326    0.000017511056    -0.000045025318    -0.055296363522    -0.068403877621    0.000018407736    -0.000047374299
            0.000017511056    -0.000045025318    0.089301995183    0.053072517771    0.000016777178    -0.000042359703    0.087245439605    0.030261445651
            -0.055296363522    -0.068403877621    0.000016777178    -0.000042359703    -0.082816403085    -0.075020798572    0.000018222852    -0.000045691570
            0.000018407736    -0.000047374299    0.087245439605    0.030261445651    0.000018222852    -0.000045691570    0.090884227269    0.052451777832
0.600     -0.097540551614    -0.056886341109    0.000012442915    -0.000048691381    -0.068969689520    -0.057029525107    0.000013120590    -0.000051209677
            0.000012442915    -0.000048691381    0.098210062297    0.054955277550    0.000012022973    -0.000045845893    0.092561170817    0.030981075917
            -0.068969689520    -0.057029525107    0.000012022973    -0.000045845893    -0.096216548461    -0.059432856891    0.000013159059    -0.000049442427
            0.000013120590    -0.000051209677    0.092561170817    0.030981075917    0.000013159059    -0.000049442427    0.099569240932    0.054099566925
0.625     -0.107826361402    -0.038509618372    0.000006678739    -0.000051685877    -0.080563136382    -0.043095434326    0.000007110808    -0.000054355356
            0.000006678739    -0.000051685877    0.108236199244    0.055268917395    0.000006609284    -0.000048699905    0.098897573245    0.030878999540
            -0.080563136382    -0.043095434326    0.000006609284    -0.000048699905    -0.106712632750    -0.041433704859    0.000007394390    -0.000052533622
            0.000007110808    -0.000054355356    0.098897573245    0.030878999540    0.000007394390    -0.000052533622    0.109328557859    0.054244791771
0.650     -0.114712675553    -0.018364096052    0.000000334162    -0.000053870670    -0.089604128284    -0.027044822346    0.000000494832    -0.000056668350
            0.000000334162    -0.000053870670    0.119041626344    0.053699155857    0.000000643897    -0.000050791189    0.106083497985    0.029632048153
            -0.089604128284    -0.027044822346    0.000000643897    -0.000050791189    -0.113872820952    -0.021626658068    0.000001038892    -0.000054828166
            0.000000494832    -0.000056668350    0.106083497985    0.029632048153    0.000001038892    -0.000054828166    0.119838779141    0.052575461383
0.675     -0.117901889644    0.002856587462    -0.000006444585    -0.000055132646    -0.095714747299    -0.009405742953    -0.000006579060    -0.000058031878
            -0.000006444585    -0.000055132646    0.130209144865    0.050018471261    -0.000005735114    -0.000052013765    0.113857393742    0.026969202294
            -0.095714747299    -0.009405742953    -0.000005735114    -0.000052013765    -0.117396007480    -0.000692511092    -0.000005766393    -0.000056214004
            -0.000006579060    -0.000058031878    0.113857393742    0.026969202294    -0.000005766393    -0.000056214004    0.130696931555    0.048869212548
0.700     -0.117247829833    0.024418221013    -0.000013488429    -0.000055393100    -0.098639520134    0.009233170645    -0.000013939347    -0.000058363119
            -0.000013488429    -0.000055393100    0.141277271881    0.044103114304    -0.000012367917    -0.000052293348    0.121902514918    0.022691603487
            -0.098639520134    0.009233170645    -0.000012367917    -0.000052293348    -0.117127605797    0.020644705306    -0.000012857483    -0.000056611311
            -0.000013939347    -0.000058363119    0.121902514918    0.022691603487    -0.000012857483    -0.000056611311    0.141458296096    0.043005793062
0.725     -0.112756511307    0.045575497749    -0.000020614529    -0.000054612470    -0.098240868891    0.028247436620    -0.000021400393    -0.000057618647
            -0.000020614529    -0.000054612470    0.151758567902    0.035940552206    -0.000019081283    -0.000051592737    0.129850396205    0.016680769865
            -0.098240868891    0.028247436620    -0.000019081283    -0.000051592737    -0.113061245503    0.041647802062    -0.000020056409    -0.000055977201
            -0.000021400393    -0.000057618647    0.129850396205    0.016680769865    -0.000020056409    -0.000055977201    0.151653097079    0.034970926822
0.750     -0.104584521684    0.065607832567    -0.000027637577    -0.000052791572    -0.094514271435    0.047008143252    -0.000028772793    -0.000055795739
            -0.000027637577    -0.000052791572    0.161175018117    0.025628007782    -0.000025700141    -0.000049912448    0.137318368548    0.008906744139
            -0.094514271435    0.047008143252    -0.000025700141    -0.000049912448    -0.105339125296    0.061601664324    -0.000027181896    -0.000054307671
            -0.000028772793    -0.000055795739    0.137318368548    0.008906744139    -0.000027181896    -0.000054307671    0.160820698457    0.024857640777
0.775     -0.093026762906    0.083844793153    -0.000034378952    -0.000049971128    -0.087572245297    0.064901177907    -0.000035873695    -0.000052932057
            -0.000034378952    -0.000049971128    0.169075393470    0.013368980388    -0.000032055660    -0.000047290983    0.143913860074    -0.000572803390
            -0.087572245297    0.064901177907    -0.000032055660    -0.000047290983    -0.094240580040    0.079839740829    -0.000034058673    -0.000051636881
            -0.000035873695    -0.000052932057    0.143913860074    -0.000572803390    -0.000034058673    -0.000051636881    0.168526162672    0.012859409525
