# GHz S RI R 45
0.000     0.013290891854    0.001703103848    0.000000204274    0.000000411743    0.000679448902    0.001490382349    0.000000218977    0.000000430237
            0.000000204274    0.000000411743    0.012219423400    0.001861957483    0.000000213105    0.000000426351    0.000625522419    0.001662521780
            0.000679449032    0.001490382290    0.000000213105    0.000000426351    0.013234610500    0.001692178622    0.000000228571    0.000000446207
            0.000000218977    0.000000430237    0.000625522628    0.001662521808    0.000000228571    0.000000446207    0.012149829135    0.001873965064
0.025     0.017157531994    0.011474262807    0.000000375894    0.000000911495    0.001947206213    0.010178884572    0.000000398567    0.000000952144
            0.000000375894    0.000000911493    0.015367370360    0.010526979167    0.000000390439    0.000000944762    0.001616362609    0.009372185291
            0.001945822086    0.010178898802    0.000000390440    0.000000944761    0.017081896344    0.011396966840    0.000000414381    0.000000988567
            0.000000398568    0.000000952143    0.001616616512    0.009371611485    0.000000414381    0.000000988569    0.015298345405    0.010506299828
0.050     0.022238354804    0.019374305257    0.000000701314    0.000001634413    0.005565373100    0.019520019562    0.000000738481    0.000001707610
            0.000000701314    0.000001634413    0.019479590360    0.018022204568    0.000000727010    0.000001694887    0.004451437574    0.018149569524
            0.005565383249    0.019519927241    0.000000727010    0.000001694887    0.022104270862    0.019232450865    0.000000766351    0.000001773918
            0.000000738481    0.000001707610    0.004451532220    0.018149563814    0.000000766351    0.000001773918    0.019363397379    0.017989283309
0.075     0.028368601849    0.025518940409    0.000001104567    0.000002257061    0.011082772544    0.027522475011    0.000001160100    0.000002358527
            0.000001104567    0.000002257061    0.024363009855    0.024248340341    0.000001144075    0.000002341541    0.008823117938    0.026013192612
            0.011082776707    0.027522470100    0.000001144075    0.000002341541    0.028155742195    0.025341985635    0.000001202908    0.000002451316
            0.000001160100    0.000002358527    0.008823113397    0.026013194152    0.000001202908    0.000002451316    0.024190263887    0.024229299868
0.100     0.035308358069    0.029751571076    0.000001575943    0.000002790870    0.018026824599    0.033814955910    0.000001653332    0.000002917009
            0.000001575943    0.000002790870    0.029937616281    0.029158187514    0.000001631973    0.000002896927    0.014438917631    0.032715358557
            0.018026847138    0.033814948428    0.000001631973    0.000002896927    0.035001666786    0.029573490414    0.000001714049    0.000003033706
            0.000001653332    0.000002917009    0.014438891867    0.032715366648    0.000001714049    0.000003033706    0.029699012081    0.029179672966
0.125     0.042418757293    0.031871552060    0.000002099610    0.000003235048    0.025884632692    0.038176701649    0.000002202024    0.000003382128
            0.000002099610    0.000003235048    0.035786832712    0.032597302195    0.000002174788    0.000003360067    0.021004183912    0.038098097004
            0.025884632587    0.038176702929    0.000002174788    0.000003360067    0.042021499862    0.031740151900    0.000002283553    0.000003519945
            0.000002202024    0.000003382128    0.021004183912    0.038098097004    0.000002283553    0.000003519945    0.035486503045    0.032697677106
0.150     0.049343546913    0.032119014275    0.000002657742    0.000003595133    0.034092233684    0.040469849130    0.000002787716    0.000003759311
            0.000002657742    0.000003595133    0.041807224349    0.034763180947    0.000002754286    0.000003736345    0.028163048311    0.042000896060
            0.034092233684    0.040469849130    0.000002754286    0.000003736345    0.048867366340    0.032054529656    0.000002892557    0.000003915311
            0.000002787716    0.000003759311    0.028163048311    0.042000896060    0.000002892557    0.000003915311    0.041448767236    0.034967479069
0.175     0.055486085547    0.030603809981    0.000003236770    0.000003879330    0.042082575118    0.040746606624    0.000003396367    0.000004056823
            0.000003236770    0.000003879330    0.047608689152    0.035655687964    0.000003356607    0.000004033897    0.035559165298    0.044401296777
            0.042082575118    0.040746606624    0.000003356607    0.000004033897    0.054952402376    0.030636458782    0.000003526684    0.000004227960
            0.000003396367    0.000004056823    0.035559165298    0.044401296777    0.000003526684    0.000004227960    0.047214794320    0.035993991988
0.200     0.060347332788    0.027672680002    0.000003827914    0.000004100309    0.049333729074    0.039213116895    0.000004018790    0.000004287522
            0.000003827914    0.000004100309    0.052862593594    0.035442249499    0.000003972642    0.000004265424    0.042851550521    0.045363188498
            0.049333729074    0.039213116895    0.000003972642    0.000004265424    0.059787928083    0.027826743172    0.000004176481    0.000004470744
            0.000004018790    0.000004287522    0.042851550521    0.045363188498    0.000004176481    0.000004470744    0.052468687895    0.035938207839
0.225     0.063571153369    0.023804193493    0.000004428194    0.000004269433    0.055404380921    0.036201552491    0.000004651774    0.000004462826
            0.000004428194    0.000004269433    0.057326878949    0.034370394739    0.000004599155    0.000004442202    0.049730968728    0.045022543297
            0.055404380921    0.036201552491    0.000004599155    0.000004442202    0.063026460936    0.024092810563    0.000004838413    0.000004654979
            0.000004651774    0.000004462826    0.049730968728    0.045022543297    0.000004838413    0.000004654979    0.056976811443    0.035036329162
0.250     0.064959853847    0.019574869728    0.000005040048    0.000004398000    0.059965569051    0.032153844874    0.000005297594    0.000004594189
            0.000005040048    0.000004398000    0.060847676955    0.032754052246    0.000005238367    0.000004575597    0.055941018970    0.043589489056
            0.059965569051    0.032153844874    0.000005238367    0.000004575597    0.064474501869    0.019997038480    0.000005514523    0.000004792116
            0.000005297594    0.000004594189    0.055941018970    0.043589489056    0.000005514523    0.000004792116    0.060589092553    0.033589029279
0.275     0.064491726950    0.015588433519    0.000005670264    0.000004492955    0.062821572279    0.027581018583    0.000005962974    0.000004688551
            0.000005670264    0.000004492955    0.063369456954    0.030923348868    0.000005896861    0.000004672488    0.061291203356    0.041321743541
            0.062821572279    0.027581018583    0.000005896861    0.000004672488    0.064110241617    0.016128264545    0.000006211296    0.000004889045
            0.000005962974    0.000004688551    0.061291203356    0.041321743541    0.000006211296    0.000004889045    0.063249959845    0.031912354507
0.300     0.062320826576    0.012445427339    0.000006329351    0.000004557955    0.063928576928    0.023034946793    0.000006658424    0.000004749503
            0.000006329351    0.000004557955    0.064933113151    0.029214816067    0.000006584961    0.000004736536    0.065670965081    0.038515169154
            0.063928576928    0.023034946793    0.000006584961    0.000004736536    0.062082970824    0.013072306798    0.000006939022    0.000004949286
            0.000006658424    0.000004749503    0.065670965081    0.038515169154    0.000006939022    0.000004949286    0.064996231500    0.030329022549
0.325     0.058770818606    0.010680448813    0.000007029172    0.000004590208    0.063398951256    0.019060944976    0.000007395835    0.000004774001
            0.000007029172    0.000004590208    0.065671565342    0.027929439382    0.000007314361    0.000004764888    0.069050124561    0.035473428661
            0.063398951256    0.019060944976    0.000007314361    0.000004764888    0.058707216474    0.011350773584    0.000007709360    0.000004969736
            0.000007395835    0.000004774001    0.069050124561    0.035473428661    0.000007709360    0.000004969736    0.065952969639    0.029128129846
0.350     0.054316318750    0.010732224310    0.000007782363    0.000004581812    0.061503667866    0.016162929363    0.000008187765    0.000004753833
            0.000007782363    0.000004581812    0.065799310101    0.027325135522    0.000008097523    0.000004749609    0.071485626459    0.032496346854
            0.061503667866    0.016162929363    0.000008097523    0.000004749609    0.054444221547    0.011392318370    0.000008534654    0.000004942096
            0.000008187765    0.000004753833    0.071485626459    0.032496346854    0.000008534654    0.000004942096    0.066323743536    0.028557727197
0.375     0.049552692127    0.012890967497    0.000008599027    0.000004517826    0.058653916842    0.014750978951    0.000009044307    0.000004673498
            0.000008599027    0.000004517826    0.065595074330    0.027583335641    0.000008944370    0.000004675582    0.073109291658    0.029848615648
            0.058653916842    0.014750978951    0.000008944370    0.000004675582    0.049873294594    0.013480672388    0.000009424766    0.000004850812
            0.000009044307    0.000004673498    0.073109291658    0.029848615648    0.000009424766    0.000004850812    0.066373579264    0.028792890417
0.400     0.045158692614    0.017276499935    0.000009486147    0.000004378101    0.055381540844    0.015110185177    0.000009971927    0.000004512268
            0.000009486147    0.000004378101    0.065384399975    0.028806531600    0.000009861704    0.000004522634    0.074126633136    0.027750460830
            0.055381540844    0.015110185177    0.000009861704    0.000004522634    0.045655164058    0.017734472245    0.000010385881    0.000004674992
            0.000009971927    0.000004512268    0.074126633136    0.027750460830    0.000010385881    0.000004674992    0.066413449996    0.029933635791
0.425     0.041843154936    0.023804794365    0.000010443791    0.000004136833    0.052293699463    0.017356036169    0.000010970321    0.000004243716
            0.000010443791    0.000004136833    0.065513079516    0.030997071467    0.000010849335    0.000004264792    0.074793579946    0.026349206149
            0.052293699463    0.017356036169    0.000010849335    0.000004264792    0.042480387759    0.024073289104    0.000011417361    0.000004388127
            0.000010970321    0.000004243716    0.074793579946    0.026349206149    0.000011417361    0.000004388127    0.066774130220    0.031984063496
0.450     0.040291412895    0.032188628279    0.000011464780    0.000003765552    0.050029374556    0.021421532436    0.000012031246    0.000003838761
            0.000011464780    0.000003765552    0.066327017486    0.034062507031    0.000011899713    0.000003873456    0.075405421159    0.025716146796
            0.050029374556    0.021421532436    0.000011899713    0.000003873456    0.041018396198    0.032218453939    0.000012510709    0.000003961061
            0.000012031246    0.000003838761    0.075405421159    0.025716146796    0.000012510709    0.000003961061    0.067787283044    0.034857527511
0.475     0.041097577783    0.041939424723    0.000012531222    0.000003234543    0.049192985571    0.027041560428    0.000013136038    0.000003267350
            0.000012531222    0.000003234543    0.068139373145    0.037808775595    0.000012994504    0.000003318855    0.076265185531    0.025827834991
            0.049192985571    0.027041560428    0.000012994504    0.000003318855    0.041851454908    0.041691659810    0.000013646672    0.000003363691
            0.000013136038    0.000003267350    0.076265185531    0.025827834991    0.000013646672    0.000003363691    0.069754827574    0.038369503761
0.500     0.044705590589    0.052411936408    0.000013615954    0.000002517195    0.050299728232    0.033781339083    0.000014256106    0.000002502597
            0.000013615954    0.000002517195    0.071211622099    0.041957333470    0.000014105987    0.000002574226    0.077668007151    0.026572913889
            0.050299728232    0.033781339083    0.000014105987    0.000002574226    0.045424415887    0.051849486128    0.000014795984    0.000002569056
            0.000014256106    0.000002502597    0.077668007151    0.026572913889    0.000014795984    0.000002569056    0.072931456675    0.042251238434
0.525     0.051283640020    0.062918242356    0.000014682961    0.000001593857    0.053675809872    0.041103656536    0.000015354133    0.000001525140
            0.000014682961    0.000001593857    0.075723168083    0.046154257814    0.000015195781    0.000001619138    0.079862093580    0.027745462892
            0.053675809872    0.041103656536    0.000015195781    0.000001619138    0.051991751207    0.061924253126    0.000015918982    0.000001556995
            0.000015354133    0.000001525140    0.079862093580    0.027745462892    0.000015918982    0.000001556995    0.077489589678    0.046152781380
0.550     0.060844343906    0.071380556391    0.000015659993    0.000000464658    0.059460750274    0.047622041205    0.000016355307    0.000000336580
            0.000015659993    0.000000464658    0.081761521201    0.050000378062    0.000016208518    0.000000448187    0.083024474152    0.029074477549
            0.059460750274    0.047622041205    0.000016208518    0.000000448187    0.061540786739    0.071094765951    0.000016958455    0.000000323298
            0.000016355307    0.000000336580    0.083024474152    0.029074477549    0.000016958455    0.000000323298    0.083490405757    0.049678660819
0.575     0.073794018632    0.079299921994    0.000016540647    -0.000000900244    0.068079306694    0.053904485084    0.000017254422    -0.000001093348
            0.000016540647    -0.000000900244    0.089301995183    0.053072517771    0.000017106531    -0.000000949416    0.087245439605    0.030261445651
            0.068079306694    0.053904485084    0.000017106531    -0.000000949416    0.073963868055    0.078487262994    0.000017876716    -0.000001142227
            0.000017254422    -0.000001093348    0.087245439605    0.030261445651    0.000017876716    -0.000001142227    0.090884227269    0.052451777832
0.600     0.088842181830    0.084374711456    0.000017246232    -0.000002452630    0.078774904202    0.058343702038    0.000017971164    -0.000002714355
            0.000017246232    -0.000002452630    0.098210062297    0.054955277550    0.000017826927    -0.000002543804    0.092561170817    0.030981075917
            0.078774904202    0.058343702038    0.000017826927    -0.000002543804    0.088799269908    0.083282440692    0.000018609782    -0.000002808511
            0.000017971164    -0.000002714355    0.092561170817    0.030981075917    0.000018609782    -0.000002808511    0.099569240932    0.054099566925
0.625     0.105637570245    0.086235721792    0.000017733484    -0.000004164982    0.091081127771    0.060520627690    0.000018461516    -0.000004498450
            0.000017733484    -0.000004164982    0.108236199244    0.055268917395    0.000018326999    -0.000004296431    0.098897573245    0.030878999540
            0.091081127771    0.060520627690    0.000018326999    -0.000004296431    0.105045529408    0.084951104756    0.000019114494    -0.000004636053
            0.000018461516    -0.000004498450    0.098897573245    0.030878999540    0.000019114494    -0.000004636053    0.109328557859    0.054244791771
0.650     0.123411855345    0.084463160873    0.000017965286    -0.000005997205    0.104704339675    0.060117593066    0.000018687866    -0.000006404230
            0.000017965286    -0.000005997205    0.119041626344    0.053699155857    0.000018571427    -0.000006175030    0.106083497985    0.029632048153
            0.104704339675    0.060117593066    0.000018571427    -0.000006175031    0.122386201027    0.083348150862    0.000019354777    -0.000006591697
            0.000018687866    -0.000006404230    0.106083497985    0.029632048153    0.000019354777    -0.000006591697    0.119838779141    0.052575461383
0.675     0.141281388580    0.078862812426    0.000017913566    -0.000007891389    0.118926316359    0.056670868818    0.000018621710    -0.000008372489
            0.000017913566    -0.000007891389    0.130209144865    0.050018471261    0.000018526620    -0.000008119105    0.113857393742    0.026969202294
            0.118926316359    0.056670868818    0.000018526620    -0.000008119105    0.139923784090    0.077969846850    0.000019296894    -0.000008613463
            0.000018621710    -0.000008372489    0.113857393742    0.026969202294    0.000019296894    -0.000008613463    0.130696931555    0.048869212548
0.700     0.158365181786    0.069453816527    0.000017569151    -0.000009786330    0.132996701894    0.050077231293    0.000018254258    -0.000010340594
            0.000017569151    -0.000009786330    0.141277271881    0.044103114304    0.000018183927    -0.000010065940    0.121902514918    0.022691603487
            0.132996701894    0.050077231293    0.000018183927    -0.000010065940    0.156731359459    0.068846012891    0.000018932222    -0.000010637279
            0.000018254258    -0.000010340594    0.121902514918    0.022691603487    0.000018932222    -0.000010637279    0.141458296096    0.043005793062
0.725     0.173815630799    0.056461720550    0.000016937780    -0.000011619717    0.146191640607    0.040396510394    0.000017591252    -0.000012245179
            0.000016937780    -0.000011619717    0.151758567902    0.035940552206    0.000017548773    -0.000011952640    0.129850396205    0.016680769865
            0.146191640607    0.040396510394    0.000017548773    -0.000011952640    0.171974118154    0.056199677030    0.000018266339    -0.000012599095
            0.000017591252    -0.000012245179    0.129850396205    0.016680769865    0.000018266339    -0.000012599095    0.151653097079    0.034970926822
0.750     0.186876686582    0.040293167764    0.000016041019    -0.000013334224    0.157839500836    0.027845528258    0.000016655061    -0.000014027750
            0.000016041019    -0.000013334224    0.161175018117    0.025628007782    0.000016642648    -0.000013721161    0.137318368548    0.008906744139
            0.157839500836    0.027845528258    0.000016642648    -0.000013721161    0.184909334275    0.040423831140    0.000017321453    -0.000014439841
            0.000016655061    -0.000014027750    0.137318368548    0.008906744139    0.000017321453    -0.000014439841    0.160820698457    0.024857640777
0.775     0.196908325803    0.021505825028    0.000014913074    -0.000014879245    0.167334088024    0.012775281145    0.000015480139    -0.000015636798
            0.000014913074    -0.000014879245    0.169075393470    0.013368980388    0.000015499396    -0.000015320152    0.143913860074    -0.000572803390
            0.167334088024    0.012775281145    0.000015499396    -0.000015320152    0.194908355325    0.022056678133    0.000016131737    -0.000016107112
            0.000015480139    -0.000015636798    0.143913860074    -0.000572803390    0.000016131737    -0.000016107112    0.168526162672    0.012859409525
0.800     0.203416888512    0.000768450690    0.000013598918    -0.000016215828    0.174169548427    -0.004349518298    0.000014112297    -0.000017032500
            0.000013598918    -0.000016215828    0.175064542209    -0.000541604881    0.000014164063    -0.000016709874    0.149270767535    -0.011615173223
