# GHz S RI R 45
0.000     0.012809974167    0.001507561827    0.000000039922    -0.000000031770    0.000695034361    0.001406223179    0.000000081661    0.000000033125
            0.000000039922    -0.000000031770    0.012219423400    0.001861957483    0.000000059819    -0.000000009439    0.000625522419    0.001662521780
            0.000695034071    0.001406223210    0.000000059819    -0.000000009439    0.012749302261    0.001517561661    0.000000109762    0.000000065982
            0.000000081661    0.000000033125    0.000625522628    0.001662521808    0.000000109762    0.000000065982    0.012149829135    0.001873965064
0.025     0.016073069792    0.010298066142    0.000000054150    -0.000000075282    0.001726846339    0.009364794454    0.000000126462    0.000000067489
            0.000000054150    -0.000000075282    0.015367370360    0.010526979167    0.000000086430    -0.000000025312    0.001616362609    0.009372185291
            0.001729210360    0.009363186746    0.000000086430    -0.000000025312    0.016014438243    0.010337398813    0.000000173041    0.000000140536
            0.000000126462    0.000000067489    0.001616616512    0.009371611485    0.000000173041    0.000000140536    0.015298345405    0.010506299828
0.050     0.020311583496    0.017604451784    0.000000064446    -0.000000169277    0.004774221888    0.018120814959    0.000000192903    0.000000078892
            0.000000064446    -0.000000169277    0.019479590360    0.018022204568    0.000000119253    -0.000000085617    0.004451437574    0.018149569524
            0.004774350390    0.018120875208    0.000000119253    -0.000000085617    0.020254978217    0.017683417417    0.000000269771    0.000000203000
            0.000000192903    0.000000078892    0.004451532220    0.018149563814    0.000000269771    0.000000203000    0.019363397379    0.017989283309
0.075     0.025461461381    0.023518532389    0.000000066877    -0.000000269907    0.009499291304    0.025815365926    0.000000256587    0.000000068210
            0.000000066877    -0.000000269907    0.024363009855    0.024248340341    0.000000144894    -0.000000158617    0.008823117938    0.026013192612
            0.009499290673    0.025815372552    0.000000144894    -0.000000158617    0.025411970131    0.023642010282    0.000000365622    0.000000234538
            0.000000256587    0.000000068210    0.008823113397    0.026013194152    0.000000365622    0.000000234538    0.024190263887    0.024229299868
0.100     0.031359479598    0.027914092425    0.000000061603    -0.000000375444    0.015531941791    0.032137632399    0.000000321901    0.000000041043
            0.000000061603    -0.000000375444    0.029937616281    0.029158187514    0.000000165273    -0.000000241314    0.014438917631    0.032715358557
            0.015531919297    0.032137638828    0.000000165273    -0.000000241314    0.031322481805    0.028083926599    0.000000467093    0.000000243940
            0.000000321901    0.000000041043    0.014438891867    0.032715366648    0.000000467093    0.000000243940    0.029699012081    0.029179672966
0.125     0.037483636375    0.030606725879    0.000000048912    -0.000000485723    0.022481777209    0.036895656974    0.000000388122    -0.000000002162
            0.000000048912    -0.000000485723    0.035786832712    0.032597302195    0.000000180949    -0.000000333182    0.021004183912    0.038098097004
            0.022481777209    0.036895656974    0.000000180949    -0.000000333182    0.037478282900    0.030829769159    0.000000573258    0.000000231165
            0.000000388122    -0.000000002162    0.021004183912    0.038098097004    0.000000573258    0.000000231165    0.035486503045    0.032697677106
0.150     0.043641905716    0.031779078587    0.000000027394    -0.000000599050    0.029913095517    0.039937805370    0.000000452205    -0.000000059690
            0.000000027394    -0.000000599050    0.041807224349    0.034763180947    0.000000189349    -0.000000432429    0.028163048311    0.042000896060
            0.029913095517    0.039937805370    0.000000189349    -0.000000432429    0.043668755945    0.032043517152    0.000000680544    0.000000198617
            0.000000452205    -0.000000059690    0.028163048311    0.042000896060    0.000000680544    0.000000198617    0.041448767236    0.034967479069
0.175     0.049343971014    0.031478624628    -0.000000002834    -0.000000715276    0.037376402476    0.041263263781    0.000000513738    -0.000000130502
            -0.000000002834    -0.000000715276    0.047608689152    0.035655687964    0.000000190707    -0.000000538653    0.035559165298    0.044401296777
            0.037376402476    0.041263263781    0.000000190707    -0.000000538653    0.049408481552    0.031778836773    0.000000787893    0.000000147199
            0.000000513738    -0.000000130502    0.035559165298    0.044401296777    0.000000787893    0.000000147199    0.047214794320    0.035993991988
0.200     0.054179603689    0.029940182526    -0.000000041925    -0.000000833428    0.044446721496    0.040990805625    0.000000571118    -0.000000213909
            -0.000000041925    -0.000000833428    0.052862593594    0.035442249499    0.000000184060    -0.000000650730    0.042851550521    0.045363188498
            0.044446721496    0.040990805625    0.000000184060    -0.000000650730    0.054288850729    0.030270457620    0.000000893617    0.000000077806
            0.000000571118    -0.000000213909    0.042851550521    0.045363188498    0.000000893617    0.000000077806    0.052468687895    0.035938207839
0.225     0.057846971569    0.027501458484    -0.000000089905    -0.000000953965    0.050751040633    0.039337833869    0.000000624408    -0.000000309325
            -0.000000089905    -0.000000953965    0.057326878949    0.034370394739    0.000000169510    -0.000000768921    0.049730968728    0.045022543297
            0.050751040633    0.039337833869    0.000000169510    -0.000000768921    0.058008180009    0.027854012482    0.000000997114    -0.000000008922
            0.000000624408    -0.000000309325    0.049730968728    0.045022543297    0.000000997114    -0.000000008922    0.056976811443    0.035036329162
0.250     0.060158623750    0.024582552497    -0.000000146824    -0.000001076491    0.055993209313    0.036612614937    0.000000672481    -0.000000416538
            -0.000000146824    -0.000001076491    0.060847676955    0.032754052246    0.000000146459    -0.000000892586    0.055941018970    0.043589489056
            0.055993209313    0.036612614937    0.000000146459    -0.000000892586    0.060377188103    0.024946732740    0.000001097306    -0.000000112748
            0.000000672481    -0.000000416538    0.055941018970    0.043589489056    0.000001097306    -0.000000112748    0.060589092553    0.033589029279
0.275     0.061056115400    0.021630734968    -0.000000213232    -0.000001202103    0.059970125110    0.033182918819    0.000000715723    -0.000000535992
            -0.000000213232    -0.000001202103    0.063369456954    0.030923348868    0.000000114665    -0.000001022761    0.061291203356    0.041321743541
            0.059970125110    0.033182918819    0.000000114665    -0.000001022761    0.061334828653    0.021993833957    0.000001194146    -0.000000234005
            0.000000715723    -0.000000535992    0.061291203356    0.041321743541    0.000001194146    -0.000000234005    0.063249959845    0.031912354507
0.300     0.060609513796    0.019101320206    -0.000000289755    -0.000001330921    0.062587308564    0.029459010740    0.000000752878    -0.000000668448
            -0.000000289755    -0.000001330921    0.064933113151    0.029214816067    0.000000073175    -0.000001159453    0.065670965081    0.038515169154
            0.062587308564    0.029459010740    0.000000073175    -0.000001159453    0.060947309335    0.019448845354    0.000001286486    -0.000000373764
            0.000000752878    -0.000000668448    0.065670965081    0.038515169154    0.000001286486    -0.000000373764    0.064996231500    0.030329022549
0.325     0.059014504098    0.017408897783    -0.000000378025    -0.000001464269    0.063862787889    0.025858246396    0.000000783628    -0.000000815548
            -0.000000378025    -0.000001464269    0.065671565342    0.027929439382    0.000000020721    -0.000001304209    0.069050124561    0.035473428661
            0.063862787889    0.025858246396    0.000000020721    -0.000001304209    0.059405918641    0.017726119381    0.000001373713    -0.000000533704
            0.000000783628    -0.000000815548    0.069050124561    0.035473428661    0.000001373713    -0.000000533704    0.065952969639    0.029128129846
0.350     0.056579576166    0.016909602955    -0.000000479809    -0.000001602212    0.063932318725    0.022783245776    0.000000805533    -0.000000978820
            -0.000000479809    -0.000001602212    0.065799310101    0.027325135522    -0.000000044750    -0.000001457226    0.071485626459    0.032496346854
            0.063932318725    0.022783245776    -0.000000044750    -0.000001457226    0.057014616959    0.017182930373    0.000001453327    -0.000000716009
            0.000000805533    -0.000000978820    0.071485626459    0.032496346854    0.000001453327    -0.000000716009    0.066323743536    0.028557727197
0.375     0.053706393004    0.017860643120    -0.000000598147    -0.000001745513    0.063038306601    0.020583205865    0.000000816493    -0.000001160513
            -0.000000598147    -0.000001745513    0.065595074330    0.027583335641    -0.000000126055    -0.000001619797    0.073109291658    0.029848615648
            0.063038306601    0.020583205865    -0.000000126055    -0.000001619797    0.054170570504    0.018078778477    0.000001522851    -0.000000923148
            0.000000816493    -0.000001160513    0.073109291658    0.029848615648    0.000001522851    -0.000000923148    0.066373579264    0.028792890417
0.400     0.050865801154    0.020407974279    -0.000000736067    -0.000001893207    0.061520550713    0.019534384359    0.000000811974    -0.000001361901
            -0.000000736067    -0.000001893207    0.065384399975    0.028806531600    -0.000000226700    -0.000001791292    0.074126633136    0.027750460830
            0.061520550713    0.019534384359    -0.000000226700    -0.000001791292    0.051341098595    0.020563765698    0.000001577304    -0.000001157293
            0.000000811974    -0.000001361901    0.074126633136    0.027750460830    0.000001577304    -0.000001157293    0.066413449996    0.029933635791
0.425     0.048563700432    0.024559453283    -0.000000897868    -0.000002044418    0.059789132418    0.019804416885    0.000000787387    -0.000001584413
            -0.000000897868    -0.000002044418    0.065513079516    0.030997071467    -0.000000351127    -0.000001971585    0.074793579946    0.026349206149
            0.059789132418    0.019804416885    -0.000000351127    -0.000001971585    0.049029853721    0.024650751462    0.000001611449    -0.000001420196
            0.000000787387    -0.000001584413    0.074793579946    0.026349206149    0.000001611449    -0.000001420196    0.066774130220    0.031984063496
0.450     0.047307994797    0.030184794563    -0.000001087468    -0.000002196093    0.058299286462    0.021442674964    0.000000735771    -0.000001827410
            -0.000001087468    -0.000002196093    0.066327017486    0.034062507031    -0.000000504104    -0.000002158023    0.075405421159    0.025716146796
            0.058299286462    0.021442674964    -0.000000504104    -0.000002158023    0.047744768463    0.030214767682    0.000001617301    -0.000001712077
            0.000000735771    -0.000001827410    0.075405421159    0.025716146796    0.000001617301    -0.000001712077    0.067787283044    0.034857527511
0.475     0.047564018696    0.037009985319    -0.000001309501    -0.000002345118    0.057509174853    0.024360516255    0.000000650390    -0.000002089985
            -0.000001309501    -0.000002345118    0.068139373145    0.037808775595    -0.000000690825    -0.000002348125    0.076265185531    0.025827834991
            0.057509174853    0.024360516255    -0.000000690825    -0.000002348125    0.047954696945    0.036985161689    0.000001587125    -0.000002032219
            0.000000650390    -0.000002089985    0.076265185531    0.025827834991    0.000001587125    -0.000002032219    0.069754827574    0.038369503761
0.500     0.049714365528    0.044642183279    -0.000001566506    -0.000002485428    0.057844517053    0.028344628386    0.000000524064    -0.000002367537
            -0.000001566506    -0.000002485428    0.071211622099    0.041957333470    -0.000000915152    -0.000002535886    0.077668007151    0.026572913889
            0.057844517053    0.028344628386    -0.000000915152    -0.000002535886    0.050055434835    0.044563796758    0.000001512112    -0.000002376485
            0.000000524064    -0.000002367537    0.077668007151    0.026572913889    0.000001512112    -0.000002376485    0.072931456675    0.042251238434
0.525     0.053954724439    0.052635223708    -0.000001861868    -0.000002610204    0.059615571967    0.033089883452    0.000000350086    -0.000002653855
            -0.000001861868    -0.000002610204    0.075723168083    0.046154257814    -0.000001181543    -0.000002714502    0.079862093580    0.027745462892
            0.059615571967    0.033089883452    -0.000001181543    -0.000002714502    0.054331455250    0.052444088397    0.000001384013    -0.000002738227
            0.000000350086    -0.000002653855    0.079862093580    0.027745462892    0.000001384013    -0.000002738227    0.077489589678    0.046152781380
0.550     0.060578544313    0.059449971359    -0.000002192662    -0.000002707833    0.063147110877    0.037591162498    0.000000122200    -0.000002935508
            -0.000002192662    -0.000002707833    0.081761521201    0.050000378062    -0.000001490649    -0.000002873810    0.083024474152    0.029074477549
            0.063147110877    0.037591162498    -0.000001490649    -0.000002873810    0.060891192104    0.060044255381    0.000001194937    -0.000003106252
            0.000000122200    -0.000002935508    0.083024474152    0.029074477549    0.000001194937    -0.000003106252    0.083490405757    0.049678660819
0.575     0.069719422932    0.066373321475    -0.000002566324    -0.000002772853    0.068712036026    0.042451965590    -0.000000165320    -0.000003209536
            -0.000002566324    -0.000002772853    0.089301995183    0.053072517771    -0.000001846326    -0.000003005353    0.087245439605    0.030261445651
            0.068712036026    0.042451965590    -0.000001846326    -0.000003005353    0.069800647989    0.066725065913    0.000000938470    -0.000003471778
            -0.000000165320    -0.000003209536    0.087245439605    0.030261445651    0.000000938470    -0.000003471778    0.090884227269    0.052451777832
0.600     0.080742951303    0.071492262280    -0.000002972015    -0.000002794014    0.076009920086    0.046333674857    -0.000000510935    -0.000003457555
            -0.000002972015    -0.000002794014    0.098210062297    0.054955277550    -0.000002242812    -0.000003097500    0.092561170817    0.030981075917
            0.076009920086    0.046333674857    -0.000002242812    -0.000003097500    0.080865168665    0.071821941297    0.000000612961    -0.000003818461
            -0.000000510935    -0.000003457555    0.092561170817    0.030981075917    0.000000612961    -0.000003818461    0.099569240932    0.054099566925
0.625     0.093489088546    0.074498137555    -0.000003404658    -0.000002762701    0.084805742975    0.048867537120    -0.000000912214    -0.000003667597
            -0.000003404658    -0.000002762701    0.108236199244    0.055268917395    -0.000002674643    -0.000003141595    0.098897573245    0.030878999540
            0.084805742975    0.048867537120    -0.000002674643    -0.000003141595    0.093438406896    0.074790377527    0.000000221282    -0.000004132385
            -0.000000912214    -0.000003667597    0.098897573245    0.030878999540    0.000000221282    -0.000004132385    0.109328557859    0.054244791771
0.650     0.107487634583    0.074960836786    -0.000003855172    -0.000002670794    0.094984999752    0.049768303847    -0.000001363489    -0.000003826575
            -0.000003855172    -0.000002670794    0.119041626344    0.053699155857    -0.000003135072    -0.000003127460    0.106083497985    0.029632048153
            0.094984999752    0.049768303847    -0.000003135072    -0.000003127460    0.107348164544    0.075469429025    -0.000000233270    -0.000004399407
            -0.000001363489    -0.000003826575    0.106083497985    0.029632048153    -0.000000233270    -0.000004399407    0.119838779141    0.052575461383
0.675     0.122140029637    0.072581182654    -0.000004312214    -0.000002512994    0.106121273018    0.048543965318    -0.000001854793    -0.000003923649
            -0.000004312214    -0.000002512994    0.130209144865    0.050018471261    -0.000003612472    -0.000003047722    0.113857393742    0.026969202294
            0.106121273018    0.048543965318    -0.000003612472    -0.000003047722    0.122021817844    0.073307876332    -0.000000740947    -0.000004605863
            -0.000001854793    -0.000003923649    0.113857393742    0.026969202294    -0.000000740947    -0.000004605863    0.130696931555    0.048869212548
0.700     0.136803452946    0.067208002014    -0.000004762092    -0.000002286951    0.117692792775    0.044959593353    -0.000002373209    -0.000003949834
            -0.000004762092    -0.000002286951    0.141277271881    0.044103114304    -0.000004093241    -0.000002898175    0.121902514918    0.022691603487
            0.117692792775    0.044959593353    -0.000004093241    -0.000002898175    0.136767260810    0.068147496941    -0.000001289120    -0.000004740709
            -0.000002373209    -0.000003949834    0.121902514918    0.022691603487    -0.000001289120    -0.000004740709    0.141458296096    0.043005793062
0.725     0.150812616816    0.058844322318    -0.000005191932    -0.000001993955    0.129153914867    0.038901672270    -0.000002904313    -0.000003901044
            -0.000005191932    -0.000001993955    0.151758567902    0.035940552206    -0.000004564125    -0.000002678513    0.129850396205    0.016680769865
            0.129153914867    0.038901672270    -0.000004564125    -0.000002678513    0.150915581461    0.059985717037    -0.000001862778    -0.000004797827
            -0.000002904313    -0.000003901044    0.129850396205    0.016680769865    -0.000001862778    -0.000004797827    0.151653097079    0.034970926822
0.750     0.163527462542    0.047643137640    -0.000005588088    -0.000001638472    0.139958307592    0.030383584122    -0.000003432626    -0.000003775794
            -0.000005588088    -0.000001638472    0.161175018117    0.025628007782    -0.000005010848    -0.000002391317    0.137318368548    0.008906744139
            0.139958307592    0.030383584122    -0.000005010848    -0.000002391317    0.163824650645    0.048966274485    -0.000002446016    -0.000004773716
            -0.000003432626    -0.000003775794    0.137318368548    0.008906744139    -0.000002446016    -0.000004773716    0.160820698457    0.024857640777
0.775     0.174358328304    0.033895966054    -0.000005939696    -0.000001228254    0.149571403615    0.019536787952    -0.000003943641    -0.000003577687
            -0.000005939696    -0.000001228254    0.169075393470    0.013368980388    -0.000005421484    -0.000002043050    0.143913860074    -0.000572803390
            0.149571403615    0.019536787952    -0.000005421484    -0.000002043050    0.174901864178    0.035367957371    -0.000003023015    -0.000004670344
            -0.000003943641    -0.000003577687    0.143913860074    -0.000572803390    -0.000003023015    -0.000004670344    0.168526162672    0.012859409525
