# GHz S RI R 45
0.000     0.013125203511    0.001346953591    -0.000000008828    -0.000000085552    0.000705234016    0.001238943811    0.000000010263    -0.000000053177
            -0.000000008828    -0.000000085552    0.012219423400    0.001861957483    -0.000000006169    -0.000000084837    0.000625522419    0.001662521780
            0.000705234066    0.001238943898    -0.000000006169    -0.000000084837    0.013143770886    0.001358873544    0.000000015028    -0.000000050031
            0.000000010263    -0.000000053177    0.000625522628    0.001662521808    0.000000015028    -0.000000050031    0.012149829135    0.001873965064
0.025     0.016500400660    0.010217097258    -0.000000029060    -0.000000196225    0.001756321403    0.009236940418    0.000000006259    -0.000000125220
            -0.000000029060    -0.000000196225    0.015367370360    0.010526979167    -0.000000025021    -0.000000194391    0.001616362609    0.009372185291
            0.001756353290    0.009235218752    -0.000000025021    -0.000000194391    0.016427427873    0.010190097019    0.000000013692    -0.000000117815
            0.000000006259    -0.000000125220    0.001616616512    0.009371611485    0.000000013691    -0.000000117816    0.015298345405    0.010506299828
0.050     0.020844436613    0.017380771947    -0.000000077605    -0.000000369824    0.004879289364    0.017852939746    -0.000000015485    -0.000000247048
            -0.000000077605    -0.000000369824    0.019479590360    0.018022204568    -0.000000071858    -0.000000367872    0.004451437574    0.018149569524
            0.004879345163    0.017852903762    -0.000000071858    -0.000000367872    0.020726833106    0.017368989108    -0.000000004326    -0.000000235548
            -0.000000015485    -0.000000247048    0.004451532220    0.018149563814    -0.000000004326    -0.000000235548    0.019363397379    0.017989283309
0.075     0.026149308787    0.023096300239    -0.000000141409    -0.000000530810    0.009720468891    0.025343358550    -0.000000048907    -0.000000363602
            -0.000000141409    -0.000000530810    0.024363009855    0.024248340341    -0.000000134188    -0.000000529213    0.008823117938    0.026013192612
            0.009720475905    0.025343362286    -0.000000134188    -0.000000529213    0.025978717738    0.023108162018    -0.000000034038    -0.000000348972
            -0.000000048907    -0.000000363602    0.008823113397    0.026013194152    -0.000000034038    -0.000000348972    0.024190263887    0.024229299868
0.100     0.032229509194    0.027192500903    -0.000000219773    -0.000000680765    0.015880807406    0.031377236934    -0.000000092547    -0.000000474652
            -0.000000219773    -0.000000680765    0.029937616281    0.029158187514    -0.000000211086    -0.000000679775    0.014438917631    0.032715358557
            0.015880807406    0.031377236934    -0.000000211086    -0.000000679775    0.031998084087    0.027254780709    -0.000000073683    -0.000000457488
            -0.000000092547    -0.000000474652    0.014438891867    0.032715366648    -0.000000073683    -0.000000457488    0.029699012081    0.029179672966
0.125     0.038594020704    0.029478449894    -0.000000310845    -0.000000819514    0.022934041543    0.035749306359    -0.000000144583    -0.000000579842
            -0.000000310845    -0.000000819514    0.035786832712    0.032597302195    -0.000000300765    -0.000000819347    0.021004183912    0.038098097004
            0.022934040295    0.035749307160    -0.000000300765    -0.000000819347    0.038302669102    0.029618888688    -0.000000121350    -0.000000560841
            -0.000000144583    -0.000000579842    0.021004183912    0.038098097004    -0.000000121350    -0.000000560841    0.035486503045    0.032697677106
0.150     0.044840560067    0.030087176762    -0.000000412171    -0.000000946709    0.030408482783    0.038309365104    -0.000000203520    -0.000000679195
            -0.000000412171    -0.000000946709    0.041807224349    0.034763180947    -0.000000400488    -0.000000947645    0.028163048311    0.042000896060
            0.030408482783    0.038309365104    -0.000000400488    -0.000000947645    0.044499676902    0.030344678971    -0.000000175526    -0.000000658874
            -0.000000203520    -0.000000679195    0.028163048311    0.042000896060    -0.000000175526    -0.000000658874    0.041448767236    0.034967479069
0.175     0.050502161264    0.029123922348    -0.000000521785    -0.000001063579    0.037816754830    0.039066845551    -0.000000267911    -0.000000773625
            -0.000000521785    -0.000001063579    0.047608689152    0.035655687964    -0.000000508387    -0.000001065925    0.035559165298    0.044401296777
            0.037816754830    0.039066845551    -0.000000508387    -0.000001065925    0.050139856907    0.029527074045    -0.000000234727    -0.000000752619
            -0.000000267911    -0.000000773625    0.035559165298    0.044401296777    -0.000000234727    -0.000000752619    0.047214794320    0.035993991988
0.200     0.055147789015    0.026847606972    -0.000000638250    -0.000001171697    0.044699695038    0.038162573977    -0.000000336712    -0.000000864183
            -0.000000638250    -0.000001171697    0.052862593594    0.035442249499    -0.000000623077    -0.000001175751    0.042851550521    0.045363188498
            0.044699695038    0.038162573977    -0.000000623077    -0.000001175751    0.054801653330    0.027415851842    -0.000000297970    -0.000000843179
            -0.000000336712    -0.000000864183    0.042851550521    0.045363188498    -0.000000297970    -0.000000843179    0.052468687895    0.035938207839
0.225     0.058443690560    0.023630485237    -0.000000761082    -0.000001272982    0.050656475051    0.035846489595    -0.000000409593    -0.000000952650
            -0.000000761082    -0.000001272982    0.057326878949    0.034370394739    -0.000000744082    -0.000001279077    0.049730968728    0.045022543297
            0.050656475051    0.035846489595    -0.000000744082    -0.000001279077    0.058158577055    0.024371675192    -0.000000364963    -0.000000932428
            -0.000000409593    -0.000000952650    0.049730968728    0.045022543297    -0.000000364963    -0.000000932428    0.056976811443    0.035036329162
0.250     0.060175797927    0.019940515213    -0.000000890408    -0.000001369255    0.055371706255    0.032467087128    -0.000000486719    -0.000001040554
            -0.000000890408    -0.000001369255    0.060847676955    0.032754052246    -0.000000871542    -0.000001377760    0.055941018970    0.043589489056
            0.055371706255    0.032467087128    -0.000000871542    -0.000001377760    0.059999866726    0.020849404004    -0.000000435945    -0.000001021953
            -0.000000486719    -0.000001040554    0.055941018970    0.043589489056    -0.000000435945    -0.000001021953    0.060589092553    0.033589029279
0.275     0.060274350440    0.016282100762    -0.000001027488    -0.000001462323    0.058633410076    0.028438781167    -0.000000569231    -0.000001129792
            -0.000001027488    -0.000001462323    0.063369456954    0.030923348868    -0.000001006741    -0.000001473680    0.061291203356    0.041321743541
            0.058633410076    0.028438781167    -0.000001006741    -0.000001473680    0.060255068061    0.017339110046    -0.000000512116    -0.000001113741
            -0.000000569231    -0.000001129792    0.061291203356    0.041321743541    -0.000000512116    -0.000001113741    0.063249959845    0.031912354507
0.300     0.058814222100    0.013171898940    -0.000001174126    -0.000001553387    0.060350221897    0.024222057034    -0.000000658704    -0.000001221604
            -0.000001174126    -0.000001553387    0.064933113151    0.029214816067    -0.000001151520    -0.000001568080    0.065670965081    0.038515169154
            0.060350221897    0.024222057034    -0.000001151520    -0.000001568080    0.058994063870    0.014343403339    -0.000000595147    -0.000001209087
            -0.000000658704    -0.000001221604    0.065670965081    0.038515169154    -0.000000595147    -0.000001209087    0.064996231500    0.030329022549
0.325     0.056013517146    0.011085136516    -0.000001333153    -0.000001643106    0.060556600897    0.020285302855    -0.000000757738    -0.000001317202
            -0.000001333153    -0.000001643106    0.065671565342    0.027929439382    -0.000001308780    -0.000001661721    0.069050124561    0.035473428661
            0.060556600897    0.020285302855    -0.000001308780    -0.000001661721    0.056425758728    0.012325424405    -0.000000687735    -0.000001309306
            -0.000000757738    -0.000001317202    0.069050124561    0.035473428661    -0.000000687735    -0.000001309306    0.065952969639    0.029128129846
0.350     0.052219885888    0.010433139269    -0.000001507651    -0.000001731060    0.059418945568    0.017079498517    -0.000000869182    -0.000001416729
            -0.000001507651    -0.000001731060    0.065799310101    0.027325135522    -0.000001481687    -0.000001754233    0.071485626459    0.032496346854
            0.059418945568    0.017079498517    -0.000001481687    -0.000001754233    0.052885268311    0.011687183740    -0.000000792871    -0.000001414601
            -0.000000869182    -0.000001416729    0.071485626459    0.032496346854    -0.000000792871    -0.000001414601    0.066323743536    0.028557727197
0.375     0.047890150630    0.011519014637    -0.000001701372    -0.000001815854    0.057224148002    0.014996038162    -0.000000996810    -0.000001519885
            -0.000001701372    -0.000001815854    0.065595074330    0.027583335641    -0.000001674131    -0.000001844288    0.073109291658    0.029848615648
            0.057224148002    0.014996038162    -0.000001674131    -0.000001844288    0.048814150979    0.012726212861    -0.000000914492    -0.000001524755
            -0.000000996810    -0.000001519885    0.073109291658    0.029848615648    -0.000000914492    -0.000001524755    0.066373579264    0.028792890417
0.400     0.043563587804    0.014520096996    -0.000001917733    -0.000001894589    0.054369105307    0.014341791968    -0.000001144246    -0.000001624863
            -0.000001917733    -0.000001894589    0.065384399975    0.028806531600    -0.000001889662    -0.000001929012    0.074126633136    0.027750460830
            0.054369105307    0.014341791968    -0.000001889662    -0.000001929012    0.044735186408    0.015619216608    -0.000001056430    -0.000001637999
            -0.000001144246    -0.000001624863    0.074126633136    0.027750460830    -0.000001056430    -0.000001637999    0.066413449996    0.029933635791
0.425     0.039824273779    0.019457592863    -0.000002160218    -0.000001963113    0.051331384735    0.015301022752    -0.000001315691    -0.000001728991
            -0.000002160218    -0.000001963113    0.065513079516    0.030997071467    -0.000002131961    -0.000002004279    0.074793579946    0.026349206149
            0.051331384735    0.015301022752    -0.000002131961    -0.000002004279    0.041216642580    0.020391583872    -0.000001223107    -0.000001751674
            -0.000001315691    -0.000001728991    0.074793579946    0.026349206149    -0.000001223107    -0.000001751674    0.066774130220    0.031984063496
0.450     0.037263653412    0.026192250201    -0.000002431105    -0.000002015644    0.048639996479    0.017920144839    -0.000001514496    -0.000001827754
            -0.000002431105    -0.000002015644    0.066327017486    0.034062507031    -0.000002403499    -0.000002064260    0.075405421159    0.025716146796
            0.048639996479    0.017920144839    -0.000002403499    -0.000002064260    0.038835785522    0.026913405784    -0.000001418140    -0.000001861215
            -0.000001514496    -0.000001827754    0.075405421159    0.025716146796    -0.000001418140    -0.000001861215    0.067787283044    0.034857527511
0.475     0.036430625862    0.034415717318    -0.000002731778    -0.000002045381    0.046829662621    0.022085438513    -0.000001743788    -0.000001915717
            -0.000002731778    -0.000002045381    0.068139373145    0.037808775595    -0.000002705892    -0.000002102061    0.076265185531    0.025827834991
            0.046829662621    0.022085438513    -0.000002705892    -0.000002102061    0.038132574923    0.034888869862    -0.000001644935    -0.000001961110
            -0.000001743788    -0.000001915717    0.076265185531    0.025827834991    -0.000001644935    -0.000001961110    0.069754827574    0.038369503761
0.500     0.037789794400    0.043669072960    -0.000003061090    -0.000002044198    0.046400310551    0.027528710765    -0.000002004471    -0.000001985525
            -0.000003061090    -0.000002044198    0.071211622099    0.041957333470    -0.000003038152    -0.000002109382    0.077668007151    0.026572913889
            0.046400310551    0.027528710765    -0.000003038152    -0.000002109382    0.039568431237    0.043870328174    -0.000001904620    -0.000002043786
            -0.000002004471    -0.000001985525    0.077668007151    0.026572913889    -0.000001904620    -0.000002043786    0.072931456675    0.042251238434
0.525     0.041673188721    0.053363021223    -0.000003416333    -0.000002003431    0.047760386474    0.033828127643    -0.000002296482    -0.000002029021
            -0.000003416333    -0.000002003431    0.075723168083    0.046154257814    -0.000003397721    -0.000002077342    0.079862093580    0.027745462892
            0.047760386474    0.033828127643    -0.000003397721    -0.000002077342    0.043471339349    0.053267419804    -0.000002197345    -0.000002100861
            -0.000002296482    -0.000002029021    0.079862093580    0.027745462892    -0.000002197345    -0.000002100861    0.077489589678    0.046152781380
0.550     0.048252133235    0.062825984560    -0.000003791776    -0.000001914788    0.051174742806    0.040456488220    -0.000002616719    -0.000002037585
            -0.000003791776    -0.000001914788    0.081761521201    0.050000378062    -0.000003778849    -0.000001997542    0.083024474152    0.029074477549
            0.051174742806    0.040456488220    -0.000003778849    -0.000001997542    0.049973307709    0.062405664693    -0.000002520037    -0.000002123497
            -0.000002616719    -0.000002037585    0.083024474152    0.029074477549    -0.000002520037    -0.000002123497    0.083490405757    0.049678660819
0.575     0.057510777276    0.071347202984    -0.000004179787    -0.000001771206    0.056752143151    0.046855056733    -0.000002960532    -0.000002003404
            -0.000004179787    -0.000001771206    0.089301995183    0.053072517771    -0.000004174247    -0.000001862781    0.087245439605    0.030261445651
            0.056752143151    0.046855056733    -0.000004174247    -0.000001862781    0.059019921528    0.070641888813    -0.000002868339    -0.000002103720
            -0.000002960532    -0.000002003404    0.087245439605    0.030261445651    -0.000002868339    -0.000002103720    0.090884227269    0.052451777832
0.600     0.069242023237    0.078230906467    -0.000004569854    -0.000001567003    0.064487715951    0.052437964225    -0.000003320064    -0.000001918945
            -0.000004569854    -0.000001567003    0.098210062297    0.054955277550    -0.000004573529    -0.000001666940    0.092561170817    0.030981075917
            0.064487715951    0.052437964225    -0.000004573529    -0.000001666940    0.070461819407    0.077340763999    -0.000003234531    -0.000002033577
            -0.000003320064    -0.000001918945    0.092561170817    0.030981075917    -0.000003234531    -0.000002033577    0.099569240932    0.054099566925
0.625     0.083049919025    0.082846979931    -0.000004949985    -0.000001299276    0.074192466850    0.056600230363    -0.000003685671    -0.000001778882
            -0.000004949985    -0.000001299276    0.108236199244    0.055268917395    -0.000004964625    -0.000001406614    0.098897573245    0.030878999540
            0.074192466850    0.056600230363    -0.000004964625    -0.000001406614    0.083956985467    0.081863967143    -0.000003608968    -0.000001907250
            -0.000003685671    -0.000001778882    0.098897573245    0.030878999540    -0.000003608968    -0.000001907250    0.109328557859    0.054244791771
0.650     0.098391392049    0.084682435777    -0.000005306594    -0.000000968460    0.085512726940    0.058815976161    -0.000004045246    -0.000001580585
            -0.000005306594    -0.000000968460    0.119041626344    0.053699155857    -0.000005333707    -0.000001081882    0.106083497985    0.029632048153
            0.085512726940    0.058815976161    -0.000005333707    -0.000001081882    0.098982688365    0.083689547199    -0.000003979349    -0.000001721725
            -0.000004045246    -0.000001580585    0.106083497985    0.029632048153    -0.000003979349    -0.000001721725    0.119838779141    0.052575461383
0.675     0.114606114647    0.083374426904    -0.000005626798    -0.000000578432    0.097965819108    0.058670697917    -0.000004386905    -0.000001324712
            -0.000005626798    -0.000000578432    0.130209144865    0.050018471261    -0.000005667685    -0.000000696359    0.113857393742    0.026969202294
            0.097965819108    0.058670697917    -0.000005667685    -0.000000696359    0.114895406173    0.082452164330    -0.000004333617    -0.000001477359
            -0.000004386905    -0.000001324712    0.113857393742    0.026969202294    -0.000004333617    -0.000001477359    0.130696931555    0.048869212548
0.700     0.130972558728    0.078732959960    -0.000005898180    -0.000000136552    0.110991788199    0.055889285952    -0.000004698198    -0.000001015189
            -0.000005898180    -0.000000136552    0.141277271881    0.044103114304    -0.000005953823    -0.000000257195    0.121902514918    0.022691603487
            0.110991788199    0.055889285952    -0.000005953823    -0.000000257195    0.130990055461    0.077959169881    -0.000004659037    -0.000001177813
            -0.000004698198    -0.000001015189    0.121902514918    0.022691603487    -0.000004659037    -0.000001177813    0.141458296096    0.043005793062
0.725     0.146744058835    0.070746822886    -0.000006111056    0.000000346971    0.123979417264    0.050338114925    -0.000004968901    -0.000000658948
            -0.000006111056    0.000000346971    0.151758567902    0.035940552206    -0.000006182163    0.000000225599    0.129850396205    0.016680769865
            0.123979417264    0.050338114925    -0.000006182163    0.000000225599    0.146538241993    0.070190711502    -0.000004945140    -0.000000829821
            -0.000004968901    -0.000000658948    0.129850396205    0.016680769865    -0.000004945140    -0.000000829821    0.151653097079    0.034970926822
0.750     0.161202705613    0.059574413806    -0.000006257913    0.000000859512    0.136315691762    0.042031326862    -0.000005190012    -0.000000265611
            -0.000006257913    0.000000859512    0.161175018117    0.025628007782    -0.000006344813    0.000000739437    0.137318368548    0.008906744139
            0.136315691762    0.042031326862    -0.000006344813    0.000000739437    0.160837071016    0.059293694079    -0.000005182576    -0.000000442899
            -0.000005190012    -0.000000265611    0.137318368548    0.008906744139    -0.000005182576    -0.000000442899    0.160820698457    0.024857640777
0.775     0.173687881783    0.045529172919    -0.000006335207    0.000001387296    0.147405825501    0.031115937183    -0.000005356211    0.000000153592
            -0.000006335207    0.000001387296    0.169075393470    0.013368980388    -0.000006437910    0.000001270596    0.143913860074    -0.000572803390
            0.147405825501    0.031115937183    -0.000006437910    0.000001270596    0.173238605672    0.045565656076    -0.000005365753    -0.000000028216
