# GHz S RI R 45
0.000     0.011083489401    0.001766537858    -0.000001766766    -0.000003813623    0.000524393202    0.001490647054    -0.000001605752    -0.000003511103
            -0.000001766766    -0.000003813623    0.012219423400    0.001861957483    -0.000001969061    -0.000004197756    0.000625522419    0.001662521780
            0.000524393391    0.001490647093    -0.000001969061    -0.000004197756    0.011042752032    0.001779826026    -0.000001769179    -0.000003827652
            -0.000001605754    -0.000003511103    0.000625522628    0.001662521808    -0.000001769181    -0.000003827652    0.012149829135    0.001873965064
0.025     0.014715509589    0.009088785189    -0.000003756970    -0.000008357608    0.001794377497    0.007966546047    -0.000003439015    -0.000007698638
            -0.000003756967    -0.000008357605    0.015367370360    0.010526979167    -0.000004152883    -0.000009205849    0.001616362609    0.009372185291
            0.001792838029    0.007965059299    -0.000004152888    -0.000009205859    0.014652682974    0.009070311585    -0.000003761191    -0.000008396937
            -0.000003439018    -0.000007698650    0.001616616512    0.009371611485    -0.000003761193    -0.000008396939    0.015298345405    0.010506299828
0.050     0.019948471902    0.015002536225    -0.000007831867    -0.000014645690    0.005405957123    0.015152357370    -0.000007203418    -0.000013492509
            -0.000007831867    -0.000014645690    0.019479590360    0.018022204568    -0.000008621938    -0.000016137896    0.004451437574    0.018149569524
            0.005405934674    0.015152306984    -0.000008621938    -0.000016137896    0.019889762940    0.014977787766    -0.000007852475    -0.000014722307
            -0.000007203418    -0.000013492509    0.004451532220    0.018149563814    -0.000007852475    -0.000014722306    0.019363397379    0.017989283309
0.075     0.026680359750    0.019146395603    -0.000013136583    -0.000019593714    0.010986198840    0.021036388182    -0.000012109979    -0.000018041765
            -0.000013136583    -0.000019593714    0.024363009855    0.024248340341    -0.000014430931    -0.000021604344    0.008823117938    0.026013192612
            0.010986191114    0.021036387705    -0.000014430931    -0.000021604344    0.026634619838    0.019118110965    -0.000013179272    -0.000019697141
            -0.000012109979    -0.000018041765    0.008823113397    0.026013194152    -0.000013179272    -0.000019697141    0.024190263887    0.024229299868
0.100     0.034693244965    0.021214096622    -0.000019516870    -0.000023164980    0.018142452196    0.025217230294    -0.000018007909    -0.000021308275
            -0.000019516870    -0.000023164980    0.029937616281    0.029158187514    -0.000021417266    -0.000025573466    0.014438917631    0.032715358557
            0.018142451755    0.025217230611    -0.000021417266    -0.000025573466    0.034670727130    0.021183998580    -0.000019581884    -0.000023286536
            -0.000018007909    -0.000021308275    0.014438891867    0.032715366648    -0.000019581884    -0.000023286536    0.029699012081    0.029179672966
0.125     0.043388227773    0.020810771089    -0.000026704911    -0.000025208245    0.026416569565    0.027384871830    -0.000024645580    -0.000023153261
            -0.000026704911    -0.000025208245    0.035786832712    0.032597302195    -0.000029293627    -0.000027880720    0.021004183912    0.038098097004
            0.026416579386    0.027384860967    -0.000029293627    -0.000027880720    0.043404402922    0.020776972283    -0.000026790853    -0.000025340564
            -0.000024645580    -0.000023153261    0.021004183912    0.038098097004    -0.000026790853    -0.000025340564    0.035486503045    0.032697677106
0.150     0.052366118793    0.017954081104    -0.000034382474    -0.000025657529    0.035302607107    0.027287659146    -0.000031719677    -0.000023518566
            -0.000034382474    -0.000025657529    0.041807224349    0.034763180947    -0.000037717030    -0.000028454314    0.028163048311    0.042000896060
            0.035302607107    0.027287659146    -0.000037717030    -0.000028454314    0.052427392145    0.017923408536    -0.000034481248    -0.000025796255
            -0.000031719677    -0.000023518566    0.028163048311    0.042000896060    -0.000034481248    -0.000025796255    0.041448767236    0.034967479069
0.175     0.060932847911    0.012532308969    -0.000042252027    -0.000024499728    0.044242293231    0.024818652336    -0.000038953430    -0.000022398718
            -0.000042252027    -0.000024499728    0.047608689152    0.035655687964    -0.000046365865    -0.000027277508    0.035559165298    0.044401296777
            0.044242293231    0.024818652336    -0.000046365865    -0.000027277508    0.061059338249    0.012504330897    -0.000042353929    -0.000024647992
            -0.000038953430    -0.000022398718    0.035559165298    0.044401296777    -0.000042353929    -0.000024647992    0.047214794320    0.035993991988
0.200     0.068444579259    0.004660394212    -0.000050045374    -0.000021784811    0.052673725359    0.019999949866    -0.000046098646    -0.000019845555
            -0.000050045374    -0.000021784811    0.052862593594    0.035442249499    -0.000054950147    -0.000024402548    0.042851550521    0.045363188498
            0.052673725359    0.019999949866    -0.000054950147    -0.000024402548    0.068658522005    0.004624908574    -0.000050144003    -0.000021948515
            -0.000046098646    -0.000019845555    0.042851550521    0.045363188498    -0.000050144003    -0.000021948515    0.052468687895    0.035938207839
0.225     0.074304995133    -0.005406411032    -0.000057525180    -0.000017576388    0.060050154480    0.012973838880    -0.000052937046    -0.000015924444
            -0.000057525180    -0.000017576388    0.057326878949    0.034370394739    -0.000063212857    -0.000019895828    0.049730968728    0.045022543297
            0.060050154254    0.012973839928    -0.000063212857    -0.000019895828    0.074626592671    -0.005467251228    -0.000057615522    -0.000017769296
            -0.000052937046    -0.000015924444    0.049730968728    0.045022543297    -0.000057615522    -0.000017769296    0.056976811443    0.035036329162
0.250     0.077998615211    -0.017273618967    -0.000064489276    -0.000011970078    0.065871647920    0.003999249699    -0.000059285239    -0.000010729868
            -0.000064489276    -0.000011970078    0.060847676955    0.032754052246    -0.000070935994    -0.000013857891    0.055941018970    0.043589489056
            0.065871647920    0.003999249699    -0.000070935994    -0.000013857891    0.078444611344    -0.017383120175    -0.000064572816    -0.000012210825
            -0.000059285239    -0.000010729868    0.055941018970    0.043589489056    -0.000064572816    -0.000012210825    0.060589092553    0.033589029279
0.275     0.079099335837    -0.030441435984    -0.000070757751    -0.000005061937    0.069699317968    -0.006561235443    -0.000064983010    -0.000004352701
            -0.000070757751    -0.000005061937    0.063369456954    0.030923348868    -0.000077924181    -0.000006390432    0.061291203356    0.041321743541
            0.069699317968    -0.006561235443    -0.000077924181    -0.000006390432    0.079683097243    -0.030628053374    -0.000070844352    -0.000005369566
            -0.000064983010    -0.000004352701    0.061291203356    0.041321743541    -0.000070844352    -0.000005369566    0.063249959845    0.031912354507
0.300     0.077307622578    -0.044319672554    -0.000076177235    0.000003045984    0.071183721721    -0.018256871208    -0.000069894699    0.000003106866
            -0.000076177235    0.000003045984    0.064933113151    0.029214816067    -0.000084011342    0.000002399419    0.065670965081    0.038515169154
            0.071183721721    -0.018256871208    -0.000084011342    0.000002399419    0.078037242726    -0.044617523197    -0.000076286160    0.000002652054
            -0.000069894699    0.000003106866    0.065670965081    0.038515169154    -0.000076286160    0.000002652054    0.064996231500    0.030329022549
0.325     0.072451501413    -0.058260710277    -0.000080596330    0.000012258511    0.070073321212    -0.030566684736    -0.000073888696    0.000011562879
            -0.000080596330    0.000012258511    0.065671565342    0.027929439382    -0.000089033244    0.000012413593    0.069050124561    0.035473428661
            0.070073321212    -0.030566684736    -0.000089033244    0.000012413593    0.073328385077    -0.058707477968    -0.000080757273    0.000011760700
            -0.000073888696    0.000011562879    0.069050124561    0.035473428661    -0.000080757273    0.000011760700    0.065952969639    0.029128129846
0.350     0.064509765442    -0.071588651688    -0.000083871436    0.000022473676    0.066234598742    -0.042924533281    -0.000076839724    0.000020922679
            -0.000083871436    0.000022473676    0.065799310101    0.027325135522    -0.000092833543    0.000023545708    0.071485626459    0.032496346854
            0.066234598742    -0.042924533281    -0.000092833543    0.000023545708    0.065527729231    -0.072225833166    -0.000084123710    0.000021865885
            -0.000076839724    0.000020922679    0.071485626459    0.032496346854    -0.000084123710    0.000021865885    0.066323743536    0.028557727197
0.375     0.053603230254    -0.083628375684    -0.000085844007    0.000033585048    0.059653165634    -0.054738110580    -0.000078606719    0.000031095911
            -0.000085844007    0.000033585048    0.065595074330    0.027583335641    -0.000095238877    0.000035687099    0.073109291658    0.029848615648
            0.059653165634    -0.054738110580    -0.000095238877    0.000035687099    0.054747139251    -0.084498988221    -0.000086234635    0.000032870132
            -0.000078606719    0.000031095911    0.073109291658    0.029848615648    -0.000086234635    0.000032870132    0.066373579264    0.028792890417
0.400     0.040000856507    -0.093740783777    -0.000086351855    0.000045467918    0.050443862520    -0.065422115563    -0.000079044096    0.000041971598
            -0.000086351855    0.000045467918    0.065384399975    0.028806531600    -0.000096070302    0.000048707710    0.074126633136    0.027750460830
            0.050443862520    -0.065422115563    -0.000096070302    0.000048707710    0.041246576914    -0.094888456814    -0.000086931501    0.000044664889
            -0.000079044096    0.000041971598    0.074126633136    0.027750460830    -0.000086931501    0.000044664889    0.066413449996    0.029933635791
0.425     0.024103856940    -0.101347264523    -0.000085215863    0.000057963814    0.038843023916    -0.074415829925    -0.000077989277    0.000053411370
            -0.000085215863    0.000057963814    0.065513079516    0.030997071467    -0.000095131636    0.000062443254    0.074793579946    0.026349206149
            0.038843023916    -0.074415829925    -0.000095131636    0.000062443254    0.025417817924    -0.102814669563    -0.000086037775    0.000057109329
            -0.000077989277    0.000053411370    0.074793579946    0.026349206149    -0.000086037775    0.000057109329    0.066774130220    0.031984063496
0.450     0.006434460648    -0.105962486834    -0.000082263848    0.000070871984    0.025205542655    -0.081217746491    -0.000075278842    0.000065240874
            -0.000082263848    0.000070871984    0.066327017486    0.034062507031    -0.000092231448    0.000076683770    0.075405421159    0.025716146796
            0.025205542655    -0.081217746491    -0.000092231448    0.000076683770    0.007773639044    -0.107791225622    -0.000083375664    0.000070018784
            -0.000075278842    0.000065240874    0.075405421159    0.025716146796    -0.000083375664    0.000070018784    0.067787283044    0.034857527511
0.475     -0.012384457558    -0.107210372138    -0.000077327704    0.000083930195    0.009991928758    -0.085399272608    -0.000070752952    0.000077221712
            -0.000077327704    0.000083930195    0.068139373145    0.037808775595    -0.000087180271    0.000091155240    0.076265185531    0.025827834991
            0.009991928758    -0.085399272608    -0.000087180271    0.000091155240    -0.011074002988    -0.109441517067    -0.000078763163    0.000083153609
            -0.000070752952    0.000077221712    0.076265185531    0.025827834991    -0.000078763163    0.000083153609    0.069754827574    0.038369503761
0.500     -0.031646626982    -0.104851356718    -0.000070271987    0.000096826886    -0.006246285204    -0.086637635656    -0.000064277755    0.000089072867
            -0.000070271987    0.000096826886    0.071211622099    0.041957333470    -0.000079822056    0.000105535675    0.077668007151    0.026572913889
            -0.006246285204    -0.086637635656    -0.000079822056    0.000105535675    -0.030440255510    -0.107524728922    -0.000072052097    0.000096220372
            -0.000064277755    0.000089072867    0.077668007151    0.026572913889    -0.000072052097    0.000096220372    0.072931456675    0.042251238434
0.525     -0.050576467601    -0.098811437872    -0.000061041101    0.000109181347    -0.022879407763    -0.084733993563    -0.000055794795    0.000100441425
            -0.000061041101    0.000109181347    0.075723168083    0.046154257814    -0.000070059374    0.000119430027    0.079862093580    0.027745462892
            -0.022879407763    -0.084733993563    -0.000070059374    0.000119430027    -0.049595412776    -0.101941492528    -0.000063140141    0.000108862282
            -0.000055794795    0.000100441425    0.079862093580    0.027745462892    -0.000063140141    0.000108862282    0.077489589678    0.046152781380
0.550     -0.068414951485    -0.089256183293    -0.000049686988    0.000120606963    -0.039264934093    -0.079666657448    -0.000045343212    0.000110968838
            -0.000049686988    0.000120606963    0.081761521201    0.050000378062    -0.000057872453    0.000132398605    0.083024474152    0.029074477549
            -0.039264934093    -0.079666657448    -0.000057872453    0.000132398605    -0.067804316578    -0.092745280389    -0.000052006228    0.000120668749
            -0.000045343212    0.000110968838    0.083024474152    0.029074477549    -0.000052006228    0.000120668749    0.083490405757    0.049678660819
0.575     -0.084578338642    -0.076468847445    -0.000036278861    0.000130765943    -0.054836475441    -0.071515392445    -0.000032988834    0.000120337459
            -0.000036278861    0.000130765943    0.089301995183    0.053072517771    -0.000043321984    0.000143979343    0.087245439605    0.030261445651
            -0.054836475441    -0.071515392445    -0.000043321984    0.000143979343    -0.084359242378    -0.080140806068    -0.000038701980    0.000131215761
            -0.000032988834    0.000120337459    0.087245439605    0.030261445651    -0.000038701980    0.000131215761    0.090884227269    0.052451777832
0.600     -0.098482314130    -0.060701935946    -0.000020913887    0.000139240216    -0.069013130387    -0.060406557104    -0.000018810586    0.000128160436
            -0.000020913887    0.000139240216    0.098210062297    0.054955277550    -0.000026587645    0.000153716320    0.092561170817    0.030981075917
            -0.069013130387    -0.060406557104    -0.000026587645    0.000153716320    -0.098612933726    -0.064486307510    -0.000023381553    0.000140082505
            -0.000018810586    0.000128160436    0.092561170817    0.030981075917    -0.000023381553    0.000140082505    0.099569240932    0.054099566925
0.625     -0.109498616173    -0.042398208562    -0.000003861974    0.000145586326    -0.081189761739    -0.046633157375    -0.000003049843    0.000134016351
            -0.000003861974    0.000145586326    0.108236199244    0.055268917395    -0.000007956508    0.000161174890    0.098897573245    0.030878999540
            -0.081189761739    -0.046633157375    -0.000007956508    0.000161174890    -0.109995445912    -0.046275987375    -0.000006300805    0.000146856806
            -0.000003049843    0.000134016351    0.098897573245    0.030878999540    -0.000006300805    0.000146856806    0.109328557859    0.054244791771
0.650     -0.117141865745    -0.022175267565    0.000014492639    0.000149459812    -0.090859122211    -0.030635883453    0.000013936144    0.000137577388
            0.000014492639    0.000149459812    0.119041626344    0.053699155857    0.000012177963    0.000165979961    0.106083497985    0.029632048153
            -0.090859122211    -0.030635883453    0.000012177963    0.000165979961    -0.118045051830    -0.026110392405    0.000012174772    0.000151184309
            0.000013936144    0.000137577388    0.106083497985    0.029632048153    0.000012174772    0.000151184309    0.119838779141    0.052575461383
0.675     -0.121087125192    -0.000732375829    0.000033692418    0.000150611067    -0.097621606631    -0.012940314161    0.000031719378    0.000138601766
            0.000033692418    0.000150611067    0.130209144865    0.050018471261    0.000033334924    0.000167837054    0.113857393742    0.026969202294
            -0.097621606631    -0.012940314161    0.000033334924    0.000167837054    -0.122428075994    -0.004666277564    0.000031602515    0.000152781834
            0.000031719378    0.000138601766    0.113857393742    0.026969202294    0.000031602515    0.000152781834    0.130696931555    0.048869212548
0.700     -0.121167343427    0.021192351247    0.000053244842    0.000148898268    -0.101203754020    0.005868335487    0.000049835082    0.000136951462
            0.000053244842    0.000148898268    0.141277271881    0.044103114304    0.000054985502    0.000166566745    0.121902514918    0.022691603487
            -0.101203754020    0.005868335487    0.000054985502    0.000166566745    -0.122959141567    0.017331926932    0.000051483144    0.000151478161
            0.000049835082    0.000136951462    0.121902514918    0.022691603487    0.000051483144    0.000151478161    0.141458296096    0.043005793062
0.725     -0.117366603946    0.042849135697    0.000072634165    0.000144285445    -0.101449119498    0.025168211921    0.000067799829    0.000132588159
            0.000072634165    0.000144285445    0.151758567902    0.035940552206    0.000076568333    0.000162102214    0.129850396205    0.016680769865
            -0.101449119498    0.025168211921    0.000076568333    0.000162102214    -0.119602956477    0.039141976318    0.000071291068    0.000147205904
            0.000067799829    0.000132588159    0.129850396205    0.016680769865    0.000071291068    0.000147205904    0.151653097079    0.034970926822
0.750     -0.109819586329    0.063510470257    0.000091357502    0.000136849917    -0.098334114170    0.044330233576    0.000085134219    0.000125582770
            0.000091357502    0.000136849917    0.161175018117    0.025628007782    0.000097529074    0.000154502705    0.137318368548    0.008906744139
            -0.098334114170    0.044330233576    0.000097529074    0.000154502705    -0.112474809783    0.060037439864    0.000090504311    0.000140018826
            0.000085134219    0.000125582770    0.137318368548    0.008906744139    0.000090504311    0.000140018826    0.160820698457    0.024857640777
0.775     -0.098798810720    0.082496417463    0.000108940898    0.000126767848    -0.091951345576    0.062736549441    0.000101394318    0.000116098077
            0.000108940898    0.000126767848    0.169075393470    0.013368980388    0.000117340458    0.000143936759    0.143913860074    -0.000572803390
            -0.091951345576    0.062736549441    0.000117340458    0.000143936759    -0.101828631409    0.079334725798    0.000108624386    0.000130076392
            0.000101394318    0.000116098077    0.143913860074    -0.000572803390    0.000108624386    0.000130076392    0.168526162672    0.012859409525
