# GHz S RI R 45
0.000     0.012011157412    0.001928081396    0.987696054949    -0.008323953990    0.000627347076    0.001652624205    -0.000616018117    -0.000598038124
            0.987696054949    -0.008323953990    0.012219423400    0.001861957483    -0.000615807442    -0.000597945720    0.000625522419    0.001662521780
            0.000627347220    0.001652624151    -0.000615807464    -0.000597945741    0.011985114214    0.001938945570    0.987745139433    -0.008326001723
            -0.000616018146    -0.000598038151    0.000625522628    0.001662521808    0.987745139433    -0.008326001723    0.012149829135    0.001873965064
0.025     0.016048249436    0.010360108206    0.977759017603    -0.122179866194    0.002109766213    0.009236661006    -0.001042393112    -0.002184445277
            0.977759013764    -0.122179896911    0.015367370360    0.010526979167    -0.001039548857    -0.002183959389    0.001616362609    0.009372185291
            0.002108958604    0.009236631776    -0.001039644004    -0.002184393093    0.015981619733    0.010332254709    0.977884763180    -0.121869867741
            -0.001042240032    -0.002184022486    0.001616616512    0.009371611485    0.977884750843    -0.121869966731    0.015298345405    0.010506299828
0.050     0.021977187427    0.017140011301    0.953601847257    -0.239501103984    0.006332232176    0.017501926183    -0.002206168319    -0.004002104707
            0.953601847257    -0.239501103984    0.019479590360    0.018022204568    -0.002205772313    -0.004001102226    0.004451437574    0.018149569524
            0.006332220831    0.017501919653    -0.002205734828    -0.004001106904    0.021912676663    0.017087063925    0.953835747569    -0.238836479794
            -0.002206083818    -0.004002090198    0.004451532220    0.018149563814    0.953835747569    -0.238836479794    0.019363397379    0.017989283309
0.075     0.029584121905    0.021779817483    0.915858974588    -0.352412622944    0.012820002042    0.024143121967    -0.003867509319    -0.005327818602
            0.915858974588    -0.352412622944    0.024363009855    0.024248340341    -0.003866495964    -0.005325648324    0.008823117938    0.026013192612
            0.012819994267    0.024143121567    -0.003866489710    -0.005325645574    0.029523270152    0.021710127948    0.916298131542    -0.351461498627
            -0.003867503122    -0.005327815934    0.008823113397    0.026013194152    0.916298131542    -0.351461498627    0.024190263887    0.024229299868
0.100     0.038525542921    0.023903079892    0.864985194774    -0.459432981272    0.021040032940    0.028654689254    -0.005849078909    -0.006109069078
            0.864985194774    -0.459432981272    0.029937616281    0.029158187514    -0.005846050413    -0.006105308650    0.014438917631    0.032715358557
            0.021040033032    0.028654690427    -0.005846046732    -0.006105311206    0.038475344349    0.023820210384    0.865698216070    -0.458240719125
            -0.005849076679    -0.006109073152    0.014438891867    0.032715366648    0.865698216070    -0.458240719125    0.029699012081    0.029179672966
0.125     0.048078833591    0.023069243524    0.801717411535    -0.559095701672    0.030373340636    0.030674405217    -0.007982529063    -0.006351610529
            0.801717411535    -0.559095701672    0.035786832712    0.032597302195    -0.007965214808    -0.006351599145    0.021004183912    0.038098097004
            0.030373340636    0.030674405217    -0.007965215590    -0.006351599769    0.048041281385    0.022974237302    0.802763843584    -0.557720434214
            -0.007982528281    -0.006351609906    0.021004183912    0.038098097004    0.802763843584    -0.557720434214    0.035486503045    0.032697677106
0.150     0.057552385974    0.019353324282    0.727252388321    -0.649945086810    0.040141788647    0.029951018232    -0.010144287499    -0.006045934857
            0.727252388321    -0.649945086810    0.041807224349    0.034763180947    -0.010109422557    -0.006053564256    0.028163048311    0.042000896060
            0.040141788647    0.029951018232    -0.010109422557    -0.006053564256    0.057548867977    0.019258321579    0.728680561713    -0.648455057715
            -0.010144287499    -0.006045934857    0.028163048311    0.042000896060    0.728680561713    -0.648455057715    0.041448767236    0.034967479069
0.175     0.066161988667    0.012739708227    0.642843793068    -0.730838889638    0.049618836970    0.026430296701    -0.012204509006    -0.005238689954
            0.642843793068    -0.730838889638    0.047608689152    0.035655687964    -0.012148928217    -0.005259800653    0.035559165298    0.044401296777
            0.049618836970    0.026430296701    -0.012148928217    -0.005259800653    0.066212586179    0.012641484215    0.644689820262    -0.729309781900
            -0.012204508092    -0.005238692084    0.035559165298    0.044401296777    0.644689820262    -0.729309781900    0.047214794320    0.035993991988
0.200     0.073136463877    0.003458785193    0.549801183113    -0.800811479839    0.058094072165    0.020235298699    -0.014068264159    -0.004008363667
            0.549801183113    -0.800811479839    0.052862593594    0.035442249499    -0.013989762427    -0.004050959807    0.042851550521    0.045363188498
            0.058094072165    0.020235298699    -0.013989762427    -0.004050959807    0.073260546271    0.003346597580    0.552089118274    -0.799323046140
            -0.014068264159    -0.004008363667    0.042851550521    0.045363188498    0.552089118274    -0.799323046140    0.052468687895    0.035938207839
0.225     0.077772282806    -0.008064790816    0.449493725312    -0.859042124343    0.064900996217    0.011650649621    -0.015679078412    -0.002444056488
            0.449493725312    -0.859042124343    0.057326878949    0.034370394739    -0.015577265632    -0.002517872106    0.049730968728    0.045022543297
            0.064900996217    0.011650649621    -0.015577265632    -0.002517872106    0.077988382693    -0.008208711031    0.452232479804    -0.857677673359
            -0.015679077986    -0.002444059224    0.049730968728    0.045022543297    0.452232479804    -0.857677673359    0.056976811443    0.035036329162
0.250     0.079498047723    -0.021228850027    0.343338863682    -0.904858642190    0.069459151853    0.001110092083    -0.017019640258    -0.000631503328
            0.343338863682    -0.904858642190    0.060847676955    0.032754052246    -0.016896414295    -0.000747794746    0.055941018970    0.043589489056
            0.069459151853    0.001110092083    -0.016896414295    -0.000747794746    0.079822326451    -0.021428917895    0.346526373424    -0.903705023521
            -0.017019640258    -0.000631503328    0.055941018970    0.043589489056    0.346526373424    -0.903705023521    0.060589092553    0.033589029279
0.275     0.077891524296    -0.035306738612    0.232801328639    -0.937734298311    0.071293916459    -0.010824711260    -0.018101166826    0.001362539530
            0.232801328639    -0.937734298311    0.063369456954    0.030923348868    -0.017961137193    0.001191976152    0.061291203356    0.041321743541
            0.071293916459    -0.010824711260    -0.017961137193    0.001191976152    0.078335069003    -0.035593913882    0.236425804119    -0.936877230444
            -0.018101166826    0.001362539530    0.061291203356    0.041321743541    0.236425804119    -0.936877230444    0.063249959845    0.031912354507
0.300     0.072719525392    -0.049480673196    0.119387780230    -0.957287804727    0.070071221165    -0.023491670548    -0.018953407981    0.003499477559
            0.119387780230    -0.957287804727    0.064933113151    0.029214816067    -0.018803818892    0.003262163569    0.065670965081    0.038515169154
            0.070071221165    -0.023491670548    -0.018803818892    0.003262163569    0.073287179481    -0.049892337685    0.123419338529    -0.956814386814
            -0.018953407981    0.003499477559    0.065670965081    0.038515169154    0.123419338529    -0.956814386814    0.064996231500    0.030329022549
0.325     0.063937508240    -0.062885918745    0.004642194815    -0.963287174422    0.065609367355    -0.036154664687    -0.019607000326    0.005772416621
            0.004642194815    -0.963287174422    0.065671565342    0.027929439382    -0.019457426794    0.005455354645    0.069050124561    0.035473428661
            0.065609367355    -0.036154664687    -0.019457426794    0.005455354645    0.064625256030    -0.063464303072    0.009036973912    -0.963282441030
            -0.019607000326    0.005772416621    0.069050124561    0.035473428661    0.009036973912    -0.963282441030    0.065952969639    0.029128129846
0.350     0.051710831412    -0.074658524124    -0.109871001267    -0.955664297925    0.057901707931    -0.048044449144    -0.020080561181    0.008203242612
            -0.109871001267    -0.955664297925    0.065799310101    0.027325135522    -0.019942666342    0.007793386124    0.071485626459    0.032496346854
            0.057901707931    -0.048044449144    -0.019942666342    0.007793386124    0.052503996329    -0.075448099046    -0.105167623358    -0.956207883674
            -0.020080561181    0.008203242612    0.071485626459    0.032496346854    -0.105167623358    -0.956207883674    0.066323743536    0.028557727197
0.375     0.036401049766    -0.083973881307    -0.222565576288    -0.934509595193    0.047118237546    -0.058388380899    -0.020365460947    0.010834316949
            -0.222565576288    -0.934509595193    0.065595074330    0.027583335641    -0.020252163015    0.010316681812    0.073109291658    0.029848615648
            0.047118237546    -0.058388380899    -0.020252163015    0.010316681812    0.037273640503    -0.085019860440    -0.217623708729    -0.935677065919
            -0.020365460947    0.010834316949    0.073109291658    0.029848615648    -0.217623708729    -0.935677065919    0.066373579264    0.028792890417
0.400     0.018564694673    -0.090100065727    -0.331850636653    -0.900099074696    0.033610839014    -0.066462023515    -0.020418387792    0.013716113127
            -0.331850636653    -0.900099074696    0.065384399975    0.028806531600    -0.020343908466    0.013072087485    0.074126633136    0.027750460830
            0.033610839014    -0.066462023515    -0.020343908466    0.013072087485    0.019478709369    -0.091445835789    -0.326755677020    -0.901957044921
            -0.020418387792    0.013716113127    0.074126633136    0.027750460830    -0.326755677020    -0.901957044921    0.066413449996    0.029933635791
0.425     -0.001073037147    -0.092433687914    -0.436151492709    -0.852897574589    0.017900645095    -0.071619816393    -0.020155499231    0.016890836770
            -0.436151492709    -0.852897574589    0.065513079516    0.030997071467    -0.020136142303    0.016092972990    0.074793579946    0.026349206149
            0.017900645095    -0.071619816393    -0.020136142303    0.016092972990    -0.000167844528    -0.094118763339    -0.431004815550    -0.855499799852
            -0.020155499231    0.016890836770    0.074793579946    0.026349206149    -0.431004815550    -0.855499799852    0.066774130220    0.031984063496
0.450     -0.021647473306    -0.090547700748    -0.533941656637    -0.793563593416    0.000659649281    -0.073348006809    -0.019453704894    0.020377600829
            -0.533941656637    -0.793563593416    0.066327017486    0.034062507031    -0.019512594894    0.019384144267    0.075405421159    0.025716146796
            0.000659649281    -0.073348006809    -0.019512594894    0.019384144267    -0.020813022672    -0.092605890233    -0.528853330450    -0.796950534400
            -0.019453704894    0.020377600829    0.075405421159    0.025716146796    -0.528853330450    -0.796950534400    0.067787283044    0.034857527511
0.475     -0.042191883224    -0.084215407211    -0.623756305685    -0.722961727563    -0.017316854750    -0.071289120046    -0.018148495774    0.024154945619
            -0.623756305685    -0.722961727563    0.068139373145    0.037808775595    -0.018330663238    0.022904770627    0.076265185531    0.025827834991
            -0.017316854750    -0.071289120046    -0.018330663238    0.022904770627    -0.041504185394    -0.086674749879    -0.618850227311    -0.727158642434
            -0.018148495774    0.024154945619    0.076265185531    0.025827834991    -0.618850227311    -0.727158642434    0.069754827574    0.038369503761
0.500     -0.061683591325    -0.073446222426    -0.704247410291    -0.642158475142    -0.035152066807    -0.065285919474    -0.016024977122    0.028131168103
            -0.704247410291    -0.642158475142    0.071211622099    0.041957333470    -0.016437774685    0.026562919956    0.077668007151    0.026572913889
            -0.035152066807    -0.065285919474    -0.016437774685    0.026562919956    -0.061242202485    -0.076322656399    -0.699653971201    -0.647164392873
            -0.016024977122    0.028131168103    0.077668007151    0.026572913889    -0.699653971201    -0.647164392873    0.072931456675    0.042251238434
0.525     -0.079091689900    -0.058516675917    -0.774207633232    -0.552409433830    -0.051928674748    -0.055402638679    -0.012834857399    0.032030807643
            -0.774207633232    -0.552409433830    0.075723168083    0.046154257814    -0.013692683790    0.030217941886    0.079862093580    0.027745462892
            -0.051928674748    -0.055402638679    -0.013692683790    0.030217941886    -0.079033877128    -0.061779359942    -0.770056686724    -0.558205355491
            -0.012834857399    0.032030807643    0.079862093580    0.027745462892    -0.770056686724    -0.558205355491    0.077489589678    0.046152781380
0.550     -0.093518459373    -0.040010462061    -0.832625105023    -0.455123335372    -0.066797931221    -0.041955146848    -0.008612911039    0.035298566557
            -0.832625105023    -0.455123335372    0.081761521201    0.050000378062    -0.010003179753    0.033698991027    0.083024474152    0.029074477549
            -0.066797931221    -0.041955146848    -0.010003179753    0.033698991027    -0.093961710702    -0.043502765312    -0.829038985550    -0.461671265565
            -0.008612911039    0.035298566557    0.083024474152    0.029074477549    -0.829038985550    -0.461671265565    0.083490405757    0.049678660819
0.575     -0.104334711028    -0.018620917052    -0.878674129696    -0.351832262180    -0.079061236665    -0.025391899253    -0.003897261447    0.037767751881
            -0.878674129696    -0.351832262180    0.089301995183    0.053072517771    -0.005369336250    0.036808169547    0.087245439605    0.030261445651
            -0.079061236665    -0.025391899253    -0.005369336250    0.036808169547    -0.105237223829    -0.022153616723    -0.875781447904    -0.359083085562
            -0.003897261447    0.037767751881    0.087245439605    0.030261445651    -0.875781447904    -0.359083085562    0.090884227269    0.052451777832
0.600     -0.110958906052    0.004945877059    -0.911750638027    -0.244174934972    -0.088074810290    -0.006261089834    0.001278466311    0.039727480221
            -0.911750638027    -0.244174934972    0.098210062297    0.054955277550    0.000112087708    0.039300026158    0.092561170817    0.030981075917
            -0.088074810290    -0.006261089834    0.000112087708    0.039300026158    -0.112253505047    0.001430543210    -0.909678325694    -0.252051815979
            0.001278466311    0.039727480221    0.092561170817    0.030981075917    -0.909678325694    -0.252051815979    0.099569240932    0.054099566925
0.625     -0.112915390965    0.029749763926    -0.931510160505    -0.133859950303    -0.093302486637    0.014683445608    0.007113898420    0.040995008663
            -0.931510160505    -0.133859950303    0.108236199244    0.055268917395    0.006279990055    0.040893928834    0.098897573245    0.030878999540
            -0.093302486637    0.014683445608    0.006279989341    0.040893928944    -0.114611484493    0.026281725742    -0.930369152570    -0.142253317984
            0.007113898420    0.040995008663    0.098897573245    0.030878999540    -0.930369152570    -0.142253317984    0.109328557859    0.054244791771
0.650     -0.110021815121    0.054734355678    -0.937861222989    -0.022586551417    -0.094438221949    0.036574851083    0.013506257547    0.041242657795
            -0.937861222989    -0.022586551417    0.119041626344    0.053699155857    0.012928722830    0.041344258035    0.106083497985    0.029632048153
            -0.094438221949    0.036574851083    0.012928722108    0.041344258261    -0.112143539370    0.051370763395    -0.937744741493    -0.031371829979
            0.013506257547    0.041242657795    0.106083497985    0.029632048153    -0.937744741493    -0.031371829979    0.119838779141    0.052575461383
0.675     -0.102363597126    0.078854236054    -0.930943305174    0.087981855159    -0.091384888352    0.058522570209    0.020186279366    0.040251669821
            -0.930943305174    0.087981855159    0.130209144865    0.050018471261    0.019801800859    0.040482097658    0.113857393742    0.026969202294
            -0.091384888352    0.058522570209    0.019801800859    0.040482097658    -0.104914913747    0.075670362578    -0.931923075066    0.078944417132
            0.020186279366    0.040251669821    0.113857393742    0.026969202294    -0.931923075066    0.078944417132    0.130696931555    0.048869212548
0.700     -0.090258970412    0.101138677393    -0.911113259268    0.196263046275    -0.084251497949    0.079666497573    0.026830159172    0.037922597012
            -0.911113259268    0.196263046275    0.141277271881    0.044103114304    0.026598946681    0.038231062459    0.121902514918    0.022691603487
            -0.084251497949    0.079666497573    0.026598946681    0.038231062459    -0.093218485045    0.098214482898    -0.913240894691    0.187122600713
            0.026830159172    0.037922597012    0.121902514918    0.022691603487    -0.913240894691    0.187122600713    0.141458296096    0.043005793062
0.725     -0.074221766412    0.120730681837    -0.878913837772    0.300778597813    -0.073317460765    0.099208571718    0.033099425056    0.034260245497
            -0.878913837772    0.300778597813    0.151758567902    0.035940552206    0.032995994861    0.034608032958    0.129850396205    0.016680769865
            -0.073317460765    0.099208571718    0.032995994861    0.034608032958    -0.077544193224    0.118142701137    -0.882215603160    0.291691807410
            0.033099424458    0.034260246075    0.129850396205    0.016680769865    -0.882215603160    0.291691807410    0.151653097079    0.034970926822
0.750     -0.054923942446    0.136927348548    -0.835042531825    0.400181399864    -0.059018394840    0.116456363735    0.038673247814    0.029366048998
            -0.835042531825    0.400181399864    0.161175018117    0.025628007782    0.038678359692    0.029721361561    0.137318368548    0.008906744139
            -0.059018394840    0.116456363735    0.038678359692    0.029721361561    -0.058544634150    0.134741888616    -0.839526468686    0.391302282333
            0.038673247814    0.029366048998    0.137318368548    0.008906744139    -0.839526468686    0.391302282333    0.160820698457    0.024857640777
0.775     -0.033150605629    0.149198109482    -0.780325803982    0.493255938546    -0.041901059751    0.130833516267    0.043268441184    0.023426319802
            -0.780325803982    0.493255938546    0.169075393470    0.013368980388    0.043363886701    0.023763298426    0.143913860074    -0.000572803390
            -0.041901059751    0.130833516267    0.043363886701    0.023763298426    -0.036989361929    0.147467558154    -0.785977883842    0.484740495317
            0.043268441184    0.023426319802    0.143913860074    -0.000572803390    -0.785977883842    0.484740495317    0.168526162672    0.012859409525
