# GHz S RI R 45
0.000     0.012836875220    0.001706141446    0.000000585521    0.000001147708    0.000711553563    0.001488107164    0.000000660960    0.000001269119
            0.000000585521    0.000001147708    0.012219423400    0.001861957483    0.000000925813    0.000001269203    0.000625522419    0.001662521780
            0.000711553840    0.001488107143    0.000000925763    0.000001269204    0.012807535189    0.001697141740    0.000000747326    0.000001420642
            0.000000660959    0.000001269119    0.000625522628    0.001662521808    0.000000747343    0.000001420642    0.012149829135    0.001873965064
0.025     0.016377876458    0.010864299692    0.000001059261    0.000002556155    0.001795218569    0.009598949371    0.000001185311    0.000002828075
            0.000001059256    0.000002556156    0.015367370360    0.010526979167    0.000001184099    0.000002838910    0.001616362609    0.009372185291
            0.001795240682    0.009598161883    0.000001184092    0.000002838912    0.016292054670    0.010785299224    0.000001336213    0.000003169728
            0.000001185302    0.000002828072    0.001616616512    0.009371611485    0.000001336224    0.000003169729    0.015298345405    0.010506299828
0.050     0.020915905796    0.018506428693    0.000001969346    0.000004600449    0.004966550349    0.018526532324    0.000002188657    0.000005089009
            0.000001969346    0.000004600449    0.019479590360    0.018022204568    0.000002189981    0.000005109156    0.004451437574    0.018149569524
            0.004966576152    0.018526526442    0.000002189981    0.000005109156    0.020778644794    0.018374904919    0.000002453818    0.000005703818
            0.000002188657    0.000005089009    0.004451532220    0.018149563814    0.000002453818    0.000005703818    0.019363397379    0.017989283309
0.075     0.026399463249    0.024650156234    0.000003107742    0.000006365080    0.009850988982    0.026343496894    0.000003440505    0.000007043854
            0.000003107742    0.000006365080    0.024363009855    0.024248340341    0.000003444827    0.000007073294    0.008823117938    0.026013192612
            0.009851003848    0.026343498808    0.000003444827    0.000007073294    0.026187288231    0.024487659632    0.000003843729    0.000007900978
            0.000003440505    0.000007043854    0.008823113397    0.026013194152    0.000003843729    0.000007900978    0.024190263887    0.024229299868
0.100     0.032653680836    0.029172628653    0.000004447189    0.000007881286    0.016066239980    0.032731685286    0.000004913950    0.000008729273
            0.000004447189    0.000007881286    0.029937616281    0.029158187514    0.000004922469    0.000008767985    0.014438917631    0.032715358557
            0.016066239408    0.032731685567    0.000004922469    0.000008767985    0.032352012992    0.029011010665    0.000005481204    0.000009804743
            0.000004913950    0.000008729273    0.014438891867    0.032715366648    0.000005481204    0.000009804743    0.029699012081    0.029179672966
0.125     0.039157446041    0.031893706925    0.000005945129    0.000009143426    0.023204690146    0.037496308001    0.000006564730    0.000010138672
            0.000005945129    0.000009143426    0.035786832712    0.032597302195    0.000006578912    0.000010186587    0.021004183912    0.038098097004
            0.023204672213    0.037496261475    0.000006578912    0.000010186587    0.038763213336    0.031774039436    0.000007320909    0.000011407663
            0.000006564730    0.000010138672    0.021004183912    0.038098097004    0.000007320909    0.000011407663    0.035486503045    0.032697677106
0.150     0.045646919086    0.033010404439    0.000007552417    0.000010162235    0.030810051919    0.040489038758    0.000008340709    0.000011283053
            0.000007552417    0.000010162235    0.041807224349    0.034763180947    0.000008362216    0.000011339256    0.028163048311    0.042000896060
            0.030810052625    0.040489038220    0.000008362216    0.000011339256    0.045167417578    0.032967700231    0.000009307888    0.000012719339
            0.000008340709    0.000011283053    0.028163048311    0.042000896060    0.000009307888    0.000012719339    0.041448767236    0.034967479069
0.175     0.051623365828    0.032575600309    0.000009229519    0.000010955747    0.038415907615    0.041718789734    0.000010199753    0.000012180317
            0.000009229519    0.000010955747    0.047608689152    0.035655687964    0.000010230043    0.000012243614    0.035559165298    0.044401296777
            0.038415907615    0.041718789734    0.000010230043    0.000012243614    0.051082825318    0.032644080319    0.000011396919    0.000013757025
            0.000010199753    0.000012180317    0.035559165298    0.044401296777    0.000011396919    0.000013757025    0.047214794320    0.035993991988
0.200     0.056663388339    0.030847591539    0.000010948895    0.000011554802    0.045584533057    0.041318896395    0.000012112034    0.000012862362
            0.000010948895    0.000011554802    0.052862593594    0.035442249499    0.000012152355    0.000012931131    0.042851550521    0.045363188498
            0.045584533798    0.041318897067    0.000012152355    0.000012931131    0.056099149707    0.031053323787    0.000013555551    0.000014553068
            0.000012112034    0.000012862362    0.042851550521    0.045363188498    0.000013555551    0.000014553068    0.052468687895    0.035938207839
0.225     0.060456268675    0.028193857106    0.000012697455    0.000011986816    0.051935394500    0.039524976883    0.000014062924    0.000013357195
            0.000012697455    0.000011986816    0.057326878949    0.034370394739    0.000014114283    0.000013429505    0.049730968728    0.045022543297
            0.051935394500    0.039524976883    0.000014114283    0.000013429505    0.059914218571    0.028549610618    0.000015767230    0.000015135132
            0.000014062924    0.000013357195    0.049730968728    0.045022543297    0.000015767230    0.000015135132    0.056976811443    0.035036329162
0.250     0.062814413555    0.025067051449    0.000014475893    0.000012280642    0.057170757269    0.036664848990    0.000016052160    0.000013694620
            0.000014475893    0.000012280642    0.060847676955    0.032754052246    0.000016114977    0.000013768045    0.055941018970    0.043589489056
            0.057170757269    0.036664848990    0.000016114977    0.000013768045    0.062344514559    0.025570406464    0.000018029878    0.000015533126
            0.000016052160    0.000013694620    0.055941018970    0.043589489056    0.000018029878    0.000015533126    0.060589092553    0.033589029279
0.275     0.063689025077    0.021944189789    0.000016295423    0.000012454271    0.061092534454    0.033126386330    0.000018090744    0.000013892884
            0.000016295423    0.000012454271    0.063369456954    0.030923348868    0.000018164836    0.000013964973    0.061291203356    0.041321743541
            0.061092534454    0.033126386330    0.000018164836    0.000013964973    0.063340145171    0.022576760902    0.000020353086    0.000015764896
            0.000018090744    0.000013892884    0.061291203356    0.041321743541    0.000020353086    0.000015764896    0.063249959845    0.031912354507
0.300     0.063169391355    0.019306725883    0.000018177268    0.000012519088    0.063617869338    0.029338115305    0.000020200095    0.000013963371
            0.000018177268    0.000012519088    0.064933113151    0.029214816067    0.000020284237    0.000014031641    0.065670965081    0.038515169154
            0.063617869338    0.029338115305    0.000020284237    0.000014031641    0.062984602890    0.020034616253    0.000022757086    0.000015841346
            0.000020200095    0.000013963371    0.065670965081    0.038515169154    0.000022757086    0.000015841346    0.064996231500    0.030329022549
0.325     0.061478301677    0.017587853596    0.000020145698    0.000012470830    0.064782567977    0.025731794477    0.000022404893    0.000013900713
            0.000020145698    0.000012470830    0.065671565342    0.027929439382    0.000022497152    0.000013963060    0.069050124561    0.035473428661
            0.064782567977    0.025731794477    0.000022497152    0.000013963060    0.061490278478    0.018364049188    0.000025265309    0.000015755919
            0.000022404893    0.000013900713    0.069050124561    0.035473428661    0.000025265309    0.000015755919    0.065952969639    0.029128129846
0.350     0.058957563085    0.017153420932    0.000022228194    0.000012293893    0.064745618825    0.022718660138    0.000024732901    0.000013687811
            0.000022228194    0.000012293893    0.065799310101    0.027325135522    0.000024830597    0.000013742947    0.071485626459    0.032496346854
            0.064745618825    0.022718660138    0.000024830597    0.000013742947    0.059185175745    0.017921098237    0.000027904517    0.000015490470
            0.000024732901    0.000013687811    0.071485626459    0.032496346854    0.000027904517    0.000015490470    0.066323743536    0.028557727197
0.375     0.056045727544    0.018258971454    0.000024446301    0.000011955894    0.063775780012    0.020649045324    0.000027205386    0.000013289462
            0.000024446301    0.000011955894    0.065595074330    0.027583335641    0.000027305369    0.000013336919    0.073109291658    0.029848615648
            0.063775780012    0.020649045324    0.000027305369    0.000013336919    0.056491089264    0.018955655440    0.000030694413    0.000015007747
            0.000027205386    0.000013289462    0.073109291658    0.029848615648    0.000030694413    0.000015007747    0.066373579264    0.028792890417
0.400     0.053250894842    0.021036694002    0.000026815647    0.000011412680    0.062241234097    0.019790896668    0.000029837291    0.000012658403
            0.000026815647    0.000011412680    0.065384399975    0.028806531600    0.000029936073    0.000012699097    0.074126633136    0.027750460830
            0.062241234097    0.019790896668    0.000029936073    0.000012699097    0.053898307462    0.021599427274    0.000033648006    0.000014258570
            0.000029837291    0.000012658403    0.074126633136    0.027750460830    0.000033648006    0.000014258570    0.066413449996    0.029933635791
0.425     0.051112694277    0.025467396624    0.000029335845    0.000010606102    0.060578282843    0.020293743006    0.000032626059    0.000011732658
            0.000029335845    0.000010606102    0.065513079516    0.030997071467    0.000032720782    0.000011768818    0.074793579946    0.026349206149
            0.060578284386    0.020293744699    0.000032720782    0.000011768818    0.051928807282    0.025838116059    0.000036760186    0.000013178477
            0.000032626059    0.000011732658    0.074793579946    0.026349206149    0.000036760186    0.000013178477    0.066774130220    0.031984063496
0.450     0.050165927385    0.031381034687    0.000031991401    0.000009471478    0.059264698389    0.022178397120    0.000035552949    0.000010443896
            0.000031991401    0.000009471478    0.066327017486    0.034062507031    0.000035641334    0.000010478755    0.075405421159    0.025716146796
            0.059264698389    0.022178397120    0.000035641334    0.000010478755    0.051102046774    0.031512121150    0.000040008912    0.000011696811
            0.000035552949    0.000010443896    0.075405421159    0.025716146796    0.000040008912    0.000011696811    0.067787283044    0.034857527511
0.475     0.050891954853    0.038451366701    0.000034741392    0.000007939593    0.058773412947    0.025317138760    0.000038572241    0.000008719408
            0.000034741392    0.000007939593    0.068139373145    0.037808775595    0.000038653354    0.000008757312    0.076265185531    0.025827834991
            0.058773412947    0.025317138760    0.000038653354    0.000008757312    0.051888778045    0.038309062308    0.000043344100    0.000009738583
            0.000038572241    0.000008719408    0.076265185531    0.025827834991    0.000043344100    0.000009738583    0.069754827574    0.038369503761
0.500     0.053681517152    0.046218115756    0.000037523748    0.000005946784    0.059538146174    0.029443394688    0.000041615819    0.000006493044
            0.000037523748    0.000005946784    0.071211622099    0.041957333470    0.000041690191    0.000006538673    0.077668007151    0.026572913889
            0.059538146174    0.029443394688    0.000041690191    0.000006538673    0.054675252473    0.045782265442    0.000046692220    0.000007236096
            0.000041615819    0.000006493044    0.077668007151    0.026572913889    0.000046692220    0.000007236096    0.072931456675    0.042251238434
0.525     0.058790371762    0.054109754248    0.000040247906    0.000003441668    0.061898542791    0.034155307418    0.000044585519    0.000003712260
            0.000040247906    0.000003441668    0.075723168083    0.046154257814    0.000044655230    0.000003770441    0.079862093580    0.027745462892
            0.061898542791    0.034155307418    0.000044655230    0.000003770441    0.059711477633    0.053363483376    0.000049948657    0.000004136388
            0.000044585519    0.000003712260    0.079862093580    0.027745462892    0.000049948657    0.000004136388    0.077489589678    0.046152781380
0.550     0.066317244434    0.061491323083    0.000042806708    0.000000396744    0.066057573888    0.038964418539    0.000047366465    0.000000351350
            0.000042806708    0.000000396744    0.081761521201    0.050000378062    0.000047435309    0.000000426838    0.083024474152    0.029074477549
            0.066057573888    0.038964418539    0.000047435309    0.000000426838    0.067061120128    0.060422669607    0.000052991978    0.000000416322
            0.000047366465    0.000000351350    0.083024474152    0.029074477549    0.000052991978    0.000000416322    0.083490405757    0.049678660819
0.575     0.076182585206    0.067706583228    0.000045077447    -0.000003188994    0.072073487611    0.043362763351    0.000049829804    -0.000003587012
            0.000045077447    -0.000003188994    0.089301995183    0.053072517771    0.000049904194    -0.000003491273    0.087245439605    0.030261445651
            0.072073487611    0.043362763351    0.000049904194    -0.000003491273    0.076616143518    0.066370770199    0.000055689339    -0.000003918847
            0.000049829804    -0.000003587012    0.087245439605    0.030261445651    0.000055689339    -0.000003918847    0.090884227269    0.052451777832
0.600     0.088130129834    0.072129383396    0.000046935359    -0.000007283659    0.079900172794    0.046825244976    0.000051844851    -0.000008068582
            0.000046935359    -0.000007283659    0.098210062297    0.054955277550    0.000051932028    -0.000007951595    0.092561170817    0.030981075917
            0.079900172794    0.046825244976    0.000051932028    -0.000007951595    0.088176944168    0.070635218075    0.000057905355    -0.000008834236
            0.000051844851    -0.000008068582    0.092561170817    0.030981075917    0.000057905355    -0.000008834236    0.099569240932    0.054099566925
0.625     0.101732105879    0.074211517298    0.000048255071    -0.000011817139    0.089321794357    0.048822176833    0.000053279020    -0.000013018827
            0.000048255071    -0.000011817139    0.108236199244    0.055268917395    0.000053386072    -0.000012882016    0.098897573245    0.030878999540
            0.089321794357    0.048822176833    0.000053386072    -0.000012882016    0.101366458680    0.072660719912    0.000059499770    -0.000014252869
            0.000053279021    -0.000013018827    0.098897573245    0.030878999540    0.000059499770    -0.000014252869    0.109328557859    0.054244791771
0.650     0.116434192797    0.073526792296    0.000048933486    -0.000016685548    0.099979203246    0.048906350409    0.000054024081    -0.000018326525
            0.000048933486    -0.000016685548    0.119041626344    0.053699155857    0.000054157640    -0.000018173260    0.106083497985    0.029632048153
            0.099979203246    0.048906350409    0.000054157640    -0.000018173260    0.115651033754    0.072014504081    0.000060358522    -0.000020057756
            0.000054024081    -0.000018326525    0.106083497985    0.029632048153    0.000060358522    -0.000020057756    0.119838779141    0.052575461383
0.675     0.131584598252    0.069798868098    0.000048892137    -0.000021755328    0.111402376046    0.046741054555    0.000053997923    -0.000023850300
            0.000048892137    -0.000021755328    0.130209144865    0.050018471261    0.000054163751    -0.000023685885    0.113857393742    0.026969202294
            0.111402376046    0.046741054555    0.000054163751    -0.000023685885    0.130398133400    0.068419411853    0.000060394716    -0.000026101082
            0.000053997923    -0.000023850300    0.113857393742    0.026969202294    0.000060394716    -0.000026101082    0.130696931555    0.048869212548
0.700     0.146488317529    0.062919461085    0.000048092483    -0.000026877434    0.123061517432    0.042121012427    0.000053160577    -0.000029432904
            0.000048092483    -0.000026877434    0.141277271881    0.044103114304    0.000053362825    -0.000029263857    0.121902514918    0.022691603487
            0.123061517432    0.042121012427    0.000053362825    -0.000029263857    0.144932083674    0.061763938934    0.000059565579    -0.000032218423
            0.000053160577    -0.000029432904    0.121902514918    0.022691603487    0.000059565579    -0.000032218423    0.141458296096    0.043005793062
0.725     0.160441166967    0.052949441929    0.000046531280    -0.000031893647    0.134387960038    0.034973887240    0.000051508543    -0.000034908081
            0.000046531280    -0.000031893647    0.151758567902    0.035940552206    0.000051749709    -0.000034741908    0.129850396205    0.016680769865
            0.134387960038    0.034973887240    0.000051749709    -0.000034741908    0.158569810623    0.052099740848    0.000057865419    -0.000038235822
            0.000051508543    -0.000034908081    0.129850396205    0.016680769865    0.000057865419    -0.000038235822    0.151653097079    0.034970926822
0.750     0.172780782284    0.040107793985    0.000044248102    -0.000036653451    0.144822429531    0.025362310334    0.000049083014    -0.000040117349
            0.000044248102    -0.000036653451    0.161175018117    0.025628007782    0.000049363806    -0.000039962045    0.137318368548    0.008906744139
            0.144822429531    0.025362310334    0.000049363806    -0.000039962045    0.170665355201    0.039633601587    0.000055335479    -0.000043987314
            0.000049083014    -0.000040117349    0.137318368548    0.008906744139    0.000055335479    -0.000043987314    0.160820698457    0.024857640777
0.775     0.182910989364    0.024755021507    0.000041314530    -0.000041018517    0.153829452959    0.013469727847    0.000045957963    -0.000044915205
            0.000041314530    -0.000041018517    0.169075393470    0.013368980388    0.000046277177    -0.000044778662    0.143913860074    -0.000572803390
            0.153829452959    0.013469727847    0.000046277177    -0.000044778662    0.180637184927    0.024708112386    0.000052050164    -0.000049319670
            0.000045957963    -0.000044915205    0.143913860074    -0.000572803390    0.000052050164    -0.000049319670    0.168526162672    0.012859409525
0.800     0.190334834814    0.007366920610    0.000037834505    -0.000044877095    0.160934697496    -0.000410095596    0.000042241312    -0.000049183568
            0.000037834505    -0.000044877095    0.175064542209    -0.000541604881    0.000042596364    -0.000049073287    0.149270767535    -0.011615173223
