# GHz S RI R 45
0.000     0.011305715714    0.001434174380    -0.000000338585    -0.000000221041    0.000534142682    0.001234993432    -0.000000086128    0.000000309852
            -0.000000338584    -0.000000221041    0.012219423400    0.001861957483    -0.000000681513    -0.000000915443    0.000625522419    0.001662521780
            0.000534142639    0.001234993450    -0.000000681513    -0.000000915443    0.011238795254    0.001425818357    -0.000000337937    -0.000000198685
            -0.000000086210    0.000000309853    0.000625522628    0.001662521808    -0.000000337941    -0.000000198685    0.012149829135    0.001873965064
0.025     0.014755817897    0.008923562168    -0.000000561289    -0.000000453319    0.001713377238    0.007750058969    -0.000000027008    0.000000712697
            -0.000000561290    -0.000000453319    0.015367370360    0.010526979167    -0.000001284001    -0.000001973128    0.001616362609    0.009372185291
            0.001713204486    0.007750091935    -0.000001284001    -0.000001973128    0.014679868215    0.008841911757    -0.000000553993    -0.000000399252
            -0.000000027009    0.000000712698    0.001616616512    0.009371611485    -0.000000553994    -0.000000399252    0.015298345405    0.010506299828
0.050     0.019749283939    0.014811648079    -0.000000922105    -0.000000618178    0.005117328895    0.014788791023    0.000000183485    0.000001399438
            -0.000000922105    -0.000000618178    0.019479590360    0.018022204568    -0.000002380932    -0.000003239413    0.004451437574    0.018149569524
            0.005117298729    0.014788794054    -0.000002380932    -0.000003239413    0.019647602971    0.014669146355    -0.000000897442    -0.000000511591
            0.000000183484    0.000001399438    0.004451532220    0.018149563814    -0.000000897442    -0.000000511591    0.019363397379    0.017989283309
0.075     0.026177441355    0.018994975085    -0.000001270839    -0.000000640923    0.010400503831    0.020583814899    0.000000541302    0.000002051310
            -0.000001270839    -0.000000640923    0.024363009855    0.024248340341    -0.000003640184    -0.000004130021    0.008823117938    0.026013192612
            0.010400495919    0.020583814415    -0.000003640184    -0.000004130021    0.026044577282    0.018801041788    -0.000001217384    -0.000000483159
            0.000000541302    0.000002051310    0.008823113397    0.026013194152    -0.000001217384    -0.000000483159    0.024190263887    0.024229299868
0.100     0.033812275853    0.021167550746    -0.000001619778    -0.000000557979    0.017171033588    0.024743092298    0.000001039278    0.000002638614
            -0.000001619778    -0.000000557979    0.029937616281    0.029158187514    -0.000005068974    -0.000004697066    0.014438917631    0.032715358557
            0.017171033156    0.024743092598    -0.000005068974    -0.000004697066    0.033644442059    0.020936662382    -0.000001522997    -0.000000350608
            0.000001039278    0.000002638614    0.014438891867    0.032715366648    -0.000001522997    -0.000000350608    0.029699012081    0.029179672966
0.125     0.042126655594    0.020934251994    -0.000001953183    -0.000000368337    0.024979954477    0.026975906403    0.000001665412    0.000003140960
            -0.000001953183    -0.000000368337    0.035786832712    0.032597302195    -0.000006617857    -0.000004913043    0.021004183912    0.038098097004
            0.024979954477    0.026975906403    -0.000006617857    -0.000004913043    0.041921220711    0.020681786419    -0.000001795340    -0.000000117821
            0.000001665412    0.000003140960    0.021004183912    0.038098097004    -0.000001795340    -0.000000117821    0.035486503045    0.032697677106
0.150     0.050580854360    0.018348039144    -0.000002248631    -0.000000083989    0.033339386247    0.027042991828    0.000002408053    0.000003536893
            -0.000002248631    -0.000000083989    0.041807224349    0.034763180947    -0.000008219454    -0.000004785701    0.028163048311    0.042000896060
            0.033339386247    0.027042991828    -0.000008219454    -0.000004785701    0.050348139280    0.018100629184    -0.000002011339    0.000000197871
            0.000002408053    0.000003536893    0.028163048311    0.042000896060    -0.000002011339    0.000000197871    0.041448767236    0.034967479069
0.175     0.058585666710    0.013323816365    -0.000002487485    0.000000285862    0.041705397452    0.024850054549    0.000003251684    0.000003808817
            -0.000002487485    0.000000285862    0.047608689152    0.035655687964    -0.000009813316    -0.000004316875    0.035559165298    0.044401296777
            0.041705397452    0.024850054549    -0.000009813316    -0.000004316875    0.058343475344    0.013097747511    -0.000002154298    0.000000580145
            0.000003251684    0.000003808817    0.035559165298    0.044401296777    -0.000002154298    0.000000580145    0.047214794320    0.035993991988
0.200     0.065528092903    0.005964142289    -0.000002653361    0.000000726992    0.049534243165    0.020430169743    0.000004177949    0.000003939634
            -0.000002653361    0.000000726992    0.052862593594    0.035442249499    -0.000011343570    -0.000003525418    0.042851550521    0.045363188498
            0.049534243165    0.020430169743    -0.000011343570    -0.000003525418    0.065299329568    0.005769214036    -0.000002211466    0.000001007922
            0.000004177949    0.000003939634    0.042851550521    0.045363188498    -0.000002211466    0.000001007922    0.052468687895    0.035938207839
0.225     0.070822914872    -0.003477776689    -0.000002732639    0.000001224052    0.056300188227    0.013933820261    0.000005167357    0.000003916464
            -0.000002732639    0.000001224052    0.057326878949    0.034370394739    -0.000012760159    -0.000002432531    0.049730968728    0.045022543297
            0.056300188227    0.013933820261    -0.000012760159    -0.000002432531    0.070634647082    -0.003638900755    -0.000002176971    0.000001459937
            0.000005167357    0.000003916464    0.049730968728    0.045022543297    -0.000002176971    0.000001459937    0.056976811443    0.035036329162
0.250     0.073965144381    -0.014601805011    -0.000002715506    0.000001759427    0.061525157761    0.005624282390    0.000006197414    0.000003727737
            -0.000002715506    0.000001759427    0.060847676955    0.032754052246    -0.000014023298    -0.000001067586    0.055941018970    0.043589489056
            0.061525157761    0.005624282390    -0.000014023298    -0.000001067586    0.073846438156    -0.014734136408    -0.000002049786    0.000001914817
            0.000006197414    0.000003727737    0.055941018970    0.043589489056    -0.000002049786    0.000001914817    0.060589092553    0.033589029279
0.275     0.074545271902    -0.026902426587    -0.000002594637    0.000002315831    0.064793136896    -0.004134536071    0.000007246465    0.000003365909
            -0.000002594637    0.000002315831    0.063369456954    0.030923348868    -0.000015097509    0.000000541632    0.061291203356    0.041321743541
            0.064793136896    -0.004134536071    -0.000015097509    0.000000541632    0.074525573713    -0.027019356128    -0.000001834805    0.000002354751
            0.000007246465    0.000003365909    0.061291203356    0.041321743541    -0.000001834805    0.000002354751    0.063249959845    0.031912354507
0.300     0.072283368962    -0.039786685554    -0.000002365353    0.000002875008    0.065776808225    -0.014894008580    0.000008289958    0.000002824877
            -0.000002365353    0.000002875008    0.064933113151    0.029214816067    -0.000015955257    0.000002365706    0.065670965081    0.038515169154
            0.065776808225    -0.014894008580    -0.000015955257    0.000002365706    0.072390623743    -0.039910696936    -0.000001538586    0.000002764475
            0.000008289958    0.000002824877    0.065670965081    0.038515169154    -0.000001538586    0.000002764475    0.064996231500    0.030329022549
0.325     0.067029516525    -0.052607014385    -0.000002024817    0.000003418690    0.064247134478    -0.026137403533    0.000009305190    0.000002101614
            -0.000002024817    0.000003418690    0.065671565342    0.027929439382    -0.000016568806    0.000004376773    0.069050124561    0.035473428661
            0.064247134478    -0.026137403533    -0.000016568806    0.000004376773    0.067287463466    -0.052769180000    -0.000001170506    0.000003133737
            0.000009305190    0.000002101614    0.069050124561    0.035473428661    -0.000001170506    0.000003133737    0.065952969639    0.029128129846
0.350     0.058784620987    -0.064691714040    -0.000001572269    0.000003927389    0.060092266434    -0.037305265430    0.000010266134    0.000001194668
            -0.000001572269    0.000003927389    0.065799310101    0.027325135522    -0.000016915031    0.000006546142    0.071485626459    0.032496346854
            0.060092266434    -0.037305265430    -0.000016915031    0.000006546142    0.059210739234    -0.064931187947    -0.000000738430    0.000003454061
            0.000010266134    0.000001194668    0.071485626459    0.032496346854    -0.000000738430    0.000003454061    0.066323743536    0.028557727197
0.375     0.047692703980    -0.075372102663    -0.000001009352    0.000004380969    0.053320566829    -0.047814054911    0.000011148523    0.000000104792
            -0.000001009352    0.000004380969    0.065595074330    0.027583335641    -0.000016967673    0.000008843794    0.073109291658    0.029848615648
            0.053320566829    -0.047814054911    -0.000016967673    0.000008843794    0.048296594864    -0.075735084438    -0.000000250174    0.000003721215
            0.000011148523    0.000000104792    0.073109291658    0.029848615648    -0.000000250174    0.000003721215    0.066373579264    0.028792890417
0.400     0.034046387293    -0.084019262910    -0.000000341141    0.000004757349    0.044069235899    -0.057089795367    0.000011923844    -0.000001164815
            -0.000000341141    0.000004757349    0.065384399975    0.028806531600    -0.000016703732    0.000011236833    0.074126633136    0.027750460830
            0.044069235899    -0.057089795367    -0.000016703732    0.000011236833    0.034827655112    -0.084557512256    0.000000289239    0.000003929722
            0.000011923844    -0.000001164815    0.074126633136    0.027750460830    0.000000289239    0.000003929722    0.066413449996    0.029933635791
0.425     0.018272136658    -0.090067221675    0.000000422784    0.000005033684    0.032599352507    -0.064586273202    0.000012564452    -0.000002609221
            0.000000422784    0.000005033684    0.065513079516    0.030997071467    -0.000016098935    0.000013685060    0.074793579946    0.026349206149
            0.032599352507    -0.064586273202    -0.000016098935    0.000013685060    0.019219327475    -0.090837339358    0.000000875169    0.000004075450
            0.000012564452    -0.000002609221    0.074793579946    0.026349206149    0.000000875169    0.000004075450    0.066774130220    0.031984063496
0.450     0.000918395163    -0.093049316838    0.000001267305    0.000005182825    0.019290560007    -0.069821417569    0.000013037279    -0.000004221855
            0.000001267305    0.000005182825    0.066327017486    0.034062507031    -0.000015134389    0.000016139333    0.075405421159    0.025716146796
            0.019290560007    -0.069821417569    -0.000015134389    0.000016139333    0.002007323741    -0.094110676934    0.000001504815    0.000004146596
            0.000013037279    -0.000004221855    0.075405421159    0.025716146796    0.000001504815    0.000004146596    0.067787283044    0.034857527511
0.475     -0.017364814455    -0.092614354127    0.000002181554    0.000005174525    0.004628900536    -0.072392393824    0.000013319779    -0.000005996520
            0.000002181554    0.000005174525    0.068139373145    0.037808775595    -0.000013780508    0.000018537984    0.076265185531    0.025827834991
            0.004628900536    -0.072392393824    -0.000013780508    0.000018537984    -0.016173488035    -0.094029994176    0.000002185119    0.000004128693
            0.000013319779    -0.000005996520    0.076265185531    0.025827834991    0.000002185119    0.000004128693    0.069754827574    0.038369503761
0.500     -0.035845808316    -0.088556530044    0.000003149471    0.000005001960    -0.010810025351    -0.072009987547    0.000013386069    -0.000007899373
            0.000003149471    0.000005001960    0.071211622099    0.041957333470    -0.000012020198    0.000020839126    0.077668007151    0.026572913889
            -0.010810025351    -0.072009987547    -0.000012020198    0.000020839126    -0.034617661817    -0.090389790212    0.000002919647    0.000004023323
            0.000013386069    -0.000007899373    0.077668007151    0.026572913889    0.000002919647    0.000004023323    0.072931456675    0.042251238434
0.525     -0.053730948923    -0.080846535846    0.000004120063    0.000004651478    -0.026377821050    -0.068518941037    0.000013190643    -0.000009901943
            0.000004120063    0.000004651478    0.075723168083    0.046154257814    -0.000009870773    0.000022976528    0.079862093580    0.027745462892
            -0.026377821050    -0.068518941037    -0.000009870773    0.000022976528    -0.052578579088    -0.083135103343    0.000003686051    0.000003817746
            0.000013190643    -0.000009901943    0.079862093580    0.027745462892    0.000003686051    0.000003817746    0.077489589678    0.046152781380
0.550     -0.070255086874    -0.069695800909    0.000005045102    0.000004110832    -0.041422394519    -0.061945658894    0.000012700276    -0.000011973563
            0.000005045102    0.000004110832    0.081761521201    0.050000378062    -0.000007350749    0.000024871860    0.083024474152    0.029074477549
            -0.041422394519    -0.061945658894    -0.000007350749    0.000024871860    -0.069310999832    -0.072371448529    0.000004467660    0.000003486314
            0.000012700276    -0.000011973563    0.083024474152    0.029074477549    0.000004467660    0.000003486314    0.083490405757    0.049678660819
0.575     -0.084825889325    -0.055430515854    0.000005892181    0.000003393271    -0.055371277319    -0.052420735201    0.000011896666    -0.000014075435
            0.000005892181    0.000003393271    0.089301995183    0.053072517771    -0.000004486107    0.000026449348    0.087245439605    0.030261445651
            -0.055371277319    -0.052420735201    -0.000004486107    0.000026449348    -0.084106840295    -0.058361930556    0.000005247541    0.000003011656
            0.000011896666    -0.000014075435    0.087245439605    0.030261445651    0.000005247541    0.000003011656    0.090884227269    0.052451777832
0.600     -0.096852153482    -0.038368245248    0.000006632959    0.000002505669    -0.067644570384    -0.040133258568    0.000010758919    -0.000016160293
            0.000006632959    0.000002505669    0.098210062297    0.054955277550    -0.000001324658    0.000027643683    0.092561170817    0.030981075917
            -0.067644570384    -0.040133258568    -0.000001324658    0.000027643683    -0.096331650744    -0.041525735509    0.000005997776    0.000002379086
            0.000010758919    -0.000016160293    0.092561170817    0.030981075917    0.000005997776    0.000002379086    0.099569240932    0.054099566925
0.625     -0.105728048129    -0.019027383822    0.000007228138    0.000001460589    -0.077661477354    -0.025446649195    0.000009273599    -0.000018174136
            0.000007228138    0.000001460589    0.108236199244    0.055268917395    0.000002071502    0.000028395693    0.098897573245    0.030878999540
            -0.077661477354    -0.025446649195    0.000002071502    0.000028395693    -0.105445500822    -0.022420461812    0.000006687662    0.000001582132
            0.000009273599    -0.000018174136    0.098897573245    0.030878999540    0.000006687662    0.000001582132    0.109328557859    0.054244791771
0.650     -0.111013202813    0.001908690133    0.000007638541    0.000000286808    -0.084958787225    -0.008864633522    0.000007438840    -0.000020052821
            0.000007638541    0.000000286808    0.119041626344    0.053699155857    0.000005627352    0.000028663209    0.106083497985    0.029632048153
            -0.084958787225    -0.008864633522    0.000005627352    0.000028663209    -0.111033717931    -0.001706439389    0.000007279615    0.000000620903
            0.000007438840    -0.000020052821    0.106083497985    0.029632048153    0.000007279615    0.000000620903    0.119838779141    0.052575461383
0.675     -0.112443105663    0.023684923378    0.000007835608    -0.000000974235    -0.089197174546    0.009031174691    0.000005266605    -0.000021733397
            0.000007835608    -0.000000974235    0.130209144865    0.050018471261    0.000009257620    0.000028417319    0.113857393742    0.026969202294
            -0.089197174546    0.009031174691    0.000009257620    0.000028417319    -0.112826386722    0.019887392164    0.000007736358    -0.000000491954
            0.000005266605    -0.000021733397    0.113857393742    0.026969202294    0.000007736358    -0.000000491954    0.130696931555    0.048869212548
0.700     -0.109924681647    0.045521662633    0.000007801873    -0.000002275188    -0.090176271250    0.027614680109    0.000002783079    -0.000023150225
            0.000007801873    -0.000002275188    0.141277271881    0.044103114304    0.000012875027    0.000027651359    0.121902514918    0.022691603487
            -0.090176271250    0.027614680109    0.000012875027    0.000027651359    -0.110715461848    0.041599240186    0.000008019583    -0.000001734969
            0.000002783079    -0.000023150225    0.121902514918    0.022691603487    0.000008019583    -0.000001734969    0.141458296096    0.043005793062
0.725     -0.103526884375    0.066644130299    0.000007534358    -0.000003565511    -0.087824843490    0.046238713169    0.000000028211    -0.000024246812
            0.000007534358    -0.000003565511    0.151758567902    0.035940552206    0.000016392194    0.000026373653    0.129850396205    0.016680769865
            -0.087824843490    0.046238713169    0.000016392194    0.000026373653    -0.104753115242    0.062666953824    0.000008099419    -0.000003076179
            0.000000028211    -0.000024246812    0.129850396205    0.016680769865    0.000008099419    -0.000003076179    0.151653097079    0.034970926822
0.750     -0.093474728607    0.086320539879    0.000007041630    -0.000004796230    -0.082209024545    0.064269036421    -0.000002944906    -0.000024971011
            0.000007041630    -0.000004796230    0.161175018117    0.025628007782    0.000019729477    0.000024612546    0.137318368548    0.008906744139
            -0.082209024545    0.064269036421    0.000019729477    0.000024612546    -0.095146583193    0.082364681254    0.000007950083    -0.000004477180
            -0.000002944906    -0.000024971011    0.137318368548    0.008906744139    0.000007950083    -0.000004477180    0.160820698457    0.024857640777
0.775     -0.080131751874    0.103886754679    0.000006346063    -0.000005923221    -0.073513475844    0.081103334427    -0.000006074151    -0.000025286836
            0.000006346063    -0.000005923221    0.169075393470    0.013368980388    0.000022814915    0.000022406699    0.143913860074    -0.000572803390
            -0.073513475844    0.081103334427    0.000022814915    0.000022406699    -0.082242294762    0.100030897293    0.000007558567    -0.000005894442
            -0.000006074151    -0.000025286836    0.143913860074    -0.000572803390    0.000007558567    -0.000005894442    0.168526162672    0.012859409525
