# GHz S RI R 45
0.000     0.035831340475    0.001363265577    -0.000008195781    -0.000020619659    0.000960852009    0.001175559314    -0.000008249175    -0.000021751277
            -0.000008195756    -0.000020619659    0.036114097548    0.001459838567    -0.000007546698    -0.000018455328    0.001019799929    0.001627686454
            0.000960852072    0.001175559391    -0.000007546702    -0.000018455329    0.035668918149    0.001358737810    -0.000008509253    -0.000021147378
            -0.000008249244    -0.000021751276    0.001019800124    0.001627686450    -0.000008509215    -0.000021147379    0.036052238408    0.001471644252
0.025     0.043246445278    0.004794538239    -0.000026319420    -0.000045477880    0.004445230130    0.010169048658    -0.000026646262    -0.000046703994
            -0.000026319417    -0.000045477875    0.041624802729    0.005693545396    -0.000024203554    -0.000042111576    0.003298488789    0.011729754025
            0.004445072345    0.010169364276    -0.000024203592    -0.000042111624    0.043192186988    0.004762750839    -0.000027108056    -0.000046955123
            -0.000026646270    -0.000046703989    0.003298743857    0.011729179519    -0.000027108049    -0.000046955111    0.041528030200    0.005641814554
0.050     0.051590624931    -0.000164126508    -0.000065594863    -0.000070387652    0.013578189716    0.016019794444    -0.000066897467    -0.000072572271
            -0.000065594861    -0.000070387650    0.045599565830    0.004318321825    -0.000060634315    -0.000065361686    0.009551835551    0.021069942967
            0.013578181782    0.016019803790    -0.000060634317    -0.000065361687    0.051535079056    -0.000199963960    -0.000067513719    -0.000072908848
            -0.000066897469    -0.000072572274    0.009551934260    0.021069937744    -0.000067513784    -0.000072908918    0.045392040714    0.004272471785
0.075     0.057203915457    -0.011373796138    -0.000115005694    -0.000074577889    0.024558571382    0.014860871505    -0.000117805717    -0.000077237430
            -0.000115005694    -0.000074577889    0.046611462328    0.000884567601    -0.000106565951    -0.000069262927    0.017700691113    0.026465941214
            0.024558566895    0.014860876988    -0.000106565951    -0.000069262927    0.057173562203    -0.011407325338    -0.000118608330    -0.000077658881
            -0.000117805717    -0.000077237430    0.017700687324    0.026465942546    -0.000118608330    -0.000077658881    0.046297258463    0.000937130428
0.100     0.056650109637    -0.027230490909    -0.000167442489    -0.000056766298    0.032860823490    0.006715540430    -0.000172097967    -0.000059163721
            -0.000167442489    -0.000056766298    0.044045972308    -0.003008419401    -0.000155252127    -0.000052658028    0.025344933888    0.027865221843
            0.032860823490    0.006715540430    -0.000155252127    -0.000052658028    0.056679985360    -0.027272887527    -0.000173178745    -0.000059613016
            -0.000172097967    -0.000059163721    0.025344908492    0.027865230073    -0.000173178745    -0.000059613016    0.043682145542    -0.002779969737
0.125     0.047241902504    -0.043930443850    -0.000216034759    -0.000016588796    0.034657213531    -0.005890035280    -0.000222551253    -0.000017789788
            -0.000216034759    -0.000016588796    0.037708557953    -0.005256332117    -0.000200317773    -0.000015311943    0.030534445980    0.026488866907
            0.034657214609    -0.005890034903    -0.000200317773    -0.000015311943    0.047361769800    -0.044019403475    -0.000223960336    -0.000018122617
            -0.000222551253    -0.000017789788    0.030534445980    0.026488866907    -0.000223960336    -0.000018122617    0.037397928898    -0.004822452808
0.150     0.028694192406    -0.056393297955    -0.000253854467    0.000045448928    0.028048589789    -0.018624163121    -0.000261779591    0.000046394201
            -0.000253854467    0.000045448928    0.028806776644    -0.003663864900    -0.000235330301    0.000042304316    0.032313436910    0.024390861086
            0.028048592938    -0.018624163802    -0.000235330301    0.000042304316    0.028911692780    -0.056586406853    -0.000263465888    0.000046325106
            -0.000261779591    0.000046394201    0.032313436910    0.024390861086    -0.000263465888    0.000046325106    0.028654955903    -0.003060856008
0.175     0.003621050973    -0.059657989868    -0.000272556142    0.000127708331    0.013773658168    -0.026589590343    -0.000280993723    0.000131490152
            -0.000272556142    0.000127708331    0.019498562458    0.003123401953    -0.000252586142    0.000118648352    0.031049194584    0.023814590117
            0.013773673910    -0.026589592325    -0.000252586142    0.000118648352    0.003907022397    -0.060022159509    -0.000282828580    0.000131751743
            -0.000280993723    0.000131490152    0.031049194584    0.023814590117    -0.000282828580    0.000131751743    0.019579992859    0.003795739453
0.200     -0.022763134768    -0.050578316468    -0.000262359683    0.000224913134    -0.004759411364    -0.025839602499    -0.000270150198    0.000231771897
            -0.000262359683    0.000224913134    0.012591544579    0.015208519821    -0.000243008616    0.000208861931    0.028326801967    0.026429793831
            -0.004759411364    -0.025839602499    -0.000243008616    0.000208861931    -0.022479923980    -0.051164371872    -0.000272045420    0.000232308587
            -0.000270150198    0.000231771897    0.028326801967    0.026429793831    -0.000272045420    0.000232308587    0.012911509049    0.015816887725
0.225     -0.043894372031    -0.029094361594    -0.000214361555    0.000325963702    -0.022302076889    -0.014748819939    -0.000220352347    0.000335618142
            -0.000214361555    0.000325963702    0.010766433814    0.031142478249    -0.000198290854    0.000302641338    0.026439832683    0.032723114551
            -0.022302076889    -0.014748819939    -0.000198290854    0.000302641338    -0.043716235174    -0.029910274058    -0.000222377273    0.000336340576
            -0.000220352347    0.000335618142    0.026439832683    0.032723114551    -0.000222377273    0.000336340576    0.011249764263    0.031566898267
0.250     -0.053705008105    0.001286796129    -0.000125160546    0.000414069275    -0.033282446095    0.005230283135    -0.000128443064    0.000425834349
            -0.000125160546    0.000414069275    0.015705783074    0.048162590261    -0.000115226958    0.000384340497    0.027609656663    0.041792283316
            -0.033282446095    0.005230283135    -0.000115226958    0.000384340497    -0.053736966507    0.000293130109    -0.000130795470    0.000426806743
            -0.000128443064    0.000425834349    0.027609656663    0.041792283316    -0.000130795470    0.000426806743    0.016214897668    0.048342952752
0.275     -0.048529344435    0.034158773983    -0.000000545530    0.000470688264    -0.033543931193    0.029789622005    -0.000000560679    0.000483679165
            -0.000000545530    0.000470688264    0.027463616248    0.062871640052    0.000000772959    0.000436632736    0.033205956685    0.051611132236
            -0.033543931193    0.029789622005    0.000000772959    0.000436632736    -0.048843151287    0.033097578538    -0.000003420925    0.000485223821
            -0.000000560679    0.000483679165    0.033205956685    0.051611132236    -0.000003420925    0.000485223821    0.027842417382    0.062836040762
0.300     -0.028389480013    0.061845545513    0.000144257844    0.000481804245    -0.021693488173    0.052929735527    0.000147778763    0.000495118253
            0.000144257844    0.000481804245    0.044324619997    0.072229399399    0.000135460055    0.000446429463    0.043281046632    0.059708450289
            -0.021693488173    0.052929735527    0.000135460055    0.000446429463    -0.028992381388    0.060862586071    0.000144516381    0.000497769603
            0.000147778763    0.000495118253    0.043281046632    0.059708450289    0.000144516381    0.000497769603    0.044452385103    0.072093482405
0.325     0.002831091262    0.077483080781    0.000289045356    0.000442808952    0.000429942735    0.068639207474    0.000296203481    0.000455581857
            0.000289045356    0.000442808952    0.063238880587    0.074430055602    0.000269908951    0.000409470252    0.056561292077    0.063943966444
            0.000429942735    0.068639207474    0.000269908951    0.000409470252    0.002011607721    0.076720417375    0.000293043483    0.000459844712
            0.000296203481    0.000455581857    0.056561292077    0.063943966444    0.000293043483    0.000459844712    0.063074584500    0.074365492831
0.350     0.038295069401    0.076841014793    0.000415123318    0.000359360785    0.028217199359    0.072500282233    0.000425923567    0.000370703685
            0.000415123318    0.000359360785    0.080659910791    0.069419825581    0.000386611010    0.000331136064    0.070856760711    0.063137846238
            0.028217199359    0.072500282233    0.000386611010    0.000331136064    0.037403874680    0.076395246682    0.000423729613    0.000376751591
            0.000425923567    0.000370703685    0.070856760711    0.063137846238    0.000423729613    0.000376751591    0.080262277951    0.069603179659
0.375     0.069849209307    0.059383507301    0.000510453908    0.000243758400    0.055411092534    0.062771555083    0.000524776731    0.000252636243
            0.000510453908    0.000243758400    0.093477078518    0.058868927633    0.000474333850    0.000223043163    0.083669106499    0.057359269261
            0.055411092534    0.062771555083    0.000474333850    0.000223043163    0.069074938529    0.059270934633    0.000524485747    0.000260123391
            0.000524776731    0.000252636243    0.083669106499    0.057359269261    0.000524485747    0.000260123391    0.092995840737    0.059428397866
0.400     0.089867475983    0.028452465492    0.000571191747    0.000109361151    0.075506149805    0.040832559653    0.000588606895    0.000114579030
            0.000571191747    0.000109361151    0.099784842963    0.045736814940    0.000529559994    0.000097798535    0.092841269518    0.047913592591
            0.075506149805    0.040832559653    0.000529559994    0.000097798535    0.089400251871    0.028590905219    0.000590896178    0.000122635183
            0.000588606895    0.000114579030    0.092841269518    0.047913592591    0.000590896178    0.000122635183    0.099426222558    0.046709227737
0.425     0.092931498632    -0.009344132581    0.000599174081    -0.000034369781    0.083150267006    0.011023189778    0.000618751991    -0.000034047626
            0.000599174081    -0.000034369781    0.099333951687    0.033540284687    0.000554141010    -0.000035612195    0.097102501348    0.037038419216
            0.083150267006    0.011023189778    0.000554141010    -0.000035612195    0.092912803276    -0.009132253587    0.000623749125    -0.000026539825
            0.000618751991    -0.000034047626    0.097102501348    0.037038419216    0.000623749125    -0.000026539825    0.099307568734    0.034850039266
0.450     0.077142914124    -0.045359040269    0.000597017850    -0.000183669125    0.075428183859    -0.020048717501    0.000617224038    -0.000189222676
            0.000597017850    -0.000183669125    0.093634368885    0.025524779631    0.000550756671    -0.000173617857    0.096467782286    0.027395779532
            0.075428183859    -0.020048717501    0.000550756671    -0.000173617857    0.077618252265    -0.045319537764    0.000624470205    -0.000183230098
            0.000617224038    -0.000189222676    0.096467782286    0.027395779532    0.000624470205    -0.000183230098    0.094093560486    0.026991703999
0.475     0.044874421058    -0.070649850159    0.000563028523    -0.000338242059    0.052842055941    -0.044757632773    0.000581815820    -0.000350067576
            0.000563028523    -0.000338242059    0.085670218082    0.023825744544    0.000518092013    -0.000316004800    0.092358908847    0.021363028888
            0.052842055941    -0.044757632773    0.000518092013    -0.000316004800    0.045760519429    -0.071044316034    0.000590527313    -0.000346092750
            0.000581815820    -0.000350067576    0.092358908847    0.021363028888    0.000590527313    -0.000346092750    0.086660931844    0.025202767745
0.500     0.002715121420    -0.078085066071    0.000489275292    -0.000495410450    0.019700833334    -0.056243531844    0.000504409542    -0.000513010939
            0.000489275292    -0.000495410450    0.079231516152    0.028801484885    0.000448960566    -0.000460477114    0.087353976007    0.020281326851
            0.019700833334    -0.056243531844    0.000448960566    -0.000460477114    0.003794858272    -0.079122559208    0.000513916430    -0.000511015669
            0.000504409542    -0.000513010939    0.087353976007    0.020281326851    0.000513916430    -0.000511015669    0.080664266909    0.029838463127
0.525     -0.039700502613    -0.064409059334    0.000365099696    -0.000643652347    -0.016501423349    -0.050397478924    0.000374682434    -0.000665574316
            0.000365099696    -0.000643652347    0.077883375454    0.038738243004    0.000333529317    -0.000596532811    0.084468191555    0.023880115172
            -0.016501423349    -0.050397478924    0.000333529317    -0.000596532811    -0.038743152621    -0.066175195108    0.000384754957    -0.000665328970
            0.000374682434    -0.000665574316    0.084468191555    0.023880115172    0.000384754957    -0.000665328970    0.079544225040    0.039257484873
0.550     -0.072000830518    -0.031566564574    0.000185910871    -0.000760674742    -0.046871886345    -0.027391376032    0.000188787288    -0.000784833538
            0.000185910871    -0.000760674742    0.083841700509    0.050186832653    0.000167444747    -0.000703653640    0.086165355224    0.030222703509
            -0.046871886345    -0.027391376032    0.000167444747    -0.000703653640    -0.071506507584    -0.033977082077    0.000199617805    -0.000786385635
            0.000188787288    -0.000784833538    0.086165355224    0.030222703509    0.000199617805    -0.000786385635    0.085445599558    0.050144137649
0.575     -0.085956793726    0.013463456515    -0.000038305632    -0.000819433081    -0.063635648027    0.008063945062    -0.000042329915    -0.000843582857
            -0.000038305632    -0.000819433081    0.097154574808    0.058942784266    -0.000040084902    -0.000756783175    0.093456093879    0.036278744910
            -0.063635648027    0.008063945062    -0.000040084902    -0.000756783175    -0.086196716080    0.010660569417    -0.000030585280    -0.000847588013
            -0.000042329915    -0.000843582857    0.093456093879    0.036278744910    -0.000030585280    -0.000847588013    0.098428173502    0.058450426337
0.600     -0.077866623365    0.060498820871    -0.000281421143    -0.000799857748    -0.062414311356    0.047997222087    -0.000291779038    -0.000822063068
            -0.000281421143    -0.000799857748    0.115625452428    0.061371748674    -0.000264805591    -0.000737326557    0.105554617238    0.038946859849
            -0.062414311356    0.047997222087    -0.000264805591    -0.000737326557    -0.078961287753    0.057668311347    -0.000279529704    -0.000829640423
            -0.000291779038    -0.000822063068    0.105554617238    0.038946859849    -0.000279529704    -0.000829640423    0.116389490040    0.060669833871
0.625     -0.049458578087    0.098986343473    -0.000508799122    -0.000698413755    -0.043289134732    0.083481180433    -0.000524496880    -0.000717272462
            -0.000508799122    -0.000698413755    0.135502555205    0.055516003145    -0.000474551736    -0.000642100471    0.120180988791    0.036028061998
            -0.043289134732    0.083481180433    -0.000474551736    -0.000642100471    -0.051339076846    0.096516557244    -0.000513115427    -0.000729459741
            -0.000524496880    -0.000717272462    0.120180988791    0.036028061998    -0.000513115427    -0.000729459741    0.135724223527    0.054903912935
0.650     -0.007110886686    0.120697512720    -0.000689357153    -0.000529709395    -0.010421137552    0.106941304044    -0.000709346367    -0.000544283302
            -0.000689357153    -0.000529709395    0.152631647077    0.041574333666    -0.000640555667    -0.000484764510    0.134330037495    0.026791020163
            -0.010421137552    0.106941304044    -0.000640555667    -0.000484764510    -0.009531890428    0.118904794345    -0.000700998287    -0.000561332792
            -0.000709346367    -0.000544283302    0.134330037495    0.026791020163    -0.000700998287    -0.000561332792    0.152432569127    0.041329833531
0.675     0.040034171768    0.121401055538    -0.000804719334    -0.000319979366    0.029312500671    0.113674012230    -0.000828053591    -0.000329534432
            -0.000804719334    -0.000319979366    0.163553204664    0.021697288691    -0.000745834668    -0.000289734021    0.145068894071    0.012021526004
            0.029312500671    0.113674012230    -0.000745834668    -0.000289734021    0.037440167373    0.120458530287    -0.000825124556    -0.000350436154
            -0.000828053591    -0.000329534432    0.145068894071    0.012021526004    -0.000825124556    -0.000350436154    0.163176877290    0.022004552505
0.700     0.082211998042    0.101339215142    -0.000851962044    -0.000097511529    0.067923467755    0.102439306113    -0.000877693693    -0.000101318224
            -0.000851962044    -0.000097511529    0.166267766611    -0.000660870715    -0.000787737920    -0.000083251112    0.150185240087    -0.006257173408
            0.067923467755    0.102439306113    -0.000787737920    -0.000083251112    0.079858457467    0.101238561720    -0.000881973995    -0.000123782892
            -0.000877693693    -0.000101318224    0.150185240087    -0.006257173408    -0.000881973995    -0.000123782892    0.166020910774    0.000243947803
0.725     0.110864050826    0.064816824829    -0.000840427861    0.000115572483    0.097720938992    0.075390952829    -0.000867404008    0.000118318048
            -0.000840427861    0.000115572483    0.160570721105    -0.021548895752    -0.000774905859    0.000114067199    0.148585633812    -0.025221558287
            0.097720938992    0.075390952829    -0.000774905859    0.000114067199    0.109130031127    0.065364101580    -0.000879364975    0.000097394283
            -0.000867404008    0.000118318048    0.148585633812    -0.025221558287    -0.000879364975    0.000097394283    0.160751898771    -0.020154323350
0.750     0.120030225211    0.019313510548    -0.000785372554    0.000307937688    0.112496850353    0.037700147595    -0.000811970119    0.000317984970
            -0.000785372554    0.000307937688    0.148073469165    -0.037320059379    -0.000721531522    0.000291499786    0.140567780450    -0.041760528908
            0.112496850353    0.037700147595    -0.000721531522    0.000291499786    0.119182249984    0.020155238069    -0.000830489419    0.000301610926
            -0.000811970119    0.000317984970    0.140567780450    -0.041760528908    -0.000830489419    0.000301610926    0.148903638226    -0.035678781378
0.775     0.107388159006    -0.025699011809    -0.000700218916    0.000479344714    0.108613156801    -0.003083574808    -0.000724255387    0.000496987506
            -0.000700218916    0.000479344714    0.131949555477    -0.045382251042    -0.000640311614    0.000448546575    0.127902500517    -0.053101831341
            0.108613156801    -0.003083574808    -0.000640311614    0.000448546575    0.107514709108    -0.025020580109    -0.000746852953    0.000487199494
            -0.000724255387    0.000496987506    0.127902500517    -0.053101831341    -0.000746852953    0.000487199494    0.133510937918    -0.043827425054
