# GHz S RI R 45
0.000     0.036697833340    0.001342741765    0.000000556342    0.000001093604    0.001101110057    0.001457804910    0.000000628219    0.000001209605
            0.000000556342    0.000001093604    0.036114097548    0.001459838567    0.000000880356    0.000001209702    0.001019799929    0.001627686454
            0.001101110295    0.001457804855    0.000000880309    0.000001209703    0.036674197244    0.001333562128    0.000000710292    0.000001354487
            0.000000628219    0.000001209605    0.001019800124    0.001627686450    0.000000710308    0.000001354486    0.036052238408    0.001471644252
0.025     0.042706238769    0.005730645484    0.000000996734    0.000002416127    0.003617905749    0.011844265406    0.000001114568    0.000002675390
            0.000000996729    0.000002416128    0.041624802729    0.005693545396    0.000001113433    0.000002685438    0.003298488789    0.011729754025
            0.003617918062    0.011843501483    0.000001113426    0.000002685441    0.042592253702    0.005623766749    0.000001255431    0.000003001541
            0.000001114559    0.000002675388    0.003298743857    0.011729179519    0.000001255441    0.000003001543    0.041528030200    0.005641814554
0.050     0.047248241532    0.003883876203    0.000001777501    0.000004328689    0.010494897120    0.020883166195    0.000001975450    0.000004796390
            0.000001777501    0.000004328689    0.045599565830    0.004318321825    0.000001976813    0.000004814959    0.009551835551    0.021069942967
            0.010494919385    0.020883165078    0.000001976813    0.000004814959    0.047020567649    0.003743979464    0.000002214806    0.000005386441
            0.000001975450    0.000004796390    0.009551934260    0.021069937744    0.000002214806    0.000005386441    0.045392040714    0.004272471785
0.075     0.048648141604    -0.000656493243    0.000002662240    0.000006019261    0.019198059838    0.025310527189    0.000002953498    0.000006676554
            0.000002662240    0.000006019261    0.046611462328    0.000884567601    0.000002957964    0.000006703391    0.017700691113    0.026465941214
            0.019198075321    0.025310529252    0.000002957964    0.000006703391    0.048299322145    -0.000737867001    0.000003308360    0.000007509014
            0.000002953498    0.000006676554    0.017700687324    0.026465942546    0.000003308360    0.000007509014    0.046297258463    0.000937130428
0.100     0.045791103641    -0.006111254379    0.000003633434    0.000007617693    0.026813527006    0.025197009349    0.000004034314    0.000008456095
            0.000003633434    0.000007617693    0.044045972308    -0.003008419401    0.000004043052    0.000008490488    0.025344933888    0.027865221843
            0.026813527006    0.025197009349    0.000004043052    0.000008490488    0.045379477062    -0.006052834800    0.000004527629    0.000009520544
            0.000004034314    0.000008456095    0.025344908492    0.027865230073    0.000004527629    0.000009520544    0.043682145542    -0.002779969737
0.125     0.038199314797    -0.009859601399    0.000004739535    0.000009218016    0.031037707595    0.022211203123    0.000005271699    0.000010232266
            0.000004739535    0.000009218016    0.037708557953    -0.005256332117    0.000005285484    0.000010273032    0.030534445980    0.026488866907
            0.031037690147    0.022211157053    0.000005285484    0.000010273032    0.037827422828    -0.009634583141    0.000005932738    0.000011520205
            0.000005271699    0.000010232266    0.030534445980    0.026488866907    0.000005932738    0.000011520205    0.037397928898    -0.004822452808
0.150     0.027112609760    -0.009051017653    0.000006096143    0.000010874762    0.030919567256    0.019037030116    0.000006788891    0.000012059853
            0.000006096143    0.000010874762    0.028806776644    -0.003663864900    0.000006807451    0.000012105201    0.032313436910    0.024390861086
            0.030919566924    0.019037030656    0.000006807451    0.000012105201    0.026891291247    -0.008701438616    0.000007653751    0.000013560168
            0.000006788891    0.000012059853    0.032313436910    0.024390861086    0.000007653751    0.000013560168    0.028654955903    -0.003060856008
0.175     0.015218273675    -0.001786130540    0.000007865040    0.000012539507    0.027221373001    0.018469097120    0.000008756176    0.000013883102
            0.000007865040    0.000012539507    0.019498562458    0.003123401953    0.000008777909    0.000013932216    0.031049194584    0.023814590117
            0.027221373001    0.018469097120    0.000008777909    0.000013932216    0.015214887986    -0.001422973941    0.000009867195    0.000015576597
            0.000008756176    0.000013883102    0.031049194584    0.023814590117    0.000009867195    0.000015576597    0.019579992859    0.003795739453
0.200     0.006145766239    0.012197941614    0.000010182652    0.000014042724    0.022238532097    0.022419087862    0.000011314058    0.000015519025
            0.000010182652    0.000014042724    0.012591544579    0.015208519821    0.000011337029    0.000015572892    0.028326801967    0.026429793831
            0.022238532409    0.022419088960    0.000011337029    0.000015572892    0.006348505521    0.012433541704    0.000012715693    0.000017373785
            0.000011314058    0.000015519025    0.028326801967    0.026429793831    0.000012715693    0.000017373785    0.012911509049    0.015816887725
0.225     0.003410008284    0.031073938291    0.000013069640    0.000015101029    0.019050900865    0.031137549767    0.000014478617    0.000016666727
            0.000013069640    0.000015101029    0.010766433814    0.031142478249    0.000014502178    0.000016728346    0.026439832683    0.032723114551
            0.019050900865    0.031137549767    0.000014502178    0.000016728346    0.003719499514    0.031064274189    0.000016210115    0.000018634830
            0.000014478617    0.000016666727    0.026439832683    0.032723114551    0.000016210115    0.000018634830    0.011249764263    0.031566898267
0.250     0.009190535190    0.051223828598    0.000016353606    0.000015419665    0.020418437287    0.043024128652    0.000018062526    0.000017017473
            0.000016353606    0.000015419665    0.015705783074    0.048162590261    0.000018088476    0.000017090376    0.027609656663    0.041792283316
            0.020418437287    0.043024128652    0.000018088476    0.000017090376    0.009447183849    0.050925124689    0.000020148871    0.000019038342
            0.000018062526    0.000017017473    0.027609656663    0.041792283316    0.000020148871    0.000019038342    0.016214897668    0.048342952752
0.275     0.023453548493    0.068203926639    0.000019675000    0.000014828194    0.027751748516    0.055127763916    0.000021684613    0.000016395698
            0.000019675000    0.000014828194    0.027463616248    0.062871640052    0.000021717443    0.000016482536    0.033205956685    0.051611132236
            0.027751748516    0.055127763916    0.000021717443    0.000016482536    0.023490060097    0.067672936999    0.000024130654    0.000018403949
            0.000021684613    0.000016395698    0.033205956685    0.051611132236    0.000024130654    0.000018403949    0.027842417382    0.062836040762
0.300     0.043797128993    0.078127313796    0.000022607765    0.000013404081    0.040599748588    0.064166467635    0.000024897035    0.000014886122
            0.000022607765    0.000013404081    0.044324619997    0.072229399399    0.000024942724    0.000014986729    0.043281046632    0.059708450289
            0.040599748588    0.064166467635    0.000024942724    0.000014986729    0.043498548953    0.077510332710    0.000027687467    0.000016822194
            0.000024897035    0.000014886122    0.043281046632    0.059708450289    0.000027687467    0.000016822194    0.044452385103    0.072093482405
0.325     0.066112082514    0.078844624368    0.000024833062    0.000011466505    0.056813522704    0.067589118487    0.000027365806    0.000012824704
            0.000024833062    0.000011466505    0.063238880587    0.074430055602    0.000027430441    0.000012935817    0.056561292077    0.063943966444
            0.056813522704    0.067589118487    0.000027430441    0.000012935817    0.065458860084    0.078336057763    0.000030470691    0.000014643572
            0.000027365806    0.000012824704    0.056561292077    0.063943966444    0.000030470691    0.000014643572    0.063074584500    0.074365492831
0.350     0.085754713638    0.070567239224    0.000026275875    0.000009462816    0.073231826859    0.064321298730    0.000029011524    0.000010681072
            0.000026275875    0.000009462816    0.080659910791    0.069419825581    0.000029099660    0.000010796388    0.070856760711    0.063137846238
            0.073231826859    0.064321298730    0.000029099660    0.000010796388    0.084836309429    0.070350966666    0.000032396349    0.000012357030
            0.000029011524    0.000010681072    0.070856760711    0.063137846238    0.000032396349    0.000012357030    0.080262277951    0.069603179659
0.375     0.098783230739    0.055757191159    0.000027118694    0.000007795037    0.086551324559    0.055015469263    0.000030024088    0.000008878105
            0.000027118694    0.000007795037    0.093477078518    0.058868927633    0.000030137150    0.000008988674    0.083669106499    0.057359269261
            0.086551324559    0.055015469263    0.000030137150    0.000008988674    0.097779826515    0.055949483249    0.000033659619    0.000010402977
            0.000030024088    0.000008878105    0.083669106499    0.057359269261    0.000033659619    0.000010402977    0.092995840737    0.059428397866
0.400     0.102933074263    0.038503330823    0.000027726849    0.000006695724    0.094166374568    0.041909465230    0.000030787013    0.000007662843
            0.000027726849    0.000006695724    0.099784842963    0.045736814940    0.000030921644    0.000007758990    0.092841269518    0.047913592591
            0.094166374568    0.041909465230    0.000030921644    0.000007758990    0.102070064804    0.039112780080    0.000034657731    0.000009040527
            0.000030787013    0.000007662843    0.092841269518    0.047913592591    0.000034657731    0.000009040527    0.099426222558    0.046709227737
0.425     0.098185002806    0.023555556039    0.000028524957    0.000006173152    0.094854140787    0.028348623523    0.000031749324    0.000007046071
            0.000028524957    0.000006173152    0.099333951687    0.033540284687    0.000031896833    0.000007119835    0.097102501348    0.037038419216
            0.094854141745    0.028348623810    0.000031896833    0.000007119835    0.097672715418    0.024468100387    0.000035858017    0.000008282755
            0.000031749324    0.000007046071    0.097102501348    0.037038419216    0.000035858017    0.000008282754    0.099307568734    0.034850039266
0.450     0.086907270157    0.015215394992    0.000029899971    0.000006022099    0.089261571792    0.018037261613    0.000033322806    0.000006809799
            0.000029899971    0.000006022099    0.093634368885    0.025524779631    0.000033469303    0.000006858713    0.096467782286    0.027395779532
            0.089261571792    0.018037261613    0.000033469303    0.000006858713    0.086876108465    0.016212135833    0.000037690316    0.000007902949
            0.000033322806    0.000006809799    0.096467782286    0.027395779532    0.000037690316    0.000007902949    0.094093560486    0.026991703999
0.475     0.073484923207    0.016159192970    0.000032113512    0.000005848824    0.080005939658    0.014001480668    0.000035784075    0.000006531981
            0.000032113512    0.000005848824    0.085670218082    0.023825744544    0.000035914954    0.000006563014    0.092358908847    0.021363028888
            0.080005939658    0.014001480668    0.000035914954    0.000006563014    0.073933340327    0.016968193345    0.000040442806    0.000007459388
            0.000035784075    0.000006531981    0.092358908847    0.021363028888    0.000040442806    0.000007459388    0.086660931844    0.025202767745
0.500     0.063341018976    0.026448319239    0.000035218811    0.000005115072    0.071175345115    0.017488432349    0.000039182272    0.000005637901
            0.000035218811    0.000005115072    0.079231516152    0.028801484885    0.000039288813    0.000005667218    0.087353976007    0.020281326851
            0.071175345115    0.017488432349    0.000039288813    0.000005667218    0.064115987874    0.026823780491    0.000044163599    0.000006351106
            0.000039182272    0.000005637901    0.087353976007    0.020281326851    0.000044163599    0.000006351106    0.080664266909    0.029838463127
0.525     0.061357122836    0.043125874331    0.000038947629    0.000003239775    0.067101492003    0.027226798077    0.000043221964    0.000003515087
            0.000038947629    0.000003239775    0.077883375454    0.038738243004    0.000043307339    0.000003563022    0.084468191555    0.023880115172
            0.067101492003    0.027226798077    0.000043307339    0.000003563022    0.062184617526    0.042933205656    0.000048540325    0.000003940506
            0.000043221964    0.000003515087    0.084468191555    0.023880115172    0.000048540325    0.000003940506    0.079544225040    0.039257484873
0.550     0.070159177283    0.060865334565    0.000042670480    -0.000000187058    0.070785495323    0.039612938252    0.000047230293    -0.000000257759
            0.000042670480    -0.000000187058    0.083841700509    0.050186832653    0.000047310718    -0.000000176156    0.086165355224    0.030222703509
            0.070785495323    0.039612938252    0.000047310718    -0.000000176156    0.070723328937    0.060137184357    0.000052869100    -0.000000207690
            0.000047230293    -0.000000257759    0.086165355224    0.030222703509    0.000052869100    -0.000000207690    0.085445599558    0.050144137649
0.575     0.089044138894    0.073643087572    0.000045524120    -0.000005147572    0.082706935923    0.049912747211    0.000050300490    -0.000005648030
            0.000045524120    -0.000005147572    0.097154574808    0.058942784266    0.000050398455    -0.000005530187    0.093456093879    0.036278744910
            0.082706935923    0.049912747211    0.000050398455    -0.000005530187    0.089088094823    0.072579048517    0.000056206417    -0.000006056504
            0.000050300490    -0.000005648030    0.093456093879    0.036278744910    0.000056206417    -0.000006056504    0.098428173502    0.058450426337
0.600     0.114189441479    0.076762696283    0.000046752015    -0.000011083854    0.100702837987    0.053949238024    0.000051646519    -0.000012062647
            0.000046752015    -0.000011083854    0.115625452428    0.061371748674    0.000051781825    -0.000011919041    0.105554617238    0.038946859849
            0.100702837987    0.053949238024    0.000051781825    -0.000011919041    0.113596349797    0.075669513811    0.000057735984    -0.000012989413
            0.000051646519    -0.000012062647    0.105554617238    0.038946859849    0.000057735984    -0.000012989413    0.116389490040    0.060669833871
0.625     0.139989263947    0.068264923088    0.000046041258    -0.000017063433    0.120847544296    0.049383310883    0.000050947413    -0.000018526088
            0.000046041258    -0.000017063433    0.135502555205    0.055516003145    0.000051130900    -0.000018375216    0.120180988791    0.036028061998
            0.120847544296    0.049383310883    0.000051130900    -0.000018375216    0.138815644072    0.067465104149    0.000057121671    -0.000019995733
            0.000050947413    -0.000018526088    0.120180988791    0.036028061998    0.000057121671    -0.000019995733    0.135724223527    0.054903912935
0.650     0.160804546498    0.049238833603    0.000043665430    -0.000022144356    0.138758377524    0.036151142996    0.000048489763    -0.000024055979
            0.000043665430    -0.000022144356    0.152631647077    0.041574333666    0.000048722275    -0.000023917925    0.134330037495    0.026791020163
            0.138758377524    0.036151142996    0.000048722275    -0.000023917925    0.159257056682    0.048983918730    0.000054654404    -0.000026055362
            0.000048489763    -0.000024055979    0.134330037495    0.026791020163    0.000054654404    -0.000026055362    0.152432569127    0.041329833531
0.675     0.172351224776    0.023221821506    0.000040342709    -0.000025707039    0.150662037430    0.016179686015    0.000045019553    -0.000028003489
            0.000040342709    -0.000025707039    0.163553204664    0.021697288691    0.000045294058    -0.000027896420    0.145068894071    0.012021526004
            0.150662037430    0.016179686015    0.000045294058    -0.000027896420    0.170732382926    0.023631851107    0.000051100432    -0.000030489878
            0.000045019553    -0.000028003489    0.145068894071    0.012021526004    0.000051100432    -0.000030489878    0.163176877290    0.022004552505
0.700     0.172494935070    -0.004801555812    0.000036964470    -0.000027613599    0.154075701594    -0.007181362864    0.000041466033    -0.000030216289
            0.000036964470    -0.000027613599    0.166267766611    -0.000660870715    0.000041768753    -0.000030154457    0.150185240087    -0.006257173408
            0.154075701594    -0.007181362864    0.000041768753    -0.000030154457    0.171130198189    -0.003764560318    0.000047419885    -0.000033130725
            0.000041466033    -0.000030216289    0.150185240087    -0.006257173408    0.000047419885    -0.000033130725    0.166020910774    0.000243947803
0.725     0.161524807570    -0.029430403752    0.000034320036    -0.000028168440    0.148183002866    -0.029770746195    0.000038660207    -0.000031002566
            0.000034320036    -0.000028168440    0.160570721105    -0.021548895752    0.000038971135    -0.000030994754    0.148585633812    -0.025221558287
            0.148183002866    -0.029770746195    0.000038971135    -0.000030994754    0.160689369555    -0.027959209021    0.000044477209    -0.000034285834
            0.000038660207    -0.000031002566    0.148585633812    -0.025221558287    0.000044477209    -0.000034285834    0.160751898771    -0.020154323350
0.750     0.142146221848    -0.045825719652    0.000032935404    -0.000027982451    0.134130450813    -0.047274209125    0.000037166910    -0.000030997433
            0.000032935404    -0.000027982451    0.148073469165    -0.037320059379    0.000037460488    -0.000031042912    0.140567780450    -0.041760528908
            0.134130450813    -0.047274209125    0.000037460488    -0.000031042912    0.141995924925    -0.044231030544    0.000042867863    -0.000034606157
            0.000037166910    -0.000030997433    0.140567780450    -0.041760528908    0.000042867863    -0.000034606157    0.148903638226    -0.035678781378
0.775     0.119199818802    -0.050717410648    0.000033005866    -0.000027808989    0.115147606972    -0.056111741984    0.000037205379    -0.000030999815
            0.000033005866    -0.000027808989    0.131949555477    -0.045382251042    0.000037455310    -0.000031082622    0.127902500517    -0.053101831341
            0.115147606972    -0.056111741984    0.000037455310    -0.000031082622    0.119717676649    -0.049364859201    0.000042830699    -0.000034919951
            0.000037205379    -0.000030999815    0.127902500517    -0.053101831341    0.000042830699    -0.000034919951    0.133510937918    -0.043827425054
0.800     0.098936475223    -0.043470881237    0.000034398803    -0.000028429694    0.096246326594    -0.054584457272    0.000038638865    -0.000031850491
            0.000034398803    -0.000028429694    0.116403203701    -0.044885415536    0.000038829209    -0.000031937478    0.113673659649    -0.057550816328
