# GHz S RI R 45
0.000     0.036677423411    0.001161089733    0.000000037939    -0.000000030321    0.001085275149    0.001376098801    0.000000077669    0.000000031540
            0.000000037939    -0.000000030321    0.036114097548    0.001459838567    0.000000056864    -0.000000009055    0.001019799929    0.001627686454
            0.001085274857    0.001376098777    0.000000056864    -0.000000009055    0.036640770507    0.001170853242    0.000000104405    0.000000062841
            0.000000077669    0.000000031540    0.001019800124    0.001627686450    0.000000104405    0.000000062841    0.036052238408    0.001471644252
0.025     0.042402280551    0.005244068728    0.000000052082    -0.000000072217    0.003539161548    0.011619978311    0.000000119302    0.000000063773
            0.000000052082    -0.000000072217    0.041624802729    0.005693545396    0.000000082387    -0.000000024822    0.003298488789    0.011729754025
            0.003541517421    0.011618383399    0.000000082387    -0.000000024823    0.042347989556    0.005320328533    0.000000162916    0.000000133266
            0.000000119302    0.000000063773    0.003298743857    0.011729179519    0.000000162916    0.000000133266    0.041528030200    0.005641814554
0.050     0.046667018903    0.003174541960    0.000000064398    -0.000000162423    0.010278272578    0.020529189732    0.000000179412    0.000000076046
            0.000000064398    -0.000000162423    0.045599565830    0.004318321825    0.000000114488    -0.000000082738    0.009551835551    0.021069942967
            0.010278406563    0.020529247903    0.000000114488    -0.000000082738    0.046647131610    0.003336468455    0.000000249404    0.000000194999
            0.000000179412    0.000000076046    0.009551934260    0.021069937744    0.000000249404    0.000000194999    0.045392040714    0.004272471785
0.075     0.047836510835    -0.001446077507    0.000000071222    -0.000000259563    0.018847495974    0.024911887882    0.000000236252    0.000000071355
            0.000000071222    -0.000000259563    0.046611462328    0.000884567601    0.000000140637    -0.000000152138    0.017700691113    0.026465941214
            0.018847494474    0.024911894032    0.000000140637    -0.000000152138    0.047891566425    -0.001218028140    0.000000333291    0.000000233325
            0.000000236252    0.000000071355    0.017700687324    0.026465942546    0.000000333291    0.000000233325    0.046297258463    0.000937130428
0.100     0.044860532138    -0.006907587533    0.000000073520    -0.000000362746    0.026383854224    0.024809459689    0.000000297254    0.000000056735
            0.000000073520    -0.000000362746    0.044045972308    -0.003008419401    0.000000164054    -0.000000229945    0.025344933888    0.027865221843
            0.026383832059    0.024809465744    0.000000164054    -0.000000229945    0.045009512523    -0.006655664471    0.000000425063    0.000000259312
            0.000000297254    0.000000056735    0.025344908492    0.027865230073    0.000000425063    0.000000259312    0.043682145542    -0.002779969737
0.125     0.037265019311    -0.010688047909    0.000000072083    -0.000000473839    0.030606283647    0.021828024651    0.000000366828    0.000000031871
            0.000000072083    -0.000000473839    0.037708557953    -0.005256332117    0.000000187190    -0.000000316958    0.030534445980    0.026488866907
            0.030606283647    0.021828024651    0.000000187190    -0.000000316958    0.037503782927    -0.010458326116    0.000000530834    0.000000272581
            0.000000366828    0.000000031871    0.030534445980    0.026488866907    0.000000530834    0.000000272581    0.037397928898    -0.004822452808
0.150     0.026264915372    -0.010071043453    0.000000064709    -0.000000594667    0.030539732769    0.018583242099    0.000000446994    -0.000000006277
            0.000000064709    -0.000000594667    0.028806776644    -0.003663864900    0.000000208655    -0.000000415045    0.032313436910    0.024390861086
            0.030539732769    0.018583242099    0.000000208655    -0.000000415045    0.026565821938    -0.009905608385    0.000000654296    0.000000270140
            0.000000446994    -0.000000006277    0.032313436910    0.024390861086    0.000000654296    0.000000270140    0.028654955903    -0.003060856008
0.175     0.014409462518    -0.003194009905    0.000000047911    -0.000000728156    0.026873189121    0.017827793566    0.000000539328    -0.000000065178
            0.000000047911    -0.000000728156    0.019498562458    0.003123401953    0.000000227089    -0.000000528322    0.031049194584    0.023814590117
            0.026873189121    0.017827793566    0.000000227089    -0.000000528322    0.014724581461    -0.003116748993    0.000000798356    0.000000242266
            0.000000539328    -0.000000065178    0.031049194584    0.023814590117    0.000000798356    0.000000242266    0.019579992859    0.003795739453
0.200     0.005172401723    0.010243202310    0.000000015411    -0.000000874427    0.021805746351    0.021490394699    0.000000638286    -0.000000154635
            0.000000015411    -0.000000874427    0.012591544579    0.015208519821    0.000000236480    -0.000000659577    0.028326801967    0.026429793831
            0.021805746351    0.021490394699    0.000000236480    -0.000000659577    0.005444246290    0.010237753906    0.000000958063    0.000000176013
            0.000000638286    -0.000000154635    0.028326801967    0.026429793831    0.000000958063    0.000000176013    0.012911509049    0.015816887725
0.225     0.001953959397    0.028548863061    -0.000000040093    -0.000001031183    0.018343301697    0.029906909733    0.000000732588    -0.000000281879
            -0.000000040093    -0.000001031183    0.010766433814    0.031142478249    0.000000228942    -0.000000809735    0.026439832683    0.032723114551
            0.018343301697    0.029906909733    0.000000228942    -0.000000809735    0.002132647808    0.028499151273    0.000001120064    0.000000060475
            0.000000732588    -0.000000281879    0.026439832683    0.032723114551    0.000001120064    0.000000060475    0.011249764263    0.031566898267
0.250     0.006920999096    0.048301679934    -0.000000124786    -0.000001190323    0.019240240577    0.041605153935    0.000000804371    -0.000000446449
            -0.000000124786    -0.000001190323    0.015705783074    0.048162590261    0.000000194885    -0.000000973237    0.027609656663    0.041792283316
            0.019240240577    0.041605153935    0.000000194885    -0.000000973237    0.006982688407    0.048271664828    0.000001262943    -0.000000106535
            0.000000804371    -0.000000446449    0.027609656663    0.041792283316    0.000001262943    -0.000000106535    0.016214897668    0.048342952752
0.275     0.020155585520    0.065242613761    -0.000000240473    -0.000001341085    0.025987867656    0.053749453191    0.000000838730    -0.000000637096
            -0.000000240473    -0.000001341085    0.027463616248    0.062871640052    0.000000128542    -0.000001140082    0.033205956685    0.051611132236
            0.025987867656    0.053749453191    0.000000128542    -0.000001140082    0.020114716723    0.065304703233    0.000001366440    -0.000000313963
            0.000000838730    -0.000000637096    0.033205956685    0.051611132236    0.000001366440    -0.000000313963    0.027842417382    0.062836040762
0.300     0.039468485650    0.075574578949    -0.000000381363    -0.000001470869    0.038277208621    0.063106085285    0.000000828292    -0.000000833994
            -0.000000381363    -0.000001470869    0.044324619997    0.072229399399    0.000000031089    -0.000001295770    0.043281046632    0.059708450289
            0.038277208621    0.063106085285    0.000000031089    -0.000001295770    0.039379130335    0.075786953300    0.000001418725    -0.000000539754
            0.000000828292    -0.000000833994    0.043281046632    0.059708450289    0.000001418725    -0.000000539754    0.044452385103    0.072093482405
0.325     0.060986707092    0.077104796859    -0.000000535001    -0.000001573161    0.054108846540    0.067081506720    0.000000780440    -0.000001017405
            -0.000000535001    -0.000001573161    0.063238880587    0.074430055602    -0.000000087350    -0.000001430097    0.056561292077    0.063943966444
            0.054108846540    0.067081506720    -0.000000087350    -0.000001430097    0.060929610824    0.077491259336    0.000001424328    -0.000000759427
            0.000000780440    -0.000001017405    0.056561292077    0.063943966444    0.000001424328    -0.000000759427    0.063074584500    0.074365492831
0.350     0.080245757468    0.069878633118    -0.000000685400    -0.000001649332    0.070426015115    0.064482661635    0.000000711686    -0.000001175260
            -0.000000685400    -0.000001649332    0.080659910791    0.069419825581    -0.000000211326    -0.000001539767    0.070856760711    0.063137846238
            0.070426015115    0.064482661635    -0.000000211326    -0.000001539767    0.080308631301    0.070417272226    0.000001399996    -0.000000956141
            0.000000711686    -0.000001175260    0.070856760711    0.063137846238    0.000001399996    -0.000000956141    0.080262277951    0.069603179659
0.375     0.093375337753    0.056120303452    -0.000000820690    -0.000001711724    0.083956074832    0.055804032583    0.000000643142    -0.000001309093
            -0.000000820690    -0.000001711724    0.093477078518    0.058868927633    -0.000000326521    -0.000001633437    0.083669106499    0.057359269261
            0.083956074832    0.055804032583    -0.000000326521    -0.000001633437    0.093626913491    0.056744084949    0.000001369512    -0.000001127137
            0.000000643142    -0.000001309093    0.083669106499    0.057359269261    0.000001369512    -0.000001127137    0.092995840737    0.059428397866
0.400     0.098053312555    0.039668497087    -0.000000937004    -0.000001777943    0.092041669248    0.043124023382    0.000000590267    -0.000001431460
            -0.000000937004    -0.000001777943    0.099784842963    0.045736814940    -0.000000425541    -0.000001726476    0.092841269518    0.047913592591
            0.092041669248    0.043124023382    -0.000000425541    -0.000001726476    0.098521620121    0.040278813460    0.000001352714    -0.000001283465
            0.000000590267    -0.000001431460    0.092841269518    0.047913592591    0.000001352714    -0.000001283465    0.099426222558    0.046709227737
0.425     0.094079556314    0.025071690898    -0.000001042689    -0.000001867378    0.093330231240    0.029662202583    0.000000560086    -0.000001563731
            -0.000001042689    -0.000001867378    0.099333951687    0.033540284687    -0.000000512074    -0.000001838723    0.097102501348    0.037038419216
            0.093330231240    0.029662202583    -0.000000512074    -0.000001838723    0.094737443036    0.025561932360    0.000001361433    -0.000001447100
            0.000000560086    -0.000001563731    0.097102501348    0.037038419216    0.000001361433    -0.000001447100    0.099307568734    0.034850039266
0.450     0.083541879205    0.016536388773    -0.000001156098    -0.000001993303    0.088271717898    0.019068857967    0.000000546343    -0.000001729252
            -0.000001156098    -0.000001993303    0.093634368885    0.025524779631    -0.000000600819    -0.000001986021    0.096467782286    0.027395779532
            0.088271717898    0.019068857967    -0.000000600819    -0.000001986021    0.084305465517    0.016822615728    0.000001393123    -0.000001645223
            0.000000546343    -0.000001729252    0.096467782286    0.027395779532    0.000001393123    -0.000001645223    0.094093560486    0.026991703999
0.475     0.070502047498    0.016807828037    -0.000001304718    -0.000002159318    0.079256121687    0.014432179640    0.000000529456    -0.000001949853
            -0.000001304718    -0.000002159318    0.085670218082    0.023825744544    -0.000000716947    -0.000002177103    0.092358908847    0.021363028888
            0.079256121687    0.014432179640    -0.000000716947    -0.000002177103    0.071246998698    0.016859541736    0.000001429911    -0.000001905145
            0.000000529456    -0.000001949853    0.092358908847    0.021363028888    0.000001429911    -0.000001905145    0.086660931844    0.025202767745
0.500     0.060116095377    0.026208806165    -0.000001518152    -0.000002352783    0.070187724813    0.017204136337    0.000000474564    -0.000002235543
            -0.000001518152    -0.000002352783    0.079231516152    0.028801484885    -0.000000891303    -0.000002405305    0.087353976007    0.020281326851
            0.070187724813    0.017204136337    -0.000000891303    -0.000002405305    0.060710632671    0.026068570235    0.000001434815    -0.000002243720
            0.000000474564    -0.000002235543    0.087353976007    0.020281326851    0.000001434815    -0.000002243720    0.080664266909    0.029838463127
0.525     0.057183087584    0.042192617907    -0.000001821235    -0.000002543458    0.065359471606    0.026426501895    0.000000338630    -0.000002575802
            -0.000001821235    -0.000002543458    0.077883375454    0.038738243004    -0.000001153401    -0.000002645939    0.084468191555    0.023880115172
            0.065359471606    0.026426501895    -0.000001153401    -0.000002645939    0.057532021529    0.041974805394    0.000001359061    -0.000002655588
            0.000000338630    -0.000002575802    0.084468191555    0.023880115172    0.000001359061    -0.000002655588    0.079544225040    0.039257484873
0.550     0.064514703204    0.059850806250    -0.000002219768    -0.000002684521    0.067944473943    0.038801987350    0.000000084729    -0.000002929869
            -0.000002219768    -0.000002684521    0.083841700509    0.050186832653    -0.000001517189    -0.000002854074    0.086165355224    0.030222703509
            0.067944473943    0.038801987350    -0.000001517189    -0.000002854074    0.064597244203    0.059712561897    0.000001156491    -0.000003101798
            0.000000084729    -0.000002929869    0.086165355224    0.030222703509    0.000001156491    -0.000003101798    0.085445599558    0.050144137649
0.575     0.081825473329    0.073402763094    -0.000002691407    -0.000002726680    0.078764373514    0.049748481054    -0.000000295085    -0.000003235787
            -0.000002691407    -0.000002726680    0.097154574808    0.058942784266    -0.000001968780    -0.000002977682    0.093456093879    0.036278744910
            0.078764373514    0.049748481054    -0.000001968780    -0.000002977682    0.081711070305    0.073496602599    0.000000810130    -0.000003516489
            -0.000000295085    -0.000003235787    0.093456093879    0.036278744910    0.000000810130    -0.000003516489    0.098428173502    0.058450426337
0.600     0.105781145194    0.078109590600    -0.000003183325    -0.000002637451    0.096028353077    0.055008278668    -0.000000767827    -0.000003431670
            -0.000003183325    -0.000002637451    0.115625452428    0.061371748674    -0.000002461370    -0.000002976516    0.105554617238    0.038946859849
            0.096028353077    0.055008278668    -0.000002461370    -0.000002976516    0.105614446453    0.078533361507    0.000000346478    -0.000003829244
            -0.000000767827    -0.000003431670    0.105554617238    0.038946859849    0.000000346478    -0.000003829244    0.116389490040    0.060669833871
0.625     0.131151342507    0.071710466223    -0.000003630281    -0.000002420327    0.116065329281    0.051971609932    -0.000001267674    -0.000003486979
            -0.000003630281    -0.000002420327    0.135502555205    0.055516003145    -0.000002930474    -0.000002844560    0.120180988791    0.036028061998
            0.116065329281    0.051971609932    -0.000002930474    -0.000002844560    0.131112999363    0.072475093773    -0.000000168984    -0.000003998722
            -0.000001267674    -0.000003486979    0.120180988791    0.036028061998    -0.000000168984    -0.000003998722    0.135724223527    0.054903912935
0.650     0.152451298576    0.054861479141    -0.000003977341    -0.000002116014    0.134561505950    0.040230365091    -0.000001723075    -0.000003413889
            -0.000003977341    -0.000002116014    0.152631647077    0.041574333666    -0.000003316970    -0.000002613820    0.134330037495    0.026791020163
            0.134561505950    0.040230365091    -0.000003316970    -0.000002613820    0.152709130495    0.055885120093    -0.000000660048    -0.000004027902
            -0.000001723075    -0.000003413889    0.134330037495    0.026791020163    -0.000000660048    -0.000004027902    0.152432569127    0.041329833531
0.675     0.165328062819    0.030667998889    -0.000004202365    -0.000001788830    0.147646625054    0.021397562981    -0.000002084184    -0.000003262506
            -0.000004202365    -0.000001788830    0.163553204664    0.021697288691    -0.000003590929    -0.000002343877    0.145068894071    0.012021526004
            0.147646625054    0.021397562981    -0.000003590929    -0.000002343877    0.165993932003    0.031792819352    -0.000001067980    -0.000003961686
            -0.000002084184    -0.000003262506    0.145068894071    0.012021526004    -0.000001067980    -0.000003961686    0.163176877290    0.022004552505
0.700     0.167402608672    0.003769798310    -0.000004319293    -0.000001504058    0.152626827438    -0.001408890735    -0.000002336360    -0.000003097316
            -0.000004319293    -0.000001504058    0.166267766611    -0.000660870715    -0.000003757687    -0.000002099349    0.150185240087    -0.006257173408
            0.152626827438    -0.001408890735    -0.000003757687    -0.000002099349    0.168501843666    0.004795537623    -0.000001368920    -0.000003864377
            -0.000002336360    -0.000003097316    0.150185240087    -0.006257173408    -0.000001368920    -0.000003864377    0.166020910774    0.000243947803
0.725     0.158598301986    -0.020648375304    -0.000004373520    -0.000001309997    0.148400902765    -0.024163656231    -0.000002499320    -0.000002979276
            -0.000004373520    -0.000001309997    0.160570721105    -0.021548895752    -0.000003854986    -0.000001932232    0.148585633812    -0.025221558287
            0.148400902765    -0.024163656231    -0.000003854986    -0.000001932232    0.160055000760    -0.019922580621    -0.000001574257    -0.000003801219
            -0.000002499320    -0.000002979276    0.148585633812    -0.025221558287    -0.000001574257    -0.000003801219    0.160751898771    -0.020154323350
0.750     0.141170990808    -0.037800277917    -0.000004426676    -0.000001227839    0.135772401303    -0.042572343595    -0.000002617039    -0.000002951144
            -0.000004426676    -0.000001227839    0.148073469165    -0.037320059379    -0.000003939379    -0.000001870114    0.140567780450    -0.041760528908
            0.135772401303    -0.042572343595    -0.000003939379    -0.000001870114    0.142812314631    -0.037524037887    -0.000001723173    -0.000003822386
            -0.000002617039    -0.000002951144    0.140567780450    -0.041760528908    -0.000001723173    -0.000003822386    0.148903638226    -0.035678781378
0.775     0.119480453567    -0.044254671466    -0.000004546446    -0.000001248678    0.117599046237    -0.052912693990    -0.000002749636    -0.000003034371
            -0.000004546446    -0.000001248678    0.131949555477    -0.045382251042    -0.000004076893    -0.000001912837    0.127902500517    -0.053101831341
            0.117599046237    -0.052912693990    -0.000004076893    -0.000001912837    0.121063705616    -0.044479447975    -0.000001874566    -0.000003958721
            -0.000002749636    -0.000003034371    0.127902500517    -0.053101831341    -0.000001874566    -0.000003958721    0.133510937918    -0.043827425054
