# GHz S RI R 45
0.000     0.035443952530    0.001834353085    -0.000004703426    -0.000010374925    0.000993119549    0.001570304669    -0.000004069273    -0.000008852802
            -0.000004703678    -0.000010374924    0.036114097548    0.001459838567    -0.000005318712    -0.000012502765    0.001019799929    0.001627686454
            0.000993119386    0.001570304653    -0.000005318791    -0.000012502763    0.035392557272    0.001842708763    -0.000004288249    -0.000010483538
            -0.000004069272    -0.000008852802    0.001019800124    0.001627686450    -0.000004288280    -0.000010483539    0.036052238408    0.001471644252
0.025     0.043254713889    0.005309334891    -0.000013103543    -0.000021326485    0.004814062994    0.010398400871    -0.000011251824    -0.000017891068
            -0.000013103546    -0.000021326490    0.041624802729    0.005693545396    -0.000015336362    -0.000025424953    0.003298488789    0.011729754025
            0.004812858420    0.010398442763    -0.000015336367    -0.000025424952    0.043195294260    0.005300486381    -0.000012316870    -0.000019908328
            -0.000011251854    -0.000017891108    0.003298743857    0.011729179519    -0.000012316863    -0.000019908325    0.041528030200    0.005641814554
0.050     0.052601774728    0.000308778043    -0.000031497431    -0.000033237308    0.014754691494    0.016048317562    -0.000026766210    -0.000027625091
            -0.000031497431    -0.000033237309    0.045599565830    0.004318321825    -0.000037090168    -0.000039579151    0.009551835551    0.021069942967
            0.014754689883    0.016048323118    -0.000037090169    -0.000039579152    0.052584102685    0.000329176910    -0.000029576253    -0.000030595341
            -0.000026766211    -0.000027625092    0.009551934260    0.021069937744    -0.000029576252    -0.000030595341    0.045392040714    0.004272471785
0.075     0.059412365261    -0.011676960540    -0.000054926733    -0.000035450734    0.026697083849    0.014045974838    -0.000046290854    -0.000029143934
            -0.000054926733    -0.000035450734    0.046611462328    0.000884567601    -0.000064741682    -0.000042362897    0.017700691113    0.026465941214
            0.026697033974    0.014045972990    -0.000064741675    -0.000042362909    0.059484034315    -0.011665735482    -0.000051112012    -0.000032146900
            -0.000046290855    -0.000029143935    0.017700687324    0.026465942546    -0.000051112012    -0.000032146900    0.046297258463    0.000937130428
0.100     0.059831227967    -0.029095243373    -0.000080022141    -0.000027145432    0.035721972466    0.004371697123    -0.000066972864    -0.000021972497
            -0.000080022140    -0.000027145431    0.044045972308    -0.003008419401    -0.000094399940    -0.000032841008    0.025344933888    0.027865221843
            0.035721972443    0.004371697310    -0.000094399940    -0.000032841008    0.060019751431    -0.029145919331    -0.000073784918    -0.000024180202
            -0.000066972864    -0.000021972497    0.025344908492    0.027865230073    -0.000073784918    -0.000024180202    0.043682145542    -0.002779969737
0.125     0.050742603774    -0.048001878582    -0.000103373016    -0.000007978168    0.037615474509    -0.010284713138    -0.000086140419    -0.000005986059
            -0.000103373016    -0.000007978168    0.037708557953    -0.005256332117    -0.000122120471    -0.000010610000    0.030534445980    0.026488866907
            0.037615474509    -0.010284713138    -0.000122120471    -0.000010610000    0.051048203943    -0.048181743328    -0.000094730413    -0.000006661662
            -0.000086140419    -0.000005986059    0.030534445980    0.026488866907    -0.000094730413    -0.000006661662    0.037397928898    -0.004822452808
0.150     0.031559148289    -0.062906907232    -0.000121410346    0.000021773248    0.030210101732    -0.025234289873    -0.000101070944    0.000018637948
            -0.000121410346    0.000021773248    0.028806776644    -0.003663864900    -0.000143799072    0.000024044543    0.032313436910    0.024390861086
            0.030210101732    -0.025234289873    -0.000143799072    0.000024044543    0.031946459627    -0.063282258691    -0.000111100024    0.000020188614
            -0.000101070944    0.000018637948    0.032313436910    0.024390861086    -0.000111100024    0.000020188614    0.028654955903    -0.003060856008
0.175     0.004789845720    -0.068386631209    -0.000130066327    0.000061054296    0.014170270580    -0.035110245320    -0.000108486374    0.000051320962
            -0.000130066318    0.000061054291    0.019498562458    0.003123401953    -0.000154726916    0.000069988451    0.031049194584    0.023814590117
            0.014170270580    -0.035110245320    -0.000154726916    0.000069988451    0.005186775314    -0.069007450924    -0.000119426297    0.000055822603
            -0.000108486374    0.000051320962    0.031049194584    0.023814590117    -0.000119426297    0.000055822603    0.019579992859    0.003795739453
0.200     -0.024229965795    -0.060764809880    -0.000124869914    0.000107070397    -0.006932778181    -0.035475508281    -0.000104437807    0.000090059205
            -0.000124869914    0.000107070397    0.012591544579    0.015208519821    -0.000149680349    0.000124112201    0.028326801967    0.026429793831
            -0.006932778181    -0.035475508281    -0.000149680349    0.000124112201    -0.023922569874    -0.061642909676    -0.000115416302    0.000098225583
            -0.000104437807    0.000090059205    0.028326801967    0.026429793831    -0.000115416302    0.000098225583    0.012911509049    0.015816887725
0.225     -0.048547527261    -0.039515687779    -0.000101993637    0.000154491535    -0.027444639173    -0.024304749309    -0.000085239238    0.000130447107
            -0.000101993637    0.000154491535    0.010766433814    0.031142478249    -0.000124073218    0.000180380653    0.026439832683    0.032723114551
            -0.027444639173    -0.024304749309    -0.000124073218    0.000180380653    -0.048435245981    -0.040609623936    -0.000094916811    0.000142746506
            -0.000085239238    0.000130447107    0.026439832683    0.032723114551    -0.000094916811    0.000142746506    0.011249764263    0.031566898267
0.250     -0.061473456487    -0.007888323364    -0.000060188264    0.000195659835    -0.041191831176    -0.002862244409    -0.000049409622    0.000165672101
            -0.000060188264    0.000195659835    0.015705783074    0.048162590261    -0.000076182826    0.000229983094    0.027609656663    0.041792283316
            -0.041191831176    -0.002862244409    -0.000076182826    0.000229983094    -0.061637704294    -0.009100259404    -0.000056065154    0.000181990114
            -0.000049409622    0.000165672101    0.027609656663    0.041792283316    -0.000056065154    0.000181990114    0.016214897668    0.048342952752
0.275     -0.058599575925    0.027643968378    -0.000002235279    0.000222334034    -0.043327931558    0.024421188758    0.000000725439    0.000188118321
            -0.000002235279    0.000222334034    0.027463616248    0.062871640052    -0.000008889565    0.000263255062    0.033205956685    0.051611132236
            -0.043327931558    0.024421188758    -0.000008889565    0.000263255062    -0.059067141659    0.026452276997    -0.000001151736    0.000207486883
            0.000000725439    0.000188118321    0.033205956685    0.051611132236    -0.000001151736    0.000207486883    0.027842417382    0.062836040762
0.300     -0.039265995044    0.058954616635    0.000065072065    0.000228337625    -0.031854851735    0.051070522786    0.000058896225    0.000192020794
            0.000065072065    0.000228337625    0.044324619997    0.072229399399    0.000070196738    0.000272710749    0.043281046632    0.059708450289
            -0.031854851735    0.051070522786    0.000070196738    0.000272710749    -0.039989411594    0.057930630197    0.000063071026    0.000212632029
            0.000058896225    0.000192020794    0.043281046632    0.059708450289    0.000063071026    0.000212632029    0.044452385103    0.072093482405
0.325     -0.006937976684    0.078401046018    0.000132842344    0.000211540232    -0.008276214032    0.070309345210    0.000116703859    0.000175549567
            0.000132842344    0.000211540232    0.063238880587    0.074430055602    0.000150812540    0.000255420046    0.056561292077    0.063943966444
            -0.008276214032    0.070309345210    0.000150812540    0.000255420046    -0.007795484097    0.077660840840    0.000127285639    0.000195109595
            0.000116703859    0.000175549567    0.056561292077    0.063943966444    0.000127285639    0.000195109595    0.063074584500    0.074365492831
0.350     0.031547696779    0.080816483635    0.000192791443    0.000174177237    0.022729624153    0.076837064286    0.000166394321    0.000141246152
            0.000192791443    0.000174177237    0.080659910791    0.069419825581    0.000223144601    0.000213562244    0.070856760711    0.063137846238
            0.022729624153    0.076837064286    0.000223144601    0.000213562244    0.030731587195    0.080408371552    0.000182695689    0.000157544540
            0.000166394321    0.000141246152    0.070856760711    0.063137846238    0.000182695689    0.000157544540    0.080262277951    0.069603179659
0.375     0.067587862625    0.064797641246    0.000239360470    0.000121325919    0.054418270209    0.068127070960    0.000203106302    0.000094491775
            0.000239360470    0.000121325919    0.093477078518    0.058868927633    0.000280362851    0.000152812599    0.083669106499    0.057359269261
            0.054418270209    0.068127070960    0.000280362851    0.000152812599    0.067005318210    0.064679624853    0.000223642937    0.000105923713
            0.000203106302    0.000094491775    0.083669106499    0.057359269261    0.000223642937    0.000105923713    0.092995840737    0.059428397866
0.400     0.092745380423    0.033093257733    0.000270328515    0.000058643831    0.079479780760    0.045059053121    0.000225592054    0.000041080748
            0.000270328515    0.000058643831    0.099784842963    0.045736814940    0.000319528984    0.000079752608    0.092841269518    0.047913592591
            0.079479780760    0.045059053121    0.000319528984    0.000079752608    0.092560082185    0.033129446600    0.000248582402    0.000046907644
            0.000225592054    0.000041080748    0.092841269518    0.047913592591    0.000248582402    0.000046907644    0.099426222558    0.046709227737
0.425     0.100589660912    -0.007890226323    0.000285800425    -0.000009600567    0.091601054234    0.011851485087    0.000235146707    -0.000014968928
            0.000285800425    -0.000009600567    0.099333951687    0.033540284687    0.000340555941    -0.000000487673    0.097102501348    0.037038419216
            0.091601054234    0.011851485087    0.000340555941    -0.000000487673    0.100892714230    -0.007912025619    0.000259044866    -0.000014749846
            0.000235146707    -0.000014968928    0.097102501348    0.037038419216    0.000259044866    -0.000014749846    0.099307568734    0.034850039266
0.450     0.088177589622    -0.049278137311    0.000286323036    -0.000081215967    0.086908387078    -0.024613947948    0.000233484772    -0.000072306004
            0.000286323036    -0.000081215967    0.093634368885    0.025524779631    0.000344065639    -0.000085226958    0.096467782286    0.027395779532
            0.086908387078    -0.024613947948    0.000344065639    -0.000085226958    0.088951908502    -0.049609153037    0.000257269817    -0.000077392740
            0.000233484772    -0.000072306004    0.096467782286    0.027395779532    0.000257269817    -0.000077392740    0.094093560486    0.026991703999
0.475     0.056947068963    -0.081479311593    0.000270939682    -0.000155251083    0.065067972660    -0.056064711654    0.000220446551    -0.000131362400
            0.000270939682    -0.000155251083    0.085670218082    0.023825744544    0.000329035943    -0.000173382141    0.092358908847    0.021363028888
            0.065067972660    -0.056064711654    0.000329035943    -0.000173382141    0.058051483144    -0.082354504151    0.000243508272    -0.000141656550
            0.000220446551    -0.000131362400    0.092358908847    0.021363028888    0.000243508272    -0.000141656550    0.086660931844    0.025202767745
0.500     0.012813938340    -0.096309407152    0.000236506535    -0.000229751231    0.029802278495    -0.074639007164    0.000192993358    -0.000191899714
            0.000236506535    -0.000229751231    0.079231516152    0.028801484885    0.000291812754    -0.000262934255    0.087353976007    0.020281326851
            0.029802278495    -0.074639007164    0.000291812754    -0.000262934255    0.013993803483    -0.097884886484    0.000214640123    -0.000207782114
            0.000192993358    -0.000191899714    0.087353976007    0.020281326851    0.000214640123    -0.000207782114    0.080664266909    0.029838463127
0.525     -0.034800226434    -0.089114963592    0.000179041835    -0.000299346969    -0.011557869446    -0.074918340444    0.000146460347    -0.000250141573
            0.000179041835    -0.000299346969    0.077883375454    0.038738243004    0.000227484533    -0.000347991226    0.084468191555    0.023880115172
            -0.011557869446    -0.074918340444    0.000227484533    -0.000347991226    -0.033867442009    -0.091411656525    0.000165345548    -0.000272209626
            0.000146460347    -0.000250141573    0.084468191555    0.023880115172    0.000165345548    -0.000272209626    0.079544225040    0.039257484873
0.550     -0.075040828650    -0.060303071154    0.000097080270    -0.000354547212    -0.049638227740    -0.055639658269    0.000078112669    -0.000297645939
            0.000097080270    -0.000354547212    0.083841700509    0.050186832653    0.000133684609    -0.000417724684    0.086165355224    0.030222703509
            -0.049638227740    -0.055639658269    0.000133684609    -0.000417724684    -0.074669988711    -0.063177672872    0.000091977558    -0.000326039558
            0.000078112669    -0.000297645939    0.086165355224    0.030222703509    0.000091977558    -0.000326039558    0.085445599558    0.050144137649
0.575     -0.098380710543    -0.015580794486    -0.000004999422    -0.000384015158    -0.075419942820    -0.020328441431    -0.000009108852    -0.000323390892
            -0.000004999422    -0.000384015158    0.097154574808    0.058942784266    0.000014602633    -0.000458682674    0.093456093879    0.036278744910
            -0.075419942820    -0.020328441431    0.000014602633    -0.000458682674    -0.098793615182    -0.018742370049    -0.000003061821    -0.000357007951
            -0.000009108852    -0.000323390892    0.093456093879    0.036278744910    -0.000003061821    -0.000357007951    0.098428173502    0.058450426337
0.600     -0.099193029066    0.035377221272    -0.000116310198    -0.000379160265    -0.082690547760    0.023505052714    -0.000105431064    -0.000318491988
            -0.000116310198    -0.000379160265    0.115625452428    0.061371748674    -0.000117821045    -0.000459982371    0.105554617238    0.038946859849
            -0.082690547760    0.023505052714    -0.000117821045    -0.000459982371    -0.100449742801    0.032305254697    -0.000109622524    -0.000354635738
            -0.000105431064    -0.000318491988    0.105554617238    0.038946859849    -0.000109622524    -0.000354635738    0.116389490040    0.060669833871
0.625     -0.077173863692    0.081456380764    -0.000222323332    -0.000337978063    -0.069599253096    0.066379282665    -0.000196930514    -0.000280467367
            -0.000222323332    -0.000337978063    0.135502555205    0.055516003145    -0.000246810322    -0.000417988710    0.120180988791    0.036028061998
            -0.069599253096    0.066379282665    -0.000246810322    -0.000417988710    -0.079147368046    0.078846247722    -0.000212386694    -0.000315212543
            -0.000196930514    -0.000280467367    0.120180988791    0.036028061998    -0.000212386694    -0.000315212543    0.135724223527    0.054903912935
0.650     -0.037191892524    0.112891965409    -0.000309621282    -0.000265891263    -0.038879310768    0.099242161232    -0.000270415070    -0.000214496916
            -0.000309621282    -0.000265891263    0.152631647077    0.041574333666    -0.000356109870    -0.000337776099    0.134330037495    0.026791020163
            -0.038879310768    0.099242161232    -0.000356109870    -0.000337776099    -0.039591957541    0.111020694291    -0.000296225599    -0.000243641596
            -0.000270415070    -0.000214496916    0.134330037495    0.026791020163    -0.000296225599    -0.000243641596    0.152432569127    0.041329833531
0.675     0.012179073851    0.123395040213    -0.000369677295    -0.000173306734    0.003122706680    0.115423016165    -0.000317620686    -0.000131128449
            -0.000369677295    -0.000173306734    0.163553204664    0.021697288691    -0.000434563627    -0.000230783797    0.145068894071    0.012021526004
            0.003122706680    0.115423016165    -0.000434563627    -0.000230783797    0.009743022775    0.122380529282    -0.000351030783    -0.000151325709
            -0.000317620686    -0.000131128449    0.145068894071    0.012021526004    -0.000351030783    -0.000151325709    0.163176877290    0.022004552505
0.700     0.060741259122    0.111186916612    -0.000400097976    -0.000071861755    0.048000116812    0.111757586376    -0.000336819489    -0.000042337595
            -0.000400097976    -0.000071861755    0.166267766611    -0.000660870715    -0.000478076818    -0.000110640293    0.150185240087    -0.006257173408
            0.048000116812    0.111757586376    -0.000478076818    -0.000110640293    0.058678451018    0.110960478438    -0.000374011773    -0.000051919913
            -0.000336819489    -0.000042337595    0.150185240087    -0.006257173408    -0.000374011773    -0.000051919913    0.166020910774    0.000243947803
0.725     0.098728423458    0.079002007163    -0.000403491795    0.000028875368    0.086916831298    0.088901898820    -0.000331823684    0.000042173168
            -0.000403491785    0.000028875367    0.160570721105    -0.021548895752    -0.000488735813    0.000010768882    0.148585633812    -0.025221558287
            0.086916831298    0.088901898820    -0.000488735813    0.000010768882    0.097384649893    0.079317564050    -0.000368999059    0.000042993718
            -0.000331823684    0.000042173168    0.148585633812    -0.025221558287    -0.000368999059    0.000042993718    0.160751898771    -0.020154323350
0.750     0.118515404793    0.033389214088    -0.000385075840    0.000123190324    0.112092315398    0.051127184156    -0.000309401040    0.000117279001
            -0.000385075840    0.000123190324    0.148073469165    -0.037320059379    -0.000472316436    0.000125881234    0.140567780450    -0.041760528908
            0.112092315398    0.051127184156    -0.000472316436    0.000125881234    0.118101787956    0.033863824378    -0.000343768578    0.000126823333
            -0.000309401040    0.000117279001    0.140567780450    -0.041760528908    -0.000343768578    0.000126823333    0.148903638226    -0.035678781378
0.775     0.115911848352    -0.016446822191    -0.000349822236    0.000209494253    0.118113771361    0.005690485074    -0.000275911976    0.000182823122
            -0.000349822236    0.000209494253    0.131949555477    -0.045382251042    -0.000434862045    0.000232126827    0.127902500517    -0.053101831341
            0.118113771361    0.005690485074    -0.000434862045    0.000232126827    0.116452913129    -0.016267495796    -0.000306216609    0.000198925732
            -0.000275911976    0.000182823122    0.127902500517    -0.053101831341    -0.000306216609    0.000198925732    0.133510937918    -0.043827425054
