# GHz S RI R 45
0.000     0.036977606950    0.001031136525    -0.000000008383    -0.000000081457    0.001094923192    0.001213572535    0.000000009793    -0.000000050590
            -0.000000008383    -0.000000081457    0.036114097548    0.001459838567    -0.000000005847    -0.000000080764    0.001019799929    0.001627686454
            0.001094923192    0.001213572535    -0.000000005847    -0.000000080764    0.036999719072    0.001043180042    0.000000014336    -0.000000047578
            0.000000009793    -0.000000050590    0.001019800124    0.001627686450    0.000000014336    -0.000000047578    0.036052238408    0.001471644252
0.025     0.042888471191    0.005118208721    -0.000000026699    -0.000000185856    0.003632709799    0.011454932644    0.000000006056    -0.000000118128
            -0.000000026699    -0.000000185856    0.041624802729    0.005693545396    -0.000000022952    -0.000000183943    0.003298488789    0.011729754025
            0.003632575981    0.011453309135    -0.000000022952    -0.000000183943    0.042789347110    0.005062491257    0.000000012964    -0.000000110901
            0.000000006056    -0.000000118128    0.003298743857    0.011729179519    0.000000012964    -0.000000110901    0.041528030200    0.005641814554
0.050     0.047416570240    0.002697573414    -0.000000066227    -0.000000349159    0.010582089283    0.020046800331    -0.000000010909    -0.000000230859
            -0.000000066227    -0.000000349159    0.045599565830    0.004318321825    -0.000000061037    -0.000000346647    0.009551835551    0.021069942967
            0.010582145146    0.020046762927    -0.000000061037    -0.000000346647    0.047215004995    0.002669614839    -0.000000000805    -0.000000219127
            -0.000000010909    -0.000000230859    0.009551934260    0.021069937744    -0.000000000805    -0.000000219127    0.045392040714    0.004272471785
0.075     0.048799490919    -0.002572263214    -0.000000112081    -0.000000503301    0.019319922679    0.023846152074    -0.000000032075    -0.000000338880
            -0.000000112081    -0.000000503301    0.046611462328    0.000884567601    -0.000000105399    -0.000000500300    0.017700691113    0.026465941214
            0.019319929797    0.023846156604    -0.000000105399    -0.000000500300    0.048499230764    -0.002499902289    -0.000000018534    -0.000000323081
            -0.000000032075    -0.000000338880    0.017700687324    0.026465942546    -0.000000018534    -0.000000323081    0.046297258463    0.000937130428
0.100     0.045750083037    -0.008950519070    -0.000000163376    -0.000000656309    0.026779157085    0.022935979577    -0.000000054475    -0.000000447266
            -0.000000163376    -0.000000656309    0.044045972308    -0.003008419401    -0.000000154662    -0.000000652894    0.025344933888    0.027865221843
            0.026779156684    0.022935980044    -0.000000154662    -0.000000652894    0.045406864910    -0.008704971886    -0.000000036616    -0.000000427654
            -0.000000054475    -0.000000447266    0.025344908492    0.027865230073    -0.000000036616    -0.000000427654    0.043682145542    -0.002779969737
0.125     0.037673929215    -0.013706132249    -0.000000223159    -0.000000815488    0.030527704456    0.019088912838    -0.000000078739    -0.000000562530
            -0.000000223159    -0.000000815488    0.037708557953    -0.005256332117    -0.000000211769    -0.000000812038    0.030534445980    0.026488866907
            0.030527703608    0.019088912308    -0.000000211769    -0.000000812038    0.037382852607    -0.013269598109    -0.000000055334    -0.000000539834
            -0.000000078739    -0.000000562530    0.030534445980    0.026488866907    -0.000000055334    -0.000000539834    0.037397928898    -0.004822452808
0.150     0.025616906586    -0.013852391298    -0.000000299268    -0.000000985648    0.029566782347    0.015166136548    -0.000000110539    -0.000000690616
            -0.000000299268    -0.000000985648    0.028806776644    -0.003663864900    -0.000000284330    -0.000000983021    0.032313436910    0.024390861086
            0.029566782347    0.015166136548    -0.000000284330    -0.000000983021    0.025481483998    -0.013252721217    -0.000000080343    -0.000000665883
            -0.000000110539    -0.000000690616    0.032313436910    0.024390861086    -0.000000080343    -0.000000665883    0.028654955903    -0.003060856008
0.175     0.012361539239    -0.007205483694    -0.000000404193    -0.000001166523    0.024713655327    0.014156688498    -0.000000159960    -0.000000833990
            -0.000000404193    -0.000001166523    0.019498562458    0.003123401953    -0.000000385204    -0.000001166034    0.031049194584    0.023814590117
            0.024713655327    0.014156688498    -0.000000385204    -0.000001166034    0.012450369621    -0.006540747864    -0.000000121951    -0.000000808910
            -0.000000159960    -0.000000833990    0.031049194584    0.023814590117    -0.000000121951    -0.000000808910    0.019579992859    0.003795739453
0.200     0.001729610938    0.006682689409    -0.000000550756    -0.000001348838    0.018430785443    0.018123649221    -0.000000239251    -0.000000987958
            -0.000000550756    -0.000001348838    0.012591544579    0.015208519821    -0.000000527816    -0.000001352084    0.028326801967    0.026429793831
            0.018430785443    0.018123649221    -0.000000527816    -0.000001352084    0.002039901069    0.007283835504    -0.000000193065    -0.000000964663
            -0.000000239251    -0.000000987958    0.028326801967    0.026429793831    -0.000000193065    -0.000000964663    0.012911509049    0.015816887725
0.225     -0.002490793195    0.026049170496    -0.000000746089    -0.000001514279    0.014041861594    0.027361937134    -0.000000358097    -0.000001139764
            -0.000000746089    -0.000001514279    0.010766433814    0.031142478249    -0.000000720060    -0.000001522842    0.026439832683    0.032723114551
            0.014041861594    0.027361937134    -0.000000720060    -0.000001522842    -0.002039683478    0.026477090907    -0.000000304249    -0.000001120488
            -0.000000358097    -0.000001139764    0.026439832683    0.032723114551    -0.000000304249    -0.000001120488    0.011249764263    0.031566898267
0.250     0.002164101997    0.047180637092    -0.000000984911    -0.000001639747    0.014555438248    0.040171949995    -0.000000517194    -0.000001269832
            -0.000000984911    -0.000001639747    0.015705783074    0.048162590261    -0.000000957368    -0.000001654710    0.027609656663    0.041792283316
            0.014555438248    0.040171949995    -0.000000957368    -0.000001654710    0.002619798205    0.047389917709    -0.000000457076    -0.000001256337
            -0.000000517194    -0.000001269832    0.027609656663    0.041792283316    -0.000000457076    -0.000001256337    0.016214897668    0.048342952752
0.275     0.015865317685    0.065390415838    -0.000001247696    -0.000001706840    0.021549359684    0.053373137271    -0.000000704625    -0.000001359698
            -0.000001247696    -0.000001706840    0.027463616248    0.062871640052    -0.000001220555    -0.000001728431    0.033205956685    0.051611132236
            0.021549359684    0.053373137271    -0.000001220555    -0.000001728431    0.016180242279    0.065423959001    -0.000000640090    -0.000001352866
            -0.000000704625    -0.000001359698    0.033205956685    0.051611132236    -0.000000640090    -0.000001352866    0.027842417382    0.062836040762
0.300     0.036259105373    0.076463105253    -0.000001504926    -0.000001710937    0.034594084632    0.063387757800    -0.000000897328    -0.000001400143
            -0.000001504926    -0.000001710937    0.044324619997    0.072229399399    -0.000001479860    -0.000001738421    0.043281046632    0.059708450289
            0.034594084632    0.063387757800    -0.000001479860    -0.000001738421    0.036332687763    0.076444573411    -0.000000830102    -0.000001399831
            -0.000000897328    -0.000001400143    0.043281046632    0.059708450289    -0.000000830102    -0.000001399831    0.044452385103    0.072093482405
0.325     0.059104567886    0.077933675758    -0.000001728491    -0.000001665857    0.051401039644    0.067391971073    -0.000001070230    -0.000001397939
            -0.000001728491    -0.000001665857    0.063238880587    0.074430055602    -0.000001706445    -0.000001697906    0.056561292077    0.063943966444
            0.051401039644    0.067391971073    -0.000001706445    -0.000001697906    0.058919953869    0.078030773989    -0.000001001354    -0.000001403326
            -0.000001070230    -0.000001397939    0.056561292077    0.063943966444    -0.000001001354    -0.000001403326    0.063074584500    0.074365492831
0.350     0.079475728013    0.069800528034    -0.000001902057    -0.000001599595    0.068542486625    0.064141624642    -0.000001205704    -0.000001373472
            -0.000001902057    -0.000001599595    0.080659910791    0.069419825581    -0.000001883039    -0.000001634775    0.070856760711    0.063137846238
            0.068542486625    0.064141624642    -0.000001883039    -0.000001634775    0.079113027585    0.070173140313    -0.000001135313    -0.000001383553
            -0.000001205704    -0.000001373472    0.070856760711    0.063137846238    -0.000001135313    -0.000001383553    0.080262277951    0.069603179659
0.375     0.093067417168    0.054477247417    -0.000002027772    -0.000001545020    0.082388004204    0.054270769555    -0.000001301128    -0.000001354089
            -0.000002027772    -0.000001545020    0.093477078518    0.058868927633    -0.000002011012    -0.000001582322    0.083669106499    0.057359269261
            0.082388004204    0.054270769555    -0.000002011012    -0.000001582322    0.092687426486    0.055225738186    -0.000001228542    -0.000001368244
            -0.000001301128    -0.000001354089    0.083669106499    0.057359269261    -0.000001228542    -0.000001368244    0.092995840737    0.059428397866
0.400     0.097252035687    0.036190843015    -0.000002124540    -0.000001529353    0.090017713185    0.040163694474    -0.000001368229    -0.000001364393
            -0.000002124540    -0.000001529353    0.099784842963    0.045736814940    -0.000002108798    -0.000001568505    0.092841269518    0.047913592591
            0.090017713185    0.040163694474    -0.000002108798    -0.000001568505    0.097056998980    0.037320436955    -0.000001292290    -0.000001382726
            -0.000001368229    -0.000001364393    0.092841269518    0.047913592591    -0.000001292290    -0.000001382726    0.099426222558    0.046709227737
0.425     0.091735971885    0.020008710851    -0.000002223709    -0.000001567358    0.089983287867    0.025464951452    -0.000001430445    -0.000001420654
            -0.000002223709    -0.000001567358    0.099333951687    0.033540284687    -0.000002207714    -0.000001608984    0.097102501348    0.037038419216
            0.089983287867    0.025464951452    -0.000002207714    -0.000001608984    0.091915203993    0.021415441693    -0.000001349906    -0.000001444177
            -0.000001430445    -0.000001420654    0.097102501348    0.037038419216    -0.000001349906    -0.000001444177    0.099307568734    0.034850039266
0.450     0.078787293053    0.010683193913    -0.000002361840    -0.000001657374    0.082866479764    0.014287059702    -0.000001517121    -0.000001526956
            -0.000002361840    -0.000001657374    0.093634368885    0.025524779631    -0.000002344667    -0.000001702946    0.096467782286    0.027395779532
            0.082866479764    0.014287059702    -0.000002344667    -0.000001702946    0.079459911106    0.012169456491    -0.000001431111    -0.000001557586
            -0.000001517121    -0.000001526956    0.096467782286    0.027395779532    -0.000001431111    -0.000001557586    0.094093560486    0.026991703999
0.475     0.062938750863    0.011383911847    -0.000002575118    -0.000001779165    0.071443096832    0.010091568427    -0.000001660747    -0.000001673458
            -0.000002575118    -0.000001779165    0.085670218082    0.023825744544    -0.000002556638    -0.000001830868    0.092358908847    0.021363028888
            0.071443096832    0.010091568427    -0.000002556638    -0.000001830868    0.064107530950    0.012704087603    -0.000001569233    -0.000001713905
            -0.000001660747    -0.000001673458    0.092358908847    0.021363028888    -0.000001569233    -0.000001713905    0.086660931844    0.025202767745
0.500     0.050030926825    0.022564209966    -0.000002889630    -0.000001892236    0.060197856821    0.014458001839    -0.000001889975    -0.000001832413
            -0.000002889630    -0.000001892236    0.079231516152    0.028801484885    -0.000002870893    -0.000001952596    0.087353976007    0.020281326851
            0.060197856821    0.014458001839    -0.000002870893    -0.000001952596    0.051564201818    0.023494198120    -0.000001794186    -0.000001885721
            -0.000001889975    -0.000001832413    0.087353976007    0.020281326851    -0.000001794186    -0.000001885721    0.080664266909    0.029838463127
0.525     0.045560754463    0.041397122263    -0.000003309231    -0.000001939302    0.054027862628    0.026199702080    -0.000002219725    -0.000001957630
            -0.000003309231    -0.000001939302    0.077883375454    0.038738243004    -0.000003292783    -0.000002010507    0.084468191555    0.023880115172
            0.054027862628    0.026199702080    -0.000003292783    -0.000002010507    0.047218725764    0.041809669242    -0.000002122455    -0.000002026513
            -0.000002219725    -0.000001957630    0.084468191555    0.023880115172    -0.000002122455    -0.000002026513    0.079544225040    0.039257484873
0.550     0.052785735320    0.062325556867    -0.000003801855    -0.000001860408    0.056495149793    0.041466071322    -0.000002635186    -0.000001992340
            -0.000003801855    -0.000001860408    0.083841700509    0.050186832653    -0.000003791470    -0.000001943396    0.086165355224    0.030222703509
            0.056495149793    0.041466071322    -0.000003791470    -0.000001943396    0.054289146762    0.062240546882    -0.000002540514    -0.000002078226
            -0.000002635186    -0.000001992340    0.086165355224    0.030222703509    -0.000002540514    -0.000002078226    0.085445599558    0.050144137649
0.575     0.071429641337    0.078775711596    -0.000004299599    -0.000001618376    0.068432284453    0.054994118421    -0.000003086111    -0.000001891688
            -0.000004299599    -0.000001618376    0.097154574808    0.058942784266    -0.000004299509    -0.000001712140    0.093456093879    0.036278744910
            0.068432284453    0.054994118421    -0.000004299509    -0.000001712140    0.072548986451    0.078361280200    -0.000002998605    -0.000001994089
            -0.000003086111    -0.000001891688    0.093456093879    0.036278744910    -0.000002998605    -0.000001994089    0.098428173502    0.058450426337
0.600     0.097745066588    0.085358672375    -0.000004717293    -0.000001221798    0.087694017611    0.061972102774    -0.000003497651    -0.000001647300
            -0.000004717293    -0.000001221798    0.115625452428    0.061371748674    -0.000004730875    -0.000001323378    0.105554617238    0.038946859849
            0.087694017611    0.061972102774    -0.000004730875    -0.000001323378    0.098373630567    0.084879716292    -0.000003421110    -0.000001763746
            -0.000003497651    -0.000001647300    0.105554617238    0.038946859849    -0.000003421110    -0.000001763746    0.116389490040    0.060669833871
0.625     0.125849411653    0.079494786245    -0.000004987036    -0.000000728806    0.110055062645    0.059522118340    -0.000003801405    -0.000001297799
            -0.000004987036    -0.000000728806    0.135502555205    0.055516003145    -0.000005015921    -0.000000834050    0.120180988791    0.036028061998
            0.110055062645    0.059522118340    -0.000005015921    -0.000000834050    0.126033522361    0.079232201767    -0.000003737992    -0.000001424614
            -0.000003801405    -0.000001297799    0.120180988791    0.036028061998    -0.000003737992    -0.000001424614    0.135724223527    0.054903912935
0.650     0.149584717543    0.061876398735    -0.000005084365    -0.000000226675    0.130634723357    0.047269759451    -0.000003962393    -0.000000914866
            -0.000005084365    -0.000000226675    0.152631647077    0.041574333666    -0.000005128072    -0.000000331409    0.134330037495    0.026791020163
            0.130634723357    0.047269759451    -0.000005128072    -0.000000331409    0.149505227558    0.062049382906    -0.000003912254    -0.000001048277
            -0.000003962393    -0.000000914866    0.134330037495    0.026791020163    -0.000003912254    -0.000001048277    0.152432569127    0.041329833531
0.675     0.164047906089    0.035922208586    -0.000005036121    0.000000200073    0.145103080067    0.027088949909    -0.000003991909    -0.000000575424
            -0.000005036121    0.000000200073    0.163553204664    0.021697288691    -0.000005092529    0.000000098974    0.145068894071    0.012021526004
            0.145103080067    0.027088949909    -0.000005092529    0.000000098974    0.163971423909    0.036632433793    -0.000003953613    -0.000000712582
            -0.000003991909    -0.000000575424    0.145068894071    0.012021526004    -0.000003953613    -0.000000712582    0.163176877290    0.022004552505
0.700     0.166500314249    0.006766713584    -0.000004906042    0.000000494958    0.150461331684    0.002509030267    -0.000003937272    -0.000000336462
            -0.000004906042    0.000000494958    0.166267766611    -0.000660870715    -0.000004972143    0.000000398986    0.150185240087    -0.006257173408
            0.150461331684    0.002509030267    -0.000004972143    0.000000398986    0.166713694010    0.007975563703    -0.000003908507    -0.000000476003
            -0.000003937272    -0.000000336462    0.150185240087    -0.006257173408    -0.000003908507    -0.000000476003    0.166020910774    0.000243947803
0.725     0.156728423199    -0.019795126183    -0.000004774255    0.000000640796    0.145485170547    -0.021934103522    -0.000003864890    -0.000000222449
            -0.000004774255    0.000000640796    0.160570721105    -0.021548895752    -0.000004847130    0.000000549776    0.148585633812    -0.025221558287
            0.145485170547    -0.021934103522    -0.000004847130    0.000000549776    0.157472747094    -0.018263771114    -0.000003843394    -0.000000364622
            -0.000003864890    -0.000000222449    0.148585633812    -0.025221558287    -0.000003843394    -0.000000364622    0.160751898771    -0.020154323350
0.750     0.137121182470    -0.038317393158    -0.000004717179    0.000000657426    0.131079819231    -0.041383288512    -0.000003841377    -0.000000226062
            -0.000004717179    0.000000657426    0.148073469165    -0.037320059379    -0.000004794646    0.000000569708    0.140567780450    -0.041760528908
            0.131079819231    -0.041383288512    -0.000004794646    0.000000569708    0.138530860272    -0.036743801205    -0.000003825581    -0.000000372506
            -0.000003841377    -0.000000226062    0.140567780450    -0.041760528908    -0.000003825581    -0.000000372506    0.148903638226    -0.035678781378
0.775     0.112499075708    -0.044771385124    -0.000004796690    0.000000594932    0.110491468895    -0.051596618201    -0.000003924916    -0.000000313923
            -0.000004796690    0.000000594932    0.131949555477    -0.045382251042    -0.000004877880    0.000000507944    0.127902500517    -0.053101831341
            0.110491468895    -0.051596618201    -0.000004877880    0.000000507944    0.114555044399    -0.043482727652    -0.000003914554    -0.000000467193
