# GHz S RI R 45
0.000     0.035793637314    0.001673875356    -0.000014201357    -0.000037536411    0.000997177657    0.001411148381    -0.000010970334    -0.000028193196
            -0.000014201401    -0.000037536410    0.036114097548    0.001459838567    -0.000020010011    -0.000052220652    0.001019799929    0.001627686454
            0.000997178307    0.001411148412    -0.000020010062    -0.000052220650    0.035727088403    0.001687879325    -0.000014461524    -0.000037930232
            -0.000010970335    -0.000028193198    0.001019800124    0.001627686450    -0.000014461418    -0.000037930233    0.036052238408    0.001471644252
0.025     0.043426945640    0.005053375741    -0.000044360330    -0.000077013723    0.004686695450    0.010332104058    -0.000034268287    -0.000058341928
            -0.000044360334    -0.000077013730    0.041624802729    0.005693545396    -0.000061713062    -0.000106791693    0.003298488789    0.011729754025
            0.004684131372    0.010331155366    -0.000061713082    -0.000106791728    0.043379427102    0.005072066940    -0.000045159646    -0.000077579396
            -0.000034268830    -0.000058341733    0.003298743857    0.011729179519    -0.000045159693    -0.000077579475    0.041528030200    0.005641814554
0.050     0.052278893725    0.000005357507    -0.000110550064    -0.000119952296    0.014274696082    0.016097127673    -0.000084855253    -0.000090080630
            -0.000110550071    -0.000119952303    0.045599565830    0.004318321825    -0.000152729188    -0.000166387473    0.009551835551    0.021069942967
            0.014274675758    0.016097129657    -0.000152729188    -0.000166387473    0.052295683055    0.000035345645    -0.000112059050    -0.000119983755
            -0.000084855268    -0.000090080615    0.009551934260    0.021069937744    -0.000112059705    -0.000119984456    0.045392040714    0.004272471785
0.075     0.058471504039    -0.011669954028    -0.000194769452    -0.000128043534    0.025797742880    0.014475997448    -0.000148402083    -0.000094890889
            -0.000194769452    -0.000128043534    0.046611462328    0.000884567601    -0.000268229744    -0.000178642191    0.017700691113    0.026465941214
            0.025797737346    0.014476003223    -0.000268229744    -0.000178642191    0.058576474467    -0.011664063023    -0.000195922566    -0.000126945115
            -0.000148402083    -0.000094890889    0.017700687324    0.026465942546    -0.000195922566    -0.000126945115    0.046297258463    0.000937130428
0.100     0.058339659338    -0.028390697123    -0.000284991376    -0.000098336083    0.034490732963    0.005478152784    -0.000215454257    -0.000071300074
            -0.000284991376    -0.000098336083    0.044045972308    -0.003008419401    -0.000392380196    -0.000139825490    0.025344933888    0.027865221843
            0.034490732934    0.005478152965    -0.000392380196    -0.000139825490    0.058546402899    -0.028463693423    -0.000284453430    -0.000096867924
            -0.000215454257    -0.000071300074    0.025344908492    0.027865230073    -0.000284453430    -0.000096867924    0.043682145542    -0.002779969737
0.125     0.048989349840    -0.046222071676    -0.000368900819    -0.000029516464    0.036304110032    -0.008266660170    -0.000277161301    -0.000019127471
            -0.000368900839    -0.000029516465    0.037708557953    -0.005256332117    -0.000508981630    -0.000048004124    0.030534445980    0.026488866907
            0.036304110032    -0.008266660170    -0.000508981630    -0.000048004124    0.049282910524    -0.046435787293    -0.000366432977    -0.000029679023
            -0.000277161301    -0.000019127471    0.030534445980    0.026488866907    -0.000366432977    -0.000029679023    0.037397928898    -0.004822452808
0.150     0.029966988175    -0.059933798985    -0.000433634346    0.000077489673    0.029192130779    -0.022207229883    -0.000324759905    0.000060836654
            -0.000433634346    0.000077489673    0.028806776644    -0.003663864900    -0.000601054279    0.000096094375    0.032313436910    0.024390861086
            0.029192130779    -0.022207229883    -0.000601054279    0.000096094375    0.030292938941    -0.060345708377    -0.000430965855    0.000073780303
            -0.000324759905    0.000060836654    0.032313436910    0.024390861086    -0.000430965855    0.000073780303    0.028654955903    -0.003060856008
0.175     0.003850286383    -0.064241493801    -0.000464288743    0.000218802728    0.013868263924    -0.031171086699    -0.000347681067    0.000166433821
            -0.000464288743    0.000218802728    0.019498562458    0.003123401953    -0.000648576634    0.000288133489    0.031049194584    0.023814590117
            0.013868263924    -0.031171086699    -0.000648576634    0.000288133489    0.004124331051    -0.064878490139    -0.000464650065    0.000211433741
            -0.000347681067    0.000166433821    0.031049194584    0.023814590117    -0.000464650065    0.000211433741    0.019579992859    0.003795739453
0.200     -0.024011925798    -0.055717936294    -0.000444673196    0.000384039142    -0.006143714956    -0.030933687460    -0.000333423057    0.000290930909
            -0.000444673196    0.000384039142    0.012591544579    0.015208519821    -0.000629199053    0.000515254284    0.028326801967    0.026429793831
            -0.006143714956    -0.030933687460    -0.000629199053    0.000515254284    -0.023889575914    -0.056561459267    -0.000450969131    0.000375626383
            -0.000333423057    0.000290930909    0.028326801967    0.026429793831    -0.000450969131    0.000375626383    0.012911509049    0.015816887725
0.225     -0.046803064544    -0.034104163200    -0.000361219155    0.000553611536    -0.025340845574    -0.019659151750    -0.000270478697    0.000420022539
            -0.000361219155    0.000553611536    0.010766433814    0.031142478249    -0.000523325722    0.000752002934    0.026439832683    0.032723114551
            -0.025340845574    -0.019659151750    -0.000523325722    0.000752002934    -0.046923734131    -0.035080860424    -0.000373846392    0.000548691616
            -0.000270478697    0.000420022539    0.026439832683    0.032723114551    -0.000373846392    0.000548691616    0.011249764263    0.031566898267
0.250     -0.058115961093    -0.002834709013    -0.000209928969    0.000699751881    -0.037797955557    0.001273053177    -0.000154496462    0.000531889804
            -0.000209928969    0.000699751881    0.015705783074    0.048162590261    -0.000323532299    0.000961170313    0.027609656663    0.041792283316
            -0.037797955557    0.001273053177    -0.000323532299    0.000961170313    -0.058530517107    -0.003821734937    -0.000225821737    0.000702401610
            -0.000154496462    0.000531889804    0.027609656663    0.041792283316    -0.000225821737    0.000702401610    0.016214897668    0.048342952752
0.275     -0.053915947324    0.031586676994    -0.000001437304    0.000792975857    -0.038979510955    0.027445497847    0.000006771589    0.000602397871
            -0.000001437304    0.000792975857    0.027463616248    0.062871640052    -0.000041908793    0.001101953964    0.033205956685    0.051611132236
            -0.038979510955    0.027445497847    -0.000041908793    0.001101953964    -0.054608693946    0.030738003433    -0.000015144874    0.000804257687
            0.000006771589    0.000602397871    0.033205956685    0.051611132236    -0.000015144874    0.000804257687    0.027842417382    0.062836040762
0.300     -0.033918287249    0.061203611468    0.000239406321    0.000811647762    -0.027186517549    0.052561715151    0.000193157954    0.000613484420
            0.000239406321    0.000811647762    0.044324619997    0.072229399399    0.000289468438    0.001142800901    0.043281046632    0.059708450289
            -0.027186517549    0.052561715151    0.000289468438    0.001142800901    -0.034795044822    0.060630514753    0.000232853857    0.000828548863
            0.000193157954    0.000613484420    0.043281046632    0.059708450289    0.000232853857    0.000828548863    0.044452385103    0.072093482405
0.325     -0.001855054830    0.078731395800    0.000480631343    0.000748868447    -0.004116788105    0.070176609622    0.000378048988    0.000559621884
            0.000480631343    0.000748868447    0.063238880587    0.074430055602    0.000627396488    0.001071489605    0.056561292077    0.063943966444
            -0.004116788105    0.070176609622    0.000627396488    0.001071489605    -0.002752956321    0.078518295660    0.000482874348    0.000765647663
            0.000378048988    0.000559621884    0.056561292077    0.063943966444    0.000482874348    0.000765647663    0.063074584500    0.074365492831
0.350     0.035372549096    0.079473178828    0.000693002672    0.000613229107    0.025541578121    0.075399749812    0.000537071834    0.000448888578
            0.000693002672    0.000613229107    0.080659910791    0.069419825581    0.000930726146    0.000897311727    0.070856760711    0.063137846238
            0.025541578121    0.075399749812    0.000930726146    0.000897311727    0.034654610841    0.079619116807    0.000701161163    0.000624588756
            0.000537071834    0.000448888578    0.070856760711    0.063137846238    0.000701161163    0.000624588756    0.080262277951    0.069603179659
0.375     0.069333340846    0.062489406361    0.000857269177    0.000423003802    0.055237544969    0.066087074821    0.000654894611    0.000298013166
            0.000857269177    0.000423003802    0.093477078518    0.058868927633    0.001171072882    0.000644185162    0.083669106499    0.057359269261
            0.055237544969    0.066087074821    0.001171072882    0.000644185162    0.068990522871    0.062892889088    0.000865420323    0.000427331218
            0.000654894611    0.000298013166    0.083669106499    0.057359269261    0.000865420314    0.000427331214    0.092995840737    0.059428397866
0.400     0.091963216197    0.030871649730    0.000965917657    0.000198051957    0.078013486231    0.043375772189    0.000727191334    0.000124889955
            0.000965917657    0.000198051957    0.099784842963    0.045736814940    0.001336506785    0.000339600995    0.092841269518    0.047913592591
            0.078013486231    0.043375772189    0.001336506785    0.000339600995    0.092135591187    0.031337533958    0.000968625186    0.000198793040
            0.000727191334    0.000124889955    0.092841269518    0.047913592591    0.000968625186    0.000198793040    0.099426222558    0.046709227737
0.425     0.097325893101    -0.008821152711    0.001019227270    -0.000046953116    0.087988851542    0.011569234151    0.000757179230    -0.000057873073
            0.001019227270    -0.000046953116    0.099333951687    0.033540284687    0.001426989087    0.000004505605    0.097102501348    0.037038419216
            0.087988851542    0.011569234151    0.001426989087    0.000004505606    0.098054792391    -0.008552980491    0.001015319552    -0.000042820133
            0.000757179230    -0.000057873073    0.097102501348    0.037038419216    0.001015319552    -0.000042820133    0.099307568734    0.034850039266
0.450     0.083005586438    -0.047776243632    0.001018468303    -0.000304584788    0.081726910622    -0.022542420897    0.000749240443    -0.000245454762
            0.001018468303    -0.000304584788    0.093634368885    0.025524779631    0.001444966294    -0.000350769412    0.096467782286    0.027395779532
            0.081726910622    -0.022542420897    0.001444966294    -0.000350769412    0.084203653635    -0.047981001039    0.001012916620    -0.000290515595
            0.000749240443    -0.000245454762    0.096467782286    0.027395779532    0.001012916620    -0.000290515595    0.094093560486    0.026991703999
0.475     0.050930548935    -0.076675543743    0.000959172312    -0.000571047644    0.059287394242    -0.050939990527    0.000702136949    -0.000437941028
            0.000959172312    -0.000571047644    0.085670218082    0.023825744544    0.001385216368    -0.000722421735    0.092358908847    0.021363028888
            0.059287394242    -0.050939990527    0.001385216355    -0.000722421759    0.052375672549    -0.077579070348    0.000961589428    -0.000545741706
            0.000702136949    -0.000437941028    0.092358908847    0.021363028888    0.000961589428    -0.000545741706    0.086660931844    0.025202767745
0.500     0.007398417740    -0.087815828499    0.000829337882    -0.000838021761    0.024699374434    -0.066174859584    0.000606296097    -0.000632771411
            0.000829337882    -0.000838021761    0.079231516152    0.028801484885    0.001230918852    -0.001101960287    0.087353976007    0.020281326851
            0.024699374434    -0.066174859584    0.001230918852    -0.001101960287    0.008762122432    -0.089526161838    0.000849108803    -0.000808061400
            0.000606296097    -0.000632771411    0.087353976007    0.020281326851    0.000849108803    -0.000808061400    0.080664266909    0.029838463127
0.525     -0.037991622767    -0.077217473199    0.000615082008    -0.001084261318    -0.014560128917    -0.063403605852    0.000448140080    -0.000816158718
            0.000615082008    -0.001084261318    0.077883375454    0.038738243004    0.000960136701    -0.001463481319    0.084468191555    0.023880115172
            -0.014560128917    -0.063403605852    0.000960136701    -0.001463481319    -0.037079033300    -0.079672952695    0.000655391373    -0.001062597770
            0.000448140080    -0.000816158718    0.084468191555    0.023880115172    0.000655391373    -0.001062597770    0.079544225040    0.039257484873
0.550     -0.074540367639    -0.046071475356    0.000313112897    -0.001274032245    -0.049248880339    -0.042044236131    0.000221346434    -0.000960263263
            0.000313112897    -0.001274032245    0.083841700509    0.050186832653    0.000562665334    -0.001759534901    0.086165355224    0.030222703509
            -0.049248880339    -0.042044236131    0.000562665334    -0.001759534901    -0.074397751577    -0.049027462455    0.000367355252    -0.001274187662
            0.000221346434    -0.000960263263    0.086165355224    0.030222703509    0.000367355252    -0.001274187662    0.085445599558    0.050144137649
0.575     -0.093298939731    -0.000786295133    -0.000057733541    -0.001366507052    -0.070852832694    -0.006246858882    -0.000061797115    -0.001030667536
            -0.000057733541    -0.001366507052    0.097154574808    0.058942784266    0.000057297519    -0.001931807463    0.093456093879    0.036278744910
            -0.070852832694    -0.006246858882    0.000057297519    -0.001931807463    -0.094101086378    -0.003855821627    -0.000004537006    -0.001395474325
            -0.000061797115    -0.001030667536    0.093456093879    0.036278744910    -0.000004537006    -0.001395474325    0.098428173502    0.058450426337
0.600     -0.089580359623    0.048611104231    -0.000455359512    -0.001332966188    -0.073996221047    0.036155937965    -0.000367979399    -0.001001632222
            -0.000455359512    -0.001332966188    0.115625452428    0.061371748674    -0.000503643086    -0.001933907175    0.105554617238    0.038946859849
            -0.073996221047    0.036155937965    -0.000503643086    -0.001933907175    -0.091297563787    0.045869904808    -0.000420240756    -0.001386673178
            -0.000367979399    -0.001001632222    0.105554617238    0.038946859849    -0.000420240756    -0.001386673178    0.116389490040    0.060669833871
0.625     -0.064134615978    0.091194633576    -0.000826399570    -0.001170047002    -0.057779059420    0.075844731048    -0.000652717899    -0.000868864780
            -0.000826399570    -0.001170047002    0.135502555205    0.055516003145    -0.001047482533    -0.001751414964    0.120180988791    0.036028061998
            -0.057779059420    0.075844731048    -0.001047482533    -0.001751414964    -0.066527703175    0.089170357019    -0.000820607793    -0.001234390814
            -0.000652717899    -0.000868864780    0.120180988791    0.036028061998    -0.000820607793    -0.001234390814    0.135724223527    0.054903912935
0.650     -0.022663220117    0.117918848268    -0.001124132343    -0.000901100523    -0.025689858376    0.104412245515    -0.000876223521    -0.000651674233
            -0.001124132343    -0.000901100523    0.152631647077    0.041574333666    -0.001504667447    -0.001407708467    0.134330037495    0.026791020163
            -0.025689858376    0.104412245515    -0.001504667447    -0.001407708467    -0.025332794559    0.116852124345    -0.001147858292    -0.000958030219
            -0.000876223521    -0.000651674233    0.134330037495    0.026791020163    -0.001147858292    -0.000958030219    0.152432569127    0.041329833531
0.675     0.025897024459    0.123527876095    -0.001321253620    -0.000565783748    0.015592717077    0.116118066697    -0.001015447882    -0.000384366996
            -0.001321253620    -0.000565783748    0.163553204664    0.021697288691    -0.001828555849    -0.000953299174    0.145068894071    0.012021526004
            0.015592717077    0.116118066697    -0.001828555849    -0.000953299174    0.023425276514    0.123455150987    -0.001363702437    -0.000601240701
            -0.001015447882    -0.000384366996    0.145068894071    0.012021526004    -0.001363702437    -0.000601240701    0.163176877290    0.022004552505
0.700     0.071516431809    0.107290330352    -0.001413037302    -0.000205736873    0.057806028073    0.108739073548    -0.001067537644    -0.000103573766
            -0.001413037302    -0.000205736873    0.166267766611    -0.000660870715    -0.002003608684    -0.000447414983    0.150185240087    -0.006257173408
            0.057806028073    0.108739073548    -0.002003608684    -0.000447414983    0.069693898928    0.108031556330    -0.001457476997    -0.000215861453
            -0.001067537644    -0.000103573766    0.150185240087    -0.006257173408    -0.001457476997    -0.000215861453    0.166020910774    0.000243947803
0.725     0.105018512943    0.072763235514    -0.001411559589    0.000146649642    0.092630379979    0.083672519706    -0.001045378496    0.000162388618
            -0.001411559589    0.000146649642    0.160570721105    -0.021548895752    -0.002041266358    0.000059584243    0.148585633812    -0.025221558287
            0.092630379979    0.083672519706    -0.002041266358    0.000059584243    0.104183822235    0.073949355692    -0.001443358027    0.000154193657
            -0.001045378496    0.000162388618    0.148585633812    -0.025221558287    -0.001443358027    0.000154193657    0.160751898771    -0.020154323350
0.750     0.119611023336    0.026978009248    -0.001336495344    0.000473921079    0.113011331437    0.045634904106    -0.000969392089    0.000399108714
            -0.001336495344    0.000473921079    0.148073469165    -0.037320059379    -0.001968294822    0.000537234411    0.140567780450    -0.041760528908
            0.113011331437    0.045634904106    -0.001968294822    0.000537234411    0.119915785927    0.028111124982    -0.001350310249    0.000483831002
            -0.000969392089    0.000399108714    0.140567780450    -0.041760528908    -0.001350310249    0.000483831002    0.148903638226    -0.035678781378
0.775     0.112026952883    -0.020727481344    -0.001204637614    0.000772837893    0.114346321079    0.002039047818    -0.000857825962    0.000606549185
            -0.001204637614    0.000772837893    0.131949555477    -0.045382251042    -0.001811112342    0.000977633401    0.127902500517    -0.053101831341
            0.114346321079    0.002039047818    -0.001811112342    0.000977633401    0.113386964082    -0.020187255294    -0.001207645762    0.000770357430
            -0.000857825962    0.000606549185    0.127902500517    -0.053101831341    -0.001207645762    0.000770357430    0.133510937918    -0.043827425054
