# GHz S RI R 45
0.000     0.037130613749    0.001339850531    0.000000194129    0.000000392013    0.001069975302    0.001459961697    0.000000208122    0.000000409655
            0.000000194129    0.000000392013    0.036114097548    0.001459838567    0.000000202528    0.000000405951    0.001019799929    0.001627686454
            0.001069975379    0.001459961641    0.000000202528    0.000000405951    0.037098004863    0.001328600588    0.000000217245    0.000000424902
            0.000000208122    0.000000409655    0.001019800124    0.001627686450    0.000000217245    0.000000424902    0.036052238408    0.001471644252
0.025     0.043571494692    0.006038599461    0.000000352976    0.000000860798    0.003914427933    0.012329051090    0.000000374186    0.000000899526
            0.000000352976    0.000000860796    0.041624802729    0.005693545396    0.000000366608    0.000000892449    0.003298488789    0.011729754025
            0.003913058313    0.012329049407    0.000000366609    0.000000892448    0.043482734487    0.006009057654    0.000000388994    0.000000934222
            0.000000374187    0.000000899526    0.003298743857    0.011729179519    0.000000388994    0.000000934224    0.041528030200    0.005641814554
0.050     0.048695599704    0.003828560901    0.000000629350    0.000001536764    0.011481832546    0.021355743960    0.000000662954    0.000001606852
            0.000000629350    0.000001536764    0.045599565830    0.004318321825    0.000000652706    0.000001594460    0.009551835551    0.021069942967
            0.011481835733    0.021355648011    0.000000652706    0.000001594460    0.048547452633    0.003829424666    0.000000688265    0.000001670242
            0.000000662954    0.000001606852    0.009551934260    0.021069937744    0.000000688265    0.000001670242    0.045392040714    0.004272471785
0.075     0.050370675035    -0.001594850099    0.000000936886    0.000002135466    0.020793283031    0.025138739215    0.000000985643    0.000002233921
            0.000000936886    0.000002135466    0.046611462328    0.000884567601    0.000000971880    0.000002216754    0.017700691113    0.026465941214
            0.020793287659    0.025138734089    0.000000971880    0.000002216754    0.050203364209    -0.001506246244    0.000001023604    0.000002323450
            0.000000985643    0.000002233921    0.017700687324    0.026465942546    0.000001023604    0.000002323450    0.046297258463    0.000937130428
0.100     0.047142026344    -0.008189453881    0.000001270626    0.000002706283    0.028481730653    0.023913576735    0.000001337454    0.000002831597
            0.000001270626    0.000002706283    0.044045972308    -0.003008419401    0.000001319461    0.000002809927    0.025344933888    0.027865221843
            0.028481752782    0.023913569041    0.000001319461    0.000002809927    0.047025739843    -0.007990831210    0.000001390595    0.000002945955
            0.000001337454    0.000002831597    0.025344908492    0.027865230073    0.000001390595    0.000002945955    0.043682145542    -0.002779969737
0.125     0.038380240820    -0.012854765293    0.000001651059    0.000003286133    0.031970609175    0.019786029686    0.000001739774    0.000003437304
            0.000001651059    0.000003286133    0.037708557953    -0.005256332117    0.000001716467    0.000003411140    0.030534445980    0.026488866907
            0.031970608324    0.019786029160    0.000001716467    0.000003411140    0.038393783385    -0.012570846056    0.000001811209    0.000003575338
            0.000001739774    0.000003437304    0.030534445980    0.026488866907    0.000001811209    0.000003575338    0.037397928898    -0.004822452808
0.150     0.025529884241    -0.012210220484    0.000002125034    0.000003895496    0.030363025841    0.016001792968    0.000002240632    0.000004071205
            0.000002125034    0.000003895496    0.028806776644    -0.003663864900    0.000002210291    0.000004040718    0.032313436910    0.024390861086
            0.030363025841    0.016001792968    0.000002210291    0.000004040718    0.025744720890    -0.011934986188    0.000002334025    0.000004231531
            0.000002240632    0.000004071205    0.032313436910    0.024390861086    0.000002334025    0.000004231531    0.028654955903    -0.003060856008
0.175     0.011803078323    -0.003999651300    0.000002756953    0.000004513980    0.024840393448    0.015815698470    0.000002905670    0.000004711589
            0.000002756953    0.000004513980    0.019498562458    0.003123401953    0.000002865991    0.000004677659    0.031049194584    0.023814590117
            0.024840393448    0.015815698470    0.000002865991    0.000004677659    0.012225078890    -0.003860878708    0.000003025216    0.000004892106
            0.000002905670    0.000004711589    0.031049194584    0.023814590117    0.000003025216    0.000004892106    0.019579992859    0.003795739453
0.200     0.001547860712    0.012014838557    0.000003599649    0.000005072759    0.018374609792    0.021272114693    0.000003788078    0.000005287291
            0.000003599649    0.000005072759    0.012591544579    0.015208519821    0.000003736671    0.000005252061    0.028326801967    0.026429793831
            0.018374609792    0.021272114693    0.000003736671    0.000005252061    0.002099629008    0.011891833613    0.000003938226    0.000005484790
            0.000003788078    0.000005287291    0.028326801967    0.026429793831    0.000003938226    0.000005484790    0.012911509049    0.015816887725
0.225     -0.001089212359    0.033511859722    0.000004657898    0.000005459532    0.014727551153    0.032295651394    0.000004891516    0.000005683169
            0.000004657898    0.000005459532    0.010766433814    0.031142478249    0.000004826797    0.000005650132    0.026439832683    0.032723114551
            0.014727551153    0.032295651394    0.000004826797    0.000005650132    -0.000557862106    0.033055948011    0.000005076240    0.000005892991
            0.000004891516    0.000005683169    0.026439832683    0.032723114551    0.000005076240    0.000005892991    0.011249764263    0.031566898267
0.250     0.006312266945    0.056032046074    0.000005858771    0.000005560833    0.017040703293    0.046568113911    0.000006140290    0.000005783830
            0.000005858771    0.000005560833    0.015705783074    0.048162590261    0.000006062376    0.000005757189    0.027609656663    0.041792283316
            0.017040703293    0.046568113911    0.000006062376    0.000005757189    0.006641670849    0.055265036581    0.000006362462    0.000006000133
            0.000006140290    0.000005783830    0.027609656663    0.041792283316    0.000006362462    0.000006000133    0.016214897668    0.048342952752
0.275     0.023404615707    0.074255927689    0.000007057762    0.000005317456    0.026606004108    0.060293009570    0.000007386327    0.000005529695
            0.000007057762    0.000005317456    0.027463616248    0.062871640052    0.000007297228    0.000005513254    0.033205956685    0.051611132236
            0.026606004108    0.060293009570    0.000007297228    0.000005513254    0.023378695990    0.073300950664    0.000007647150    0.000005745983
            0.000007386327    0.000005529695    0.033205956685    0.051611132236    0.000007647150    0.000005745983    0.027842417382    0.062836040762
0.300     0.047000273653    0.083738094965    0.000008090097    0.000004770138    0.042377555462    0.069547700929    0.000008461566    0.000004962986
            0.000008090097    0.000004770138    0.044324619997    0.072229399399    0.000008364691    0.000004959158    0.043281046632    0.059708450289
            0.042377555462    0.069547700929    0.000008364691    0.000004959158    0.046549221919    0.082790343498    0.000008760410    0.000005172851
            0.000008461566    0.000004962986    0.043281046632    0.059708450289    0.000008760410    0.000005172851    0.044452385103    0.072093482405
0.325     0.072013094369    0.082297001674    0.000008840387    0.000004052208    0.061352399747    0.071570009662    0.000009248499    0.000004219873
            0.000008840387    0.000004052208    0.063238880587    0.074430055602    0.000009147706    0.000004229133    0.056561292077    0.063943966444
            0.061352399747    0.071570009662    0.000009147706    0.000004229133    0.071178871908    0.081568665548    0.000009583123    0.000004417814
            0.000009248499    0.000004219873    0.056561292077    0.063943966444    0.000009583123    0.000004417814    0.063074584500    0.074365492831
0.350     0.092948988345    0.070632013080    0.000009292237    0.000003340421    0.079528744627    0.065548393168    0.000009730242    0.000003480640
            0.000009292237    0.000003340421    0.080659910791    0.069419825581    0.000009628813    0.000003501533    0.070856760711    0.063137846238
            0.079528744627    0.065548393168    0.000009628813    0.000003501533    0.091880876729    0.070290651157    0.000010097398    0.000003662640
            0.000009730242    0.000003480640    0.070856760711    0.063137846238    0.000010097398    0.000003662640    0.080262277951    0.069603179659
0.375     0.105367840085    0.052058496674    0.000009529015    0.000002786927    0.092989753053    0.052784663710    0.000009991702    0.000002900681
            0.000009529015    0.000002786927    0.093477078518    0.058868927633    0.000009891208    0.000002930261    0.083669106499    0.057359269261
            0.092989753053    0.052784663710    0.000009891208    0.000002930261    0.104286957241    0.052176736615    0.000010388007    0.000003064488
            0.000009991702    0.000002900681    0.083669106499    0.057359269261    0.000010388007    0.000003064488    0.092995840737    0.059428397866
0.400     0.106970302430    0.031682206939    0.000009701278    0.000002473320    0.098883393835    0.036416899268    0.000010186417    0.000002563734
            0.000009701278    0.000002473320    0.099784842963    0.045736814940    0.000010086295    0.000002598654    0.092841269518    0.047913592591
            0.098883393835    0.036416899268    0.000010086295    0.000002598654    0.106114902012    0.032209376385    0.000010609195    0.000002708558
            0.000010186417    0.000002563734    0.092841269518    0.047913592591    0.000010609195    0.000002708558    0.099426222558    0.046709227737
0.425     0.098209405077    0.015228282864    0.000009978880    0.000002392103    0.096209172475    0.020778347811    0.000010488674    0.000002462264
            0.000009978880    0.000002392103    0.099333951687    0.033540284687    0.000010385479    0.000002500091    0.097102501348    0.037038419216
            0.096209172475    0.020778347811    0.000010385479    0.000002500091    0.097768796238    0.015991464766    0.000010936643    0.000002588148
            0.000010488674    0.000002462264    0.097102501348    0.037038419216    0.000010936643    0.000002588148    0.099307568734    0.034850039266
0.450     0.082424693608    0.007693869961    0.000010513488    0.000002451091    0.086372584447    0.010415214014    0.000011053821    0.000002501046
            0.000010513488    0.000002451091    0.093634368885    0.025524779631    0.000010942305    0.000002542235    0.096467782286    0.027395779532
            0.086372584447    0.010415214014    0.000010942305    0.000002542235    0.082476686210    0.008432271845    0.000011527530    0.000002607899
            0.000011053821    0.000002501046    0.096467782286    0.027395779532    0.000011527530    0.000002607899    0.094093560486    0.026991703999
0.475     0.065341046025    0.011877992461    0.000011403418    0.000002482408    0.073223222378    0.008719825146    0.000011981947    0.000002506748
            0.000011403418    0.000002482408    0.085670218082    0.023825744544    0.000011856620    0.000002555917    0.092358908847    0.021363028888
            0.073223222378    0.008719825146    0.000011856620    0.000002555917    0.065810549526    0.012311719251    0.000012483160    0.000002593262
            0.000011981947    0.000002506748    0.092358908847    0.021363028888    0.000012483160    0.000002593262    0.086660931844    0.025202767745
0.500     0.053727735178    0.027142508487    0.000012656118    0.000002261559    0.062232786285    0.016512165240    0.000013277837    0.000002248645
            0.000012656118    0.000002261559    0.079231516152    0.028801484885    0.000013136592    0.000002314426    0.087353976007    0.020281326851
            0.062232786285    0.016512165240    0.000013136592    0.000002314426    0.054388516311    0.027062962194    0.000013808846    0.000002311541
            0.000013277837    0.000002248645    0.087353976007    0.020281326851    0.000013808846    0.000002311541    0.080664266909    0.029838463127
0.525     0.053246200454    0.049045158634    0.000014141983    0.000001555738    0.058693322024    0.031252938022    0.000014805625    0.000001490276
            0.000014141983    0.000001555738    0.077883375454    0.038738243004    0.000014651782    0.000001582556    0.084468191555    0.023880115172
            0.058693322024    0.031252938022    0.000014651782    0.000001582556    0.053779805240    0.048396973650    0.000015368032    0.000001524095
            0.000014805625    0.000001490276    0.084468191555    0.023880115172    0.000015368032    0.000001524095    0.079544225040    0.039257484873
0.550     0.066255923431    0.070489852414    0.000015585992    0.000000219034    0.065614316607    0.047660665523    0.000016282660    0.000000086535
            0.000015585992    0.000000219034    0.083841700509    0.050186832653    0.000016125044    0.000000212579    0.086165355224    0.030222703509
            0.065614316607    0.047660665523    0.000016125044    0.000000212579    0.066354563558    0.069403696724    0.000016876109    0.000000084169
            0.000016282660    0.000000086535    0.086165355224    0.030222703509    0.000016876109    0.000000084169    0.085445599558    0.050144137649
0.575     0.090755522796    0.084169149306    0.000016636729    -0.000001705968    0.082464118891    0.059648724613    0.000017351986    -0.000001915179
            0.000016636729    -0.000001705968    0.097154574808    0.058942784266    0.000017202269    -0.000001753697    0.093456093879    0.036278744910
            0.082464118891    0.059648724613    0.000017202269    -0.000001753697    0.090227481828    0.082925427812    0.000017973681    -0.000001961572
            0.000017351986    -0.000001915179    0.093456093879    0.036278744910    0.000017973681    -0.000001961572    0.098428173502    0.058450426337
0.600     0.121164694415    0.085121042931    0.000017013372    -0.000003961664    0.105533064754    0.062561448980    0.000017730740    -0.000004250741
            0.000017013372    -0.000003961664    0.115625452428    0.061371748674    0.000017599356    -0.000004057901    0.105554617238    0.038946859849
            0.105533064754    0.062561448980    0.000017599356    -0.000004057901    0.119994756933    0.084058345750    0.000018374679    -0.000004348335
            0.000017730740    -0.000004250741    0.105554617238    0.038946859849    0.000018374679    -0.000004348335    0.116389490040    0.060669833871
0.625     0.150379227714    0.072107592192    0.000016632488    -0.000006163317    0.129464982891    0.054486918379    0.000017336468    -0.000006529718
            0.000016632488    -0.000006163317    0.135502555205    0.055516003145    0.000017230056    -0.000006313080    0.120180988791    0.036028061998
            0.129464982891    0.054486918379    0.000017230056    -0.000006313080    0.148725689557    0.071520952929    0.000017994138    -0.000006683666
            0.000017336468    -0.000006529718    0.120180988791    0.036028061998    0.000017994138    -0.000006683666    0.135724223527    0.054903912935
0.650     0.171938558585    0.047493949938    0.000015642198    -0.000007951123    0.148961463207    0.036348357641    0.000016320237    -0.000008387542
            0.000015642198    -0.000007951123    0.152631647077    0.041574333666    0.000016241405    -0.000008155861    0.134330037495    0.026791020163
            0.148961463207    0.036348357641    0.000016241405    -0.000008155861    0.170080855141    0.047559429996    0.000016981687    -0.000008599713
            0.000016320237    -0.000008387542    0.134330037495    0.026791020163    0.000016981687    -0.000008599713    0.152432569127    0.041329833531
0.675     0.181447390200    0.016194718871    0.000014349993    -0.000009111259    0.159906071356    0.011248532219    0.000014993494    -0.000009607312
            0.000014349993    -0.000009111259    0.163553204664    0.021697288691    0.000014940920    -0.000009368645    0.145068894071    0.012021526004
            0.159906071356    0.011248532219    0.000014940920    -0.000009368645    0.179713413016    0.016930730529    0.000015649136    -0.000009875921
            0.000014993494    -0.000009607312    0.145068894071    0.012021526004    0.000015649136    -0.000009875921    0.163176877290    0.022004552505
0.700     0.177214214497    -0.015590348547    0.000013111008    -0.000009622944    0.159953614434    -0.016301169454    0.000013717007    -0.000010166604
            0.000013111008    -0.000009622944    0.166267766611    -0.000660870715    0.000013686252    -0.000009927400    0.150185240087    -0.006257173408
            0.159953614434    -0.016301169454    0.000013686252    -0.000009927400    0.175902970700    -0.014323535129    0.000014359162    -0.000010486833
            0.000013717007    -0.000010166604    0.150185240087    -0.006257173408    0.000014359162    -0.000010486833    0.166020910774    0.000243947803
0.725     0.160397605146    -0.041505532681    0.000012227553    -0.000009634092    0.148863283069    -0.041074925347    0.000012799141    -0.000010214381
            0.000012227553    -0.000009634092    0.160570721105    -0.021548895752    0.000012783088    -0.000009978246    0.148585633812    -0.025221558287
            0.148863283069    -0.041074925347    0.000012783088    -0.000009978246    0.159710397078    -0.039981457517    0.000013423346    -0.000010579564
            0.000012799141    -0.000010214381    0.148585633812    -0.025221558287    0.000013423346    -0.000010579564    0.160751898771    -0.020154323350
0.750     0.134965400975    -0.056115203839    0.000011891010    -0.000009406398    0.128843384141    -0.057912913697    0.000012437453    -0.000010017182
            0.000011891010    -0.000009406398    0.148073469165    -0.037320059379    0.000012427010    -0.000009782964    0.140567780450    -0.041760528908
            0.128843384141    -0.057912913697    0.000012427010    -0.000009782964    0.134946749297    -0.054684847848    0.000013043074    -0.000010420737
            0.000012437453    -0.000010017182    0.140567780450    -0.041760528908    0.000013043074    -0.000010420737    0.148903638226    -0.035678781378
0.775     0.107371103501    -0.056143008843    0.000012157994    -0.000009254351    0.104689821826    -0.062906510360    0.000012691007    -0.000009898156
            0.000012157994    -0.000009254351    0.131949555477    -0.045382251042    0.000012678095    -0.000009658123    0.127902500517    -0.053101831341
            0.104689821826    -0.062906510360    0.000012678095    -0.000009658123    0.107874215912    -0.055152572909    0.000013280685    -0.000010335145
            0.000012691007    -0.000009898156    0.127902500517    -0.053101831341    0.000013280685    -0.000010335145    0.133510937918    -0.043827425054
0.800     0.085543612065    -0.041882446633    0.000012946021    -0.000009499219    0.083219923784    -0.054975244408    0.000013473672    -0.000010188835
            0.000012946021    -0.000009499219    0.116403203701    -0.044885415536    0.000013456147    -0.000009928963    0.113673659649    -0.057550816328
