# GHz S RI R 45
0.000     0.035765387909    0.001503478262    -0.000003986071    -0.000008488326    0.000990791413    0.001335063882    -0.000002517692    -0.000006094416
            -0.000003986061    -0.000008488317    0.036114097548    0.001459838567    -0.000041800649    -0.000011139301    0.001019799929    0.001627686454
            0.000990791812    0.001335063835    -0.000041800650    -0.000011139302    0.035634800914    0.001494158290    -0.000004040138    -0.000008584280
            -0.000002517677    -0.000006094416    0.001019800124    0.001627686450    -0.000004040159    -0.000008584281    0.036052238408    0.001471644252
0.025     0.043240394309    0.004846311370    -0.000012918995    -0.000018059002    0.004603013709    0.010212693453    -0.000007671380    -0.000012458899
            -0.000012918836    -0.000018058773    0.041624802729    0.005693545396    -0.000053734056    -0.000012228140    0.003298488789    0.011729754025
            0.004604363464    0.010212191395    -0.000053734213    -0.000012227929    0.043166666097    0.004837777218    -0.000012422930    -0.000018730692
            -0.000007671380    -0.000012458914    0.003298743857    0.011729179519    -0.000012422929    -0.000018730718    0.041528030200    0.005641814554
0.050     0.051899847434    -0.000175748022    -0.000031363498    -0.000024521979    0.014074626728    0.015943071759    -0.000018682658    -0.000018845911
            -0.000031363505    -0.000024521985    0.045599565830    0.004318321825    -0.000080854458    -0.000018377933    0.009551835551    0.021069942967
            0.014074623855    0.015943094304    -0.000080854459    -0.000018377934    0.051820103035    -0.000133500993    -0.000030336267    -0.000027636697
            -0.000018682662    -0.000018845908    0.009551934260    0.021069937744    -0.000030336269    -0.000027636700    0.045392040714    0.004272471785
0.075     0.057974831867    -0.011711033812    -0.000050034140    -0.000018758335    0.025469217377    0.014378281833    -0.000032115449    -0.000019343467
            -0.000050034144    -0.000018758337    0.046611462328    0.000884567601    -0.000106115458    -0.000001127690    0.017700691113    0.026465941214
            0.025469213244    0.014378287121    -0.000106115458    -0.000001127709    0.057929135688    -0.011612207839    -0.000051045172    -0.000025734818
            -0.000032115446    -0.000019343472    0.017700687324    0.026465942546    -0.000051045176    -0.000025734809    0.046297258463    0.000937130428
0.100     0.057835297242    -0.028221045616    -0.000062998624    -0.000004672176    0.034073112640    0.005516939302    -0.000045992906    -0.000013855540
            -0.000062998625    -0.000004672165    0.044045972308    -0.003008419401    -0.000118119018    0.000028651776    0.025344933888    0.027865221843
            0.034073112611    0.005516939481    -0.000118119018    0.000028651776    0.057873069362    -0.028077558147    -0.000069943085    -0.000014126198
            -0.000045992906    -0.000013855540    0.025344908492    0.027865230073    -0.000069943085    -0.000014126198    0.043682145542    -0.002779969737
0.125     0.048619475043    -0.045835427186    -0.000068757044    0.000012076758    0.035878014132    -0.008034444665    -0.000058489107    -0.000002475881
            -0.000068757044    0.000012076758    0.037708557953    -0.005256332117    -0.000116097513    0.000059143127    0.030534445980    0.026488866907
            0.035878011900    -0.008034445480    -0.000116097513    0.000059143127    0.048786725605    -0.045688379680    -0.000084019357    0.000004895787
            -0.000058489101    -0.000002475881    0.030534445980    0.026488866907    -0.000084019356    0.000004895787    0.037397928898    -0.004822452808
0.150     0.029871911040    -0.059394582742    -0.000070058727    0.000027691377    0.028865542342    -0.021767458749    -0.000067864375    0.000014517545
            -0.000070058729    0.000027691378    0.028806776644    -0.003663864900    -0.000106798809    0.000083879148    0.032313436910    0.024390861086
            0.028865542342    -0.021767458749    -0.000106798809    0.000083879148    0.030191292821    -0.059318428061    -0.000092003796    0.000029029518
            -0.000067864373    0.000014517545    0.032313436910    0.024390861086    -0.000092003796    0.000029029518    0.028654955903    -0.003060856008
0.175     0.004135940538    -0.063686146049    -0.000070690789    0.000042698270    0.013757737597    -0.030564969836    -0.000072015627    0.000036646247
            -0.000070690790    0.000042698271    0.019498562458    0.003123401953    -0.000097570439    0.000104761326    0.031049194584    0.023814590117
            0.013757737597    -0.030564969836    -0.000097570439    0.000104761326    0.004586354433    -0.063769548676    -0.000093176173    0.000056888953
            -0.000072015625    0.000036646246    0.031049194584    0.023814590117    -0.000093176173    0.000056888953    0.019579992859    0.003795739453
0.200     -0.023309273010    -0.055334446821    -0.000071632182    0.000061093356    -0.005941930348    -0.030263261569    -0.000068417070    0.000062541461
            -0.000071632182    0.000061093356    0.012591544579    0.015208519821    -0.000090070705    0.000129042664    0.028326801967    0.026429793831
            -0.005941930348    -0.030263261569    -0.000090070705    0.000129042664    -0.022800415816    -0.055654488116    -0.000086251448    0.000087518324
            -0.000068417070    0.000062541461    0.028326801967    0.026429793831    -0.000086251448    0.000087518324    0.012911509049    0.015816887725
0.225     -0.045740217622    -0.034096638341    -0.000068904405    0.000086715726    -0.024783343227    -0.019075884801    -0.000054666992    0.000089275456
            -0.000068904405    0.000086715726    0.010766433814    0.031142478249    -0.000077837878    0.000162933042    0.026439832683    0.032723114551
            -0.024783343227    -0.019075884801    -0.000077837878    0.000162933042    -0.045289250435    -0.034687885010    -0.000069014746    0.000119099559
            -0.000054666992    0.000089275456    0.026439832683    0.032723114551    -0.000069014746    0.000119099559    0.011249764263    0.031566898267
0.250     -0.056846984638    -0.003376447051    -0.000055120889    0.000118945711    -0.036917901816    0.001598843057    -0.000029787529    0.000112267804
            -0.000055120889    0.000118945711    0.015705783074    0.048162590261    -0.000049532079    0.000205185400    0.027609656663    0.041792283316
            -0.036917901816    0.001598843057    -0.000049532079    0.000205185400    -0.056586659096    -0.004207260213    -0.000039482247    0.000147789298
            -0.000029787529    0.000112267804    0.027609656663    0.041792283316    -0.000039482247    0.000147789298    0.016214897668    0.048342952752
0.275     -0.052672677906    0.030398978034    -0.000023956842    0.000150856708    -0.037891465116    0.027364062774    0.000004589063    0.000126318779
            -0.000023956842    0.000150856708    0.027463616248    0.062871640052    0.000003941144    0.000244909821    0.033205956685    0.051611132236
            -0.037891465116    0.027364062774    0.000003941144    0.000244909821    -0.052712916078    0.029432115430    0.000002231816    0.000167917009
            0.000004589063    0.000126318779    0.033205956685    0.051611132236    0.000002231816    0.000167917009    0.027842417382    0.062836040762
0.300     -0.032969254969    0.059381380736    0.000025098942    0.000171431297    -0.026070496708    0.051980770211    0.000044029562    0.000127524390
            0.000025098942    0.000171431297    0.044324619997    0.072229399399    0.000082462872    0.000265426820    0.043281046632    0.059708450289
            -0.026070496708    0.051980770211    0.000082462872    0.000265426820    -0.033358182390    0.058436566686    0.000052639173    0.000173843682
            0.000044029562    0.000127524390    0.043281046632    0.059708450289    0.000052639173    0.000173843682    0.044452385103    0.072093482405
0.325     -0.001454832712    0.076403665230    0.000085062412    0.000170597783    -0.003188874062    0.069085550599    0.000082640885    0.000114841838
            0.000085062412    0.000170597783    0.063238880587    0.074430055602    0.000174531679    0.000252057898    0.056561292077    0.063943966444
            -0.003188874062    0.069085550599    0.000174531679    0.000252057898    -0.002154299042    0.075655182130    0.000105461470    0.000162226421
            0.000082640885    0.000114841838    0.056561292077    0.063943966444    0.000105461470    0.000162226421    0.063074584500    0.074365492831
0.350     0.035030932000    0.076872631216    0.000143715556    0.000144115163    0.026062379981    0.073880799364    0.000115179876    0.000090333258
            0.000143715556    0.000144115163    0.080659910791    0.069419825581    0.000261021566    0.000199402162    0.070856760711    0.063137846238
            0.026062379981    0.073880799364    0.000261021566    0.000199402162    0.034147603240    0.076464427229    0.000153611554    0.000133283406
            0.000115179869    0.000090333250    0.070856760711    0.063137846238    0.000153611554    0.000133283406    0.080262277951    0.069603179659
0.375     0.068156173703    0.059924595641    0.000188455061    0.000095537482    0.055165313369    0.064317236521    0.000138626587    0.000057846635
            0.000188455059    0.000095537485    0.093477078518    0.058868927633    0.000322709160    0.000114124695    0.083669106499    0.057359269261
            0.055165313369    0.064317236521    0.000322709160    0.000114124695    0.067282515990    0.059927608797    0.000191348662    0.000090266007
            0.000138626587    0.000057846635    0.083669106499    0.057359269261    0.000191348662    0.000090266007    0.092995840737    0.059428397866
0.400     0.089984729110    0.028689501084    0.000211123113    0.000034712882    0.077235526734    0.041618707277    0.000152413633    0.000021217207
            0.000211123113    0.000034712881    0.099784842963    0.045736814940    0.000347670129    0.000012362690    0.092841269518    0.047913592591
            0.077235526734    0.041618707277    0.000347670129    0.000012362689    0.089339458533    0.029072056501    0.000215386255    0.000037953147
            0.000152413623    0.000021217207    0.092841269518    0.047913592591    0.000215386255    0.000037953147    0.099426222558    0.046709227737
0.425     0.094727487509    -0.010284522283    0.000210708505    -0.000026341667    0.086510802582    0.010149571894    0.000157421295    -0.000017098785
            0.000210708505    -0.000026341667    0.099333951687    0.033540284687    0.000335213034    -0.000086788079    0.097102501348    0.037038419216
            0.086510802582    0.010149571894    0.000335213034    -0.000086788079    0.094502834085    -0.009663671084    0.000224755320    -0.000018985563
            0.000157421295    -0.000017098785    0.097102501348    0.037038419216    0.000224755320    -0.000018985563    0.099307568734    0.034850039266
0.450     0.080120373195    -0.048259346913    0.000192974752    -0.000078298457    0.079712547482    -0.023293923084    0.000154515310    -0.000056252574
            0.000192974752    -0.000078298457    0.093634368885    0.025524779631    0.000295006536    -0.000168730923    0.096467782286    0.027395779532
            0.079712547482    -0.023293923084    0.000295006536    -0.000168730923    0.080426785228    -0.047632476788    0.000219901752    -0.000076973122
            0.000154515310    -0.000056252574    0.096467782286    0.027395779532    0.000219901752    -0.000076973122    0.094093560486    0.026991703999
0.475     0.048216639666    -0.076067605435    0.000166966461    -0.000118109345    0.057069742339    -0.050771643539    0.000143310268    -0.000096221597
            0.000166966461    -0.000118109345    0.085670218082    0.023825744544    0.000241583896    -0.000228574113    0.092358908847    0.021363028888
            0.057069742339    -0.050771643539    0.000241583896    -0.000228574113    0.049040524416    -0.075712793222    0.000201419493    -0.000133669556
            0.000143310268    -0.000096221597    0.092358908847    0.021363028888    0.000201419493    -0.000133669556    0.086660931844    0.025202767745
0.500     0.005366941532    -0.086226896648    0.000139830751    -0.000149449208    0.022737485867    -0.065010479358    0.000121832999    -0.000136306438
            0.000139830751    -0.000149449208    0.079231516152    0.028801484885    0.000186647655    -0.000271573780    0.087353976007    0.020281326851
            0.022737485867    -0.065010479358    0.000186647655    -0.000271573780    0.006551737068    -0.086400088272    0.000169095722    -0.000187187893
            0.000121832999    -0.000136306438    0.087353976007    0.020281326851    0.000169095722    -0.000187187893    0.080664266909    0.029838463127
0.525     -0.038895165009    -0.075007187846    0.000112495324    -0.000179188611    -0.015784924242    -0.061408403513    0.000087397329    -0.000173553829
            0.000112495324    -0.000179188611    0.077883375454    0.038738243004    0.000132874230    -0.000307908530    0.084468191555    0.023880115172
            -0.015784924242    -0.061408403513    0.000132874230    -0.000307908530    -0.037628256131    -0.075868148041    0.000121793561    -0.000234612492
            0.000087397329    -0.000173553829    0.084468191555    0.023880115172    0.000121793561    -0.000234612492    0.079544225040    0.039257484873
0.550     -0.074069204329    -0.043803602682    0.000079230562    -0.000211534842    -0.049370503115    -0.039618932147    0.000038774721    -0.000202169202
            0.000079230562    -0.000211534842    0.083841700509    0.050186832653    0.000073296020    -0.000344352587    0.086165355224    0.030222703509
            -0.049370503115    -0.039618932147    0.000073296020    -0.000344352587    -0.073061226408    -0.045357168392    0.000058980086    -0.000270746198
            0.000038774721    -0.000202169202    0.086165355224    0.030222703509    0.000058980086    -0.000270746198    0.085445599558    0.050144137649
0.575     -0.091498139428    0.000893199034    0.000031939832    -0.000243512944    -0.069734431736    -0.003939429515    -0.000021411287    -0.000214869169
            0.000031939832    -0.000243512944    0.097154574808    0.058942784266    -0.000002833020    -0.000377855850    0.093456093879    0.036278744910
            -0.069734431736    -0.003939429515    -0.000002833020    -0.000377855850    -0.091064360603    -0.001185357692    -0.000016909449    -0.000288597036
            -0.000021411283    -0.000214869169    0.093456093879    0.036278744910    -0.000016909449    -0.000288597036    0.098428173502    0.058450426337
0.600     -0.086796924959    0.049131957993    -0.000033478864    -0.000265258265    -0.071771975744    0.037785889414    -0.000085917818    -0.000206105133
            -0.000033478864    -0.000265258265    0.115625452428    0.061371748674    -0.000101185589    -0.000395660493    0.105554617238    0.038946859849
            -0.071771975744    0.037785889414    -0.000101185589    -0.000395660493    -0.087140378904    0.046837209512    -0.000098977428    -0.000282078714
            -0.000085917818    -0.000206105133    0.105554617238    0.038946859849    -0.000098977428    -0.000282078714    0.116389490040    0.060669833871
0.625     -0.060942453205    0.090196416718    -0.000113056900    -0.000264846180    -0.054818343723    0.076352428882    -0.000144870301    -0.000175088430
            -0.000113056900    -0.000264846180    0.135502555205    0.055516003145    -0.000216486444    -0.000381735250    0.120180988791    0.036028061998
            -0.054818343723    0.076352428882    -0.000216486444    -0.000381735250    -0.062097426809    0.088062906322    -0.000177134495    -0.000249225548
            -0.000144870331    -0.000175088405    0.120180988791    0.036028061998    -0.000177134495    -0.000249225548    0.135724223527    0.054903912935
0.650     -0.019740588488    0.115322904690    -0.000195418491    -0.000234347966    -0.022516031193    0.103546699533    -0.000189490963    -0.000126540013
            -0.000195418491    -0.000234347966    0.152631647077    0.041574333666    -0.000332954784    -0.000325249883    0.134330037495    0.026791020163
            -0.022516031193    0.103546699533    -0.000332954784    -0.000325249883    -0.021560407831    0.113706292796    -0.000241496140    -0.000193550956
            -0.000189490963    -0.000126540013    0.134330037495    0.026791020163    -0.000241496140    -0.000193550956    0.152432569127    0.041329833531
0.675     0.027893172602    0.119544217215    -0.000265983197    -0.000173488861    0.018389522988    0.113855497152    -0.000215145119    -0.000068599758
            -0.000265983197    -0.000173488861    0.163553204664    0.021697288691    -0.000430013642    -0.000226037817    0.145068894071    0.012021526004
            0.018389522988    0.113855497152    -0.000430013642    -0.000226037817    0.025704489037    0.118699294967    -0.000285576186    -0.000122531115
            -0.000215145119    -0.000068599758    0.145068894071    0.012021526004    -0.000285576186    -0.000122531115    0.163176877290    0.022004552505
0.700     0.072054827755    0.102383705527    -0.000312092387    -0.000089776317    0.059649376900    0.105292529233    -0.000222116408    -0.000009510879
            -0.000312092387    -0.000089776317    0.166267766611    -0.000660870715    -0.000489614414    -0.000095165282    0.150185240087    -0.006257173408
            0.059649376900    0.105292529233    -0.000489614414    -0.000095165282    0.069881946896    0.102409085765    -0.000307463087    -0.000044641832
            -0.000222116408    -0.000009510879    0.150185240087    -0.006257173408    -0.000307463087    -0.000044641832    0.166020910774    0.000243947803
0.725     0.103778474669    0.067596938536    -0.000326761212    0.000004113263    0.093039031587    0.079489874138    -0.000214114201    0.000045016819
            -0.000326761212    0.000004113263    0.160570721105    -0.021548895752    -0.000501900111    0.000048756220    0.148585633812    -0.025221558287
            0.093039031587    0.079489874138    -0.000501900111    0.000048756220    0.102020005489    0.068410611523    -0.000308800939    0.000033232066
            -0.000214114201    0.000045016819    0.148585633812    -0.025221558287    -0.000308800939    0.000033232066    0.160751898771    -0.020154323350
0.750     0.116557369547    0.022336696030    -0.000310356698    0.000094337893    0.111698952275    0.041374609513    -0.000195871724    0.000092805764
            -0.000310356698    0.000094337893    0.148073469165    -0.037320059379    -0.000467695670    0.000185491721    0.140567780450    -0.041760528908
            0.111698952275    0.041374609513    -0.000467695670    0.000185491721    0.115546133856    0.023683117716    -0.000292834479    0.000106882198
            -0.000195871724    0.000092805764    0.140567780450    -0.041760528908    -0.000292834479    0.000106882198    0.148903638226    -0.035678781378
0.775     0.107470820070    -0.024050169733    -0.000269808597    0.000170086804    0.111332034738    -0.001505247055    -0.000170872202    0.000134594418
            -0.000269808597    0.000170086804    0.131949555477    -0.045382251042    -0.000397186152    0.000299274823    0.127902500517    -0.053101831341
            0.111332034738    -0.001505247055    -0.000397186152    0.000299274823    0.107401167612    -0.022562494559    -0.000262487949    0.000174549821
            -0.000170872202    0.000134594418    0.127902500517    -0.053101831341    -0.000262487949    0.000174549821    0.133510937918    -0.043827425054
