# GHz S RI R 45
0.000     0.036485820427    0.001454710994    0.000001793462    0.000003607191    0.001053579668    0.001630136349    0.000001950909    0.000004222866
            0.000001793314    0.000003607193    0.036114097548    0.001459838567    0.000002159423    0.000004241546    0.001019799929    0.001627686454
            0.001053579443    0.001630136376    0.000002159431    0.000004241545    0.036464141105    0.001442090701    0.000002357950    0.000005035640
            0.000001951238    0.000004222860    0.001019800124    0.001627686450    0.000002357873    0.000005035641    0.036052238408    0.001471644252
0.025     0.042393881706    0.005895563667    0.000003401609    0.000008346395    0.003553017166    0.012059691378    0.000003562090    0.000009449394
            0.000003401626    0.000008346388    0.041624802729    0.005693545396    0.000004368434    0.000010226870    0.003298488789    0.011729754025
            0.003545085287    0.012057505967    0.000004368438    0.000010226884    0.042319986986    0.005855621073    0.000004363361    0.000011440526
            0.000003562107    0.000009449405    0.003298743857    0.011729179519    0.000004363353    0.000011440515    0.041528030200    0.005641814554
0.050     0.046784953570    0.004298794978    0.000006445333    0.000014860352    0.010280445890    0.021413255535    0.000006575250    0.000017166926
            0.000006445333    0.000014860352    0.045599565830    0.004318321825    0.000008491868    0.000017843943    0.009551835551    0.021069942967
            0.010280506236    0.021413187739    0.000008491868    0.000017843943    0.046672155250    0.004299645503    0.000008152167    0.000020691115
            0.000006575251    0.000017166926    0.009551934260    0.021069937744    0.000008152168    0.000020691116    0.045392040714    0.004272471785
0.075     0.048026676804    0.000232174635    0.000009926139    0.000020221592    0.018881871066    0.026371850991    0.000010195335    0.000024040138
            0.000009926140    0.000020221592    0.046611462328    0.000884567601    0.000013044079    0.000023629457    0.017700691113    0.026465941214
            0.018881869741    0.026371903595    0.000013044079    0.000023629457    0.047913694965    0.000289904643    0.000012664471    0.000028759496
            0.000010195335    0.000024040138    0.017700687324    0.026465942546    0.000012664471    0.000028759496    0.046297258463    0.000937130428
0.100     0.045202492229    -0.004519259543    0.000013435746    0.000024919441    0.026614639957    0.026988086186    0.000014299073    0.000030491327
            0.000013435746    0.000024919441    0.044045972308    -0.003008419401    0.000017215890    0.000028269390    0.025344933888    0.027865221843
            0.026614639957    0.026988086186    0.000017215890    0.000028269390    0.045138880342    -0.004398354543    0.000017633944    0.000036158132
            0.000014299073    0.000030491327    0.025344908492    0.027865230073    0.000017633944    0.000036158132    0.043682145542    -0.002779969737
0.125     0.038047178123    -0.007424938308    0.000016933048    0.000029540853    0.031315873038    0.024785287915    0.000019038245    0.000036848602
            0.000016933048    0.000029540853    0.037708557953    -0.005256332117    0.000020738232    0.000032770121    0.030534445980    0.026488866907
            0.031315873038    0.024785287915    0.000020738232    0.000032770121    0.038085345673    -0.007272970366    0.000023130724    0.000043363301
            0.000019038245    0.000036848602    0.030534445980    0.026488866907    0.000023130724    0.000043363301    0.037397928898    -0.004822452808
0.150     0.027755565801    -0.005958860586    0.000020811503    0.000034648251    0.032074401687    0.022234566263    0.000024815303    0.000043329596
            0.000020811503    0.000034648251    0.028806776644    -0.003663864900    0.000024084087    0.000038215654    0.032313436910    0.024390861086
            0.032074401687    0.022234566263    0.000024084087    0.000038215654    0.027936388504    -0.005836476166    0.000029586409    0.000050783980
            0.000024815303    0.000043329596    0.032313436910    0.024390861086    0.000029586409    0.000050783980    0.028654955903    -0.003060856008
0.175     0.016978689663    0.001607108057    0.000025880901    0.000040386462    0.029547940481    0.021903462952    0.000032240127    0.000049747134
            0.000025880894    0.000040386490    0.019498562458    0.003123401953    0.000028479448    0.000045145851    0.031049194584    0.023814590117
            0.029547940481    0.021903462952    0.000028479448    0.000045145851    0.017300160508    0.001609077122    0.000037772866    0.000058364841
            0.000032240127    0.000049747134    0.031049194584    0.023814590117    0.000037772866    0.000058364841    0.019579992859    0.003795739453
0.200     0.009134994213    0.015377027384    0.000033039533    0.000046288883    0.025799613425    0.025564326093    0.000041829818    0.000055452646
            0.000033039533    0.000046288883    0.012591544579    0.015208519821    0.000035451238    0.000053178143    0.028326801967    0.026429793831
            0.025799613425    0.025564326093    0.000035451238    0.000053178143    0.009537120035    0.015169882571    0.000048446083    0.000065464985
            0.000041829818    0.000055452646    0.028326801967    0.026429793831    0.000048446083    0.000065464985    0.012911509049    0.015816887725
0.225     0.007442001443    0.033509552897    0.000042826497    0.000051213747    0.023616636948    0.033481914013    0.000053670350    0.000059360757
            0.000042826497    0.000051213747    0.010766433814    0.031142478249    0.000046157888    0.000060841292    0.026439832683    0.032723114551
            0.023616636948    0.033481914013    0.000046157888    0.000060841292    0.007814618227    0.033043459801    0.000061917120    0.000070835942
            0.000053670351    0.000059360758    0.026439832683    0.032723114551    0.000061917120    0.000070835942    0.011249764263    0.031566898267
0.250     0.013810728369    0.052553206693    0.000054969821    0.000053698630    0.025510385467    0.044242558094    0.000067120932    0.000060325948
            0.000054969821    0.000053698630    0.015705783074    0.048162590261    0.000060684005    0.000065994169    0.027609656663    0.041792283316
            0.025510385467    0.044242558094    0.000060684005    0.000065994169    0.014020798291    0.051844125088    0.000077647770    0.000073037552
            0.000067120932    0.000060325948    0.027609656663    0.041792283316    0.000077647770    0.000073037552    0.016214897668    0.048342952752
0.275     0.028074698591    0.068361469017    0.000068247760    0.000052560695    0.032782891133    0.055199934153    0.000080820107    0.000057652225
            0.000068247760    0.000052560695    0.027463616248    0.062871640052    0.000077721800    0.000066626759    0.033205956685    0.051611132236
            0.032782891133    0.055199934153    0.000077721800    0.000066626759    0.028007963506    0.067497437517    0.000094187486    0.000071038702
            0.000080820107    0.000057652225    0.033205956685    0.051611132236    0.000094187486    0.000071038702    0.027842417382    0.062836040762
0.300     0.047885357234    0.077374151863    0.000080862799    0.000047529132    0.045061932052    0.063394774475    0.000093125614    0.000051566989
            0.000080862799    0.000047529132    0.044324619997    0.072229399399    0.000094920487    0.000061777420    0.043281046632    0.059708450289
            0.045061932052    0.063394774475    0.000094920487    0.000061777420    0.047485518212    0.076496655543    0.000109622729    0.000064818851
            0.000093125614    0.000051566989    0.043281046632    0.059708450289    0.000109622729    0.000064818851    0.044452385103    0.072093482405
0.325     0.069353232404    0.077691724115    0.000091133808    0.000039414888    0.060439092774    0.066510211438    0.000102761130    0.000043224219
            0.000091133808    0.000039414888    0.063238880587    0.074430055602    0.000109718735    0.000051946776    0.056561292077    0.063943966444
            0.060439092774    0.066510211438    0.000109718735    0.000051946776    0.068642410703    0.076957635806    0.000122304998    0.000055459621
            0.000102761130    0.000043224219    0.056561292077    0.063943966444    0.000122304998    0.000055459621    0.063074584500    0.074365492831
0.350     0.088153126363    0.069630024418    0.000098146957    0.000029805031    0.076085496672    0.063551405255    0.000109349080    0.000034296874
            0.000098146957    0.000029805031    0.080659910791    0.069419825581    0.000120251844    0.000038923008    0.070856760711    0.063137846238
            0.076085496672    0.063551405255    0.000120251844    0.000038923008    0.087232320920    0.069168384542    0.000131495936    0.000044760363
            0.000109349080    0.000034296874    0.070856760711    0.063137846238    0.000131495936    0.000044760363    0.080262277951    0.069603179659
0.375     0.100680008662    0.055586473973    0.000101975364    0.000020442064    0.089034391410    0.055074265819    0.000113484725    0.000026328057
            0.000101975364    0.000020442064    0.093477078518    0.058868927633    0.000125845955    0.000025130684    0.083669106499    0.057359269261
            0.089034391410    0.055074265819    0.000125845955    0.000025130684    0.099705283074    0.055461581562    0.000137538628    0.000034548175
            0.000113484725    0.000026328057    0.083669106499    0.057359269261    0.000137538628    0.000034548175    0.092995840737    0.059428397866
0.400     0.104949715352    0.039424400316    0.000103544781    0.000012706114    0.096944259720    0.043058893438    0.000116478224    0.000020249214
            0.000103544781    0.000012706114    0.099784842963    0.045736814940    0.000127118545    0.000012955796    0.092841269518    0.047913592591
            0.096944259720    0.043058893438    0.000127118545    0.000012955796    0.104094309828    0.039613434031    0.000141653272    0.000026125366
            0.000116478224    0.000020249214    0.092841269518    0.047913592591    0.000141653272    0.000026125366    0.099426222558    0.046709227737
0.425     0.101097162367    0.025536274866    0.000104278467    0.000007315123    0.098711780929    0.030470896211    0.000119885705    0.000016154416
            0.000104278467    0.000007315123    0.099333951687    0.033540284687    0.000125741510    0.000004187559    0.097102501348    0.037038419216
            0.098711780929    0.030470896211    0.000125741510    0.000004187559    0.100505463436    0.025928405172    0.000145496949    0.000019963797
            0.000119885705    0.000016154416    0.097102501348    0.037038419216    0.000145496949    0.000019963797    0.099307568734    0.034850039266
0.450     0.091451966296    0.017793843186    0.000105801854    0.000004232278    0.094900091895    0.020582333955    0.000125134467    0.000013332208
            0.000105801854    0.000004232278    0.093634368885    0.025524779631    0.000124138328    -0.000000370255    0.096467782286    0.027395779532
            0.094900091895    0.020582333955    0.000124138328    -0.000000370255    0.091195406027    0.018211797243    0.000150784673    0.000015648963
            0.000125134467    0.000013332208    0.096467782286    0.027395779532    0.000150784673    0.000015648963    0.094093560486    0.026991703999
0.475     0.080121770413    0.018477846830    0.000109638862    0.000002592552    0.087804085997    0.016046516972    0.000133188247    0.000010371685
            0.000109638862    0.000002592552    0.085670218082    0.023825744544    0.000125020500    -0.000001254095    0.092358908847    0.021363028888
            0.087804085997    0.016046516972    0.000125020500    -0.000001254095    0.080168406793    0.018722379922    0.000158905682    0.000011887571
            0.000133188247    0.000010371685    0.092358908847    0.021363028888    0.000158905682    0.000011887571    0.086660931844    0.025202767745
0.500     0.072037520240    0.027434979540    0.000116833899    0.000000662962    0.080991139795    0.017942023282    0.000144245346    0.000005338757
            0.000116833899    0.000000662962    0.079231516152    0.028801484885    0.000130687218    -0.000000555732    0.087353976007    0.020281326851
            0.080991139795    0.017942023282    0.000130687218    -0.000000555732    0.072248131468    0.027344033144    0.000170527029    0.000006603280
            0.000144245346    0.000005338757    0.087353976007    0.020281326851    0.000170527029    0.000006603280    0.080664266909    0.029838463127
0.525     0.071504394681    0.041801547369    0.000127325657    -0.000003942190    0.078213906669    0.025148453303    0.000157349762    -0.000003851805
            0.000127325657    -0.000003942190    0.077883375454    0.038738243004    0.000142009298    -0.000001693086    0.084468191555    0.023880115172
            0.078213906669    0.025148453303    0.000142009298    -0.000001693086    0.071664993572    0.041307719980    0.000185030517    -0.000002704410
            0.000157349762    -0.000003851805    0.084468191555    0.023880115172    0.000185030517    -0.000002704410    0.079544225040    0.039257484873
0.550     0.080699987751    0.056665967666    0.000139489872    -0.000013490839    0.082053420112    0.034531558384    0.000170255727    -0.000018688786
            0.000139489872    -0.000013490839    0.083841700509    0.050186832653    0.000157609284    -0.000008376287    0.086165355224    0.030222703509
            0.082053420112    0.034531558384    0.000157609284    -0.000008376287    0.080584038864    0.055827279196    0.000200215968    -0.000018102726
            0.000170255727    -0.000018688786    0.086165355224    0.030222703509    0.000200215968    -0.000018102726    0.085445599558    0.050144137649
0.575     0.098774689735    0.066600325385    0.000150316466    -0.000028976972    0.092896508265    0.041989615386    0.000179853732    -0.000039155297
            0.000150316466    -0.000028976972    0.097154574808    0.058942784266    0.000173888911    -0.000023007839    0.093456093879    0.036278744910
            0.092896508265    0.041989615386    0.000173888911    -0.000023007839    0.098215684220    0.065589491900    0.000212662278    -0.000040105112
            0.000179853732    -0.000039155297    0.093456093879    0.036278744910    0.000212662278    -0.000040105112    0.098428173502    0.058450426337
0.600     0.122095087382    0.067468627678    0.000156566020    -0.000049343417    0.108839579897    0.043911732603    0.000183359264    -0.000063302523
            0.000156566020    -0.000049343417    0.115625452428    0.061371748674    0.000186328825    -0.000045433996    0.105554617238    0.038946859849
            0.108839579897    0.043911732603    0.000186328825    -0.000045433996    0.121038493869    0.066521377792    0.000219015330    -0.000067031309
            0.000183359264    -0.000063302523    0.105554617238    0.038946859849    0.000219015330    -0.000067031309    0.116389490040    0.060669833871
0.625     0.145472118458    0.057672135540    0.000156173310    -0.000071742149    0.126441704079    0.038289199553    0.000179521311    -0.000087779945
            0.000156173310    -0.000071742149    0.135502555205    0.055516003145    0.000191277714    -0.000072917074    0.120180988791    0.036028061998
            0.126441704079    0.038289199553    0.000191277714    -0.000072917074    0.143989756004    0.057018990606    0.000217401108    -0.000095446000
            0.000179521311    -0.000087779945    0.120180988791    0.036028061998    0.000217401108    -0.000095446000    0.135724223527    0.054903912935
0.650     0.163760988018    0.038416743547    0.000149095532    -0.000092736374    0.141864226196    0.025109045958    0.000169200476    -0.000109111698
            0.000149095532    -0.000092736374    0.152631647077    0.041574333666    0.000187261491    -0.000101301871    0.134330037495    0.026791020163
            0.141864226196    0.025109045958    0.000187261491    -0.000101301871    0.162026196945    0.038222171268    0.000208217343    -0.000121491568
            0.000169200476    -0.000109111698    0.134330037495    0.026791020163    0.000208217343    -0.000121491568    0.152432569127    0.041329833531
0.675     0.173144510638    0.013145621837    0.000137075123    -0.000109585601    0.151810472606    0.006115986720    0.000154922310    -0.000124916793
            0.000137075123    -0.000109585601    0.163553204664    0.021697288691    0.000175128522    -0.000126513781    0.145068894071    0.012021526004
            0.151810472606    0.006115986720    0.000175128522    -0.000126513781    0.171386666265    0.013470722734    0.000193775809    -0.000142259985
            0.000154922310    -0.000124916793    0.145068894071    0.012021526004    0.000193775809    -0.000142259985    0.163176877290    0.022004552505
0.700     0.171876469467    -0.013417999402    0.000122804184    -0.000120993571    0.154147689495    -0.015690205268    0.000139926012    -0.000134546070
            0.000122804184    -0.000120993571    0.166267766611    -0.000660870715    0.000157426725    -0.000145644351    0.150185240087    -0.006257173408
            0.154147689495    -0.015690205268    0.000157426725    -0.000145644351    0.170325954034    -0.012628490682    0.000177358598    -0.000156569188
            0.000139926012    -0.000134546070    0.150185240087    -0.006257173408    0.000177358598    -0.000156569188    0.166020910774    0.000243947803
0.725     0.160519845725    -0.036281964787    0.000108975717    -0.000127112893    0.148246669143    -0.036615704810    0.000127139694    -0.000138992630
            0.000108975717    -0.000127112893    0.160570721105    -0.021548895752    0.000137495433    -0.000157330072    0.148585633812    -0.025221558287
            0.148246669143    -0.036615704810    0.000137495433    -0.000157330072    0.159354631101    -0.035187422633    0.000162138871    -0.000164959226
            0.000127139694    -0.000138992630    0.148585633812    -0.025221558287    0.000162138871    -0.000164959226    0.160751898771    -0.020154323350
0.750     0.141871508182    -0.051145329485    0.000097733443    -0.000129175689    0.135236265237    -0.052892005479    0.000118554877    -0.000140423881
            0.000097733443    -0.000129175689    0.148073469165    -0.037320059379    0.000118805061    -0.000161739178    0.140567780450    -0.041760528908
            0.135236265237    -0.052892005479    0.000118805061    -0.000161739178    0.141173214887    -0.049976413094    0.000150519233    -0.000169270449
            0.000118554877    -0.000140423881    0.140567780450    -0.041760528908    0.000150519233    -0.000169270449    0.148903638226    -0.035678781378
0.775     0.120587091047    -0.055336116117    0.000090466281    -0.000129045198    0.118057828568    -0.061482902870    0.000114929961    -0.000141558781
            0.000090466281    -0.000129045198    0.131949555477    -0.045382251042    0.000104495479    -0.000160420735    0.127902500517    -0.053101831341
            0.118057828568    -0.061482902870    0.000104495479    -0.000160420735    0.120310231755    -0.054343423685    0.000143803773    -0.000172086302
            0.000114929961    -0.000141558781    0.127902500517    -0.053101831341    0.000143803773    -0.000172086302    0.133510937918    -0.043827425054
0.800     0.102387398142    -0.048711602193    0.000087805046    -0.000129041548    0.101131186607    -0.061076481624    0.000115795910    -0.000145211524
            0.000087805046    -0.000129041548    0.116403203701    -0.044885415536    0.000096972528    -0.000156306859    0.113673659649    -0.057550816328
