# GHz S RI R 45
0.000     0.037183526604    0.001150007575    -0.000000000438    -0.000000054754    0.001054452129    0.001374334433    0.000000013944    -0.000000029608
            -0.000000000438    -0.000000054754    0.036114097548    0.001459838567    -0.000000004686    -0.000000062126    0.001019799929    0.001627686454
            0.001054451478    0.001374334428    -0.000000004686    -0.000000062126    0.037123573642    0.001154464350    0.000000009650    -0.000000037076
            0.000000013944    -0.000000029608    0.001019800124    0.001627686450    0.000000009651    -0.000000037076    0.036052238408    0.001471644252
0.025     0.043251904361    0.005521223910    -0.000000011736    -0.000000127206    0.003830159710    0.012100246018    0.000000014338    -0.000000072087
            -0.000000011736    -0.000000127206    0.041624802729    0.005693545396    -0.000000018495    -0.000000143641    0.003298488789    0.011729754025
            0.003832559493    0.012099926705    -0.000000018495    -0.000000143641    0.043222157130    0.005597250293    0.000000007504    -0.000000088764
            0.000000014338    -0.000000072087    0.003298743857    0.011729179519    0.000000007504    -0.000000088764    0.041528030200    0.005641814554
0.050     0.048073780360    0.003065902032    -0.000000036378    -0.000000239319    0.011256704716    0.021003842715    0.000000007851    -0.000000142880
            -0.000000036378    -0.000000239319    0.045599565830    0.004318321825    -0.000000047639    -0.000000269514    0.009551835551    0.021069942967
            0.011256738570    0.021003849532    -0.000000047639    -0.000000269514    0.048102081322    0.003200661035    -0.000000003491    -0.000000173462
            0.000000007851    -0.000000142880    0.009551934260    0.021069937744    -0.000000003491    -0.000000173462    0.045392040714    0.004272471785
0.075     0.049513159178    -0.002439510061    -0.000000062573    -0.000000345923    0.020439503884    0.024755195885    0.000000001856    -0.000000211455
            -0.000000062573    -0.000000345923    0.046611462328    0.000884567601    -0.000000079406    -0.000000389064    0.017700691113    0.026465941214
            0.020439518665    0.024755197946    -0.000000079406    -0.000000389064    0.049628743202    -0.002287060536    -0.000000015159    -0.000000255209
            0.000000001856    -0.000000211455    0.017700687324    0.026465942546    -0.000000015159    -0.000000255209    0.046297258463    0.000937130428
0.100     0.046182465119    -0.009047908387    -0.000000090381    -0.000000453411    0.028070884673    0.023550196708    -0.000000001952    -0.000000281985
            -0.000000090381    -0.000000453411    0.044045972308    -0.003008419401    -0.000000114170    -0.000000509219    0.025344933888    0.027865221843
            0.028070884673    0.023550196708    -0.000000114170    -0.000000509219    0.046381002796    -0.008937924481    -0.000000026086    -0.000000338623
            -0.000000001952    -0.000000281985    0.025344908492    0.027865230073    -0.000000026086    -0.000000338623    0.043682145542    -0.002779969737
0.125     0.037456196488    -0.013779593760    -0.000000122333    -0.000000567524    0.031593403061    0.019417914139    -0.000000003888    -0.000000359978
            -0.000000122333    -0.000000567524    0.037708557953    -0.005256332117    -0.000000154974    -0.000000635835    0.030534445980    0.026488866907
            0.031593403061    0.019417914139    -0.000000154974    -0.000000635835    0.037693807808    -0.013764369787    -0.000000037076    -0.000000429121
            -0.000000003888    -0.000000359978    0.030534445980    0.026488866907    -0.000000037076    -0.000000429121    0.037397928898    -0.004822452808
0.150     0.024714640960    -0.013402870428    -0.000000164366    -0.000000692639    0.030071769852    0.015524127132    -0.000000008233    -0.000000450458
            -0.000000164366    -0.000000692639    0.028806776644    -0.003663864900    -0.000000208133    -0.000000772745    0.032313436910    0.024390861086
            0.030071800705    0.015524113147    -0.000000208133    -0.000000772745    0.024924316186    -0.013501107532    -0.000000052832    -0.000000531507
            -0.000000008233    -0.000000450458    0.032313436910    0.024390861086    -0.000000052832    -0.000000531507    0.028654955903    -0.003060856008
0.175     0.011005949463    -0.005698160588    -0.000000226528    -0.000000829064    0.024591327089    0.015082067967    -0.000000022909    -0.000000556524
            -0.000000226528    -0.000000829064    0.019498562458    0.003123401953    -0.000000284050    -0.000000919674    0.031049194584    0.023814590117
            0.024591344300    0.015082059031    -0.000000284050    -0.000000919674    0.011110499241    -0.005887690380    -0.000000081639    -0.000000648133
            -0.000000022909    -0.000000556524    0.031049194584    0.023814590117    -0.000000081639    -0.000000648133    0.019579992859    0.003795739453
0.200     0.000490983585    0.009639042694    -0.000000319187    -0.000000969934    0.018005566606    0.020170526745    -0.000000058116    -0.000000675574
            -0.000000319187    -0.000000969934    0.012591544579    0.015208519821    -0.000000393092    -0.000001068872    0.028326801967    0.026429793831
            0.018005566606    0.020170526745    -0.000000393092    -0.000001068872    0.000429848122    0.009425842776    -0.000000133597    -0.000000775453
            -0.000000058116    -0.000000675574    0.028326801967    0.026429793831    -0.000000133597    -0.000000775453    0.012911509049    0.015816887725
0.225     -0.002808418472    0.030475462870    -0.000000448470    -0.000001101486    0.013995719757    0.030833354507    -0.000000122719    -0.000000798712
            -0.000000448470    -0.000001101486    0.010766433814    0.031142478249    -0.000000540812    -0.000001205543    0.026439832683    0.032723114551
            0.013995719757    0.030833354507    -0.000000540812    -0.000001205543    -0.003052695856    0.030338706887    -0.000000216931    -0.000000903537
            -0.000000122719    -0.000000798712    0.026439832683    0.032723114551    -0.000000216931    -0.000000903537    0.011249764263    0.031566898267
0.250     0.003543165226    0.052603902095    -0.000000610787    -0.000001205956    0.015716306516    0.044914805321    -0.000000218834    -0.000000910763
            -0.000000610787    -0.000001205956    0.015705783074    0.048162590261    -0.000000722447    -0.000001311288    0.027609656663    0.041792283316
            0.015716306516    0.044914805321    -0.000000722447    -0.000001311288    0.003157112434    0.052648209947    -0.000000332539    -0.000001016663
            -0.000000218834    -0.000000910763    0.027609656663    0.041792283316    -0.000000332539    -0.000001016663    0.016214897668    0.048342952752
0.275     0.019376085607    0.070919626790    -0.000000791660    -0.000001269419    0.024580650550    0.058750447156    -0.000000338717    -0.000000997034
            -0.000000791660    -0.000001269419    0.027463616248    0.062871640052    -0.000000922077    -0.000001372205    0.033205956685    0.051611132236
            0.024580650550    0.058750447156    -0.000000922077    -0.000001372205    0.018945831390    0.071219981340    -0.000000471269    -0.000001100216
            -0.000000338717    -0.000000997034    0.033205956685    0.051611132236    -0.000000471269    -0.000001100216    0.027842417382    0.062836040762
0.300     0.041788432433    0.081053068975    -0.000000968881    -0.000001288406    0.039729526091    0.068452586848    -0.000000465369    -0.000001049258
            -0.000000968881    -0.000001288406    0.044324619997    0.072229399399    -0.000001116275    -0.000001385641    0.043281046632    0.059708450289
            0.039729526091    0.068452586848    -0.000001116275    -0.000001385641    0.041446414131    0.081626159417    -0.000000614958    -0.000001146800
            -0.000000465369    -0.000001049258    0.043281046632    0.059708450289    -0.000000614958    -0.000001146800    0.044452385103    0.072093482405
0.325     0.065984220079    0.080725327697    -0.000001121734    -0.000001273692    0.058337363479    0.071178589768    -0.000000579855    -0.000001071758
            -0.000001121734    -0.000001273692    0.063238880587    0.074430055602    -0.000001283701    -0.000001363631    0.056561292077    0.063943966444
            0.058337363479    0.071178589768    -0.000001283701    -0.000001363631    0.065862712383    0.081516011675    -0.000000744134    -0.000001161978
            -0.000000579855    -0.000001071758    0.056561292077    0.063943966444    -0.000000744134    -0.000001161978    0.063074584500    0.074365492831
0.350     0.086666537944    0.070394456699    -0.000001238341    -0.000001246401    0.076509329833    0.065951888839    -0.000000668308    -0.000001079220
            -0.000001238341    -0.000001246401    0.080659910791    0.069419825581    -0.000001412630    -0.000001328683    0.070856760711    0.063137846238
            0.076509329833    0.065951888839    -0.000001412630    -0.000001328683    0.086859933972    0.071282174922    -0.000000845129    -0.000001161786
            -0.000000668308    -0.000001079220    0.070856760711    0.063137846238    -0.000000845129    -0.000001161786    0.080262277951    0.069603179659
0.375     0.099444788545    0.053062729203    -0.000001320969    -0.000001231361    0.090338925169    0.053875693236    -0.000000728220    -0.000001092373
            -0.000001320969    -0.000001231361    0.093477078518    0.058868927633    -0.000001506101    -0.000001306648    0.083669106499    0.057359269261
            0.090338925169    0.053875693236    -0.000001506101    -0.000001306648    0.099979800083    0.053885143431    -0.000000916257    -0.000001167884
            -0.000000728220    -0.000001092373    0.083669106499    0.057359269261    -0.000000916257    -0.000001167884    0.092995840737    0.059428397866
0.400     0.101908108711    0.033525176602    -0.000001384225    -0.000001249107    0.096885021784    0.037899058842    -0.000000767808    -0.000001130239
            -0.000001384225    -0.000001249107    0.099784842963    0.045736814940    -0.000001579932    -0.000001318575    0.092841269518    0.047913592591
            0.096885021784    0.037899058842    -0.000001579932    -0.000001318575    0.102725261982    0.034115167011    -0.000000966915    -0.000001199757
            -0.000000767808    -0.000001130239    0.092841269518    0.047913592591    -0.000000966915    -0.000001199757    0.099426222558    0.046709227737
0.425     0.094245737749    0.017270930360    -0.000001452596    -0.000001311118    0.094965429606    0.022216026295    -0.000000804866    -0.000001206490
            -0.000001452596    -0.000001311118    0.099333951687    0.033540284687    -0.000001659953    -0.000001375762    0.097102501348    0.037038419216
            0.094965429606    0.022216026295    -0.000001659953    -0.000001375762    0.095200544072    0.017501100911    -0.000001016190    -0.000001270759
            -0.000000804866    -0.000001206490    0.097102501348    0.037038419216    -0.000001016190    -0.000001270759    0.099307568734    0.034850039266
0.450     0.079411838043    0.009209980468    -0.000001555036    -0.000001416291    0.085723298553    0.011332581031    -0.000000862620    -0.000001325672
            -0.000001555036    -0.000001416291    0.093634368885    0.025524779631    -0.000001776351    -0.000001476225    0.096467782286    0.027395779532
            0.085723298553    0.011332581031    -0.000001776351    -0.000001476225    0.080298350739    0.009037105498    -0.000001088412    -0.000001384538
            -0.000000862620    -0.000001325672    0.096467782286    0.027395779532    -0.000001088412    -0.000001384538    0.094093560486    0.026991703999
0.475     0.062703757643    0.012281478800    -0.000001721233    -0.000001548597    0.072717957808    0.008761397113    -0.000000968437    -0.000001481392
            -0.000001721233    -0.000001548597    0.085670218082    0.023825744544    -0.000001959527    -0.000001602305    0.092358908847    0.021363028888
            0.072717957808    0.008761397113    -0.000001959527    -0.000001602305    0.063303335378    0.011778127477    -0.000001211531    -0.000001533068
            -0.000000968437    -0.000001481392    0.092358908847    0.021363028888    -0.000001211531    -0.000001533068    0.086660931844    0.025202767745
0.500     0.050567124917    0.026248905891    -0.000001972834    -0.000001674683    0.061214192197    0.015633241091    -0.000001147613    -0.000001651433
            -0.000001972834    -0.000001674683    0.079231516152    0.028801484885    -0.000002230913    -0.000001718575    0.087353976007    0.020281326851
            0.061214192197    0.015633241091    -0.000002230913    -0.000001718575    0.050716009432    0.025604923462    -0.000001410447    -0.000001692183
            -0.000001147613    -0.000001651433    0.087353976007    0.020281326851    -0.000001410447    -0.000001692183    0.080664266909    0.029838463127
0.525     0.048625198991    0.047249411728    -0.000002312811    -0.000001746864    0.056524852460    0.029841618862    -0.000001414301    -0.000001796977
            -0.000002312811    -0.000001746864    0.077883375454    0.038738243004    -0.000002591976    -0.000001775377    0.084468191555    0.023880115172
            0.056524852460    0.029841618862    -0.000002591976    -0.000001775377    0.048279363511    0.046731405375    -0.000001697781    -0.000001821287
            -0.000001414301    -0.000001796977    0.084468191555    0.023880115172    -0.000001697781    -0.000001821287    0.079544225040    0.039257484873
0.550     0.059576967590    0.068719084888    -0.000002713322    -0.000001715928    0.061971742834    0.046470422404    -0.000001756702    -0.000001869523
            -0.000002713322    -0.000001715928    0.083841700509    0.050186832653    -0.000003012214    -0.000001722511    0.086165355224    0.030222703509
            0.061971742834    0.046470422404    -0.000003012214    -0.000001722511    0.058843954499    0.068591961696    -0.000002059135    -0.000001871119
            -0.000001756702    -0.000001869523    0.086165355224    0.030222703509    -0.000002059135    -0.000001871119    0.085445599558    0.050144137649
0.575     0.082034545455    0.083583913709    -0.000003117483    -0.000001553356    0.077520849204    0.059533365153    -0.000002132788    -0.000001831347
            -0.000003117483    -0.000001553356    0.097154574808    0.058942784266    -0.000003431726    -0.000001532110    0.093456093879    0.036278744910
            0.077520849204    0.059533365153    -0.000003431726    -0.000001532110    0.081153342528    0.084026006979    -0.000002449677    -0.000001804705
            -0.000002132788    -0.000001831347    0.093456093879    0.036278744910    -0.000002449677    -0.000001804705    0.098428173502    0.058450426337
0.600     0.111046459577    0.086715043226    -0.000003456426    -0.000001269362    0.099918182359    0.064153878837    -0.000002480512    -0.000001675925
            -0.000003456426    -0.000001269362    0.115625452428    0.061371748674    -0.000003779296    -0.000001216686    0.105554617238    0.038946859849
            0.099918182359    0.064153878837    -0.000003779296    -0.000001216686    0.110320767569    0.087759426250    -0.000002805216    -0.000001617817
            -0.000002480512    -0.000001675925    0.105554617238    0.038946859849    -0.000002805216    -0.000001617817    0.116389490040    0.060669833871
0.625     0.139918520956    0.076409016557    -0.000003678439    -0.000000913345    0.124042448558    0.057998675143    -0.000002744704    -0.000001435513
            -0.000003678439    -0.000000913345    0.135502555205    0.055516003145    -0.000004002411    -0.000000828808    0.120180988791    0.036028061998
            0.124042450583    0.057998670813    -0.000004002411    -0.000000828808    0.139633855090    0.077932367423    -0.000003069988    -0.000001345750
            -0.000002744704    -0.000001435513    0.120180988791    0.036028061998    -0.000003069988    -0.000001345750    0.135724223527    0.054903912935
0.650     0.162295678747    0.054463748954    -0.000003767824    -0.000000555258    0.144573848941    0.041547601226    -0.000002898068    -0.000001168032
            -0.000003767824    -0.000000555258    0.152631647077    0.041574333666    -0.000004086354    -0.000000441561    0.134330037495    0.026791020163
            0.144573848941    0.041547601226    -0.000004086354    -0.000000441561    0.162646812355    0.056218636576    -0.000003217675    -0.000001049349
            -0.000002898068    -0.000001168032    0.134330037495    0.026791020163    -0.000003217675    -0.000001049349    0.152432569127    0.041329833531
0.675     0.173625269118    0.025279493763    -0.000003749121    -0.000000260268    0.157189761824    0.017554027169    -0.000002950395    -0.000000934598
            -0.000003749121    -0.000000260268    0.163553204664    0.021697288691    -0.000004057881    -0.000000122196    0.145068894071    0.012021526004
            0.157189761824    0.017554027169    -0.000004057881    -0.000000122196    0.174670963841    0.026949443904    -0.000003260313    -0.000000791626
            -0.000002950395    -0.000000934598    0.145068894071    0.012021526004    -0.000003260313    -0.000000791626    0.163176877290    0.022004552505
0.700     0.171873880965    -0.005329170283    -0.000003674030    -0.000000070335    0.159236568634    -0.009695295192    -0.000002939394    -0.000000780136
            -0.000003674030    -0.000000070335    0.166267766611    -0.000660870715    -0.000003971542    0.000000086540    0.150185240087    -0.006257173408
            0.159236568634    -0.009695295192    -0.000003971542    0.000000086540    0.173518455086    -0.004063986449    -0.000003238309    -0.000000618161
            -0.000002939394    -0.000000780136    0.150185240087    -0.006257173408    -0.000003238309    -0.000000618161    0.166020910774    0.000243947803
0.725     0.157728310056    -0.031234645312    -0.000003606013    0.000000003243    0.150100385087    -0.035078262713    -0.000002917891    -0.000000724406
            -0.000003606013    0.000000003243    0.160570721105    -0.021548895752    -0.000003893567    0.000000173968    0.148585633812    -0.025221558287
            0.150100385087    -0.035078262713    -0.000003893567    0.000000173968    0.159727871402    -0.030628579426    -0.000003207087    -0.000000547983
            -0.000002917891    -0.000000724406    0.148585633812    -0.025221558287    -0.000003207087    -0.000000547983    0.160751898771    -0.020154323350
0.750     0.134584905492    -0.047028800756    -0.000003605386    -0.000000022372    0.131556858211    -0.053395632597    -0.000002939698    -0.000000762391
            -0.000003605386    -0.000000022372    0.148073469165    -0.037320059379    -0.000003886468    0.000000158930    0.140567780450    -0.041760528908
            0.131556858211    -0.053395632597    -0.000003886468    0.000000158930    0.136581318759    -0.047199964471    -0.000003222454    -0.000000574396
            -0.000002939698    -0.000000762391    0.140567780450    -0.041760528908    -0.000003222454    -0.000000574396    0.148903638226    -0.035678781378
0.775     0.108288028085    -0.049178390405    -0.000003721824    -0.000000105780    0.107947156880    -0.060480740138    -0.000003053751    -0.000000867763
            -0.000003721824    -0.000000105780    0.131949555477    -0.045382251042    -0.000004001207    0.000000085391    0.127902500517    -0.053101831341
            0.107947156880    -0.060480740138    -0.000004001207    0.000000085391    0.109878396820    -0.050053004662    -0.000003334398    -0.000000668557
