# GHz S RI R 45
0.000     0.036291888465    0.001040809310    0.000000278246    0.000000340191    0.000985690750    0.001219134241    0.000000407142    0.000000545831
            0.000000278225    0.000000340192    0.036114097548    0.001459838567    0.000000404830    0.000000530264    0.001019799929    0.001627686454
            0.000985690708    0.001219134276    0.000000404843    0.000000530263    0.036296036452    0.001053490978    0.000000574109    0.000000799990
            0.000000407190    0.000000545830    0.001019800124    0.001627686450    0.000000574103    0.000000799991    0.036052238408    0.001471644252
0.025     0.041913964657    0.004992361597    0.000000478029    0.000000742672    0.003309131981    0.011073417474    0.000000698448    0.000001194187
            0.000000478030    0.000000742674    0.041624802729    0.005693545396    0.000000697451    0.000001163168    0.003298488789    0.011729754025
            0.003305911591    0.011073628977    0.000000697446    0.000001163169    0.041857865208    0.005030101288    0.000000981922    0.000001755422
            0.000000698448    0.000001194186    0.003298743857    0.011729179519    0.000000981921    0.000001755421    0.041528030200    0.005641814554
0.050     0.046037757753    0.002789079657    0.000000808301    0.000001239536    0.009638520691    0.019639174912    0.000001180410    0.000002033812
            0.000000808301    0.000001239536    0.045599565830    0.004318321825    0.000001179800    0.000001967730    0.009551835551    0.021069942967
            0.009638565351    0.019639130714    0.000001179800    0.000001967730    0.045958872962    0.002897904519    0.000001657630    0.000003015098
            0.000001180410    0.000002033812    0.009551934260    0.021069937744    0.000001657630    0.000003015098    0.045392040714    0.004272471785
0.075     0.047123434279    -0.001816701689    0.000001144008    0.000001631186    0.017766082546    0.024014295429    0.000001681140    0.000002734001
            0.000001144008    0.000001631186    0.046611462328    0.000884567601    0.000001674838    0.000002625276    0.017700691113    0.026465941214
            0.017766086981    0.024014290904    0.000001674838    0.000002625276    0.047054750330    -0.001611820266    0.000002365908    0.000004087710
            0.000001681140    0.000002734001    0.017700687324    0.026465942546    0.000002365908    0.000004087710    0.046297258463    0.000937130428
0.100     0.044252688630    -0.007212226650    0.000001489670    0.000001977639    0.025082853064    0.024180684177    0.000002217992    0.000003375970
            0.000001489670    0.000001977639    0.044045972308    -0.003008419401    0.000002193648    0.000003220210    0.025344933888    0.027865221843
            0.025082853064    0.024180684177    0.000002193648    0.000003220210    0.044236505129    -0.006906424497    0.000003138030    0.000005082278
            0.000002217992    0.000003375970    0.025344908492    0.027865230073    0.000003138030    0.000005082278    0.043682145542    -0.002779969737
0.125     0.037043275454    -0.011050398352    0.000001864939    0.000002312228    0.029468808417    0.021515734726    0.000002822724    0.000003996561
            0.000001864939    0.000002312228    0.037708557953    -0.005256332117    0.000002764611    0.000003795672    0.030534445980    0.026488866907
            0.029468808417    0.021515734726    0.000002764611    0.000003795672    0.037128634885    -0.010674619824    0.000004017654    0.000006041599
            0.000002822724    0.000003996561    0.030534445980    0.026488866907    0.000004017654    0.000006041599    0.037397928898    -0.004822452808
0.150     0.026474349088    -0.010825467109    0.000002308264    0.000002657776    0.029931800618    0.018332014991    0.000003546349    0.000004618443
            0.000002308264    0.000002657776    0.028806776644    -0.003663864900    0.000003439606    0.000004381369    0.032313436910    0.024390861086
            0.029931800618    0.018332014991    0.000003439606    0.000004381369    0.026689515542    -0.010419633267    0.000005071236    0.000006990749
            0.000003546349    0.000004618443    0.032313436910    0.024390861086    0.000005071236    0.000006990749    0.028654955903    -0.003060856008
0.175     0.014920663244    -0.004747179999    0.000002876671    0.000002995438    0.026933687300    0.017129144863    0.000004460584    0.000005208117
            0.000002876671    0.000002995438    0.019498562458    0.003123401953    0.000004294190    0.000004950793    0.031049194584    0.023814590117
            0.026933687300    0.017129144863    0.000004294190    0.000004950793    0.015269815704    -0.004380306024    0.000006386496    0.000007882206
            0.000004460584    0.000005208117    0.031049194584    0.023814590117    0.000006386496    0.000007882206    0.019579992859    0.003795739453
0.200     0.005579349994    0.007551916438    0.000003614228    0.000003263724    0.022301213373    0.019765748064    0.000005615084    0.000005679427
            0.000003614228    0.000003263724    0.012591544579    0.015208519821    0.000005386037    0.000005422619    0.028326801967    0.026429793831
            0.022301213373    0.019765748064    0.000005386037    0.000005422619    0.006021412128    0.007810501766    0.000008021084    0.000008606101
            0.000005615084    0.000005679427    0.028326801967    0.026429793831    0.000008021084    0.000008606101    0.012911509049    0.015816887725
0.225     0.001624882764    0.024645232078    0.000004521466    0.000003363522    0.018663385825    0.026764433324    0.000007000094    0.000005902376
            0.000004521466    0.000003363522    0.010766433814    0.031142478249    0.000006716283    0.000005666770    0.026439832683    0.032723114551
            0.018663385825    0.026764433324    0.000006716283    0.000005666770    0.002079482582    0.024756751788    0.000009958985    0.000009000258
            0.000007000094    0.000005902376    0.026439832683    0.032723114551    0.000009958985    0.000009000258    0.011249764263    0.031566898267
0.250     0.005193707557    0.043509570797    0.000005529774    0.000003196020    0.018563353606    0.037061791118    0.000008518633    0.000005754895
            0.000005529774    0.000003196020    0.015705783074    0.048162590261    0.000008198131    0.000005554016    0.027609656663    0.041792283316
            0.018563353606    0.037061791118    0.000008198131    0.000005554016    0.005563589043    0.043487279787    0.000012078496    0.000008914731
            0.000008518633    0.000005754895    0.027609656663    0.041792283316    0.000012078496    0.000008914731    0.016214897668    0.048342952752
0.275     0.016599550450    0.060261276602    0.000006507024    0.000002711361    0.023564279261    0.048309763538    0.000009998410    0.000005180545
            0.000006507024    0.000002711361    0.027463616248    0.062871640052    0.000009663738    0.000005015018    0.033205956685    0.051611132236
            0.023564279261    0.048309763538    0.000009663738    0.000005015018    0.016803326846    0.060175053851    0.000014167585    0.000008278919
            0.000009998410    0.000005180545    0.033205956685    0.051611132236    0.000014167585    0.000008278919    0.027842417382    0.062836040762
0.300     0.034087436056    0.071287913201    0.000007303418    0.000001950315    0.033708568698    0.057650909416    0.000011250893    0.000004236688
            0.000007303418    0.000001950315    0.044324619997    0.072229399399    0.000010920251    0.000004093555    0.043281046632    0.059708450289
            0.033708568698    0.057650909416    0.000010920251    0.000004093555    0.034091446250    0.071248879891    0.000015993891    0.000007159569
            0.000011250893    0.000004236688    0.043281046632    0.059708450289    0.000015993891    0.000007159569    0.044452385103    0.072093482405
0.325     0.054266630275    0.074300831431    0.000007815670    0.000001037730    0.047509611819    0.062616583717    0.000012147679    0.000003081956
            0.000007815670    0.000001037730    0.063238880587    0.074430055602    0.000011827528    0.000002939707    0.056561292077    0.063943966444
            0.047509611819    0.062616583717    0.000011827528    0.000002939707    0.054101645348    0.074430706662    0.000017395799    0.000005745818
            0.000012147679    0.000003081956    0.056561292077    0.063943966444    0.000017395799    0.000005745818    0.063074584500    0.074365492831
0.350     0.073032365325    0.068996176790    0.000008032588    0.000000136031    0.062419261614    0.061848598376    0.000012674567    0.000001920495
            0.000008032588    0.000000136031    0.080659910791    0.069419825581    0.000012357379    0.000001757279    0.070856760711    0.063137846238
            0.062419261614    0.061848598376    0.000012357379    0.000001757279    0.072793831214    0.069390526190    0.000018347600    0.000004285302
            0.000012674567    0.000001920495    0.070856760711    0.063137846238    0.000018347600    0.000004285302    0.080262277951    0.069603179659
0.375     0.086642823755    0.057107632817    0.000008034676    -0.000000619518    0.075529095748    0.055437015388    0.000012929803    0.000000923802
            0.000008034676    -0.000000619518    0.093477078518    0.058868927633    0.000012596843    0.000000724459    0.083669106499    0.057359269261
            0.075529095748    0.055437015388    0.000012596843    0.000000724459    0.086470812767    0.057804616880    0.000018960449    0.000002990559
            0.000012929803    0.000000923802    0.083669106499    0.057359269261    0.000018960449    0.000002990559    0.092995840737    0.059428397866
0.400     0.092643909921    0.041974312490    0.000007958942    -0.000001163569    0.084309587519    0.044910936860    0.000013085896    0.000000179797
            0.000007958942    -0.000001163569    0.099784842963    0.045736814940    0.000012711664    -0.000000060558    0.092841269518    0.047913592591
            0.084309587519    0.044910936860    0.000012711664    -0.000000060558    0.092688686184    0.042936277572    0.000019439744    0.000001976645
            0.000013085896    0.000000179797    0.092841269518    0.047913592591    0.000019439744    0.000001976645    0.099426222558    0.046709227737
0.425     0.090466658195    0.027751528283    0.000007950819    -0.000001513412    0.087247924154    0.032911377373    0.000013331800    -0.000000328131
            0.000007950819    -0.000001513412    0.099333951687    0.033540284687    0.000012888998    -0.000000602925    0.097102501348    0.037038419216
            0.087247924154    0.032911377373    0.000012888998    -0.000000602925    0.090849154888    0.028865123591    0.000020016884    0.000001231597
            0.000013331800    -0.000000328131    0.097102501348    0.037038419216    0.000020016884    0.000001231597    0.099307568734    0.034850039266
0.450     0.081648250372    0.018458830345    0.000008128166    -0.000001757076    0.084331445963    0.022621982534    0.000013827971    -0.000000712119
            0.000008128166    -0.000001757076    0.093634368885    0.025524779631    0.000013290956    -0.000001002963    0.096467782286    0.027395779532
            0.084331445963    0.022621982534    0.000013290956    -0.000001002963    0.082422021758    0.019555635810    0.000020893233    0.000000623105
            0.000013827971    -0.000000712119    0.096467782286    0.027395779532    0.000020893233    0.000000623105    0.094093560486    0.026991703999
0.475     0.069613317950    0.016956723947    0.000008555828    -0.000002036765    0.077242054621    0.016947407008    0.000014665717    -0.000001163991
            0.000008555828    -0.000002036765    0.085670218082    0.023825744544    0.000014015084    -0.000001439999    0.092358908847    0.021363028888
            0.077242054621    0.016947407008    0.000014015084    -0.000001439999    0.070739643182    0.017852950748    0.000022185921    -0.000000083627
            0.000014665717    -0.000001163991    0.092358908847    0.021363028888    0.000022185921    -0.000000083627    0.086660931844    0.025202767745
0.500     0.058964118735    0.024049697819    0.000009222288    -0.000002529447    0.069105109708    0.017591771203    0.000015829676    -0.000001926066
            0.000009222288    -0.000002529447    0.079231516152    0.028801484885    0.000015059649    -0.000002145394    0.087353976007    0.020281326851
            0.069105109708    0.017591771203    0.000015059649    -0.000002145394    0.060309998879    0.024597624243    0.000023879236    -0.000001187614
            0.000015829676    -0.000001926066    0.087353976007    0.020281326851    0.000023879236    -0.000001187614    0.080664266909    0.029838463127
0.525     0.054268673379    0.037988128947    0.000010009584    -0.000003410208    0.063660213688    0.024310257244    0.000017156649    -0.000003234651
            0.000010009584    -0.000003410208    0.077883375454    0.038738243004    0.000016282493    -0.000003351845    0.084468191555    0.023880115172
            0.063660213688    0.024310257244    0.000016282493    -0.000003351845    0.055634770049    0.038125807343    0.000025775796    -0.000002980379
            0.000017156649    -0.000003234651    0.084468191555    0.023880115172    0.000025775796    -0.000002980379    0.079544225040    0.039257484873
0.550     0.058627208323    0.054736160817    0.000010686728    -0.000004779993    0.064037405970    0.034776250427    0.000018336475    -0.000005220900
            0.000010686728    -0.000004779993    0.083841700509    0.050186832653    0.000017396458    -0.000005200661    0.086165355224    0.030222703509
            0.064037405970    0.034776250427    0.000017396458    -0.000005200661    0.059803541847    0.054515243807    0.000027500362    -0.000005626063
            0.000018336475    -0.000005220900    0.086165355224    0.030222703509    0.000027500362    -0.000005626063    0.085445599558    0.050144137649
0.575     0.072547486769    0.069095186872    0.000010964630    -0.000006583027    0.071612011074    0.045251230913    0.000018989418    -0.000007809566
            0.000010964630    -0.000006583027    0.097154574808    0.058942784266    0.000018035825    -0.000007640439    0.093456093879    0.036278744910
            0.071612011074    0.045251230913    0.000018035825    -0.000007640439    0.073376637283    0.068673420631    0.000028592485    -0.000009043353
            0.000018989418    -0.000007809566    0.093456093879    0.036278744910    0.000028592485    -0.000009043353    0.098428173502    0.058450426337
0.600     0.093706730520    0.076340396716    0.000010618284    -0.000008580692    0.085530714366    0.051848001366    0.000018822804    -0.000010694596
            0.000010618284    -0.000008580692    0.115625452428    0.061371748674    0.000017904879    -0.000010393596    0.105554617238    0.038946859849
            0.085530714366    0.051848001366    0.000017904879    -0.000010393596    0.094134368421    0.075937957274    0.000028690384    -0.000012875581
            0.000018822804    -0.000010694596    0.105554617238    0.038946859849    0.000028690384    -0.000012875581    0.116389490040    0.060669833871
0.625     0.117706239921    0.073654539874    0.000009602858    -0.000010427726    0.103074427301    0.051751446260    0.000017768738    -0.000013437561
            0.000009602858    -0.000010427726    0.135502555205    0.055516003145    0.000016917026    -0.000013042196    0.120180988791    0.036028061998
            0.103074427301    0.051751446260    0.000016917026    -0.000013042196    0.117798886684    0.073491143131    0.000027691779    -0.000016602908
            0.000017768738    -0.000013437561    0.120180988791    0.036028061998    0.000027691779    -0.000016602908    0.135724223527    0.054903912935
0.650     0.139440602719    0.060813728699    0.000008084596    -0.000011814185    0.120594582803    0.043922025634    0.000016021336    -0.000015639399
            0.000008084596    -0.000011814185    0.152631647077    0.041574333666    0.000015240991    -0.000015192367    0.134330037495    0.026791020163
            0.120594582803    0.043922025634    0.000015240991    -0.000015192367    0.139366711505    0.061049099833    0.000025803842    -0.000019739110
            0.000016021336    -0.000015639399    0.134330037495    0.026791020163    0.000025803842    -0.000019739110    0.152432569127    0.041329833531
0.675     0.154443912762    0.040030422217    0.000006367114    -0.000012582699    0.134488676538    0.029151953777    0.000013947763    -0.000017080620
            0.000006367114    -0.000012582699    0.163553204664    0.021697288691    0.000013223296    -0.000016616341    0.145068894071    0.012021526004
            0.134488676538    0.029151953777    0.000013223296    -0.000016616341    0.154432021197    0.040722975558    0.000023447205    -0.000021997673
            0.000013947763    -0.000017080620    0.145068894071    0.012021526004    0.000023447205    -0.000021997673    0.163176877290    0.022004552505
0.700     0.159853341705    0.015250961612    0.000004772481    -0.000012765664    0.141953288137    0.009737859037    0.000011953187    -0.000017770068
            0.000004772481    -0.000012765664    0.166267766611    -0.000660870715    0.000011257117    -0.000017308160    0.150185240087    -0.006257173408
            0.141953288137    0.009737859037    0.000011257117    -0.000017308160    0.160136890000    0.016343158843    0.000021104456    -0.000023357725
            0.000011953187    -0.000017770068    0.150185240087    -0.006257173408    0.000021104456    -0.000023357725    0.166020910774    0.000243947803
0.725     0.154888366134    -0.008746398898    0.000003540791    -0.000012545512    0.141452903454    -0.011008471109    0.000010359938    -0.000017905191
            0.000003540791    -0.000012545512    0.160570721105    -0.021548895752    0.000009660660    -0.000017449804    0.148585633812    -0.025221558287
            0.141452903454    -0.011008471109    0.000009660660    -0.000017449804    0.155652750395    -0.007421332822    0.000019176698    -0.000024027524
            0.000010359938    -0.000017905191    0.148585633812    -0.025221558287    0.000019176698    -0.000024027524    0.160751898771    -0.020154323350
0.750     0.140988901418    -0.027273680281    0.000002782234    -0.000012180264    0.133057819583    -0.029302389621    0.000009347907    -0.000017795994
            0.000002782234    -0.000012180264    0.148073469165    -0.037320059379    0.000008614318    -0.000017337266    0.140567780450    -0.041760528908
            0.133057819583    -0.029302389621    0.000008614318    -0.000017337266    0.142324046898    -0.025958460753    0.000017907969    -0.000024364851
            0.000009347907    -0.000017795994    0.140567780450    -0.041760528908    0.000017907969    -0.000024364851    0.148903638226    -0.035678781378
0.775     0.121663514540    -0.036649568571    0.000002477361    -0.000011933629    0.118637567441    -0.041584409360    0.000008938153    -0.000017788882
            0.000002477361    -0.000011933629    0.131949555477    -0.045382251042    0.000008142610    -0.000017302499    0.127902500517    -0.053101831341
            0.118637567441    -0.041584409360    0.000008142610    -0.000017302499    0.123531535829    -0.035614343786    0.000017352455    -0.000024790194
            0.000008938153    -0.000017788882    0.127902500517    -0.053101831341    0.000017352455    -0.000024790194    0.133510937918    -0.043827425054
0.800     0.102002027316    -0.035137396886    0.000002499702    -0.000012033417    0.101796998612    -0.045417792946    0.000009000450    -0.000018215270
