# GHz S RI R 45
0.000     0.035047537756    0.001680606337    -0.000001679220    -0.000003626642    0.000924085367    0.001417723924    -0.000001526035    -0.000003338937
            -0.000001679220    -0.000003626643    0.036114097548    0.001459838567    -0.000001871769    -0.000003991739    0.001019799929    0.001627686454
            0.000924085545    0.001417723927    -0.000001871769    -0.000003991739    0.034996779819    0.001693267554    -0.000001681581    -0.000003639935
            -0.000001526037    -0.000003338937    0.001019800124    0.001627686450    -0.000001681584    -0.000003639935    0.036052238408    0.001471644252
0.025     0.042682196245    0.004769525423    -0.000004666824    -0.000007292920    0.004525234547    0.009778255417    -0.000004280530    -0.000006717997
            -0.000004666820    -0.000007292917    0.041624802729    0.005693545396    -0.000005154552    -0.000008030033    0.003298488789    0.011729754025
            0.004523428448    0.009777332551    -0.000005154558    -0.000008030042    0.042619571151    0.004712161416    -0.000004679215    -0.000007324847
            -0.000004280536    -0.000006718006    0.003298743857    0.011729179519    -0.000004679218    -0.000007324850    0.041528030200    0.005641814554
0.050     0.051611645790    -0.000347406151    -0.000010923403    -0.000011128518    0.013940500340    0.015151877032    -0.000010052496    -0.000010241833
            -0.000010923403    -0.000011128519    0.045599565830    0.004318321825    -0.000012028888    -0.000012262234    0.009551835551    0.021069942967
            0.013940455760    0.015151848746    -0.000012028888    -0.000012262234    0.051560816998    -0.000455165490    -0.000010962177    -0.000011173609
            -0.000010052496    -0.000010241833    0.009551934260    0.021069937744    -0.000010962176    -0.000011173608    0.045392040714    0.004272471785
0.075     0.058201373260    -0.012032871417    -0.000018679042    -0.000011746231    0.025386450343    0.013376641955    -0.000017193117    -0.000010787263
            -0.000018679042    -0.000011746231    0.046611462328    0.000884567601    -0.000020548185    -0.000012968991    0.017700691113    0.026465941214
            0.025386445305    0.013376647226    -0.000020548185    -0.000012968991    0.058176737702    -0.012203379030    -0.000018731330    -0.000011786728
            -0.000017193118    -0.000010787264    0.017700687324    0.026465942546    -0.000018731330    -0.000011786728    0.046297258463    0.000937130428
0.100     0.058898133343    -0.028920030522    -0.000026909709    -0.000008961492    0.034325852417    0.004333543889    -0.000024746865    -0.000008203265
            -0.000026909709    -0.000008961492    0.044045972308    -0.003008419401    -0.000029600804    -0.000009952955    0.025344933888    0.027865221843
            0.034325852349    0.004333544428    -0.000029600804    -0.000009952955    0.058904748317    -0.029177774818    -0.000026955833    -0.000009007495
            -0.000024746865    -0.000008203265    0.025344908492    0.027865230073    -0.000026955833    -0.000009007495    0.043682145542    -0.002779969737
0.125     0.050742216548    -0.047395120009    -0.000034557335    -0.000002691843    0.036800259249    -0.009623379989    -0.000031752762    -0.000002434133
            -0.000034557335    -0.000002691843    0.037708557953    -0.005256332117    -0.000038036035    -0.000003118470    0.030534445980    0.026488866907
            0.036800250420    -0.009623390032    -0.000038036035    -0.000003118470    0.050775781834    -0.047770734066    -0.000034601086    -0.000002774626
            -0.000031752762    -0.000002434133    0.030534445980    0.026488866907    -0.000034601086    -0.000002774626    0.037397928898    -0.004822452808
0.150     0.033042387520    -0.062521511679    -0.000040518595    0.000006975066    0.030649973038    -0.024269068799    -0.000037217398    0.000006435752
            -0.000040518595    0.000006975066    0.028806776644    -0.003663864900    -0.000044652696    0.000007447457    0.032313436910    0.024390861086
            0.030649973038    -0.024269068799    -0.000044652696    0.000007447457    0.033061057567    -0.063043455477    -0.000040599487    0.000006828025
            -0.000037217398    0.000006435752    0.032313436910    0.024390861086    -0.000040599487    0.000006828025    0.028654955903    -0.003060856008
0.175     0.007874190759    -0.069150598180    -0.000043522388    0.000019730396    0.016247321426    -0.034669377014    -0.000039991643    0.000018143581
            -0.000043522388    0.000019730396    0.019498562458    0.003123401953    -0.000048061091    0.000021422052    0.031049194584    0.023814590117
            0.016247321426    -0.034669377014    -0.000048061091    0.000021422052    0.007827203342    -0.069826174184    -0.000043709696    0.000019529683
            -0.000039991643    0.000018143581    0.031049194584    0.023814590117    -0.000043709697    0.000019529683    0.019579992859    0.003795739453
0.200     -0.019994354848    -0.063668624706    -0.000042150415    0.000034735286    -0.003386112491    -0.036599977618    -0.000038762392    0.000031950455
            -0.000042150415    0.000034735286    0.012591544579    0.015208519821    -0.000046703366    0.000037906785    0.028326801967    0.026429793831
            -0.003386112491    -0.036599977618    -0.000046703366    0.000037906785    -0.020166090156    -0.064479443498    -0.000042501158    0.000034553687
            -0.000038762392    0.000031950455    0.028326801967    0.026429793831    -0.000042501158    0.000034553687    0.012911509049    0.015816887725
0.225     -0.044212550504    -0.045258218352    -0.000035142966    0.000050359139    -0.023241760786    -0.027881682650    -0.000032334505    0.000046371397
            -0.000035142966    0.000050359139    0.010766433814    0.031142478249    -0.000039182467    0.000055137146    0.026439832683    0.032723114551
            -0.023241760786    -0.027881682650    -0.000039182467    0.000055137146    -0.044563661314    -0.046150568322    -0.000035657598    0.000050307357
            -0.000032334505    0.000046371397    0.026439832683    0.032723114551    -0.000035657599    0.000050307358    0.011249764263    0.031566898267
0.250     -0.058477654647    -0.016504051029    -0.000022010464    0.000064206262    -0.037639539694    -0.009230273398    -0.000020216103    0.000059181058
            -0.000022010464    0.000064206262    0.015705783074    0.048162590261    -0.000024929545    0.000070503885    0.027609656663    0.041792283316
            -0.037639539694    -0.009230273398    -0.000024929545    0.000070503885    -0.059035480416    -0.017390392989    -0.000022611127    0.000064385445
            -0.000020216103    0.000059181058    0.027609656663    0.041792283316    -0.000022611127    0.000064385445    0.016214897668    0.048342952752
0.275     -0.058321747990    0.016974890373    -0.000003510930    0.000073634323    -0.041840157866    0.015720856088    -0.000003087337    0.000067896021
            -0.000003510930    0.000073634323    0.027463616248    0.062871640052    -0.000004732823    0.000081107339    0.033205956685    0.051611132236
            -0.041840157866    0.015720856088    -0.000004732823    0.000081107339    -0.059067085675    0.016200076003    -0.000004061264    0.000074079991
            -0.000003087337    0.000067896021    0.033205956685    0.051611132236    -0.000004061264    0.000074079991    0.027842417382    0.062836040762
0.300     -0.042514661963    0.047784668052    0.000018303135    0.000076577637    -0.033466466776    0.041264329599    0.000017129055    0.000070559462
            0.000018303135    0.000076577637    0.044324619997    0.072229399399    0.000019197983    0.000084655433    0.043281046632    0.059708450289
            -0.033466466776    0.041264329599    0.000019197983    0.000084655433    -0.043371116478    0.047219116750    0.000017936157    0.000077232888
            0.000017129055    0.000070559462    0.043281046632    0.059708450289    0.000017936157    0.000077232888    0.044452385103    0.072093482405
0.325     -0.013595982716    0.068603645890    0.000040640373    0.000072205630    -0.013258792987    0.061081722315    0.000037799053    0.000066386448
            0.000040640373    0.000072205630    0.063238880587    0.074430055602    0.000043824727    0.000080190167    0.056561292077    0.063943966444
            -0.013258792987    0.061081722315    0.000043824727    0.000080190167    -0.014435783679    0.068304984521    0.000040522289    0.000072946502
            0.000037799053    0.000066386448    0.056561292077    0.063943966444    0.000040522289    0.000072946502    0.063074584500    0.074365492831
0.350     0.022584106832    0.074041870333    0.000060814877    0.000061090711    0.015012095607    0.069864921620    0.000056379517    0.000055935354
            0.000060814877    0.000061090711    0.080659910791    0.069419825581    0.000066195196    0.000068288735    0.070856760711    0.063137846238
            0.015012095607    0.069864921620    0.000066195196    0.000068288735    0.021918017962    0.074002962132    0.000060919650    0.000061788008
            0.000056379517    0.000055935354    0.070856760711    0.063137846238    0.000060919650    0.000061788008    0.080262277951    0.069603179659
0.375     0.058177505566    0.061996719621    0.000076964887    0.000044769770    0.045396620799    0.064631020999    0.000071122994    0.000040693020
            0.000076964887    0.000044769770    0.093477078518    0.058868927633    0.000084240606    0.000050600241    0.083669106499    0.057359269261
            0.045396620799    0.064631020999    0.000084240606    0.000050600241    0.057837384548    0.062131865906    0.000077192844    0.000045358868
            0.000071122994    0.000040693020    0.083669106499    0.057359269261    0.000077192844    0.000045358868    0.092995840737    0.059428397866
0.400     0.085085017895    0.034228230961    0.000088303198    0.000025026414    0.071086810286    0.045477893173    0.000081322742    0.000022387242
            0.000088303198    0.000025026414    0.099784842963    0.045736814940    0.000097063052    0.000029067609    0.092841269518    0.047913592591
            0.071086810286    0.045477893173    0.000097063052    0.000029067609    0.085180034170    0.034378367985    0.000088551293    0.000025539866
            0.000081322742    0.000022387242    0.092841269518    0.047913592591    0.000088551293    0.000025539866    0.099426222558    0.046709227737
0.425     0.096736343948    -0.003921740816    0.000094831406    0.000003219057    0.085889835084    0.015667185492    0.000087053715    0.000002324920
            0.000094831406    0.000003219057    0.099333951687    0.033540284687    0.000104644194    0.000005183765    0.097102501348    0.037038419216
            0.085889835084    0.015667185492    0.000104644194    0.000005183765    0.097297861320    -0.003966866883    0.000095071807    0.000003765465
            0.000087053715    0.000002324920    0.097102501348    0.037038419216    0.000095071807    0.000003765465    0.099307568734    0.034850039266
0.450     0.089573631166    -0.044533287602    0.000096727946    -0.000019994305    0.085614749030    -0.018906686329    0.000088574195    -0.000018896399
            0.000096727946    -0.000019994305    0.093634368885    0.025524779631    0.000107175198    -0.000020329193    0.096467782286    0.027395779532
            0.085614749030    -0.018906686329    0.000107175198    -0.000020329193    0.090532187642    -0.044996894524    0.000097048498    -0.000019307872
            0.000088574195    -0.000018896399    0.096467782286    0.027395779532    0.000097048498    -0.000019307872    0.094093560486    0.026991703999
0.475     0.063982444760    -0.078674217479    0.000093680621    -0.000044410696    0.069136158687    -0.050812499987    0.000085665265    -0.000041153935
            0.000093680621    -0.000044410696    0.085670218082    0.023825744544    0.000104315596    -0.000047266840    0.092358908847    0.021363028888
            0.069136158687    -0.050812499987    0.000104315596    -0.000047266840    0.065162895107    -0.079743227451    0.000094262077    -0.000043580226
            0.000085665265    -0.000041153935    0.092358908847    0.021363028888    0.000094262077    -0.000043580226    0.086660931844    0.025202767745
0.500     0.024488904583    -0.098298233636    0.000084602786    -0.000069570596    0.038936830337    -0.072628252751    0.000077332551    -0.000064123426
            0.000084602786    -0.000069570596    0.079231516152    0.028801484885    0.000094863985    -0.000075164294    0.087353976007    0.020281326851
            0.038936830337    -0.072628252751    0.000094863985    -0.000075164294    0.025629209545    -0.100072548691    0.000085629427    -0.000068744310
            0.000077332551    -0.000064123426    0.087353976007    0.020281326851    0.000085629427    -0.000068744310    0.080664266909    0.029838463127
0.525     -0.020951860844    -0.098144813769    0.000068014253    -0.000093924617    0.000867744425    -0.078684849359    0.000062146849    -0.000086449630
            0.000068014253    -0.000093924617    0.077883375454    0.038738243004    0.000077147446    -0.000102368435    0.084468191555    0.023880115172
            0.000867744425    -0.078684849359    0.000077147446    -0.000102368435    -0.020155375426    -0.100595934611    0.000069542246    -0.000093390479
            0.000062146849    -0.000086449630    0.084468191555    0.023880115172    0.000069542246    -0.000093390479    0.079544225040    0.039257484873
0.550     -0.062573981950    -0.077200086928    0.000043084546    -0.000114506932    -0.036977489393    -0.066620940429    0.000039240524    -0.000105405881
            0.000043084546    -0.000114506932    0.083841700509    0.050186832653    0.000050166574    -0.000125652162    0.086165355224    0.030222703509
            -0.036977489393    -0.066620940429    0.000050166574    -0.000125652162    -0.062400565933    -0.080153189067    0.000044967863    -0.000114574544
            0.000039240524    -0.000105405881    0.086165355224    0.030222703509    0.000044967863    -0.000114574544    0.085445599558    0.050144137649
0.575     -0.091056273573    -0.039205399994    0.000010758027    -0.000127539241    -0.066125244344    -0.038198342837    0.000009417590    -0.000117432389
            0.000010758027    -0.000127539241    0.097154574808    0.058942784266    0.000014840340    -0.000140839410    0.093456093879    0.036278744910
            -0.066125244344    -0.038198342837    0.000014840340    -0.000140839410    -0.091687729181    -0.042359270506    0.000012659800    -0.000128392658
            0.000009417590    -0.000117432389    0.093456093879    0.036278744910    0.000012659800    -0.000128392658    0.098428173502    0.058450426337
0.600     -0.099831049992    0.008061625135    -0.000025829905    -0.000129824792    -0.079834639093    0.000953003872    -0.000024426625    -0.000119479179
            -0.000025829905    -0.000129824792    0.115625452428    0.061371748674    -0.000025484971    -0.000144320784    0.105554617238    0.038946859849
            -0.079834639093    0.000953003872    -0.000025484971    -0.000144320784    -0.101294095437    0.005078023558    -0.000024312075    -0.000131418778
            -0.000024426625    -0.000119479179    0.105554617238    0.038946859849    -0.000024312075    -0.000131418778    0.116389490040    0.060669833871
0.625     -0.086716870190    0.054620195885    -0.000062075981    -0.000120104657    -0.074764963101    0.042675002629    -0.000057963260    -0.000110311990
            -0.000062075981    -0.000120104657    0.135502555205    0.055516003145    -0.000065796163    -0.000134561724    0.120180988791    0.036028061998
            -0.074764963101    0.042675002629    -0.000065796163    -0.000134561724    -0.088860375162    0.052165744703    -0.000061255724    -0.000122164991
            -0.000057963260    -0.000110311990    0.120180988791    0.036028061998    -0.000061255724    -0.000122164991    0.135724223527    0.054903912935
0.650     -0.054384109178    0.090672019634    -0.000093377788    -0.000099570890    -0.051712747326    0.078244897278    -0.000086828715    -0.000091040661
            -0.000093377788    -0.000099570890    0.152631647077    0.041574333666    -0.000100984762    -0.000112716815    0.134330037495    0.026791020163
            -0.051712747326    0.078244897278    -0.000100984762    -0.000112716815    -0.056900824005    0.089008040093    -0.000093350248    -0.000101708540
            -0.000086828715    -0.000091040661    0.134330037495    0.026791020163    -0.000093350248    -0.000101708540    0.152432569127    0.041329833531
0.675     -0.009587006171    0.108801739764    -0.000116482229    -0.000071311432    -0.015266836440    0.100327136093    -0.000107933066    -0.000064601673
            -0.000116482229    -0.000071311432    0.163553204664    0.021697288691    -0.000127354984    -0.000082075410    0.145068894071    0.012021526004
            -0.015266836440    0.100327136093    -0.000127354984    -0.000082075410    -0.012072971790    0.108028391458    -0.000117109727    -0.000073173220
            -0.000107933066    -0.000064601673    0.145068894071    0.012021526004    -0.000117109727    -0.000073173220    0.163176877290    0.022004552505
0.700     0.038465484723    0.105449323262    -0.000130150840    -0.000039132041    0.027320842475    0.104428845210    -0.000120118099    -0.000034639968
            -0.000130150840    -0.000039132041    0.166267766611    -0.000660870715    -0.000143402214    -0.000046799607    0.150185240087    -0.006257173408
            0.027320842475    0.104428845210    -0.000143402214    -0.000046799607    0.036427767591    0.105476056762    -0.000131141676    -0.000040543317
            -0.000120118099    -0.000034639968    0.150185240087    -0.006257173408    -0.000131141676    -0.000040543317    0.166020910774    0.000243947803
0.725     0.080074940588    0.081432498889    -0.000134975284    -0.000006358261    0.067655384614    0.089624644095    -0.000124002330    -0.000004344428
            -0.000134975284    -0.000006358261    0.160570721105    -0.021548895752    -0.000149661541    -0.000010594453    0.148585633812    -0.025221558287
            0.067655384614    0.089624644095    -0.000149661541    -0.000010594453    0.078832074272    0.081988875169    -0.000136032991    -0.000007367212
            -0.000124002330    -0.000004344428    0.148585633812    -0.025221558287    -0.000136032991    -0.000007367212    0.160751898771    -0.020154323350
0.750     0.106922244890    0.041622643915    -0.000132627939    0.000024969649    0.097765751333    0.058634259837    -0.000121265255    0.000024336788
            -0.000132627939    0.000024969649    0.148073469165    -0.037320059379    -0.000147919207    0.000024212944    0.140567780450    -0.041760528908
            0.097765751333    0.058634259837    -0.000147919207    0.000024212944    0.106676511885    0.042302533138    -0.000133601592    0.000024143644
            -0.000121265255    0.000024336788    0.140567780450    -0.041760528908    -0.000133601592    0.000024143644    0.148903638226    -0.035678781378
0.775     0.113574734553    -0.006034587651    -0.000124815862    0.000054309097    0.111521202564    0.017328562839    -0.000113640195    0.000050938936
            -0.000124815862    0.000054309097    0.131949555477    -0.045382251042    -0.000140061953    0.000056959562    0.127902500517    -0.053101831341
            0.111521202564    0.017328562839    -0.000140061953    0.000056959562    0.114334227794    -0.005702147408    -0.000125785427    0.000053420678
            -0.000113640195    0.000050938936    0.127902500517    -0.053101831341    -0.000125785427    0.000053420678    0.133510937918    -0.043827425054
