# GHz S RI R 45
0.000     0.035928250196    0.001834370858    0.963743485640    -0.008075669231    0.001021304219    0.001571891346    -0.001006843361    -0.000540325859
            0.963743485640    -0.008075669231    0.036114097548    0.001459838567    -0.001006647201    -0.000540243897    0.001019799929    0.001627686454
            0.001021304383    0.001571891358    -0.001006647289    -0.000540243944    0.035892130186    0.001844725010    0.963793982736    -0.008077420679
            -0.001006843449    -0.000540325906    0.001019800124    0.001627686450    0.963793982736    -0.008077420679    0.036052238408    0.001471644252
0.025     0.043981018596    0.005558508204    0.923950663760    -0.257803174243    0.004954332714    0.010923694594    -0.001542557350    -0.001535795746
            0.923950654761    -0.257803206495    0.041624802729    0.005693545396    -0.001540146118    -0.001535298577    0.003298488789    0.011729754025
            0.004953592374    0.010923890890    -0.001540320905    -0.001535699015    0.043912768404    0.005492584592    0.924114405771    -0.257538905362
            -0.001542370028    -0.001535407174    0.003298743857    0.011729179519    0.924114378801    -0.257539002135    0.041528030200    0.005641814554
0.050     0.053349370135    0.000529525044    0.819998711960    -0.490295431336    0.015120489082    0.016880110832    -0.003026369469    -0.002461132350
            0.819998711960    -0.490295431336    0.045599565830    0.004318321825    -0.003025734207    -0.002458031301    0.009551835551    0.021069942967
            0.015120477341    0.016880111951    -0.003025701314    -0.002458045780    0.053280116521    0.000399333658    0.820389209870    -0.489771979775
            -0.003026287058    -0.002461142552    0.009551934260    0.021069937744    0.820389209870    -0.489771979775    0.045392040714    0.004272471785
0.075     0.059861099488    -0.011596204398    0.660145151826    -0.686416454526    0.027160129506    0.014925963416    -0.004841482009    -0.002479776705
            0.660145151826    -0.686416454526    0.046611462328    0.000884567601    -0.004836397115    -0.002474366239    0.017700691113    0.026465941214
            0.027160124367    0.014925968616    -0.004836390745    -0.002474366175    0.059798457319    -0.011788262619    0.660888114984    -0.685797591392
            -0.004841476070    -0.002479775796    0.017700687324    0.026465942546    0.660888114984    -0.685797591392    0.046297258463    0.000937130428
0.100     0.059533827877    -0.029026276924    0.455486284989    -0.833154314524    0.035924155130    0.005189479659    -0.006621029932    -0.001767456440
            0.455486284989    -0.833154314524    0.044045972308    -0.003008419401    -0.006607497097    -0.001764571579    0.025344933888    0.027865221843
            0.035924156092    0.005189479990    -0.006607495593    -0.001764574884    0.059484147253    -0.029294400667    0.456639105257    -0.832600266980
            -0.006621030147    -0.001767461449    0.025344908492    0.027865230073    0.456639105257    -0.832600266980    0.043682145542    -0.002779969737
0.125     0.049296323167    -0.047466401632    0.220415588817    -0.920882228719    0.037110470186    -0.009330523093    -0.008310611488    -0.000468898616
            0.220415588817    -0.920882228719    0.037708557953    -0.005256332117    -0.008289838799    -0.000477215367    0.030534445980    0.026488866907
            0.037110470186    -0.009330523093    -0.008289839914    -0.000477216883    0.049254423977    -0.047832099839    0.221976566144    -0.920571517323
            -0.008310611289    -0.000468898605    0.030534445980    0.026488866907    0.221976566144    -0.920571517323    0.037397928898    -0.004822452808
0.150     0.028860980638    -0.061119023493    -0.028674477155    -0.943822117519    0.028694403512    -0.023590774674    -0.009945265764    0.001524084986
            -0.028674477155    -0.943822117519    0.028806776644    -0.003663864900    -0.009926335174    0.001497653552    0.032313436910    0.024390861086
            0.028694403512    -0.023590774674    -0.009926335174    0.001497653552    0.028806775139    -0.061608584430    -0.026771340924    -0.943933499030
            -0.009945265764    0.001524084986    0.032313436910    0.024390861086    -0.026771340924    -0.943933499030    0.028654955903    -0.003060856008
0.175     0.001243335212    -0.064428815292    -0.274380389982    -0.900589333134    0.011732264790    -0.031981611823    -0.011300782695    0.004537577910
            -0.274380389982    -0.900589333134    0.019498562458    0.003123401953    -0.011297834231    0.004494446846    0.031049194584    0.023814590117
            0.011732264790    -0.031981611823    -0.011297834231    0.004494446846    0.001133394259    -0.065057244039    -0.272267020027    -0.901282471176
            -0.011300782695    0.004537577910    0.031049194584    0.023814590117    -0.272267020027    -0.901282471176    0.019579992859    0.003795739453
0.200     -0.027615170071    -0.053932598914    -0.499305541585    -0.794392964423    -0.009651241152    -0.030102203010    -0.011721300491    0.008773663428
            -0.499305541585    -0.794392964423    0.012591544579    0.015208519821    -0.011745557289    0.008726214464    0.028326801967    0.026429793831
            -0.009651241152    -0.030102203010    -0.011745557289    0.008726214464    -0.027837760713    -0.054688612143    -0.497175584338    -0.795784779639
            -0.011721300491    0.008773663428    0.028326801967    0.026429793831    -0.497175584338    -0.795784779639    0.012911509049    0.015816887725
0.225     -0.050295840320    -0.029719218929    -0.687351266367    -0.633164678927    -0.029288414863    -0.016344110476    -0.010281977486    0.013898820696
            -0.687351266367    -0.633164678927    0.010766433814    0.031142478249    -0.010333281333    0.013865806765    0.026439832683    0.032723114551
            -0.029288414863    -0.016344110476    -0.010333281333    0.013865806765    -0.050685437274    -0.030556072948    -0.685448411239    -0.635301524989
            -0.010281977486    0.013898820696    0.026439832683    0.032723114551    -0.685448411239    -0.635301524989    0.011249764263    0.031566898267
0.250     -0.060056597879    0.004058972094    -0.825244676972    -0.429148245040    -0.040798490960    0.007284503091    -0.006286723822    0.018865229674
            -0.825244676972    -0.429148245040    0.015705783074    0.048162590261    -0.006351400886    0.018861218657    0.027609656663    0.041792283316
            -0.040798490960    0.007284503091    -0.006351400886    0.018861218657    -0.060642293544    0.003222025579    -0.823835553448    -0.431988077313
            -0.006286723822    0.018865229674    0.027609656663    0.041792283316    -0.823835553448    -0.431988077313    0.016214897668    0.048342952752
0.275     -0.053014882002    0.040036224930    -0.903884415245    -0.197794355999    -0.039629135636    0.035525877680    0.000194233142    0.022180873587
            -0.903884415245    -0.197794355999    0.027463616248    0.062871640052    0.000137097697    0.022206885807    0.033205956685    0.051611132236
            -0.039629135636    0.035525877680    0.000137097697    0.022206885807    -0.053779123716    0.039298393220    -0.903218298641    -0.201200299879
            0.000194233142    0.022180873587    0.033205956685    0.051611132236    -0.903218298641    -0.201200299879    0.027842417382    0.062836040762
0.300     -0.029544825390    0.069584741947    -0.919093194020    0.043872599961    -0.024564198792    0.061338456569    0.008116054014    0.022550641176
            -0.919093194020    0.043872599961    0.044324619997    0.072229399399    0.008081532980    0.022592399273    0.043281046632    0.059708450289
            -0.024564198792    0.061338456569    0.008081532980    0.022592399273    -0.030414256046    0.069036034851    -0.919367821796    0.040128087017
            0.008116054014    0.022550641176    0.043281046632    0.059708450289    -0.919367821796    0.040128087017    0.044452385103    0.072093482405
0.325     0.005657218284    0.085211787859    -0.871566340231    0.278968112941    0.001861680941    0.077899750559    0.015780394329    0.019517766846
            -0.871566340231    0.278968112941    0.063238880587    0.074430055602    0.015767427831    0.019554502163    0.056561292077    0.063943966444
            0.001861680941    0.077899750559    0.015767427831    0.019554502163    0.004805287938    0.084901175438    -0.872897148191    0.275170988658
            0.015780394329    0.019517766846    0.056561292077    0.063943966444    -0.872897148191    0.275170988658    0.063074584500    0.074365492831
0.350     0.044734980494    0.082563488236    -0.766175033681    0.492096219594    0.034032091251    0.080431736458    0.021537475196    0.013722356224
            -0.766175033681    0.492096219594    0.080659910791    0.069419825581    0.021528881195    0.013741202086    0.070856760711    0.063137846238
            0.034032091251    0.080431736458    0.021528881195    0.013741202086    0.044047893198    0.082473007253    -0.768585398641    0.488552627102
            0.021537475196    0.013722356224    0.070856760711    0.063137846238    -0.768585398641    0.488552627102    0.080262277951    0.069603179659
0.375     0.078588992886    0.061490685504    -0.611003564385    0.670079727775    0.064627398882    0.067348846837    0.024484102581    0.006605724672
            -0.611003564385    0.670079727775    0.093477078518    0.058868927633    0.024456337890    0.006613015725    0.083669106499    0.057359269261
            0.064627398882    0.067348846837    0.024456337890    0.006613015725    0.078203178083    0.061525888260    -0.614432502414    0.667092844796
            0.024484102581    0.006605724672    0.083669106499    0.057359269261    -0.614432502414    0.667092844796    0.092995840737    0.059428397866
0.400     0.098934136678    0.026123516833    -0.416548413906    0.802232075734    0.086250702944    0.040662763682    0.024786892948    -0.000276581502
            -0.416548413906    0.802232075734    0.099784842963    0.045736814940    0.024727692746    -0.000254754312    0.092841269518    0.047913592591
            0.086250702944    0.040662763682    0.024727692746    -0.000254754312    0.098936764896    0.026120691991    -0.420859423331    0.800083490874
            0.024786892948    -0.000276581502    0.092841269518    0.047913592591    -0.420859423331    0.800083490874    0.099426222558    0.046709227737
0.425     0.100115404123    -0.015903924450    -0.195216334221    0.880435262756    0.093010601067    0.005714565796    0.023456798853    -0.005985833698
            -0.195216334221    0.880435262756    0.099333951687    0.033540284687    0.023378349556    -0.005915748232    0.097102501348    0.037038419216
            0.093010601067    0.005714565796    0.023378349556    -0.005915748232    0.100510512235    -0.016152441373    -0.200203712748    0.879376111896
            0.023456798853    -0.005985833698    0.097102501348    0.037038419216    -0.200203712748    0.879376111896    0.099307568734    0.034850039266
0.450     0.080500051628    -0.054870519753    0.038927761872    0.899351945016    0.081960979651    -0.029678309266    0.021680254035    -0.010596250737
            0.038927761872    0.899351945016    0.093634368885    0.025524779631    0.021621691042    -0.010457862905    0.096467782286    0.027395779532
            0.081960979651    -0.029678309266    0.021621691042    -0.010457862905    0.081186355613    -0.055573730965    0.033532036093    0.899592678840
            0.021680254035    -0.010596250737    0.096467782286    0.027395779532    0.033532036093    0.899592678840    0.094093560486    0.026991703999
0.475     0.043249008096    -0.080943403334    0.270403897676    0.856949010952    0.054184453275    -0.056718736848    0.020024329372    -0.015015213975
            0.270403897676    0.856949010952    0.085670218082    0.023825744544    0.020037096282    -0.014820959217    0.092358908847    0.021363028888
            0.054184453275    -0.056718736848    0.020037096282    -0.014820959217    0.044019798632    -0.082257920542    0.264940324434    0.858648550954
            0.020024329372    -0.015015213975    0.092358908847    0.021363028888    0.264940324434    0.858648550954    0.086660931844    0.025202767745
0.500     -0.003830025121    -0.086565543183    0.482981028583    0.755290095284    0.015160596877    -0.067751244768    0.017967418963    -0.020252430273
            0.482981028583    0.755290095284    0.079231516152    0.028801484885    0.018088802415    -0.020051343960    0.087353976007    0.020281326851
            0.015160596877    -0.067751244768    0.018088802415    -0.020051343960    -0.003259016234    -0.088539395297    0.477861486716    0.758515337132
            0.017967418963    -0.020252430273    0.087353976007    0.020281326851    0.477861486716    0.758515337132    0.080664266909    0.029838463127
0.525     -0.049736408925    -0.068760693660    0.660966469467    0.601193426155    -0.026105028218    -0.058578200083    0.014111069483    -0.026492012911
            0.660966469467    0.601193426155    0.077883375454    0.038738243004    0.014339605020    -0.026353661478    0.084468191555    0.023880115172
            -0.026105028218    -0.058578200083    0.014339605020    -0.026353661478    -0.049665192125    -0.071293969974    0.656647501387    0.605887646945
            0.014111069483    -0.026492012911    0.084468191555    0.023880115172    0.656647501387    0.605887646945    0.079544225040    0.039257484873
0.550     -0.083032856652    -0.030498389707    0.791082267656    0.406216183958    -0.059332393599    -0.030130539243    0.007082059023    -0.032566096365
            0.791082267656    0.406216183958    0.083841700509    0.050186832653    0.007368925268    -0.032548896130    0.086165355224    0.030222703509
            -0.059332393599    -0.030130539243    0.007368925268    -0.032548896130    -0.083695155987    -0.033341819021    0.788015979382    0.412162778866
            0.007082059023    -0.032566096365    0.086165355224    0.030222703509    0.788015979382    0.412162778866    0.085445599558    0.050144137649
0.575     -0.095148939572    0.019757780676    0.864302291233    0.185567518740    -0.075975469943    0.011479182630    -0.003378573398    -0.036275587838
            0.864302291233    0.185567518740    0.097154574808    0.058942784266    -0.003111378761    -0.036395821484    0.093456093879    0.036278744910
            -0.075975469943    0.011479182630    -0.003111378761    -0.036395821484    -0.096636247111    0.016954967682    0.862871659633    0.192392477769
            -0.003378573398    -0.036275587838    0.093456093879    0.036278744910    0.862871659633    0.192392477769    0.098428173502    0.058450426337
0.600     -0.082913474773    0.070404355684    0.876931539603    -0.043908215130    -0.071750476391    0.056721070265    -0.015866777837    -0.035473134218
            0.876931539603    -0.043908215130    0.115625452428    0.061371748674    -0.015691131910    -0.035694367400    0.105554617238    0.038946859849
            -0.071750476391    0.056721070265    -0.015691131910    -0.035694367400    -0.085135176781    0.068008924496    0.877380020605    -0.036697157520
            -0.015866777837    -0.035473134218    0.105554617238    0.038946859849    0.877380020605    -0.036697157520    0.116389490040    0.060669833871
0.625     -0.049225252154    0.110015271166    0.830447184543    -0.265895145957    -0.047575593291    0.095452456748    -0.027717074787    -0.029248805390
            0.830447184543    -0.265895145957    0.135502555205    0.055516003145    -0.027665866736    -0.029498440852    0.120180988791    0.036028061998
            -0.047575593291    0.095452456748    -0.027665866736    -0.029498440852    -0.051921731267    0.108315884394    0.832845611764    -0.258846907484
            -0.027717074787    -0.029248805390    0.120180988791    0.036028061998    0.832845611764    -0.258846907484    0.135724223527    0.054903912935
0.650     -0.001823501031    0.130237814917    0.730385140954    -0.466179805730    -0.008834602888    0.119498230285    -0.036126625725    -0.018502772411
            0.730385140954    -0.466179805730    0.152631647077    0.041574333666    -0.036179118439    -0.018707474099    0.134330037495    0.026791020163
            -0.008834602888    0.119498230285    -0.036179118439    -0.018707474099    -0.004625251007    0.129373107137    0.734639563109    -0.459826347008
            -0.036126625725    -0.018502772411    0.134330037495    0.026791020163    0.734639563109    -0.459826347008    0.152432569127    0.041329833531
0.675     0.049005004616    0.127359304431    0.584942944687    -0.633259198334    0.036346539650    0.124165549193    -0.039336913358    -0.005617252545
            0.584942944687    -0.633259198334    0.163553204664    0.021697288691    -0.039432346348    -0.005737214387    0.145068894071    0.012021526004
            0.036346539650    0.124165549193    -0.039432346348    -0.005737214387    0.046496559426    0.127285779545    0.590821198119    -0.628069821041
            -0.039336913358    -0.005617252545    0.145068894071    0.012021526004    0.590821198119    -0.628069821041    0.163176877290    0.022004552505
0.700     0.092781886124    0.102526388784    0.403891833410    -0.758245230229    0.078922678257    0.108702396976    -0.037301611254    0.006524940092
            0.403891833410    -0.758245230229    0.166267766611    -0.000660870715    -0.037371224497    0.006478025611    0.150185240087    -0.006257173408
            0.078922678257    0.108702396976    -0.037371224497    0.006478025611    0.090911750284    0.103025178428    0.411066179526    -0.754603640546
            -0.037301611254    0.006524940092    0.150185240087    -0.006257173408    0.411066179526    -0.754603640546    0.166020910774    0.000243947803
0.725     0.120702738439    0.061088243907    0.198045824051    -0.834476593815    0.110436151419    0.076088473818    -0.031591174514    0.015679603705
            0.198045824051    -0.834476593815    0.160570721105    -0.021548895752    -0.031594780267    0.015649482296    0.148585633812    -0.025221558287
            0.110436151419    0.076088473818    -0.031594780267    0.015649482296    0.119693064285    0.061801561932    0.206120272389    -0.832677928342
            -0.031591174514    0.015679603705    0.148585633812    -0.025221558287    0.206120272389    -0.832677928342    0.160751898771    -0.020154323350
0.750     0.126988900323    0.011546233446    -0.020791718925    -0.857284526319    0.124275326596    0.032570528135    -0.024639389735    0.021076132111
            -0.020791718925    -0.857284526319    0.148073469165    -0.037320059379    -0.024589150747    0.020991842763    0.140567780450    -0.041760528908
            0.124275326596    0.032570528135    -0.024589150747    0.020991842763    0.126886632534    0.012037592762    -0.012258380695    -0.857544319239
            -0.024639389735    0.021076132111    0.140567780450    -0.041760528908    -0.012258380695    -0.857544319239    0.148903638226    -0.035678781378
0.775     0.109893794027    -0.035742746173    -0.239645746987    -0.824166437414    0.116863380160    -0.013081661922    -0.018621023402    0.023615788992
            -0.239645746987    -0.824166437414    0.131949555477    -0.045382251042    -0.018581552667    0.023431404969    0.127902500517    -0.053101831341
            0.116863380160    -0.013081661922    -0.018581552667    0.023431404969    0.110541617481    -0.035909947908    -0.231152117575    -0.826620949770
            -0.018621023402    0.023615788992    0.127902500517    -0.053101831341    -0.231152117575    -0.826620949770    0.133510937918    -0.043827425054
