# GHz S RI R 45
0.000     0.037192001296    0.001438789380    0.000000417423    0.000000890766    0.001162431406    0.001624224591    0.000000431679    0.000000963834
            0.000000417513    0.000000890764    0.036114097548    0.001459838567    0.000000457403    0.000000966830    0.001019799929    0.001627686454
            0.001162430719    0.001624224590    0.000000457251    0.000000966833    0.037131685238    0.001425267549    0.000000462740    0.000001050041
            0.000000431764    0.000000963833    0.001019800124    0.001627686450    0.000000462673    0.000001050042    0.036052238408    0.001471644252
0.025     0.043319295454    0.005904975410    0.000000768920    0.000001994727    0.003873360909    0.012445865455    0.000000794243    0.000002139653
            0.000000768923    0.000001994723    0.041624802729    0.005693545396    0.000000854423    0.000002192417    0.003298488789    0.011729754025
            0.003873927324    0.012444877485    0.000000854417    0.000002192423    0.043261114596    0.005868299777    0.000000853002    0.000002331895
            0.000000794240    0.000002139650    0.003298743857    0.011729179519    0.000000853010    0.000002331910    0.041528030200    0.005641814554
0.050     0.048060585647    0.003997769537    0.000001432931    0.000003606228    0.011237987591    0.021822653002    0.000001470384    0.000003893512
            0.000001432931    0.000003606228    0.045599565830    0.004318321825    0.000001606069    0.000003945607    0.009551835551    0.021069942967
            0.011238051921    0.021822674990    0.000001606069    0.000003945607    0.047937462074    0.003958395293    0.000001582259    0.000004252725
            0.000001470384    0.000003893512    0.009551934260    0.021069937744    0.000001582259    0.000004252725    0.045392040714    0.004272471785
0.075     0.049474403412    -0.000802656397    0.000002219889    0.000005008811    0.020444948900    0.026184293870    0.000002289313    0.000005463360
            0.000002219889    0.000005008811    0.046611462328    0.000884567601    0.000002491673    0.000005444456    0.017700691113    0.026465941214
            0.020444954860    0.026184293023    0.000002491673    0.000005444456    0.049321820343    -0.000789765734    0.000002471566    0.000005980659
            0.000002289313    0.000005463360    0.017700687324    0.026465942546    0.000002471566    0.000005980659    0.046297258463    0.000937130428
0.100     0.046303840084    -0.006541212622    0.000003075685    0.000006304747    0.028283185855    0.025706446458    0.000003222003    0.000006946223
            0.000003075685    0.000006304747    0.044045972308    -0.003008419401    0.000003431366    0.000006801641    0.025344933888    0.027865221843
            0.028283185115    0.025706445786    0.000003431366    0.000006801641    0.046178133362    -0.006450808166    0.000003495497    0.000007616018
            0.000003222003    0.000006946223    0.025344908492    0.027865230073    0.000003495497    0.000007616017    0.043682145542    -0.002779969737
0.125     0.038104264251    -0.010278738289    0.000004023547    0.000007596172    0.032282367400    0.022341043688    0.000004310186    0.000008421758
            0.000004023547    0.000007596172    0.037708557953    -0.005256332117    0.000004433033    0.000008144545    0.030534445980    0.026488866907
            0.032282367400    0.022341043688    0.000004433033    0.000008144545    0.038074403242    -0.010134566168    0.000004699938    0.000009237272
            0.000004310186    0.000008421758    0.030534445980    0.026488866907    0.000004699938    0.000009237272    0.037397928898    -0.004822452808
0.150     0.026194620243    -0.008994528027    0.000005166983    0.000008962346    0.031558010206    0.019133833051    0.000005660223    0.000009937226
            0.000005166983    0.000008962346    0.028806776644    -0.003663864900    0.000005604909    0.000009584910    0.032313436910    0.024390861086
            0.031558010206    0.019133833051    0.000005604909    0.000009584910    0.026318040691    -0.008864467771    0.000006194310    0.000010885766
            0.000005660223    0.000009937226    0.032313436910    0.024390861086    0.000006194310    0.000010885766    0.028654955903    -0.003060856008
0.175     0.013696863503    -0.000597690013    0.000006676068    0.000010378833    0.027177323856    0.019139687333    0.000007425415    0.000011435930
            0.000006676068    0.000010378833    0.019498562458    0.003123401953    0.000007143575    0.000011122045    0.031049194584    0.023814590117
            0.027177323856    0.019139687333    0.000007143575    0.000011122045    0.013976916345    -0.000589727791    0.000008132568    0.000012498129
            0.000007425415    0.000011435930    0.031049194584    0.023814590117    0.000008132568    0.000012498129    0.019579992859    0.003795739453
0.200     0.004698181951    0.015023179950    0.000008708558    0.000011690670    0.021889170038    0.024287992498    0.000009728834    0.000012743189
            0.000008708558    0.000011690670    0.012591544579    0.015208519821    0.000009246851    0.000012604474    0.028326801967    0.026429793831
            0.021889170038    0.024287992498    0.000009246851    0.000012604474    0.005065079462    0.014803353742    0.000010636050    0.000013891707
            0.000009728834    0.000012743189    0.028326801967    0.026429793831    0.000010636050    0.000013891707    0.012911509049    0.015816887725
0.225     0.003021367432    0.035588460162    0.000011312260    0.000012616300    0.019185916645    0.034531207361    0.000012575051    0.000013579375
            0.000011312260    0.000012616300    0.010766433814    0.031142478249    0.000012001085    0.000013726573    0.026439832683    0.032723114551
            0.019185916645    0.034531207361    0.000012001085    0.000013726573    0.003341596958    0.035085386308    0.000013703267    0.000014777956
            0.000012575051    0.000013579375    0.026439832683    0.032723114551    0.000013703267    0.000014777956    0.011249764263    0.031566898267
0.250     0.010824199914    0.056868346140    0.000014339436    0.000012846888    0.021987647786    0.047733608421    0.000015779545    0.000013662996
            0.000014339436    0.000012846888    0.015705783074    0.048162590261    0.000015278353    0.000014133341    0.027609656663    0.041792283316
            0.021987647786    0.047733608421    0.000015278353    0.000014133341    0.010940278412    0.056111702150    0.000017138564    0.000014869343
            0.000015779545    0.000013662996    0.027609656663    0.041792283316    0.000017138564    0.000014869343    0.016214897668    0.048342952752
0.275     0.027666026271    0.073891980301    0.000017445292    0.000012188119    0.031498721075    0.060382027131    0.000018981436    0.000012843881
            0.000017445292    0.000012188119    0.027463616248    0.062871640052    0.000018724522    0.000013576212    0.033205956685    0.051611132236
            0.031498721075    0.060382027131    0.000018724522    0.000013576212    0.027451056254    0.073001737351    0.000020567439    0.000014015602
            0.000018981436    0.000012843881    0.033205956685    0.051611132236    0.000020567439    0.000014015602    0.027842417382    0.062836040762
0.300     0.050473723538    0.082565191816    0.000020206020    0.000010687357    0.046754027800    0.068843807534    0.000021768166    0.000011215722
            0.000020206020    0.000010687357    0.044324619997    0.072229399399    0.000021875831    0.000012058450    0.043281046632    0.059708450289
            0.046754027800    0.068843807534    0.000021875831    0.000012058450    0.049881035957    0.081721151256    0.000023564747    0.000012317595
            0.000021768166    0.000011215722    0.043281046632    0.059708450289    0.000023564747    0.000012317595    0.044452385103    0.072093482405
0.325     0.074446682703    0.080947690426    0.000022290522    0.000008634483    0.064970302190    0.070562544456    0.000023842860    0.000009101218
            0.000022290522    0.000008634483    0.063238880587    0.074430055602    0.000024340470    0.000009852269    0.056561292077    0.063943966444
            0.064970302190    0.070562544456    0.000024340470    0.000009852269    0.073533503464    0.080337527382    0.000025826900    0.000010110665
            0.000023842860    0.000009101218    0.056561292077    0.063943966444    0.000025826900    0.000010110665    0.063074584500    0.074365492831
0.350     0.094466566057    0.069804852746    0.000023596320    0.000006453747    0.082441939746    0.064797851956    0.000025149868    0.000006935345
            0.000023596320    0.000006453747    0.080659910791    0.069419825581    0.000025952190    0.000007398579    0.070856760711    0.063137846238
            0.082441939746    0.064797851956    0.000025952190    0.000007398579    0.093385304375    0.069565919230    0.000027300019    0.000007843575
            0.000025149868    0.000006935345    0.070856760711    0.063137846238    0.000027300019    0.000007843575    0.080262277951    0.069603179659
0.375     0.106464670102    0.052324426044    0.000024267447    0.000004539497    0.095555022976    0.052772759662    0.000025880356    0.000005098433
            0.000024267447    0.000004539497    0.093477078518    0.058868927633    0.000026806469    0.000005140470    0.083669106499    0.057359269261
            0.095555022976    0.052772759662    0.000026806469    0.000005140470    0.105426806893    0.052499324347    0.000028184216    0.000005906079
            0.000025880356    0.000005098433    0.083669106499    0.057359269261    0.000028184216    0.000005906079    0.092995840737    0.059428397866
0.400     0.108428056160    0.033307715854    0.000024628472    0.000003136917    0.101707653358    0.037402556973    0.000026396582    0.000003798966
            0.000024628472    0.000003136917    0.099784842963    0.045736814940    0.000027210207    0.000003392418    0.092841269518    0.047913592591
            0.101707653358    0.037402556973    0.000027210207    0.000003392418    0.107648602506    0.033821546218    0.000028854164    0.000004508673
            0.000026396582    0.000003798966    0.092841269518    0.047913592591    0.000028854164    0.000004508673    0.099426222558    0.046709227737
0.425     0.100930283965    0.018039265790    0.000025073321    0.000002287037    0.100030571066    0.022673139853    0.000027110598    0.000003022257
            0.000025073321    0.000002287037    0.099333951687    0.033540284687    0.000027578096    0.000002266750    0.097102501348    0.037038419216
            0.100030571066    0.022673139853    0.000027578096    0.000002266750    0.100565023164    0.018706263863    0.000029733082    0.000003631396
            0.000027110598    0.000003022257    0.097102501348    0.037038419216    0.000029733082    0.000003631396    0.099307568734    0.034850039266
0.450     0.087190823221    0.011019410434    0.000025977036    0.000001827928    0.091869984873    0.012713529609    0.000028385153    0.000002540886
            0.000025977036    0.000001827928    0.093634368885    0.025524779631    0.000028342712    0.000001654793    0.096467782286    0.027395779532
            0.091869984873    0.012713529609    0.000028342712    0.000001654793    0.087280141857    0.011582318621    0.000031190708    0.000003035645
            0.000028385153    0.000002540886    0.096467782286    0.027395779532    0.000031190708    0.000003035645    0.094093560486    0.026991703999
0.475     0.072535077325    0.014632217870    0.000027609932    0.000001409109    0.080772448483    0.010541265462    0.000030440526    0.000001945522
            0.000027609932    0.000001409109    0.085670218082    0.023825744544    0.000029855303    0.000001221465    0.092358908847    0.021363028888
            0.080772448483    0.010541265462    0.000029855303    0.000001221465    0.072970192785    0.014832762729    0.000033448303    0.000002297886
            0.000030440526    0.000001945522    0.092358908847    0.021363028888    0.000033448303    0.000002297886    0.086660931844    0.025202767745
0.500     0.063108904623    0.028084395489    0.000030048555    0.000000525450    0.071696402736    0.016805875061    0.000033269524    0.000000705079
            0.000030048555    0.000000525450    0.079231516152    0.028801484885    0.000032273603    0.000000430654    0.087353976007    0.020281326851
            0.071696402736    0.016805875061    0.000032273603    0.000000430654    0.063643436832    0.027749888587    0.000036492554    0.000000871288
            0.000033269524    0.000000705079    0.087353976007    0.020281326851    0.000036492554    0.000000871288    0.080664266909    0.029838463127
0.525     0.063916992342    0.047166621130    0.000033055127    -0.000001380005    0.069367826666    0.029130340216    0.000036541544    -0.000001711008
            0.000033055127    -0.000001380005    0.077883375454    0.038738243004    0.000035415155    -0.000001349018    0.084468191555    0.023880115172
            0.069367826666    0.029130340216    0.000035415155    -0.000001349018    0.064231987346    0.046283852609    0.000039978171    -0.000001788619
            0.000036541544    -0.000001711008    0.084468191555    0.023880115172    0.000039978171    -0.000001788619    0.079544225040    0.039257484873
0.550     0.076889933189    0.065368377410    0.000036039204    -0.000004700727    0.076413585100    0.042706208993    0.000039601098    -0.000005617813
            0.000036039204    -0.000004700727    0.083841700509    0.050186832653    0.000038696376    -0.000004608319    0.086165355224    0.030222703509
            0.076413585100    0.042706208993    0.000038696376    -0.000004608319    0.076697372811    0.064104583698    0.000043225891    -0.000006003412
            0.000039601098    -0.000005617813    0.086165355224    0.030222703509    0.000043225891    -0.000006003412    0.085445599558    0.050144137649
0.575     0.099998376305    0.076103056143    0.000038190779    -0.000009416251    0.092256814539    0.052043249327    0.000041628394    -0.000010893340
            0.000038190779    -0.000009416251    0.097154574808    0.058942784266    0.000041259066    -0.000009416894    0.093456093879    0.036278744910
            0.092256814539    0.052043249327    0.000041259066    -0.000009416894    0.099140057771    0.074761015063    0.000045387810    -0.000011644181
            0.000041628394    -0.000010893340    0.093456093879    0.036278744910    0.000045387810    -0.000011644181    0.098428173502    0.058450426337
0.600     0.128009851404    0.075001393607    0.000038812150    -0.000014999213    0.113457179615    0.052974566423    0.000041971602    -0.000016923817
            0.000038812150    -0.000014999213    0.115625452428    0.061371748674    0.000042313830    -0.000015300590    0.105554617238    0.038946859849
            0.113457179615    0.052974566423    0.000042313830    -0.000015300590    0.126508846931    0.073924187062    0.000045789088    -0.000018074078
            0.000041971602    -0.000016923817    0.105554617238    0.038946859849    0.000045789088    -0.000018074078    0.116389490040    0.060669833871
0.625     0.154373659486    0.061137162717    0.000037627366    -0.000020586121    0.135088666577    0.043845537486    0.000040431790    -0.000022799771
            0.000037627366    -0.000020586121    0.135502555205    0.055516003145    0.000041475577    -0.000021394344    0.120180988791    0.036028061998
            0.135088666577    0.043845537486    0.000041475577    -0.000021394344    0.152423756310    0.060606986733    0.000044223163    -0.000024349774
            0.000040431790    -0.000022799771    0.120180988791    0.036028061998    0.000044223163    -0.000024349774    0.135724223527    0.054903912935
0.650     0.173213386985    0.036896550916    0.000034896712    -0.000025320383    0.152299603910    0.025613835637    0.000037350942    -0.000027660899
            0.000034896712    -0.000025320383    0.152631647077    0.041574333666    0.000038909816    -0.000026783942    0.134330037495    0.026791020163
            0.152299603910    0.025613835637    0.000038909816    -0.000026783942    0.171120224035    0.037063286088    0.000041044254    -0.000029577640
            0.000037350942    -0.000027660899    0.134330037495    0.026791020163    0.000041044254    -0.000029577640    0.152432569127    0.041329833531
0.675     0.180642604391    0.006986805384    0.000031274438    -0.000028645534    0.161363914660    0.001254365035    0.000033452803    -0.000030979479
            0.000031274438    -0.000028645534    0.163553204664    0.021697288691    0.000035215085    -0.000030815166    0.145068894071    0.012021526004
            0.161363914660    0.001254365035    0.000035215085    -0.000030815166    0.178745799451    0.007834461032    0.000037003355    -0.000033209482
            0.000033452803    -0.000030979479    0.145068894071    0.012021526004    0.000037003355    -0.000033209482    0.163176877290    0.022004552505
0.700     0.175357610162    -0.022774884980    0.000027562036    -0.000030438428    0.160257871635    -0.024974538306    0.000029591853    -0.000032684217
            0.000027562036    -0.000030438428    0.166267766611    -0.000660870715    0.000031191227    -0.000033249837    0.150185240087    -0.006257173408
            0.160257871635    -0.024974538306    0.000031191227    -0.000033249837    0.173952391010    -0.021423042212    0.000032987435    -0.000035171667
            0.000029591853    -0.000032684217    0.150185240087    -0.006257173408    0.000032987435    -0.000035171667    0.166020910774    0.000243947803
0.725     0.158742588845    -0.046562402860    0.000024468229    -0.000030968134    0.148968925815    -0.048226741510    0.000026507564    -0.000033116505
            0.000024468229    -0.000030968134    0.160570721105    -0.021548895752    0.000027601026    -0.000034252887    0.148585633812    -0.025221558287
            0.148968925815    -0.048226741510    0.000027601026    -0.000034252887    0.158009874745    -0.045012488307    0.000029761441    -0.000035819259
            0.000026507564    -0.000033116505    0.148585633812    -0.025221558287    0.000029761441    -0.000035819259    0.160751898771    -0.020154323350
0.750     0.134752727450    -0.059582965297    0.000022468334    -0.000030778387    0.129769223595    -0.063853735628    0.000024674049    -0.000032909816
            0.000022468334    -0.000030778387    0.148073469165    -0.037320059379    0.000025021293    -0.000034299685    0.140567780450    -0.041760528908
            0.129769223595    -0.063853735628    0.000025021293    -0.000034299685    0.134703160541    -0.058206681523    0.000027814389    -0.000035807982
            0.000024674049    -0.000032909816    0.140567780450    -0.041760528908    0.000027814389    -0.000035807982    0.148903638226    -0.035678781378
0.775     0.109489504592    -0.059212888132    0.000021741986    -0.000030545265    0.107233971248    -0.068517046971    0.000024219880    -0.000032833405
            0.000021741986    -0.000030545265    0.131949555477    -0.045382251042    0.000023758707    -0.000034055917    0.127902500517    -0.053101831341
            0.107233971248    -0.068517046971    0.000023758707    -0.000034055917    0.109935219716    -0.058359284563    0.000027277372    -0.000035931921
            0.000024219880    -0.000032833405    0.127902500517    -0.053101831341    0.000027277372    -0.000035931921    0.133510937918    -0.043827425054
0.800     0.090147327489    -0.046189302103    0.000022167189    -0.000030976896    0.087605185901    -0.061571806125    0.000024914618    -0.000033658178
            0.000022167189    -0.000030976896    0.116403203701    -0.044885415536    0.000023812536    -0.000034285961    0.113673659649    -0.057550816328
