# GHz S RI R 45
0.000     0.034908363436    0.001501005773    0.000000314277    0.000001175789    0.000918283028    0.001334878724    0.000000361810    0.000001253909
            0.000000314277    0.000001175789    0.036114097548    0.001459838567    0.000000272574    0.000001096801    0.001019799929    0.001627686454
            0.000918282752    0.001334878672    0.000000272574    0.000001096801    0.034894601312    0.001485508229    0.000000337661    0.000001204915
            0.000000361810    0.000001253909    0.001019800124    0.001627686450    0.000000337661    0.000001204915    0.036052238408    0.001471644252
0.025     0.042441901881    0.004502232365    0.000001231983    0.000002454921    0.004451221366    0.009659185874    0.000001352693    0.000002608678
            0.000001231980    0.000002454917    0.041624802729    0.005693545396    0.000001115736    0.000002301214    0.003298488789    0.011729754025
            0.004451359886    0.009658405231    0.000001115741    0.000002301217    0.042380684485    0.004449707474    0.000001280148    0.000002514245
            0.000001352695    0.000002608683    0.003298743857    0.011729179519    0.000001280146    0.000002514246    0.041528030200    0.005641814554
0.050     0.051087350367    -0.000628396890    0.000003259543    0.000003873065    0.013725471467    0.015008146346    0.000003517993    0.000004088646
            0.000003259543    0.000003873065    0.045599565830    0.004318321825    0.000003008299    0.000003658461    0.009551835551    0.021069942967
            0.013725491787    0.015008129117    0.000003008299    0.000003658461    0.050996338162    -0.000672183465    0.000003360513    0.000003960974
            0.000003517993    0.000004088646    0.009551934260    0.021069937744    0.000003360513    0.000003960974    0.045392040714    0.004272471785
0.075     0.057439161281    -0.012142714614    0.000005858813    0.000004272489    0.025034730564    0.013307073678    0.000006269775    0.000004478988
            0.000005858813    0.000004272489    0.046611462328    0.000884567601    0.000005455831    0.000004062535    0.017700691113    0.026465941214
            0.025034729543    0.013307079860    0.000005455831    0.000004062535    0.057345128078    -0.012157225330    0.000006019436    0.000004359896
            0.000006269775    0.000004478988    0.017700687324    0.026465942546    0.000006019436    0.000004359896    0.046297258463    0.000937130428
0.100     0.058010625870    -0.028721465794    0.000008703550    0.000003547070    0.033883814147    0.004425059114    0.000009261847    0.000003679674
            0.000008703550    0.000003547070    0.044045972308    -0.003008419401    0.000008147714    0.000003406230    0.025344933888    0.027865221843
            0.033883815115    0.004425059421    0.000008147714    0.000003406230    0.057961239287    -0.028694643638    0.000008921038    0.000003609086
            0.000009261847    0.000003679674    0.025344908492    0.027865230073    0.000008921038    0.000003609086    0.043682145542    -0.002779969737
0.125     0.049909909165    -0.046821652175    0.000011442413    0.000001636264    0.036359127614    -0.009312157778    0.000012123956    0.000001637669
            0.000011442413    0.000001636264    0.037708557953    -0.005256332117    0.000010751316    0.000001627577    0.030534445980    0.026488866907
            0.036359127776    -0.009312157143    0.000010751316    0.000001627577    0.049968124052    -0.046774082614    0.000011706276    0.000001652894
            0.000012123956    0.000001637669    0.030534445980    0.026488866907    0.000011706276    0.000001652894    0.037397928898    -0.004822452808
0.150     0.032459889397    -0.061593127804    0.000013702820    -0.000001465842    0.030328320131    -0.023728321933    0.000014471980    -0.000001642788
            0.000013702820    -0.000001465842    0.028806776644    -0.003663864900    0.000012911532    -0.000001283328    0.032313436910    0.024390861086
            0.030328320131    -0.023728321933    0.000012911532    -0.000001283328    0.032660705639    -0.061587499209    0.000014000335    -0.000001507557
            0.000014471980    -0.000001642788    0.032313436910    0.024390861086    0.000014000335    -0.000001507557    0.028654955903    -0.003060856008
0.175     0.007724634030    -0.067986993473    0.000015043082    -0.000005689186    0.016168951627    -0.033949312239    0.000015852564    -0.000006085121
            0.000015043082    -0.000005689186    0.019498562458    0.003123401953    0.000014207900    -0.000005262125    0.031049194584    0.023814590117
            0.016168951627    -0.033949312239    0.000014207900    -0.000005262125    0.008072278835    -0.068107911376    0.000015362221    -0.000005798327
            0.000015852564    -0.000006085121    0.031049194584    0.023814590117    0.000015362221    -0.000005798327    0.019579992859    0.003795739453
0.200     -0.019592400587    -0.062475938119    0.000014959676    -0.000010783538    -0.003122206633    -0.035813789344    0.000015748323    -0.000011431597
            0.000014959676    -0.000010783538    0.012591544579    0.015208519821    0.000014161395    -0.000010073079    0.028326801967    0.026429793831
            -0.003122206633    -0.035813789344    0.000014161395    -0.000010073079    -0.019144140101    -0.062811733638    0.000015290609    -0.000010969817
            0.000015748323    -0.000011431597    0.028326801967    0.026429793831    0.000015290609    -0.000010969817    0.012911509049    0.015816887725
0.225     -0.043243137746    -0.044293336524    0.000012992071    -0.000016225834    -0.022593248002    -0.027192060931    0.000013680019    -0.000017145678
            0.000012992071    -0.000016225834    0.010766433814    0.031142478249    0.000012334327    -0.000015221199    0.026439832683    0.032723114551
            -0.022593248002    -0.027192060931    0.000012334327    -0.000015221199    -0.042793218266    -0.044903365707    0.000013322402    -0.000016503957
            0.000013680019    -0.000017145678    0.026439832683    0.032723114551    0.000013322402    -0.000016503957    0.011249764263    0.031566898267
0.250     -0.057046396516    -0.016023180593    0.000008922225    -0.000021223765    -0.036644278513    -0.008819087034    0.000009411920    -0.000022409250
            0.000008922225    -0.000021223765    0.015705783074    0.048162590261    0.000008519177    -0.000019956883    0.027609656663    0.041792283316
            -0.036644278513    -0.008819087034    0.000008519177    -0.000019956883    -0.056724996513    -0.016907167991    0.000009229369    -0.000021612666
            0.000009411920    -0.000022409250    0.027609656663    0.041792283316    0.000009229369    -0.000021612666    0.016214897668    0.048342952752
0.275     -0.056649816000    0.016773245280    0.000002943011    -0.000024879807    -0.040622277882    0.015692730958    0.000003129236    -0.000026285773
            0.000002943011    -0.000024879807    0.027463616248    0.062871640052    0.000002897625    -0.000023431775    0.033205956685    0.051611132236
            -0.040622277882    0.015692730958    0.000002897625    -0.000023431775    -0.056581526693    0.015689212798    0.000003187177    -0.000025394214
            0.000003129236    -0.000026285773    0.033205956685    0.051611132236    0.000003187177    -0.000025394214    0.027842417382    0.062836040762
0.300     -0.040905471710    0.046810592802    -0.000004313540    -0.000026460109    -0.032221933054    0.040697777141    -0.000004523656    -0.000027995254
            -0.000004313540    -0.000026460109    0.044324619997    0.072229399399    -0.000003933999    -0.000024952581    0.043281046632    0.059708450289
            -0.032221933054    0.040697777141    -0.000003933999    -0.000024952581    -0.041168243829    0.045665853297    -0.000004187971    -0.000027096660
            -0.000004523656    -0.000027995254    0.043281046632    0.059708450289    -0.000004187971    -0.000027096660    0.044452385103    0.072093482405
0.325     -0.012381622375    0.066906133446    -0.000011945544    -0.000025624168    -0.012223590233    0.059968084952    -0.000012609522    -0.000027157667
            -0.000011945544    -0.000025624168    0.063238880587    0.074430055602    -0.000011125296    -0.000024198607    0.056561292077    0.063943966444
            -0.012223590233    0.059968084952    -0.000011125296    -0.000024198607    -0.012973900328    0.065874466152    -0.000011998606    -0.000026349923
            -0.000012609522    -0.000027157667    0.056561292077    0.063943966444    -0.000011998606    -0.000026349923    0.063074584500    0.074365492831
0.350     0.023105593284    0.071814139913    -0.000019058602    -0.000022494557    0.015603213075    0.068299081621    -0.000020181469    -0.000023874511
            -0.000019058602    -0.000022494557    0.080659910791    0.069419825581    -0.000017834084    -0.000021285751    0.070856760711    0.063137846238
            0.015603213075    0.068299081621    -0.000017834084    -0.000021285751    0.022276498711    0.071059324127    -0.000019335783    -0.000023244650
            -0.000020181469    -0.000023874511    0.070856760711    0.063137846238    -0.000019335783    -0.000023244650    0.080262277951    0.069603179659
0.375     0.057800965571    0.059554836391    -0.000025012858    -0.000017527695    0.045352526297    0.062808130689    -0.000026541929    -0.000018606240
            -0.000025012858    -0.000017527695    0.093477078518    0.058868927633    -0.000023459781    -0.000016644234    0.083669106499    0.057359269261
            0.045352526297    0.062808130689    -0.000023459781    -0.000016644234    0.056907997153    0.059183980627    -0.000025527231    -0.000018215631
            -0.000026541929    -0.000018606240    0.083669106499    0.057359269261    -0.000025527231    -0.000018215631    0.092995840737    0.059428397866
0.400     0.083747428334    0.031968725330    -0.000029519388    -0.000011273326    0.070301500741    0.043674470168    -0.000031352390    -0.000011930768
            -0.000029519388    -0.000011273326    0.099784842963    0.045736814940    -0.000027733814    -0.000010790424    0.092841269518    0.047913592591
            0.070301500741    0.043674470168    -0.000027733814    -0.000010790424    0.083009311654    0.031995311924    -0.000030242276    -0.000011811516
            -0.000031352390    -0.000011930768    0.092841269518    0.047913592591    -0.000030242276    -0.000011811516    0.099426222558    0.046709227737
0.425     0.094547612445    -0.005582440125    -0.000032554380    -0.000004141048    0.084377578118    0.014207296393    -0.000034557242    -0.000004301692
            -0.000032554380    -0.000004141048    0.099333951687    0.033540284687    -0.000030636996    -0.000004105347    0.097102501348    0.037038419216
            0.084377578118    0.014207296393    -0.000030636996    -0.000004105347    0.094179767661    -0.005256439702    -0.000033419693    -0.000004464108
            -0.000034557242    -0.000004301692    0.097102501348    0.037038419216    -0.000033419693    -0.000004464108    0.099307568734    0.034850039266
0.450     0.086825082525    -0.045233429284    -0.000034141201    0.000003704122    0.083534973961    -0.019703521115    -0.000036169554    0.000004066788
            -0.000034141201    0.000003704122    0.093634368885    0.025524779631    -0.000032192128    0.000003263367    0.096467782286    0.027395779532
            0.083534973961    -0.019703521115    -0.000032192128    0.000003263367    0.086983297128    -0.044809734113    -0.000035063797    0.000003621790
            -0.000036169554    0.000004066788    0.096467782286    0.027395779532    -0.000035063797    0.000003621790    0.094093560486    0.026991703999
0.475     0.061123542918    -0.078187456034    -0.000034111362    0.000012255921    0.066795426501    -0.050699595233    -0.000036030736    0.000013125668
            -0.000034111362    0.000012255921    0.085670218082    0.023825744544    -0.000032236315    0.000011318698    0.092358908847    0.021363028888
            0.066795426501    -0.050699595233    -0.000032236315    0.000011318698    0.061855322834    -0.077936794668    -0.000035014197    0.000012397314
            -0.000036030736    0.000013125668    0.092358908847    0.021363028888    -0.000035014197    0.000012397314    0.086660931844    0.025202767745
0.500     0.022064353294    -0.096607111485    -0.000031994275    0.000021403739    0.036755272909    -0.071504555817    -0.000033690809    0.000022736392
            -0.000031994275    0.000021403739    0.079231516152    0.028801484885    -0.000030316131    0.000019963139    0.087353976007    0.020281326851
            0.036755272909    -0.071504555817    -0.000030316131    0.000019963139    0.023278417067    -0.096810623454    -0.000032832384    0.000021725703
            -0.000033690809    0.000022736392    0.087353976007    0.020281326851    -0.000032832384    0.000021725703    0.080664266909    0.029838463127
0.525     -0.022402894287    -0.095484867305    -0.000027153489    0.000030625458    -0.000695448461    -0.076651562214    -0.000028532768    0.000032364084
            -0.000027153489    0.000030625458    0.077883375454    0.038738243004    -0.000025818701    0.000028704702    0.084468191555    0.023880115172
            -0.000695448461    -0.076651562214    -0.000025818701    0.000028704702    -0.020933376968    -0.096362186576    -0.000027920402    0.000031089033
            -0.000028532768    0.000032364084    0.084468191555    0.023880115172    -0.000027920402    0.000031089033    0.079544225040    0.039257484873
0.550     -0.062641044279    -0.074049137079    -0.000019166110    0.000038852547    -0.037527987301    -0.063994203009    -0.000020142297    0.000040934265
            -0.000019166110    0.000038852547    0.083841700509    0.050186832653    -0.000018333569    0.000036528576    0.086165355224    0.030222703509
            -0.037527987301    -0.063994203009    -0.000018333569    0.000036528576    -0.061238270395    -0.075692361346    -0.000019875902    0.000039450248
            -0.000020142297    0.000040934265    0.086165355224    0.030222703509    -0.000019875902    0.000039450248    0.085445599558    0.050144137649
0.575     -0.089569690581    -0.036210182048    -0.000008245021    0.000044674373    -0.065438215110    -0.035464612476    -0.000008730897    0.000047023561
            -0.000008245021    0.000044674373    0.097154574808    0.058942784266    -0.000008056557    0.000042092523    0.093456093879    0.036278744910
            -0.065438215110    -0.035464612476    -0.000008056557    0.000042092523    -0.088578168488    -0.038545329332    -0.000008897395    0.000045436911
            -0.000008730897    0.000047023561    0.093456093879    0.036278744910    -0.000008897395    0.000045436911    0.098428173502    0.058450426337
0.600     -0.096927403245    0.010213273996    0.000004586562    0.000046834207    -0.077924044593    0.003233846192    0.000004678301    0.000049346867
            0.000004586562    0.000046834207    0.115625452428    0.061371748674    0.000004044425    0.000044199424    0.105554617238    0.038946859849
            -0.077924044593    0.003233846192    0.000004044425    0.000044199424    -0.096627352409    0.007422023990    0.000004036845    0.000047806413
            0.000004678301    0.000049346867    0.105554617238    0.038946859849    0.000004036845    0.000047806413    0.116389490040    0.060669833871
0.625     -0.082833621366    0.055345105096    0.000017723201    0.000044734734    -0.071895725413    0.043987796926    0.000018463506    0.000047267040
            0.000017723201    0.000044734734    0.135502555205    0.055516003145    0.000016446959    0.000042280124    0.120180988791    0.036028061998
            -0.071895725413    0.043987796926    0.000016446959    0.000042280124    -0.083367833130    0.052448373242    0.000017371397    0.000045935935
            0.000018463506    0.000047267040    0.120180988791    0.036028061998    0.000017371397    0.000045935935    0.135724223527    0.054903912935
0.650     -0.050186258823    0.089617828915    0.000029489367    0.000038659683    -0.048356398266    0.078225700716    0.000030908082    0.000041029246
            0.000029489367    0.000038659683    0.152631647077    0.041574333666    0.000027562321    0.000036602913    0.134330037495    0.026791020163
            -0.048356398266    0.078225700716    0.000027562321    0.000036602913    -0.051519693334    0.087001126224    0.000029455160    0.000040048616
            0.000030908082    0.000041029246    0.134330037495    0.026791020163    0.000029455160    0.000040048616    0.152432569127    0.041329833531
0.675     -0.005848598770    0.105924979035    0.000038647094    0.000029612951    -0.012020152789    0.098836165777    0.000040711874    0.000031617736
            0.000038647094    0.000029612951    0.163553204664    0.021697288691    0.000036218727    0.000028121236    0.145068894071    0.012021526004
            -0.012020152789    0.098836165777    0.000036218727    0.000028121236    -0.007771189972    0.103923006710    0.000039032123    0.000031077871
            0.000040711874    0.000031617736    0.145068894071    0.012021526004    0.000039032123    0.000031077871    0.163176877290    0.022004552505
0.700     0.040997508597    0.101036617823    0.000044670211    0.000018908337    0.029835041638    0.101583669583    0.000047277202    0.000020353910
            0.000044670211    0.000018908337    0.166267766611    -0.000660870715    0.000041922498    0.000018081442    0.150185240087    -0.006257173408
            0.029835041638    0.101583669583    0.000041922498    0.000018081442    0.038830070418    0.099859269949    0.000045516959    0.000020284719
            0.000047277202    0.000020353910    0.150185240087    -0.006257173408    0.000045516959    0.000020284719    0.166020910774    0.000243947803
0.725     0.080812944575    0.076070498122    0.000047716266    0.000007716251    0.068889837027    0.085798965300    0.000050695246    0.000008445316
            0.000047716266    0.000007716251    0.160570721105    -0.021548895752    0.000044831005    0.000007591551    0.148585633812    -0.025221558287
            0.068889837027    0.085798965300    0.000044831005    0.000007591551    0.078811269448    0.075754897259    0.000048983758    0.000008825726
            0.000050695246    0.000008445316    0.148585633812    -0.025221558287    0.000048983758    0.000008825726    0.160751898771    -0.020154323350
0.750     0.105552600785    0.036120621610    0.000048356056    -0.000003265123    0.097349413773    0.054422426965    0.000051487931    -0.000003346957
            0.000048356056    -0.000003265123    0.148073469165    -0.037320059379    0.000045494623    -0.000002693502    0.140567780450    -0.041760528908
            0.097349413773    0.054422426965    0.000045494623    -0.000002693502    0.104112254988    0.036516447961    0.000049921480    -0.000002566812
            0.000051487931    -0.000003346957    0.140567780450    -0.041760528908    0.000049921480    -0.000002566812    0.148903638226    -0.035678781378
0.775     0.110143680200    -0.010763110623    0.000047168271    -0.000013913903    0.109352419242    0.013471379870    0.000050213445    -0.000014822759
            0.000047168271    -0.000013913903    0.131949555477    -0.045382251042    0.000044469340    -0.000012670647    0.127902500517    -0.053101831341
            0.109352419242    0.013471379870    0.000044469340    -0.000012670647    0.109563968007    -0.009974487742    0.000048856129    -0.000013695511
            0.000050213445    -0.000014822759    0.127902500517    -0.053101831341    0.000048856129    -0.000013695511    0.133510937918    -0.043827425054
