!$
! Info: Touchstone file created by Circ.  Input file=Intel_C2M_200G_11p5in_202208016_staggered.circ
!$
# Hz S RI R 50
0	0.02847971	5.366537e-24	0.0001095906	1.695966e-22	0.0001522156	3.605683e-22	0.0001095842	1.693475e-22
	0.0001095906	1.695966e-22	0.02849251	5.807857e-24	0.0001095948	1.697335e-22	0.0001518159	3.578198e-22
	0.0001522721	3.606927e-22	0.0001095948	1.697353e-22	0.02847466	5.634944e-24	0.0001095863	1.694712e-22
	0.0001095842	1.693494e-22	0.0001518723	3.579443e-22	0.0001095863	1.694712e-22	0.0284905	5.49088e-24
1e+07	0.03426073	-0.00728457	7.460033e-06	3.379476e-05	0.002853082	0.008361636	1.864053e-05	3.255211e-05
	7.460035e-06	3.379476e-05	0.03450612	-0.007331649	3.835732e-06	9.049639e-06	0.002860167	0.008420554
	0.002853082	0.008361636	3.835732e-06	9.049639e-06	0.0344955	-0.007259136	7.219322e-06	3.224045e-05
	1.864053e-05	3.255211e-05	0.002860167	0.008420554	7.219322e-06	3.224045e-05	0.03428196	-0.007295752
2e+07	0.03640975	-0.02062183	8.363499e-06	1.797225e-05	0.007195151	0.01494773	1.286263e-05	2.181199e-05
	8.363516e-06	1.79723e-05	0.03657996	-0.02080022	2.194996e-05	1.741627e-05	0.007214194	0.01506024
	0.007195157	0.01494771	2.194996e-05	1.741627e-05	0.03661209	-0.02066289	6.335499e-06	1.584678e-05
	1.286263e-05	2.181199e-05	0.0072142	0.01506022	6.335499e-06	1.584678e-05	0.03642161	-0.02065316
3e+07	0.03322924	-0.03574903	1.227135e-05	1.199596e-05	0.01347947	0.0197949	9.796713e-06	2.012824e-05
	1.227135e-05	1.199596e-05	0.03330595	-0.0359938	3.905957e-05	1.598938e-05	0.01351262	0.01995274
	0.01347946	0.01979494	3.905957e-05	1.598938e-05	0.03340225	-0.03580188	9.005774e-06	1.031745e-05
	9.796714e-06	2.012824e-05	0.01351261	0.01995278	9.005774e-06	1.031745e-05	0.03320857	-0.03579087
4e+07	0.02543099	-0.0498972	1.45284e-05	6.828876e-06	0.02103508	0.02221223	1.486868e-05	1.503931e-05
	1.45284e-05	6.828875e-06	0.02539923	-0.05017146	5.022548e-05	7.241213e-06	0.02108081	0.022407
	0.02103508	0.02221225	5.022548e-05	7.241212e-06	0.02558312	-0.04995605	1.045274e-05	5.977474e-06
	1.486868e-05	1.503931e-05	0.02108082	0.02240702	1.045274e-05	5.977473e-06	0.02536707	-0.04994344
5e+07	0.01399146	-0.06160514	1.522826e-05	2.014852e-06	0.02900448	0.02196844	1.814531e-05	9.395361e-06
	1.522826e-05	2.014851e-06	0.01384535	-0.06187287	5.592181e-05	-4.677884e-06	0.02905747	0.0221927
	0.02900449	0.02196844	5.592181e-05	-4.677885e-06	0.01412441	-0.06166836	1.073414e-05	2.155705e-06
	1.814531e-05	9.395361e-06	0.02905748	0.0221927	1.073414e-05	2.155705e-06	0.01387346	-0.06164271
6e+07	-4.037127e-05	-0.06997911	1.452885e-05	-2.281132e-06	0.03651516	0.01907503	1.951565e-05	3.687017e-06
	1.452885e-05	-2.281131e-06	-0.0002967473	-0.07020558	5.671075e-05	-1.747209e-05	0.03656676	0.01932381
	0.03651516	0.01907501	5.671075e-05	-1.747209e-05	7.301536e-05	-0.07004696	9.981864e-06	-1.107476e-06
	1.951565e-05	3.687018e-06	0.03656676	0.01932379	9.981864e-06	-1.107476e-06	-0.0002179151	-0.06999177
7e+07	-0.01552438	-0.0744952	1.268186e-05	-5.792731e-06	0.04274589	0.01381821	1.919221e-05	-1.679995e-06
	1.268186e-05	-5.79273e-06	-0.01587765	-0.07464929	5.323273e-05	-2.959916e-05	0.04278526	0.01409027
	0.04274589	0.01381821	5.323273e-05	-2.959916e-05	-0.01543354	-0.07456899	8.396686e-06	-3.645412e-06
	1.919221e-05	-1.679995e-06	0.04278526	0.01409027	8.396686e-06	-3.645412e-06	-0.01576162	-0.07446641
8e+07	-0.03128507	-0.07499737	1.001372e-05	-8.294392e-06	0.04701386	0.006720826	1.744114e-05	-6.369919e-06
	1.001372e-05	-8.294392e-06	-0.03171377	-0.07505374	4.625119e-05	-3.998492e-05	0.04702955	0.007019424
	0.04701386	0.006720828	4.625119e-05	-3.998492e-05	-0.03122208	-0.07507781	6.2531e-06	-5.302571e-06
	1.744114e-05	-6.369919e-06	0.04702955	0.007019426	6.2531e-06	-5.302571e-06	-0.03157715	-0.07491184
9e+07	-0.046208	-0.07167074	6.886815e-06	-9.658186e-06	0.04883534	-0.001518077	1.452714e-05	-1.015132e-05
	6.886814e-06	-9.658186e-06	-0.04668416	-0.0716118	3.65089e-05	-4.797353e-05	0.04881704	-0.001185136
	0.04883535	-0.001518078	3.65089e-05	-4.797353e-05	-0.0461799	-0.07175641	3.86807e-06	-5.997158e-06
	1.452714e-05	-1.015132e-05	0.04881704	-0.001185137	3.86807e-06	-5.997158e-06	-0.04654623	-0.07151524
1e+08	-0.05926855	-0.06497102	3.489138e-06	-9.863265e-06	0.04796194	-0.01009764	1.033453e-05	-1.29618e-05
	3.489138e-06	-9.863265e-06	-0.05975966	-0.06478823	2.366133e-05	-5.342341e-05	0.04790196	-0.009718521
	0.04796194	-0.01009764	2.366133e-05	-5.342341e-05	-0.05928257	-0.06505719	1.467362e-06	-5.716749e-06
	1.033453e-05	-1.29618e-05	0.04790195	-0.009718521	1.467363e-06	-5.716749e-06	-0.05964107	-0.06473534
1.1e+08	-0.06984978	-0.05589312	9.285026e-07	-8.194932e-06	0.04436591	-0.01817968	6.005407e-06	-1.263907e-05
	9.285028e-07	-8.194932e-06	-0.07032644	-0.05559076	1.072282e-05	-5.041222e-05	0.04426084	-0.01773853
	0.04436591	-0.01817968	1.072282e-05	-5.041222e-05	-0.06994191	-0.0560249	-5.985533e-08	-4.225128e-06
	6.005407e-06	-1.263907e-05	0.04426083	-0.01773853	-5.985516e-08	-4.225128e-06	-0.07027337	-0.05561907
1.2e+08	-0.07760523	-0.04492946	-4.221285e-07	-6.426721e-06	0.03834235	-0.02490696	3.180291e-06	-1.15811e-05
	-4.221283e-07	-6.426721e-06	-0.07804087	-0.04451605	3.822267e-06	-4.531409e-05	0.0381947	-0.02438752
	0.03834234	-0.02490696	3.822267e-06	-4.531409e-05	-0.07779026	-0.04503098	-7.063934e-07	-2.800343e-06
	3.180291e-06	-1.15811e-05	0.0381947	-0.02438752	-7.063932e-07	-2.800343e-06	-0.07807061	-0.04454829
1.3e+08	-0.08216797	-0.03293947	-1.187825e-06	-4.811809e-06	0.03038339	-0.02961803	1.248866e-06	-1.023645e-05
	-1.187825e-06	-4.811809e-06	-0.08253858	-0.03243099	2.189179e-06	-3.985121e-05	0.03020101	-0.02900449
	0.03038339	-0.02961803	2.189179e-06	-3.985121e-05	-0.08242155	-0.03297907	-9.711581e-07	-1.596613e-06
	1.248866e-06	-1.023645e-05	0.03020101	-0.02900448	-9.71158e-07	-1.596613e-06	-0.08263114	-0.03243464
1.4e+08	-0.08349179	-0.02080715	-1.227329e-06	-3.342728e-06	0.02114921	-0.03180745	-4.377462e-09	-8.839495e-06
	-1.227329e-06	-3.342728e-06	-0.08377879	-0.02022583	9.899578e-07	-3.487939e-05	0.02094519	-0.03108617
	0.02114921	-0.03180744	9.899578e-07	-3.487939e-05	-0.08379542	-0.02077825	-7.370884e-07	-5.523229e-07
	-4.377446e-09	-8.839495e-06	0.02094519	-0.03108617	-7.370883e-07	-5.52323e-07	-0.08392021	-0.02019296
1.5e+08	-0.08177196	-0.009360742	-1.601311e-07	-2.277958e-06	0.01142024	-0.03117232	-7.977784e-07	-7.513963e-06
	-1.601311e-07	-2.277958e-06	-0.08196391	-0.008733279	2.444485e-07	-3.036458e-05	0.01121247	-0.03033352
	0.01142024	-0.03117231	2.444485e-07	-3.036458e-05	-0.08211707	-0.009260704	-1.327285e-07	2.066825e-07
	-7.977784e-07	-7.513963e-06	0.01121247	-0.03033351	-1.327285e-07	2.066824e-07	-0.08214994	-0.008659128
1.6e+08	-0.07740858	0.0006848532	9.659599e-07	-1.627004e-06	0.002039289	-0.02764027	-1.03346e-06	-6.35431e-06
	9.659599e-07	-1.627004e-06	-0.07750228	0.001329526	-4.143558e-08	-2.630582e-05	0.001849286	-0.0266796
	0.00203929	-0.02764027	-4.143558e-08	-2.630582e-05	-0.07779075	0.0008620379	1.039304e-06	5.342452e-07
	-1.03346e-06	-6.35431e-06	0.001849287	-0.0266796	1.039304e-06	5.342451e-07	-0.07773238	0.001453864
1.7e+08	-0.07096158	0.008774726	2.034197e-06	-1.342594e-06	-0.006152914	-0.02138102	-6.262369e-07	-5.491773e-06
	2.034197e-06	-1.342594e-06	-0.07096248	0.009408023	1.161336e-07	-2.273884e-05	-0.006301633	-0.02030085
	-0.006152913	-0.02138102	1.161336e-07	-2.273884e-05	-0.07137445	0.009039257	2.121598e-06	5.295476e-07
	-6.262369e-07	-5.491773e-06	-0.006301633	-0.02030084	2.121598e-06	5.295475e-07	-0.07123334	0.009596399
1.8e+08	-0.06309449	0.01454759	3.021155e-06	-1.423079e-06	-0.01238458	-0.01280119	-1.947702e-07	-4.824577e-06
	3.021155e-06	-1.423079e-06	-0.06301625	0.01514393	6.270411e-07	-1.970462e-05	-0.01246857	-0.01161141
	-0.01238458	-0.01280119	6.270411e-07	-1.970462e-05	-0.06352655	0.01491123	3.094147e-06	1.936125e-07
	-1.947702e-07	-4.824577e-06	-0.01246857	-0.01161141	3.094147e-06	1.936125e-07	-0.06331831	0.01541225
1.9e+08	-0.05451228	0.01785096	3.840663e-06	-1.82747e-06	-0.01601876	-0.002521002	2.314682e-07	-4.342888e-06
	3.840663e-06	-1.82747e-06	-0.0543754	0.01839021	1.381945e-06	-1.722473e-05	-0.01601706	-0.001239226
	-0.01601876	-0.002521002	1.381945e-06	-1.722473e-05	-0.05494565	0.01832362	3.875881e-06	-4.335889e-07
	2.314682e-07	-4.342888e-06	-0.01601706	-0.001239225	3.875881e-06	-4.33589e-07	-0.05469155	0.01875261
2e+08	-0.04589633	0.01873672	4.417175e-06	-2.493809e-06	-0.01661213	0.008668346	6.20605e-07	-4.032452e-06
	4.417175e-06	-2.493809e-06	-0.04572554	0.01920598	2.266928e-06	-1.529309e-05	-0.01650882	0.0100174
	-0.01661213	0.008668347	2.266928e-06	-1.529309e-05	-0.04630812	0.01932306	4.398876e-06	-1.28678e-06
	6.206049e-07	-4.032452e-06	-0.01650882	0.0100174	4.398876e-06	-1.28678e-06	-0.04603336	0.01967109
2.1e+08	-0.03784636	0.01743506	4.694513e-06	-3.339541e-06	-0.01396146	0.01986406	9.423012e-07	-3.870425e-06
	4.694513e-06	-3.339541e-06	-0.0376691	0.0178294	3.161311e-06	-1.387868e-05	-0.01374812	0.0212501
	-0.01396146	0.01986406	3.161311e-06	-1.387868e-05	-0.03821106	0.01813267	4.612026e-06	-2.284658e-06
	9.423012e-07	-3.870425e-06	-0.01374812	0.0212501	4.612026e-06	-2.284658e-06	-0.03794137	0.01839873
2.2e+08	-0.03083492	0.01431363	4.640231e-06	-4.270409e-06	-0.008131428	0.03012471	1.170434e-06	-3.827188e-06
	4.640231e-06	-4.270409e-06	-0.03067799	0.01463641	3.95835e-06	-1.292509e-05	-0.007809089	0.03151425
	-0.008131428	0.03012471	3.95835e-06	-1.292509e-05	-0.03112715	0.01511169	4.489297e-06	-3.334208e-06
	1.170434e-06	-3.827188e-06	-0.007809089	0.03151425	4.489297e-06	-3.334208e-06	-0.03088675	0.01530198
2.3e+08	-0.02517996	0.009823112	4.248176e-06	-5.187438e-06	0.0005399928	0.03855098	1.285739e-06	-3.867129e-06
	4.248176e-06	-5.187438e-06	-0.02506708	0.01008503	4.567532e-06	-1.235356e-05	0.0009598124	0.03991037
	0.0005399929	0.03855098	4.567532e-06	-1.235356e-05	-0.02537756	0.01070333	4.030865e-06	-4.338824e-06
	1.285739e-06	-3.867129e-06	0.0009598125	0.03991037	4.030865e-06	-4.338824e-06	-0.02518705	0.01083008
2.4e+08	-0.02103832	0.004440359	3.538716e-06	-5.994237e-06	0.01146186	0.04436513	1.278116e-06	-3.950461e-06
	3.538716e-06	-5.994237e-06	-0.02098817	0.004657697	4.920902e-06	-1.206724e-05	0.01195704	0.045664
	0.01146186	0.04436513	4.920902e-06	-1.206724e-05	-0.02112397	0.005377736	3.263031e-06	-5.205757e-06
	1.278116e-06	-3.950461e-06	0.01195704	0.045664	3.263031e-06	-5.205757e-06	-0.02099894	0.005457486
2.5e+08	-0.01841888	-0.001384461	2.556911e-06	-6.603901e-06	0.02383435	0.04698236	1.148176e-06	-4.035897e-06
	2.556911e-06	-6.603901e-06	-0.01844398	-0.001192034	4.977837e-06	-1.195727e-05	0.02437323	0.04819692
	0.02383435	0.04698236	4.977837e-06	-1.195727e-05	-0.01838284	-0.0004194737	2.235992e-06	-5.853117e-06
	1.148176e-06	-4.035897e-06	0.02437323	0.04819692	2.235992e-06	-5.853117e-06	-0.01833317	-0.0003679065
2.6e+08	-0.01721266	-0.007269106	1.369113e-06	-6.945128e-06	0.0367125	0.0460657	9.078653e-07	-4.083997e-06
	1.369113e-06	-6.945128e-06	-0.01731924	-0.007080803	4.728083e-06	-1.191054e-05	0.03725609	0.04718172
	0.0367125	0.0460657	4.728083e-06	-1.191054e-05	-0.01705313	-0.006308709	1.019908e-06	-6.215873e-06
	9.078653e-07	-4.083997e-06	0.03725609	0.04718172	1.019908e-06	-6.215873e-06	-0.01708315	-0.006266244
2.7e+08	-0.01723209	-0.01292517	5.80704e-08	-6.967025e-06	0.0490837	0.04155803	5.797582e-07	-4.060662e-06
	5.807038e-08	-6.967025e-06	-0.01742067	-0.01272104	4.192243e-06	-1.181812e-05	0.04958867	0.04257293
	0.0490837	0.04155803	4.192243e-06	-1.181812e-05	-0.01695615	-0.01200167	-3.005039e-07	-6.250317e-06
	5.797582e-07	-4.060662e-06	0.04958867	0.04257293	-3.005039e-07	-6.250317e-06	-0.0170654	-0.01195054
2.8e+08	-0.01825402	-0.01816717	-1.282872e-06	-6.642729e-06	0.05995067	0.03369117	1.951179e-07	-3.940312e-06
	-1.282872e-06	-6.642729e-06	-0.0185206	-0.01792955	3.419625e-06	-1.158361e-05	0.0603729	0.03461517
	0.05995067	0.03369117	3.419625e-06	-1.158361e-05	-0.01787751	-0.01731026	-1.632168e-06	-5.937037e-06
	1.951179e-07	-3.940312e-06	0.0603729	0.03461517	-1.632168e-06	-5.937037e-06	-0.01806197	-0.01723517
2.9e+08	-0.02005896	-0.02290458	-2.556402e-06	-5.971356e-06	0.06841246	0.02297002	-2.091722e-07	-3.708225e-06
	-2.556402e-06	-5.971356e-06	-0.02039643	-0.02261889	2.483554e-06	-1.113072e-05	0.06871077	0.02382621
	0.06841246	0.02297002	2.483554e-06	-1.113072e-05	-0.01960512	-0.02213968	-2.88038e-06	-5.282077e-06
	-2.091722e-07	-3.708225e-06	0.06871077	0.02382621	-2.88038e-06	-5.282077e-06	-0.01985857	-0.02202829
3e+08	-0.02246192	-0.02712284	-3.668153e-06	-4.978146e-06	0.07373636	0.01013483	-5.942831e-07	-3.361586e-06
	-3.668153e-06	-4.978146e-06	-0.02286147	-0.02677775	1.474716e-06	-1.040882e-05	0.07387616	0.01095816
	0.07373636	0.01013483	1.474716e-06	-1.040882e-05	-0.02196013	-0.02646876	-3.955472e-06	-4.316269e-06
	-5.942831e-07	-3.361586e-06	0.07387616	0.01095816	-3.955472e-06	-4.316269e-06	-0.02227557	-0.02631165
3.1e+08	-0.02533188	-0.03085609	-4.533598e-06	-3.712954e-06	0.07541705	-0.003893691	-9.232093e-07	-2.90925e-06
	-4.533598e-06	-3.712954e-06	-0.02578421	-0.0304432	4.932177e-07	-9.396439e-06	0.07537362	-0.003058375
	0.07541706	-0.003893691	4.932177e-07	-9.396439e-06	-0.02481601	-0.03032428	-4.779107e-06	-3.092988e-06
	-9.232093e-07	-2.90925e-06	0.07537362	-0.003058375	-4.779107e-06	-3.092988e-06	-0.02518672	-0.03011435
3.2e+08	-0.0285996	-0.03415781	-5.084227e-06	-2.246724e-06	0.07321759	-0.01808285	-1.164057e-06	-2.370173e-06
	-5.084227e-06	-2.246724e-06	-0.02909578	-0.03367103	-3.59712e-07	-8.102215e-06	0.07297873	-0.01718352
	0.07321759	-0.01808285	-3.59712e-07	-8.102215e-06	-0.02810621	-0.0337502	-5.289664e-06	-1.684265e-06
	-1.164057e-06	-2.370173e-06	0.07297873	-0.01718352	-5.289664e-06	-1.684265e-06	-0.02852648	-0.03348182
3.3e+08	-0.03225388	-0.03707143	-5.272638e-06	-6.664763e-07	0.06719068	-0.0313642	-1.292449e-06	-1.770965e-06
	-5.272638e-06	-6.664763e-07	-0.03278584	-0.0365061	-9.89754e-07	-6.563469e-06	0.06675879	-0.03034514
	0.06719068	-0.0313642	-9.89754e-07	-6.563469e-06	-0.03181963	-0.03678115	-5.446332e-06	-1.756931e-07
	-1.292449e-06	-1.770965e-06	0.06675879	-0.03034514	-5.446332e-06	-1.756931e-07	-0.03228507	-0.03644894
3.4e+08	-0.03632876	-0.03960633	-5.076121e-06	9.309468e-07	0.0576804	-0.04271369	-1.292812e-06	-1.14307e-06
	-5.076121e-06	9.309468e-07	-0.03688934	-0.03895825	-1.316569e-06	-4.843202e-06	0.05707352	-0.04151949
	0.0576804	-0.04271369	-1.316569e-06	-4.843202e-06	-0.03598779	-0.03941696	-5.231854e-06	1.339477e-06
	-1.292812e-06	-1.14307e-06	0.05707352	-0.04151949	-5.231854e-06	1.339477e-06	-0.03649499	-0.03901466
3.5e+08	-0.04088227	-0.04172005	-4.498179e-06	2.445895e-06	0.04530134	-0.05122889	-1.158568e-06	-5.199437e-07
	-4.498178e-06	2.445895e-06	-0.04146482	-0.0409847	-1.27963e-06	-3.025225e-06	0.04455326	-0.04980879
	0.04530134	-0.05122889	-1.27963e-06	-3.025225e-06	-0.04066469	-0.04160718	-4.653405e-06	2.766663e-06
	-1.158568e-06	-5.199437e-07	0.04455326	-0.04980879	-4.653405e-06	2.766663e-06	-0.04121034	-0.04112663
3.6e+08	-0.04597136	-0.04330929	-3.56819e-06	3.782947e-06	0.03089875	-0.05620013	-8.915523e-07	6.519254e-08
	-3.56819e-06	3.782947e-06	-0.04656905	-0.04248127	-8.42728e-07	-1.208631e-06	0.03005778	-0.05451249
	0.03089875	-0.05620013	-8.42728e-07	-1.208631e-06	-0.04590056	-0.04324068	-3.742006e-06	4.016202e-06
	-8.915523e-07	6.519254e-08	0.03005778	-0.05451249	-3.742006e-06	4.016202e-06	-0.04648017	-0.04267134
3.7e+08	-0.05162309	-0.04420956	-2.339057e-06	4.857501e-06	0.01548883	-0.05716869	-5.009802e-07	5.809688e-07
	-2.339058e-06	4.857501e-06	-0.05222791	-0.04328224	2.913271e-09	4.986431e-07	0.01461542	-0.05518533
	0.01548883	-0.05716869	2.91327e-09	4.986431e-07	-0.05171421	-0.04414744	-2.550238e-06	5.009142e-06
	-5.009802e-07	5.809688e-07	0.01461542	-0.05518533	-2.550238e-06	5.009142e-06	-0.05232037	-0.04347633
3.8e+08	-0.05780745	-0.04420594	-8.833132e-07	5.601199e-06	0.0001852454	-0.05396683	-2.438827e-09	9.988041e-07
	-8.833132e-07	5.601199e-06	-0.05840894	-0.04317178	1.236958e-06	1.986681e-06	-0.0006518087	-0.05167661
	0.0001852454	-0.05396683	1.236958e-06	1.986681e-06	-0.05806626	-0.04410892	-1.148763e-06	5.682073e-06
	-2.438828e-09	9.988041e-07	-0.0006518087	-0.05167661	-1.148763e-06	5.682073e-06	-0.05868692	-0.04332153
3.9e+08	-0.06441244	-0.04305248	7.118512e-07	5.966097e-06	-0.01388473	-0.04673747	5.827429e-07	1.293477e-06
	7.118512e-07	5.966097e-06	-0.06499657	-0.04190384	2.80952e-06	3.150725e-06	-0.01461322	-0.0441489
	-0.01388473	-0.04673747	2.80952e-06	3.150725e-06	-0.0648334	-0.04287814	3.781262e-07	5.991035e-06
	5.827429e-07	1.293477e-06	-0.01461322	-0.0441489	3.781262e-07	5.991035e-06	-0.06545033	-0.04196004
4e+08	-0.07122569	-0.04050364	2.350314e-06	5.927193e-06	-0.02566743	-0.03592729	1.227813e-06	1.44376e-06
	2.350314e-06	5.927193e-06	-0.07177387	-0.03923433	4.642499e-06	3.898805e-06	-0.02621755	-0.03306955
	-0.02566743	-0.03592729	4.642499e-06	3.898805e-06	-0.07179314	-0.04021135	1.937791e-06	5.914054e-06
	1.227813e-06	1.44376e-06	-0.02621755	-0.03306955	1.937791e-06	5.914054e-06	-0.07238105	-0.03915072
4.1e+08	-0.07792777	-0.03635219	3.93281e-06	5.483524e-06	-0.03426474	-0.02225651	1.900647e-06	1.43341e-06
	3.93281e-06	5.483524e-06	-0.07841661	-0.03495943	6.632656e-06	4.159103e-06	-0.03457529	-0.01917868
	-0.03426474	-0.02225651	6.632656e-06	4.159103e-06	-0.07861555	-0.03590527	3.434729e-06	5.452426e-06
	1.900647e-06	1.43341e-06	-0.03457529	-0.01917868	3.434729e-06	5.452426e-06	-0.07914218	-0.03469586
4.2e+08	-0.08409818	-0.03046911	5.362583e-06	4.657884e-06	-0.03900486	-0.006665267	2.56398e-06	1.252686e-06
	5.362583e-06	4.657884e-06	-0.08449998	-0.02895598	8.656676e-06	3.886546e-06	-0.03902898	-0.003433662
	-0.03900486	-0.006665267	8.656676e-06	3.886546e-06	-0.08487073	-0.0298381	4.776223e-06	4.630682e-06
	2.56398e-06	1.252686e-06	-0.03902898	-0.003433662	4.776223e-06	4.630682e-06	-0.08529815	-0.0284824
4.3e+08	-0.08923771	-0.02284699	6.550599e-06	3.495415e-06	-0.03949316	0.009758131	3.176352e-06	9.004157e-07
	6.550599e-06	3.495415e-06	-0.08952209	-0.02122467	1.057829e-05	3.068703e-06	-0.03920335	0.01306446
	-0.03949316	0.009758131	1.057829e-05	3.068703e-06	-0.09005245	-0.0220119	5.877763e-06	3.495238e-06
	3.176352e-06	9.004157e-07	-0.03920335	0.01306446	5.877763e-06	3.495238e-06	-0.09033969	-0.02052391
4.4e+08	-0.09280638	-0.01363271	7.420235e-06	2.061422e-06	-0.03564092	0.02585863	3.693988e-06	3.860769e-07
	7.420235e-06	2.061422e-06	-0.09294289	-0.01192229	1.225693e-05	1.729362e-06	-0.03503236	0.02915379
	-0.03564092	0.02585863	1.225693e-05	1.729362e-06	-0.09361558	-0.01258473	6.667938e-06	2.112024e-06
	3.693988e-06	3.860769e-07	-0.03503236	0.02915379	6.667938e-06	2.112024e-06	-0.09372247	-0.01099171
4.5e+08	-0.09427279	-0.003148906	7.911546e-06	4.383329e-07	-0.02766963	0.04050022	4.073838e-06	-2.685862e-07
	7.911546e-06	4.383329e-07	-0.09423437	-0.001382236	1.355755e-05	-7.010223e-08	-0.02676175	0.04369813
	-0.02766963	0.04050022	1.355755e-05	-7.010223e-08	-0.09502717	-0.001891781	7.092834e-06	5.629791e-07
	4.073838e-06	-2.685862e-07	-0.02676175	0.04369813	7.092834e-06	5.629791e-07	-0.09491871	-0.0002348066
4.6e+08	-0.09317436	0.008101889	7.985018e-06	-1.278066e-06	-0.01609131	0.05264665	4.277577e-06	-1.029014e-06
	7.985018e-06	-1.278066e-06	-0.09294116	0.009882707	1.43611e-05	-2.232122e-06	-0.01492723	0.05566808
	-0.01609131	0.05264665	1.43611e-05	-2.232122e-06	-0.09382683	0.009551644	7.119548e-06	-1.058286e-06
	4.277577e-06	-1.029014e-06	-0.01492723	0.05566808	7.119548e-06	-1.058286e-06	-0.09347801	0.0112189
4.7e+08	-0.08917947	0.01945326	7.624795e-06	-2.983262e-06	-0.001669538	0.06143268	4.275987e-06	-1.848838e-06
	7.624795e-06	-2.983262e-06	-0.0887426	0.02119779	1.457439e-05	-4.627254e-06	-0.0003135469	0.06421175
	-0.001669538	0.06143268	1.457439e-05	-4.627254e-06	-0.089687	0.02106731	6.738804e-06	-2.65167e-06
	4.275987e-06	-1.848838e-06	-0.0003135469	0.06421175	6.738804e-06	-2.65167e-06	-0.08908711	0.02268131
4.8e+08	-0.08214083	0.03011412	6.840985e-06	-4.569613e-06	0.01463463	0.06622014	4.053038e-06	-2.672664e-06
