!$
! Info: Touchstone file created by Circ.  Input file=Intel_C2M_200G_11p5in_202208016_staggered.circ
!$
# Hz S RI R 50
0	0.02849251	5.807857e-24	0.9713094	-9.825798e-24	0.0001518159	3.578198e-22	-0.0002815001	3.447382e-20
	0.9713094	-9.821826e-24	0.02904319	1.029518e-23	-0.0002815564	3.448071e-20	0.0003732693	1.056639e-21
	0.0001518723	3.579443e-22	-0.0002816913	3.449723e-20	0.0284905	5.49088e-24	0.9713097	-1.00534e-23
	-0.000281635	3.449035e-20	0.0003733347	1.057388e-21	0.9713097	-1.005739e-23	0.02904461	1.055965e-23
1e+07	0.03450612	-0.007331649	0.9514551	-0.1583609	0.002860167	0.008420554	-0.001284834	-9.460982e-05
	0.9514551	-0.1583609	0.03409841	-0.006799526	-0.001284878	-9.445711e-05	0.002565436	0.00851431
	0.002860167	0.008420554	-0.001284878	-9.445711e-05	0.03428196	-0.007295752	0.9516864	-0.1583724
	-0.001284834	-9.460982e-05	0.002565436	0.00851431	0.9516864	-0.1583724	0.03387289	-0.006761589
2e+07	0.03657996	-0.02080022	0.9081094	-0.3055541	0.007214194	0.01506024	-0.001163972	0.0004039782
	0.9081094	-0.3055541	0.03519012	-0.01925335	-0.001163887	0.0004041926	0.006100331	0.01561487
	0.0072142	0.01506022	-0.001163902	0.0004040845	0.03642161	-0.02065316	0.908294	-0.3056628
	-0.001163986	0.0004038762	0.006100415	0.01561477	0.908294	-0.3056628	0.03502164	-0.01909676
3e+07	0.03330595	-0.0359938	0.8444371	-0.441411	0.01351262	0.01995274	-0.0007106512	0.0006507216
	0.8444371	-0.441411	0.03005551	-0.03286522	-0.0007106151	0.0006511915	0.01133318	0.02132847
	0.01351261	0.01995278	-0.0007106541	0.0006512033	0.03320857	-0.03579087	0.8445783	-0.4415657
	-0.0007106634	0.0006507202	0.01133315	0.02132845	0.8445783	-0.4415657	0.02995296	-0.03265318
4e+07	0.02539923	-0.05017146	0.7616979	-0.5643937	0.02108081	0.022407	-0.0001159466	0.0005272139
	0.7616979	-0.5643937	0.02026815	-0.04426343	-0.0001158392	0.0005281199	0.01768332	0.02529927
	0.02108082	0.02240702	-0.0001158416	0.0005281249	0.02536707	-0.04994344	0.7617946	-0.5645803
	-0.000115943	0.0005272266	0.01768332	0.02529927	0.7617946	-0.5645803	0.02022758	-0.04402081
5e+07	0.01384535	-0.06187287	0.6620108	-0.6721225	0.02905747	0.0221927	0.0003947795	-1.250965e-06
	0.6620108	-0.6721225	0.007164968	-0.05208295	0.0003951032	1.604723e-07	0.02459035	0.02729844
	0.02905748	0.0221927	0.000395106	1.584567e-07	0.01387346	-0.06164271	0.6620609	-0.6723315
	0.0003947821	-1.253383e-06	0.02459035	0.02729845	0.6620609	-0.6723315	0.007181357	-0.05182863
6e+07	-0.0002967473	-0.07020558	0.5479758	-0.7624572	0.03656676	0.01932381	0.0006060229	-0.0008643169
	0.5479758	-0.7624572	-0.007787233	-0.05547098	0.0006068054	-0.0008622623	0.03143801	0.02731425
	0.03656676	0.01932379	0.0006068055	-0.0008622641	-0.0002179151	-0.06999177	0.5479761	-0.7626796
	0.0006060237	-0.0008643182	0.03143801	0.02731425	0.5479761	-0.7626796	-0.007722297	-0.05521944
7e+07	-0.01587765	-0.07464929	0.4225024	-0.8336828	0.04278526	0.01409027	0.0003570796	-0.001894816
	0.4225024	-0.8336828	-0.02301947	-0.05412385	0.0003587131	-0.00189223	0.03765666	0.02552466
	0.04278526	0.01409027	0.0003587278	-0.001892297	-0.01576162	-0.07446641	0.4224493	-0.8339079
	0.0003570807	-0.001894819	0.03765665	0.02552466	0.4224493	-0.8339079	-0.0229175	-0.05388498
8e+07	-0.03171377	-0.07505374	0.288681	-0.8845661	0.04702955	0.007019424	-0.0004195799	-0.002865408
	0.288681	-0.8845661	-0.03702713	-0.04825259	-0.0004167307	-0.002862575	0.04277545	0.02226272
	0.04702955	0.007019426	-0.00041673	-0.002862572	-0.03157715	-0.07491184	0.2885743	-0.884783
	-0.0004195798	-0.002865406	0.04277545	0.02226272	0.2885743	-0.884783	-0.03690146	-0.04803153
9e+07	-0.04668416	-0.0716118	0.1496718	-0.9143604	0.04881704	-0.001185136	-0.001683296	-0.003537038
	0.1496718	-0.9143604	-0.04849647	-0.03850077	-0.001678879	-0.003534381	0.04646006	0.01797207
	0.04881704	-0.001185137	-0.001678872	-0.003534375	-0.04654623	-0.07151524	0.1495126	-0.9145546
	-0.001683292	-0.003537031	0.04646006	0.01797207	0.1495126	-0.9145546	-0.04836003	-0.03829654
1e+08	-0.05975966	-0.06478823	0.008525819	-0.9227819	0.04790196	-0.009718521	-0.003295462	-0.003704336
	0.008525819	-0.9227819	-0.05634116	-0.02584511	-0.003289253	-0.003702332	0.04853301	0.01315164
	0.04790195	-0.009718521	-0.003289253	-0.003702333	-0.05964107	-0.06473534	0.008321733	-0.9229417
	-0.003295463	-0.003704337	0.04853301	0.01315164	0.008321733	-0.9229417	-0.05620599	-0.02565232
1.1e+08	-0.07032644	-0.05559076	-0.1313417	-0.9094346	0.04426084	-0.01773853	-0.005016263	-0.003232965
	-0.1313417	-0.9094346	-0.06006365	-0.01181138	-0.005006936	-0.003233919	0.04893491	0.008325247
	0.04426083	-0.01773853	-0.005006937	-0.00323392	-0.07027337	-0.05561907	-0.1315855	-0.9095535
	-0.005016264	-0.003232966	0.04893491	0.008325248	-0.1315855	-0.9095535	-0.05993668	-0.01160165
1.2e+08	-0.07804087	-0.04451605	-0.2665611	-0.8754994	0.0381947	-0.02438752	-0.006605649	-0.002129491
	-0.2665611	-0.8754994	-0.05959619	0.002675764	-0.00659585	-0.002133966	0.04782053	0.004014045
	0.0381947	-0.02438752	-0.006595851	-0.002133966	-0.07807061	-0.04454829	-0.2668346	-0.8755669
	-0.00660565	-0.002129492	0.04782053	0.004014045	-0.2668346	-0.8755669	-0.05947121	0.002901656
1.3e+08	-0.08253858	-0.03243099	-0.394416	-0.8220506	0.03020101	-0.02900449	-0.007833808	-0.0004612615
	-0.394416	-0.8220506	-0.05493217	0.01636322	-0.007824972	-0.0004689097	0.04545992	0.0006290673
	0.03020101	-0.02900448	-0.007824973	-0.0004689102	-0.08263114	-0.03243464	-0.394708	-0.8220628
	-0.007833809	-0.0004612618	0.04545992	0.000629068	-0.394708	-0.8220628	-0.05480759	0.01660923
1.4e+08	-0.08377879	-0.02022583	-0.5122707	-0.75048	0.02094519	-0.03108617	-0.008513562	0.001613814
	-0.5122707	-0.75048	-0.04650961	0.02807726	-0.008506288	0.001603513	0.04221787	-0.00151309
	0.02094519	-0.03108617	-0.008506289	0.001603513	-0.08392021	-0.02019296	-0.5125683	-0.7504326
	-0.008513563	0.001613814	0.04221787	-0.001513089	-0.5125683	-0.7504326	-0.04638159	0.02835015
1.5e+08	-0.08196391	-0.008733279	-0.6176917	-0.6624972	0.01121247	-0.03033352	-0.008534013	0.003878855
	-0.6176917	-0.6624972	-0.03509644	0.03684104	-0.008529174	0.003866026	0.03852822	-0.002214174
	0.01121247	-0.03033351	-0.008529175	0.003866026	-0.08214994	-0.008659128	-0.6179817	-0.6623901
	-0.008534014	0.003878855	0.03852822	-0.002214173	-0.6179817	-0.6623901	-0.03495759	0.03714787
1.6e+08	-0.07750228	0.001329526	-0.7084829	-0.5601163	0.001849286	-0.0266796	-0.007876878	0.006095092
	-0.7084829	-0.5601163	-0.02170823	0.04195817	-0.007875488	0.006080234	0.03486098	-0.001406815
	0.001849287	-0.0266796	-0.007875489	0.006080234	-0.07773238	0.001453864	-0.7087543	-0.5599516
	-0.007876879	0.006095092	0.03486098	-0.001406815	-0.7087543	-0.5599516	-0.02154744	0.04230421
1.7e+08	-0.07096248	0.009408023	-0.7827322	-0.4456388	-0.006301633	-0.02030085	-0.006615364	0.008041585
	-0.7827322	-0.4456388	-0.007510872	0.04307102	-0.006618303	0.008025785	0.03168649	0.0008383734
	-0.006301633	-0.02030084	-0.006618304	0.008025786	-0.07123334	0.009596399	-0.7829736	-0.4454218
	-0.006615365	0.008041585	0.03168649	0.0008383737	-0.7829736	-0.4454218	-0.007314245	0.04345751
1.8e+08	-0.06301625	0.01514393	-0.838851	-0.3216297	-0.01246857	-0.01161141	-0.004896676	0.009550203
	-0.838851	-0.3216297	0.00628815	0.04018753	-0.004904524	0.009535019	0.02943822	0.004316168
	-0.01246857	-0.01161141	-0.004904525	0.009535019	-0.06331831	0.01541225	-0.8390523	-0.3213676
	-0.004896676	0.009550203	0.02943822	0.004316168	-0.8390523	-0.3213676	0.00653509	0.04061077
1.9e+08	-0.0543754	0.01839021	-0.8756195	-0.1908828	-0.01601706	-0.001239226	-0.002911467	0.01052943
	-0.8756195	-0.1908828	0.01855022	0.03367493	-0.002924102	0.01051675	0.02847433	0.008699627
	-0.01601706	-0.001239225	-0.002924102	0.01051675	-0.05469155	0.01875261	-0.8757752	-0.1905862
	-0.002911467	0.01052943	0.02847433	0.008699627	-0.8757752	-0.1905862	0.01886147	0.03412653
2e+08	-0.04572554	0.01920598	-0.8922392	-0.05637182	-0.01650882	0.0100174	-0.0008571677	0.01097243
	-0.8922392	-0.05637182	0.02831313	0.02422161	-0.0008738133	0.01096424	0.0290423	0.01356421
	-0.01650882	0.0100174	-0.0008738134	0.01096424	-0.04603336	0.01967109	-0.8923438	-0.05604843
	-0.0008571679	0.01097243	0.0290423	0.01356421	-0.8923438	-0.05604843	0.0286994	0.02468795
2.1e+08	-0.0376691	0.0178294	-0.8883708	0.07881637	-0.01374812	0.0212501	0.001098206	0.01094897
	-0.8883708	0.07881637	0.03487697	0.01276636	0.001079542	0.01094672	0.03125215	0.01842466
	-0.01374812	0.0212501	0.001079542	0.01094672	-0.03794137	0.01839873	-0.8884223	0.07915636
	0.001098206	0.01094897	0.03125215	0.01842466	-0.8884223	0.07915636	0.03534588	0.01323057
2.2e+08	-0.03067799	0.01463641	-0.8641605	0.211558	-0.007809089	0.03151425	0.002845174	0.0105813
	-0.8641605	0.211558	0.03786992	0.0004042612	0.002826731	0.01058566	0.0350602	0.0227799
	-0.007809089	0.03151425	0.002826731	0.01058566	-0.03088675	0.01530198	-0.8641589	0.2119067
	0.002845174	0.0105813	0.0350602	0.0227799	-0.8641589	0.2119067	0.03842333	0.0008472474
2.3e+08	-0.02506708	0.01008503	-0.8202497	0.3387794	0.0009598124	0.03991037	0.004346149	0.01001163
	-0.8202497	0.3387794	0.03727622	-0.01172292	0.004330719	0.01002222	0.04027016	0.02616264
	0.0009598125	0.03991037	0.004330719	0.01002222	-0.02518705	0.01083008	-0.8201954	0.3391309
	0.004346149	0.01001163	0.04027016	0.02616264	-0.8201954	0.3391309	0.03791035	-0.01132087
2.4e+08	-0.02098817	0.004657697	-0.7577637	0.4575525	0.01195704	0.045664	0.005634839	0.009366211
	-0.7577637	0.4575525	0.0334308	-0.02253983	0.005624592	0.009381662	0.04655115	0.02818768
	0.01195704	0.045664	0.005624592	0.009381662	-0.02099894	0.005457486	-0.757658	0.457901
	0.005634839	0.009366211	0.04655115	0.02818768	-0.757658	0.457901	0.03413578	-0.02219688
2.5e+08	-0.01844398	-0.001192034	-0.6782757	0.5651741	0.02437323	0.04819692	0.006797144	0.008725495
	-0.6782757	0.5651741	0.02697673	-0.03114143	0.006793688	0.008743418	0.0534708	0.02859003
	0.02437323	0.04819692	0.006793688	0.008743418	-0.01833317	-0.0003679065	-0.6781162	0.5655142
	0.006797144	0.008725495	0.0534708	0.02859003	-0.6781162	0.5655142	0.02773725	-0.03087236
2.6e+08	-0.01731924	-0.007080803	-0.5837509	0.6592419	0.03725609	0.04718172	0.007942559	0.008106099
	-0.5837509	0.6592419	0.01879295	-0.03687645	0.00794664	0.008123387	0.06054006	0.02725
	0.03725609	0.04718172	0.00794664	0.008123387	-0.01708315	-0.006266244	-0.5835377	0.6595663
	0.007942559	0.008106099	0.06054006	0.02725	-0.5835377	0.6595663	0.01958971	-0.03669102
2.7e+08	-0.01742067	-0.01272104	-0.4764848	0.7377086	0.04958867	0.04257293	0.009170499	0.007457445
	-0.4764848	0.7377086	0.009902962	-0.03940329	0.009181273	0.007471228	0.06726259	0.02420154
	0.04958867	0.04257293	0.009181273	0.007471228	-0.0170654	-0.01195054	-0.476217	0.7380117
	0.009170499	0.007457445	0.06726259	0.02420154	-0.476217	0.7380117	0.01071449	-0.03930477
2.8e+08	-0.0185206	-0.01792955	-0.3590328	0.7989236	0.0603729	0.03461517	0.01053889	0.006675077
	-0.3590328	0.7989236	0.001371593	-0.0387133	0.01055455	0.006682556	0.07318239	0.01962252
	0.0603729	0.03461517	0.01055455	0.006682556	-0.01806197	-0.01723517	-0.3587095	0.7991965
	0.01053889	0.006675077	0.07318239	0.01962252	-0.3587095	0.7991965	0.002176271	-0.03869786
2.9e+08	-0.02039643	-0.02261889	-0.2341378	0.8416533	0.06871077	0.02382621	0.01204289	0.005625224
	-0.2341378	0.8416533	-0.005797504	-0.03512162	0.01206051	0.005624951	0.0779237	0.01381255
	0.06871077	0.02382621	0.01206051	0.005624951	-0.01985857	-0.02202829	-0.2337598	0.8418855
	0.01204289	0.005625224	0.0779237	0.01381255	-0.2337598	0.8418855	-0.005018916	-0.03517913
3e+08	-0.02286147	-0.02677775	-0.1046622	0.8650894	0.07387616	0.01095816	0.01360626	0.004178273
	-0.1046622	0.8650894	-0.01075292	-0.02922995	0.01362243	0.004169891	0.08122039	0.007159179
	0.07387616	0.01095816	0.01362243	0.004169891	-0.02227557	-0.02631165	-0.1042321	0.8652682
	0.01360626	0.004178273	0.08122039	0.007159179	-0.1042321	0.8652682	-0.01001537	-0.0293445
3.1e+08	-0.02578421	-0.0304432	0.02647234	0.8688524	0.07537362	-0.003058375	0.01508856	0.00224022
	0.02647234	0.8688524	-0.01287152	-0.0218642	0.01509968	0.002224617	0.08293328	0.0001014876
	0.07537362	-0.003058375	0.01509968	0.002224617	-0.02518672	-0.03011435	0.02694635	0.8689639
	0.01508856	0.00224022	0.08293328	0.0001014876	0.02694635	0.8689639	-0.01218428	-0.02201611
3.2e+08	-0.02909578	-0.03367103	0.1563366	0.8529831	0.07297873	-0.01718352	0.01630525	-0.0002206204
	0.1563366	0.8529831	-0.01181147	-0.01399571	0.01630852	-0.0002409293	0.08305447	-0.006909931
	0.07297873	-0.01718352	0.01630852	-0.0002409292	-0.02852648	-0.03348182	0.1568466	0.8530164
	0.01630525	-0.0002206204	0.08305447	-0.006909931	0.1568466	0.8530164	-0.01117663	-0.01416296
3.3e+08	-0.03278584	-0.0365061	0.2820528	0.8179358	0.06675879	-0.03034514	0.01705725	-0.003158406
	0.2820528	0.8179358	-0.007539325	-0.006651118	0.01705132	-0.003179334	0.08170191	-0.01344859
	0.06675879	-0.03034514	0.01705132	-0.003179334	-0.03228507	-0.03644894	0.282583	0.8178806
	0.01705725	-0.003158406	0.08170191	-0.01344859	0.282583	0.8178806	-0.006951716	-0.00681213
3.4e+08	-0.03688934	-0.03895825	0.4008356	0.7645719	0.05707352	-0.04151949	0.01716526	-0.006447294
	0.4008356	0.7645719	-0.0003320276	-0.0008194215	0.01714991	-0.006465192	0.07910681	-0.01914448
	0.05707352	-0.04151949	0.01714991	-0.006465192	-0.03649499	-0.03901466	0.4013718	0.7644212
	0.01716526	-0.006447294	0.07910681	-0.01914448	0.4013718	0.7644212	0.0002206885	-0.0009548792
3.5e+08	-0.04146482	-0.0409847	0.5100535	0.6941443	0.04455326	-0.04980879	0.01650057	-0.009895779
	0.5100535	0.6941443	0.009249306	0.002637636	0.01647753	-0.009906732	0.07559179	-0.02371216
	0.04455326	-0.04980879	0.01647753	-0.009906732	-0.04121034	-0.04112663	0.5105723	0.6938937
	0.01650057	-0.009895779	0.07559179	-0.02371216	0.5105723	0.6938937	0.009784972	0.002541375
3.6e+08	-0.04656905	-0.04248127	0.6072714	0.6082821	0.03005778	-0.05451249	0.0150088	-0.01327048
	0.6072714	0.6082821	0.02040846	0.003063142	0.01498169	-0.01327144	0.07154522	-0.02697129
	0.03005778	-0.05451249	0.01498169	-0.01327144	-0.04648017	-0.04267134	0.6077528	0.6079333
	0.0150088	-0.01327048	0.07154522	-0.02697129	0.6077528	0.6079333	0.02094972	0.003014471
3.7e+08	-0.05222791	-0.04328224	0.690314	0.5089654	0.01461542	-0.05518533	0.0127214	-0.01632871
	0.690314	0.5089654	0.03218628	6.750239e-05	0.01269441	-0.01631846	0.06738987	-0.02886198
	0.01461542	-0.05518533	0.01269441	-0.01631846	-0.05232037	-0.04347633	0.6907388	0.5085254
	0.0127214	-0.01632871	0.06738987	-0.02886198	0.6907388	0.5085254	0.03275798	6.67637e-05
3.8e+08	-0.05840894	-0.04317178	0.7573204	0.3984932	-0.0006518087	-0.05167661	0.009751235	-0.0188531
	0.7573204	0.3984932	0.04354733	-0.006434286	0.00972974	-0.01883199	0.06354766	-0.02945115
	-0.0006518087	-0.05167661	0.00972974	-0.01883199	-0.05868692	-0.04332153	0.7576676	0.3979733
	0.009751235	-0.0188531	0.06354766	-0.02945115	0.7576676	0.3979733	0.04417386	-0.00639532
3.9e+08	-0.06499657	-0.04190384	0.8067958	0.2794372	-0.01461322	-0.0441489	0.00627799	-0.02068022
	0.8067958	0.2794372	0.05347442	-0.01621305	0.006265429	-0.02065113	0.0604031	-0.02892932
	-0.01461322	-0.0441489	0.006265429	-0.02065113	-0.06545033	-0.04196004	0.8070527	0.2788546
	0.00627799	-0.02068022	0.0604031	-0.02892932	0.8070527	0.2788546	0.05417801	-0.0161491
4e+08	-0.07177387	-0.03923433	0.8376654	0.1545804	-0.02621755	-0.03306955	0.002517611	-0.02172108
	0.8376654	0.1545804	0.06106516	-0.02874371	0.002517472	-0.02168831	0.05826651	-0.02759583
	-0.02621755	-0.03306955	0.002517472	-0.02168831	-0.07238105	-0.03915072	0.8378187	0.153952
	0.002517611	-0.02172108	0.05826651	-0.02759583	0.8378187	0.153952	0.06186295	-0.02867797
4.1e+08	-0.07841661	-0.03495943	0.8493059	0.02683733	-0.03457529	-0.01917868	-0.001308171	-0.02196664
	0.8493059	0.02683733	0.06561665	-0.04325637	-0.001294771	-0.02193551	0.0573429	-0.02583256
	-0.03457529	-0.01917868	-0.001294771	-0.02193551	-0.07914218	-0.03469586	0.8493498	0.0261836
	-0.001308171	-0.02196664	0.0573429	-0.02583256	0.8493498	0.0261836	0.0665188	-0.04321662
4.2e+08	-0.08449998	-0.02895598	0.8415693	-0.1008147	-0.03902898	-0.003433662	-0.005003142	-0.02147992
	0.8415693	-0.1008147	0.06669019	-0.05880693	-0.004977821	-0.02145587	0.0577093	-0.02406967
	-0.03902898	-0.003433662	-0.004977821	-0.02145587	-0.08529815	-0.0284824	0.8415016	-0.1014713
	-0.005003142	-0.02147992	0.0577093	-0.02406967	0.8415016	-0.1014713	0.06769829	-0.05882377
4.3e+08	-0.08952209	-0.02122467	0.8147811	-0.2254343	-0.03920335	0.01306446	-0.008422283	-0.02037522
	0.8147811	-0.2254343	0.06415145	-0.07436947	-0.008388399	-0.02036321	0.05930504	-0.02274075
	-0.03920335	0.01306446	-0.008388399	-0.02036321	-0.09033969	-0.02052391	0.8146044	-0.2260745
	-0.008422283	-0.02037522	0.05930504	-0.02274075	0.8146044	-0.2260745	0.06525763	-0.07447433
4.4e+08	-0.09294289	-0.01192229	0.7697218	-0.3441934	-0.03503236	0.02915379	-0.01148202	-0.01879118
	0.7697218	-0.3441934	0.05817809	-0.08893268	-0.01144513	-0.01879392	0.06193635	-0.02224071
	-0.03503236	0.02915379	-0.01144513	-0.01879392	-0.09372247	-0.01099171	0.7694428	-0.3447986
	-0.01148202	-0.01879118	0.06193635	-0.02224071	0.7694428	-0.3447986	0.05936571	-0.08915425
4.5e+08	-0.09423437	-0.001382236	0.7075925	-0.45445	-0.02676175	0.04369813	-0.01416036	-0.01686147
	0.7075925	-0.45445	0.04923737	-0.1015934	-0.01412683	-0.01687956	0.06529639	-0.0228847
	-0.02676175	0.04369813	-0.01412683	-0.01687956	-0.09491871	-0.0002348066	0.7072201	-0.4550046
	-0.01416036	-0.01686147	0.06529639	-0.0228847	0.7072201	-0.4550046	0.05048154	-0.1019553
4.6e+08	-0.09294116	0.009882707	0.6299613	-0.5538134	-0.01492723	0.05566808	-0.01648352	-0.01469011
	0.6299613	-0.5538134	0.03803637	-0.1116384	-0.01645944	-0.01472181	0.06899634	-0.02487755
	-0.01492723	0.05566808	-0.01645944	-0.01472181	-0.09347801	0.0112189	0.6295055	-0.5543054
	-0.01648352	-0.01469011	0.06899634	-0.02487755	0.6295055	-0.5543054	0.03930548	-0.1121566
4.7e+08	-0.0887426	0.02119779	0.5387067	-0.640192	-0.0003135469	0.06421175	-0.0185033	-0.01233762
	0.5387067	-0.640192	0.02545079	-0.1186032	-0.01849399	-0.01237814	0.07260519	-0.0282945
	-0.0003135469	0.06421175	-0.01849399	-0.01237814	-0.08908711	0.02268131	0.5381793	-0.6406091
	-0.0185033	-0.01233762	0.07260519	-0.0282945	0.5381793	-0.6406091	0.02670961	-0.1192845
4.8e+08	-0.08150536	0.03176671	0.4359553	-0.7118081	0.01610139	0.06870978	-0.02027349	-0.009815468
	0.4359553	-0.7118081	0.01244106	-0.1223069	-0.0202817	-0.009858806	0.07569172	-0.03307803
	0.01610139	0.06870978	-0.0202817	-0.009858806	-0.08162532	0.03334443	0.4353703	-0.7121449
	-0.02027349	-0.009815468	0.07569172	-0.03307803	0.4353703	-0.7121449	0.01365347	-0.123148
4.9e+08	-0.07132775	0.04072563	0.3240373	-0.7672262	0.03321315	0.06881541	-0.02182468	-0.007096236
	0.3240373	-0.7672262	-3.46468e-05	-0.1228595	-0.021851	-0.007134708	0.07786424	-0.03904613
	0.03321315	0.06881541	-0.021851	-0.007134708	-0.07120528	0.04233745	0.3234038	-0.7674771
	-0.02182468	-0.007096236	0.07786424	-0.03904613	0.3234038	-0.7674771	0.001096754	-0.1238471
5e+08	-0.05856537	0.04721622	0.2054215	-0.8053585	0.04986265	0.06447504	-0.02314861	-0.004128261
	0.2054215	-0.8053585	-0.01110554	-0.1206459	-0.02319046	-0.004155235	0.07880436	-0.04591234
	0.04986265	0.06447504	-0.02319046	-0.004155235	-0.05819833	0.04879782	0.2047536	-0.8055167
	-0.02314861	-0.004128261	0.07880436	-0.04591234	0.2047536	-0.8055167	-0.01008426	-0.1217568
5.1e+08	-0.04383069	0.05046173	0.0826904	-0.8254567	0.06490995	0.05593399	-0.02419033	-0.0008611674
	0.0826904	-0.8254567	-0.02006092	-0.1162836	-0.02424244	-0.0008708872	0.07829145	-0.05331405
	0.06490995	0.05593399	-0.02424244	-0.0008708872	-0.04323445	0.05194988	0.08199848	-0.8255209
	-0.02419033	-0.0008611674	0.07829145	-0.05331405	0.08199848	-0.8255209	-0.01917137	-0.1174877
5.2e+08	-0.02797487	0.0498468	-0.04150216	-0.82713	0.07730949	0.04372376	-0.02485112	0.002733256
	-0.04150216	-0.82713	-0.02640943	-0.1105663	-0.02490629	0.002744511	0.07621821	-0.06084398
