!$
! Info: Touchstone file created by Circ.  Input file=Intel_C2M_200G_11p5in_202208016_staggered.circ
!$
# Hz S RI R 50
0	0.02847965	5.650724e-24	0.0001098638	1.698739e-22	0.0001521938	3.604178e-22	0.0001097998	1.69618e-22
	0.0001098638	1.698739e-22	0.02849251	5.807857e-24	0.0001098479	1.697508e-22	0.0001518159	3.578198e-22
	0.0001522502	3.605421e-22	0.0001098478	1.697527e-22	0.0284746	5.370156e-24	0.0001098135	1.694989e-22
	0.0001097998	1.696198e-22	0.0001518723	3.579443e-22	0.0001098135	1.694989e-22	0.0284905	5.49088e-24
1e+07	0.03492169	-0.006999012	2.143212e-05	8.994851e-06	0.002462195	0.008357301	5.172594e-06	2.771274e-05
	2.143212e-05	8.994851e-06	0.03450612	-0.007331649	6.777511e-05	6.518559e-06	0.002860167	0.008420554
	0.002462195	0.008357301	6.777511e-05	6.518559e-06	0.03538983	-0.007051496	2.95235e-05	3.193167e-05
	5.172594e-06	2.771274e-05	0.002860167	0.008420554	2.95235e-05	3.193167e-05	0.03428196	-0.007295752
2e+07	0.03730496	-0.02047223	1.177408e-05	2.84738e-05	0.006875538	0.01507857	5.836433e-06	7.33137e-06
	1.177408e-05	2.84738e-05	0.03657996	-0.02080022	4.842756e-05	2.613115e-05	0.007214194	0.01506024
	0.006875544	0.01507855	4.842756e-05	2.613115e-05	0.03757214	-0.02067919	2.295774e-05	2.514926e-05
	5.836433e-06	7.33137e-06	0.0072142	0.01506022	2.295774e-05	2.514926e-05	0.03642161	-0.02065316
3e+07	0.03425058	-0.03580073	3.497014e-05	2.968455e-05	0.01322051	0.01997575	7.474669e-06	1.685265e-06
	3.497014e-05	2.968455e-05	0.03330595	-0.0359938	3.929039e-05	4.088898e-05	0.01351262	0.01995274
	0.0132205	0.01997579	3.929039e-05	4.088898e-05	0.03438144	-0.03598329	1.998874e-05	2.471308e-05
	7.474672e-06	1.685265e-06	0.01351261	0.01995278	1.998874e-05	2.471308e-05	0.03320857	-0.03579087
4e+07	0.0264905	-0.05017606	5.194032e-05	2.13085e-05	0.02082928	0.02241812	9.345845e-06	-8.338195e-07
	5.194032e-05	2.13085e-05	0.02539923	-0.05017146	3.392201e-05	4.828616e-05	0.02108081	0.022407
	0.02082929	0.02241814	3.392201e-05	4.828616e-05	0.02653895	-0.05029455	1.853813e-05	2.444448e-05
	9.345846e-06	-8.338206e-07	0.02108082	0.02240702	1.853813e-05	2.444448e-05	0.02536707	-0.04994344
5e+07	0.01501333	-0.06210919	6.239642e-05	7.71984e-06	0.02884369	0.02218537	1.143777e-05	-2.22175e-06
	6.239642e-05	7.719839e-06	0.01384535	-0.06187287	5.105988e-05	3.488478e-05	0.02905747	0.0221927
	0.02884369	0.02218537	5.105988e-05	3.488478e-05	0.01501989	-0.06215131	2.449194e-05	1.753971e-05
	1.143777e-05	-2.221751e-06	0.02905748	0.0221927	2.449194e-05	1.753971e-05	0.01387346	-0.06164271
6e+07	0.0008806676	-0.07068637	6.690518e-05	-7.988729e-06	0.0363909	0.01929535	1.250559e-05	-4.445781e-06
	6.690518e-05	-7.988729e-06	-0.0002967473	-0.07020558	6.09389e-05	1.809392e-05	0.03656676	0.01932381
	0.0363909	0.01929533	6.09389e-05	1.809392e-05	0.0008773924	-0.07065517	2.807034e-05	9.525043e-06
	1.250559e-05	-4.44578e-06	0.03656676	0.01932379	2.807034e-05	9.525043e-06	-0.0002179151	-0.06999177
7e+07	-0.01475367	-0.07537003	6.594094e-05	-2.386938e-05	0.04265037	0.01403895	1.259003e-05	-7.013358e-06
	6.594094e-05	-2.386938e-05	-0.01587765	-0.07464929	6.389781e-05	2.539436e-07	0.04278526	0.01409027
	0.04265037	0.01403895	6.389781e-05	2.539431e-07	-0.01474424	-0.07527818	2.89737e-05	1.382463e-06
	1.259003e-05	-7.013358e-06	0.04278526	0.01409027	2.89737e-05	1.382463e-06	-0.01576162	-0.07446641
8e+07	-0.03070048	-0.07599591	6.016661e-05	-3.850598e-05	0.04694131	0.006942588	1.176567e-05	-9.587149e-06
	6.016661e-05	-3.850598e-05	-0.03171377	-0.07505374	6.052955e-05	-1.681782e-05	0.04702955	0.007019424
	0.04694131	0.00694259	6.052955e-05	-1.681782e-05	-0.03066502	-0.07586049	2.743232e-05	-6.275553e-06
	1.176567e-05	-9.587149e-06	0.04702955	0.007019426	2.743232e-05	-6.275554e-06	-0.03157715	-0.07491184
9e+07	-0.0458338	-0.07274577	5.030057e-05	-5.087484e-05	0.04878354	-0.001292295	1.01782e-05	-1.186723e-05
	5.030057e-05	-5.087484e-05	-0.04668416	-0.0716118	5.187661e-05	-3.147711e-05	0.04881704	-0.001185136
	0.04878355	-0.001292296	5.187661e-05	-3.147711e-05	-0.04576644	-0.07258398	2.375486e-05	-1.287777e-05
	1.01782e-05	-1.186723e-05	0.04881704	-0.001185137	2.375486e-05	-1.287777e-05	-0.04654623	-0.07151524
1e+08	-0.05913446	-0.0660788	3.59752e-05	-6.047103e-05	0.04793269	-0.009863506	7.94913e-06	-1.362078e-05
	3.59752e-05	-6.047103e-05	-0.05975966	-0.06478823	3.753485e-05	-4.299605e-05	0.04790196	-0.009718521
	0.04793269	-0.009863506	3.753485e-05	-4.299605e-05	-0.05902714	-0.06590312	1.786846e-05	-1.806843e-05
	7.94913e-06	-1.362078e-05	0.04790195	-0.009718521	1.786846e-05	-1.806843e-05	-0.05964107	-0.06473534
1.1e+08	-0.06994555	-0.05690656	2.077449e-05	-6.092546e-05	0.04436946	-0.01793864	5.916914e-06	-1.468392e-05
	2.077449e-05	-6.092546e-05	-0.07032644	-0.05559076	2.209418e-05	-4.355872e-05	0.04426084	-0.01773853
	0.04436945	-0.01793864	2.209418e-05	-4.355872e-05	-0.0698374	-0.05681919	1.150424e-05	-1.934641e-05
	5.916915e-06	-1.468392e-05	0.04426083	-0.01773853	1.150424e-05	-1.934641e-05	-0.07027337	-0.05561907
1.2e+08	-0.07785356	-0.04581704	9.028744e-06	-5.925067e-05	0.03838228	-0.02466718	4.27966e-06	-1.573942e-05
	9.028744e-06	-5.925067e-05	-0.07804087	-0.04451605	1.100794e-05	-4.144125e-05	0.0381947	-0.02438752
	0.03838228	-0.02466718	1.100794e-05	-4.144125e-05	-0.07779481	-0.04575395	6.330629e-06	-1.960507e-05
	4.279661e-06	-1.573942e-05	0.0381947	-0.02438752	6.330629e-06	-1.960507e-05	-0.07807061	-0.04454829
1.3e+08	-0.08251698	-0.03369129	8.453717e-07	-5.625804e-05	0.03046082	-0.02938803	1.833526e-06	-1.681525e-05
	8.453718e-07	-5.625804e-05	-0.08253858	-0.03243099	1.977665e-06	-3.796104e-05	0.03020101	-0.02900449
	0.03046082	-0.02938803	1.977665e-06	-3.796105e-05	-0.08250651	-0.03362212	1.642645e-06	-1.912373e-05
	1.833526e-06	-1.681525e-05	0.03020101	-0.02900448	1.642646e-06	-1.912373e-05	-0.08263114	-0.03243464
1.4e+08	-0.0838989	-0.02142488	-4.67158e-06	-5.265238e-05	0.02126252	-0.03159634	-1.440555e-06	-1.755357e-05
	-4.67158e-06	-5.265238e-05	-0.08377879	-0.02022583	-5.564843e-06	-3.351896e-05	0.02094519	-0.03108617
	0.02126252	-0.03159634	-5.564843e-06	-3.351896e-05	-0.0839365	-0.02133875	-2.676048e-06	-1.797588e-05
	-1.440555e-06	-1.755357e-05	0.02094519	-0.03108617	-2.676048e-06	-1.797588e-05	-0.08392021	-0.02019296
1.5e+08	-0.0822024	-0.009854218	-1.046115e-05	-4.841552e-05	0.01156491	-0.03098888	-5.229875e-06	-1.761976e-05
	-1.046115e-05	-4.841552e-05	-0.08196391	-0.008733279	-1.165485e-05	-2.833157e-05	0.01121247	-0.03033352
	0.01156491	-0.03098888	-1.165485e-05	-2.833157e-05	-0.08229341	-0.009740337	-6.669158e-06	-1.620773e-05
	-5.229875e-06	-1.761976e-05	0.01121247	-0.03033351	-6.669158e-06	-1.620773e-05	-0.08214994	-0.008659128
1.6e+08	-0.07783507	0.0003000866	-1.626865e-05	-4.330418e-05	0.002208021	-0.027492	-9.383365e-06	-1.681228e-05
	-1.626865e-05	-4.330418e-05	-0.07750228	0.001329526	-1.64571e-05	-2.263675e-05	0.001849286	-0.0266796
	0.002208022	-0.02749199	-1.64571e-05	-2.263675e-05	-0.07798473	0.0004582912	-1.032059e-05	-1.383278e-05
	-9.383365e-06	-1.681228e-05	0.001849287	-0.0266796	-1.032059e-05	-1.383278e-05	-0.07773238	0.001453864
1.7e+08	-0.07136431	0.008479519	-2.189576e-05	-3.704795e-05	-0.005969686	-0.02127317	-1.369925e-05	-1.493966e-05
	-2.189576e-05	-3.704795e-05	-0.07096248	0.009408023	-1.922981e-05	-1.681949e-05	-0.006301633	-0.02030085
	-0.005969685	-0.02127317	-1.922981e-05	-1.681949e-05	-0.07157157	0.008703988	-1.340204e-05	-1.083922e-05
	-1.369925e-05	-1.493966e-05	-0.006301633	-0.02030084	-1.340204e-05	-1.083922e-05	-0.07123334	0.009596399
1.8e+08	-0.06346087	0.01432111	-2.687212e-05	-2.954457e-05	-0.0121979	-0.01273608	-1.787826e-05	-1.186814e-05
	-2.687212e-05	-2.954457e-05	-0.06301625	0.01514393	-2.077415e-05	-1.084102e-05	-0.01246857	-0.01161141
	-0.0121979	-0.01273608	-2.077415e-05	-1.084102e-05	-0.0637154	0.01463533	-1.577746e-05	-7.236911e-06
	-1.787826e-05	-1.186814e-05	-0.01246857	-0.01161141	-1.577746e-05	-7.236911e-06	-0.06331831	0.01541225
1.9e+08	-0.05483644	0.01767244	-3.071898e-05	-2.090618e-05	-0.01584009	-0.002497622	-2.154159e-05	-7.610321e-06
	-3.071898e-05	-2.090618e-05	-0.0543754	0.01839021	-2.165374e-05	-4.61153e-06	-0.01601706	-0.001239226
	-0.01584009	-0.002497622	-2.165374e-05	-4.61153e-06	-0.05511793	0.0180969	-1.762171e-05	-3.02278e-06
	-2.154159e-05	-7.610321e-06	-0.01601706	-0.001239225	-1.762171e-05	-3.02278e-06	-0.05469155	0.01875261
2e+08	-0.04617796	0.01858709	-3.305012e-05	-1.13198e-05	-0.01645224	0.00865436	-2.434331e-05	-2.244847e-06
	-3.305012e-05	-1.13198e-05	-0.04572554	0.01920598	-2.174556e-05	1.790362e-06	-0.01650882	0.0100174
	-0.01645224	0.00865436	-2.174556e-05	1.790361e-06	-0.046459	0.01913486	-1.875824e-05	1.712486e-06
	-2.434331e-05	-2.244848e-06	-0.01650882	0.0100174	-1.875824e-05	1.712486e-06	-0.04603336	0.01967109
2.1e+08	-0.03809062	0.0172979	-3.353133e-05	-1.089827e-06	-0.0138294	0.01981997	-2.594542e-05	4.049457e-06
	-3.353133e-05	-1.089827e-06	-0.0376691	0.0178294	-2.095378e-05	8.263148e-06	-0.01374812	0.0212501
	-0.0138294	0.01981997	-2.095378e-05	8.263148e-06	-0.03833806	0.01797289	-1.902345e-05	6.838401e-06
	-2.594542e-05	4.049457e-06	-0.01374812	0.0212501	-1.902345e-05	6.838401e-06	-0.03794137	0.01839873
2.2e+08	-0.03105061	0.01417657	-3.189928e-05	9.37084e-06	-0.008033808	0.03006008	-2.604865e-05	1.09938e-05
	-3.189928e-05	9.37084e-06	-0.03067799	0.01463641	-1.918125e-05	1.467061e-05	-0.007809089	0.03151425
	-0.008033808	0.03006008	-1.918125e-05	1.467061e-05	-0.03123031	0.01497097	-1.827461e-05	1.218258e-05
	-2.604865e-05	1.09938e-05	-0.007809089	0.03151425	-1.827461e-05	1.218258e-05	-0.03088675	0.01530198
2.3e+08	-0.02537808	0.009678371	-2.799737e-05	1.956313e-05	0.0005996804	0.03847672	-2.441865e-05	1.821949e-05
	-2.799737e-05	1.956313e-05	-0.02506708	0.01008503	-1.634639e-05	2.083899e-05	0.0009598124	0.03991037
	0.0005996806	0.03847672	-1.634639e-05	2.083899e-05	-0.025459	0.01057362	-1.639756e-05	1.752753e-05
	-2.441865e-05	1.821949e-05	0.0009598125	0.03991037	-1.639756e-05	1.752753e-05	-0.02518705	0.01083008
2.4e+08	-0.0212304	0.004284839	-2.179844e-05	2.893028e-05	0.01148338	0.04429258	-2.091379e-05	2.528021e-05
	-2.179844e-05	2.893028e-05	-0.02098817	0.004657697	-1.239882e-05	2.654831e-05	0.01195704	0.045664
	0.01148338	0.04429258	-1.239882e-05	2.654831e-05	-0.02118748	0.005252747	-1.332037e-05	2.261174e-05
	-2.091379e-05	2.528021e-05	0.01195704	0.045664	-1.332037e-05	2.261174e-05	-0.02099894	0.005457486
2.5e+08	-0.01861549	-0.001549557	-1.342021e-05	3.689148e-05	0.02382061	0.04692223	-1.550629e-05	3.167677e-05
	-1.342021e-05	3.689148e-05	-0.01844398	-0.001192034	-7.335974e-06	3.153663e-05	0.02437323	0.04819692
	0.02382061	0.04692223	-7.335974e-06	3.153663e-05	-0.01843316	-0.0005440358	-9.031919e-06	2.713221e-05
	-1.550629e-05	3.167677e-05	0.02437323	0.04819692	-9.03192e-06	2.713221e-05	-0.01833317	-0.0003679065
2.6e+08	-0.01742225	-0.007439116	-3.132418e-06	4.287727e-05	0.03666924	0.04602734	-8.300507e-06	3.688413e-05
	-3.132418e-06	4.287727e-05	-0.01731924	-0.007080803	-1.225569e-06	3.550838e-05	0.03725609	0.04718172
	0.03666924	0.04602734	-1.225569e-06	3.550838e-05	-0.01709532	-0.006435075	-3.59988e-06	3.075916e-05
	-8.300507e-06	3.688413e-05	0.03725609	0.04718172	-3.59988e-06	3.075916e-05	-0.01708315	-0.006266244
2.7e+08	-0.01746015	-0.01309304	8.643682e-06	4.636711e-05	0.04901892	0.0415486	4.558891e-07	4.038519e-05
	8.643682e-06	4.636711e-05	-0.01742067	-0.01272104	5.776423e-06	3.815397e-05	0.04958867	0.04257293
	0.04901892	0.0415486	5.776423e-06	3.815397e-05	-0.01699493	-0.01213014	2.813352e-06	3.315697e-05
	4.558891e-07	4.038519e-05	0.04958867	0.04257293	2.813352e-06	3.315697e-05	-0.0170654	-0.01195054
2.8e+08	-0.01850269	-0.01832473	2.133931e-05	4.692639e-05	0.05987394	0.03371528	1.036555e-05	4.170829e-05
	2.133931e-05	4.692639e-05	-0.0185206	-0.01792955	1.34125e-05	3.917834e-05	0.0603729	0.03461517
	0.05987394	0.03371528	1.34125e-05	3.917834e-05	-0.01791675	-0.01743958	9.938875e-06	3.401389e-05
	1.036555e-05	4.170829e-05	0.0603729	0.03461517	9.938875e-06	3.401389e-05	-0.01806197	-0.01723517
2.9e+08	-0.020327	-0.02304368	3.425487e-05	4.424638e-05	0.06833408	0.02302936	2.088701e-05	4.047113e-05
	3.425487e-05	4.424638e-05	-0.02039643	-0.02261889	2.131861e-05	3.833671e-05	0.06871077	0.02382621
	0.06833408	0.02302936	2.131861e-05	3.833671e-05	-0.01964738	-0.02226747	1.740519e-05	3.307766e-05
	2.088701e-05	4.047113e-05	0.06871077	0.02382621	1.740519e-05	3.307766e-05	-0.01985857	-0.02202829
3e+08	-0.02274513	-0.02723645	4.658469e-05	3.818264e-05	0.07366658	0.01022809	3.135272e-05	3.642404e-05
	4.658469e-05	3.818264e-05	-0.02286147	-0.02677775	2.903636e-05	3.547366e-05	0.07387616	0.01095816
	0.07366658	0.01022809	2.903636e-05	3.547366e-05	-0.02200657	-0.02659211	2.475135e-05	3.019086e-05
	3.135272e-05	3.642404e-05	0.07387616	0.01095816	2.475135e-05	3.019086e-05	-0.02227557	-0.02631165
3.1e+08	-0.0256237	-0.03093917	5.744813e-05	2.879655e-05	0.07536524	-0.003770621	4.099993e-05	2.94943e-05
	5.744813e-05	2.879655e-05	-0.02578421	-0.0304432	3.604014e-05	3.055467e-05	0.07537362	-0.003058375
	0.07536524	-0.003770621	3.604014e-05	3.055467e-05	-0.02486633	-0.03044026	3.145364e-05	2.532317e-05
	4.099993e-05	2.94943e-05	0.07537362	-0.003058375	3.145364e-05	2.532317e-05	-0.02518672	-0.03011435
3.2e+08	-0.02889193	-0.0342079	6.594718e-05	1.638264e-05	0.07319143	-0.0179365	4.901753e-05	1.982232e-05
	6.594718e-05	1.638264e-05	-0.02909578	-0.03367103	4.176971e-05	2.369716e-05	0.07297873	-0.01718352
	0.07319143	-0.0179365	4.176971e-05	2.369716e-05	-0.02815886	-0.0338564	3.696518e-05	1.85911e-05
	4.901753e-05	1.982232e-05	0.07297873	-0.01718352	3.696518e-05	1.85911e-05	-0.02852648	-0.03348182
3.3e+08	-0.03253802	-0.03708901	7.12277e-05	1.492941e-06	0.06719564	-0.03120299	5.460938e-05	7.783394e-06
	7.12277e-05	1.492941e-06	-0.03278584	-0.0365061	4.568056e-05	1.517762e-05	0.06675879	-0.03034514
	0.06719564	-0.03120299	4.568056e-05	1.517762e-05	-0.03187211	-0.03687596	4.075857e-05	1.027085e-05
	5.460938e-05	7.783394e-06	0.06675879	-0.03034514	4.075857e-05	1.027085e-05	-0.03228507	-0.03644894
3.4e+08	-0.03659637	-0.03959476	7.255927e-05	-1.506576e-05	0.05771923	-0.04254718	5.706555e-05	-6.004237e-06
	7.255927e-05	-1.506576e-05	-0.03688934	-0.03895825	4.728937e-05	5.43386e-06	0.05707352	-0.04151949
	0.05771923	-0.04254718	4.728937e-05	5.43386e-06	-0.03603701	-0.03949988	4.23748e-05	7.896251e-07
	5.706555e-05	-6.004237e-06	0.05707352	-0.04151949	4.23748e-05	7.896251e-07	-0.03649499	-0.03901466
3.5e+08	-0.04112633	-0.04168545	6.94192e-05	-3.225474e-05	0.04537395	-0.0510669	5.583926e-05	-2.070785e-05
	6.94192e-05	-3.225474e-05	-0.04146482	-0.0409847	4.622431e-05	-4.951524e-06	0.04455326	-0.04980879
	0.04537395	-0.0510669	4.622431e-05	-4.951524e-06	-0.0407074	-0.04167883	4.146707e-05	-9.291439e-06
	5.583926e-05	-2.070785e-05	0.04455326	-0.04980879	4.146707e-05	-9.291439e-06	-0.04121034	-0.04112663
3.6e+08	-0.04618699	-0.04325996	6.156571e-05	-4.886672e-05	0.0310022	-0.05605187	5.06178e-05	-3.531712e-05
	6.156571e-05	-4.886672e-05	-0.04656905	-0.04248127	4.226377e-05	-1.528778e-05	0.03005778	-0.05451249
	0.0310022	-0.05605187	4.226377e-05	-1.528778e-05	-0.04593368	-0.04330287	3.783906e-05	-1.93093e-05
	5.06178e-05	-3.531712e-05	0.03005778	-0.05451249	3.783906e-05	-1.93093e-05	-0.04648017	-0.04267134
3.7e+08	-0.0518082	-0.04415524	4.910583e-05	-6.360188e-05	0.01561769	-0.0570421	4.137964e-05	-4.872072e-05
	4.910583e-05	-6.360188e-05	-0.05222791	-0.04328224	3.537258e-05	-2.480827e-05	0.01461542	-0.05518533
	0.01561769	-0.0570421	3.537258e-05	-2.480827e-05	-0.05173518	-0.04420306	3.147007e-05	-2.854508e-05
	4.137964e-05	-4.872072e-05	0.01461542	-0.05518533	3.147007e-05	-2.854508e-05	-0.05232037	-0.04347633
3.8e+08	-0.05796313	-0.04415687	3.251517e-05	-7.518156e-05	0.0003321954	-0.05386779	2.842573e-05	-5.979599e-05
	3.251517e-05	-7.518156e-05	-0.05840894	-0.04317178	2.571723e-05	-3.272959e-05	-0.0006518087	-0.05167661
	0.0003321954	-0.05386779	2.571723e-05	-3.272959e-05	-0.05807341	-0.04416171	2.253513e-05	-3.626557e-05
	2.842573e-05	-5.979599e-05	-0.0006518087	-0.05167661	2.253513e-05	-3.626557e-05	-0.05868692	-0.04332153
3.9e+08	-0.06454312	-0.04301832	1.264142e-05	-8.245962e-05	-0.01372825	-0.04666946	1.237633e-05	-6.750814e-05
	1.264142e-05	-8.245962e-05	-0.06499657	-0.04190384	1.367531e-05	-3.830062e-05	-0.01461322	-0.0441489
	-0.01372825	-0.04666946	1.367531e-05	-3.830062e-05	-0.06482618	-0.04293247	1.140015e-05	-4.178065e-05
	1.237633e-05	-6.750814e-05	-0.01461322	-0.0441489	1.140015e-05	-4.178065e-05	-0.06545033	-0.04196004
4e+08	-0.07133881	-0.04049245	-9.343352e-06	-8.453508e-05	-0.02551041	-0.03589119	-5.850275e-06	-7.10039e-05
	-9.343352e-06	-8.453508e-05	-0.07177387	-0.03923433	-1.696445e-07	-4.085913e-05	-0.02621755	-0.03306955
	-0.02551041	-0.03589119	-1.696445e-07	-4.085913e-05	-0.07177231	-0.04027193	-1.378592e-06	-4.448995e-05
	-5.850275e-06	-7.10039e-05	-0.02621755	-0.03306955	-1.378592e-06	-4.448995e-05	-0.07238105	-0.03915072
4.1e+08	-0.07803321	-0.03636939	-3.202822e-05	-8.084552e-05	-0.03411582	-0.02225066	-2.511228e-05	-6.969466e-05
	-3.202822e-05	-8.084552e-05	-0.07841661	-0.03495943	-1.505186e-05	-3.98884e-05	-0.03457529	-0.01917868
	-0.03411582	-0.02225066	-1.505186e-05	-3.98884e-05	-0.07858336	-0.03597667	-1.508845e-05	-4.393419e-05
	-2.511228e-05	-6.969466e-05	-0.03457529	-0.01917868	-1.508845e-05	-4.393419e-05	-0.07914218	-0.03469586
4.2e+08	-0.08420734	-0.03051683	-5.386218e-05	-7.122605e-05	-0.03887174	-0.006685767	-4.411529e-05	-6.33176e-05
	-5.386218e-05	-7.122605e-05	-0.08449998	-0.02895598	-3.006022e-05	-3.506965e-05	-0.03902898	-0.003433662
	-0.03887174	-0.006685767	-3.006022e-05	-3.506965e-05	-0.0848309	-0.02992438	-2.888634e-05	-3.983641e-05
	-4.411529e-05	-6.33176e-05	-0.03902898	-0.003433662	-2.888634e-05	-3.983641e-05	-0.08529815	-0.0284824
4.3e+08	-0.08936236	-0.02292363	-7.327606e-05	-5.593657e-05	-0.03938196	0.009716982	-6.151611e-05	-5.196149e-05
	-7.327606e-05	-5.593657e-05	-0.08952209	-0.02122467	-4.418333e-05	-2.63175e-05	-0.03920335	0.01306446
	-0.03938196	0.009716982	-4.418333e-05	-2.63175e-05	-0.09001012	-0.02211604	-4.185052e-05	-3.213887e-05
	-6.151611e-05	-5.196149e-05	-0.03920335	0.01306446	-4.185052e-05	-3.213887e-05	-0.09033969	-0.02052391
4.4e+08	-0.09295751	-0.01373296	-8.879962e-05	-3.565158e-05	-0.03555594	0.02580383	-7.601919e-05	-3.606565e-05
	-8.879962e-05	-3.565158e-05	-0.09294289	-0.01192229	-5.63776e-05	-1.381748e-05	-0.03503236	0.02915379
	-0.03555594	0.02580383	-5.63776e-05	-1.381748e-05	-0.09357694	-0.01270813	-5.303482e-05	-2.102483e-05
	-7.601919e-05	-3.606565e-05	-0.03503236	0.02915379	-5.303482e-05	-2.102483e-05	-0.09372247	-0.01099171
4.5e+08	-0.09445942	-0.003264106	-9.916519e-05	-1.141038e-05	-0.02761301	0.04043946	-8.645784e-05	-1.640154e-05
	-9.916519e-05	-1.141038e-05	-0.09423437	-0.001382236	-6.563749e-05	1.963882e-06	-0.02676175	0.04369813
	-0.02761301	0.04043946	-6.563749e-05	1.963882e-06	-0.094999	-0.002033938	-6.153558e-05	-6.923437e-06
	-8.645784e-05	-1.640154e-05	-0.02676175	0.04369813	-6.153558e-05	-6.923437e-06	-0.09491871	-0.0002348066
4.6e+08	-0.09340262	0.007982965	-0.0001033901	1.544294e-05	-0.0160631	0.05258774	-9.187599e-05	5.976342e-06
	-0.0001033901	1.544294e-05	-0.09294116	0.009882707	-7.107229e-05	2.02939e-05	-0.01492723	0.05566808
	-0.0160631	0.05258774	-7.107229e-05	2.02939e-05	-0.09381588	0.009393452	-6.655337e-05	9.492322e-06
	-9.187599e-05	5.976342e-06	-0.01492723	0.05566808	-6.655337e-05	9.492322e-06	-0.09347801	0.0112189
4.7e+08	-0.08945191	0.0193435	-0.0001008393	4.334228e-05	-0.001667753	0.06138309	-9.158863e-05	2.97901e-05
	-0.0001008393	4.334228e-05	-0.0887426	0.02119779	-7.197731e-05	4.01909e-05	-0.0003135469	0.06421175
	-0.001667753	0.06138309	-7.197731e-05	4.01909e-05	-0.08969921	0.02089802	-6.745759e-05	2.73365e-05
	-9.158863e-05	2.97901e-05	-0.0003135469	0.06421175	-6.745759e-05	2.73365e-05	-0.08908711	0.02268131
4.8e+08	-0.08245601	0.03002692	-9.12643e-05	7.057793e-05	0.01461385	0.06618637	-8.522479e-05	5.359038e-05
