# GHz S RI R 45
0.000     0.054821850848    0.026901028969    -0.000013609081    -0.000013780080    0.010846772076    0.026531224530    -0.000012606218    -0.000009558830
            -0.000013609027    -0.000013780078    0.054335552952    0.025057088378    -0.000039236427    -0.000015199036    0.010803052145    0.026959851531
            0.010846818213    0.026531207829    -0.000039236869    -0.000015198805    0.054863854230    0.026540341440    -0.000011866825    -0.000014714310
            -0.000012606269    -0.000009558765    0.010803052987    0.026959852271    -0.000011873655    -0.000014713169    0.054433675288    0.024766056150
0.025     0.102201863541    0.038160178136    -0.000036920083    -0.000005707303    0.053982978180    0.049912397374    -0.000026508797    -0.000005665284
            -0.000036920143    -0.000005707688    0.095028539444    0.040102774802    -0.000063615803    0.000003083163    0.050435770117    0.054918475910
            0.053981913717    0.049913407218    -0.000063615885    0.000003083167    0.101770928991    0.037682050170    -0.000036686658    -0.000017536821
            -0.000026507697    -0.000005665668    0.050433201115    0.054923247654    -0.000036687028    -0.000017536313    0.094758171403    0.039687141410
0.050     0.159504978896    -0.019255746394    -0.000029249340    0.000026209240    0.123633008966    0.007634421143    -0.000032622516    0.000014901401
            -0.000029249167    0.000026209058    0.149807233163    0.002197520725    -0.000060912181    0.000047949636    0.122811291954    0.028011936129
            0.123633078853    0.007633613847    -0.000060912184    0.000047949621    0.158554225328    -0.019395012117    -0.000060889758    0.000011577668
            -0.000032622509    0.000014901411    0.122811307053    0.028011959868    -0.000060889753    0.000011577689    0.148999163057    0.001884508199
0.075     0.135209265603    -0.109185646905    -0.000019517647    0.000009497045    0.113842092605    -0.084177094897    -0.000027860859    0.000027883606
            -0.000019517721    0.000009496967    0.147571172350    -0.069696715154    -0.000041661009    0.000057109370    0.133968599481    -0.054037312891
            0.113841909653    -0.084177359142    -0.000041661009    0.000057109371    0.134170401298    -0.108607924513    -0.000061580472    0.000049353457
            -0.000027860852    0.000027883599    0.133968613471    -0.054037304941    -0.000061580462    0.000049353449    0.146447279828    -0.069455738447
0.100     0.049004205550    -0.143457242875    -0.000068991678    0.000036059821    0.028363895084    -0.125967731165    -0.000026141368    0.000052660360
            -0.000068991779    0.000036059874    0.093093305523    -0.114568011895    -0.000053415696    0.000099474603    0.072751831384    -0.110484276467
            0.028363644447    -0.125967797851    -0.000053415700    0.000099474612    0.048532565066    -0.142268403700    -0.000043294427    0.000100735411
            -0.000026141393    0.000052660341    0.072751833027    -0.110484287358    -0.000043294437    0.000100735385    0.092128134073    -0.113577746790
0.125     -0.017962074008    -0.101347931776    -0.000024988600    0.000150740660    -0.045276228981    -0.079145709430    0.000016854563    0.000092832585
            -0.000024988593    0.000150740733    0.031640558584    -0.105620377432    0.000032715942    0.000192289445    -0.001987675087    -0.093891084807
            -0.045276328655    -0.079145659323    0.000032715947    0.000192289454    -0.017563570448    -0.100139591492    0.000036227199    0.000152141963
            0.000016854555    0.000092832595    -0.001987680109    -0.093891089702    0.000036227188    0.000152141955    0.031415172287    -0.104057032736
0.150     -0.016698952870    -0.046501657345    0.000150126366    0.000141082818    -0.040489238578    -0.010554935251    0.000106516635    0.000071008417
            0.000150126366    0.000141082818    0.006088565951    -0.065120860830    0.000221639594    0.000140248407    -0.024469232457    -0.035599333549
            -0.040489238578    -0.010554935251    0.000221639597    0.000140248403    -0.015659893650    -0.045854597324    0.000168059600    0.000112087911
            0.000106516632    0.000071008420    -0.024469293049    -0.035599408392    0.000168059598    0.000112087914    0.006977665590    -0.063623071630
0.175     0.014460804952    -0.044429860795    0.000213383687    -0.000034941553    0.007054279464    -0.000417711348    0.000142614651    -0.000034030721
            0.000213383679    -0.000034941543    0.022046436786    -0.037885368604    0.000276022289    -0.000074296803    0.008307597264    -0.001529954487
            0.007054275844    -0.000417730185    0.000276022289    -0.000074296803    0.015552573842    -0.044665878450    0.000227498708    -0.000042044813
            0.000142614651    -0.000034030721    0.008307593530    -0.001529934461    0.000227498708    -0.000042044817    0.023737036386    -0.037551520202
0.200     0.012722434875    -0.074848844758    0.000120428341    -0.000154610019    0.017965908749    -0.039457440425    0.000082546339    -0.000126755573
            0.000120428344    -0.000154610017    0.048133064540    -0.041376079290    0.000153949277    -0.000233144836    0.043944619428    -0.017059254285
            0.017965909023    -0.039457439202    0.000153949277    -0.000233144836    0.013445762546    -0.075566266115    0.000149502175    -0.000193731181
            0.000082546334    -0.000126755576    0.043944651857    -0.017059190091    0.000149502168    -0.000193731174    0.049670278136    -0.042122794453
0.225     -0.031733586488    -0.088837809668    0.000030645886    -0.000184701815    -0.024960632465    -0.060924571618    -0.000011909584    -0.000150515761
            0.000030645900    -0.000184701782    0.052582177826    -0.077346963254    0.000003535683    -0.000273726726    0.040297409647    -0.059031518784
            -0.024960639271    -0.060924618541    0.000003535688    -0.000273726726    -0.031636695190    -0.089534296574    -0.000002222548    -0.000250764091
            -0.000011909581    -0.000150515762    0.040297409647    -0.059031518784    -0.000002222548    -0.000250764091    0.053000961905    -0.078623775086
0.250     -0.078643686752    -0.059754513220    -0.000070848488    -0.000215644942    -0.071356763818    -0.030269970078    -0.000097741885    -0.000124192659
            -0.000070848488    -0.000215644942    0.014665059985    -0.113119717553    -0.000146551767    -0.000264192788    -0.004002343525    -0.082721852611
            -0.071356763818    -0.030269970078    -0.000146551767    -0.000264192788    -0.078697384244    -0.059863304323    -0.000152844784    -0.000210929617
            -0.000097741885    -0.000124192659    -0.004002365134    -0.082721850564    -0.000152844784    -0.000210929617    0.014204489720    -0.113655924925
0.275     -0.093296206479    -0.005143432873    -0.000243807907    -0.000166749444    -0.075001845237    0.026400004378    -0.000170436430    -0.000056237623
            -0.000243807907    -0.000166749444    -0.051752740146    -0.106205692747    -0.000322420839    -0.000167456990    -0.056697127460    -0.060210339367
            -0.075001845237    0.026400004378    -0.000322420839    -0.000167456990    -0.092651652712    -0.004909957451    -0.000265365863    -0.000096671513
            -0.000170436430    -0.000056237623    -0.056697127460    -0.060210339367    -0.000265365863    -0.000096671513    -0.051725071955    -0.105644719953
0.300     -0.070358155802    0.042962023404    -0.000355000113    0.000051624151    -0.039244411117    0.063363307876    -0.000200235290    0.000065700476
            -0.000355000113    0.000051624151    -0.094887930927    -0.043483679044    -0.000431697399    0.000079859670    -0.076295240959    -0.002496661138
            -0.039244412170    0.063363309576    -0.000431697399    0.000079859670    -0.068866975426    0.042490598885    -0.000309231607    0.000080368319
            -0.000200235290    0.000065700476    -0.076295240959    -0.002496661138    -0.000309231607    0.000080368319    -0.093387085111    -0.043009769877
0.325     -0.026970099240    0.058649792764    -0.000245169906    0.000322018711    0.003613155620    0.060282163515    -0.000130047605    0.000209621042
            -0.000245169906    0.000322018711    -0.068725203281    0.028445918667    -0.000316295464    0.000402992414    -0.042693505700    0.047676636769
            0.003613155620    0.060282163515    -0.000316295464    0.000402992414    -0.025680919939    0.056766423199    -0.000228175048    0.000293322214
            -0.000130047605    0.000209621042    -0.042693505700    0.047676636769    -0.000228175048    0.000293322214    -0.066426068717    0.027317537431
0.350     0.002622429755    0.037759678976    0.000048172286    0.000429317196    0.019984323288    0.031650869716    0.000049776997    0.000275575665
            0.000048172287    0.000429317206    0.001341371642    0.037762705033    0.000047724446    0.000566447922    0.012714549844    0.045070451191
            0.019984327081    0.031650872052    0.000047724446    0.000566447922    0.002373708469    0.035262482723    0.000021430177    0.000426860947
            0.000049776990    0.000275575656    0.012714552802    0.045070458669    0.000021430192    0.000426860946    0.002647329398    0.034872623331
0.375     -0.009588030808    0.011308422333    0.000332691663    0.000292137949    0.002185133029    0.009825159885    0.000244064402    0.000180373979
            0.000332691663    0.000292137949    0.028698838072    -0.024189245485    0.000439303656    0.000399486625    0.029894596803    -0.004843517447
            0.002185133029    0.009825159885    0.000439303656    0.000399486625    -0.011202854760    0.009737387767    0.000335600344    0.000323244450
            0.000244064402    0.000180373979    0.029894596803    -0.004843517447    0.000335600344    0.000323244450    0.028255823182    -0.027460318380
0.400     -0.045244657073    0.026045126247    0.000449258763    0.000008264338    -0.025151190075    0.027675069876    0.000311241244    -0.000038326552
            0.000449258763    0.000008264336    -0.032097726573    -0.071587597455    0.000592817170    0.000013542324    -0.019163791721    -0.035747466267
            -0.025151190075    0.027675069876    0.000592817170    0.000013542326    -0.046349690421    0.026216238660    0.000472683163    0.000004378300
            0.000311241244    -0.000038326552    -0.019163791721    -0.035747466267    0.000472683163    0.000004378300    -0.033873572232    -0.073491964522
0.425     -0.043601275459    0.082605141653    0.000359830952    -0.000276885337    -0.017551444105    0.067245235762    0.000202855588    -0.000227812101
            0.000359830947    -0.000276885344    -0.110794311180    -0.025044907101    0.000472947688    -0.000344412365    -0.071342464329    0.004374403067
            -0.017551444105    0.067245235762    0.000472947696    -0.000344412371    -0.043133031125    0.082895963927    0.000347241821    -0.000282874023
            0.000202855588    -0.000227812101    -0.071342464329    0.004374403067    0.000347241821    -0.000282874023    -0.112252667114    -0.025822353569
0.450     0.019428304224    0.117125722793    0.000123999594    -0.000445563265    0.028470889664    0.082613065288    0.000027539526    -0.000288142633
            0.000123999594    -0.000445563265    -0.106686882015    0.074880641031    0.000199253092    -0.000566807160    -0.057923322638    0.075659552291
            0.028470889664    0.082613065288    0.000199253092    -0.000566807160    0.020540328441    0.116003086600    0.000130159699    -0.000407964397
            0.000027539526    -0.000288142633    -0.057923322638    0.075659552291    0.000130159699    -0.000407964397    -0.107471682109    0.074192386633
0.475     0.087537359411    0.077474749084    -0.000166084448    -0.000462976004    0.067111852294    0.046851769752    -0.000127994635    -0.000272873337
            -0.000166084448    -0.000462976004    -0.019261453646    0.119838731444    -0.000174796972    -0.000640007240    0.012575364583    0.097985278853
            0.067111852294    0.046851769752    -0.000174796972    -0.000640007240    0.087579261360    0.075215016009    -0.000100143870    -0.000459615354
            -0.000127994635    -0.000272873337    0.012575364583    0.097985278853    -0.000100143870    -0.000459615354    -0.019912565210    0.118720064641
0.500     0.083337028032    -0.001219483580    -0.000468127829    -0.000310561349    0.051105058224    -0.005129376394    -0.000314736900    -0.000190929397
            -0.000468127837    -0.000310561355    0.053376666888    0.066288022312    -0.000618927597    -0.000457886882    0.062367326780    0.046721794558
            0.051105058224    -0.005129376394    -0.000618927589    -0.000457886876    0.081916480367    -0.002921316333    -0.000435480155    -0.000382876783
            -0.000314736900    -0.000190929397    0.062367326780    0.046721794558    -0.000435480155    -0.000382876783    0.052370906369    0.064895414019
0.525     0.009882114909    -0.021033908885    -0.000642133552    0.000101040379    -0.007948133054    -0.006809001024    -0.000444840348    0.000100217938
            -0.000642133552    0.000101040379    0.027980232947    -0.013347368983    -0.000867518298    0.000107638913    0.033461584945    -0.018396593644
            -0.007948133054    -0.006809001024    -0.000867518298    0.000107638913    0.008486604593    -0.021208870613    -0.000684193208    0.000045976868
            -0.000444840348    0.000100217938    0.033461584945    -0.018396593644    -0.000684193208    0.000045976868    0.026526850743    -0.014829168651
0.550     -0.024360350367    0.047168223775    -0.000390779473    0.000573707701    -0.023565790647    0.053751061887    -0.000227554384    0.000440981456
            -0.000390779473    0.000573707701    -0.054233464288    -0.008436835754    -0.000539860299    0.000727666749    -0.037541076509    -0.007218298327
            -0.023565790647    0.053751061887    -0.000539860299    0.000727666749    -0.024397426534    0.047452760517    -0.000431038692    0.000560991099
            -0.000227554384    0.000440981456    -0.037541076509    -0.007218298327    -0.000431038692    0.000560991099    -0.056333272544    -0.009765675569
0.575     0.039477041440    0.102653440775    0.000128224940    0.000642480024    0.031732736229    0.091225936335    0.000162936436    0.000427075059
            0.000128224940    0.000642480024    -0.077719603443    0.072619364820    0.000107284874    0.000836230902    -0.051465266408    0.061883002989
            0.031732736229    0.091225936335    0.000107284874    0.000836230902    0.040252699173    0.101916993844    0.000078784262    0.000627811620
            0.000162936436    0.000427075059    -0.051465266408    0.061883002989    0.000078784262    0.000627811620    -0.080606437462    0.071978479419
0.600     0.122632705237    0.058000051590    0.000441099976    0.000368373396    0.089552853872    0.052622585858    0.000329316839    0.000188532774
            0.000441099984    0.000368373402    -0.016543379973    0.127458516363    0.000525935463    0.000536875371    0.003841116779    0.100726367700
            0.089552853872    0.052622585858    0.000525935463    0.000536875371    0.122883843755    0.056273414420    0.000363321034    0.000403210275
            0.000329316839    0.000188532774    0.003841116779    0.100726367700    0.000363321034    0.000403210275    -0.019653035476    0.128346281916
0.625     0.115233809139    -0.042403997591    0.000536529802    0.000103483362    0.074168963943    -0.015695878482    0.000348404341    0.000026396870
            0.000536529802    0.000103483362    0.052138530027    0.102012949577    0.000710529491    0.000202705090    0.057727398595    0.067717149419
            0.074168963943    -0.015695878482    0.000710529491    0.000202705090    0.114608609951    -0.044063114931    0.000512353664    0.000201846526
            0.000348404341    0.000026396870    0.057727398595    0.067717149419    0.000512353664    0.000201846526    0.050327273341    0.104352124319
0.650     0.018348374803    -0.073017968336    0.000613122614    -0.000218851806    0.002839878670    -0.020304122125    0.000400558608    -0.000180524677
            0.000613122614    -0.000218851806    0.055777655598    0.040934247313    0.000828897314    -0.000247504468    0.046658535880    0.009115046248
            0.002839878670    -0.020304122125    0.000828897314    -0.000247504468    0.017612054229    -0.074107312479    0.000663017312    -0.000141337119
            0.000400558608    -0.000180524677    0.046658535880    0.009115046248    0.000663017312    -0.000141337119    0.056168819324    0.043037061461
0.675     -0.035346894274    0.008613899025    0.000369178803    -0.000713056714    -0.018973564569    0.056460777387    0.000205710251    -0.000520514150
            0.000369178803    -0.000713056714    0.007103734178    0.024307939485    0.000523339883    -0.000881945210    -0.012767690747    -0.001077967818
            -0.018973564569    0.056460777387    0.000523339883    -0.000881945210    -0.035753673961    0.007504590988    0.000440711521    -0.000669171726
            0.000205710251    -0.000520514150    -0.012767690747    -0.001077967818    0.000440711521    -0.000669171726    0.008325272057    0.024217646205
0.700     0.031366862912    0.076104160509    -0.000310699544    -0.000802716636    0.060236347785    0.095711379355    -0.000283314351    -0.000531678423
            -0.000310699544    -0.000802716636    -0.018538066313    0.063476170163    -0.000300661562    -0.001032158749    -0.044177175758    0.051939808821
            0.060236347785    0.095711379355    -0.000300661562    -0.001032158749    0.030720631650    0.074686216748    -0.000196737852    -0.000795516616
            -0.000283314351    -0.000531678423    -0.044177175758    0.051939808821    -0.000196737852    -0.000795516616    -0.019057991581    0.061874685583
0.725     0.117587262714    0.026915903003    -0.000746156956    -0.000305008538    0.131515632888    0.032475934156    -0.000543886837    -0.000147610250
            -0.000746156956    -0.000305008538    0.004312892116    0.099538031973    -0.000877918066    -0.000486022975    -0.017159934589    0.100631709473
            0.131515632888    0.032475934156    -0.000877918066    -0.000486022975    0.116477600012    0.025834843611    -0.000634218519    -0.000407045390
            -0.000543886837    -0.000147610250    -0.017159934589    0.100631709473    -0.000634218519    -0.000407045390    0.001677605269    0.099140664247
0.750     0.101086857662    -0.079621983075    -0.000669064888    0.000218502275    0.103796205729    -0.063437669032    -0.000451648156    0.000212546340
            -0.000669064888    0.000218502275    0.038502949939    0.101490969701    -0.000875194133    0.000153980478    0.028886569637    0.105836119060
            0.103796205729    -0.063437669032    -0.000875194133    0.000153980478    0.100274132627    -0.080011206611    -0.000678843114    0.000055715997
            -0.000451648156    0.000212546340    0.028886569637    0.105836119060    -0.000678843114    0.000055715997    0.036250780797    0.103843931949
0.775     -0.008307338566    -0.108025045531    -0.000415586198    0.000491885721    0.006321708824    -0.077098682808    -0.000240943808    0.000392997316
            -0.000415586198    0.000491885721    0.055380708530    0.086924129131    -0.000617990095    0.000552390115    0.051179399162    0.080053004945
            0.006321708824    -0.077098682808    -0.000617990095    0.000552390115    -0.008161178447    -0.108581537717    -0.000522997853    0.000398687850
