# GHz S RI R 45
0.000     0.053674707235    0.024760375319    0.000000962953    0.000000401333    0.010653381540    0.027078117353    0.000001195048    0.000000768454
            0.000000962919    0.000000401352    0.054335552952    0.025057088378    0.000001180361    0.000000710424    0.010803052145    0.026959851531
            0.010653335332    0.027078134459    0.000001180375    0.000000710391    0.053613392042    0.024495783718    0.000001428541    0.000001204524
            0.000001195025    0.000000768512    0.010803052987    0.026959852271    0.000001428558    0.000001204531    0.054433675288    0.024766056150
0.025     0.093047806753    0.040742034282    0.000002066618    0.000000564145    0.049572416295    0.055887729120    0.000002492304    0.000001672688
            0.000002066611    0.000000564152    0.095028539444    0.040102774802    0.000003189937    0.000000592061    0.050435770117    0.054918475910
            0.049570801376    0.055888415650    0.000003189943    0.000000592041    0.092752226862    0.040321362205    0.000003344954    0.000001479374
            0.000002492318    0.000001672682    0.050433201115    0.054923247654    0.000003344958    0.000001479366    0.094758171403    0.039687141410
0.050     0.147660695416    0.007316734079    0.000001674110    -0.000001010279    0.121861578046    0.032765045861    0.000002695714    0.000000826387
            0.000001674101    -0.000001010276    0.149807233163    0.002197520725    0.000002758063    -0.000002757565    0.122811291954    0.028011936129
            0.121861829974    0.032764262918    0.000002758062    -0.000002757570    0.146811793732    0.007063765184    0.000003891979    -0.000000946701
            0.000002695714    0.000000826385    0.122811307053    0.028011959868    0.000003891980    -0.000000946702    0.148999163057    0.001884508199
0.075     0.150453130680    -0.060163234167    -0.000001086645    -0.000000563014    0.137651960076    -0.044947054031    0.000000394370    0.000001276403
            -0.000001086645    -0.000000563014    0.147571172350    -0.069696715154    -0.000002094727    -0.000002670175    0.133968599481    -0.054037312891
            0.137651888781    -0.044947304590    -0.000002094729    -0.000002670175    0.149363850765    -0.059786696274    0.000000403882    -0.000001576470
            0.000000394369    0.000001276403    0.133968613471    -0.054037304941    0.000000403879    -0.000001576471    0.146447279828    -0.069455738447
0.100     0.104946376073    -0.105743364247    -0.000002258444    0.000003334421    0.085419621286    -0.102169207114    -0.000001406582    0.000005045510
            -0.000002258445    0.000003334422    0.093093305523    -0.114568011895    -0.000003862544    0.000003719484    0.072751831384    -0.110484276467
            0.085419460080    -0.102169354926    -0.000003862545    0.000003719483    0.104155018865    -0.104648152263    -0.000002251039    0.000003099236
            -0.000001406582    0.000005045511    0.072751833027    -0.110484287358    -0.000002251039    0.000003099237    0.092128134073    -0.113577746790
0.125     0.050207389862    -0.105644361077    0.000001337999    0.000007114231    0.016975632049    -0.094818905449    0.000000919537    0.000010411310
            0.000001338000    0.000007114231    0.031640558584    -0.105620377432    0.000002999854    0.000009097481    -0.001987675087    -0.093891084807
            0.016975453048    -0.094819412937    0.000002999853    0.000009097482    0.050202293701    -0.104128847552    0.000001752371    0.000009838425
            0.000000919538    0.000010411310    -0.001987680109    -0.093891089702    0.000001752373    0.000009838426    0.031415172287    -0.104057032736
0.150     0.021047761888    -0.076734380327    0.000006915983    0.000005272537    -0.009870284305    -0.047926574804    0.000007630041    0.000011732066
            0.000006915982    0.000005272539    0.006088565951    -0.065120860830    0.000012099782    0.000004142877    -0.024469232457    -0.035599333549
            -0.009870410678    -0.047926511001    0.000012099783    0.000004142879    0.022021339347    -0.075394218972    0.000011807733    0.000009850398
            0.000007630040    0.000011732068    -0.024469293049    -0.035599408392    0.000011807732    0.000009850396    0.006977665590    -0.063623071630
0.175     0.025115385552    -0.050032393110    0.000007249743    -0.000000558686    0.012429164193    -0.016039022964    0.000012252195    0.000006399335
            0.000007249743    -0.000000558687    0.022046436786    -0.037885368604    0.000011121878    -0.000006373466    0.008307597264    -0.001529954487
            0.012429223114    -0.016038946940    0.000011121878    -0.000006373466    0.026687626645    -0.049541287630    0.000017862611    0.000000472710
            0.000012252194    0.000006399335    0.008307593530    -0.001529934461    0.000017862611    0.000000472710    0.023737036386    -0.037551520202
0.200     0.046871759271    -0.043746692159    0.000002427188    -0.000002797033    0.042711841542    -0.019064904608    0.000009704598    -0.000000389831
            0.000002427187    -0.000002797033    0.048133064540    -0.041376079290    0.000002408198    -0.000009009600    0.043944619428    -0.017059254285
            0.042711841294    -0.019064902710    0.000002408197    -0.000009009600    0.048448245859    -0.044257329211    0.000013757695    -0.000009861406
            0.000009704598    -0.000000389832    0.043944651857    -0.017059190091    0.000013757695    -0.000009861406    0.049670278136    -0.042122794453
0.225     0.063595397160    -0.070876431594    -0.000000946747    0.000000275092    0.051481698973    -0.052800447711    0.000002079949    -0.000001509917
            -0.000000946748    0.000000275092    0.052582177826    -0.077346963254    -0.000001278742    -0.000003201126    0.040297409647    -0.059031518784
            0.051481698973    -0.052800447711    -0.000001278742    -0.000003201127    0.064434556157    -0.071896860818    0.000003791826    -0.000012179349
            0.000002079949    -0.000001509917    0.040297409647    -0.059031518784    0.000003791826    -0.000012179350    0.053000961905    -0.078623775086
0.250     0.044044138805    -0.116578641947    -0.000000100928    0.000003629925    0.024812183900    -0.086695768764    -0.000003386901    0.000004660082
            -0.000000100928    0.000003629925    0.014665059985    -0.113119717553    0.000002703413    -0.000000220052    -0.004002343525    -0.082721852611
            0.024812183900    -0.086695768764    0.000002703413    -0.000000220052    0.044253451585    -0.117233139929    -0.000002812275    -0.000005911814
            -0.000003386901    0.000004660082    -0.004002365134    -0.082721850564    -0.000002812275    -0.000005911814    0.014204489720    -0.113655924925
0.275     -0.020072399014    -0.135678370619    0.000002071405    0.000004829642    -0.026231931701    -0.089549480932    -0.000001206507    0.000013542556
            0.000002071405    0.000004829642    -0.051752740146    -0.106205692747    0.000005133102    -0.000003047905    -0.056697127460    -0.060210339367
            -0.026231931701    -0.089549480932    0.000005133102    -0.000003047905    -0.019570960246    -0.135653674771    -0.000000773914    0.000003369547
            -0.000001206507    0.000013542556    -0.056697127460    -0.060210339367    -0.000000773914    0.000003369547    -0.051725071955    -0.105644719953
0.300     -0.084920668299    -0.092409106389    0.000004524732    0.000004273245    -0.067270654148    -0.050817784300    0.000008766788    0.000015524857
            0.000004524732    0.000004273245    -0.094887930927    -0.043483679044    0.000003969981    -0.000005768864    -0.076295240959    -0.002496661138
            -0.067270654148    -0.050817784300    0.000003969981    -0.000005768864    -0.083382229740    -0.092461318978    0.000010418685    0.000004109892
            0.000008766788    0.000015524857    -0.076295240959    -0.002496661138    0.000010418685    0.000004109892    -0.093387085111    -0.043009769877
0.325     -0.086844552412    -0.014336754582    0.000006771171    0.000001366881    -0.061706339896    0.004963516844    0.000016271002    0.000006003787
            0.000006771171    0.000001366881    -0.068725203281    0.028445918667    0.000004269371    -0.000005989403    -0.042693505700    0.047676636769
            -0.061706386615    0.004963509763    0.000004269371    -0.000005989403    -0.084617538724    -0.015629795088    0.000019101761    -0.000007665495
            0.000016271001    0.000006003786    -0.042693505700    0.047676636769    0.000019101761    -0.000007665495    -0.066426068717    0.027317537431
0.350     -0.024606939913    0.018802662601    0.000004898084    -0.000004522735    -0.015587136142    0.025922459740    0.000009249632    -0.000008078037
            0.000004898084    -0.000004522735    0.001341371642    0.037762705033    0.000005772030    -0.000011109119    0.012714549844    0.045070451191
            -0.015587134710    0.025922467603    0.000005772030    -0.000011109117    -0.022934175014    0.015975750597    0.000011959866    -0.000026152420
            0.000009249632    -0.000008078037    0.012714552802    0.045070458669    0.000011959865    -0.000026152420    0.002647329398    0.034872623331
0.375     0.017790858968    -0.029929041799    -0.000003874943    -0.000006456041    0.011769107463    -0.008854104778    -0.000010099958    -0.000008290087
            -0.000003874943    -0.000006456041    0.028698838072    -0.024189245485    -0.000001448775    -0.000018868780    0.029894596803    -0.004843517447
            0.011769107463    -0.008854104778    -0.000001448775    -0.000018868780    0.017883985856    -0.033359080398    -0.000011567656    -0.000030912356
            -0.000010099958    -0.000008290087    0.029894596803    -0.004843517447    -0.000011567656    -0.000030912356    0.028255823182    -0.027460318380
0.400     -0.027544423161    -0.088103991287    -0.000011487105    0.000001907326    -0.018144943158    -0.047497431264    -0.000020683659    0.000010149889
            -0.000011487105    0.000001907326    -0.032097726573    -0.071587597455    -0.000016092491    -0.000015597846    -0.019163791721    -0.035747466267
            -0.018144943158    -0.047497431264    -0.000016092488    -0.000015597849    -0.028740233145    -0.090836839903    -0.000029338849    -0.000012364677
            -0.000020683656    0.000010149888    -0.019163791721    -0.035747466267    -0.000029338849    -0.000012364677    -0.033873572232    -0.073491964522
0.425     -0.111931673203    -0.062422250268    -0.000007182655    0.000013553870    -0.072962331703    -0.026848236499    -0.000009644567    0.000027564603
            -0.000007182655    0.000013553870    -0.110794311180    -0.025044907101    -0.000020352473    0.000001050194    -0.071342464329    0.004374403067
            -0.072962331703    -0.026848236499    -0.000020352473    0.000001050194    -0.113284161733    -0.064147186735    -0.000021831269    0.000010899535
            -0.000009644567    0.000027564603    -0.071342464329    0.004374403067    -0.000021831269    0.000010899535    -0.112252667114    -0.025822353569
0.450     -0.132143345764    0.030374552297    0.000005346422    0.000014526858    -0.081462186062    0.035285466418    0.000008794623    0.000024867067
            0.000005346422    0.000014526858    -0.106686882015    0.074880641031    -0.000006090846    0.000012021700    -0.057923322638    0.075659552291
            -0.081462186062    0.035285466418    -0.000006090846    0.000012021700    -0.133062389309    0.029024408186    0.000000285707    0.000013138552
            0.000008794623    0.000024867067    -0.057923322638    0.075659552291    0.000000285707    0.000013138552    -0.107471682109    0.074192386633
0.475     -0.066566817653    0.090280622501    0.000011209882    0.000002019506    -0.033808645337    0.070013989286    0.000012340797    0.000006412084
            0.000011209882    0.000002019506    -0.019261453646    0.119838731444    0.000010272022    0.000000358390    0.012575364583    0.097985278853
            -0.033808645337    0.070013989286    0.000010272022    0.000000358390    -0.067227027488    0.088669778982    0.000009797217    -0.000007909587
            0.000012340797    0.000006412084    0.012575364583    0.097985278853    0.000009797217    -0.000007909587    -0.019912565210    0.118720064641
0.500     0.001108335597    0.060939069850    -0.000001502399    -0.000009803839    0.008104983415    0.043625920053    -0.000007495385    -0.000004953317
            -0.000001502399    -0.000009803839    0.053376666888    0.066288022312    0.000001176355    -0.000023211559    0.062367326780    0.046721794558
            0.008104983415    0.043625920053    0.000001176355    -0.000023211559    0.000240628595    0.058919495636    -0.000010630027    -0.000027706012
            -0.000007495385    -0.000004953317    0.062367326780    0.046721794558    -0.000010630027    -0.000027706013    0.052370906369    0.064895414019
0.525     -0.013312577564    0.002225704974    -0.000021263218    0.000000435306    -0.012238760677    0.003737962408    -0.000030086327    0.000011709878
            -0.000021263218    0.000000435306    0.027980232947    -0.013347368983    -0.000030972945    -0.000021303428    0.033461584945    -0.018396593644
            -0.012238760677    0.003737962408    -0.000030972945    -0.000021303428    -0.014822035090    0.000037290720    -0.000043268581    -0.000014831335
            -0.000030086327    0.000011709878    0.033461584945    -0.018396593644    -0.000043268581    -0.000014831335    0.026526850743    -0.014829168651
0.550     -0.075267305426    0.012121656418    -0.000018678858    0.000025636004    -0.058092354852    0.021551002008    -0.000024933859    0.000041191736
            -0.000018678858    0.000025636004    -0.054233464288    -0.008436835754    -0.000042321862    0.000013819363    -0.037541076509    -0.007218298327
            -0.058092354852    0.021551002008    -0.000042321862    0.000013819363    -0.077580092460    0.010160129507    -0.000047172250    0.000022782570
            -0.000024933859    0.000041191736    -0.037541076509    -0.007218298327    -0.000047172250    0.000022782570    -0.056333272544    -0.009765675569
0.575     -0.085351059872    0.081969568663    0.000004352921    0.000033160412    -0.055125481432    0.078836911574    -0.000000249425    0.000049241150
            0.000004352921    0.000033160413    -0.077719603443    0.072619364820    -0.000015187897    0.000038347636    -0.051465266408    0.061883002989
            -0.055125481432    0.078836911574    -0.000015187897    0.000038347636    -0.088349633657    0.080834805765    -0.000019519076    0.000042384385
            -0.000000249425    0.000049241150    -0.051465266408    0.061883002989    -0.000019519076    0.000042384385    -0.080606437462    0.071978479419
0.600     -0.028177831137    0.123080325891    0.000019217954    0.000018147335    -0.002421473028    0.100848243124    0.000014044821    0.000036006859
            0.000019217954    0.000018147335    -0.016543379973    0.127458516363    0.000016199810    0.000025869414    0.003841116779    0.100726367700
            -0.002421473028    0.100848243124    0.000016199810    0.000025869414    -0.031272587801    0.123298815617    0.000005130752    0.000031948962
            0.000014044821    0.000036006859    0.003841116779    0.100726367700    0.000005130752    0.000031948962    -0.019653035476    0.128346281916
0.625     0.024576656152    0.095788061799    0.000011904993    -0.000000628281    0.034854729510    0.064247335770    0.000008529988    0.000021296858
            0.000011904993    -0.000000628281    0.052138530027    0.102012949577    0.000016295878    -0.000006582436    0.057727398595    0.067717149419
            0.034854729510    0.064247335770    0.000016295878    -0.000006582436    0.022502413620    0.097235300990    0.000005657876    0.000010319141
            0.000008529988    0.000021296858    0.057727398595    0.067717149419    0.000005657876    0.000010319141    0.050327273341    0.104352124319
0.650     0.015121968151    0.053531415481    -0.000009803444    0.000001946613    0.009961760665    0.024059912757    -0.000007993919    0.000023516310
            -0.000009803444    0.000001946613    0.055777655598    0.040934247313    -0.000016682196    -0.000015359110    0.046658535880    0.009115046248
            0.009961760665    0.024059912757    -0.000016682196    -0.000015359110    0.014785230517    0.054982916533    -0.000014659655    0.000004794465
            -0.000007993919    0.000023516310    0.046658535880    0.009115046248    -0.000014659655    0.000004794465    0.056168819324    0.043037061461
0.675     -0.020095246688    0.066330284162    -0.000014203232    0.000026677059    -0.037099943345    0.044232864199    -0.000012032860    0.000042891902
            -0.000014203233    0.000026677060    0.007103734178    0.024307939485    -0.000035141797    0.000017795795    -0.012767690747    -0.001077967818
            -0.037099943345    0.044232864199    -0.000035141805    0.000017795791    -0.019593123789    0.066387264214    -0.000026857061    0.000026291903
            -0.000012032859    0.000042891901    -0.012767690747    -0.001077967818    -0.000026857062    0.000026291904    0.008325272057    0.024217646205
0.700     -0.010239714709    0.110629935517    0.000008042822    0.000040343288    -0.032808912098    0.100570473925    0.000002887287    0.000056114414
            0.000008042822    0.000040343288    -0.018538066313    0.063476170163    -0.000009070400    0.000047801487    -0.044177175758    0.051939808821
            -0.032808912098    0.100570473925    -0.000009070400    0.000047801487    -0.010681399678    0.109482049234    -0.000012657824    0.000048190976
            0.000002887287    0.000056114414    -0.044177175758    0.051939808821    -0.000012657824    0.000048190976    -0.019057991581    0.061874685583
0.725     0.038291768968    0.121018849382    0.000028407286    0.000028816152    0.019384233242    0.124825754027    0.000019200532    0.000054238921
            0.000028407286    0.000028816152    0.004312892116    0.099538031973    0.000027240979    0.000038151983    -0.017159934589    0.100631709473
            0.019384233242    0.124825754027    0.000027240979    0.000038151983    0.036435114064    0.120460586028    0.000010894596    0.000051130681
            0.000019200532    0.000054238921    -0.017159934589    0.100631709473    0.000010894596    0.000051130681    0.001677605269    0.099140664247
0.750     0.067735287472    0.089868200053    0.000030029444    0.000009368345    0.061815801683    0.097924516609    0.000029176375    0.000045429313
            0.000030029444    0.000009368345    0.038502949939    0.101490969701    0.000035367661    0.000006363823    0.028886569637    0.105836119060
            0.061815801683    0.097924516609    0.000035367661    0.000006363823    0.065885688309    0.091222322277    0.000028439542    0.000040318197
            0.000029176375    0.000045429313    0.028886569637    0.105836119060    0.000028439542    0.000040318197    0.036250780797    0.103843931949
0.775     0.056567412238    0.063807053233    0.000016858049    0.000000240048    0.059477602356    0.059444278944    0.000031329058    0.000033603777
            0.000016858049    0.000000240048    0.055380708530    0.086924129131    0.000014115115    -0.000010512047    0.051179399162    0.080053004945
            0.059477602356    0.059444278944    0.000014115115    -0.000010512047    0.056807708527    0.066331380800    0.000034147967    0.000023243124
            0.000031329058    0.000033603777    0.051179399162    0.080053004945    0.000034147967    0.000023243124    0.056059472288    0.090320925618
