# GHz S RI R 45
0.000     0.053542666146    0.024841129267    0.000004041696    0.000004937834    0.010713873647    0.027066740595    0.000004721496    0.000005758419
            0.000004041491    0.000004937870    0.054335552952    0.025057088378    0.000004728893    0.000005740464    0.010803052145    0.026959851531
            0.010713874119    0.027066740408    0.000004729076    0.000005740411    0.053667078347    0.024479845903    0.000005597153    0.000006827731
            0.000004721505    0.000005758418    0.010803052987    0.026959852271    0.000005597116    0.000006827709    0.054433675288    0.024766056150
0.025     0.093436595098    0.040648589694    0.000010615877    0.000005667912    0.049853311893    0.055721497346    0.000012379523    0.000006728117
            0.000010615775    0.000005667976    0.095028539444    0.040102774802    0.000012419739    0.000006639821    0.050435770117    0.054918475910
            0.049859327541    0.055723821184    0.000012419789    0.000006639728    0.093030228010    0.040057498777    0.000014692497    0.000008092789
            0.000012379536    0.000006728082    0.050433201115    0.054923247654    0.000014692555    0.000008092706    0.094758171403    0.039687141410
0.050     0.147868303110    0.006289666089    0.000014291646    -0.000002742655    0.122141784132    0.031765805533    0.000016922648    -0.000002973699
            0.000014291648    -0.000002742629    0.149807233163    0.002197520725    0.000016899327    -0.000003273839    0.122811291954    0.028011936129
            0.122141968402    0.031765216186    0.000016899327    -0.000003273839    0.146863053575    0.005952146072    0.000020411635    -0.000003412112
            0.000016922750    -0.000002973650    0.122811307053    0.028011959868    0.000020411635    -0.000003412113    0.148999163057    0.001884508199
0.075     0.149453757572    -0.061539791524    0.000003410485    -0.000007619038    0.136924543919    -0.046575039120    0.000004427907    -0.000008909919
            0.000003410485    -0.000007619038    0.147571172350    -0.069696715154    0.000004109659    -0.000009330868    0.133968599481    -0.054037312891
            0.136924414095    -0.046575482891    0.000004109652    -0.000009330873    0.148230657311    -0.061178478196    0.000005685328    -0.000010918147
            0.000004427900    -0.000008909924    0.133968613471    -0.054037304941    0.000005685327    -0.000010918147    0.146447279828    -0.069455738447
0.100     0.102864147734    -0.106119692659    -0.000008401217    0.000005546011    0.083448217304    -0.103190635614    -0.000009477163    0.000006176829
            -0.000008401225    0.000005546016    0.093093305523    -0.114568011895    -0.000010085485    0.000005957697    0.072751831384    -0.110484276467
            0.083448010187    -0.103190803105    -0.000010085487    0.000005957693    0.102055365861    -0.105052945965    -0.000011237970    0.000006681602
            -0.000009477254    0.000006176678    0.072751833027    -0.110484287358    -0.000011237974    0.000006681601    0.092128134073    -0.113577746790
0.125     0.048489724699    -0.104412614976    0.000000048470    0.000031673738    0.015048759136    -0.094402093896    0.000000114023    0.000036511912
            0.000000048469    0.000031673737    0.031640558584    -0.105620377432    -0.000000498848    0.000036662956    -0.001987675087    -0.093891084807
            0.015048759136    -0.094402093896    -0.000000498849    0.000036662957    0.048530949470    -0.103149984570    -0.000000363324    0.000042793771
            0.000000114022    0.000036511960    -0.001987680109    -0.093891089702    -0.000000363325    0.000042793771    0.031415172287    -0.104057032736
0.150     0.021027502716    -0.075050065680    0.000037010784    0.000041164960    -0.010378850183    -0.047110714533    0.000042792672    0.000047853117
            0.000037010783    0.000041164961    0.006088565951    -0.065120860830    0.000042539700    0.000048135858    -0.024469232457    -0.035599333549
            -0.010378805507    -0.047110629145    0.000042539700    0.000048135861    0.021819318923    -0.074212006284    0.000049986159    0.000056895551
            0.000042792672    0.000047853117    -0.024469293049    -0.035599408392    0.000049986159    0.000056895551    0.006977665590    -0.063623071630
0.175     0.026166401706    -0.049839813636    0.000071536694    0.000010789096    0.012928371640    -0.016974556616    0.000083325145    0.000013172619
            0.000071536694    0.000010789096    0.022046436786    -0.037885368604    0.000083297318    0.000013110812    0.008307597264    -0.001529954487
            0.012928371344    -0.016974556842    0.000083297319    0.000013110813    0.027124960389    -0.049751645004    0.000098799281    0.000016538266
            0.000083325192    0.000013172626    0.008307593530    -0.001529934461    0.000098799281    0.000016538266    0.023737036386    -0.037551520202
0.200     0.047325186009    -0.045541364792    0.000066754537    -0.000038370538    0.041730065089    -0.021778728143    0.000078864528    -0.000044244587
            0.000066754538    -0.000038370541    0.048133064540    -0.041376079290    0.000078481006    -0.000044711586    0.043944619428    -0.017059254285
            0.041730028599    -0.021778791576    0.000078481009    -0.000044711583    0.048027695014    -0.046035065038    0.000094882480    -0.000052142098
            0.000078864528    -0.000044244587    0.043944651857    -0.017059190091    0.000094882480    -0.000052142098    0.049670278136    -0.042122794453
0.225     0.061543868424    -0.073194944110    0.000024100036    -0.000060520397    0.047405354881    -0.055448155998    0.000029551485    -0.000071486492
            0.000024100036    -0.000060520397    0.052582177826    -0.077346963254    0.000028467128    -0.000071794637    0.040297409647    -0.059031518784
            0.047405354881    -0.055448155998    0.000028467126    -0.000071794637    0.061758440283    -0.073704432224    0.000036409391    -0.000086429117
            0.000029551485    -0.000071486492    0.040297409647    -0.059031518784    0.000036409388    -0.000086429118    0.053000961905    -0.078623775086
0.250     0.039658061088    -0.116853852614    -0.000013273538    -0.000036179894    0.018462642513    -0.086426333552    -0.000015281899    -0.000044319957
            -0.000013273538    -0.000036179894    0.014665059985    -0.113119717553    -0.000016685480    -0.000043809492    -0.004002343525    -0.082721852611
            0.018462646157    -0.086426335841    -0.000016685480    -0.000043809492    0.039802589749    -0.116939235301    -0.000018852550    -0.000055311907
            -0.000015281899    -0.000044319957    -0.004002365134    -0.082721850564    -0.000018852550    -0.000055311907    0.014204489720    -0.113655924925
0.275     -0.024103994600    -0.132275582955    -0.000008906347    0.000010285634    -0.031653864772    -0.085261948868    -0.000012272703    0.000010541043
            -0.000008906347    0.000010285634    -0.051752740146    -0.106205692747    -0.000012546351    0.000011691023    -0.056697127460    -0.060210339367
            -0.031653864424    -0.085261947931    -0.000012546340    0.000011691028    -0.023365216094    -0.132149912285    -0.000016898534    0.000011489527
            -0.000012272703    0.000010541043    -0.056697127460    -0.060210339367    -0.000016898534    0.000011489527    -0.051725071955    -0.105644719953
0.300     -0.085155109198    -0.086895014663    0.000048416081    0.000020611610    -0.068713878686    -0.044750756215    0.000054113970    0.000024000835
            0.000048416081    0.000020611610    -0.094887930927    -0.043483679044    0.000054227016    0.000025447961    -0.076295240959    -0.002496661138
            -0.068713878686    -0.044750756215    0.000054227017    0.000025447962    -0.083697011485    -0.087355496487    0.000061088656    0.000029486361
            0.000054113970    0.000024000835    -0.076295240959    -0.002496661138    0.000061088656    0.000029486361    -0.093387085111    -0.043009769877
0.325     -0.082857640957    -0.011564034939    0.000097376514    -0.000033152969    -0.059566599624    0.008205146345    0.000111848972    -0.000036982693
            0.000097376514    -0.000033152969    -0.068725203281    0.028445918667    0.000112519284    -0.000036233720    -0.042693505700    0.047676636769
            -0.059566603586    0.008205146891    0.000112519284    -0.000036233720    -0.081409714728    -0.013152471843    0.000131012551    -0.000041026969
            0.000111848972    -0.000036982693    -0.042693505700    0.047676636769    0.000131012551    -0.000041026969    -0.066426068717    0.027317537431
0.350     -0.021292578284    0.015825577925    0.000073133904    -0.000124783089    -0.014818207426    0.024350554051    0.000085704716    -0.000142868720
            0.000073133904    -0.000124783089    0.001341371642    0.037762705033    0.000086123923    -0.000142851582    0.012714549844    0.045070451191
            -0.014818206295    0.024350561763    0.000086123923    -0.000142851582    -0.020734001174    0.013485339829    0.000102864296    -0.000165994058
            0.000085704716    -0.000142868720    0.012714552802    0.045070458669    0.000102864291    -0.000165994050    0.002647329398    0.034872623331
0.375     0.014471634460    -0.034783481987    -0.000033020034    -0.000155818231    0.006517721946    -0.010770612753    -0.000035343734    -0.000181103344
            -0.000033020034    -0.000155818231    0.028698838072    -0.024189245485    -0.000035711643    -0.000181322618    0.029894596803    -0.004843517447
            0.006517721520    -0.010770609504    -0.000035711643    -0.000181322618    0.014055465074    -0.036893760948    -0.000037566603    -0.000214581968
            -0.000035343734    -0.000181103344    0.029894596803    -0.004843517447    -0.000037566603    -0.000214581968    0.028255823182    -0.027460318380
0.400     -0.036310141400    -0.086606431285    -0.000112797678    -0.000077132235    -0.027952348096    -0.042357173895    -0.000129788402    -0.000093817150
            -0.000112797678    -0.000077132235    -0.032097726573    -0.071587597455    -0.000131018081    -0.000093225320    -0.019163791721    -0.035747466267
            -0.027952348096    -0.042357173895    -0.000131018081    -0.000093225320    -0.036865593393    -0.088039386420    -0.000152361658    -0.000116762100
            -0.000129788402    -0.000093817150    -0.019163791721    -0.035747466267    -0.000152361658    -0.000116762100    -0.033873572232    -0.073491964522
0.425     -0.116862702873    -0.052248192254    -0.000078629575    0.000017118778    -0.077865640628    -0.013044657647    -0.000095630813    0.000016079336
            -0.000078629575    0.000017118778    -0.110794311180    -0.025044907101    -0.000096403232    0.000018354434    -0.071342464329    0.004374403067
            -0.077865640628    -0.013044657647    -0.000096403232    0.000018354434    -0.116951341492    -0.053671885917    -0.000119620398    0.000014764663
            -0.000095630813    0.000016079336    -0.071342464329    0.004374403067    -0.000119620398    0.000014764663    -0.112252667114    -0.025822353569
0.450     -0.126907745606    0.041482713457    0.000010604906    0.000020092374    -0.075584831306    0.049932853617    0.000005906338    0.000025198241
            0.000010604906    0.000020092374    -0.106686882015    0.074880641031    0.000007071148    0.000027895802    -0.057923322638    0.075659552291
            -0.075584831306    0.049932853617    0.000007071148    0.000027895802    -0.127029508566    0.039379813052    -0.000001527297    0.000033922285
            0.000005906338    0.000025198241    -0.057923322638    0.075659552291    -0.000001527297    0.000033922285    -0.107471682109    0.074192386633
0.475     -0.055516587074    0.092580621686    0.000048890094    -0.000068892095    -0.021330372547    0.075972707147    0.000053996293    -0.000073030767
            0.000048890094    -0.000068892095    -0.019261453646    0.119838731444    0.000057014664    -0.000071527459    0.012575364583    0.097985278853
            -0.021330372547    0.075972707147    0.000057014664    -0.000071527459    -0.056507539631    0.090100682385    0.000061899780    -0.000075432263
            0.000053996293    -0.000073030767    0.012575364583    0.097985278853    0.000061899780    -0.000075432263    -0.019912565210    0.118720064641
0.500     0.006856029555    0.053776621954    -0.000033443650    -0.000159901263    0.016369828981    0.039868338370    -0.000033982405    -0.000178773382
            -0.000033443650    -0.000159901263    0.053376666888    0.066288022312    -0.000030962078    -0.000179421282    0.062367326780    0.046721794558
            0.016369828981    0.039868338370    -0.000030962078    -0.000179421282    0.005001216125    0.051879423934    -0.000031034305    -0.000201778968
            -0.000033982405    -0.000178773382    0.062367326780    0.046721794558    -0.000031034305    -0.000201778968    0.052370906369    0.064895414019
0.525     -0.018802958974    -0.003219824665    -0.000176119731    -0.000118824494    -0.014476527871    0.000855109869    -0.000195338860    -0.000139547541
            -0.000176119731    -0.000118824494    0.027980232947    -0.013347368983    -0.000194269360    -0.000142049437    0.033461584945    -0.018396593644
            -0.014476527871    0.000855109869    -0.000194269360    -0.000142049437    -0.020574809419    -0.004177373161    -0.000216777634    -0.000169126838
            -0.000195338860    -0.000139547541    0.033461584945    -0.018396593644    -0.000216777634    -0.000169126838    0.026526850743    -0.014829168651
0.550     -0.083325415771    0.018178025092    -0.000206335361    0.000028629525    -0.063038885226    0.029177228791    -0.000238111116    0.000023860503
            -0.000206335361    0.000028629525    -0.054233464288    -0.008436835754    -0.000240010741    0.000022675945    -0.037541076509    -0.007218298327
            -0.063038885226    0.029177228791    -0.000240010741    0.000022675945    -0.084385643835    0.017345016688    -0.000280441263    0.000013265892
            -0.000238111116    0.000023860503    -0.037541076509    -0.007218298327    -0.000280441263    0.000013265892    -0.056333272544    -0.009765675569
0.575     -0.083695857441    0.095027022584    -0.000112244721    0.000110987541    -0.050597323028    0.093689579590    -0.000138644571    0.000124466945
            -0.000112244721    0.000110987541    -0.077719603443    0.072619364820    -0.000140115390    0.000126987263    -0.051465266408    0.061883002989
            -0.050597323028    0.093689579590    -0.000140115390    0.000126987263    -0.084715698938    0.093541789761    -0.000177396866    0.000141637581
            -0.000138644571    0.000124466945    -0.051465266408    0.061883002989    -0.000177396866    0.000141637581    -0.080606437462    0.071978479419
0.600     -0.015826698667    0.131623768084    -0.000022500870    0.000084386172    0.014023657052    0.112019032222    -0.000034083596    0.000103935700
            -0.000022500870    0.000084386172    -0.016543379973    0.127458516363    -0.000031693791    0.000107479914    0.003841116779    0.100726367700
            0.014023657052    0.112019032222    -0.000031693791    0.000107479914    -0.017734812794    0.129970943827    -0.000051155036    0.000133767919
            -0.000034083596    0.000103935700    0.003841116779    0.100726367700    -0.000051155036    0.000133767919    -0.019653035476    0.128346281916
0.625     0.039462534121    0.093331284148    -0.000015803656    0.000006921414    0.056197864705    0.063499341471    -0.000015862652    0.000019224504
            -0.000015803657    0.000006921414    0.052138530027    0.102012949577    -0.000009931306    0.000019833035    0.057727398595    0.067717149419
            0.056197865367    0.063499342220    -0.000009931314    0.000019833041    0.036824526577    0.092677924046    -0.000012575381    0.000039743540
            -0.000015862652    0.000019224504    0.057727398595    0.067717149419    -0.000012575375    0.000039743545    0.050327273341    0.104352124319
0.650     0.022842297218    0.043257777394    -0.000090562370    -0.000024384621    0.025592979002    0.012088915654    -0.000093160327    -0.000023141870
            -0.000090562370    -0.000024384621    0.055777655598    0.040934247313    -0.000088758769    -0.000026603192    0.046658535880    0.009115046248
            0.025592979002    0.012088915654    -0.000088758769    -0.000026603192    0.020800829691    0.043917134049    -0.000090006222    -0.000021530111
            -0.000093160327    -0.000023141870    0.046658535880    0.009115046248    -0.000090006222    -0.000021530111    0.056168819324    0.043037061461
0.675     -0.021718035270    0.058090954717    -0.000157431518    0.000051215916    -0.032638945390    0.031121526514    -0.000172071792    0.000051030133
            -0.000157431527    0.000051215888    0.007103734178    0.024307939485    -0.000171495262    0.000045782962    -0.012767690747    -0.001077967818
            -0.032638945390    0.031121526514    -0.000171495262    0.000045782962    -0.022198638879    0.058974686217    -0.000186838976    0.000045220022
            -0.000172071791    0.000051030100    -0.012767690747    -0.001077967818    -0.000186838976    0.000045220022    0.008325272057    0.024217646205
0.700     -0.014145709009    0.109893488454    -0.000129420446    0.000152887345    -0.033907079739    0.093514360446    -0.000152205883    0.000164837286
            -0.000129420446    0.000152887345    -0.018538066313    0.063476170163    -0.000155109788    0.000162140347    -0.044177175758    0.051939808821
            -0.033907079739    0.093514360446    -0.000155109788    0.000162140347    -0.014061499513    0.109629840658    -0.000183803383    0.000174103456
            -0.000152205883    0.000164837286    -0.044177175758    0.051939808821    -0.000183803383    0.000174103456    -0.019057991581    0.061874685583
0.725     0.039077236089    0.125379948154    -0.000044248014    0.000201244309    0.020851333812    0.124465748117    -0.000061685781    0.000229178336
            -0.000044248014    0.000201244309    0.004312892116    0.099538031973    -0.000063693330    0.000230654026    -0.017159934589    0.100631709473
            0.020851333812    0.124465748117    -0.000063693330    0.000230654026    0.038622234310    0.124339928024    -0.000089510148    0.000264527369
            -0.000061685781    0.000229178336    -0.017159934589    0.100631709473    -0.000089510148    0.000264527369    0.001677605269    0.099140664247
0.750     0.075840565123    0.093799987579    0.000047448335    0.000189760070    0.071328348559    0.098883642507    0.000046663262    0.000226014365
            0.000047448335    0.000189760070    0.038502949939    0.101490969701    0.000048805950    0.000228177160    0.028886569637    0.105836119060
            0.071328348559    0.098883642507    0.000048805950    0.000228177160    0.074672881571    0.093051204471    0.000043665080    0.000276862918
            0.000046663262    0.000226014365    0.028886569637    0.105836119060    0.000043665080    0.000276862918    0.036250780797    0.103843931949
0.775     0.070537878736    0.060473085550    0.000103686361    0.000121672819    0.076609061470    0.052168903360    0.000121217777    0.000151046700
            0.000103686361    0.000121672819    0.055380708530    0.086924129131    0.000125744599    0.000149756114    0.051179399162    0.080053004945
            0.076609061470    0.052168903360    0.000125744599    0.000149756114    0.069507389874    0.060514310138    0.000147151064    0.000192461940
            0.000121217777    0.000151046700    0.051179399162    0.080053004945    0.000147151064    0.000192461940    0.056059472288    0.090320925618
