# GHz S RI R 45
0.000     0.074140662000    -0.000000000000    0.925727840000    0.000000000000    0.003559698100    -0.000000000000    -0.005620928500    0.000000000000
            0.925728400000    0.000000000000    0.070567886000    -0.000000000000    -0.005523179700    0.000000000000    0.004793894800    -0.000000000000
            0.004407215200    0.000000000000    -0.004917374900    -0.000000000000    0.072346779000    -0.000000000000    0.925906880000    0.000000000000
            -0.005013942300    -0.000000000000    0.005640071800    0.000000000000    0.925906380000    0.000000000000    0.071485629000    -0.000000000000
0.025     0.136629715508    0.013834217278    0.480174812756    -0.778406039294    0.070934937706    0.039650330352    -0.015309838760    0.004961543921
            0.480174780334    -0.778406047544    0.136629150535    0.013832947585    -0.015309767243    0.004961284529    0.070934889209    0.039650447857
            0.071631809567    0.039270206359    -0.014942690789    0.004463820516    0.136862192246    0.014295094357    0.479008252088    -0.779452927394
            -0.014943263424    0.004464198961    0.071631844047    0.039270182988    0.479008298136    -0.779452910833    0.136861470460    0.014295266478
0.050     0.118738591774    -0.077350064468    -0.396672332913    -0.821086362671    0.074597070045    -0.032771583121    -0.004817669571    0.014161922030
            -0.396672332913    -0.821086362671    0.118738300273    -0.077350163853    -0.004817585847    0.014161975862    0.074597176783    -0.032771392367
            0.075020733469    -0.033534408768    -0.005014643088    0.013530266995    0.119227109796    -0.078128622469    -0.399427705587    -0.820148898203
            -0.005014723860    0.013530216796    0.075020823321    -0.033534249417    -0.399427705587    -0.820148898203    0.119227485248    -0.078128231964
0.075     0.030723096257    -0.030518269187    -0.910041359990    -0.093409584261    0.022573317653    0.020880158437    0.000962268667    0.026900394584
            -0.910041359990    -0.093409584261    0.030722117672    -0.030516300042    0.000962401540    0.026900876141    0.022573854549    0.020880115525
            0.022551521730    0.020474947400    0.000251073677    0.026718770369    0.028571909273    -0.031210952541    -0.911133350561    -0.089096584884
            0.000251077695    0.026718751330    0.022552074130    0.020474935524    -0.911133350561    -0.089096584884    0.028575403105    -0.031210972558
0.100     0.112911755997    0.032807761324    -0.546024689137    0.711147240715    0.109700204083    0.068840869866    0.044510525209    0.012111337723
            -0.546024689137    0.711147240715    0.112912538120    0.032810230380    0.044511014818    0.012111050419    0.109700677711    0.068840190372
            0.109290343898    0.068125366753    0.043947655471    0.012642052016    0.112317454800    0.033451462085    -0.541621928150    0.715293019548
            0.043947169400    0.012642338236    0.109290815397    0.068124685960    -0.541621928150    0.715293019548    0.112319445464    0.033447370379
0.125     0.155247172213    -0.075835179064    0.290051621759    0.834616296455    0.151538377367    -0.057461491018    0.021779251066    -0.036901238012
            0.290051621759    0.834616296455    0.155247993574    -0.075839899672    0.021783744646    -0.036891437755    0.151538510572    -0.057461647408
            0.150803164665    -0.057946944866    0.021965687278    -0.036077166699    0.155353204547    -0.075931148477    0.297102077815    0.832516714490
            0.021961157243    -0.036086990474    0.150803287955    -0.057947097963    0.297102081176    0.832516723908    0.155356197997    -0.075921721266
0.150     0.043619360233    -0.106665918794    0.870641653576    0.211348340902    0.027801508827    -0.084426623178    -0.004282622951    -0.033085606591
            0.870641653576    0.211348340902    0.043613839562    -0.106662471896    -0.004275140682    -0.033088831852    0.027803836952    -0.084426917750
            0.026842133324    -0.084415463570    -0.003406298162    -0.032844545324    0.042813381155    -0.106727723304    0.872998591879    0.202937180821
            -0.003413799632    -0.032841292224    0.026844462671    -0.084415758561    0.872998591879    0.202937180821    0.042826629740    -0.106729206810
0.175     0.065593154656    -0.023406707736    0.629181665870    -0.635943427721    0.066244311377    0.013033999675    -0.046805211969    -0.034739747305
            0.629181665870    -0.635943427721    0.065594942787    -0.023399231937    -0.046807325381    -0.034743913313    0.066246506256    0.013031867457
            0.065548816051    0.012880632283    -0.046162031516    -0.035432587208    0.065273531458    -0.023704915200    0.622163577575    -0.643397011722
            -0.046159907347    -0.035428409036    0.065551018338    0.012878516246    0.622163573297    -0.643397029770    0.065280134723    -0.023716208153
0.200     0.160339736107    -0.076407699037    -0.195227601234    -0.841588425212    0.178351096239    -0.061571668646    -0.056107725241    0.048671600962
            -0.195227601234    -0.841588425212    0.160339933072    -0.076408726936    -0.056109233852    0.048673458820    0.178350770340    -0.061573102947
            0.178011414808    -0.060946974866    -0.056395184888    0.047811654791    0.160924860560    -0.076527035188    -0.206404694284    -0.839109104112
            -0.056393654019    0.047809798668    0.178011081230    -0.060948412231    -0.206404694284    -0.839109104112    0.160927961149    -0.076531109816
0.225     0.069591679225    -0.181139867653    -0.799449617553    -0.308477605563    0.066028574725    -0.187835683178    0.021186383292    0.055441302937
            -0.799449617553    -0.308477605563    0.069584886637    -0.181135096233    0.021187438591    0.055440837562    0.066031201821    -0.187835077670
            0.065813118409    -0.187066128694    0.020257651785    0.055239993008    0.069163335657    -0.181052770713    -0.803882109152    -0.296658150170
            0.020256601921    0.055240440845    0.065815745018    -0.187065522613    -0.803882118533    -0.296658153632    0.069177014095    -0.181057607643
0.250     -0.033076861492    -0.101027686637    -0.709844862952    0.516067219341    -0.055749898232    -0.090409694383    0.037753722571    0.025445849846
            -0.709844862952    0.516067219341    -0.033076328061    -0.101013834953    0.037752637499    0.025445657999    -0.055745168573    -0.090413609268
            -0.055450942859    -0.089361007617    0.037122737678    0.026236169045    -0.032131395543    -0.099478162704    -0.701301745333    0.527499529435
            0.037123803092    0.026236343940    -0.055446207608    -0.089364934343    -0.701301745333    0.527499529435    -0.032116553390    -0.099499537296
0.275     0.052577074742    -0.065320009416    0.079645142139    0.874807523766    0.046740363954    -0.047044226558    0.072423130327    -0.015868277936
            0.079645142139    0.874807523766    0.052585380351    -0.065314556993    0.072422914162    -0.015869703646    0.046739899724    -0.047048462725
            0.047156189236    -0.046764618180    0.072879268727    -0.014974442630    0.057798367438    -0.064627257861    0.095245077347    0.872909031616
            0.072879476666    -0.014973003243    0.047155713748    -0.046768858078    0.095245077347    0.872909031616    0.057792615176    -0.064646355168
0.300     0.067375590627    -0.182354066727    0.754617356358    0.384641820602    0.056862404213    -0.165486379420    0.004967769056    -0.089507652791
            0.754617356358    0.384641820602    0.067373122083    -0.182350469302    0.004963464509    -0.089506183975    0.056865431504    -0.165485772720
            0.057747475444    -0.165700224276    0.005840967452    -0.089471304369    0.067187671423    -0.185023331076    0.761435272179    0.369823975302
            0.005845290282    -0.089472756747    0.057750499493    -0.165699604534    0.761435263184    0.369823970934    0.067196460961    -0.185025703323
0.325     -0.086397032208    -0.184884186809    0.734072274934    -0.403753339317    -0.101289158228    -0.158568690810    -0.067120785393    -0.032336286981
            0.734072283696    -0.403753344136    -0.086396524409    -0.184867116411    -0.067117840067    -0.032331548484    -0.101281234533    -0.158574404573
            -0.100753660247    -0.158847776473    -0.066598577210    -0.033049853744    -0.087184702858    -0.184168213912    0.725284766171    -0.418575889919
            -0.066601504642    -0.033054595069    -0.100745708944    -0.158853506340    0.725284766171    -0.418575889919    -0.087161463346    -0.184194348070
0.350     -0.110979138114    -0.041892828421    0.066457987616    -0.853114512356    -0.117866289049    -0.011426888602    -0.055855661878    0.017081959740
            0.066458003282    -0.853114521166    -0.110963698096    -0.041880185248    -0.055852942891    0.017079156148    -0.117865711448    -0.011437194326
            -0.117139493547    -0.011798527836    -0.056270476597    0.016219489922    -0.107133082877    -0.041681668610    0.047310554683    -0.854093353426
            -0.056273191101    0.016222261592    -0.117138926993    -0.011808838171    0.047310539776    -0.854093354252    -0.107139498979    -0.041720102388
0.375     -0.017418487146    -0.057412002579    -0.702521493455    -0.503385081192    -0.019147617059    -0.036421752147    -0.041370850260    0.069487877229
            -0.702521501584    -0.503385087017    -0.017412549789    -0.057410285154    -0.041369841529    0.069486762333    -0.019147612347    -0.036423286585
            -0.018840005310    -0.037268032975    -0.042327594833    0.069542325819    -0.015248103681    -0.061686377749    -0.713709462051    -0.485868173623
            -0.042328648166    0.069543427823    -0.018840003827    -0.037269548657    -0.713709453784    -0.485868167996    -0.015251946772    -0.061693373926
0.400     -0.071604852536    -0.158495481250    -0.775032886876    0.323846203413    -0.069478079076    -0.099043488665    0.060692689540    0.079048236282
            -0.775032886876    0.323846203413    -0.071600028948    -0.158479938766    0.060691910430    0.079043468666    -0.069468040906    -0.099050651730
            -0.070026994502    -0.100265839328    0.060386473571    0.079784819948    -0.076049893509    -0.160970661664    -0.765715274262    0.342500305465
            0.060387255940    0.079789633076    -0.070016930525    -0.100273013752    -0.765715265134    0.342500301382    -0.076022888476    -0.160999850800
0.425     -0.191155837050    -0.054259933312    -0.158556753768    0.809454441135    -0.145941204138    -0.007295923313    0.088396577281    -0.020122427925
            -0.158556753768    0.809454441135    -0.191134547851    -0.054246969359    0.088391257175    -0.020119555268    -0.145939853379    -0.007312708961
            -0.146889578852    -0.007694866074    0.088771216548    -0.019501156690    -0.190839059631    -0.051510625685    -0.137482053567    0.812848490356
            0.088776572976    -0.019504029074    -0.146888216190    -0.007711684411    -0.137482053567    0.812848490356    -0.190844686060    -0.051568074352
0.450     -0.105736901847    0.076508610032    0.594198598947    0.586901388497    -0.070251898304    0.080363888421    0.035821680341    -0.068985327654
            0.594198606061    0.586901395524    -0.105719847489    0.076507290421    0.035823832819    -0.068981842490    -0.070257478985    0.080357110117
            -0.070859346787    0.080318407894    0.036594974900    -0.068946624465    -0.100841196516    0.072855564582    0.610529434122    0.569830442847
            0.036592830943    -0.068950131876    -0.070864944569    0.080311641942    0.610529424176    0.569830453502    -0.100865332081    0.072833489184
0.475     -0.028328149520    -0.007476892751    0.822831011594    -0.199498849610    -0.022538040007    0.016093813686    -0.028754323852    -0.087273155640
            0.822831011594    -0.199498849610    -0.028321358842    -0.007469358646    -0.028753470510    -0.087272308107    -0.022529767814    0.016088061102
            -0.023217781870    0.015971140441    -0.028379998351    -0.087994324012    -0.030616120269    -0.012672147667    0.815492009472    -0.223942936031
            -0.028380871995    -0.087995192784    -0.023209484988    0.015965391375    0.815492009472    -0.223942936031    -0.030598221913    -0.012693823852
0.500     -0.122626860183    -0.046117127459    0.257175200578    -0.790943473465    -0.072073381021    0.001483986600    -0.107576728488    -0.019087336797
            0.257175197486    -0.790943463956    -0.122600346458    -0.046108084380    -0.107573229603    -0.019086793455    -0.072070069387    0.001461418486
            -0.073251997062    0.001982742117    -0.108023740000    -0.019636772033    -0.127504691420    -0.043005645094    0.232603578158    -0.797116761724
            -0.108027286268    -0.019637280340    -0.073248695718    0.001960148870    0.232603594871    -0.797116767264    -0.127508061264    -0.043074830442
0.525     -0.133873277488    0.090339432334    -0.511753455931    -0.638531970683    -0.057087137266    0.073902609309    -0.067197652139    0.082407172775
            -0.511753449677    -0.638531962880    -0.133849623780    0.090328128470    -0.067197977226    0.082403372160    -0.057098804147    0.073889799215
            -0.057576849884    0.075195622762    -0.067797507219    0.082444466128    -0.128754797861    0.091830479401    -0.531540061985    -0.621941202096
            -0.067797140297    0.082448302346    -0.057588552095    0.075182820357    -0.531540074979    -0.621941217300    -0.128799821422    0.091795286657
0.550     -0.000106682330    0.101434533899    -0.820350642334    0.079435449570    0.012652543041    0.056522962498    0.023363449840    0.101841015912
            -0.820350632381    0.079435448606    -0.000098211521    0.101433122454    0.023362144948    0.101841469156    0.012655234962    0.056519143129
            0.013092538711    0.057583429329    0.023002671791    0.102348125786    0.001257550640    0.093347929743    -0.817314735044    0.107680472868
            0.023004003797    0.102347631669    0.013095244504    0.057579631822    -0.817314754873    0.107680475480    0.001254619559    0.093336324132
0.575     -0.015659756655    0.000985774429    -0.368002527735    0.741674281828    -0.015029217434    0.016597152998    0.108605419362    0.046175292529
            -0.368002527735    0.741674281828    -0.015632161252    0.000991759181    0.108604140361    0.046174518214    -0.015023979854    0.016572436714
            -0.014681614326    0.017001187856    0.108911134629    0.046796793496    -0.022070285967    -0.000278336554    -0.340608497948    0.753693149828
            0.108912397632    0.046797552358    -0.014676367440    0.016976451108    -0.340608502066    0.753693158941    -0.022071815655    -0.000343152165
0.600     -0.081635842301    0.041346488210    0.425941427343    0.697901828538    -0.037172144216    0.044489818098    0.102466642659    -0.075678379323
            0.425941422133    0.697901820002    -0.081606276862    0.041325697853    0.102465035018    -0.075676044978    -0.037190379107    0.044469304420
            -0.036621489049    0.045068196185    0.103145144376    -0.075670337315    -0.078916030448    0.045046357518    0.450709590897    0.681248266003
            0.103146716957    -0.075672656833    -0.036639758135    0.045047690207    0.450709608304    0.681248266476    -0.078973589030    0.044999442505
0.625     -0.014352561297    0.079908532378    0.813400965746    0.019554875274    0.006466040250    0.034948814131    -0.006140532340    -0.130702615502
            0.813400965405    0.019554889470    -0.014346962862    0.079893310288    -0.006140182692    -0.130701450626    0.006459570041    0.034946344533
            0.007574915909    0.035298470003    -0.005787307945    -0.131258057652    -0.010049827942    0.072624292371    0.813685359233    -0.011805787164
            -0.005787648664    -0.131259173727    0.007568462570    0.035296032310    0.813685368989    -0.011805804067    -0.010075702632    0.072622028644
0.650     -0.009058948947    0.009801281557    0.448913826857    -0.676275432918    -0.033745197906    -0.006554518501    -0.123018847513    -0.073411584222
            0.448913855994    -0.676275425579    -0.009036087129    0.009802555799    -0.123016500328    -0.073408960658    -0.033739037944    -0.006577749934
            -0.032560951844    -0.007041568810    -0.123329453010    -0.074044674740    -0.015809727057    0.004363073379    0.420617028823    -0.693740006638
            -0.123331743692    -0.074047309260    -0.032554772384    -0.007064817752    0.420617004607    -0.693740021321    -0.015813181392    0.004313727023
0.675     -0.068059376193    0.040275154493    -0.325933634078    -0.731478535003    -0.068409010623    0.057647070308    -0.131618402525    0.073896238370
            -0.325933642218    -0.731478553271    -0.068026403453    0.040248909842    -0.131615338207    0.073892463517    -0.068430135645    0.057617666781
            -0.067832326791    0.056638101258    -0.132382928323    0.073898772480    -0.068737585380    0.043456952254    -0.355796126423    -0.716639238919
            -0.132386015024    0.073902495725    -0.067853472007    0.056608700853    -0.355796117529    -0.716639221006    -0.068799033307    0.043407866034
0.700     -0.016514349325    0.072604944178    -0.788290217529    -0.121722869902    -0.001074461742    0.072666790860    -0.010759955899    0.152531694268
            -0.788290237295    -0.121722872954    -0.016508453105    0.072574101745    -0.010762000419    0.152530146549    -0.001093576295    0.072663836413
            -0.001053051691    0.071678160022    -0.011077154316    0.153250756323    -0.011658714265    0.065598324919    -0.793043594617    -0.087387654694
            -0.011075157004    0.153252324381    -0.001072146442    0.071675231653    -0.793043574737    -0.087387652504    -0.011703043004    0.065604472234
0.725     -0.036334009253    -0.002284032134    -0.515461795297    0.602914710991    -0.040645538620    0.008618191192    0.136985540596    0.102370639004
            -0.515461808294    0.602914726193    -0.036320557851    -0.002290982780    0.136982845128    0.102367864553    -0.040641346028    0.008600744847
            -0.041068787444    0.007885426183    0.137508563394    0.102945441414    -0.045082450481    -0.011263286514    -0.486573635813    0.625799602067
            0.137511264476    0.102948257552    -0.041064562803    0.007867955213    -0.486573623537    0.625799586278    -0.045088138338    -0.011293146042
0.750     -0.129867881926    0.077367373483    0.225482779378    0.733590689353    -0.106608274425    0.091222850234    0.159708300774    -0.082417220098
            0.225482785254    0.733590708470    -0.129838603782    0.077332676903    0.159703266629    -0.082411689130    -0.106630890558    0.091187735430
            -0.107070912107    0.090574325643    0.160451972537    -0.082611070799    -0.135369437211    0.083426071174    0.258694661656    0.720764356163
            0.160457040390    -0.082616585239    -0.107093546944    0.090539197594    0.258694667479    0.720764332824    -0.135426244838    0.083381459393
0.775     -0.032324633594    0.176742722936    0.723965124112    0.224278148232    -0.005343398031    0.167065880814    0.008364549310    -0.162827034908
            0.723965151045    0.224278128879    -0.032323557920    0.176697457756    0.008370960154    -0.162823981860    -0.005376678002    0.167059780472
            -0.006163994365    0.166463855741    0.008526611928    -0.163636732692    -0.025560220436    0.174563756706    0.733703663158    0.190223498682
