# GHz S RI R 45
0.000     0.075266680000    0.000000000000    0.000000076525    0.000000000000    0.003483829200    -0.000000000000    -0.000020432183    -0.000000000000
            0.000000074199    -0.000000000000    0.070567886000    -0.000000000000    0.000000218409    0.000000000000    0.004793894800    -0.000000000000
            0.004602915600    0.000000000000    0.000000219218    0.000000000000    0.072600313000    -0.000000000000    0.000000305630    0.000000000000
            -0.000020431008    -0.000000000000    0.005640071800    0.000000000000    0.000000301018    0.000000000000    0.071485629000    -0.000000000000
0.025     0.137273420649    0.013437587081    0.000010638701    0.000006394880    0.071216827133    0.039773185076    0.000008502993    0.000029228496
            0.000010598669    0.000006388015    0.136629150535    0.013832947585    0.000008018685    0.000002736603    0.070934889209    0.039650447857
            0.072072675280    0.039262855333    0.000008015418    0.000002742028    0.137166120029    0.014139836113    0.000012000283    0.000006824379
            0.000008498807    0.000029228626    0.071631844047    0.039270182988    0.000011952523    0.000006823050    0.136861470460    0.014295266478
0.050     0.118254832614    -0.077347347424    0.000020369520    -0.000013790788    0.074207697458    -0.032738152357    0.000035247876    -0.000006325558
            0.000020349010    -0.000013698953    0.118738300273    -0.077350163853    0.000014253558    -0.000007510742    0.074597176783    -0.032771392367
            0.074713937098    -0.033662827298    0.000014267014    -0.000007500407    0.118636940302    -0.078076425534    0.000022696090    -0.000015162037
            0.000035249331    -0.000006306907    0.075020823321    -0.033534249417    0.000022681831    -0.000015055873    0.119227485248    -0.078128231964
0.075     0.030889598155    -0.028370364933    0.000004419883    -0.000033536349    0.022651084943    0.022610282713    0.000022683418    -0.000028467276
            0.000004479771    -0.000033522689    0.030722117672    -0.030516300042    -0.000000381298    -0.000030475656    0.022573854549    0.020880115525
            0.022640399193    0.022109581686    -0.000000361123    -0.000030494318    0.028670229294    -0.029371540691    0.000004766902    -0.000038099227
            0.000022707012    -0.000028483155    0.022552074130    0.020474935524    0.000004836667    -0.000038088188    0.028575403105    -0.031210972558
0.100     0.115614640785    0.033563643379    -0.000041765236    -0.000037234605    0.112015019945    0.069440668436    -0.000026942339    -0.000076521326
            -0.000041721420    -0.000037368598    0.112912538120    0.032810230380    -0.000038103363    -0.000009099719    0.109700677711    0.068840190372
            0.111534652709    0.068541455319    -0.000038082798    -0.000009187621    0.114448220895    0.033850979132    -0.000047198874    -0.000040124355
            -0.000026943488    -0.000076572796    0.109290815397    0.068124685960    -0.000047142355    -0.000040290519    0.112319445464    0.033447370379
0.125     0.155821509741    -0.077086253507    -0.000063145945    0.000038116906    0.151957264582    -0.058612384806    -0.000106238619    0.000022767111
            -0.000063290360    0.000038020447    0.155247993574    -0.075839899672    -0.000022588679    0.000022150192    0.151538510572    -0.057461647408
            0.151058128348    -0.059225388243    -0.000022720821    0.000022112747    0.155552578297    -0.076969922344    -0.000068641084    0.000041469245
            -0.000106297652    0.000022734748    0.150803287955    -0.057947097963    -0.000068833536    0.000041345349    0.155356197997    -0.075921721266
0.150     0.042592984770    -0.104434196500    0.000005753946    0.000067173008    0.026890591443    -0.082526948553    -0.000014651273    0.000086292603
            0.000005614385    0.000067369768    0.043613839562    -0.106662471896    -0.000008830807    0.000042895313    0.027803836952    -0.084426917750
            0.025725850642    -0.082526188694    -0.000008915660    0.000043017684    0.042014240712    -0.104922068391    0.000004142321    0.000074584994
            -0.000014737783    0.000086362218    0.026844462671    -0.084415758561    0.000003966014    0.000074847162    0.042826629740    -0.106729206810
0.175     0.069769850954    -0.020728615411    0.000063594434    0.000058111397    0.069893354770    0.015026970233    0.000054630543    0.000105057467
            0.000063600840    0.000058314250    0.065594942787    -0.023399231937    0.000058783044    0.000031198002    0.066246506256    0.013031867457
            0.069034751869    0.014822324803    0.000058806209    0.000031347035    0.068424674526    -0.022109467443    0.000071419207    0.000065099805
            0.000054643073    0.000105162428    0.065551018338    0.012878516246    0.000071456200    0.000065357623    0.065280134723    -0.023716208153
0.200     0.163386205244    -0.079229191738    0.000114909079    -0.000052616687    0.180485670534    -0.064454099377    0.000190659645    -0.000022317249
            0.000115022872    -0.000052801181    0.160339933072    -0.076408726936    0.000034607483    -0.000053604203    0.178350770340    -0.061573102947
            0.180046589198    -0.063708784005    0.000034913315    -0.000053680619    0.162720015735    -0.079035488866    0.000124693764    -0.000058220778
            0.000190797606    -0.000022358476    0.178011081230    -0.060948412231    0.000124849721    -0.000058441270    0.160927961149    -0.076531109816
0.225     0.068089681219    -0.181573960169    -0.000022483362    -0.000123809825    0.064059899156    -0.188178937609    0.000009154707    -0.000189780414
            -0.000022600360    -0.000124041019    0.069584886637    -0.181135096233    -0.000005517301    -0.000032137807    0.066031201821    -0.187835077670
            0.063798912338    -0.187243025984    -0.000005532931    -0.000032473869    0.067696446925    -0.181371942282    -0.000021002694    -0.000133347949
            0.000009209289    -0.000189932715    0.065815745018    -0.187065522613    -0.000021131647    -0.000133644189    0.069177014095    -0.181057607643
0.250     -0.030454029925    -0.096318896438    -0.000083510152    -0.000038258936    -0.053915178742    -0.086170939295    -0.000098212486    -0.000077255773
            -0.000083952240    -0.000038093821    -0.033076328061    -0.101013834953    -0.000033073130    -0.000052716198    -0.055745168573    -0.090413609268
            -0.053547969017    -0.084948106923    -0.000033371319    -0.000052861633    -0.030361191599    -0.096228447701    -0.000090364113    -0.000049048518
            -0.000098404118    -0.000077418135    -0.055446207608    -0.089364934343    -0.000090891801    -0.000048880089    -0.032116553390    -0.099499537296
0.275     0.059657412641    -0.067560453551    -0.000128173480    0.000043565649    0.051959045711    -0.049084344231    -0.000203910974    0.000004477625
            -0.000127987460    0.000043756322    0.052585380351    -0.065314556993    -0.000080463993    0.000040657945    0.046739899724    -0.047048462725
            0.052428057459    -0.048756784196    -0.000080726019    0.000040898203    0.062211203040    -0.066811601347    -0.000145255577    0.000047961555
            -0.000204049063    0.000004601481    0.047155713748    -0.046768858078    -0.000145088834    0.000048205520    0.057792615176    -0.064646355168
0.300     0.066564127891    -0.186741613060    0.000012153585    0.000172574871    0.055335095874    -0.168511110545    -0.000057189475    0.000284921739
            0.000012521948    0.000172214025    0.067373122083    -0.182350469302    0.000030866049    0.000061438924    0.056865431504    -0.165485772720
            0.056342550609    -0.168704964182    0.000031236726    0.000061835085    0.065532867876    -0.187872721744    0.000010866031    0.000187012851
            -0.000057044701    0.000285093159    0.057750499493    -0.165699604534    0.000011290454    0.000186653859    0.067196460961    -0.185025703323
0.325     -0.087290869519    -0.181749576151    0.000134679423    0.000023647725    -0.102118517809    -0.155094116867    0.000228536038    0.000081626148
            0.000134549854    0.000023342320    -0.086396524409    -0.184867116411    0.000014492487    0.000022570071    -0.101281234533    -0.158574404573
            -0.101445159194    -0.155396755767    0.000014868443    0.000022357764    -0.088305836907    -0.181524926681    0.000141100558    0.000034283351
            0.000228707660    0.000081633232    -0.100745708944    -0.158853506340    0.000140982809    0.000033928518    -0.087161463346    -0.184194348070
0.350     -0.102704531960    -0.039657382125    0.000072380129    -0.000037948032    -0.111060505330    -0.009153277959    0.000112946072    -0.000054342547
            0.000071944807    -0.000038182731    -0.110963698096    -0.041880185248    0.000078044042    0.000029515061    -0.117865711448    -0.011437194326
            -0.110216461752    -0.009650366906    0.000078098221    0.000029157608    -0.101831895046    -0.039949252980    0.000092136175    -0.000034375512
            0.000113121017    -0.000054563880    -0.117138926993    -0.011808838171    0.000091645414    -0.000034608736    -0.107139498979    -0.041720102388
0.375     -0.013219553956    -0.065106926501    0.000045600750    -0.000147767194    -0.016419926028    -0.042021267000    0.000111263855    -0.000209298417
            0.000045374449    -0.000147122642    -0.017412549789    -0.057410285154    0.000038610646    -0.000099666706    -0.019147612347    -0.036423286585
            -0.016123095268    -0.042966030690    0.000038187134    -0.000099951509    -0.013372354132    -0.066572148985    0.000054821432    -0.000169787400
            0.000111024029    -0.000209476302    -0.018840003827    -0.037269548657    0.000054615256    -0.000169137364    -0.015251946772    -0.061693373926
0.400     -0.075272458367    -0.159655480374    -0.000158371512    -0.000072942845    -0.071484215505    -0.098636921296    -0.000271935892    -0.000197836632
            -0.000157384357    -0.000072742717    -0.071600028948    -0.158479938766    -0.000060694656    -0.000032733442    -0.069468040906    -0.099050651730
            -0.072105313093    -0.099928758550    -0.000060968162    -0.000032066549    -0.079131020484    -0.160403606976    -0.000169412008    -0.000085343595
            -0.000272062080    -0.000197539625    -0.070016930525    -0.100273013752    -0.000168406218    -0.000085176483    -0.076022888476    -0.160999850800
0.425     -0.186239800325    -0.050012771368    -0.000066784627    0.000069490372    -0.140725271179    -0.004306503217    -0.000151386254    0.000178414528
            -0.000066698429    0.000068725720    -0.191134547851    -0.054246969359    -0.000045603509    -0.000031811970    -0.145939853379    -0.007312708961
            -0.141729046032    -0.004758024168    -0.000045116239    -0.000031665258    -0.187354167284    -0.047606020004    -0.000084857479    0.000063207237
            -0.000151230909    0.000178476237    -0.146888216190    -0.007711684411    -0.000084771430    0.000062411121    -0.190844686060    -0.051568074352
0.450     -0.095408549702    0.070325263273    -0.000064263958    0.000056462394    -0.062314988113    0.075070495398    -0.000037736234    0.000073204850
            -0.000064630477    0.000056267114    -0.105719847489    0.076507290421    -0.000114188507    0.000056633696    -0.070257478985    0.080357110117
            -0.063036218584    0.074973157874    -0.000114055404    0.000056424293    -0.093720504198    0.069299720458    -0.000085792357    0.000077573213
            -0.000037678056    0.000073221347    -0.070864944569    0.080311641942    -0.000086248777    0.000077341399    -0.100865332081    0.072833489184
0.475     -0.030721796185    -0.016679921736    0.000073986272    0.000157427175    -0.024080112790    0.010036692637    0.000086878977    0.000249821127
            0.000073424770    0.000157527598    -0.028321358842    -0.007469358646    0.000050289924    0.000134010450    -0.022529767814    0.016088061102
            -0.024840454454    0.010004376606    0.000050353915    0.000133740055    -0.032369070297    -0.017771982656    0.000089948868    0.000182881554
            0.000086983801    0.000249681890    -0.023209484988    0.015965391375    0.000089416559    0.000183117222    -0.030598221913    -0.012693823852
0.500     -0.123250221819    -0.043859945047    0.000155491333    -0.000045305980    -0.070360170317    0.002719174386    0.000303832212    -0.000097760734
            0.000155719536    -0.000044257173    -0.122600346458    -0.046108084380    0.000101734952    0.000003279590    -0.072070069387    0.001461418486
            -0.071550634770    0.003372815491    0.000101118106    0.000003279726    -0.127020429564    -0.040251216367    0.000176460784    -0.000042312874
            0.000303530256    -0.000097770582    -0.073248695718    0.001960148870    0.000176851894    -0.000041297410    -0.127508061264    -0.043074830442
0.525     -0.123761937738    0.086408511655    0.000065247253    -0.000072872103    -0.049439265065    0.068461095683    -0.000005115434    -0.000155320375
            0.000066264917    -0.000073318959    -0.133849623780    0.090328128470    0.000107407592    -0.000050122510    -0.057098804147    0.073889799215
            -0.049862054400    0.069830033445    0.000107632517    -0.000049504350    -0.120871169839    0.089387051139    0.000091286706    -0.000090506696
            -0.000004977474    -0.000155029776    -0.057588552095    0.075182820357    0.000092287804    -0.000091049232    -0.128799821422    0.091795286657
0.550     0.001262393699    0.086218004587    0.000010319308    -0.000192969978    0.011919095357    0.044908122814    0.000032172059    -0.000183366310
            0.000009839473    -0.000193716812    -0.000098211521    0.101433122454    -0.000003081991    -0.000186209756    0.012655234962    0.056519143129
            0.012403079149    0.046009748273    -0.000002591325    -0.000186549753    0.002467947355    0.083091108961    -0.000002180645    -0.000232371148
            0.000032396392    -0.000183600559    0.013095244504    0.057579631822    -0.000002695872    -0.000233174386    0.001254619559    0.093336324132
0.575     -0.023089728922    -0.002933838203    -0.000230274004    -0.000054130205    -0.019490616347    0.014631862309    -0.000318976692    -0.000111718174
            -0.000230594306    -0.000054045537    -0.015632161252    0.000991759181    -0.000178179829    -0.000045446217    -0.015023979854    0.016572436714
            -0.019082884122    0.015071710994    -0.000178361915    -0.000045646067    -0.026281359472    -0.002131939842    -0.000263696141    -0.000054687806
            -0.000319136792    -0.000111793257    -0.014676367440    0.016976451108    -0.000264129111    -0.000054588616    -0.022071815655    -0.000343152165
0.600     -0.076829831501    0.039472881293    -0.000119107847    0.000153630797    -0.032571390452    0.041085689193    -0.000154543778    0.000252943946
            -0.000119376407    0.000154149586    -0.081606276862    0.041325697853    -0.000115495206    0.000102692398    -0.037190379107    0.044469304420
            -0.031865323702    0.041622605579    -0.000115863173    0.000102623109    -0.074320054350    0.043270239923    -0.000144134600    0.000172726258
            -0.000154767675    0.000252952827    -0.036639758135    0.045047690207    -0.000144321225    0.000173398532    -0.078973589030    0.044999442505
0.625     -0.013664647670    0.063750472305    0.000011775765    0.000231228362    0.004516971562    0.021579873583    0.000029657149    0.000259041875
            0.000012563596    0.000231679278    -0.014346962862    0.079893310288    0.000015932125    0.000200854048    0.006459570041    0.034946344533
            0.005693503662    0.021782140516    0.000015645182    0.000201504883    -0.009952849598    0.060651133733    0.000019852831    0.000277365781
            0.000029519803    0.000259445171    0.007568462570    0.035296032310    0.000020735070    0.000277726515    -0.010075702632    0.072622028644
0.650     -0.023427525338    0.002352865461    0.000300691149    0.000082111906    -0.045587644973    -0.009765171854    0.000367957942    0.000147033345
            0.000301076053    0.000081183035    -0.009036087129    0.009802555799    0.000216778860    0.000042832957    -0.033739037944    -0.006577749934
            -0.044434358528    -0.010374009382    0.000217660743    0.000043157169    -0.025990612089    0.000336397459    0.000346434026    0.000083131107
            0.000368499729    0.000147249325    -0.032554772384    -0.007064817752    0.000346767290    0.000082175339    -0.015813181392    0.004313727023
0.675     -0.070492437155    0.043294529843    0.000138749407    -0.000218267239    -0.068216726642    0.060209155458    0.000220164372    -0.000296276099
            0.000137886715    -0.000218580141    -0.068026403453    0.040248909842    0.000109734126    -0.000123981074    -0.068430135645    0.057617666781
            -0.067696675557    0.059092724296    0.000110069678    -0.000124849239    -0.068840215015    0.045507450564    0.000159694332    -0.000242515911
            0.000220469037    -0.000296838712    -0.067853472007    0.056608700853    0.000158822703    -0.000242815354    -0.068799033307    0.043407866034
0.700     -0.015421802874    0.060228145105    -0.000032218862    -0.000232606951    -0.000683094117    0.061677159374    -0.000038033771    -0.000312941086
            -0.000032588130    -0.000231857682    -0.016508453105    0.072574101745    -0.000000991524    -0.000202888087    -0.001093576295    0.072663836413
            -0.000804731514    0.060603006326    -0.000001742029    -0.000203450312    -0.011351531495    0.055370014638    -0.000034598788    -0.000279047932
            -0.000038547547    -0.000313395642    -0.001072146442    0.071675231653    -0.000034940269    -0.000278285425    -0.011703043004    0.065604472234
0.725     -0.055747052539    -0.010414289050    -0.000347577435    -0.000092826270    -0.056126282020    0.004275504855    -0.000468571949    -0.000189780136
            -0.000346906687    -0.000092524617    -0.036320557851    -0.002290982780    -0.000255535156    -0.000049625599    -0.040641346028    0.008600744847
            -0.056705585431    0.003592811860    -0.000256185044    -0.000048807911    -0.060394351276    -0.015242501321    -0.000403703575    -0.000098315736
            -0.000469078376    -0.000189302201    -0.041064562803    0.007867955213    -0.000403039214    -0.000098073096    -0.045088138338    -0.011293146042
0.750     -0.138334105390    0.088040827550    -0.000112741225    0.000299021511    -0.110496791309    0.099810339648    -0.000214476209    0.000459366602
            -0.000112285966    0.000298722474    -0.129838603782    0.077332676903    -0.000061993628    0.000159821503    -0.106630890558    0.091187735430
            -0.111048430806    0.099239104446    -0.000061508378    0.000160502178    -0.138951986945    0.092553103321    -0.000127428263    0.000330470737
            -0.000214319235    0.000459897828    -0.107093546944    0.090539197594    -0.000127033839    0.000330158662    -0.135426244838    0.083381459393
0.775     -0.026827887482    0.174485364838    0.000090197010    0.000134195167    -0.000533810067    0.163085836373    0.000187424602    0.000194388852
            0.000090193350    0.000133440845    -0.032323557920    0.176697457756    -0.000015961770    0.000114097719    -0.005376678002    0.167059780472
            -0.001468333304    0.162584699737    -0.000015199962    0.000114104623    -0.020226106808    0.171212257001    0.000088185433    0.000167870745
