# GHz S RI R 45
0.000     0.071685875000    0.000000000000    -0.000000075187    -0.000000000000    0.004717049500    -0.000000000000    0.000020575883    0.000000000000
            -0.000000072576    0.000000000000    0.070567886000    -0.000000000000    -0.000000219447    -0.000000000000    0.004793894800    -0.000000000000
            0.005835043100    0.000000000000    -0.000000219870    0.000000000000    0.071750400000    -0.000000000000    -0.000000321455    -0.000000000000
            0.000020575427    0.000000000000    0.005640071800    0.000000000000    -0.000000313751    -0.000000000000    0.071485629000    -0.000000000000
0.025     0.137272810063    0.013436023532    -0.000008225243    -0.000001666165    0.071216760914    0.039773332358    0.000045022903    0.000024414134
            -0.000008246003    -0.000001659878    0.136629150535    0.013832947585    -0.000006244902    -0.000001009982    0.070934889209    0.039650447857
            0.072072693143    0.039262860171    -0.000006244747    -0.000000993095    0.137165074569    0.014140908295    -0.000009164656    -0.000001885261
            0.000045020785    0.000024423778    0.071631844047    0.039270182988    -0.000009183470    -0.000001884513    0.136861470460    0.014295266478
0.050     0.118254944920    -0.077347376677    0.000002959300    0.000004383122    0.074207728881    -0.032738068743    -0.000041372535    0.000050912687
            0.000002997667    0.000004425643    0.118738300273    -0.077350163853    0.000004328753    0.000001743810    0.074597176783    -0.032771392367
            0.074713952454    -0.033662776174    0.000004371252    0.000001769455    0.118636028263    -0.078077211087    0.000003610695    0.000004229330
            -0.000041349551    0.000050937658    0.075020823321    -0.033534249417    0.000003644235    0.000004266304    0.119227485248    -0.078128231964
0.075     0.030890093080    -0.028370115810    0.000003774903    -0.000023453644    0.022650845450    0.022610282004    0.000007488109    0.000268827691
            0.000003829482    -0.000023556739    0.030722117672    -0.030516300042    -0.000000801588    -0.000024499920    0.022573854549    0.020880115525
            0.022640172573    0.022109610503    -0.000000759892    -0.000024514585    0.028662447735    -0.029370336439    0.000003800443    -0.000027629220
            0.000007527216    0.000268808472    0.022552074130    0.020474935524    0.000003848646    -0.000027730368    0.028575403105    -0.031210972558
0.100     0.115614459135    0.033563623463    -0.000046467519    -0.000020968179    0.112015158405    0.069440805692    0.000218857187    0.000178044122
            -0.000046645988    -0.000021003310    0.112912538120    0.032810230380    -0.000039325732    -0.000008544929    0.109700677711    0.068840190372
            0.111534787071    0.068541599571    -0.000039277327    -0.000008594094    0.114442107113    0.033860894136    -0.000051774335    -0.000023411241
            0.000218855137    0.000177996089    0.109290815397    0.068124685960    -0.000051957261    -0.000023442684    0.112319445464    0.033447370379
0.125     0.155822411810    -0.077091533899    -0.000024383272    0.000037387871    0.151957080692    -0.058612917130    0.000014169431    0.000071973133
            -0.000024360947    0.000037600981    0.155247993574    -0.075839899672    -0.000009288215    0.000024640097    0.151538510572    -0.057461647408
            0.151057950575    -0.059225923849    -0.000009254422    0.000024582762    0.155553703085    -0.076958538952    -0.000026076335    0.000039191963
            0.000014176523    0.000071980482    0.150803287955    -0.057947097963    -0.000026057067    0.000039411291    0.155356197997    -0.075921721266
0.150     0.042588269774    -0.104433592274    0.000019928709    -0.000007917293    0.026890031534    -0.082527303478    -0.000023029889    0.000443906656
            0.000020121781    -0.000008055691    0.043613839562    -0.106662471896    0.000012159147    -0.000020731612    0.027803836952    -0.084426917750
            0.025725278798    -0.082526554448    0.000012194980    -0.000020838017    0.041995078397    -0.104924257045    0.000020825721    -0.000012327859
            -0.000022960383    0.000443840984    0.026844462671    -0.084415758561    0.000021011198    -0.000012469583    0.042826629740    -0.106729206810
0.175     0.069769023936    -0.020725724666    -0.000053133468    -0.000050285767    0.069894158180    0.015028171643    0.000422301136    0.000396652057
            -0.000053428950    -0.000050396153    0.065594942787    -0.023399231937    -0.000056770328    -0.000028946885    0.066246506256    0.013031867457
            0.069035552443    0.014823569333    -0.000056785872    -0.000029149954    0.068399439628    -0.022078407921    -0.000061707144    -0.000056085801
            0.000422279970    0.000396513267    0.065551018338    0.012878516246    -0.000062025072    -0.000056161358    0.065280134723    -0.023716208153
0.200     0.163384804191    -0.079231485054    -0.000086117962    0.000074452801    0.180485482603    -0.064456142039    0.000207795008    0.000074034057
            -0.000086070469    0.000074821289    0.160339933072    -0.076408726936    -0.000040121113    0.000059799965    0.178350770340    -0.061573102947
            0.180046417805    -0.063710827199    -0.000040384698    0.000059821188    0.162725679756    -0.079015035786    -0.000093217552    0.000079928267
            0.000207674714    0.000074084261    0.178011081230    -0.060948412231    -0.000093125771    0.000080304029    0.160927961149    -0.076531109816
0.225     0.068083194691    -0.181575420598    0.000043129496    0.000052510608    0.064056919995    -0.188178874273    -0.000005621179    0.000472744982
            0.000043534953    0.000052352243    0.069584886637    -0.181135096233    0.000030808525    0.000012324581    0.066031201821    -0.187835077670
            0.063795919862    -0.187242989128    0.000030740434    0.000012454629    0.067664199781    -0.181377966154    0.000044486190    0.000052443679
            -0.000005587915    0.000472770098    0.065815745018    -0.187065522613    0.000044894641    0.000052256668    0.069177014095    -0.181057607643
0.250     -0.030459449599    -0.096313931357    -0.000011204900    -0.000061518759    -0.053916225162    -0.086167996103    0.000570460979    0.000635681895
            -0.000011533385    -0.000061809572    -0.033076328061    -0.101013834953    -0.000032068833    -0.000052854041    -0.055745168573    -0.090413609268
            -0.053549019611    -0.084945139543    -0.000032137515    -0.000052888445    -0.030419944463    -0.096174126238    -0.000018460732    -0.000069114003
            0.000570341780    0.000635572700    -0.055446207608    -0.089364934343    -0.000018802492    -0.000069383349    -0.032116553390    -0.099499537296
0.275     0.059657188350    -0.067557179005    -0.000146559229    0.000030440094    0.051960578135    -0.049086021842    0.000532596008    0.000027837297
            -0.000146581039    0.000030881748    0.052585380351    -0.065314556993    -0.000096342716    0.000043856852    0.046739899724    -0.047048462725
            0.052429641901    -0.048758460758    -0.000096621241    0.000044047480    0.062216380624    -0.066749539853    -0.000161340728    0.000037432441
            0.000532442978    0.000027951042    0.047155713748    -0.046768858078    -0.000161307905    0.000037877944    0.057792615176    -0.064646355168
0.300     0.066560028862    -0.186743902174    0.000023950314    0.000155751113    0.055328788815    -0.168511886901    0.000068029587    0.000383057313
            0.000024320303    0.000155512080    0.067373122083    -0.182350469302    0.000029138146    0.000069999200    0.056865431504    -0.165485772720
            0.056336234240    -0.168705797853    0.000029521153    0.000070411000    0.065504450386    -0.187868684249    0.000025892884    0.000163705554
            0.000068167314    0.000383234922    0.057750499493    -0.165699604534    0.000026229363    0.000163396150    0.067196460961    -0.185025703323
0.325     -0.087301462383    -0.181743345551    0.000056263409    -0.000042530874    -0.102121458555    -0.155087798359    0.000626816089    0.000763968007
            0.000055914194    -0.000042941565    -0.086396524409    -0.184867116411    0.000001068390    -0.000040198628    -0.101281234533    -0.158574404573
            -0.101448137814    -0.155390416431    0.000001373906    -0.000040386220    -0.088395289058    -0.181451117363    0.000053394725    -0.000047466087
            0.000626898064    0.000763898788    -0.100745708944    -0.158853506340    0.000053000621    -0.000047831590    -0.087161463346    -0.184194348070
0.350     -0.102704769803    -0.039646104301    -0.000140475818    -0.000034116077    -0.111057683249    -0.009150508441    0.000928614450    0.000062907420
            -0.000140789324    -0.000033603621    -0.110963698096    -0.041880185248    -0.000114667523    -0.000005790206    -0.117865711448    -0.011437194326
            -0.110213585899    -0.009647556501    -0.000114807779    -0.000005858340    -0.101834295682    -0.039817397349    -0.000157391361    -0.000032434790
            0.000928459578    0.000063024443    -0.117138926993    -0.011808838171    -0.000157643547    -0.000031931737    -0.107139498979    -0.041720102388
0.375     -0.013219952531    -0.065103820064    -0.000106429246    0.000208508005    -0.016425295482    -0.042023800326    0.000153975368    0.000096212340
            -0.000105880163    0.000208441640    -0.017412549789    -0.057410285154    -0.000053129544    0.000136046237    -0.019147612347    -0.036423286585
            -0.016128476226    -0.042968651055    -0.000052832620    0.000136366824    -0.013360141214    -0.066542626717    -0.000110366447    0.000226975483
            0.000154208202    0.000096449489    -0.018840003827    -0.037269548657    -0.000109880386    0.000226847989    -0.015251946772    -0.061693373926
0.400     -0.075278197422    -0.159651182419    0.000144943279    0.000074924423    -0.071490313277    -0.098625264323    0.000622004416    0.000811937823
            0.000144550618    0.000074642081    -0.071600028948    -0.158479938766    0.000053019442    0.000023968485    -0.069468040906    -0.099050651730
            -0.072111487435    -0.099917064054    0.000053397536    0.000023323698    -0.079235841713    -0.160322740406    0.000149536952    0.000074676854
            0.000622285090    0.000811710255    -0.070016930525    -0.100273013752    0.000149108732    0.000074502093    -0.076022888476    -0.160999850800
0.425     -0.186241295492    -0.050000801581    -0.000082305846    -0.000073619212    -0.140717590644    -0.004299532484    0.001216196514    0.000157445481
            -0.000082544167    -0.000073183694    -0.191134547851    -0.054246969359    -0.000078118582    -0.000010698970    -0.145939853379    -0.007312708961
            -0.141721307883    -0.004750979362    -0.000078549260    -0.000010969332    -0.187369899951    -0.047405958265    -0.000094469718    -0.000073755645
            0.001216150297    0.000157254030    -0.146888216190    -0.007711684411    -0.000094594226    -0.000073306867    -0.190844686060    -0.051568074352
0.450     -0.095403102757    0.070331759239    -0.000181654297    0.000178333339    -0.062314978656    0.075066991610    0.000440851473    -0.000255816478
            -0.000181127441    0.000178571526    -0.105719847489    0.076507290421    -0.000112127993    0.000130838334    -0.070257478985    0.080357110117
            -0.063036183324    0.074969582879    -0.000112232117    0.000131079336    -0.093645912892    0.069386492626    -0.000194809525    0.000198330505
            0.000440867953    -0.000255748360    -0.070864944569    0.080311641942    -0.000194328614    0.000198452309    -0.100865332081    0.072833489184
0.475     -0.030722385044    -0.016678596068    0.000125287217    0.000264175053    -0.024089070291    0.010046861669    0.000433825548    0.000712176285
            0.000125235274    0.000263598031    -0.028321358842    -0.007469358646    0.000069491275    0.000154803022    -0.022529767814    0.016088061102
            -0.024849500458    0.010014573146    0.000069821105    0.000154609453    -0.032450313552    -0.017706925321    0.000138025199    0.000278505805
            0.000434091704    0.000711958173    -0.023209484988    0.015965391375    0.000137907045    0.000278048095    -0.030598221913    -0.012693823852
0.500     -0.123251080320    -0.043856518322    0.000093943377    -0.000073487329    -0.070347583663    0.002732533703    0.001445629874    0.000284999631
            0.000093629500    -0.000073104106    -0.122600346458    -0.046108084380    0.000016858196    -0.000010015112    -0.072070069387    0.001461418486
            -0.071537972350    0.003386258848    0.000016339136    -0.000010409683    -0.127055702288    -0.039997763985    0.000089954219    -0.000076080053
            0.001445385980    0.000284587810    -0.073248695718    0.001960148870    0.000089805890    -0.000075703971    -0.127508061264    -0.043074830442
0.525     -0.123760402797    0.086411199194    -0.000189425851    0.000111984595    -0.049433330937    0.068452752530    0.000802233584    -0.000522949104
            -0.000189041616    0.000112177502    -0.133849623780    0.090328128470    -0.000098843510    0.000109914758    -0.057098804147    0.073889799215
            -0.049856051511    0.069821600845    -0.000099132144    0.000110205155    -0.120734817380    0.089551078586    -0.000202519602    0.000129049580
            0.000801865438    -0.000522992426    -0.057588552095    0.075182820357    -0.000202158129    0.000129092512    -0.128799821422    0.091795286657
0.550     0.001263416709    0.086220129831    0.000068295108    0.000364991118    0.011906186416    0.044914198528    0.000298228501    0.000339417535
            0.000068538289    0.000364584106    -0.000098211521    0.101433122454    0.000051432300    0.000227920370    0.012655234962    0.056519143129
            0.012390081377    0.046015785370    0.000051451794    0.000228070286    0.002458529271    0.083139527206    0.000081537338    0.000393930868
            0.000298052010    0.000339567339    0.013095244504    0.057579631822    0.000081643101    0.000393570114    0.001254619559    0.093336324132
0.575     -0.023088283091    -0.002934903392    0.000283809942    0.000029886431    -0.019479768608    0.014653222318    0.001450149167    0.000445575159
            0.000283286926    0.000029842409    -0.015632161252    0.000991759181    0.000143418639    0.000038616063    -0.015023979854    0.016572436714
            -0.019072009653    0.015093165208    0.000143329194    0.000038386196    -0.026337791025    -0.001865148250    0.000298329861    0.000026315958
            0.001450033397    0.000445448714    -0.014676367440    0.016976451108    0.000297915626    0.000026364113    -0.022071815655    -0.000343152165
0.600     -0.076833969884    0.039469329468    -0.000100864529    -0.000027047835    -0.032555809737    0.041076004583    0.001197137254    -0.000732263691
            -0.000100598863    -0.000026611488    -0.081606276862    0.041325697853    -0.000043529842    0.000048327669    -0.037190379107    0.044469304420
            -0.031849657023    0.041612839073    -0.000043951929    0.000048682928    -0.074130749235    0.043522588918    -0.000110184871    -0.000015857173
            0.001196732836    -0.000732015313    -0.036639758135    0.045047690207    -0.000109910288    -0.000015572706    -0.078973589030    0.044999442505
0.625     -0.013669914946    0.063753761255    0.000021970499    0.000373867002    0.004499306661    0.021578054589    0.000281134574    -0.000158399271
            0.000022359712    0.000373419118    -0.014346962862    0.079893310288    0.000062869228    0.000236014358    0.006459570041    0.034946344533
            0.005675725793    0.021780263085    0.000063050132    0.000236623063    -0.009852487241    0.060694281902    0.000036817797    0.000406883996
            0.000281137148    -0.000157828355    0.007568462570    0.035296032310    0.000037043694    0.000406434152    -0.010075702632    0.072622028644
0.650     -0.023425545618    0.002351972836    0.000430480602    0.000108446334    -0.045581851434    -0.009734014091    0.001256038744    0.000394729925
            0.000429893829    0.000108096056    -0.009036087129    0.009802555799    0.000253346798    0.000054005299    -0.033739037944    -0.006577749934
            -0.044428577805    -0.010342736722    0.000253890304    0.000054045429    -0.026039575228    0.000570590882    0.000464215747    0.000105093986
            0.001256404469    0.000394938708    -0.032554772384    -0.007064817752    0.000463631280    0.000104903944    -0.015813181392    0.004313727023
0.675     -0.070499161588    0.043286866442    0.000048173348    -0.000187428005    -0.068186477028    0.060202763259    0.001461820882    -0.000815736897
            0.000048124179    -0.000186811571    -0.068026403453    0.040248909842    0.000035639736    -0.000052694553    -0.068430135645    0.057617666781
            -0.067666324285    0.059086272328    0.000035557797    -0.000052746104    -0.068624808576    0.045833883588    0.000047035859    -0.000191220470
            0.001461895861    -0.000815618939    -0.067853472007    0.056608700853    0.000047083898    -0.000190656950    -0.068799033307    0.043407866034
0.700     -0.015432703214    0.060230685850    -0.000059291593    0.000253106916    -0.000698459658    0.061661688300    0.000321658201    -0.000714266307
            -0.000058840460    0.000252703762    -0.016508453105    0.072574101745    0.000035100496    0.000169734239    -0.001093576295    0.072663836413
            -0.000820220458    0.060587459267    0.000035640755    0.000170162736    -0.011114958482    0.055425742206    -0.000047774500    0.000280315804
            0.000322146893    -0.000713948436    -0.001072146442    0.071675231653    -0.000047453363    0.000279904503    -0.011703043004    0.065604472234
0.725     -0.055744667382    -0.010411950544    0.000470285741    0.000161490705    -0.056131258745    0.004312314527    0.000910854545    0.000161312102
            0.000469557982    0.000161316654    -0.036320557851    -0.002290982780    0.000303720215    0.000049749005    -0.040641346028    0.008600744847
            -0.056710581727    0.003629769842    0.000304316386    0.000048888596    -0.060396830014    -0.015086089016    0.000518242444    0.000155978520
            0.000911382969    0.000160804573    -0.041064562803    0.007867955213    0.000517568564    0.000155992320    -0.045088138338    -0.011293146042
0.750     -0.138343223003    0.088026276334    0.000157675510    -0.000320117350    -0.110453402255    0.099813688540    0.001426023916    -0.000817602434
            0.000157665368    -0.000319339165    -0.129838603782    0.077332676903    0.000079919394    -0.000153156503    -0.106630890558    0.091187735430
            -0.111004916722    0.099242424917    0.000079359691    -0.000153629885    -0.138735628300    0.092901534177    0.000162104539    -0.000341024808
            0.001425875280    -0.000817981605    -0.107093546944    0.090539197594    0.000162275297    -0.000340311344    -0.135426244838    0.083381459393
0.775     -0.026845434752    0.174481977964    -0.000127830341    0.000050126304    -0.000536239882    0.163057828250    0.000411968434    -0.001150856495
            -0.000127153381    0.000049888578    -0.032323557920    0.176697457756    -0.000012836750    0.000039459174    -0.005376678002    0.167059780472
            -0.001470865889    0.162556605696    -0.000012829079    0.000039818511    -0.019866894703    0.171304102029    -0.000125674902    0.000056921435
