# GHz S RI R 45
0.000     0.073062397000    -0.000000000000    -0.000021723788    0.000000000000    0.004108440800    0.000000000000    -0.000042655741    0.000000000000
            0.000047364237    0.000000000000    0.070567886000    -0.000000000000    0.000074699244    -0.000000000000    0.004793894800    -0.000000000000
            0.004535935500    0.000000000000    -0.000057037159    -0.000000000000    0.072204186000    -0.000000000000    0.000013605259    0.000000000000
            -0.000031248581    0.000000000000    0.005640071800    0.000000000000    0.000071791512    -0.000000000000    0.071485629000    -0.000000000000
0.025     0.137076149492    0.011581651742    0.000047977655    0.000037966917    0.071470900967    0.040093868198    0.000029745720    0.000045264485
            0.000089039180    -0.000005506788    0.136629150535    0.013832947585    0.000044273305    -0.000054822013    0.070934889209    0.039650447857
            0.071636501899    0.039774793095    0.000030983478    0.000062505186    0.136090174031    0.012844961072    0.000027573569    -0.000008742378
            0.000021251997    0.000033431193    0.071631844047    0.039270182988    0.000027851061    -0.000062099224    0.136861470460    0.014295266478
0.050     0.115963594374    -0.077560492330    -0.000005864911    0.000004641034    0.074573432492    -0.033489532800    -0.000007821454    0.000007433964
            -0.000001526038    -0.000039241356    0.118738300273    -0.077350163853    -0.000097816519    0.000009478022    0.074597176783    -0.032771392367
            0.074400607111    -0.033726639236    -0.000000178867    0.000020145152    0.115691647260    -0.077087473727    -0.000054227264    0.000014889003
            -0.000024002317    0.000015555882    0.075020823321    -0.033534249417    -0.000104269382    0.000013414468    0.119227485248    -0.078128231964
0.075     0.031773490558    -0.026902354281    0.000004441754    0.000167064254    0.022844194784    0.022064541358    -0.000003970438    0.000150043917
            0.000005605054    0.000140234040    0.030722117672    -0.030516300042    0.000024256663    0.000262998519    0.022573854549    0.020880115525
            0.022789824097    0.022004075696    0.000005914544    0.000168303057    0.030050030785    -0.026344263785    0.000018066708    0.000192307518
            0.000001242881    0.000169048191    0.022552074130    0.020474935524    0.000024360120    0.000242760286    0.028575403105    -0.031210972558
0.100     0.116692672318    0.031137773710    0.000203135088    0.000091369369    0.111373083650    0.067408067812    0.000182470072    0.000093122459
            0.000196095000    0.000044547527    0.112912538120    0.032810230380    0.000299180183    0.000061177228    0.109700677711    0.068840190372
            0.111319658975    0.067052637631    0.000196812445    0.000105263674    0.116537479542    0.032358188652    0.000232163006    0.000061112760
            0.000191993329    0.000093218682    0.109290815397    0.068124685960    0.000279377211    0.000049005374    0.112319445464    0.033447370379
0.125     0.152069826132    -0.079940770689    0.000058216887    -0.000045075729    0.149599259511    -0.060263346231    0.000076322480    -0.000040187270
            0.000012184556    -0.000088478780    0.155247993574    -0.075839899672    0.000036138801    -0.000140528486    0.151538510572    -0.057461647408
            0.148928581540    -0.060486861190    0.000075046693    -0.000019699751    0.152666093114    -0.079285134472    0.000055156221    -0.000095762076
            0.000081732811    -0.000042344879    0.150803287955    -0.057947097963    0.000049897819    -0.000145344173    0.155356197997    -0.075921721266
0.150     0.039098363279    -0.102644081567    -0.000029372563    0.000202845692    0.025115617630    -0.082725530242    -0.000012432125    0.000158669031
            -0.000106555382    0.000208655825    0.043613839562    -0.106662471896    -0.000124193615    0.000235644661    0.027803836952    -0.084426917750
            0.024514969558    -0.082050818278    0.000009376456    0.000208445397    0.039808533268    -0.102372937421    -0.000050056988    0.000171303293
            -0.000016126050    0.000155577357    0.026844462671    -0.084415758561    -0.000109007708    0.000172758009    0.042826629740    -0.106729206810
0.175     0.068152482743    -0.023228584397    0.000330389891    0.000187637106    0.068034155478    0.011678084274    0.000313208022    0.000159386207
            0.000302832381    0.000240139478    0.065594942787    -0.023399231937    0.000399922436    0.000282178245    0.066246506256    0.013031867457
            0.068234247635    0.012103539816    0.000362825125    0.000167880742    0.068878513113    -0.023306853933    0.000345187875    0.000178915368
            0.000318527062    0.000166536343    0.065551018338    0.012878516246    0.000353464627    0.000235176617    0.065280134723    -0.023716208153
0.200     0.157974508312    -0.082638133424    0.000186662328    -0.000159856332    0.173935900266    -0.067547414107    0.000210216087    -0.000173880294
            0.000179921925    -0.000131891595    0.160339933072    -0.076408726936    0.000289689709    -0.000237056468    0.178350770340    -0.061573102947
            0.174083004463    -0.067650004047    0.000207598595    -0.000185170999    0.158208682810    -0.084209546316    0.000245626199    -0.000230089163
            0.000218589785    -0.000174941181    0.178011081230    -0.060948412231    0.000289269836    -0.000240043992    0.160927961149    -0.076531109816
0.225     0.059888155237    -0.179962300827    -0.000074216576    0.000064010352    0.056414249827    -0.186481596671    -0.000044097896    -0.000014670760
            -0.000088471445    0.000097504797    0.069584886637    -0.181135096233    -0.000121944500    -0.000036271790    0.066031201821    -0.187835077670
            0.056071172057    -0.186027546778    -0.000052357083    0.000044782926    0.059015687239    -0.180704901409    -0.000085147790    -0.000069458677
            -0.000034520430    -0.000027010439    0.065815745018    -0.187065522613    -0.000094147993    -0.000114974406    0.069177014095    -0.181057607643
0.250     -0.034945199591    -0.093623606817    0.000260806028    0.000335509936    -0.058167441563    -0.084384092395    0.000223671843    0.000260438015
            0.000265126803    0.000402018050    -0.033076328061    -0.101013834953    0.000200022351    0.000399267255    -0.055745168573    -0.090413609268
            -0.057485656065    -0.083350088474    0.000301512759    0.000309787140    -0.034590587947    -0.093531881356    0.000192577403    0.000286493147
            0.000209267117    0.000246973318    -0.055446207608    -0.089364934343    0.000134020530    0.000303383185    -0.032116553390    -0.099499537296
0.275     0.050780393564    -0.066800751656    0.000426398253    -0.000174117173    0.042866693573    -0.048842165323    0.000431116390    -0.000203855008
            0.000503123091    -0.000132852050    0.052585380351    -0.065314556993    0.000561193178    -0.000145263977    0.046739899724    -0.047048462725
            0.043514464300    -0.049011203676    0.000464814359    -0.000244721807    0.054051514314    -0.067067400491    0.000482825153    -0.000205091200
            0.000424554769    -0.000195950175    0.047155713748    -0.046768858078    0.000510467964    -0.000146246268    0.057792615176    -0.064646355168
0.300     0.055819567455    -0.181814474892    -0.000075643078    -0.000153692295    0.044559972955    -0.163002293207    -0.000054020383    -0.000254389118
            -0.000018454613    -0.000178610627    0.067373122083    -0.182350469302    -0.000023522030    -0.000311537459    0.056865431504    -0.165485772720
            0.044691430786    -0.164111237592    -0.000098720185    -0.000233714560    0.053074513699    -0.184076279353    -0.000044587615    -0.000337062267
            -0.000051946136    -0.000250811726    0.057750499493    -0.165699604534    0.000003369706    -0.000357766201    0.067196460961    -0.185025703323
0.325     -0.096533142437    -0.173484132435    0.000061002762    0.000275350591    -0.109643341445    -0.146040616007    0.000002596967    0.000172726528
            0.000089600487    0.000248406671    -0.086396524409    -0.184867116411    -0.000034430360    0.000205735764    -0.101281234533    -0.158574404573
            -0.109989282268    -0.146140954053    0.000034561455    0.000259771843    -0.099148529897    -0.171665244153    -0.000058423509    0.000145655204
            0.000008352530    0.000164858536    -0.100745708944    -0.158853506340    -0.000071220102    0.000102362695    -0.087161463346    -0.184194348070
0.350     -0.112310510593    -0.030601165495    0.000553064256    0.000083045286    -0.117770482104    -0.001139019572    0.000512361373    0.000054272924
            0.000582799261    0.000058019370    -0.110963698096    -0.041880185248    0.000555803039    0.000141680776    -0.117865711448    -0.011437194326
            -0.117075952532    -0.001187028988    0.000598555152    0.000054125823    -0.110154281840    -0.029041499799    0.000528721309    0.000088357492
            0.000495949350    0.000047732341    -0.117138926993    -0.011808838171    0.000485675631    0.000108691858    -0.107139498979    -0.041720102388
0.375     -0.022852320673    -0.049159625686    0.000170497705    -0.000428803574    -0.024257643133    -0.028631194271    0.000191461859    -0.000516777995
            0.000202665894    -0.000490729736    -0.017412549789    -0.057410285154    0.000282886536    -0.000507513443    -0.019147612347    -0.036423286585
            -0.024188332240    -0.029552809133    0.000171412660    -0.000543183972    -0.022113412952    -0.051128378243    0.000250085876    -0.000575035150
            0.000183642406    -0.000500087111    -0.018840003827    -0.037269548657    0.000286908630    -0.000536333381    -0.015251946772    -0.061693373926
0.400     -0.080883915157    -0.146411380906    -0.000145137892    0.000050263012    -0.075225215109    -0.086392290418    -0.000207492556    -0.000059498082
            -0.000181041894    -0.000024056263    -0.071600028948    -0.158479938766    -0.000208234391    -0.000093422966    -0.069468040906    -0.099050651730
            -0.076786660083    -0.087364896600    -0.000241403880    0.000012558243    -0.085713917199    -0.146601306995    -0.000246623187    -0.000135608478
            -0.000198483397    -0.000048364925    -0.070016930525    -0.100273013752    -0.000211214953    -0.000174096135    -0.076022888476    -0.160999850800
0.425     -0.194347392419    -0.033528859422    0.000359886931    0.000186786702    -0.144581681801    0.009074546574    0.000310817909    0.000158920023
            0.000298550486    0.000161339123    -0.191134547851    -0.054246969359    0.000288736836    0.000199463050    -0.145939853379    -0.007312708961
            -0.145798126446    0.009816763734    0.000371119409    0.000234539259    -0.193811047484    -0.028620182243    0.000289543826    0.000166540679
            0.000321198482    0.000154067443    -0.146888216190    -0.007711684411    0.000261435479    0.000127315690    -0.190844686060    -0.051568074352
0.450     -0.098481957810    0.093978374646    0.000509121772    -0.000393831689    -0.063582619374    0.091978131534    0.000529896764    -0.000462420860
            0.000458772094    -0.000392891275    -0.105719847489    0.076507290421    0.000568118981    -0.000403597421    -0.070257478985    0.080357110117
            -0.063482319721    0.092551918067    0.000593974709    -0.000473411245    -0.092520089872    0.092203875583    0.000588071009    -0.000502977421
            0.000522998918    -0.000468373012    -0.070864944569    0.080311641942    0.000550286845    -0.000482029349    -0.100865332081    0.072833489184
0.475     -0.023790789004    0.002993976531    -0.000214241845    -0.000473342361    -0.018093214025    0.025272762609    -0.000252181440    -0.000591561525
            -0.000261273076    -0.000465781040    -0.028321358842    -0.007469358646    -0.000203914146    -0.000585423486    -0.022529767814    0.016088061102
            -0.018642247237    0.025022330869    -0.000279639093    -0.000588707467    -0.025254283286    -0.001364969055    -0.000265366662    -0.000689851299
            -0.000254908264    -0.000580338334    -0.023209484988    0.015965391375    -0.000241334709    -0.000665308759    -0.030598221913    -0.012693823852
0.500     -0.124757768347    -0.030830709762    -0.000079706798    0.000147232109    -0.071024263004    0.012471249721    -0.000110573562    0.000102334829
            -0.000136830920    0.000186646207    -0.122600346458    -0.046108084380    -0.000135252865    0.000110513351    -0.072070069387    0.001461418486
            -0.072300097397    0.013323598669    -0.000124241495    0.000192196728    -0.129410464686    -0.027503573230    -0.000146094890    0.000078153744
            -0.000099271502    0.000108539740    -0.073248695718    0.001960148870    -0.000135262169    0.000047395013    -0.127508061264    -0.043074830442
0.525     -0.124294165402    0.112230675276    0.000426911984    -0.000216183155    -0.049685944793    0.086675991646    0.000462267179    -0.000312449517
            0.000406218990    -0.000142403474    -0.133849623780    0.090328128470    0.000465514971    -0.000244611154    -0.057098804147    0.073889799215
            -0.049541863956    0.088503867492    0.000547662006    -0.000246278139    -0.118838680213    0.114553647343    0.000498937568    -0.000364439367
            0.000474313093    -0.000319346097    -0.057588552095    0.075182820357    0.000464533713    -0.000377508378    -0.128799821422    0.091795286657
0.550     0.016782213890    0.109749943209    -0.000088268898    -0.000802364700    0.021970413711    0.061880826982    -0.000127425020    -0.000945453166
            -0.000062961391    -0.000735585271    -0.000098211521    0.101433122454    -0.000082311325    -0.000917284053    0.012655234962    0.056519143129
            0.023390634195    0.062659707430    -0.000072319508    -0.000994114383    0.019040121764    0.101598890215    -0.000156306519    -0.001066503936
            -0.000127567456    -0.000959534977    0.013095244504    0.057579631822    -0.000177980945    -0.001034317811    0.001254619559    0.093336324132
0.575     -0.012019134652    0.004502370278    -0.000679119966    -0.000126800910    -0.012481173753    0.020756140461    -0.000708106053    -0.000188136291
            -0.000631498279    -0.000088710946    -0.015632161252    0.000991759181    -0.000712802793    -0.000177359937    -0.015023979854    0.016572436714
            -0.011705643140    0.020830203538    -0.000777567048    -0.000182452876    -0.019924433703    0.003079248922    -0.000773131876    -0.000213691923
            -0.000720476754    -0.000191523757    -0.014676367440    0.016976451108    -0.000753495349    -0.000190209207    -0.022071815655    -0.000343152165
0.600     -0.078171408368    0.058497710322    0.000025514918    0.000165094766    -0.034047619451    0.057841294368    0.000075448812    0.000022662526
            0.000077422914    0.000186396180    -0.081606276862    0.041325697853    0.000076386535    0.000085741836    -0.037190379107    0.044469304420
            -0.033829617305    0.057943213448    0.000083836459    0.000140322640    -0.077454596113    0.063352565931    0.000112491814    -0.000023566198
            0.000073898151    0.000035929689    -0.036639758135    0.045047690207    0.000123381204    -0.000030657308    -0.078973589030    0.044999442505
0.625     0.000199723092    0.090596002851    -0.000070927334    -0.000657777629    0.015205641310    0.043308192919    -0.000145441047    -0.000859425569
            -0.000006596712    -0.000656460216    -0.014346962862    0.079893310288    -0.000110362634    -0.000848076463    0.006459570041    0.034946344533
            0.016195345118    0.043638943298    -0.000051593369    -0.000865128848    0.004046733001    0.085780730096    -0.000190836364    -0.001013329638
            -0.000125211492    -0.000862200007    0.007568462570    0.035296032310    -0.000196635063    -0.001013006102    -0.010075702632    0.072622028644
0.650     -0.005920286956    0.013703273778    -0.001096542959    -0.000246970632    -0.033217511947    0.000708034376    -0.001175842648    -0.000302700154
            -0.001031216130    -0.000286355851    -0.009036087129    0.009802555799    -0.001237929602    -0.000301430924    -0.033739037944    -0.006577749934
            -0.031771841935    -0.000119322874    -0.001257993277    -0.000369432948    -0.012264060908    0.009709749727    -0.001316545133    -0.000318942904
            -0.001181171509    -0.000333334916    -0.032554772384    -0.007064817752    -0.001313739235    -0.000305153088    -0.015813181392    0.004313727023
0.675     -0.065228476012    0.058590125498    -0.000475396771    0.000668479408    -0.063374880413    0.076305491375    -0.000412772087    0.000529769038
            -0.000443337853    0.000595766685    -0.068026403453    0.040248909842    -0.000449254838    0.000648174835    -0.068430135645    0.057617666781
            -0.063198911521    0.074430301989    -0.000518371099    0.000664082287    -0.066667410150    0.063195541964    -0.000380951226    0.000557613638
            -0.000449454360    0.000534275053    -0.067853472007    0.056608700853    -0.000363394430    0.000566176492    -0.068799033307    0.043407866034
0.700     -0.001802108635    0.085443033664    0.000074130821    -0.000110751479    0.014177643210    0.083850280308    -0.000015566562    -0.000369960994
            0.000059409825    -0.000180737651    -0.016508453105    0.072574101745    0.000044642381    -0.000335800084    -0.001093576295    0.072663836413
            0.012924698149    0.082848360356    0.000057430681    -0.000270470105    0.002545747044    0.081998116366    -0.000008183917    -0.000532470622
            -0.000012072072    -0.000333501639    -0.001072146442    0.071675231653    0.000014378614    -0.000542459751    -0.011703043004    0.065604472234
0.725     -0.036169480238    0.008274728820    -0.001108139957    -0.000197507723    -0.036263831978    0.017968149082    -0.001265483739    -0.000244471731
            -0.001145225381    -0.000240487748    -0.036320557851    -0.002290982780    -0.001383967362    -0.000269818500    -0.040641346028    0.008600744847
            -0.036802132512    0.018162116645    -0.001324384673    -0.000292738768    -0.042081927608    0.002398331374    -0.001461094772    -0.000298505078
            -0.001231485097    -0.000256053522    -0.041064562803    0.007867955213    -0.001458391653    -0.000322674388    -0.045088138338    -0.011293146042
0.750     -0.120666994289    0.109277109446    -0.000711993798    0.001095559502    -0.093957862513    0.116245304373    -0.000642346284    0.001006410812
            -0.000752642486    0.001060514699    -0.129838603782    0.077332676903    -0.000766233965    0.001232953878    -0.106630890558    0.091187735430
            -0.093712180063    0.115707561071    -0.000801688218    0.001180909735    -0.122121786673    0.115767419022    -0.000655688953    0.001120078298
            -0.000662071914    0.000977487647    -0.107093546944    0.090539197594    -0.000668070945    0.001110900442    -0.135426244838    0.083381459393
0.775     0.001560248615    0.193949674309    0.000278474117    0.000586552525    0.025201218068    0.177403388203    0.000237753666    0.000305458512
            0.000211816724    0.000561801463    -0.032323557920    0.176697457756    0.000365284101    0.000489452103    -0.005376678002    0.167059780472
            0.023961776865    0.176235019421    0.000310034618    0.000530397354    0.009276453942    0.191107820976    0.000341605015    0.000216714641
