# GHz S RI R 45
0.000     0.074356646000    -0.000000000000    -0.000002588634    -0.000000000000    0.003535242100    -0.000000000000    -0.000001516632    -0.000000000000
            -0.000002582722    -0.000000000000    0.070567886000    -0.000000000000    0.000000340223    0.000000000000    0.004793894800    -0.000000000000
            0.004298959200    0.000000000000    0.000000356975    0.000000000000    0.071473227000    -0.000000000000    -0.000000345046    0.000000000000
            -0.000001536439    0.000000000000    0.005640071800    0.000000000000    -0.000000344611    -0.000000000000    0.071485629000    -0.000000000000
0.025     0.136062288221    0.014291178252    0.000000323310    0.000003749097    0.070558734665    0.039912605140    -0.000005741004    -0.000000817338
            0.000000330221    0.000003753793    0.136629150535    0.013832947585    0.000010046610    0.000006139622    0.070934889209    0.039650447857
            0.071272437588    0.039584067257    0.000010053446    0.000006140196    0.136440091622    0.015307619648    -0.000001439143    -0.000000003359
            -0.000005733032    -0.000000821592    0.071631844047    0.039270182988    -0.000001435355    0.000000002578    0.136861470460    0.014295266478
0.050     0.119811742955    -0.076614435920    0.000003464427    -0.000001500337    0.075364216256    -0.032238357737    -0.000009309218    0.000005413836
            0.000003477548    -0.000001503115    0.118738300273    -0.077350163853    0.000019881133    -0.000011537892    0.074597176783    -0.032771392367
            0.075816241266    -0.033010204066    0.000019881013    -0.000011553539    0.120541223977    -0.077541344511    -0.000002234677    0.000001048868
            -0.000009308533    0.000005400305    0.075020823321    -0.033534249417    -0.000002218267    0.000001045864    0.119227485248    -0.078128231964
0.075     0.030652684891    -0.032040100678    0.000002393029    -0.000000884760    0.022314191945    0.019755242322    0.000001213948    0.000018807528
            0.000002400294    -0.000000907114    0.030722117672    -0.030516300042    0.000003073130    -0.000031463076    0.022573854549    0.020880115525
            0.022291454650    0.019342484615    0.000003063260    -0.000031460352    0.028440089517    -0.032835742106    0.000000477896    0.000004934404
            0.000001209018    0.000018806831    0.022552074130    0.020474935524    0.000000479904    0.000004914082    0.028575403105    -0.031210972558
0.100     0.110818200644    0.034631117325    -0.000002431321    -0.000010632332    0.107486472548    0.070545711477    0.000018732216    0.000006315670
            -0.000002454803    -0.000010654254    0.112912538120    0.032810230380    -0.000034437308    -0.000030372879    0.109700677711    0.068840190372
            0.107089981523    0.069821462917    -0.000034438367    -0.000030349863    0.110208309248    0.035240609520    0.000004310230    0.000000473923
            0.000018728997    0.000006335780    0.109290815397    0.068124685960    0.000004297795    0.000000451458    0.112319445464    0.033447370379
0.125     0.158031045156    -0.072543032112    -0.000013063678    0.000007650959    0.153852336731    -0.053936195921    0.000019253110    -0.000005816208
            -0.000013102169    0.000007663049    0.155247993574    -0.075839899672    -0.000055032156    0.000022695710    0.151538510572    -0.057461647408
            0.153128844739    -0.054440348028    -0.000055002509    0.000022709007    0.158078894121    -0.072635537437    0.000003734164    0.000000105063
            0.000019280616    -0.000005802693    0.150803287955    -0.057947097963    0.000003684062    0.000000102416    0.155356197997    -0.075921721266
0.150     0.047083892334    -0.108986810405    0.000006786053    0.000006657847    0.031231147729    -0.086348236542    0.000011740849    -0.000032120894
            0.000006775135    0.000006707840    0.043613839562    -0.106662471896    -0.000008261071    0.000063104065    0.027803836952    -0.084426917750
            0.030273181364    -0.086368918260    -0.000008240105    0.000063055788    0.046304517464    -0.109038210664    0.000004894250    -0.000007768224
            0.000011757825    -0.000032166499    0.026844462671    -0.084415758561    0.000004876292    -0.000007697171    0.042826629740    -0.106729206810
0.175     0.064017941836    -0.022715755872    0.000004438560    0.000007971362    0.064295974980    0.013905481216    -0.000029035011    -0.000022505351
            0.000004487543    0.000008014594    0.065594942787    -0.023399231937    0.000053029632    0.000054076964    0.066246506256    0.013031867457
            0.063603829953    0.013725306382    0.000053005501    0.000054043563    0.063716724680    -0.023086402622    -0.000006477485    -0.000005446242
            -0.000029056541    -0.000022532033    0.065551018338    0.012878516246    -0.000006417512    -0.000005411166    0.065280134723    -0.023716208153
0.200     0.164359376812    -0.070572004088    0.000023722921    -0.000010652884    0.181919736865    -0.054712527769    -0.000028431706    0.000004712941
            0.000023785086    -0.000010680416    0.160339933072    -0.076408726936    0.000091231197    -0.000025044073    0.178350770340    -0.061573102947
            0.181556241932    -0.054099659339    0.000091225441    -0.000025010632    0.164890706416    -0.070682868907    -0.000005342552    -0.000001966328
            -0.000028428699    0.000004746137    0.178011081230    -0.060948412231    -0.000005286031    -0.000001981319    0.160927961149    -0.076531109816
0.225     0.079106227793    -0.182177870092    -0.000018265934    -0.000022814223    0.076507201551    -0.187981907312    -0.000030012921    0.000033935846
            -0.000018256458    -0.000022890243    0.069584886637    -0.181135096233    0.000018474245    -0.000096192641    0.066031201821    -0.187835077670
            0.076256598807    -0.187229826223    0.000018490964    -0.000096161129    0.078660760714    -0.182111988100    -0.000011887669    0.000006609702
            -0.000029993076    0.000033958395    0.065815745018    -0.187065522613    -0.000011851817    0.000006522225    0.069177014095    -0.181057607643
0.250     -0.030412592787    -0.106592353705    -0.000009702904    0.000012991645    -0.052378958702    -0.096828824408    0.000030603158    0.000056245845
            -0.000009774130    0.000012941168    -0.033076328061    -0.101013834953    -0.000064404670    -0.000069630901    -0.055745168573    -0.090413609268
            -0.052146415443    -0.095764590431    -0.000064334985    -0.000069663269    -0.029574058191    -0.105058757440    0.000006324162    0.000018215906
            0.000030663791    0.000056206428    -0.055446207608    -0.089364934343    0.000006218803    0.000018144456    -0.032116553390    -0.099499537296
0.275     0.057036765034    -0.063050589650    -0.000012502517    0.000008066383    0.050511099582    -0.045007244728    0.000056509472    -0.000003098010
            -0.000012591735    0.000008112711    0.052585380351    -0.065314556993    -0.000114908186    0.000014330616    0.046739899724    -0.047048462725
            0.050913723087    -0.044697295841    -0.000114937691    0.000014303534    0.062096827163    -0.062116639911    0.000014101681    0.000002252334
            0.000056472246    -0.000003121823    0.047155713748    -0.046768858078    0.000014021582    0.000002329737    0.057792615176    -0.064646355168
0.300     0.080533641309    -0.183364941899    0.000019649699    0.000032933153    0.069521258708    -0.166076254220    0.000042522872    -0.000041416252
            0.000019646421    0.000033027696    0.067373122083    -0.182350469302    -0.000039988489    0.000120933279    0.056865431504    -0.165485772720
            0.070419455790    -0.166236459825    -0.000039994268    0.000121005168    0.080415284050    -0.186003178788    0.000016908811    -0.000008247537
            0.000042511990    -0.000041329583    0.057750499493    -0.165699604534    0.000016903507    -0.000008171377    0.067196460961    -0.185025703323
0.325     -0.075474196947    -0.196106036302    0.000028978969    -0.000030212397    -0.090724886714    -0.170325435337    -0.000020233269    -0.000083059614
            0.000029062508    -0.000030153529    -0.086396524409    -0.184867116411    0.000075559638    0.000088322389    -0.101281234533    -0.158574404573
            -0.090176823170    -0.170563660195    0.000075591444    0.000088321417    -0.076318496005    -0.195491914701    -0.000002494350    -0.000027361423
            -0.000020183960    -0.000083053467    -0.100745708944    -0.158853506340    -0.000002415014    -0.000027276530    -0.087161463346    -0.184194348070
0.350     -0.108114224004    -0.052208226923    -0.000023731569    -0.000011370726    -0.116695323430    -0.022313113136    -0.000096376277    -0.000009749916
            -0.000023625524    -0.000011420241    -0.110963698096    -0.041880185248    0.000117391132    0.000004485614    -0.117865711448    -0.011437194326
            -0.115936627326    -0.022619617040    0.000117430417    0.000004486756    -0.104441445615    -0.051857521542    -0.000029133251    -0.000005030118
            -0.000096327569    -0.000009764657    -0.117138926993    -0.011808838171    -0.000028995187    -0.000005101927    -0.107139498979    -0.041720102388
0.375     -0.010017265781    -0.065540338688    -0.000008590217    -0.000007481846    -0.012930093387    -0.043663408685    -0.000053876383    0.000068455524
            -0.000008592924    -0.000007613263    -0.017412549789    -0.057410285154    0.000080020367    -0.000119736878    -0.019147612347    -0.036423286585
            -0.012549137811    -0.044489050221    0.000079984544    -0.000119805771    -0.007779511084    -0.069598191555    -0.000017684426    0.000016562433
            -0.000053919490    0.000068379019    -0.018840003827    -0.037269548657    -0.000017726628    0.000016428151    -0.015251946772    -0.061693373926
0.400     -0.060612807940    -0.171408263256    -0.000033533477    0.000023803776    -0.062031410859    -0.111246180243    0.000020323340    0.000097961023
            -0.000033646931    0.000023751890    -0.071600028948    -0.158479938766    -0.000072318722    -0.000124407839    -0.069468040906    -0.099050651730
            -0.062474088639    -0.112511283819    -0.000072420498    -0.000124297305    -0.064855079019    -0.174224177106    0.000002070507    0.000031130684
            0.000020208573    0.000098067538    -0.070016930525    -0.100273013752    0.000001982887    0.000031095291    -0.076022888476    -0.160999850800
0.425     -0.186582605813    -0.074957841457    0.000040289175    0.000027847666    -0.145051635815    -0.024119354443    0.000117415627    0.000027041264
            0.000040189281    0.000027913355    -0.191134547851    -0.054246969359    -0.000129463097    -0.000019470260    -0.145939853379    -0.007312708961
            -0.145955000607    -0.024604224068    -0.000129347261    -0.000019409417    -0.186709506991    -0.072412122284    0.000034858801    0.000009748537
            0.000117524186    0.000027119813    -0.146888216190    -0.007711684411    0.000034748258    0.000009788551    -0.190844686060    -0.051568074352
0.450     -0.110328278475    0.058985038351    0.000007533257    -0.000035181776    -0.074934750595    0.067246391629    0.000069427761    -0.000094506586
            0.000007532181    -0.000035052461    -0.105719847489    0.076507290421    -0.000116394438    0.000096252562    -0.070257478985    0.080357110117
            -0.075531859712    0.067133792508    -0.000116349636    0.000096183068    -0.105546294169    0.055802730433    0.000020054173    -0.000026100165
            0.000069488801    -0.000094567215    -0.070864944569    0.080311641942    0.000020044125    -0.000025946049    -0.100865332081    0.072833489184
0.475     -0.030984538531    -0.019921569680    -0.000000731606    -0.000004269010    -0.026001519686    0.004955827048    -0.000030376940    -0.000106053145
            -0.000000601431    -0.000004205444    -0.028321358842    -0.007469358646    0.000035904586    0.000170639604    -0.022529767814    0.016088061102
            -0.026673953985    0.004760452667    0.000035895329    0.000170554139    -0.032910141246    -0.025115998548    -0.000005640792    -0.000029571245
            -0.000030378280    -0.000106152233    -0.023209484988    0.015965391375    -0.000005494089    -0.000029527242    -0.030598221913    -0.012693823852
0.500     -0.119190434795    -0.061991337621    -0.000021938450    -0.000025082843    -0.073098856206    -0.009484491250    -0.000121369648    -0.000040656430
            -0.000021836752    -0.000025178829    -0.122600346458    -0.046108084380    0.000159615107    0.000051960304    -0.072070069387    0.001461418486
            -0.074324909031    -0.009115022313    0.000159430779    0.000051956511    -0.124538666984    -0.059668316738    -0.000033542303    -0.000013686045
            -0.000121560912    -0.000040664394    -0.073248695718    0.001960148870    -0.000033468030    -0.000013766776    -0.127508061264    -0.043074830442
0.525     -0.140413397587    0.067495985063    -0.000017866032    0.000041230690    -0.061987923621    0.060674772127    -0.000090137810    0.000098375190
            -0.000017893085    0.000041117108    -0.133849623780    0.090328128470    0.000146624592    -0.000091949121    -0.057098804147    0.073889799215
            -0.062625689815    0.061901220688    0.000146658178    -0.000091741053    -0.136154379059    0.069501383674    -0.000024541963    0.000024809525
            -0.000090107899    0.000098583013    -0.057588552095    0.075182820357    -0.000024534929    0.000024713009    -0.128799821422    0.091795286657
0.550     -0.015151859659    0.089879831760    0.000032755790    -0.000001526241    0.004409980627    0.047721909057    0.000032272232    0.000114189501
            0.000032656915    -0.000001578167    -0.000098211521    0.101433122454    0.000003722973    -0.000202118085    0.012655234962    0.056519143129
            0.004712890443    0.048829733627    0.000003898498    -0.000202166705    -0.013246384214    0.082396569833    0.000004326710    0.000029293183
            0.000032442307    0.000114145040    0.013095244504    0.057579631822    0.000004228947    0.000029202547    0.001254619559    0.093336324132
0.575     -0.019435724212    -0.004003522117    0.000001278023    -0.000001659394    -0.019685649344    0.011096480880    0.000116912535    0.000051286840
            0.000001161957    -0.000001594500    -0.015632161252    0.000991759181    -0.000181015630    -0.000102197080    -0.015023979854    0.016572436714
            -0.019390554004    0.011550913106    -0.000181007402    -0.000102290904    -0.025717445655    -0.006141489584    0.000029742891    0.000017633398
            0.000116930950    0.000051202175    -0.014676367440    0.016976451108    0.000029609482    0.000017713249    -0.022071815655    -0.000343152165
0.600     -0.082011673105    0.023827742227    0.000014633913    -0.000020290368    -0.038521936762    0.033332389839    0.000113207217    -0.000085819606
            0.000014642700    -0.000020157552    -0.081606276862    0.041325697853    -0.000184569921    0.000091084378    -0.037190379107    0.044469304420
            -0.038045431876    0.033976356521    -0.000184684154    0.000091006751    -0.080617599510    0.027694337373    0.000031203520    -0.000020001963
            0.000113092167    -0.000085911976    -0.036639758135    0.045047690207    0.000031216263    -0.000019886692    -0.078973589030    0.044999442505
0.625     -0.026946429377    0.064451761411    -0.000024772934    -0.000004061443    0.001077883236    0.024022587079    -0.000014418250    -0.000132386738
            -0.000024664770    -0.000003999685    -0.014346962862    0.079893310288    -0.000028010677    0.000223794529    0.006459570041    0.034946344533
            0.002124434715    0.024520048788    -0.000028122913    0.000223945319    -0.022364140707    0.058433473457    0.000002912662    -0.000033327607
            -0.000014541197    -0.000132222206    0.007568462570    0.035296032310    0.000002982025    -0.000033241076    -0.010075702632    0.072622028644
0.650     -0.015016340121    0.004092507969    -0.000000075729    0.000000577694    -0.035883876929    -0.016062931893    -0.000120281849    -0.000076574521
            0.000000053256    0.000000523142    -0.009036087129    0.009802555799    0.000183720367    0.000135335830    -0.033739037944    -0.006577749934
            -0.034638489899    -0.016365729250    0.000183883190    0.000135431153    -0.020907803839    -0.002069946630    -0.000031087166    -0.000028230158
            -0.000120098984    -0.000076483794    -0.032554772384    -0.007064817752    -0.000030905684    -0.000028255467    -0.015813181392    0.004313727023
0.675     -0.068595804398    0.023660871152    -0.000018061954    0.000018880986    -0.072130044279    0.041120096326    -0.000138928250    0.000080207612
            -0.000018048227    0.000018713584    -0.068026403453    0.040248909842    0.000212377856    -0.000067948755    -0.068430135645    0.057617666781
            -0.071396304758    0.040199908764    0.000212452270    -0.000068090479    -0.070580400287    0.026425947779    -0.000039042541    0.000021088477
            -0.000138869058    0.000080058371    -0.067853472007    0.056608700853    -0.000039028048    0.000020877157    -0.068799033307    0.043407866034
0.700     -0.027872015583    0.054897156845    0.000025395616    0.000009254069    -0.011788792332    0.059209550606    0.000001589435    0.000149202584
            0.000025234777    0.000009166878    -0.016508453105    0.072574101745    0.000069216428    -0.000236476593    -0.001093576295    0.072663836413
            -0.011624637723    0.058227141216    0.000069091766    -0.000236546716    -0.023013915927    0.049486232678    -0.000003973224    0.000035915964
            0.000001471784    0.000149139338    -0.001072146442    0.071675231653    -0.000004139545    0.000035840391    -0.011703043004    0.065604472234
0.725     -0.041060345973    -0.014154926467    0.000001911952    0.000010916909    -0.045292873416    -0.004149936707    0.000125218937    0.000101959233
            0.000001756299    0.000011032946    -0.036320557851    -0.002290982780    -0.000175050368    -0.000169273059    -0.040641346028    0.008600744847
            -0.045591055019    -0.004932067236    -0.000175071992    -0.000169159624    -0.048165659958    -0.023842849451    0.000033182495    0.000035479555
            0.000125182776    0.000102067872    -0.041064562803    0.007867955213    0.000033017920    0.000035561130    -0.045088138338    -0.011293146042
0.750     -0.137058229401    0.048563752578    0.000048362945    -0.000032236870    -0.117109192111    0.065848405980    0.000168101205    -0.000083223842
            0.000048397137    -0.000032035908    -0.129838603782    0.077332676903    -0.000222294408    0.000028728947    -0.106630890558    0.091187735430
            -0.117449329685    0.065119171783    -0.000222247138    0.000028768311    -0.144251277666    0.053264363397    0.000045534465    -0.000028274182
            0.000168163520    -0.000083160815    -0.107093546944    0.090539197594    0.000045532385    -0.000028036859    -0.135426244838    0.083381459393
0.775     -0.061205818043    0.154793201051    -0.000059604124    -0.000046240413    -0.032872790629    0.152032144212    -0.000008104028    -0.000167355750
            -0.000059383140    -0.000046177999    -0.032323557920    0.176697457756    -0.000136294150    0.000220801936    -0.005376678002    0.167059780472
            -0.033596534420    0.151288613404    -0.000136186733    0.000220781687    -0.055478241793    0.154566437622    -0.000007058308    -0.000035292350
