# GHz S RI R 45
0.000     0.074857411000    0.000000000000    -0.000001484082    0.000000000000    0.003057988600    -0.000000000000    -0.000002494254    0.000000000000
            -0.000001483881    -0.000000000000    0.070567886000    -0.000000000000    -0.000001123916    -0.000000000000    0.004793894800    -0.000000000000
            0.003984351100    -0.000000000000    -0.000001123161    -0.000000000000    0.073644030000    -0.000000000000    -0.000002010016    -0.000000000000
            -0.000002489361    0.000000000000    0.005640071800    0.000000000000    -0.000002011745    0.000000000000    0.071485629000    -0.000000000000
0.025     0.136880827062    0.014129379922    -0.000015353487    -0.000003840105    0.071206247705    0.040599980213    -0.000024176264    -0.000006512285
            -0.000015358671    -0.000003841712    0.136629150535    0.013832947585    -0.000009872648    -0.000001915261    0.070934889209    0.039650447857
            0.071107916035    0.039756384312    -0.000009866214    -0.000001927766    0.136575777990    0.013540926395    -0.000018243854    -0.000004648069
            -0.000024170086    -0.000006523830    0.071631844047    0.039270182988    -0.000018244208    -0.000004634384    0.136861470460    0.014295266478
0.050     0.119595575178    -0.076946689137    -0.000026058080    0.000014449081    0.075986326805    -0.032685501726    -0.000041026778    0.000023579106
            -0.000026058031    0.000014479425    0.118738300273    -0.077350163853    -0.000016232205    0.000008928759    0.074597176783    -0.032771392367
            0.075071376267    -0.032519109211    -0.000016263527    0.000008927001    0.118675148473    -0.077157664791    -0.000030982671    0.000017548352
            -0.000041056502    0.000023581188    0.075020823321    -0.033534249417    -0.000030953794    0.000017515053    0.119227485248    -0.078128231964
0.075     0.030668311967    -0.030517257602    0.000002347732    0.000055423805    0.022299079217    0.021064810985    0.000002396700    0.000084665249
            0.000002377236    0.000055397499    0.030722117672    -0.030516300042    0.000002818727    0.000036425281    0.022573854549    0.020880115525
            0.022339183112    0.021187285485    0.000002818975    0.000036451901    0.030314203991    -0.030032334410    0.000002541468    0.000065032629
            0.000002396000    0.000084687477    0.022552074130    0.020474935524    0.000002508011    0.000065038564    0.028575403105    -0.031210972558
0.100     0.112984523455    0.034954536886    0.000063906909    0.000016177945    0.108666194343    0.071176829420    0.000096886679    0.000031384364
            0.000063880495    0.000016097916    0.112912538120    0.032810230380    0.000042660523    0.000005832630    0.109700677711    0.068840190372
            0.109419245129    0.070714195214    0.000042637059    0.000005852577    0.113302623049    0.034596355151    0.000074734483    0.000020982337
            0.000096862039    0.000031397309    0.109290815397    0.068124685960    0.000074787133    0.000021049266    0.112319445464    0.033447370379
0.125     0.158142324992    -0.073926408460    0.000046132737    -0.000033896994    0.154372529266    -0.054467219261    0.000079855991    -0.000052491589
            0.000046057149    -0.000033912473    0.155247993574    -0.075839899672    0.000023995806    -0.000022445893    0.151538510572    -0.057461647408
            0.153744223722    -0.055210567697    0.000024081631    -0.000022380861    0.157290057871    -0.074829616973    0.000057303631    -0.000040192391
            0.000079938560    -0.000052431844    0.150803287955    -0.057947097963    0.000057302206    -0.000040236430    0.155356197997    -0.075921721266
0.150     0.045722405578    -0.107139734746    0.000020683451    -0.000082029860    0.030595480435    -0.085108555840    0.000030527224    -0.000130924331
            0.000020580428    -0.000081959061    0.043613839562    -0.106662471896    0.000013175023    -0.000050440889    0.027803836952    -0.084426917750
            0.029749508103    -0.084335311956    0.000013255854    -0.000050621412    0.044318700153    -0.106463088235    0.000023369985    -0.000098673979
            0.000030584876    -0.000131097297    0.026844462671    -0.084415758561    0.000023410454    -0.000098589913    0.042826629740    -0.106729206810
0.175     0.067201281591    -0.020654891939    -0.000099324251    -0.000057899127    0.066959955003    0.015373526148    -0.000148660183    -0.000095374657
            -0.000099302386    -0.000057730606    0.065594942787    -0.023399231937    -0.000067897568    -0.000032373871    0.066246506256    0.013031867457
            0.067491019604    0.016074203668    -0.000068027245    -0.000032396104    0.066826185141    -0.021084838070    -0.000116278625    -0.000069425382
            -0.000148781604    -0.000095378382    0.065551018338    0.012878516246    -0.000116188116    -0.000069578307    0.065280134723    -0.023716208153
0.200     0.166676265159    -0.072970177621    -0.000072350258    0.000069230159    0.183305200373    -0.056405900916    -0.000127591997    0.000097212323
            -0.000072147965    0.000069149519    0.160339933072    -0.076408726936    -0.000035694208    0.000051966886    0.178350770340    -0.061573102947
            0.183879006939    -0.057160622762    -0.000035697110    0.000052031197    0.167122322492    -0.074052693078    -0.000089894703    0.000079105760
            -0.000127578820    0.000097273179    0.178011081230    -0.060948412231    -0.000090096471    0.000079131682    0.160927961149    -0.076531109816
0.225     0.077403121117    -0.182496455379    -0.000014100111    0.000076024742    0.075221344475    -0.187575173052    -0.000030072413    0.000135001123
            -0.000014087088    0.000075837805    0.069584886637    -0.181135096233    -0.000002482636    0.000038094806    0.066031201821    -0.187835077670
            0.074393624709    -0.187922863835    -0.000002569117    0.000038189457    0.075864570679    -0.182802112323    -0.000018906559    0.000096016134
            -0.000030151790    0.000135091802    0.065815745018    -0.187065522613    -0.000018844063    0.000096121807    0.069177014095    -0.181057607643
0.250     -0.028587730862    -0.102151336193    0.000068073913    0.000112072256    -0.050359847180    -0.092950209970    0.000115080989    0.000176085696
            0.000067912124    0.000111936305    -0.033076328061    -0.101013834953    0.000039436831    0.000069148574    -0.055745168573    -0.090413609268
            -0.050597615466    -0.091805934747    0.000039720635    0.000069365497    -0.028539572719    -0.100076970261    0.000085923018    0.000132913867
            0.000115367936    0.000176263755    -0.055446207608    -0.089364934343    0.000085851277    0.000132870194    -0.032116553390    -0.099499537296
0.275     0.063431143086    -0.064529907176    0.000151138859    -0.000054250587    0.055580269292    -0.046662127014    0.000239988884    -0.000074675280
            0.000150937751    -0.000054149093    0.052585380351    -0.065314556993    0.000092357259    -0.000044400977    0.046739899724    -0.047048462725
            0.056028515612    -0.046606370678    0.000092441361    -0.000044664192    0.069268612571    -0.062521003958    0.000180134597    -0.000064809654
            0.000240033093    -0.000074923997    0.047155713748    -0.046768858078    0.000180246025    -0.000064690890    0.057792615176    -0.064646355168
0.300     0.079710791772    -0.187264585759    -0.000001510177    -0.000122602609    0.068294799237    -0.168294632247    0.000020453769    -0.000203040461
            -0.000001408150    -0.000122353377    0.067373122083    -0.182350469302    -0.000017595767    -0.000069770114    0.056865431504    -0.165485772720
            0.068555867104    -0.169480738786    -0.000017873397    -0.000069746545    0.079149042166    -0.190013156234    0.000003649551    -0.000148767812
            0.000020163890    -0.000203001933    0.057750499493    -0.165699604534    0.000003806655    -0.000149005143    0.067196460961    -0.185025703323
0.325     -0.076879461083    -0.193449161013    -0.000048625552    -0.000089605230    -0.090778137862    -0.166902947063    -0.000090286059    -0.000161197693
            -0.000048411913    -0.000089595528    -0.086396524409    -0.184867116411    -0.000023131886    -0.000042908908    -0.101281234533    -0.158574404573
            -0.091702063932    -0.167097119439    -0.000023149185    -0.000042876837    -0.078724326476    -0.192623746490    -0.000063881968    -0.000113391570
            -0.000090291879    -0.000161146991    -0.100745708944    -0.158853506340    -0.000064072079    -0.000113452707    -0.087161463346    -0.184194348070
0.350     -0.101431185895    -0.049636788836    -0.000170928140    -0.000043747093    -0.109806886399    -0.020569775870    -0.000277375381    -0.000056693252
            -0.000170809815    -0.000043923690    -0.110963698096    -0.041880185248    -0.000103411932    -0.000031083151    -0.117865711448    -0.011437194326
            -0.109678699979    -0.019657308770    -0.000103657157    -0.000030919232    -0.098624406731    -0.048222465076    -0.000208785174    -0.000043849265
            -0.000277597428    -0.000056520118    -0.117138926993    -0.011808838171    -0.000208711818    -0.000043804003    -0.107139498979    -0.041720102388
0.375     -0.006516402659    -0.071776545551    -0.000094341611    0.000184410702    -0.010387220352    -0.048972503440    -0.000155663600    0.000286550806
            -0.000094414374    0.000184228315    -0.017412549789    -0.057410285154    -0.000049210961    0.000119857851    -0.019147612347    -0.036423286585
            -0.009779900425    -0.049561058385    -0.000048818401    0.000120075016    -0.005017993783    -0.074551182825    -0.000109217569    0.000220913706
            -0.000155252589    0.000286744179    -0.018840003827    -0.037269548657    -0.000109455978    0.000220879564    -0.015251946772    -0.061693373926
0.400     -0.064470674495    -0.172515329914    0.000104733292    0.000122359185    -0.064396832817    -0.110565102778    0.000159274442    0.000216050575
            0.000104579970    0.000122441008    -0.071600028948    -0.158479938766    0.000069894729    0.000059321139    -0.069468040906    -0.099050651730
            -0.064872281498    -0.111846976208    0.000069980270    0.000058813502    -0.068453834195    -0.175104818086    0.000124360273    0.000150078868
            0.000159386546    0.000215514242    -0.070016930525    -0.100273013752    0.000124347429    0.000150434144    -0.076022888476    -0.160999850800
0.425     -0.183546324178    -0.070414640813    0.000143979595    0.000046984747    -0.139901278533    -0.020808021434    0.000250823819    0.000072709071
            0.000143992558    0.000047070317    -0.191134547851    -0.054246969359    0.000078101056    0.000028390739    -0.145939853379    -0.007312708961
            -0.141134740616    -0.020633182409    0.000077810510    0.000028407889    -0.184388641709    -0.067585609059    0.000181684285    0.000053513013
            0.000250486294    0.000072703482    -0.146888216190    -0.007711684411    0.000181965880    0.000053481821    -0.190844686060    -0.051568074352
0.450     -0.101488616140    0.055205007992    0.000197109696    -0.000134192473    -0.067184879708    0.061952234003    0.000301594837    -0.000224994922
            0.000197151433    -0.000134145475    -0.105719847489    0.076507290421    0.000125039882    -0.000083699419    -0.070257478985    0.080357110117
            -0.067111506177    0.062932555017    0.000125080933    -0.000083695813    -0.097273722206    0.053542450980    0.000228372803    -0.000172345429
            0.000301621616    -0.000224970597    -0.070864944569    0.080311641942    0.000228327581    -0.000172435620    -0.100865332081    0.072833489184
0.475     -0.032646649872    -0.027037778410    -0.000084815788    -0.000257451869    -0.027794984703    -0.000462778445    -0.000127038081    -0.000402082901
            -0.000084781130    -0.000257419381    -0.028321358842    -0.007469358646    -0.000064969904    -0.000158575289    -0.022529767814    0.016088061102
            -0.027674129411    -0.000995505640    -0.000065211921    -0.000158364153    -0.034196221906    -0.030915378711    -0.000107240711    -0.000301007799
            -0.000127307519    -0.000401842646    -0.023209484988    0.015965391375    -0.000107060970    -0.000301206669    -0.030598221913    -0.012693823852
0.500     -0.120259852056    -0.059198466824    -0.000226704937    -0.000031012429    -0.071894399305    -0.006651964334    -0.000363692532    -0.000065409454
            -0.000226768091    -0.000030919067    -0.122600346458    -0.046108084380    -0.000137173537    -0.000005445697    -0.072070069387    0.001461418486
            -0.072668839844    -0.007389837632    -0.000136770800    -0.000005179021    -0.125191329878    -0.057300125100    -0.000270745161    -0.000037591344
            -0.000363281071    -0.000065048144    -0.073248695718    0.001960148870    -0.000270984452    -0.000038008277    -0.127508061264    -0.043074830442
0.525     -0.131508160146    0.066165844105    -0.000198406200    0.000130195211    -0.053286649340    0.056798945716    -0.000318472609    0.000216016362
            -0.000198196170    0.000130268653    -0.133849623780    0.090328128470    -0.000120058804    0.000083463772    -0.057098804147    0.073889799215
            -0.054355276203    0.057619015506    -0.000119968966    0.000083024828    -0.128510036734    0.068765560249    -0.000237269126    0.000165478759
            -0.000318261882    0.000215546415    -0.057588552095    0.075182820357    -0.000237696041    0.000165785876    -0.128799821422    0.091795286657
0.550     -0.012255119621    0.078140052266    0.000009320639    0.000324552671    0.004812262952    0.036385142054    0.000018609717    0.000500015869
            0.000009403877    0.000324295643    -0.000098211521    0.101433122454    0.000019444784    0.000210143465    0.012655234962    0.056519143129
            0.005353887816    0.037709072077    0.000019083490    0.000210257705    -0.010312602263    0.073114074173    0.000026314881    0.000383435776
            0.000018230189    0.000500033513    0.013095244504    0.057579631822    0.000026567177    0.000383720681    0.001254619559    0.093336324132
0.575     -0.024482656186    -0.007351926244    0.000321790768    0.000111778771    -0.023817135060    0.009238545661    0.000489669029    0.000185544205
            0.000321595939    0.000111690576    -0.015632161252    0.000991759181    0.000211862383    0.000050666059    -0.015023979854    0.016572436714
            -0.023026479834    0.009376699700    0.000211984270    0.000050752259    -0.029239923267    -0.008484756976    0.000378248826    0.000123648807
            0.000489733036    0.000185595163    -0.014676367440    0.016976451108    0.000378407513    0.000123654906    -0.022071815655    -0.000343152165
0.600     -0.077151481899    0.022948151693    0.000239859503    -0.000196477828    -0.032689086980    0.031898250834    0.000389387213    -0.000295954675
            0.000239460494    -0.000196502167    -0.081606276862    0.041325697853    0.000138485969    -0.000136953698    -0.037190379107    0.044469304420
            -0.033106009916    0.031177393280    0.000138359883    -0.000137078122    -0.076151127915    0.026352546469    0.000284940708    -0.000235238373
            0.000389140906    -0.000296085891    -0.036639758135    0.045047690207    0.000285490016    -0.000235114377    -0.078973589030    0.044999442505
0.625     -0.024348346526    0.051113129533    -0.000012841387    -0.000357509199    0.002450110372    0.010865741778    -0.000009076520    -0.000553053425
            -0.000012958460    -0.000356867426    -0.014346962862    0.079893310288    -0.000031061181    -0.000233374275    0.006459570041    0.034946344533
            0.001851236046    0.011753338624    -0.000030913687    -0.000233229716    -0.020772527505    0.047589243293    -0.000026094085    -0.000425328540
            -0.000008948944    -0.000552715149    0.007568462570    0.035296032310    -0.000026084122    -0.000426213556    -0.010075702632    0.072622028644
0.650     -0.025629294912    -0.003485178386    -0.000373311940    -0.000145535859    -0.046187033614    -0.021636206805    -0.000555523977    -0.000249164448
            -0.000372640263    -0.000145424545    -0.009036087129    0.009802555799    -0.000258342263    -0.000057778105    -0.033739037944    -0.006577749934
            -0.044894945827    -0.020700692013    -0.000258432044    -0.000058224536    -0.028922338361    -0.006857506742    -0.000438438173    -0.000161958366
            -0.000555408778    -0.000249596271    -0.032554772384    -0.007064817752    -0.000439208241    -0.000161717110    -0.015813181392    0.004313727023
0.675     -0.070329378018    0.025531846453    -0.000271411154    0.000228936108    -0.072523402586    0.043454988567    -0.000449404984    0.000327777955
            -0.000271157900    0.000228524437    -0.068026403453    0.040248909842    -0.000144262362    0.000168911853    -0.068430135645    0.057617666781
            -0.071240108256    0.042270192288    -0.000144770061    0.000169412096    -0.070043519649    0.027558810575    -0.000321540119    0.000267953512
            -0.000449889922    0.000328138385    -0.067853472007    0.056608700853    -0.000321368547    0.000268127841    -0.068799033307    0.043407866034
0.700     -0.025638349406    0.043895474556    -0.000004370468    0.000380622109    -0.009090327696    0.049042290028    -0.000028972994    0.000595763903
            -0.000004469593    0.000380005545    -0.016508453105    0.072574101745    0.000023491184    0.000243648708    -0.001093576295    0.072663836413
            -0.009979548873    0.047807295022    0.000024294836    0.000243976772    -0.021622488614    0.039127901459    0.000001066882    0.000457214385
            -0.000028217840    0.000596009382    -0.001072146442    0.071675231653    0.000000641688    0.000457550330    -0.011703043004    0.065604472234
0.725     -0.057024350650    -0.023141322817    0.000429373147    0.000179338524    -0.058677426927    -0.011519168680    0.000629235371    0.000312577674
            0.000428438515    0.000179516652    -0.036320557851    -0.002290982780    0.000307937439    0.000070415846    -0.040641346028    0.008600744847
            -0.058994775417    -0.010892291747    0.000307910687    0.000069829988    -0.062030921132    -0.029335022732    0.000506548426    0.000200928855
            0.000629068860    0.000312011513    -0.041064562803    0.007867955213    0.000507492174    0.000201171542    -0.045088138338    -0.011293146042
0.750     -0.145630670453    0.056988575030    0.000252854460    -0.000295794534    -0.123216074608    0.072021365514    0.000442513177    -0.000405219951
            0.000252948115    -0.000294915551    -0.129838603782    0.077332676903    0.000111218894    -0.000228810881    -0.106630890558    0.091187735430
            -0.122015967519    0.072196120497    0.000111219047    -0.000228753009    -0.148246551471    0.061247042189    0.000298237027    -0.000338093154
            0.000442481316    -0.000404988646    -0.107093546944    0.090539197594    0.000298197989    -0.000339085990    -0.135426244838    0.083381459393
0.775     -0.055870406450    0.153480342624    -0.000013077201    -0.000287258320    -0.028706810689    0.149428235767    0.000021615801    -0.000483687110
            -0.000012519671    -0.000287091627    -0.032323557920    0.176697457756    -0.000038879891    -0.000158214984    -0.005376678002    0.167059780472
            -0.028460737931    0.147761460993    -0.000039262419    -0.000158792784    -0.049447810404    0.151162375761    -0.000006147617    -0.000353462063
