# GHz S RI R 45
0.000     0.070772045000    -0.000000000000    0.000002605257    0.000000000000    0.004769918700    -0.000000000000    0.000001513320    0.000000000000
            0.000002579726    0.000000000000    0.070567886000    -0.000000000000    -0.000000346881    -0.000000000000    0.004793894800    -0.000000000000
            0.005531844700    0.000000000000    -0.000000346036    -0.000000000000    0.070622456000    -0.000000000000    0.000000352332    -0.000000000000
            0.000001549778    -0.000000000000    0.005640071800    0.000000000000    0.000000344749    0.000000000000    0.071485629000    -0.000000000000
0.025     0.136061678966    0.014289607442    0.000006792294    0.000004278101    0.070558668134    0.039912751190    0.000003293526    0.000000440249
            0.000006796978    0.000004281214    0.136629150535    0.013832947585    0.000001813252    0.000003619408    0.070934889209    0.039650447857
            0.071272453832    0.039584073023    0.000001817087    0.000003616957    0.136439035943    0.015308687803    0.000000780991    0.000000353958
            0.000003304449    0.000000440826    0.071631844047    0.039270182988    0.000000784431    0.000000361295    0.136861470460    0.014295266478
0.050     0.119811857022    -0.076614461722    -0.000009118171    0.000009572818    0.075364246188    -0.032238272510    -0.000004999475    0.000003128949
            -0.000009102279    0.000009580402    0.118738300273    -0.077350163853    -0.000001600886    0.000005437152    0.074597176783    -0.032771392367
            0.075816256165    -0.033010152312    -0.000001609846    0.000005429102    0.120540327957    -0.077542127430    -0.000000864954    0.000001296824
            -0.000005007681    0.000003121670    0.075020823321    -0.033534249417    -0.000000845127    0.000001305543    0.119227485248    -0.078128231964
0.075     0.030653180556    -0.032039839598    -0.000000540116    0.000045443764    0.022313952464    0.019755235242    0.000001386886    0.000019322272
            -0.000000530154    0.000045441609    0.030722117672    -0.030516300042    -0.000000094231    0.000017304059    0.022573854549    0.020880115525
            0.022291226609    0.019342506341    -0.000000101497    0.000017323888    0.028432290383    -0.032834707268    0.000000619666    0.000005441708
            0.000001380420    0.000019342820    0.022552074130    0.020474935524    0.000000630033    0.000005434585    0.028575403105    -0.031210972558
0.100     0.110818010227    0.034631089664    0.000027407603    0.000026484842    0.107486601842    0.070545860754    0.000012902424    0.000005867097
            0.000027430561    0.000026470091    0.112912538120    0.032810230380    0.000007915081    0.000014454200    0.109700677711    0.068840190372
            0.107090107780    0.069821617152    0.000007945060    0.000014455307    0.110201880085    0.035250436957    0.000002647733    0.000002777139
            0.000012931270    0.000005866216    0.109290815397    0.068124685960    0.000002669332    0.000002763486    0.112319445464    0.033447370379
0.125     0.158032172694    -0.072548198179    -0.000012700916    0.000019219725    0.153852176768    -0.053936742891    -0.000007713856    0.000004071806
            -0.000012677023    0.000019186656    0.155247993574    -0.075839899672    0.000000775727    0.000015552328    0.151538510572    -0.057461647408
            0.153128691444    -0.054440898620    0.000000761326    0.000015515489    0.158079700305    -0.072623962271    0.000001021677    0.000004035014
            -0.000007728211    0.000004037726    0.150803287955    -0.057947097963    0.000001049645    0.000004006495    0.155356197997    -0.075921721266
0.150     0.047079185574    -0.108986479870    -0.000011070020    0.000082398325    0.031230608945    -0.086348617506    -0.000006144349    0.000032920787
            -0.000011072057    0.000082342664    0.043613839562    -0.106662471896    0.000002463982    0.000031285505    0.027803836952    -0.084426917750
            0.030272630689    -0.086369312608    0.000002431559    0.000031327284    0.046285703211    -0.109041103449    0.000001103805    0.000007733092
            -0.000006171344    0.000032959710    0.026844462671    -0.084415758561    0.000001104931    0.000007664360    0.042826629740    -0.106729206810
0.175     0.064016929010    -0.022712880552    0.000052838132    0.000058643657    0.064296690034    0.013906744762    0.000022423397    0.000017209521
            0.000052842157    0.000058599369    0.065594942787    -0.023399231937    0.000021414880    0.000025284229    0.066246506256    0.013031867457
            0.063604538026    0.013726609369    0.000021472870    0.000025287153    0.063689862528    -0.023056448138    0.000006868302    0.000005316156
            0.000022478667    0.000017206545    0.065551018338    0.012878516246    0.000006862758    0.000005280545    0.065280134723    -0.023716208153
0.200     0.164358113102    -0.070574288181    -0.000006602849    0.000027050741    0.181919703997    -0.054714581414    -0.000007899419    0.000004566342
            -0.000006645804    0.000027030574    0.160339933072    -0.076408726936    0.000005869341    0.000025027173    0.178350770340    -0.061573102947
            0.181556235959    -0.054101710381    0.000005837707    0.000024974354    0.164895529325    -0.070661335181    0.000003579039    0.000007320929
            -0.000007936523    0.000004514546    0.178011081230    -0.060948412231    0.000003544299    0.000007300579    0.160927961149    -0.076531109816
0.225     0.079099937071    -0.182179762106    -0.000018695553    0.000104936717    0.076504232187    -0.187982025354    -0.000013811975    0.000036467725
            -0.000018757764    0.000104915670    0.069584886637    -0.181135096233    0.000013533569    0.000039257818    0.066031201821    -0.187835077670
            0.076253620963    -0.187229970080    0.000013480258    0.000039316947    0.078629958182    -0.182119614899    0.000006636612    0.000004855718
            -0.000013861014    0.000036529166    0.065815745018    -0.187065522613    0.000006578843    0.000004825469    0.069177014095    -0.181057607643
0.250     -0.030418404616    -0.106587762735    0.000070113254    0.000100959856    -0.052380246373    -0.096826035860    0.000021901976    0.000039333670
            0.000070015199    0.000100990540    -0.033076328061    -0.101013834953    0.000034424161    0.000032290964    -0.055745168573    -0.090413609268
            -0.052147736935    -0.095761764319    0.000034519330    0.000032322449    -0.029636350052    -0.105008835888    0.000007944403    0.000006446102
            0.000021993208    0.000039356610    -0.055446207608    -0.089364934343    0.000007824413    0.000006471192    -0.032116553390    -0.099499537296
0.275     0.057036263854    -0.063047206639    0.000011802987    0.000020176811    0.050512811583    -0.045008678453    -0.000004014762    0.000003768333
            0.000011777542    0.000020220733    0.052585380351    -0.065314556993    0.000012923021    0.000012991161    0.046739899724    -0.047048462725
            0.050915488471    -0.044698715073    0.000012894266    0.000012913357    0.062097551434    -0.062052522588    0.000004678932    0.000001422390
            -0.000004051397    0.000003691859    0.047155713748    -0.046768858078    0.000004669839    0.000001483130    0.057792615176    -0.064646355168
0.300     0.080529942629    -0.183367472825    -0.000030300983    0.000124069887    0.069515095724    -0.166077652343    -0.000020276185    0.000044228462
            -0.000030275670    0.000124163013    0.067373122083    -0.182350469302    0.000018707829    0.000048542275    0.056865431504    -0.165485772720
            0.070413294701    -0.166237918423    0.000018686707    0.000048596360    0.080389107972    -0.186000363927    0.000008983439    0.000004789583
            -0.000020300923    0.000044293627    0.057750499493    -0.165699604534    0.000009001896    0.000004864260    0.067196460961    -0.185025703323
0.325     -0.075485375461    -0.196100876504    0.000072605159    0.000136074714    -0.090728444959    -0.170319506380    0.000008937769    0.000053121015
            0.000072634647    0.000136137731    -0.086396524409    -0.184867116411    0.000045995464    0.000030879077    -0.101281234533    -0.158574404573
            -0.090180423537    -0.170557718341    0.000046072469    0.000030885846    -0.076412788647    -0.195427300403    0.000003195923    0.000001139996
            0.000009024176    0.000053127228    -0.100745708944    -0.158853506340    0.000003213503    0.000001210398    -0.087161463346    -0.184194348070
0.350     -0.108115575895    -0.052196756621    0.000045875210    0.000029516135    -0.116692994975    -0.022309902336    0.000008155225    0.000024901833
            0.000045926685    0.000029609920    -0.110963698096    -0.041880185248    0.000024268073    -0.000002226019    -0.117865711448    -0.011437194326
            -0.115934233363    -0.022616377380    0.000024255713    -0.000002339000    -0.104457056695    -0.051724357543    0.000005442930    0.000003074891
            0.000008135414    0.000024787672    -0.117138926993    -0.011808838171    0.000005490723    0.000003185960    -0.107139498979    -0.041720102388
0.375     -0.010017734842    -0.065537119862    -0.000059425082    0.000125756484    -0.012934848413    -0.043666504814    -0.000026158720    0.000057053838
            -0.000059311775    0.000125793214    -0.017412549789    -0.057410285154    -0.000007056126    0.000040529810    -0.019147612347    -0.036423286585
            -0.012553892480    -0.044492234881    -0.000007133481    0.000040585529    -0.007765835503    -0.069564485410    0.000002309657    0.000006091589
            -0.000026235739    0.000057117220    -0.018840003827    -0.037269548657    0.000002440654    0.000006116228    -0.015251946772    -0.061693373926
0.400     -0.060618889551    -0.171404712458    0.000077194040    0.000180717744    -0.062038954015    -0.111235561770    0.000015073116    0.000067174936
            0.000077367670    0.000180639313    -0.071600028948    -0.158479938766    0.000054649634    0.000042932437    -0.069468040906    -0.099050651730
            -0.062481742543    -0.112500639260    0.000054685674    0.000042920686    -0.064964117043    -0.174157207873    0.000005179457    0.000000609543
            0.000015121231    0.000067167287    -0.070016930525    -0.100273013752    0.000005327840    0.000000546161    -0.076022888476    -0.160999850800
0.425     -0.186585565959    -0.074945831383    0.000070706954    0.000053203539    -0.145045186350    -0.024111257994    0.000007903380    0.000045398479
            0.000070767165    0.000053060089    -0.191134547851    -0.054246969359    0.000031808293    -0.000010879322    -0.145939853379    -0.007312708961
            -0.145948521948    -0.024596032688    0.000031762267    -0.000010905621    -0.186749164219    -0.072214267297    -0.000000165083    0.000007156660
            0.000007858434    0.000045358611    -0.146888216190    -0.007711684411    -0.000000073596    0.000007029527    -0.190844686060    -0.051568074352
0.450     -0.110323307793    0.058992383776    -0.000061215670    0.000112004951    -0.074933872081    0.067243313037    -0.000009980615    0.000066287684
            -0.000061208245    0.000111905491    -0.105719847489    0.076507290421    -0.000025574140    0.000019393122    -0.070257478985    0.080357110117
            -0.075530910875    0.067130660315    -0.000025634516    0.000019457508    -0.105477377206    0.055904000973    0.000005197383    0.000006540148
            -0.000010047946    0.000066358394    -0.070864944569    0.080311641942    0.000005211732    0.000006423914    -0.100865332081    0.072833489184
0.475     -0.030985052608    -0.019920402119    0.000059592437    0.000234997396    -0.026011657116    0.004964106296    0.000031452430    0.000085379564
            0.000059610358    0.000234884699    -0.028321358842    -0.007469358646    0.000029082591    0.000068275360    -0.022529767814    0.016088061102
            -0.026684193193    0.004768724631    0.000029164785    0.000068329911    -0.032990163937    -0.025064519246    0.000007734650    0.000003519795
            0.000031543855    0.000085433826    -0.023209484988    0.015965391375    0.000007742857    0.000003403145    -0.030598221913    -0.012693823852
0.500     -0.119191701723    -0.061987926359    0.000107039698    0.000074026180    -0.073088925948    -0.009469129431    0.000017279023    0.000036410248
            0.000106952742    0.000073816531    -0.122600346458    -0.046108084380    0.000042311703    -0.000004388755    -0.072070069387    0.001461418486
            -0.074314938937    -0.009099541723    0.000042301944    -0.000004422226    -0.124608074972    -0.059424031236    -0.000003710341    0.000001406068
            0.000017268264    0.000036367785    -0.073248695718    0.001960148870    -0.000003774495    0.000001219439    -0.127508061264    -0.043074830442
0.525     -0.140411888969    0.067499031062    -0.000056444810    0.000108169274    -0.061980163308    0.060668087028    -0.000012041037    0.000076154907
            -0.000056686805    0.000108078991    -0.133849623780    0.090328128470    -0.000031963691    0.000012110514    -0.057098804147    0.073889799215
            -0.062617817395    0.061894476452    -0.000031954268    0.000012155349    -0.136037543337    0.069690674269    0.000002910493    0.000012895680
            -0.000012042079    0.000076199162    -0.057588552095    0.075182820357    0.000002692776    0.000012754461    -0.128799821422    0.091795286657
0.550     -0.015151041164    0.089881914796    0.000033141353    0.000266054764    0.004396926840    0.047725042693    0.000040685707    0.000094054668
            0.000032935285    0.000266141646    -0.000098211521    0.101433122454    -0.000001327620    0.000081999891    0.012655234962    0.056519143129
            0.004699756190    0.048832784732    -0.000001250149    0.000082011138    -0.013248014144    0.082441552192    0.000010353410    0.000002780379
            0.000040766768    0.000094076291    0.013095244504    0.057579631822    0.000010103773    0.000002857852    0.001254619559    0.093336324132
0.575     -0.019434126838    -0.004004168973    0.000144089576    0.000114923375    -0.019679522688    0.011119184848    0.000036061589    0.000027072402
            0.000144011623    0.000114994395    -0.015632161252    0.000991759181    0.000044190493    0.000024012958    -0.015023979854    0.016572436714
            -0.019384446932    0.011573730263    0.000044212288    0.000023907626    -0.025811620176    -0.005894541354    -0.000006083220    -0.000005289086
            0.000036087907    0.000026956630    -0.014676367440    0.016976451108    -0.000006154170    -0.000005198928    -0.022071815655    -0.000343152165
0.600     -0.082014830241    0.023823552649    -0.000049971168    0.000097020442    -0.038504336795    0.033326751569    -0.000030969347    0.000069994620
            -0.000050095329    0.000097130577    -0.081606276862    0.041325697853    -0.000028974102    0.000020993187    -0.037190379107    0.044469304420
            -0.038027704732    0.033970679451    -0.000029050243    0.000021002037    -0.080468528372    0.027980633933    -0.000007769417    0.000017844363
            -0.000031055970    0.000070001876    -0.036639758135    0.045047690207    -0.000007878327    0.000017927884    -0.078973589030    0.044999442505
0.625     -0.026952419259    0.064453823334    0.000011787636    0.000296485207    0.001062125041    0.024016601435    0.000033794876    0.000116340242
            0.000011704069    0.000296732907    -0.014346962862    0.079893310288    -0.000001353062    0.000093906509    0.006459570041    0.034946344533
            0.002108591612    0.024513950832    -0.000001291507    0.000093935217    -0.022252975025    0.058493613576    0.000014208713    0.000009057640
            0.000033851975    0.000116385806    0.007568462570    0.035296032310    0.000014071610    0.000009284277    -0.010075702632    0.072622028644
0.650     -0.015014447581    0.004092625599    0.000171807650    0.000162005173    -0.035885560599    -0.016032209535    0.000046514037    0.000036295831
            0.000171925032    0.000162281287    -0.009036087129    0.009802555799    0.000051223914    0.000035964614    -0.033739037944    -0.006577749934
            -0.034640243601    -0.016334901545    0.000051228499    0.000035828684    -0.020988595158    -0.001862352961    -0.000007515153    -0.000011230792
            0.000046542608    0.000036157521    -0.032554772384    -0.007064817752    -0.000007413321    -0.000010910603    -0.015813181392    0.004313727023
0.675     -0.068600495874    0.023652039774    -0.000025990041    0.000088173842    -0.072099074562    0.041121667524    -0.000035932549    0.000070236766
            -0.000025749624    0.000088300734    -0.068026403453    0.040248909842    -0.000028547907    0.000023665306    -0.068430135645    0.057617666781
            -0.071365201112    0.040201492612    -0.000028718224    0.000023689754    -0.070427930180    0.026788216996    -0.000018348417    0.000022377514
            -0.000036111443    0.000070246359    -0.067853472007    0.056608700853    -0.000018095760    0.000022513715    -0.068799033307    0.043407866034
0.700     -0.027883786403    0.054896958737    -0.000016634861    0.000314419521    -0.011798608129    0.059190555741    0.000025846567    0.000136990339
            -0.000016405321    0.000314429418    -0.016508453105    0.072574101745    -0.000005373918    0.000107112718    -0.001093576295    0.072663836413
            -0.011634531868    0.058208013462    -0.000005307547    0.000107225151    -0.022771212350    0.049589304433    0.000014362799    0.000018946195
            0.000025905477    0.000137110099    -0.001072146442    0.071675231653    0.000014576730    0.000018953883    -0.011703043004    0.065604472234
0.725     -0.041059598366    -0.014150884398    0.000191112291    0.000215997501    -0.045307124572    -0.004117195931    0.000056278743    0.000055909086
            0.000191310191    0.000215902599    -0.036320557851    -0.002290982780    0.000067734516    0.000040554370    -0.040641346028    0.008600744847
            -0.045605403826    -0.004899196565    0.000067717390    0.000040440484    -0.048182696071    -0.023709838959    -0.000007317739    -0.000013216214
            0.000056280452    0.000055795942    -0.041064562803    0.007867955213    -0.000007118363    -0.000013266343    -0.045088138338    -0.011293146042
0.750     -0.137063225927    0.048547672158    0.000013450783    0.000094249973    -0.117068403587    0.065864013249    -0.000023604437    0.000091016814
            0.000013624844    0.000094113645    -0.129838603782    0.077332676903    -0.000030153054    0.000007426811    -0.106630890558    0.091187735430
            -0.117408411383    0.065134827998    -0.000030302388    0.000007541377    -0.144111853873    0.053644226595    -0.000022871664    0.000031545236
            -0.000023769095    0.000091107468    -0.107093546944    0.090539197594    -0.000022670035    0.000031414204    -0.135426244838    0.083381459393
0.775     -0.061223404510    0.154785611664    -0.000038749208    0.000299422593    -0.032866080265    0.152003935211    0.000042901511    0.000144310285
            -0.000038598227    0.000299207084    -0.032323557920    0.176697457756    -0.000042711394    0.000096874769    -0.005376678002    0.167059780472
            -0.033589854121    0.151260277754    -0.000042565032    0.000097037027    -0.055128124961    0.154735373292    0.000015421235    0.000022634591
            0.000043039639    0.000144484995    -0.006197265910    0.166457767038    0.000015587872    0.000022428516    -0.025617027748    0.174575087655
