# GHz S RI R 45
0.000     0.076637876000    -0.000000000000    0.000017515977    -0.000000000000    0.002877790200    0.000000000000    0.000016462723    0.000000000000
            0.000024848650    -0.000000000000    0.070567886000    -0.000000000000    -0.000020259555    0.000000000000    0.004793894800    -0.000000000000
            0.003306995400    0.000000000000    -0.000077885342    -0.000000000000    0.073052598000    -0.000000000000    0.000014020557    0.000000000000
            -0.000020637142    -0.000000000000    0.005640071800    0.000000000000    0.000003947504    -0.000000000000    0.071485629000    -0.000000000000
0.025     0.137076760419    0.011583210515    -0.000044334377    -0.000026109514    0.071470967131    0.040093721639    -0.000037315563    -0.000025121216
            -0.000029131599    -0.000037105095    0.136629150535    0.013832947585    -0.000054934795    -0.000009491958    0.070934889209    0.039650447857
            0.071636485648    0.039774787344    -0.000101813983    0.000048643423    0.136091220011    0.012843882447    -0.000049090236    -0.000030944926
            -0.000043804908    0.000006646768    0.071631844047    0.039270182988    -0.000036285562    -0.000026676769    0.136861470460    0.014295266478
0.050     0.115963489593    -0.077560469119    -0.000081441109    0.000034680336    0.074573399902    -0.033489615135    -0.000076487277    0.000028992605
            -0.000095851902    0.000013138122    0.118738300273    -0.077350163853    -0.000109974697    0.000056856788    0.074597176783    -0.032771392367
            0.074400591384    -0.033726688460    -0.000060546137    0.000128097453    0.115692566589    -0.077086707170    -0.000102465990    0.000043209586
            -0.000055558414    0.000046031817    0.075020823321    -0.033534249417    -0.000106426052    0.000030654785    0.119227485248    -0.078128231964
0.075     0.031772950136    -0.026902616495    -0.000008670085    0.000161452313    0.022844436725    0.022064538447    -0.000005372226    0.000151204614
            -0.000024746366    0.000172075960    0.030722117672    -0.030516300042    0.000018601982    0.000228401610    0.022573854549    0.020880115525
            0.022790054858    0.022004042569    0.000084070445    0.000204720957    0.030057791675    -0.026345565297    -0.000003731172    0.000194826485
            0.000025760130    0.000141108311    0.022552074130    0.020474935524    -0.000000075058    0.000200377346    0.028575403105    -0.031210972558
0.100     0.116692853841    0.031137791603    0.000183020381    0.000065180694    0.111372946986    0.067407926667    0.000172556574    0.000049914963
            0.000177277125    0.000072743392    0.112912538120    0.032810230380    0.000251367197    0.000054709449    0.109700677711    0.068840190372
            0.111319514570    0.067052489750    0.000273769376    0.000012502520    0.116543451308    0.032348154329    0.000217818707    0.000075614663
            0.000169682821    0.000010107476    0.109290815397    0.068124685960    0.000212314167    0.000053943970    0.112319445464    0.033447370379
0.125     0.152069027429    -0.079935520237    0.000151975212    -0.000092426815    0.149599454473    -0.060262808725    0.000127532902    -0.000091543801
            0.000156040432    -0.000066504030    0.155247993574    -0.075839899672    0.000184682704    -0.000126926723    0.151538510572    -0.057461647408
            0.148928761952    -0.060486310683    0.000165830319    -0.000196098101    0.152664679457    -0.079296556348    0.000184883123    -0.000116934112
            0.000088488196    -0.000097102773    0.150803287955    -0.057947097963    0.000155453893    -0.000099627582    0.155356197997    -0.075921721266
0.150     0.039103026533    -0.102644777105    0.000062525254    -0.000253764605    0.025116204998    -0.082725189928    0.000047707218    -0.000228289495
            0.000105339145    -0.000258104835    0.043613839562    -0.106662471896    0.000085887617    -0.000335688186    0.027803836952    -0.084426917750
            0.024515577915    -0.082050478916    -0.000013573061    -0.000334867517    0.039827641224    -0.102371224276    0.000061336756    -0.000305065690
            0.000034448227    -0.000198438874    0.026844462671    -0.084415758561    0.000084553315    -0.000279992859    0.042826629740    -0.106729206810
0.175     0.068153147517    -0.023231605769    -0.000282224964    -0.000166401555    0.068033338873    0.011676883315    -0.000273672340    -0.000137109786
            -0.000291172847    -0.000208679433    0.065594942787    -0.023399231937    -0.000396185618    -0.000239001801    0.066246506256    0.013031867457
            0.068233408944    0.012102307629    -0.000403295402    -0.000148375025    0.068902871238    -0.023338837594    -0.000342957847    -0.000195544265
            -0.000263271136    -0.000112981010    0.065551018338    0.012878516246    -0.000336485957    -0.000205806223    0.065280134723    -0.023716208153
0.200     0.157976020483    -0.082635911446    -0.000214234743    0.000170770005    0.173936117203    -0.067545363779    -0.000177035166    0.000191479826
            -0.000239684343    0.000170996299    0.160339933072    -0.076408726936    -0.000311706828    0.000259169110    0.178350770340    -0.061573102947
            0.174083201659    -0.067647922939    -0.000265158281    0.000285864437    0.158202209420    -0.084230176186    -0.000270230192    0.000221273645
            -0.000142688396    0.000199192863    0.178011081230    -0.060948412231    -0.000253372350    0.000227155439    0.160927961149    -0.076531109816
0.225     0.059894649074    -0.179961109284    -0.000082926114    0.000242620299    0.056417346421    -0.186481756865    -0.000029884205    0.000207821073
            -0.000101000587    0.000249127906    0.069584886637    -0.181135096233    -0.000072970266    0.000344439856    0.066031201821    -0.187835077670
            0.056074309174    -0.186027708289    -0.000020864762    0.000349230784    0.059047757785    -0.180700105473    -0.000063113195    0.000310041751
            -0.000006730473    0.000171845178    0.065815745018    -0.187065522613    -0.000051296276    0.000270954223    0.069177014095    -0.181057607643
0.250     -0.034939960477    -0.093628773856    0.000234429664    0.000352133500    -0.058166498893    -0.084387232005    0.000219309302    0.000281922818
            0.000222571885    0.000390903673    -0.033076328061    -0.101013834953    0.000312570642    0.000446787482    -0.055745168573    -0.090413609268
            -0.057484724370    -0.083353282035    0.000362879511    0.000372652080    -0.034534090621    -0.093588526751    0.000295893462    0.000381230004
            0.000188663058    0.000249526973    -0.055446207608    -0.089364934343    0.000244660164    0.000371287914    -0.032116553390    -0.099499537296
0.275     0.050780455842    -0.066804095843    0.000434272007    -0.000159533392    0.042865111374    -0.048840519036    0.000374417636    -0.000188630307
            0.000488062944    -0.000142367833    0.052585380351    -0.065314556993    0.000615495639    -0.000202952985    0.046739899724    -0.047048462725
            0.043512836032    -0.049009492050    0.000533409642    -0.000266711708    0.054043384596    -0.067130062440    0.000513671752    -0.000210222512
            0.000343110115    -0.000177136544    0.047155713748    -0.046768858078    0.000510788352    -0.000174248907    0.057792615176    -0.064646355168
0.300     0.055823764083    -0.181812558771    0.000046614064    -0.000343833111    0.044566466359    -0.163001730908    -0.000033328546    -0.000314195398
            0.000064404149    -0.000388578128    0.067373122083    -0.182350469302    0.000059151829    -0.000539628562    0.056865431504    -0.165485772720
            0.044698007895    -0.164110669330    0.000003440087    -0.000486184500    0.053101605058    -0.184081912827    0.000020331554    -0.000446752578
            -0.000046835572    -0.000285691437    0.057750499493    -0.165699604534    0.000024922082    -0.000438645885    0.067196460961    -0.185025703323
0.325     -0.096522950886    -0.173490901584    -0.000147148119    -0.000347291041    -0.109640708057    -0.146047619812    -0.000158862976    -0.000231633125
            -0.000169626389    -0.000371077960    -0.086396524409    -0.184867116411    -0.000286280381    -0.000436988224    -0.101281234533    -0.158574404573
            -0.109986665799    -0.146148042082    -0.000281353104    -0.000392635473    -0.099063561295    -0.171743753053    -0.000234807133    -0.000357773819
            -0.000139578787    -0.000198351694    -0.100745708944    -0.158853506340    -0.000219115170    -0.000333915421    -0.087161463346    -0.184194348070
0.350     -0.112310907367    -0.030612602663    -0.000582598324    -0.000100755879    -0.117773905470    -0.001141786808    -0.000471283534    -0.000041645258
            -0.000611105635    -0.000105797827    -0.110963698096    -0.041880185248    -0.000738640159    -0.000069407544    -0.117865711448    -0.011437194326
            -0.117079475386    -0.001189721429    -0.000710963818    -0.000023415908    -0.110159764320    -0.029174154550    -0.000640301159    -0.000056772186
            -0.000425141374    -0.000045877717    -0.117138926993    -0.011808838171    -0.000595192633    -0.000079451073    -0.107139498979    -0.041720102388
0.375     -0.022852146054    -0.049162931325    -0.000275701517    0.000577927056    -0.024252363810    -0.028628822787    -0.000169652733    0.000518708579
            -0.000306613438    0.000612255519    -0.017412549789    -0.057410285154    -0.000364346736    0.000765235324    -0.019147612347    -0.036423286585
            -0.024182910052    -0.029550372194    -0.000280393362    0.000746720681    -0.022129829217    -0.051158026537    -0.000276331572    0.000676061406
            -0.000158884000    0.000474077562    -0.018840003827    -0.037269548657    -0.000299632776    0.000630129426    -0.015251946772    -0.061693373926
0.400     -0.080878758914    -0.146416114321    0.000304407595    0.000414423888    -0.075219713808    -0.086404849897    0.000326587831    0.000276766753
            0.000337218399    0.000456068367    -0.071600028948    -0.158479938766    0.000461912586    0.000586065982    -0.069468040906    -0.099050651730
            -0.076781150669    -0.087377632945    0.000449503094    0.000499500049    -0.085616047295    -0.146688162058    0.000410579978    0.000446925640
            0.000296621119    0.000249049716    -0.070016930525    -0.100273013752    0.000380296242    0.000454245474    -0.076022888476    -0.160999850800
0.425     -0.194346713646    -0.033540967762    0.000530224782    0.000147924562    -0.144590865850    0.009067902471    0.000397553273    0.000048740742
            0.000572115161    0.000130571626    -0.191134547851    -0.054246969359    0.000737881469    0.000097414553    -0.145939853379    -0.007312708961
            -0.145807461138    0.009810157783    0.000676051302    0.000090452710    -0.193810303547    -0.028821057172    0.000586648542    0.000085494577
            0.000358496421    0.000057477627    -0.146888216190    -0.007711684411    0.000569883541    0.000097860989    -0.190844686060    -0.051568074352
0.450     -0.098488181771    0.093972228626    0.000591125464    -0.000512473935    -0.063582796189    0.091982093953    0.000437806434    -0.000437265957
            0.000594663326    -0.000547640468    -0.105719847489    0.076507290421    0.000677885314    -0.000701487120    -0.070257478985    0.080357110117
            -0.063482401340    0.092555985001    0.000649977928    -0.000677495895    -0.092603716881    0.092121331881    0.000598194747    -0.000589291076
            0.000421742773    -0.000397437205    -0.070864944569    0.080311641942    0.000590359337    -0.000553268493    -0.100865332081    0.072833489184
0.475     -0.023790474972    0.002992667407    -0.000327869423    -0.000802387692    -0.018084990990    0.025262105640    -0.000350555109    -0.000628346226
            -0.000351681556    -0.000827393827    -0.028321358842    -0.007469358646    -0.000443736137    -0.001002878201    -0.022529767814    0.016088061102
            -0.018633949044    0.025011475177    -0.000457934965    -0.000952965769    -0.025182073918    -0.001433760247    -0.000411498474    -0.000861785239
            -0.000319402254    -0.000591625593    -0.023209484988    0.015965391375    -0.000366514070    -0.000841235357    -0.030598221913    -0.012693823852
0.500     -0.124757321405    -0.030834018729    -0.000753180073    -0.000063482738    -0.071038775395    0.012458423136    -0.000603739708    0.000057840117
            -0.000792630098    -0.000053008827    -0.122600346458    -0.046108084380    -0.001001549366    -0.000063929161    -0.072070069387    0.001461418486
            -0.072314854623    0.013310789323    -0.000940555639    -0.000028024794    -0.129396880486    -0.027757886386    -0.000833951131    -0.000011340941
            -0.000556471528    0.000045197783    -0.073248695718    0.001960148870    -0.000807972640    -0.000045852849    -0.127508061264    -0.043074830442
0.525     -0.124296129140    0.112228037842    -0.000598286268    0.000504709668    -0.049691928211    0.086685658131    -0.000413371652    0.000431869488
            -0.000601098199    0.000543730092    -0.133849623780    0.090328128470    -0.000735005414    0.000715631391    -0.057098804147    0.073889799215
            -0.049547738883    0.088513746555    -0.000692713992    0.000667359134    -0.118991133840    0.114400734168    -0.000618000271    0.000585926989
            -0.000402519558    0.000385128634    -0.057588552095    0.075182820357    -0.000627773905    0.000556037100    -0.128799821422    0.091795286657
0.550     0.016780931772    0.109748045196    0.000138658865    0.001012999662    0.021982698249    0.061874385099    0.000183692183    0.000816053055
            0.000166188401    0.001028480025    -0.000098211521    0.101433122454    0.000247099039    0.001256230481    0.012655234962    0.056519143129
            0.023403055685    0.062653102825    0.000227307763    0.001217185281    0.019038715890    0.101552688375    0.000212370523    0.001103647411
            0.000148918570    0.000784484070    0.013095244504    0.057579631822    0.000183833950    0.001086091520    0.001254619559    0.093336324132
0.575     -0.012020739969    0.004503734828    0.001060969811    0.000260005429    -0.012494023065    0.020735529642    0.000902264045    0.000099571841
            0.001085766601    0.000251129457    -0.015632161252    0.000991759181    0.001329775728    0.000294209741    -0.015023979854    0.016572436714
            -0.011718726524    0.020809539731    0.001297498943    0.000277756057    -0.019893658396    0.002812765914    0.001172290439    0.000216137063
            0.000857991368    0.000113282984    -0.014676367440    0.016976451108    0.001135612835    0.000237733343    -0.022071815655    -0.000343152165
0.600     -0.078166946046    0.058500862475    0.000693757706    -0.000717243847    -0.034063385071    0.057853132642    0.000469757429    -0.000652092649
            0.000702448253    -0.000744233233    -0.081606276862    0.041325697853    0.000878799305    -0.000923330929    -0.037190379107    0.044469304420
            -0.033845325983    0.057955320263    0.000835343693    -0.000899068182    -0.077669342511    0.063119284637    0.000721072740    -0.000812261909
            0.000458185531    -0.000606431341    -0.036639758135    0.045047690207    0.000727575568    -0.000769869891    -0.078973589030    0.044999442505
0.625     0.000204646216    0.090592169854    -0.000158454600    -0.001107432566    0.015223258072    0.043309452126    -0.000232809175    -0.000888624457
            -0.000177588838    -0.001127980714    -0.014346962862    0.079893310288    -0.000237964133    -0.001401141222    0.006459570041    0.034946344533
            0.016213194568    0.043640032029    -0.000226163912    -0.001350379417    0.003934475589    0.085750434951    -0.000231630715    -0.001218548515
            -0.000195579937    -0.000855766158    0.007568462570    0.035296032310    -0.000195403488    -0.001203651226    -0.010075702632    0.072622028644
0.650     -0.005922644172    0.013704387102    -0.001234123954    -0.000360236696    -0.033226095324    0.000677503822    -0.001074884996    -0.000149325863
            -0.001259237847    -0.000358125296    -0.009036087129    0.009802555799    -0.001540160253    -0.000432180285    -0.033739037944    -0.006577749934
            -0.031780666054    -0.000149991392    -0.001499821007    -0.000424134028    -0.012241848376    0.009479492495    -0.001376576372    -0.000311512940
            -0.001032013101    -0.000169315462    -0.032554772384    -0.007064817752    -0.001342590396    -0.000333419090    -0.015813181392    0.004313727023
0.675     -0.065220770629    0.058597191548    -0.000786912384    0.000855081806    -0.063405689719    0.076315754212    -0.000513305422    0.000802857431
            -0.000805291573    0.000878427475    -0.068026403453    0.040248909842    -0.001009840782    0.001061519663    -0.068430135645    0.057617666781
            -0.063229743957    0.074440856230    -0.000976820246    0.001040061665    -0.066917230540    0.062896762590    -0.000806121445    0.000962885826
            -0.000508977720    0.000762720414    -0.067853472007    0.056608700853    -0.000809625289    0.000919658977    -0.068799033307    0.043407866034
0.700     -0.001791434972    0.085439454283    0.000145459833    0.001174299883    0.014194343118    0.083865611584    0.000247724068    0.000932754571
            0.000160800416    0.001208707771    -0.016508453105    0.072574101745    0.000189580600    0.001508985496    -0.001093576295    0.072663836413
            0.012941723633    0.082863575638    0.000185739242    0.001456913039    0.002296703033    0.081970791163    0.000212734731    0.001293268200
            0.000217735266    0.000904394289    -0.001072146442    0.071675231653    0.000172777397    0.001277696550    -0.011703043004    0.065604472234
0.725     -0.036173452684    0.008273511602    0.001404956836    0.000453994207    -0.036262169298    0.017931654108    0.001252549219    0.000187640121
            0.001444450054    0.000452302731    -0.036320557851    -0.002290982780    0.001753609626    0.000561854544    -0.040641346028    0.008600744847
            -0.036800718285    0.018125378321    0.001699690614    0.000554852559    -0.042101698407    0.002253822850    0.001573703335    0.000390530168
            0.001211276557    0.000205210930    -0.041064562803    0.007867955213    0.001543615671    0.000415262952    -0.045088138338    -0.011293146042
0.750     -0.120655759280    0.109291122920    0.000751460577    -0.001075434772    -0.094002834061    0.116248103247    0.000410786300    -0.001030067647
            0.000769210961    -0.001107521369    -0.129838603782    0.077332676903    0.000976231579    -0.001290412280    -0.106630890558    0.091187735430
            -0.093757243057    0.115710668396    0.000957358268    -0.001257253428    -0.122377592632    0.115454747159    0.000719118940    -0.001176348736
            0.000413364990    -0.000994054096    -0.107093546944    0.090539197594    0.000721932415    -0.001139178592    -0.135426244838    0.083381459393
0.775     0.001578057426    0.193950780268    -0.000237226333    -0.000940930312    0.025207851997    0.177433140900    -0.000335358188    -0.000659056511
            -0.000255958557    -0.000980400582    -0.032323557920    0.176697457756    -0.000233761800    -0.001250323719    -0.005376678002    0.167059780472
            0.023968748570    0.176264771381    -0.000230987187    -0.001214297804    0.008906529576    0.191063070812    -0.000243377853    -0.001006141004
