# GHz S RI R 45
0.000     0.071994769000    0.000000000000    0.000004727740    -0.000000000000    0.004326879300    -0.000000000000    -0.000019036646    -0.000000000000
            0.000019522962    0.000000000000    0.070567886000    -0.000000000000    -0.000001932851    0.000000000000    0.004793894800    -0.000000000000
            0.005282624900    -0.000000000000    0.000045231188    0.000000000000    0.072970347000    -0.000000000000    -0.000025604786    -0.000000000000
            0.000052347647    0.000000000000    0.005640071800    0.000000000000    -0.000039986537    -0.000000000000    0.071485629000    -0.000000000000
0.025     0.137414963245    0.013246150086    -0.000008746416    -0.000010540375    0.071620000106    0.040342086899    0.000000828556    0.000015823711
            0.000003110114    -0.000018659445    0.136629150535    0.013832947585    0.000066366854    0.000050877982    0.070934889209    0.039650447857
            0.071509293176    0.039481381813    0.000061328490    0.000005824404    0.137185932769    0.012941052960    -0.000002395830    0.000019598945
            0.000029672992    -0.000036091128    0.071631844047    0.039270182988    0.000005418175    0.000036269664    0.136861470460    0.014295266478
0.050     0.118347109749    -0.077555065272    -0.000046543100    0.000027487074    0.075219221504    -0.033230930039    -0.000019357905    0.000018384348
            -0.000041793234    0.000016464832    0.118738300273    -0.077350163853    -0.000034301800    0.000046195480    0.074597176783    -0.032771392367
            0.074297663350    -0.033049066575    -0.000078111217    0.000056617817    0.117539104551    -0.077838565176    -0.000017369298    0.000017833863
            -0.000036261562    -0.000006070935    0.075020823321    -0.033534249417    0.000005106586    0.000009551091    0.119227485248    -0.078128231964
0.075     0.030853836159    -0.028847732245    0.000016120414    0.000108002048    0.022595450360    0.022222079506    0.000002847757    0.000091080301
            0.000016171444    0.000100124384    0.030722117672    -0.030516300042    0.000004134789    0.000330218194    0.022573854549    0.020880115525
            0.022640646417    0.022346247651    0.000022426779    0.000374767750    0.030462186372    -0.028391820270    0.000001017618    0.000084721422
            0.000014439050    0.000097089341    0.022552074130    0.020474935524    -0.000002773567    0.000059240420    0.028575403105    -0.031210972558
0.100     0.115177059161    0.033118052632    0.000095153872    0.000021654348    0.110934590173    0.069439601350    0.000091483120    0.000052042262
            0.000097577512    0.000013590544    0.112912538120    0.032810230380    0.000305977888    0.000219769635    0.109700677711    0.068840190372
            0.111676097597    0.068960609082    0.000348744862    0.000197484387    0.115488709133    0.032755567487    0.000076464829    0.000045618457
            0.000120615920    0.000010571294    0.109290815397    0.068124685960    0.000057908182    0.000043800935    0.112319445464    0.033447370379
0.125     0.155340965703    -0.077192284475    0.000009585728    -0.000014877975    0.152037053751    -0.058022360636    0.000045828928    -0.000007157441
            0.000009355280    -0.000027867925    0.155247993574    -0.075839899672    0.000056061236    0.000045836049    0.151538510572    -0.057461647408
            0.151389553974    -0.058747649652    0.000035515569    0.000006110669    0.154469147293    -0.078089963944    0.000041436193    0.000007081592
            0.000011214061    -0.000069695897    0.150803287955    -0.057947097963    0.000037723615    0.000017932165    0.155356197997    -0.075921721266
0.150     0.042312685322    -0.104619090700    -0.000006595447    0.000097820428    0.027213112281    -0.083107853205    0.000004065610    0.000081151834
            -0.000022810315    0.000088700445    0.043613839562    -0.106662471896    -0.000033369293    0.000509600958    0.027803836952    -0.084426917750
            0.026395488390    -0.082307115889    -0.000068460498    0.000532282330    0.040961627629    -0.103907441919    0.000014495144    0.000069121139
            -0.000066326089    0.000087355971    0.026844462671    -0.084415758561    0.000022714323    0.000069724203    0.042826629740    -0.106729206810
0.175     0.069003439709    -0.021357169944    0.000164022152    0.000064796299    0.069033743795    0.014391197501    0.000161100973    0.000087250260
            0.000150629759    0.000071635195    0.065594942787    -0.023399231937    0.000574284662    0.000474213995    0.066246506256    0.013031867457
            0.069589382768    0.015067498428    0.000605721139    0.000501913113    0.068636881857    -0.021810692601    0.000136554054    0.000052625604
            0.000155093596    0.000128537475    0.065551018338    0.012878516246    0.000133046192    0.000040508918    0.065280134723    -0.023716208153
0.200     0.162614832040    -0.078914530206    0.000077985410    -0.000069458803    0.179680742885    -0.063355086838    0.000131823983    -0.000068493990
            0.000076215434    -0.000064743507    0.160339933072    -0.076408726936    0.000314597221    -0.000021143967    0.178350770340    -0.061573102947
            0.180220208585    -0.064131359561    0.000338745392    -0.000058837582    0.163045091132    -0.080015467265    0.000074224616    -0.000037804225
            0.000140334425    -0.000081571133    0.178011081230    -0.060948412231    0.000056153752    -0.000038615394    0.160927961149    -0.076531109816
0.225     0.067845998424    -0.181229778538    0.000000013217    -0.000008846881    0.064757548661    -0.187345673431    0.000013205262    -0.000032728552
            -0.000007308632    -0.000010174489    0.069584886637    -0.181135096233    -0.000028174691    0.000455948281    0.066031201821    -0.187835077670
            0.063914428844    -0.187650872606    -0.000066135800    0.000426531048    0.066371752893    -0.181487501414    0.000036822506    -0.000004606734
            -0.000034596328    -0.000040516273    0.065815745018    -0.187065522613    0.000028136964    0.000017308277    0.069177014095    -0.181057607643
0.250     -0.030800292650    -0.096506465887    0.000086658863    0.000102386642    -0.053426604933    -0.086632157199    0.000102595971    0.000109417497
            0.000074419410    0.000111880960    -0.033076328061    -0.101013834953    0.000679966177    0.000770981265    -0.055745168573    -0.090413609268
            -0.053598017406    -0.085480172190    0.000646786814    0.000806376224    -0.030588791823    -0.094513209196    0.000092175043    0.000063997644
            0.000070007526    0.000175985933    -0.055446207608    -0.089364934343    0.000114615486    0.000078479390    -0.032116553390    -0.099499537296
0.275     0.059026038086    -0.067174748183    0.000158328749    -0.000082127967    0.051732306558    -0.049027182055    0.000230745768    -0.000086211460
            0.000159042598    -0.000064333108    0.052585380351    -0.065314556993    0.000776250535    -0.000083536756    0.046739899724    -0.047048462725
            0.052178014724    -0.048995392575    0.000810346945    -0.000058739818    0.065000308500    -0.065529048906    0.000122116187    -0.000080712860
            0.000280970490    -0.000038640766    0.047155713748    -0.046768858078    0.000133126965    -0.000102250417    0.057792615176    -0.064646355168
0.300     0.066316019933    -0.186127123198    0.000008926738    -0.000072655806    0.055528192797    -0.167648269593    0.000025397951    -0.000159638784
            0.000020084741    -0.000064494543    0.067373122083    -0.182350469302    0.000042670382    0.000227076707    0.056865431504    -0.165485772720
            0.055716043854    -0.168850211204    0.000054079703    0.000191827259    0.065709061291    -0.188871363314    0.000017896243    -0.000034365554
            0.000059974348    -0.000180617725    0.057750499493    -0.165699604534    -0.000003220246    -0.000038299916    0.067196460961    -0.185025703323
0.325     -0.087450961960    -0.181880081816    0.000001267536    0.000019359839    -0.101037969504    -0.155145128355    -0.000015172023    0.000027427463
            0.000006928299    0.000019377101    -0.086396524409    -0.184867116411    0.000627101429    0.000842753546    -0.101281234533    -0.158574404573
            -0.101976609028    -0.155274373041    0.000583873171    0.000834519844    -0.089138551663    -0.181053895327    0.000043930980    0.000013198940
            -0.000030860014    0.000023279863    -0.100745708944    -0.158853506340    0.000043756410    0.000039648454    -0.087161463346    -0.184194348070
0.350     -0.103841027334    -0.039769451211    0.000150551794    0.000037936924    -0.110826671867    -0.010261316842    0.000229924769    0.000030305616
            0.000153616215    0.000042178356    -0.110963698096    -0.041880185248    0.001220520783    0.000087464581    -0.117865711448    -0.011437194326
            -0.110630489594    -0.009361073620    0.001205447568    0.000140388692    -0.100917638074    -0.038648729094    0.000148165802    -0.000001815931
            0.000246625869    0.000068818921    -0.117138926993    -0.011808838171    0.000183499977    -0.000001417195    -0.107139498979    -0.041720102388
0.375     -0.014246768760    -0.063872880701    0.000074754283    -0.000131163781    -0.016926675221    -0.041921046848    0.000128387175    -0.000258625627
            0.000083927638    -0.000125421899    -0.017412549789    -0.057410285154    0.000275553816    -0.000228457934    -0.019147612347    -0.036423286585
            -0.016364667969    -0.042553414572    0.000329572290    -0.000209044717    -0.012805493421    -0.066797614911    0.000040164047    -0.000117440776
            0.000188832844    -0.000269369897    -0.018840003827    -0.037269548657    0.000039685073    -0.000155263497    -0.015251946772    -0.061693373926
0.400     -0.075419272618    -0.159081841393    -0.000004035537    -0.000042261398    -0.071727759294    -0.098265502374    -0.000102352327    -0.000096728588
            0.000010880584    -0.000047218831    -0.071600028948    -0.158479938766    0.000489841659    0.000749872279    -0.069468040906    -0.099050651730
            -0.072320062911    -0.099509235040    0.000503331354    0.000706410747    -0.079500208746    -0.161533730845    0.000024405970    -0.000004733947
            -0.000091904941    -0.000153353492    -0.070016930525    -0.100273013752    -0.000007375681    -0.000003300737    -0.076022888476    -0.160999850800
0.425     -0.187328753185    -0.049861447425    0.000057974261    0.000023329036    -0.140489663116    -0.004545252258    0.000108473776    0.000072713556
            0.000062341827    0.000010337417    -0.191134547851    -0.054246969359    0.001388059920    0.000234728750    -0.145939853379    -0.007312708961
            -0.141703616354    -0.004243810958    0.001351027779    0.000232624868    -0.187899621425    -0.047091220623    0.000107131129    -0.000001311770
            0.000074961255    0.000053903710    -0.146888216190    -0.007711684411    0.000111408285    0.000025808237    -0.190844686060    -0.051568074352
0.450     -0.096940611295    0.071913866158    0.000170728800    -0.000084336343    -0.062944694539    0.074387626559    0.000269918924    -0.000213664194
            0.000167910396    -0.000092346997    -0.105719847489    0.076507290421    0.000752078409    -0.000548830151    -0.070257478985    0.080357110117
            -0.062765511297    0.075353561293    0.000759841234    -0.000503297556    -0.092759458559    0.069801059116    0.000162130899    -0.000137561206
            0.000266255349    -0.000198986570    -0.070864944569    0.080311641942    0.000189525055    -0.000148658622    -0.100865332081    0.072833489184
0.475     -0.030467678363    -0.014451415557    0.000013345207    -0.000158095199    -0.024714012329    0.010612766255    -0.000097893375    -0.000318656549
            0.000012490438    -0.000160499627    -0.028321358842    -0.007469358646    0.000267183002    0.000341120798    -0.022529767814    0.016088061102
            -0.024650386503    0.010062778308    0.000327574423    0.000330784524    -0.032228548071    -0.018457837008    -0.000023494303    -0.000144835453
            -0.000079062930    -0.000338196943    -0.023209484988    0.015965391375    -0.000042393672    -0.000175297488    -0.030598221913    -0.012693823852
0.500     -0.123058924183    -0.043021794051    -0.000001137692    -0.000068235715    -0.070686897289    0.004042608149    -0.000083770213    0.000016360281
            0.000000694730    -0.000076723705    -0.122600346458    -0.046108084380    0.001372585104    0.000343611309    -0.072070069387    0.001461418486
            -0.071548630498    0.003404523158    0.001367686231    0.000281265223    -0.127819645925    -0.040775025304    0.000036272401    -0.000043883910
            -0.000109269858    -0.000019265946    -0.073248695718    0.001960148870    0.000006471045    -0.000025043524    -0.127508061264    -0.043074830442
0.525     -0.124620761809    0.087984273010    0.000084957867    -0.000091020993    -0.048829911049    0.069112123441    0.000228913519    -0.000138207595
            0.000077759357    -0.000101133919    -0.133849623780    0.090328128470    0.001087267664    -0.000720864385    -0.057098804147    0.073889799215
            -0.049777513987    0.070053346802    0.001036508600    -0.000722236860    -0.121195289642    0.090173937340    0.000128155047    -0.000143280852
            0.000183126215    -0.000127994355    -0.057588552095    0.075182820357    0.000142780668    -0.000115735022    -0.128799821422    0.091795286657
0.550     0.001796990285    0.089123645582    0.000018427972    -0.000239459490    0.011980146086    0.044893822722    -0.000032739184    -0.000483062435
            0.000005368308    -0.000241172490    -0.000098211521    0.101433122454    0.000219524913    -0.000240846541    0.012655234962    0.056519143129
            0.012672721051    0.046125758910    0.000224802588    -0.000200565961    0.003354366540    0.083545452875    -0.000026407593    -0.000305418688
            -0.000038347307    -0.000443995243    0.013095244504    0.057579631822    -0.000003718842    -0.000319184076    0.001254619559    0.093336324132
0.575     -0.020968308419    -0.001640211375    -0.000121663010    -0.000152752620    -0.019681260820    0.014975603537    -0.000343592470    -0.000141286522
            -0.000129188406    -0.000145970818    -0.015632161252    0.000991759181    0.001046551282    0.000335783836    -0.015023979854    0.016572436714
            -0.018889495351    0.015018289805    0.001087781949    0.000312762710    -0.025988654363    -0.002465369460    -0.000172433016    -0.000121917362
            -0.000320605813    -0.000137538421    -0.014676367440    0.016976451108    -0.000190177726    -0.000139111541    -0.022071815655    -0.000343152165
0.600     -0.076190058460    0.039890989277    -0.000062073043    -0.000089848120    -0.031594253355    0.042448897002    0.000025958005    0.000001323202
            -0.000064012880    -0.000085635444    -0.081606276862    0.041325697853    0.001281084735    -0.000745909231    -0.037190379107    0.044469304420
            -0.032091380934    0.041798868762    0.001247585689    -0.000797169115    -0.074642088575    0.043143453468    -0.000026028188    -0.000071468194
            0.000014512776    -0.000014795556    -0.036639758135    0.045047690207    -0.000039080530    -0.000050299332    -0.078973589030    0.044999442505
0.625     -0.013045960301    0.065726629582    -0.000090533819    -0.000206331318    0.006323627675    0.021382546508    -0.000036510386    -0.000451300005
            -0.000093839253    -0.000204557437    -0.014346962862    0.079893310288    0.000214014585    -0.000715030535    0.006459570041    0.034946344533
            0.005853258566    0.022326442451    0.000151962257    -0.000687248925    -0.009693433550    0.061343420261    -0.000080573942    -0.000276201412
            -0.000062024135    -0.000427522639    0.007568462570    0.035296032310    -0.000057453965    -0.000261395454    -0.010075702632    0.072622028644
0.650     -0.020810882856    0.003717592751    -0.000275555093    -0.000122518930    -0.045233498418    -0.010975715119    -0.000571542556    -0.000237524775
            -0.000282309273    -0.000116504023    -0.009036087129    0.009802555799    0.000590251356    0.000183415761    -0.033739037944    -0.006577749934
            -0.043833047915    -0.010229298497    0.000608759691    0.000242705520    -0.024793295156    0.000432145264    -0.000360594284    -0.000148221375
            -0.000547566931    -0.000200236709    -0.032554772384    -0.007064817752    -0.000344302385    -0.000169169216    -0.015813181392    0.004313727023
0.675     -0.068665908219    0.042624590908    -0.000195188594    0.000046941207    -0.068562392416    0.060292691345    -0.000260557400    0.000229450434
            -0.000195341651    0.000059324195    -0.068026403453    0.040248909842    0.001256926056    -0.000569093224    -0.068430135645    0.057617666781
            -0.067465674443    0.058938381412    0.001300242902    -0.000588064723    -0.068078289579    0.044663037937    -0.000229977940    0.000107582981
            -0.000221984636    0.000213668202    -0.067853472007    0.056608700853    -0.000245865162    0.000092687623    -0.068799033307    0.043407866034
0.700     -0.015164433840    0.060536944496    -0.000105366850    -0.000075714767    0.000392361887    0.061936074216    0.000012969466    -0.000201243704
            -0.000094728552    -0.000066857397    -0.016508453105    0.072574101745    0.000325033440    -0.001017709210    -0.001093576295    0.072663836413
            -0.000672977841    0.060842191197    0.000291840905    -0.001050332598    -0.011563900910    0.054839823231    -0.000065428010    -0.000066964593
            0.000000351718    -0.000231052382    -0.001072146442    0.071675231653    -0.000076237744    -0.000053217249    -0.011703043004    0.065604472234
0.725     -0.054018266809    -0.008991269572    -0.000348481155    -0.000047158802    -0.055668236711    0.003069621363    -0.000622647156    -0.000243717445
            -0.000340431327    -0.000052139285    -0.036320557851    -0.002290982780    0.000176207140    -0.000049998933    -0.040641346028    0.008600744847
            -0.055892251052    0.003750210877    0.000141038169    0.000002158805    -0.060252430018    -0.014832637778    -0.000374637511    -0.000092110351
            -0.000642382229    -0.000224294445    -0.041064562803    0.007867955213    -0.000359285822    -0.000086636543    -0.045088138338    -0.011293146042
0.750     -0.136041825089    0.087543011843    -0.000274106949    0.000238636330    -0.111669873585    0.098700849846    -0.000470975252    0.000451495047
            -0.000275740552    0.000239365409    -0.129838603782    0.077332676903    0.001047238070    -0.000328048530    -0.106630890558    0.091187735430
            -0.110450823465    0.098672010970    0.001101620093    -0.000284906163    -0.137997867618    0.092293895220    -0.000331044535    0.000259088370
            -0.000443744270    0.000467832221    -0.107093546944    0.090539197594    -0.000326688423    0.000241353099    -0.135426244838    0.083381459393
0.775     -0.026202018604    0.173654244038    0.000007793303    0.000173556294    -0.001357696101    0.163693869652    0.000106571313    0.000210548214
            0.000013122873    0.000180608970    -0.032323557920    0.176697457756    0.000527807083    -0.001053568195    -0.005376678002    0.167059780472
            -0.001399470150    0.162011785748    0.000576777380    -0.001093855918    -0.019904855285    0.170035393152    0.000009026694    0.000226005148
