# GHz S RI R 45
0.000     0.071286735000    0.000000000000    0.000001487053    -0.000000000000    0.004290400800    -0.000000000000    0.000002498490    0.000000000000
            0.000001485749    0.000000000000    0.070567886000    -0.000000000000    0.000001123459    0.000000000000    0.004793894800    -0.000000000000
            0.005216463000    -0.000000000000    0.000001122520    0.000000000000    0.072783797000    -0.000000000000    0.000002009441    0.000000000000
            0.000002493275    -0.000000000000    0.005640071800    0.000000000000    0.000002011536    0.000000000000    0.071485629000    -0.000000000000
0.025     0.136880264671    0.014128108119    0.000012648106    0.000002562326    0.071206199087    0.040600095765    0.000019345280    0.000004615730
            0.000012644125    0.000002576336    0.136629150535    0.013832947585    0.000007992341    0.000000854570    0.070934889209    0.039650447857
            0.071107950481    0.039756359587    0.000007989133    0.000000847298    0.136575057323    0.013541100229    0.000014603129    0.000002965416
            0.000019341289    0.000004608947    0.071631844047    0.039270182988    0.000014612682    0.000002957627    0.136861470460    0.014295266478
0.050     0.119595274029    -0.076946787568    -0.000008979283    0.000000422263    0.075986432237    -0.032685309766    -0.000013291012    0.000002283804
            -0.000008946855    0.000000458141    0.118738300273    -0.077350163853    -0.000006340314    -0.000000503299    0.074597176783    -0.032771392367
            0.075071466000    -0.032518947344    -0.000006371378    -0.000000511993    0.118675524534    -0.077157269832    -0.000010219435    0.000000826486
            -0.000013317442    0.000002280918    0.075020823321    -0.033534249417    -0.000010227620    0.000000791146    0.119227485248    -0.078128231964
0.075     0.030667297216    -0.030515298743    0.000002761084    0.000053879406    0.022299617331    0.021064775775    0.000003392294    0.000083139396
            0.000002807092    0.000053851556    0.030722117672    -0.030516300042    0.000002908207    0.000033745726    0.022573854549    0.020880115525
            0.022339735917    0.021187280981    0.000002889334    0.000033778266    0.030317672621    -0.030032305720    0.000003213995    0.000062214607
            0.000003374773    0.000083170327    0.022552074130    0.020474935524    0.000003176903    0.000062220400    0.028575403105    -0.031210972558
0.100     0.112985266455    0.034957007416    0.000069192657    0.000022928493    0.108666672865    0.071176153604    0.000103950797    0.000041340825
            0.000069165639    0.000022862416    0.112912538120    0.032810230380    0.000044266635    0.000008664785    0.109700677711    0.068840190372
            0.109419717102    0.070713520175    0.000044250915    0.000008677493    0.113304673227    0.034592311476    0.000079645269    0.000027551548
            0.000103934734    0.000041339895    0.109290815397    0.068124685960    0.000079693899    0.000027622528    0.112319445464    0.033447370379
0.125     0.158143222858    -0.073931123134    0.000022319223    -0.000027320092    0.154372644977    -0.054467372187    0.000036507968    -0.000036512579
            0.000022322836    -0.000027292621    0.155247993574    -0.075839899672    0.000009474052    -0.000020055597    0.151538510572    -0.057461647408
            0.153744348065    -0.055210724436    0.000009438307    -0.000020054848    0.157292865914    -0.074820105918    0.000026383183    -0.000030815844
            0.000036460554    -0.000036499867    0.150803287955    -0.057947097963    0.000026429684    -0.000030860206    0.155356197997    -0.075921721266
0.150     0.045716765428    -0.107136400940    -0.000018235440    0.000050314696    0.030597820961    -0.085108781326    -0.000024051589    0.000079937987
            -0.000018131997    0.000050251610    0.043613839562    -0.106662471896    -0.000014134139    0.000032261479    0.027803836952    -0.084426917750
            0.029751849438    -0.084335540048    -0.000014173936    0.000032415989    0.044332040649    -0.106464249911    -0.000019721172    0.000058771243
            -0.000024060794    0.000080085849    0.026844462671    -0.084415758561    -0.000019810884    0.000058695157    0.042826629740    -0.106729206810
0.175     0.067202875675    -0.020647358940    0.000106512266    0.000065678040    0.066962199699    0.015371457870    0.000159192468    0.000106824938
            0.000106479878    0.000065481873    0.065594942787    -0.023399231937    0.000069594760    0.000034947702    0.066246506256    0.013031867457
            0.067493271317    0.016072147059    0.000069725389    0.000034984811    0.066833030449    -0.021095942933    0.000123104143    0.000076415479
            0.000159313642    0.000106838851    0.065551018338    0.012878516246    0.000123020594    0.000076588555    0.065280134723    -0.023716208153
0.200     0.166676408567    -0.072971221459    0.000083938708    -0.000065980480    0.183304919427    -0.056407323921    0.000136320598    -0.000088905230
            0.000083766174    -0.000065896798    0.160339933072    -0.076408726936    0.000040547016    -0.000049657253    0.178350770340    -0.061573102947
            0.183878723182    -0.057162040866    0.000040539757    -0.000049736743    0.167125623259    -0.074056573970    0.000099030195    -0.000075007224
            0.000136287795    -0.000088984667    0.178011081230    -0.060948412231    0.000099219687    -0.000075016399    0.160927961149    -0.076531109816
0.225     0.077396094076    -0.182491875588    -0.000020146767    -0.000020468366    0.075223954495    -0.187574460361    -0.000023784709    -0.000025157490
            -0.000020100528    -0.000020417319    0.069584886637    -0.181135096233    -0.000020662965    -0.000009957688    0.066031201821    -0.187835077670
            0.074396237673    -0.187922152065    -0.000020728372    -0.000009908815    0.075878515812    -0.182806415354    -0.000022086790    -0.000022690528
            -0.000023841129    -0.000025073515    0.065815745018    -0.187065522613    -0.000022082844    -0.000022813591    0.069177014095    -0.181057607643
0.250     -0.028587761519    -0.102137433461    0.000060638113    0.000101083374    -0.050354952749    -0.092953919269    0.000099988745    0.000153381687
            0.000060564231    0.000100972692    -0.033076328061    -0.101013834953    0.000035606000    0.000065997158    -0.055745168573    -0.090413609268
            -0.050592741258    -0.091809637121    0.000035863382    0.000066157203    -0.028523821216    -0.100097713183    0.000074258729    0.000116188168
            0.000100265676    0.000153495076    -0.055446207608    -0.089364934343    0.000074097769    0.000116179872    -0.032116553390    -0.099499537296
0.275     0.063439105315    -0.064524134049    0.000176235028    -0.000055266157    0.055579990380    -0.046666303663    0.000269811071    -0.000073542292
            0.000176021538    -0.000055165950    0.052585380351    -0.065314556993    0.000102968126    -0.000045192161    0.046739899724    -0.047048462725
            0.056028232110    -0.046610539341    0.000103055719    -0.000045457779    0.069263800629    -0.062540135265    0.000204893107    -0.000066051978
            0.000269860342    -0.000073787767    0.047155713748    -0.046768858078    0.000205009321    -0.000065927038    0.057792615176    -0.064646355168
0.300     0.079707994543    -0.187260961793    0.000001163895    -0.000114385429    0.068297831953    -0.168293844001    0.000015856470    -0.000169443526
            0.000001281024    -0.000114122991    0.067373122083    -0.182350469302    -0.000017713508    -0.000063993708    0.056865431504    -0.165485772720
            0.068558910016    -0.169479939368    -0.000017971257    -0.000064011327    0.079158202721    -0.190015060046    0.000002783879    -0.000132658923
            0.000015586459    -0.000169447628    0.057750499493    -0.165699604534    0.000002912082    -0.000132853458    0.067196460961    -0.185025703323
0.325     -0.076879860460    -0.193431967905    -0.000011053668    0.000042058465    -0.090769903620    -0.166908142522    -0.000006742569    0.000065982051
            -0.000010924847    0.000042008967    -0.086396524409    -0.184867116411    -0.000009789499    0.000034717974    -0.101281234533    -0.158574404573
            -0.091693807413    -0.167102334706    -0.000009800861    0.000034837818    -0.078699517376    -0.192648488680    -0.000009384924    0.000050255098
            -0.000006731463    0.000066126008    -0.100745708944    -0.158853506340    -0.000009485022    0.000050178377    -0.087161463346    -0.184194348070
0.350     -0.101416550743    -0.049623264649    0.000185488798    0.000037379928    -0.109805673088    -0.020579943466    0.000284667582    0.000049218418
            0.000185400773    0.000037450797    -0.110963698096    -0.041880185248    0.000114059461    0.000026622041    -0.117865711448    -0.011437194326
            -0.109677502179    -0.019667447049    0.000114300480    0.000026473733    -0.098628480714    -0.048261042149    0.000219975060    0.000036462454
            0.000284902148    0.000049043360    -0.117138926993    -0.011808838171    0.000219861106    0.000036511799    -0.107139498979    -0.041720102388
0.375     -0.006510876888    -0.071774207396    0.000110416405    -0.000203573088    -0.010386942420    -0.048973888240    0.000172223669    -0.000297926289
            0.000110525033    -0.000203332086    -0.017412549789    -0.057410285154    0.000052635668    -0.000126670016    -0.019147612347    -0.036423286585
            -0.009779596741    -0.049562434203    0.000052237332    -0.000126914290    -0.005020762409    -0.074558135553    0.000124412686    -0.000238296595
            0.000171817586    -0.000298138183    -0.018840003827    -0.037269548657    0.000124610880    -0.000238300349    -0.015251946772    -0.061693373926
0.400     -0.064466869392    -0.172499180064    -0.000076541784    -0.000066863881    -0.064386247513    -0.110571510346    -0.000104660242    -0.000104890839
            -0.000076197634    -0.000066988610    -0.071600028948    -0.158479938766    -0.000052801239    -0.000020148642    -0.069468040906    -0.099050651730
            -0.064861704098    -0.111853387962    -0.000053007999    -0.000019775529    -0.068424526305    -0.175132237354    -0.000087100675    -0.000075372372
            -0.000104874957    -0.000104506702    -0.070016930525    -0.100273013752    -0.000087166458    -0.000075552514    -0.076022888476    -0.160999850800
0.425     -0.183525946988    -0.070400025587    0.000093695198    0.000050339526    -0.139898534688    -0.020824559464    0.000144799820    0.000072127729
            0.000093675288    0.000050075233    -0.191134547851    -0.054246969359    0.000064700756    0.000036922315    -0.145939853379    -0.007312708961
            -0.141132009321    -0.020649715166    0.000064753210    0.000037052372    -0.184389781079    -0.067643383022    0.000115724639    0.000055749454
            0.000144890230    0.000072273913    -0.146888216190    -0.007711684411    0.000115681325    0.000055814887    -0.190844686060    -0.051568074352
0.450     -0.101471703486    0.055205126494    0.000213499981    -0.000165958716    -0.067189673100    0.061945263532    0.000314082905    -0.000252415538
            0.000213481400    -0.000165910044    -0.105719847489    0.076507290421    0.000130738277    -0.000101849933    -0.070257478985    0.080357110117
            -0.067116300517    0.062925582193    0.000130767702    -0.000101855851    -0.097295468371    0.053519068586    0.000243915034    -0.000204827751
            0.000314132051    -0.000252448410    -0.070864944569    0.080311641942    0.000243856061    -0.000204870349    -0.100865332081    0.072833489184
0.475     -0.032640363838    -0.027029124585    -0.000073313960    -0.000255772870    -0.027785847791    -0.000467952612    -0.000102631111    -0.000377921987
            -0.000073111316    -0.000255857586    -0.028321358842    -0.007469358646    -0.000056304947    -0.000142875469    -0.022529767814    0.016088061102
            -0.027664990113    -0.001000702979    -0.000056583407    -0.000142600386    -0.034175585359    -0.030936093444    -0.000091501837    -0.000291403896
            -0.000102908873    -0.000377653159    -0.023209484988    0.015965391375    -0.000091481017    -0.000291497247    -0.030598221913    -0.012693823852
0.500     -0.120233924432    -0.059187059462    -0.000058910123    0.000009816629    -0.071889012335    -0.006674155925    -0.000090243364    0.000007104066
            -0.000059038278    0.000009382224    -0.122600346458    -0.046108084380    -0.000019725738    0.000022380639    -0.072070069387    0.001461418486
            -0.072663481224    -0.007412024249    -0.000019460312    0.000022734094    -0.125188569540    -0.057369674189    -0.000060411750    0.000012635968
            -0.000090000532    0.000007453842    -0.073248695718    0.001960148870    -0.000060437165    0.000012723230    -0.127508061264    -0.043074830442
0.525     -0.131483718798    0.066156796519    0.000172967881    -0.000112083811    -0.053296846840    0.056785280591    0.000251065708    -0.000162032078
            0.000172485227    -0.000112139519    -0.133849623780    0.090328128470    0.000114950692    -0.000079361718    -0.057098804147    0.073889799215
            -0.054365458952    0.057605372228    0.000115149748    -0.000079260624    -0.128551242690    0.068726812052    0.000202951764    -0.000141578073
            0.000251262730    -0.000161941832    -0.057588552095    0.075182820357    0.000203193762    -0.000141636497    -0.128799821422    0.091795286657
0.550     -0.012246460731    0.078140188061    -0.000018225289    -0.000366025020    0.004816029752    0.036381464167    -0.000025857856    -0.000534477208
            -0.000018292407    -0.000365749993    -0.000098211521    0.101433122454    -0.000025571060    -0.000225279895    0.012655234962    0.056519143129
            0.005357662282    0.037705365463    -0.000025165322    -0.000225274736    -0.010312788369    0.073101638268    -0.000035461966    -0.000425271273
            -0.000025464059    -0.000534474289    0.013095244504    0.057579631822    -0.000035755007    -0.000425504943    0.001254619559    0.093336324132
0.575     -0.024455111166    -0.007343161491    -0.000247897962    -0.000110214547    -0.023809397169    0.009214027681    -0.000366281232    -0.000171947775
            -0.000247831130    -0.000110419281    -0.015632161252    0.000991759181    -0.000144597987    -0.000041205264    -0.015023979854    0.016572436714
            -0.023018776345    0.009352188416    -0.000144323029    -0.000041310234    -0.029235087041    -0.008550560612    -0.000281204925    -0.000117706754
            -0.000366006362    -0.000172073652    -0.014676367440    0.016976451108    -0.000281470434    -0.000117369789    -0.022071815655    -0.000343152165
0.600     -0.077120024181    0.022930458752    0.000029580040    -0.000014815773    -0.032704937471    0.031876164113    0.000025996689    -0.000016153059
            0.000029043610    -0.000014732268    -0.081606276862    0.041325697853    0.000043992102    -0.000019978937    -0.037190379107    0.044469304420
            -0.033121846327    0.031155339419    0.000044114457    -0.000020262877    -0.076203344110    0.026300268107    0.000042107358    -0.000028487306
            0.000026054152    -0.000016410442    -0.036639758135    0.045047690207    0.000042575516    -0.000028392713    -0.078973589030    0.044999442505
0.625     -0.024341070404    0.051099532023    -0.000025632507    -0.000343607015    0.002444859516    0.010862573307    -0.000030542529    -0.000488230609
            -0.000025725001    -0.000342810153    -0.014346962862    0.079893310288    -0.000037667927    -0.000230961615    0.006459570041    0.034946344533
            0.001846013757    0.011750135231    -0.000037635930    -0.000231091291    -0.020796166998    0.047583792773    -0.000042306544    -0.000405504157
            -0.000030502811    -0.000488259243    0.007568462570    0.035296032310    -0.000042288285    -0.000406205719    -0.010075702632    0.072622028644
0.650     -0.025605577352    -0.003481142982    -0.000405503371    -0.000175627407    -0.046178021017    -0.021659392163    -0.000583247629    -0.000278073027
            -0.000404849492    -0.000175505512    -0.009036087129    0.009802555799    -0.000267630335    -0.000067278868    -0.033739037944    -0.006577749934
            -0.044885984701    -0.020723877935    -0.000267497316    -0.000067735862    -0.028920070929    -0.006908623126    -0.000468055325    -0.000192184345
            -0.000582988522    -0.000278529282    -0.032554772384    -0.007064817752    -0.000468860215    -0.000191902810    -0.015813181392    0.004313727023
0.675     -0.070293309118    0.025509282843    -0.000163663870    0.000135865989    -0.072540946641    0.043423304475    -0.000275748367    0.000189667573
            -0.000163742476    0.000135648023    -0.068026403453    0.040248909842    -0.000056253799    0.000097136690    -0.068430135645    0.057617666781
            -0.071257633482    0.042238563402    -0.000056599401    0.000096622279    -0.070099013616    0.027502769402    -0.000178624469    0.000147105120
            -0.000276124577    0.000189049597    -0.067853472007    0.056608700853    -0.000178216665    0.000147799345    -0.068799033307    0.043407866034
0.700     -0.025628691982    0.043866316827    0.000003123551    -0.000178860108    -0.009107983887    0.049037194447    -0.000006729873    -0.000231839893
            0.000003129693    -0.000178311956    -0.016508453105    0.072574101745    0.000000918323    -0.000147728726    -0.001093576295    0.072663836413
            -0.009997155460    0.047802166647    0.000000019035    -0.000147742159    -0.021665543554    0.039128553756    -0.000009042720    -0.000222556868
            -0.000007671454    -0.000231771515    -0.001072146442    0.071675231653    -0.000008329668    -0.000223125143    -0.011703043004    0.065604472234
0.725     -0.057007872736    -0.023146908801    -0.000449407762    -0.000177966964    -0.058670412010    -0.011537168926    -0.000635979015    -0.000278270208
            -0.000448473503    -0.000178146762    -0.036320557851    -0.002290982780    -0.000319778949    -0.000070650205    -0.040641346028    0.008600744847
            -0.058987818388    -0.010910320726    -0.000319799693    -0.000070007903    -0.062032403128    -0.029367525126    -0.000528071749    -0.000195457974
            -0.000635905907    -0.000277649976    -0.041064562803    0.007867955213    -0.000528937663    -0.000195757171    -0.045088138338    -0.011293146042
0.750     -0.145596322064    0.056957142638    -0.000296230615    0.000286887734    -0.123233919223    0.071983036291    -0.000491005524    0.000392463884
            -0.000296315842    0.000286059745    -0.129838603782    0.077332676903    -0.000121794367    0.000222240909    -0.106630890558    0.091187735430
            -0.122033811560    0.072157860076    -0.000121746550    0.000222018206    -0.148297365050    0.061194538988    -0.000336058177    0.000324809063
            -0.000490930040    0.000392095970    -0.107093546944    0.090539197594    -0.000336053961    0.000325837097    -0.135426244838    0.083381459393
0.775     -0.055863305135    0.153435506854    0.000056959544    0.000091247500    -0.028738573472    0.149417619092    0.000044344939    0.000177642647
            0.000056683385    0.000091302943    -0.032323557920    0.176697457756    0.000073756814    0.000014656045    -0.005376678002    0.167059780472
            -0.028492442537    0.147750828955    0.000073188007    0.000014545422    -0.049505138098    0.151165824197    0.000058992611    0.000089784516
