# GHz S RI R 45
0.000     0.075225628000    0.000000000000    -0.000032732090    0.000000000000    0.003557179300    -0.000000000000    -0.000012327969    -0.000000000000
            -0.000039466247    -0.000000000000    0.070567886000    -0.000000000000    -0.000017294424    0.000000000000    0.004793894800    -0.000000000000
            0.004627518100    0.000000000000    0.000010941978    -0.000000000000    0.073089660000    -0.000000000000    -0.000003338568    -0.000000000000
            0.000001503236    -0.000000000000    0.005640071800    0.000000000000    0.000003440679    -0.000000000000    0.071485629000    -0.000000000000
0.025     0.137824237463    0.012918178883    -0.000002389223    0.000030088473    0.071684128217    0.039539031928    0.000008875534    0.000017327211
            -0.000005488556    0.000036085951    0.136629150535    0.013832947585    -0.000000529000    0.000018869108    0.070934889209    0.039650447857
            0.072551879535    0.039056484441    0.000015767133    -0.000008861793    0.137632439491    0.013341380505    0.000009451843    0.000007972734
            0.000018187312    0.000002153232    0.071631844047    0.039270182988    0.000013602774    0.000002379499    0.136861470460    0.014295266478
0.050     0.116971832174    -0.077966408458    0.000031383194    0.000016092755    0.073416309069    -0.033244369088    0.000036514679    -0.000003356634
            0.000035392801    0.000021578195    0.118738300273    -0.077350163853    0.000026841657    0.000007862355    0.074597176783    -0.032771392367
            0.073926903729    -0.034184377873    0.000003430232    -0.000018257405    0.117227092980    -0.078605339778    0.000024790694    -0.000007801050
            0.000020335500    -0.000017348238    0.075020823321    -0.033534249417    0.000022535671    -0.000014667971    0.119227485248    -0.078128231964
0.075     0.031010765522    -0.026448500584    0.000034112503    -0.000036483338    0.022990013990    0.023929275666    0.000013152785    -0.000059190255
            0.000040456915    -0.000037828562    0.030722117672    -0.030516300042    0.000017234406    -0.000036353620    0.022573854549    0.020880115525
            0.022966637037    0.023426640932    -0.000009914853    -0.000023758970    0.028808695512    -0.027348353053    0.000002637690    -0.000044886817
            -0.000000618588    -0.000046814256    0.022552074130    0.020474935524    -0.000004620538    -0.000046901698    0.028575403105    -0.031210972558
0.100     0.117889057679    0.031808897950    -0.000029773378    -0.000046588576    0.114333054846    0.067709128512    -0.000059777121    -0.000035763400
            -0.000028042957    -0.000052069949    0.112912538120    0.032810230380    -0.000031805125    -0.000026104291    0.109700677711    0.068840190372
            0.113835888154    0.066820693878    -0.000036573473    -0.000002937030    0.116737910202    0.032165769360    -0.000047736696    -0.000019337661
            -0.000057919331    -0.000023158106    0.109290815397    0.068124685960    -0.000053428527    -0.000014197671    0.112319445464    0.033447370379
0.125     0.152823782489    -0.080149873018    -0.000055146867    -0.000001480027    0.149518734919    -0.061976464155    -0.000066720465    0.000023387453
            -0.000058803068    -0.000005984891    0.155247993574    -0.075839899672    -0.000040119128    0.000004738458    0.151538510572    -0.057461647408
            0.148599110588    -0.062566769728    -0.000021139051    0.000027256602    0.152587989815    -0.080001001465    -0.000045228770    0.000021982419
            -0.000053073710    0.000034620641    0.150803287955    -0.057947097963    -0.000044205129    0.000029717741    0.155356197997    -0.075921721266
0.150     0.039382336730    -0.101420634764    -0.000046352993    0.000060866523    0.023731805337    -0.080186211272    -0.000035760422    0.000098029489
            -0.000052335402    0.000062395160    0.043613839562    -0.106662471896    -0.000032985735    0.000057850136    0.027803836952    -0.084426917750
            0.022567558141    -0.080140303032    0.000000850124    0.000043160535    0.038759877916    -0.101804046172    -0.000021109867    0.000073998274
            -0.000014313462    0.000082530617    0.026844462671    -0.084415758561    -0.000013716812    0.000077702290    0.042826629740    -0.106729206810
0.175     0.071748326995    -0.021483098697    0.000052279823    0.000074954151    0.072099600166    0.013973079037    0.000103974168    0.000079870382
            0.000051667970    0.000080223400    0.065594942787    -0.023399231937    0.000063262641    0.000053001782    0.066246506256    0.013031867457
            0.071240130078    0.013799408608    0.000054954960    0.000020782511    0.070409644075    -0.022697812669    0.000083143311    0.000051353509
            0.000089584445    0.000055987569    0.065551018338    0.012878516246    0.000090395949    0.000046190970    0.065280134723    -0.023716208153
0.200     0.158920907710    -0.084749737744    0.000079772610    -0.000016408176    0.176576914640    -0.071054621044    0.000101512238    -0.000060636274
            0.000082883744    -0.000013522116    0.160339933072    -0.076408726936    0.000055908603    -0.000036801982    0.178350770340    -0.061573102947
            0.176166443053    -0.070294350838    0.000034012050    -0.000041961343    0.158288969084    -0.084450540134    0.000066663925    -0.000052333897
            0.000081492275    -0.000055898529    0.178011081230    -0.060948412231    0.000065399570    -0.000060455354    0.160927961149    -0.076531109816
0.225     0.058816320631    -0.179335558247    0.000049151532    -0.000068152744    0.053888293126    -0.187165763471    0.000033228246    -0.000106982198
            0.000053757372    -0.000068693180    0.069584886637    -0.181135096233    0.000023251186    -0.000053677038    0.066031201821    -0.187835077670
            0.053672709520    -0.186212718144    0.000001523759    -0.000043180966    0.058465558047    -0.178965640895    0.000019542508    -0.000074495735
            0.000022350255    -0.000092089857    0.065815745018    -0.187065522613    0.000012931720    -0.000077819050    0.069177014095    -0.181057607643
0.250     -0.032013737078    -0.090642145411    -0.000044124208    -0.000115671562    -0.056303572081    -0.079791746503    -0.000093675098    -0.000137319727
            -0.000042508142    -0.000120887516    -0.033076328061    -0.101013834953    -0.000048055953    -0.000090435156    -0.055745168573    -0.090413609268
            -0.055863221722    -0.078594144955    -0.000047649425    -0.000055092114    -0.031812156025    -0.090425773639    -0.000072333421    -0.000100637883
            -0.000084173076    -0.000110266498    -0.055446207608    -0.089364934343    -0.000079044348    -0.000097883560    -0.032116553390    -0.099499537296
0.275     0.054755673192    -0.069715405083    -0.000132129781    0.000012566099    0.047959919338    -0.051060104829    -0.000182866397    0.000061012499
            -0.000136147169    0.000009944773    0.052585380351    -0.065314556993    -0.000113753353    0.000040895202    0.046739899724    -0.047048462725
            0.048441653478    -0.050764959928    -0.000075167132    0.000044521565    0.057421596607    -0.069007648489    -0.000133189191    0.000057697859
            -0.000147626896    0.000054859691    0.047155713748    -0.046768858078    -0.000134369924    0.000066082810    0.057792615176    -0.064646355168
0.300     0.053538530767    -0.184057667577    -0.000040974642    0.000096921695    0.043044565676    -0.166768977333    -0.000014258591    0.000159773485
            -0.000044139234    0.000098449400    0.067373122083    -0.182350469302    0.000004213294    0.000090627600    0.056865431504    -0.165485772720
            0.044038220488    -0.167022729118    0.000012834869    0.000062253379    0.052536359941    -0.184946789795    0.000004392189    0.000112915559
            -0.000013083737    0.000126318217    0.057750499493    -0.165699604534    0.000011363334    0.000116941353    0.067196460961    -0.185025703323
0.325     -0.096498047801    -0.169596938926    0.000027625554    0.000111145706    -0.111088775478    -0.142827569931    0.000084964332    0.000122707167
            0.000026397585    0.000114298580    -0.086396524409    -0.184867116411    0.000039864757    0.000061769393    -0.101281234533    -0.158574404573
            -0.110432768469    -0.143181338002    0.000028534326    0.000045360747    -0.097333255038    -0.169143910291    0.000057574543    0.000081007889
            0.000062916096    0.000109851894    -0.100745708944    -0.158853506340    0.000062978209    0.000078198861    -0.087161463346    -0.184194348070
0.350     -0.104888035834    -0.029707155202    0.000162446184    0.000052744234    -0.111342864070    0.001171794605    0.000214266177    0.000016963120
            0.000164972513    0.000056230033    -0.110963698096    -0.041880185248    0.000124810251    0.000021347947    -0.117865711448    -0.011437194326
            -0.110547532632    0.000605341787    0.000100447095    0.000013360034    -0.103891403057    -0.029928715228    0.000158425849    0.000015613238
            0.000188991804    0.000022152437    -0.117138926993    -0.011808838171    0.000160393341    0.000010668569    -0.107139498979    -0.041720102388
0.375     -0.020141235207    -0.055729213264    0.000099939931    -0.000151639579    -0.021815866567    -0.034170646853    0.000093644141    -0.000230650057
            0.000104220713    -0.000153323005    -0.017412549789    -0.057410285154    0.000053193061    -0.000143971065    -0.019147612347    -0.036423286585
            -0.021598908413    -0.035127809125    0.000031798030    -0.000112756702    -0.020231623977    -0.057006876052    0.000062677566    -0.000177770195
            0.000082551134    -0.000194914848    -0.018840003827    -0.037269548657    0.000059423308    -0.000184036383    -0.015251946772    -0.061693373926
0.400     -0.084428911461    -0.145598723648    -0.000067768621    -0.000125099457    -0.077282505727    -0.086322948251    -0.000147495235    -0.000150249263
            -0.000068093829    -0.000128823229    -0.071600028948    -0.158479938766    -0.000095657028    -0.000073101253    -0.069468040906    -0.099050651730
            -0.078011831760    -0.087558529743    -0.000065890826    -0.000047394618    -0.088118564675    -0.145834063859    -0.000115475561    -0.000097270457
            -0.000110191502    -0.000128397592    -0.070016930525    -0.100273013752    -0.000123138034    -0.000096330219    -0.076022888476    -0.160999850800
0.425     -0.188833426914    -0.029472477277    -0.000140055570    -0.000065502345    -0.140064386594    0.011810896148    -0.000194528701    -0.000013831379
            -0.000142359866    -0.000066880944    -0.191134547851    -0.054246969359    -0.000097921213    -0.000005550236    -0.145939853379    -0.007312708961
            -0.141110768612    0.011456130789    -0.000072868520    -0.000022779308    -0.189447019508    -0.026809267491    -0.000132128989    -0.000009282347
            -0.000166020716    -0.000040282959    -0.146888216190    -0.007711684411    -0.000134198286    -0.000003491183    -0.190844686060    -0.051568074352
0.450     -0.089525964051    0.087423073861    -0.000189360911    0.000123898637    -0.056362273687    0.087285197324    -0.000183195608    0.000195636676
            -0.000192195015    0.000124473949    -0.105719847489    0.076507290421    -0.000111534806    0.000106951793    -0.070257478985    0.080357110117
            -0.057087999640    0.087267894399    -0.000109851558    0.000086059663    -0.087658000904    0.086373904176    -0.000140162672    0.000140392470
            -0.000190032741    0.000165572277    -0.070864944569    0.080311641942    -0.000138377193    0.000144803967    -0.100865332081    0.072833489184
0.475     -0.026763354856    -0.004676503169    0.000070843560    0.000233681671    -0.019391869368    0.019771796830    0.000141848964    0.000275298567
            0.000070211791    0.000237440062    -0.028321358842    -0.007469358646    0.000091200282    0.000163561622    -0.022529767814    0.016088061102
            -0.020142598622    0.019815953198    0.000074551821    0.000141063196    -0.028242506546    -0.005466607300    0.000110456130    0.000207568055
            0.000113950570    0.000258350747    -0.023209484988    0.015965391375    0.000115978134    0.000210393171    -0.030598221913    -0.012693823852
0.500     -0.125578280438    -0.027732415516    0.000197651508    0.000037978401    -0.068972830046    0.012954269794    0.000273082387    -0.000010476416
            0.000201080820    0.000039276950    -0.122600346458    -0.046108084380    0.000156149978    -0.000022732606    -0.072070069387    0.001461418486
            -0.070086638347    0.013732655337    0.000119304049    -0.000009319832    -0.128551860623    -0.023508923527    0.000201303386    -0.000016470689
            0.000236771774    0.000012165817    -0.073248695718    0.001960148870    0.000207312936    -0.000021208234    -0.127508061264    -0.043074830442
0.525     -0.115043833394    0.108605287611    0.000186632619    -0.000111090913    -0.043255347388    0.080879184713    0.000180318711    -0.000197639100
            0.000188504465    -0.000113101214    -0.133849623780    0.090328128470    0.000095608386    -0.000112150710    -0.057098804147    0.073889799215
            -0.043513943449    0.082287731362    0.000101675762    -0.000072799962    -0.111341028737    0.111297080699    0.000131142111    -0.000144533570
            0.000192063359    -0.000152940026    -0.057588552095    0.075182820357    0.000129665468    -0.000151331432    -0.128799821422    0.091795286657
0.550     0.016870659774    0.095458129619    -0.000006566900    -0.000294612961    0.020703131930    0.051483292607    -0.000080271043    -0.000335569770
            -0.000006872154    -0.000296948151    -0.000098211521    0.101433122454    -0.000052084473    -0.000197844429    0.012655234962    0.056519143129
            0.021319536568    0.052512873686    -0.000020027331    -0.000192434952    0.018043689752    0.092215305143    -0.000060611835    -0.000254116699
            -0.000039042616    -0.000331991956    0.013095244504    0.057579631822    -0.000066069363    -0.000256910628    0.001254619559    0.093336324132
0.575     -0.020691377255    0.002127997457    -0.000287457028    -0.000096015670    -0.016109119932    0.019259842003    -0.000364758989    -0.000056361227
            -0.000290242179    -0.000097034653    -0.015632161252    0.000991759181    -0.000220043286    -0.000017494390    -0.015023979854    0.016572436714
            -0.015655718344    0.019638257448    -0.000199382012    -0.000035461566    -0.023353988288    0.003570158421    -0.000277664416    -0.000037901458
            -0.000343067572    -0.000083900823    -0.014676367440    0.016976451108    -0.000284199984    -0.000035281417    -0.022071815655    -0.000343152165
0.600     -0.074565933378    0.058348807943    -0.000207580169    0.000170846013    -0.030097228543    0.052814689181    -0.000214882258    0.000261914200
            -0.000209238838    0.000173471557    -0.081606276862    0.041325697853    -0.000110819125    0.000161861915    -0.037190379107    0.044469304420
            -0.029330769694    0.053259075105    -0.000114130214    0.000128055540    -0.070821917317    0.061823723533    -0.000159341231    0.000200105449
            -0.000224771395    0.000224483474    -0.036639758135    0.045047690207    -0.000160276282    0.000208099251    -0.078973589030    0.044999442505
0.625     0.000289009277    0.077090369259    0.000008809251    0.000312654912    0.010953125259    0.030668377353    0.000086572138    0.000366353577
            0.000010547788    0.000314560266    -0.014346962862    0.079893310288    0.000066357701    0.000215519742    0.006459570041    0.034946344533
            0.012149450350    0.030705777847    0.000027650316    0.000206752377    0.004034702215    0.073258983511    0.000071172879    0.000282380528
            0.000042853829    0.000359858333    0.007568462570    0.035296032310    0.000077724348    0.000286869815    -0.010075702632    0.072622028644
0.650     -0.019614208527    0.008568931246    0.000329078224    0.000126817303    -0.044673421519    -0.000266262323    0.000413184114    0.000086136173
            0.000331166366    0.000126501261    -0.009036087129    0.009802555799    0.000257255809    0.000022477760    -0.033739037944    -0.006577749934
            -0.043628383562    -0.001038681491    0.000238929938    0.000053659579    -0.022077890109    0.007088528551    0.000322733779    0.000053744727
            0.000393293738    0.000122293419    -0.032554772384    -0.007064817752    0.000329781707    0.000050669084    -0.015813181392    0.004313727023
0.675     -0.067566665938    0.062790886211    0.000234004101    -0.000203271212    -0.062099486941    0.077903253371    0.000246675223    -0.000293680527
            0.000235088910    -0.000205863163    -0.068026403453    0.040248909842    0.000117547977    -0.000189497402    -0.068430135645    0.057617666781
            -0.061756137610    0.076737590475    0.000130374720    -0.000161222356    -0.064647896310    0.064773215934    0.000178615152    -0.000229908596
            0.000262862300    -0.000262256710    -0.067853472007    0.056608700853    0.000179784783    -0.000237655479    -0.068799033307    0.043407866034
0.700     -0.001313520175    0.076024079552    -0.000000242351    -0.000328670681    0.012075903642    0.072331877898    -0.000074399105    -0.000394296460
            -0.000003287526    -0.000330526501    -0.016508453105    0.072574101745    -0.000063973890    -0.000227511897    -0.001093576295    0.072663836413
            0.011803778468    0.071289440587    -0.000026539820    -0.000220405644    0.002663542082    0.070034055255    -0.000063993286    -0.000305269473
            -0.000034631836    -0.000387720205    -0.001072146442    0.071675231653    -0.000070307697    -0.000310006904    -0.011703043004    0.065604472234
0.725     -0.052470283593    0.002603321439    -0.000369714471    -0.000154754321    -0.052554868215    0.016896209822    -0.000466011644    -0.000112466337
            -0.000371283992    -0.000152033004    -0.036320557851    -0.002290982780    -0.000298661671    -0.000027672726    -0.040641346028    0.008600744847
            -0.053244787670    0.016311057380    -0.000279587496    -0.000067426301    -0.057597348218    -0.001510905421    -0.000372554534    -0.000067486956
            -0.000443977238    -0.000152449902    -0.041064562803    0.007867955213    -0.000378964983    -0.000064311456    -0.045088138338    -0.011293146042
0.750     -0.125408064983    0.119465937834    -0.000226895312    0.000252097961    -0.095155121901    0.125653809961    -0.000231497177    0.000342123343
            -0.000226049623    0.000253466249    -0.129838603782    0.077332676903    -0.000088003059    0.000230421873    -0.106630890558    0.091187735430
            -0.095789354937    0.125198489950    -0.000114604958    0.000207959736    -0.124252053466    0.124003735978    -0.000155007199    0.000273450784
            -0.000256880539    0.000314528293    -0.107093546944    0.090539197594    -0.000155711657    0.000279149174    -0.135426244838    0.083381459393
0.775     0.006517522063    0.191004625843    0.000012844565    0.000268290215    0.029657035398    0.171965776887    0.000070034418    0.000327312341
            0.000014668835    0.000269612841    -0.032323557920    0.176697457756    0.000063528621    0.000165571976    -0.005376678002    0.167059780472
            0.028672594883    0.171624882564    0.000039520804    0.000166442489    0.013307201059    0.185879945505    0.000057976798    0.000244203519
