# GHz S RI R 45
0.000     0.071656619000    0.000000000000    -0.000001691887    -0.000000000000    0.004790204100    -0.000000000000    -0.000026096278    0.000000000000
            -0.000001867151    0.000000000000    0.070567886000    -0.000000000000    -0.000019046597    0.000000000000    0.004793894800    -0.000000000000
            0.005859401500    0.000000000000    0.000030981337    -0.000000000000    0.072229209000    -0.000000000000    -0.000031628086    0.000000000000
            0.000030504465    -0.000000000000    0.005640071800    0.000000000000    -0.000029423066    0.000000000000    0.071485629000    -0.000000000000
0.025     0.137823663021    0.012916913678    -0.000030391603    -0.000010128107    0.071684081499    0.039539149755    -0.000030250279    0.000011442618
            -0.000030570902    -0.000009314482    0.136629150535    0.013832947585    -0.000017556304    0.000011112544    0.070934889209    0.039650447857
            0.072551914670    0.039056459258    -0.000008305342    -0.000030329619    0.137631718959    0.013341558464    -0.000017906741    0.000021011705
            -0.000016337914    -0.000033226693    0.071631844047    0.039270182988    -0.000016249313    0.000019625253    0.136861470460    0.014295266478
0.050     0.116971519995    -0.077966498181    -0.000020194742    0.000022601090    0.073416419625    -0.033244178271    0.000000170628    0.000017378977
            -0.000018234667    0.000023518228    0.118738300273    -0.077350163853    0.000004049177    0.000011611866    0.074597176783    -0.032771392367
            0.073926996124    -0.034184218563    -0.000022792999    0.000007542380    0.117227476487    -0.078604947396    0.000013720968    0.000005018713
            -0.000023768906    0.000008717274    0.075020823321    -0.033534249417    0.000014002232    0.000003014817    0.119227485248    -0.078128231964
0.075     0.031009823636    -0.026446509015    0.000006398880    -0.000007953627    0.022990550973    0.023929220152    -0.000005976192    -0.000031251359
            0.000008123491    -0.000010545024    0.030722117672    -0.030516300042    -0.000004299095    -0.000020040020    0.022573854549    0.020880115525
            0.022967189749    0.023426615816    0.000011320912    0.000002331449    0.028812191708    -0.027348449374    -0.000014288167    -0.000037427143
            0.000009870941    -0.000014909477    0.022552074130    0.020474935524    -0.000015218628    -0.000038785551    0.028575403105    -0.031210972558
0.100     0.117889896096    0.031811318303    -0.000037167593    -0.000013464130    0.114333507600    0.067708442490    -0.000061076303    0.000001423664
            -0.000039523584    -0.000015189034    0.112912538120    0.032810230380    -0.000039506086    0.000008078089    0.109700677711    0.068840190372
            0.113836328040    0.066820003745    -0.000007897341    -0.000023707290    0.116739768409    0.032161660293    -0.000055944945    0.000012819628
            -0.000032752950    -0.000034299080    0.109290815397    0.068124685960    -0.000056511791    0.000012454985    0.112319445464    0.033447370379
0.125     0.152824355434    -0.080154679812    -0.000019322831    0.000027994346    0.149518862756    -0.061976599709    -0.000002340188    0.000047456234
            -0.000020275453    0.000030148351    0.155247993574    -0.075839899672    0.000005877965    0.000035729864    0.151538510572    -0.057461647408
            0.148599237783    -0.062566905722    -0.000024284429    -0.000007943845    0.152591385300    -0.079991574151    0.000013945178    0.000040926020
            -0.000035358428    0.000001258211    0.150803287955    -0.057947097963    0.000013508307    0.000039614012    0.155356197997    -0.075921721266
0.150     0.039376922757    -0.101416858337    0.000022951609    -0.000014156001    0.023734143807    -0.080186608959    0.000040827465    -0.000041854294
            0.000026195768    -0.000014800567    0.043613839562    -0.106662471896    0.000032610897    -0.000030161153    0.027803836952    -0.084426917750
            0.022569897196    -0.080140701917    -0.000011361937    -0.000008285935    0.038773143532    -0.101806153358    0.000034850322    -0.000054376456
            -0.000008207511    -0.000023649191    0.026844462671    -0.084415758561    0.000032152380    -0.000055582591    0.042826629740    -0.106729206810
0.175     0.071750486179    -0.021475795554    -0.000046771640    -0.000043549710    0.072101663798    0.013970855888    -0.000081657123    -0.000060720187
            -0.000048002053    -0.000047540028    0.065594942787    -0.023399231937    -0.000059611366    -0.000037915604    0.066246506256    0.013031867457
            0.071242201839    0.013797205291    -0.000036450273    -0.000011467455    0.070415623958    -0.022709301449    -0.000088036329    -0.000049933155
            -0.000068896820    -0.000032166050    0.065551018338    0.012878516246    -0.000091090650    -0.000047494187    0.065280134723    -0.023716208153
0.200     0.158920880152    -0.084750788239    -0.000046915650    0.000031546539    0.176576543451    -0.071055972067    -0.000060167519    0.000062557057
            -0.000050871486    0.000032035497    0.160339933072    -0.076408726936    -0.000035594694    0.000053600824    0.178350770340    -0.061573102947
            0.176166064628    -0.070295703945    -0.000026496426    0.000019383740    0.158292025296    -0.084454562804    -0.000046749090    0.000068101138
            -0.000053792930    0.000037647050    0.178011081230    -0.060948412231    -0.000045851748    0.000071323562    0.160927961149    -0.076531109816
0.225     0.058809701145    -0.179330246544    0.000015486957    0.000004251370    0.053891027656    -0.187165309131    0.000043849927    0.000006267641
            0.000015806882    0.000007269580    0.069584886637    -0.181135096233    0.000040292791    0.000009282699    0.066031201821    -0.187835077670
            0.053675446916    -0.186212262142    -0.000009505554    -0.000000499764    0.058479256438    -0.178971296319    0.000050950157    -0.000001001866
            -0.000001894421    0.000001629195    0.065815745018    -0.187065522613    0.000052529754    -0.000000629137    0.069177014095    -0.181057607643
0.250     -0.032012236253    -0.090628325282    -0.000044211541    -0.000074243572    -0.056299135852    -0.079796013612    -0.000054792228    -0.000115323276
            -0.000042312057    -0.000075881389    -0.033076328061    -0.101013834953    -0.000032463414    -0.000083888302    -0.055745168573    -0.090413609268
            -0.055858783117    -0.078598416046    -0.000051944542    -0.000026166232    -0.031798828226    -0.090448194249    -0.000056838760    -0.000112385457
            -0.000073687254    -0.000057930423    -0.055446207608    -0.089364934343    -0.000057548384    -0.000112327201    -0.032116553390    -0.099499537296
0.275     0.054764092682    -0.069710662090    -0.000116591575    0.000032407349    0.047959168764    -0.051064131221    -0.000165614213    0.000046209412
            -0.000119681331    0.000031138029    0.052585380351    -0.065314556993    -0.000119241738    0.000041591888    0.046739899724    -0.047048462725
            0.048440893530    -0.050768987138    -0.000069797726    0.000059687047    0.057414700572    -0.069025729103    -0.000155426888    0.000053158638
            -0.000118049149    0.000071827281    0.047155713748    -0.046768858078    -0.000155157572    0.000057000706    0.057792615176    -0.064646355168
0.300     0.053536085480    -0.184053609031    -0.000004750406    0.000063347088    0.043047837037    -0.166768577026    0.000005350180    0.000102472556
            -0.000006970547    0.000066563145    0.067373122083    -0.182350469302    0.000014567736    0.000084716869    0.056865431504    -0.165485772720
            0.044041492632    -0.167022321370    0.000019498153    0.000049191154    0.052545741132    -0.184949800788    0.000015187791    0.000101726468
            0.000020182584    0.000073978380    0.057750499493    -0.165699604534    0.000020298602    0.000102899258    0.067196460961    -0.185025703323
0.325     -0.096495975818    -0.169579732082    -0.000015524222    -0.000038348970    -0.111081316597    -0.142834080420    0.000008737363    -0.000055437610
            -0.000013249970    -0.000035445405    -0.086396524409    -0.184867116411    0.000023764480    -0.000034788473    -0.101281234533    -0.158574404573
            -0.110425306783    -0.143187837804    -0.000013154781    -0.000024309418    -0.097312131353    -0.169172422884    0.000021215382    -0.000052522975
            -0.000015564252    -0.000050081899    -0.100745708944    -0.158853506340    0.000024379804    -0.000056116659    -0.087161463346    -0.184194348070
0.350     -0.104871668972    -0.029696173004    -0.000153056823    -0.000004450727    -0.111343339940    0.001161693303    -0.000188966692    -0.000029028848
            -0.000151227978    -0.000005877765    -0.110963698096    -0.041880185248    -0.000127199917    -0.000028629886    -0.117865711448    -0.011437194326
            -0.110548017525    0.000595233947    -0.000108690699    0.000022481066    -0.103901427294    -0.029965679875    -0.000167677523    -0.000032723914
            -0.000170040743    0.000010924638    -0.117138926993    -0.011808838171    -0.000168956673    -0.000036281507    -0.107139498979    -0.041720102388
0.375     -0.020135690813    -0.055727625035    -0.000064678746    0.000162268465    -0.021815577426    -0.034171982270    -0.000097204251    0.000205426309
            -0.000067066842    0.000163179279    -0.017412549789    -0.057410285154    -0.000067405157    0.000156026674    -0.019147612347    -0.036423286585
            -0.021598618904    -0.035129124639    -0.000008521552    0.000139875053    -0.020234596353    -0.057013104610    -0.000086682646    0.000189065786
            -0.000042582271    0.000189292697    -0.018840003827    -0.037269548657    -0.000087351363    0.000190175529    -0.015251946772    -0.061693373926
0.400     -0.084422312773    -0.145583245434    0.000054228884    0.000039812062    -0.077273100504    -0.086331421242    0.000087345038    0.000064763962
            0.000055783464    0.000042286490    -0.071600028948    -0.158479938766    0.000078636580    0.000052591967    -0.069468040906    -0.099050651730
            -0.078002396467    -0.087567015726    0.000069390063    0.000003808616    -0.088094118374    -0.145866986894    0.000090291105    0.000064784050
            0.000083734687    0.000014557613    -0.070016930525    -0.100273013752    0.000093206737    0.000062426478    -0.076022888476    -0.160999850800
0.425     -0.188810871791    -0.029462070670    -0.000089851863    -0.000018624485    -0.140065119716    0.011794216670    -0.000082748959    -0.000047599521
            -0.000086451298    -0.000019148284    -0.191134547851    -0.054246969359    -0.000041328554    -0.000039382778    -0.145939853379    -0.007312708961
            -0.141111511268    0.011439432571    -0.000074436585    -0.000029197609    -0.189459408777    -0.026865259290    -0.000052138397    -0.000048896472
            -0.000115306479    -0.000048474478    -0.146888216190    -0.007711684411    -0.000053828159    -0.000054247272    -0.190844686060    -0.051568074352
0.450     -0.089509888298    0.087420255890    -0.000143321496    0.000167790654    -0.056368038803    0.087279617322    -0.000183019807    0.000171100657
            -0.000142625354    0.000164929102    -0.105719847489    0.076507290421    -0.000128367210    0.000107939514    -0.070257478985    0.080357110117
            -0.057093778774    0.087262333014    -0.000105571570    0.000135750978    -0.087682573995    0.086355870630    -0.000156349996    0.000128591390
            -0.000173591777    0.000190401959    -0.070864944569    0.080311641942    -0.000162705175    0.000127107096    -0.100865332081    0.072833489184
0.475     -0.026755433573    -0.004668824828    0.000105109583    0.000194399642    -0.019383745667    0.019764569709    0.000102053204    0.000239272469
            0.000104312482    0.000194193152    -0.028321358842    -0.007469358646    0.000072449587    0.000169866565    -0.022529767814    0.016088061102
            -0.020134455459    0.019808716607    0.000107306904    0.000133920225    -0.028225739447    -0.005492070065    0.000081093918    0.000204025468
            0.000125219159    0.000212014129    -0.023209484988    0.015965391375    0.000078030989    0.000208422341    -0.030598221913    -0.012693823852
0.500     -0.125550583960    -0.027726919588    0.000054019045    -0.000031967263    -0.068972816512    0.012931412086    0.000081988818    -0.000026825564
            0.000055430109    -0.000032845579    -0.122600346458    -0.046108084380    0.000062394558    -0.000020568832    -0.072070069387    0.001461418486
            -0.070086643176    0.013709781296    0.000028292706    -0.000062685333    -0.128564900744    -0.023577333998    0.000079818798    -0.000019297009
            0.000050192246    -0.000062264762    -0.073248695718    0.001960148870    0.000080978888    -0.000018277658    -0.127508061264    -0.043074830442
0.525     -0.115022719333    0.108591467960    -0.000130226680    0.000099330482    -0.043268031340    0.080868822823    -0.000139913518    0.000089758307
            -0.000130549281    0.000096686109    -0.133849623780    0.090328128470    -0.000092093266    0.000055618199    -0.057098804147    0.073889799215
            -0.043526649888    0.082277389601    -0.000133547964    0.000076001145    -0.111388412475    0.111269808111    -0.000102773301    0.000057258439
            -0.000182681310    0.000108005410    -0.057588552095    0.075182820357    -0.000105337905    0.000056653015    -0.128799821422    0.091795286657
0.550     0.016879227851    0.095457079045    0.000061822307    0.000293344983    0.020706502865    0.051478543811    0.000045581058    0.000318065392
            0.000059406956    0.000292051630    -0.000098211521    0.101433122454    0.000025779969    0.000209358052    0.012655234962    0.056519143129
            0.021322925466    0.052508136757    0.000039890680    0.000241504635    0.018042119474    0.092202122336    0.000025012162    0.000241434582
            0.000050663406    0.000355383754    0.013095244504    0.057579631822    0.000021386831    0.000245769064    0.001254619559    0.093336324132
0.575     -0.020662300558    0.002129879748    0.000237656199    0.000037201727    -0.016107972322    0.019233934416    0.000248470971    0.000067080010
            0.000236253284    0.000037871185    -0.015632161252    0.000991759181    0.000152109878    0.000043114451    -0.015023979854    0.016572436714
            -0.015654575062    0.019612330742    0.000174870541    0.000019459671    -0.023365997296    0.003504538645    0.000182492765    0.000058908878
            0.000272414950    0.000058674195    -0.014676367440    0.016976451108    0.000184851620    0.000065154120    -0.022071815655    -0.000343152165
0.600     -0.074540610076    0.058324209746    -0.000033018480    -0.000033933734    -0.030117987234    0.052798191581    -0.000016244103    -0.000016842426
            -0.000033898178    -0.000034031985    -0.081606276862    0.041325697853    -0.000023368787    0.000007151669    -0.037190379107    0.044469304420
            -0.029351554617    0.053242595492    -0.000059689730    -0.000016790606    -0.070884650223    0.061787857994    -0.000011404426    0.000002266592
            -0.000039425434    -0.000034898322    -0.036639758135    0.045047690207    -0.000005835416    0.000003384231    -0.078973589030    0.044999442505
0.625     0.000292726687    0.077076498133    0.000016967089    0.000260843644    0.010948198034    0.030666444739    0.000038567853    0.000275064790
            0.000015350022    0.000261061490    -0.014346962862    0.079893310288    0.000036962168    0.000193885922    0.006459570041    0.034946344533
            0.012144548187    0.030703863980    0.000000580740    0.000234691821    0.004012644204    0.073258733827    0.000043172737    0.000214757528
            0.000010346893    0.000310889227    0.007568462570    0.035296032310    0.000045732357    0.000213134208    -0.010075702632    0.072622028644
0.650     -0.019589585213    0.008566464990    0.000344233454    0.000108211737    -0.044671454422    -0.000291731012    0.000361788963    0.000108813045
            0.000342651135    0.000110009715    -0.009036087129    0.009802555799    0.000230853589    0.000054294786    -0.033739037944    -0.006577749934
            -0.043626408835    -0.001064172251    0.000266815947    0.000098251727    -0.022090457349    0.007037132577    0.000272111756    0.000070530766
            0.000398771541    0.000150048270    -0.032554772384    -0.007064817752    0.000273400628    0.000070488051    -0.015813181392    0.004313727023
0.675     -0.067539052620    0.062759403378    0.000122908046    -0.000161644177    -0.062125444078    0.077878883656    0.000128105981    -0.000143623412
            0.000123182058    -0.000159299337    -0.068026403453    0.040248909842    0.000043926050    -0.000070900663    -0.068430135645    0.057617666781
            -0.061782119255    0.076713225220    0.000080945062    -0.000100524284    -0.064716599783    0.064736843907    0.000074904925    -0.000086521140
            0.000169656504    -0.000171700585    -0.067853472007    0.056608700853    0.000078396614    -0.000086366262    -0.068799033307    0.043407866034
0.700     -0.001312343860    0.075994852509    -0.000032954089    0.000107037972    0.012058897803    0.072332142977    0.000012894800    0.000139463893
            -0.000031295467    0.000108278849    -0.016508453105    0.072574101745    0.000021848296    0.000141122541    -0.001093576295    0.072663836413
            0.011786801676    0.071289720579    -0.000011826358    0.000116900540    0.002625108150    0.070046252957    0.000036192505    0.000147847814
            -0.000011031043    0.000109151387    -0.001072146442    0.071675231653    0.000040622175    0.000144045607    -0.011703043004    0.065604472234
0.725     -0.052455347403    0.002593980921    0.000332315614    0.000123135310    -0.052553800911    0.016875749526    0.000397451696    0.000088917269
            0.000332441755    0.000122814028    -0.036320557851    -0.002290982780    0.000289854988    0.000038563206    -0.040641346028    0.008600744847
            -0.053243708237    0.016290551601    0.000274555593    0.000087800886    -0.057609356799    -0.001543790475    0.000347878679    0.000045561678
            0.000382024027    0.000123012719    -0.041064562803    0.007867955213    0.000347384124    0.000038813503    -0.045088138338    -0.011293146042
0.750     -0.125385955363    0.119425717126    0.000213728898    -0.000240682121    -0.095184726539    0.125624372155    0.000203952831    -0.000285137330
            0.000214346839    -0.000238726599    -0.129838603782    0.077332676903    0.000081184259    -0.000189143146    -0.106630890558    0.091187735430
            -0.095818967510    0.125169052471    0.000138587531    -0.000173500672    -0.124317063095    0.123971816239    0.000130320318    -0.000233724279
            0.000250455897    -0.000276077101    -0.107093546944    0.090539197594    0.000125130746    -0.000236652676    -0.135426244838    0.083381459393
0.775     0.006510810411    0.190961949832    -0.000057557558    -0.000090562472    0.029625527888    0.171966407991    -0.000063607566    -0.000063986837
            -0.000054963602    -0.000089780144    -0.032323557920    0.176697457756    -0.000052512573    0.000022946294    -0.005376678002    0.167059780472
            0.028641104831    0.171625517436    -0.000028836495    -0.000030645308    0.013257010998    0.185900885779    -0.000047812677    -0.000005909484
