# GHz S RI R 45
0.000     0.075546494000    0.000000000000    -0.000018000405    0.000000000000    0.003094898400    -0.000000000000    -0.000024855243    -0.000000000000
            -0.000012154917    -0.000000000000    0.070567886000    -0.000000000000    -0.000011713655    0.000000000000    0.004793894800    -0.000000000000
            0.004050929600    -0.000000000000    -0.000006867535    0.000000000000    0.073857749000    -0.000000000000    -0.000017128129    0.000000000000
            -0.000000772067    0.000000000000    0.005640071800    0.000000000000    0.000015058722    0.000000000000    0.071485629000    -0.000000000000
0.025     0.137415318492    0.013247050434    -0.000023280228    0.000009461527    0.071620049535    0.040341966546    -0.000033382094    0.000013718704
            -0.000018609362    0.000005422207    0.136629150535    0.013832947585    -0.000013770947    0.000014970810    0.070934889209    0.039650447857
            0.071509259130    0.039481402100    -0.000005951176    0.000006959550    0.137187291646    0.012940915905    -0.000025071127    0.000011572653
            -0.000017461285    -0.000008820337    0.071631844047    0.039270182988    -0.000012060144    -0.000014947347    0.136861470460    0.014295266478
0.050     0.118347545424    -0.077554692352    -0.000027459409    0.000025840982    0.075219134101    -0.033231073436    -0.000026772306    0.000041670519
            -0.000027156447    0.000018002569    0.118738300273    -0.077350163853    -0.000008826245    0.000011248649    0.074597176783    -0.032771392367
            0.074297592923    -0.033049178153    -0.000020794776    0.000001993584    0.117539178526    -0.077838381027    -0.000020537135    0.000026455858
            -0.000043177833    0.000015989753    0.075020823321    -0.033534249417    -0.000033845296    0.000001507423    0.119227485248    -0.078128231964
0.075     0.030857559671    -0.028848561134    0.000026831471    0.000076581992    0.022595175767    0.022222120546    0.000028123946    0.000078422360
            0.000018537441    0.000071478912    0.030722117672    -0.030516300042    0.000017713917    0.000057645268    0.022573854549    0.020880115525
            0.022640357360    0.022346257227    0.000013607516    0.000068347901    0.030463259498    -0.028392453842    0.000024315794    0.000068040677
            0.000001753855    0.000083584356    0.022552074130    0.020474935524    -0.000008102537    0.000066059350    0.028575403105    -0.031210972558
0.100     0.115180570705    0.033112787615    0.000088456017    -0.000021991005    0.110934130945    0.069440071133    0.000098673580    0.000003958411
            0.000079665117    -0.000017542982    0.112912538120    0.032810230380    0.000071495320    -0.000041335603    0.109700677711    0.068840190372
            0.111675642675    0.068961079327    0.000073648053    -0.000041943358    0.115489063703    0.032753840876    0.000083191175    -0.000019869527
            0.000087939653    0.000024025021    0.109290815397    0.068124685960    0.000067975637    0.000011487415    0.112319445464    0.033447370379
0.125     0.155341073120    -0.077188135693    0.000018856894    -0.000040813403    0.152037212839    -0.058021831586    0.000059188714    -0.000067602108
            0.000016671658    -0.000029962466    0.155247993574    -0.075839899672    -0.000026225243    -0.000029182779    0.151538510572    -0.057461647408
            0.151389717649    -0.058747117300    -0.000025988806    -0.000021483183    0.154466421135    -0.078100453757    0.000015266384    -0.000040511886
            0.000070515395    -0.000041353116    0.150803287955    -0.057947097963    0.000036270332    -0.000015188409    0.155356197997    -0.075921721266
0.150     0.042331448881    -0.104619730881    0.000024984493    -0.000093982323    0.027211967929    -0.083107595510    0.000001273019    -0.000118940808
            0.000035499300    -0.000085390620    0.043613839562    -0.106662471896    0.000017938163    -0.000046219071    0.027803836952    -0.084426917750
            0.026394350057    -0.082306861343    0.000031558147    -0.000050590451    0.040960280355    -0.103909961567    0.000021726958    -0.000082613688
            0.000036677981    -0.000122293710    0.026844462671    -0.084415758561    0.000051900711    -0.000088219081    0.042826629740    -0.106729206810
0.175     0.069018729473    -0.021377950554    -0.000138903169    -0.000033230648    0.069031643925    0.014392195466    -0.000144599342    -0.000057423388
            -0.000126748700    -0.000040461078    0.065594942787    -0.023399231937    -0.000100673401    0.000013419537    0.066246506256    0.013031867457
            0.069587261782    0.015068481040    -0.000109428902    0.000002611111    0.068636075228    -0.021817208967    -0.000122599226    -0.000030433202
            -0.000141038567    -0.000089295169    0.065551018338    0.012878516246    -0.000111056739    -0.000059186209    0.065280134723    -0.023716208153
0.200     0.162616495328    -0.078923493868    -0.000014875140    0.000097581609    0.179681212053    -0.063352523219    -0.000097962251    0.000099521694
            -0.000015486511    0.000085324438    0.160339933072    -0.076408726936    0.000074604362    0.000083605852    0.178350770340    -0.061573102947
            0.180220680333    -0.064128781040    0.000071460704    0.000090493313    0.163038034465    -0.080018928328    -0.000011871348    0.000084473298
            -0.000115718375    0.000085852622    0.178011081230    -0.060948412231    -0.000032852279    0.000059334102    0.160927961149    -0.076531109816
0.225     0.067871304087    -0.181228012718    -0.000024932522    0.000027236498    0.064757715311    -0.187346017888    -0.000006257241    0.000123664528
            -0.000034568549    0.000020444703    0.069584886637    -0.181135096233    -0.000015004642    -0.000064585473    0.066031201821    -0.187835077670
            0.063914610262    -0.187651222816    -0.000014913120    -0.000068053050    0.066372132278    -0.181485818745    -0.000029318587    0.000021396989
            -0.000031422453    0.000125465439    0.065815745018    -0.187065522613    -0.000062760429    0.000030959184    0.069177014095    -0.181057607643
0.250     -0.030760835091    -0.096541562752    0.000063857365    0.000148195808    -0.053429169640    -0.086631104177    0.000117911347    0.000134558562
            0.000052233111    0.000153144231    -0.033076328061    -0.101013834953    0.000017611461    0.000098135454    -0.055745168573    -0.090413609268
            -0.053600605081    -0.085479127972    0.000009817954    0.000106419160    -0.030588509094    -0.094521063859    0.000053466790    0.000141465967
            0.000107646011    0.000168296576    -0.055446207608    -0.089364934343    0.000051819443    0.000175129609    -0.032116553390    -0.099499537296
0.275     0.059024462534    -0.067215610210    0.000144721208    -0.000080007911    0.051731739524    -0.049022564223    0.000193840443    -0.000082209042
            0.000144023831    -0.000066952905    0.052585380351    -0.065314556993    0.000029815930    -0.000089611067    0.046739899724    -0.047048462725
            0.052177438503    -0.048990744089    0.000044775090    -0.000084328542    0.064995387738    -0.065532622582    0.000130174263    -0.000064281614
            0.000226108882    -0.000068136433    0.047155713748    -0.046768858078    0.000153571398    -0.000051920082    0.057792615176    -0.064646355168
0.300     0.066335092569    -0.186128660289    -0.000011305759    -0.000069257867    0.055530963157    -0.167647889223    0.000013559572    -0.000178191905
            -0.000001048747    -0.000063084491    0.067373122083    -0.182350469302    -0.000061994840    0.000095016460    0.056865431504    -0.165485772720
            0.055718847491    -0.168849844165    -0.000062367224    0.000081703021    0.065709985530    -0.188873106409    0.000005267153    -0.000051478394
            0.000028850042    -0.000197614634    0.057750499493    -0.165699604534    0.000027482988    -0.000059298042    0.067196460961    -0.185025703323
0.325     -0.087388931036    -0.181925925073    0.000011848429    -0.000124994078    -0.101041287021    -0.155145426142    -0.000100589176    -0.000138793038
            0.000020754345    -0.000129648109    -0.086396524409    -0.184867116411    0.000149227275    -0.000063559223    -0.101281234533    -0.158574404573
            -0.101979924386    -0.155274696087    0.000144102216    -0.000060363857    -0.089137161737    -0.181066383391    0.000028059269    -0.000135347341
            -0.000102620639    -0.000155979146    -0.100745708944    -0.158853506340    0.000034407383    -0.000163864535    -0.087161463346    -0.184194348070
0.350     -0.103835267430    -0.039858354425    -0.000232871984    -0.000078075228    -0.110828776905    -0.010255717571    -0.000243390598    -0.000022461829
            -0.000231050884    -0.000086374343    -0.110963698096    -0.041880185248    -0.000166159327    -0.000112783314    -0.117865711448    -0.011437194326
            -0.110632610489    -0.009355457816    -0.000162388350    -0.000118275585    -0.100927935206    -0.038659196985    -0.000232259475    -0.000088520336
            -0.000262312833    -0.000037107812    -0.117138926993    -0.011808838171    -0.000261440176    -0.000104782612    -0.107139498979    -0.041720102388
0.375     -0.014255437295    -0.063895054280    -0.000102334891    0.000197295136    -0.016922186259    -0.041917831584    -0.000120611532    0.000252416856
            -0.000107126594    0.000189334742    -0.017412549789    -0.057410285154    -0.000023819965    0.000091308132    -0.019147612347    -0.036423286585
            -0.016360118565    -0.042550185231    -0.000039020741    0.000093106440    -0.012809869338    -0.066799697152    -0.000107430265    0.000179847062
            -0.000143945802    0.000272570977    -0.018840003827    -0.037269548657    -0.000125643843    0.000201401800    -0.015251946772    -0.061693373926
0.400     -0.075350069789    -0.159129623828    0.000063332274    0.000147461786    -0.071729900543    -0.098269300223    0.000148790899    0.000196448466
            0.000052371046    0.000148259724    -0.071600028948    -0.158479938766    -0.000101289362    -0.000014096596    -0.069468040906    -0.099050651730
            -0.072322232851    -0.099513097278    -0.000092349327    0.000002243212    -0.079499830928    -0.161547480729    0.000032352643    0.000148897081
            0.000164998598    0.000219970564    -0.070016930525    -0.100273013752    0.000037591650    0.000165308404    -0.076022888476    -0.160999850800
0.425     -0.187309521261    -0.049993513932    0.000209349814    0.000109244661    -0.140496259671    -0.004538347090    0.000240712199    0.000041471274
            0.000206367918    0.000118135819    -0.191134547851    -0.054246969359    0.000082353163    0.000250393493    -0.145939853379    -0.007312708961
            -0.141710257359    -0.004236855578    0.000092505971    0.000240463778    -0.187915221280    -0.047108899153    0.000209845149    0.000142891057
            0.000259959638    0.000034601604    -0.146888216190    -0.007711684411    0.000224727366    0.000154092127    -0.190844686060    -0.051568074352
0.450     -0.096990062439    0.071847543976    0.000249383561    -0.000212547543    -0.062940222833    0.074395348977    0.000244688195    -0.000222670915
            0.000252670232    -0.000206817335    -0.105719847489    0.076507290421    0.000273040699    -0.000162989910    -0.070257478985    0.080357110117
            -0.062760977194    0.075361303039    0.000267797625    -0.000164076599    -0.092775038693    0.069801143016    0.000274304074    -0.000211952212
            0.000249517716    -0.000235283651    -0.070864944569    0.080311641942    0.000297490289    -0.000223685803    -0.100865332081    0.072833489184
0.475     -0.030417950799    -0.014486917019    -0.000108620727    -0.000292131635    -0.024712348874    0.010608838849    -0.000132668211    -0.000349873509
            -0.000101384754    -0.000287941403    -0.028321358842    -0.007469358646    -0.000078726970    -0.000156519179    -0.022529767814    0.016088061102
            -0.024648720362    0.010058770772    -0.000072341358    -0.000162398197    -0.032227992433    -0.018470309309    -0.000098987813    -0.000296272939
            -0.000140308770    -0.000366081059    -0.023209484988    0.015965391375    -0.000107546901    -0.000322516463    -0.030598221913    -0.012693823852
0.500     -0.123022188177    -0.043182830009    -0.000273174258    -0.000068772410    -0.070698977792    0.004048003325    -0.000338759092    -0.000043900993
            -0.000263690853    -0.000074502924    -0.122600346458    -0.046108084380    -0.000057444394    -0.000122744901    -0.072070069387    0.001461418486
            -0.071560795718    0.003409959017    -0.000074417367    -0.000130085576    -0.127839398799    -0.040800526525    -0.000258231149    -0.000093249351
            -0.000361622159    -0.000039380786    -0.073248695718    0.001960148870    -0.000278018018    -0.000091587080    -0.127508061264    -0.043074830442
0.525     -0.124704990286    0.087865492977    -0.000262002537    0.000207973915    -0.048825929826    0.069128579984    -0.000272117030    0.000223117993
            -0.000263808327    0.000197701126    -0.133849623780    0.090328128470    -0.000315796299    0.000070742615    -0.057098804147    0.073889799215
            -0.049773449337    0.070069847012    -0.000319523672    0.000090179717    -0.121223018422    0.090169819924    -0.000296610145    0.000186539512
            -0.000270932971    0.000246001802    -0.057588552095    0.075182820357    -0.000304856609    0.000197055862    -0.128799821422    0.091795286657
0.550     0.001795443353    0.089093523640    0.000082443948    0.000375709773    0.011989758927    0.044891667300    0.000048629168    0.000446951189
            0.000075253656    0.000371729862    -0.000098211521    0.101433122454    0.000086689038    0.000347893092    0.012655234962    0.056519143129
            0.012682323275    0.046123497203    0.000100288068    0.000348926336    0.003351321642    0.083539123888    0.000063473279    0.000406379891
            0.000066760310    0.000450046411    0.013095244504    0.057579631822    0.000064985074    0.000423020685    0.001254619559    0.093336324132
0.575     -0.020916881767    -0.001805702489    0.000363025870    0.000101292964    -0.019693814858    0.014974966066    0.000458585359    0.000141860058
            0.000353139462    0.000103197668    -0.015632161252    0.000991759181    0.000218610527    0.000020893335    -0.015023979854    0.016572436714
            -0.018902154181    0.015017701446    0.000222000200    0.000019122981    -0.026007151366    -0.002501313152    0.000370998264    0.000117937749
            0.000467771928    0.000131562125    -0.014676367440    0.016976451108    0.000390903516    0.000122165859    -0.022071815655    -0.000343152165
0.600     -0.076299425950    0.039709709352    0.000285149067    -0.000245466589    -0.031594926529    0.042472749472    0.000340101057    -0.000300530834
            0.000280933571    -0.000232632902    -0.081606276862    0.041325697853    0.000201769481    -0.000093177232    -0.037190379107    0.044469304420
            -0.032091957454    0.041822811395    0.000209812752    -0.000103253155    -0.074688636844    0.043129569672    0.000307579966    -0.000227876993
            0.000337572081    -0.000316013319    -0.036639758135    0.045047690207    0.000315795409    -0.000243770477    -0.078973589030    0.044999442505
0.625     -0.013119781449    0.065690730345    -0.000076689220    -0.000405411272    0.006344907424    0.021386421389    -0.000042465665    -0.000505422994
            -0.000066251045    -0.000396973173    -0.014346962862    0.079893310288    -0.000040019183    -0.000322248127    0.006459570041    0.034946344533
            0.005874579592    0.022330160667    -0.000054938127    -0.000333024097    -0.009710867400    0.061345209765    -0.000047230094    -0.000433747310
            -0.000061045607    -0.000508508455    0.007568462570    0.035296032310    -0.000054355731    -0.000445897455    -0.010075702632    0.072622028644
0.650     -0.020765851136    0.003573267070    -0.000387447288    -0.000119393942    -0.045242198543    -0.010987743002    -0.000533241948    -0.000205294136
            -0.000376759905    -0.000122451247    -0.009036087129    0.009802555799    -0.000266984373    -0.000023553495    -0.033739037944    -0.006577749934
            -0.043841913932    -0.010241284347    -0.000275623850    -0.000011524546    -0.024809669576    0.000392617338    -0.000406992952    -0.000145630897
            -0.000540651000    -0.000189206706    -0.032554772384    -0.007064817752    -0.000422270060    -0.000147620349    -0.015813181392    0.004313727023
0.675     -0.068784697791    0.042387904283    -0.000318233039    0.000237533465    -0.068575341148    0.060319870877    -0.000404749028    0.000350217152
            -0.000311588312    0.000225911218    -0.068026403453    0.040248909842    -0.000169874994    0.000118594393    -0.068430135645    0.057617666781
            -0.067478515786    0.058965715567    -0.000169172806    0.000126691670    -0.068143576940    0.044630747817    -0.000340552325    0.000231226478
            -0.000396678346    0.000362677093    -0.067853472007    0.056608700853    -0.000348336907    0.000246326804    -0.068799033307    0.043407866034
0.700     -0.015331788032    0.060478062071    0.000030653668    0.000456193301    0.000421742383    0.061953719537    0.000026522296    0.000557218768
            0.000020182716    0.000442096076    -0.016508453105    0.072574101745    0.000014386031    0.000300487957    -0.001093576295    0.072663836413
            -0.000643464202    0.060859661448    0.000026760039    0.000311437466    -0.011611763120    0.054850066416    -0.000000410113    0.000481037325
            0.000044764796    0.000558576015    -0.001072146442    0.071675231653    0.000009469091    0.000491463317    -0.011703043004    0.065604472234
0.725     -0.054012004497    -0.009087862961    0.000448301918    0.000149614112    -0.055664426813    0.003045702699    0.000617063595    0.000257460208
            0.000433343370    0.000156144994    -0.036320557851    -0.002290982780    0.000267061577    0.000019577222    -0.040641346028    0.008600744847
            -0.055888673838    0.003726269370    0.000280892934    0.000001237525    -0.060272858173    -0.014861009446    0.000474483011    0.000186281812
            0.000624597425    0.000236391290    -0.041064562803    0.007867955213    0.000486099733    0.000186322414    -0.045088138338    -0.011293146042
0.750     -0.136155619545    0.087287348276    0.000290016673    -0.000262781138    -0.111697589053    0.098722221348    0.000406501424    -0.000443126746
            0.000288125602    -0.000252225277    -0.129838603782    0.077332676903    0.000124012986    -0.000068815021    -0.106630890558    0.091187735430
            -0.110478467632    0.098693586738    0.000108200804    -0.000075913584    -0.138076613976    0.092246772609    0.000317902146    -0.000270230036
            0.000390095433    -0.000453433807    -0.107093546944    0.090539197594    0.000328047989    -0.000283382803    -0.135426244838    0.083381459393
0.775     -0.026453905841    0.173553769984    0.000027322811    -0.000386582053    -0.001330365893    0.163728535187    -0.000058732426    -0.000465570127
            0.000031585316    -0.000374753575    -0.032323557920    0.176697457756    0.000114920513    -0.000256573315    -0.005376678002    0.167059780472
            -0.001371947943    0.162046332379    0.000115273683    -0.000253661317    -0.019995931155    0.170050221422    0.000046170989    -0.000405312603
