!$
! Info: Touchstone file created by Circ.  Input file=Intel_C2M_200G_10p5in_202208016_staggered.circ
!$
# Hz S RI R 50
0	0.03343483	9.373748e-24	-0.0001205568	1.476394e-20	0.0003613056	1.266466e-21	-0.0001163656	1.425067e-20
	-0.0001205568	1.476395e-20	0.03288594	5.266416e-24	-0.0001275108	1.561557e-20	0.0001410193	3.378546e-22
	0.0003613698	1.267364e-21	-0.0001275109	1.561558e-20	0.03343606	9.61156e-24	-0.0001205818	1.476701e-20
	-0.0001163656	1.425067e-20	0.0001410753	3.379775e-22	-0.0001205817	1.4767e-20	0.03288394	4.98072e-24
1e+07	0.04206017	0.009884395	-0.001178618	3.150193e-05	0.002154382	0.007881535	-9.214759e-05	-0.0001052842
	-0.001178618	3.150193e-05	0.04048558	0.01072929	-0.0006914739	7.794815e-05	0.002846353	0.007815574
	0.002154382	0.007881535	-0.0006914739	7.794815e-05	0.04131299	0.01023378	-0.0004863813	-7.479227e-05
	-9.214759e-05	-0.0001052842	0.002846353	0.007815574	-0.0004863813	-7.479227e-05	0.04014702	0.01051568
2e+07	0.05196386	0.0121098	-0.001081569	-0.0002285905	0.005231022	0.01458556	-0.000127904	-0.0001291534
	-0.001081569	-0.0002285905	0.04924703	0.0144406	-0.0007193225	-0.0001329156	0.006558254	0.01397658
	0.005231113	0.01458545	-0.0007193225	-0.0001329155	0.05174909	0.01288168	-0.0004945193	-0.0001528703
	-0.0001279039	-0.0001291534	0.006558261	0.01397657	-0.0004945194	-0.0001528703	0.04870752	0.01426409
3e+07	0.06085489	0.009675817	-0.001064221	-0.0003295902	0.009770198	0.02014956	-0.0001787069	-0.0001575242
	-0.001064221	-0.0003295902	0.05652804	0.01417195	-0.0007726984	-0.0001799925	0.01194203	0.01883027
	0.009770173	0.02014953	-0.0007726984	-0.0001799925	0.06105926	0.01047423	-0.0005504411	-0.0002135254
	-0.0001787069	-0.0001575242	0.01194201	0.01883032	-0.0005504412	-0.0002135254	0.05586004	0.01411853
4e+07	0.06885503	0.004384825	-0.001086115	-0.0003614978	0.01534937	0.02433777	-0.0002424476	-0.0001721059
	-0.001086115	-0.0003614978	0.06241819	0.01188173	-0.0008374571	-0.0001742191	0.01854754	0.02177589
	0.01534937	0.02433777	-0.0008374571	-0.0001742191	0.06937639	0.005063115	-0.0006254133	-0.0002281964
	-0.0002424476	-0.0001721059	0.01854754	0.02177591	-0.0006254133	-0.0002281963	0.06168485	0.0119773
5e+07	0.0755517	-0.003322716	-0.001127292	-0.0003492924	0.0215865	0.02693616	-0.0003153361	-0.0001749414
	-0.001127292	-0.0003492924	0.0670493	0.008368052	-0.0009004481	-0.0001339171	0.02576431	0.02258416
	0.0215865	0.02693617	-0.0009004481	-0.0001339171	0.07628853	-0.002847783	-0.0007060804	-0.0002060201
	-0.0003153361	-0.0001749414	0.02576432	0.02258416	-0.0007060804	-0.0002060201	0.06630025	0.008620718
6e+07	0.08050399	-0.0129368	-0.00117337	-0.0003034892	0.02803245	0.02786638	-0.0003898524	-0.0001596742
	-0.00117337	-0.0003034892	0.0704973	0.004096154	-0.0009539099	-7.054297e-05	0.03295569	0.02116476
	0.02803245	0.02786638	-0.0009539099	-7.054299e-05	0.08135417	-0.01270675	-0.000781407	-0.0001532537
	-0.0003898524	-0.0001596742	0.03295569	0.02116474	-0.0007814069	-0.0001532537	0.06977548	0.004501867
7e+07	0.08338633	-0.0239157	-0.001219985	-0.0002222694	0.03424062	0.02717403	-0.0004626745	-0.0001272995
	-0.001219985	-0.0002222694	0.07286711	-0.0005781927	-0.0009942625	6.442692e-06	0.03948027	0.01760874
	0.03424063	0.02717402	-0.0009942625	6.442692e-06	0.08425069	-0.02393844	-0.0008433401	-7.698473e-05
	-0.0004626745	-0.0001272995	0.03948027	0.01760874	-0.0008433401	-7.698476e-05	0.0722091	-3.284768e-05
8e+07	0.08398643	-0.03569549	-0.001255951	-0.000109582	0.03979766	0.02502075	-0.0005312164	-7.911507e-05
	-0.001255951	-0.000109582	0.07431224	-0.005405108	-0.001022135	8.934607e-05	0.04474641	0.01218127
	0.03979766	0.02502075	-0.001022135	8.934607e-05	0.08477417	-0.03594995	-0.0008870446	1.494195e-05
	-0.0005312164	-7.911507e-05	0.04474641	0.01218127	-0.0008870446	1.494197e-05	0.07374876	-0.004739932
9e+07	0.08222204	-0.0476948	-0.001264879	1.481741e-05	0.04435356	0.02167129	-0.0005935547	-1.655515e-05
	-0.001264879	1.481741e-05	0.07500522	-0.01023851	-0.001041786	0.0001734762	0.04825685	0.005300528
	0.04435356	0.02167129	-0.001041786	0.0001734762	0.08285334	-0.04813458	-0.0009116942	0.0001182839
	-0.0005935547	-1.655515e-05	0.04825686	0.005300529	-0.0009116942	0.000118284	0.07456243	-0.009476621
1e+08	0.07823712	-0.05935299	-0.001226887	0.0001443833	0.04764722	0.01746674	-0.0006486884	5.871792e-05
	-0.001226887	0.0001443833	0.07516352	-0.0150071	-0.001060063	0.0002572471	0.04964462	-0.002498008
	0.04764722	0.01746674	-0.001060063	0.0002572471	0.0786293	-0.05990729	-0.0009140696	0.0002324278
	-0.0006486884	5.871792e-05	0.04964462	-0.002498008	-0.0009140696	0.0002324278	0.07487856	-0.01416772
1.1e+08	0.0718566	-0.07052925	-0.001177413	0.0003114225	0.04949152	0.01282457	-0.0006933853	0.0001421219
	-0.001177413	0.0003114224	0.07471126	-0.02004826	-0.001073698	0.000327208	0.04867641	-0.01058087
	0.04949152	0.01282457	-0.001073698	0.000327208	0.07202901	-0.07101402	-0.0009017266	0.0003455446
	-0.0006933853	0.0001421219	0.04867641	-0.01058087	-0.0009017267	0.0003455446	0.07458915	-0.01929654
1.2e+08	0.0632209	-0.08007754	-0.00114069	0.0004670199	0.04988458	0.008191992	-0.000728077	0.000238278
	-0.00114069	0.0004670199	0.073524	-0.02498729	-0.001089551	0.0004006365	0.0453682	-0.01822829
	0.04988458	0.008191992	-0.001089551	0.0004006365	0.06324801	-0.08047102	-0.000887201	0.0004527568
	-0.000728077	0.000238278	0.04536819	-0.01822829	-0.000887201	0.0004527568	0.0734815	-0.02429869
1.3e+08	0.0529796	-0.08754746	-0.00109886	0.0006182604	0.04892068	0.003976085	-0.0007520933	0.0003469049
	-0.00109886	0.0006182604	0.07172641	-0.02980936	-0.001111574	0.0004833048	0.03990059	-0.02481478
	0.04892068	0.003976085	-0.001111574	0.0004833048	0.05290266	-0.08783322	-0.0008695715	0.0005580222
	-0.0007520933	0.0003469049	0.03990059	-0.02481478	-0.0008695715	0.0005580222	0.07174413	-0.02917293
1.4e+08	0.04174824	-0.09264808	-0.001048563	0.0007688224	0.04680181	0.000544199	-0.0007615271	0.0004676763
	-0.001048563	0.0007688224	0.06932012	-0.03450827	-0.001138444	0.0005819899	0.032618	-0.02977001
	0.04680181	0.0005441993	-0.001138444	0.0005819899	0.04160215	-0.09281345	-0.0008497767	0.0006660828
	-0.0007615271	0.0004676763	0.032618	-0.02977001	-0.0008497767	0.0006660828	0.06938243	-0.03392946
1.5e+08	0.03016645	-0.09525122	-0.0009866912	0.0009217051	0.04382366	-0.001808935	-0.0007531061	0.0005998162
	-0.0009866912	0.0009217051	0.06626466	-0.03905132	-0.001165239	0.0007030941	0.02400909	-0.03262901
	0.04382366	-0.001808935	-0.001165239	0.0007030941	0.02998484	-0.09528894	-0.0008262511	0.0007823694
	-0.0007531061	0.0005998162	0.02400909	-0.03262901	-0.0008262512	0.0007823694	0.06634906	-0.03853534
1.6e+08	0.01886928	-0.09539133	-0.0009089723	0.001078737	0.04035178	-0.002883924	-0.000722981	0.0007415845
	-0.0009089723	0.001078737	0.06250039	-0.04336544	-0.001183691	0.0008515519	0.01467555	-0.03306956
	0.04035178	-0.002883924	-0.001183691	0.0008515519	0.01868453	-0.09530011	-0.0007944332	0.0009117016
	-0.000722981	0.0007415845	0.01467555	-0.03306955	-0.0007944332	0.0009117016	0.06258056	-0.04290992
1.7e+08	0.008451454	-0.09325882	-0.0008102579	0.001238556	0.03679207	-0.002593672	-0.000666964	0.000890086
	-0.0008102579	0.001238556	0.05796932	-0.04732999	-0.001146681	0.001062932	0.005291321	-0.03093877
	0.03679207	-0.002593672	-0.001146681	0.001062932	0.008294941	-0.09304343	-0.0007486281	0.001055659
	-0.000666964	0.000890086	0.005291322	-0.03093877	-0.0007486281	0.001055659	0.05802059	-0.04692326
1.8e+08	-0.0005673728	-0.08918427	-0.0006843986	0.001400275	0.03355833	-0.000969688	-0.0005810432	0.001040646
	-0.0006843986	0.001400275	0.05263697	-0.05077739	-0.001072987	0.00128922	-0.003444202	-0.02626841
	0.03355833	-0.0009696878	-0.001072987	0.00128922	-0.0006671428	-0.08885582	-0.0006779638	0.001215909
	-0.0005810432	0.001040646	-0.003444202	-0.02626841	-0.0006779638	0.001215909	0.05264059	-0.05039905
1.9e+08	-0.007774251	-0.08361404	-0.0005254161	0.001558565	0.03103845	0.001840619	-0.0004620468	0.001187052
	-0.0005254161	0.001558565	0.04651294	-0.05349907	-0.0009539234	0.001523703	-0.01085587	-0.01927735
	0.03103845	0.001840619	-0.0009539234	0.001523703	-0.007791811	-0.08318984	-0.0005721985	0.00138776
	-0.0004620468	0.001187052	-0.01085587	-0.01927735	-0.0005721985	0.00138776	0.04645899	-0.0531235
2e+08	-0.0128865	-0.07707979	-0.0003290501	0.001705069	0.02956215	0.005585259	-0.0003083063	0.00132156
	-0.0003290501	0.001705069	0.03966997	-0.0552599	-0.0007748803	0.001759354	-0.01634187	-0.01036032
	0.02956215	0.005585259	-0.0007748803	0.001759354	-0.01280217	-0.07658127	-0.0004223262	0.001562031
	-0.0003083063	0.00132156	-0.01634187	-0.01036032	-0.0004223262	0.001562031	0.03955778	-0.05486037
2.1e+08	-0.01577029	-0.07016177	-9.329614e-05	0.001829369	0.02937492	0.009928895	-0.0001202225	0.001435442
	-9.329614e-05	0.001829369	0.03225731	-0.05582034	-0.0005393068	0.001977448	-0.01941867	-6.427875e-05
	0.02937492	0.009928895	-0.0005393068	0.001977448	-0.01556911	-0.06961483	-0.0002225084	0.00172583
	-0.0001202225	0.001435442	-0.01941867	-6.427841e-05	-0.0002225084	0.00172583	0.03209547	-0.05537138
2.2e+08	-0.01644474	-0.06344938	0.000180056	0.001919578	0.03061685	0.01448016	9.928345e-05	0.001519603
	0.000180056	0.001919578	0.02450592	-0.05496111	-0.0002477157	0.002163185	-0.01975867	0.01094661
	0.03061685	0.01448016	-0.0002477157	0.002163185	-0.01611919	-0.062882	2.865017e-05	0.001863497
	9.928345e-05	0.001519603	-0.01975867	0.01094661	2.865017e-05	0.001863497	0.02431102	-0.05444207
2.3e+08	-0.01507982	-0.05750108	0.0004850761	0.001963891	0.03331183	0.01882359	0.0003445642	0.001565477
	0.0004850761	0.001963891	0.01672594	-0.05251198	9.484118e-05	0.002301481	-0.01721797	0.02193544
	0.03331183	0.01882359	9.484118e-05	0.002301481	-0.01462921	-0.05694196	0.0003270069	0.001958516
	0.0003445642	0.001565477	-0.01721797	0.02193544	0.0003270069	0.001958516	0.01651995	-0.05190851
2.4e+08	-0.01198182	-0.05280652	0.0008119848	0.001952076	0.03736606	0.02255439	0.0006074299	0.001565919
	0.0008119848	0.001952076	0.009294314	-0.0483786	0.0004789663	0.002378427	-0.01185088	0.03214274
	0.03736606	0.02255439	0.0004789663	0.002378427	-0.01141239	-0.05228347	0.0006627461	0.001995536
	0.0006074299	0.001565919	-0.01185088	0.03214274	0.0006627461	0.001995536	0.00910332	-0.04768378
2.5e+08	-0.007568901	-0.04975428	0.001147551	0.001876917	0.04257608	0.02531057	0.0008776825	0.001516001
	0.001147551	0.001876917	0.002634188	-0.04256571	0.0008912882	0.002382612	-0.003911107	0.04084009
	0.04257608	0.02531057	0.0008912882	0.002382612	-0.0068934	-0.04929203	0.001020932	0.001962523
	0.0008776825	0.001516001	-0.003911107	0.04084009	0.001020932	0.001962523	0.002485068	-0.04178086
2.6e+08	-0.002340631	-0.04860628	0.001476434	0.001735225	0.04864623	0.02680207	0.00114379	0.001413747
	0.001476434	0.001735225	-0.002814143	-0.03519404	0.001315366	0.002306367	0.006161232	0.04738246
	0.04864623	0.02680207	0.001315366	0.002306367	-0.001577441	-0.04822569	0.001382906	0.001852404
	0.00114379	0.001413747	0.006161232	0.04738246	0.001382906	0.001852404	-0.00289505	-0.03432843
2.7e+08	0.003159972	-0.04948337	0.001782631	0.001528468	0.05521362	0.02683359	0.001393999	0.001260257
	0.001782631	0.001528468	-0.006626539	-0.02650832	0.001732849	0.00214657	0.01776717	0.0512546
	0.05521362	0.02683359	0.001732849	0.00214657	0.003988041	-0.04919933	0.001728223	0.001664204
	0.001393999	0.001260257	0.01776717	0.0512546	0.001728223	0.001664204	-0.006616077	-0.02557881
2.8e+08	0.008384654	-0.0523603	0.002051101	0.00126275	0.06187777	0.02531795	0.001617194	0.00105984
	0.002051101	0.00126275	-0.008431317	-0.01687588	0.00212506	0.001904856	0.03018732	0.05211028
	0.06187777	0.02531795	0.00212506	0.001904856	0.009252188	-0.05218087	0.00203686	0.001403402
	0.001617194	0.00105984	0.03018732	0.05211028	0.00203686	0.001403402	-0.008311651	-0.0159057
2.9e+08	0.01281834	-0.05707118	0.002269218	0.0009482078	0.06823261	0.0222817	0.00180397	0.0008194857
	0.002269218	0.0009482078	-0.007945661	-0.006773223	0.002474293	0.001587649	0.04262981	0.04979891
	0.06823261	0.0222817	0.002474293	0.001587649	0.01369925	-0.0569977	0.002291483	0.001081279
	0.00180397	0.0008194857	0.04262981	0.04979891	0.002291483	0.001081279	-0.007705125	-0.005790615
3e+08	0.01601468	-0.06332614	0.002427989	0.0005978622	0.07389824	0.01785984	0.001947309	0.0005481714
	0.002427989	0.0005978622	-0.005007591	0.003236934	0.002765121	0.001205594	0.05428375	0.04437814
	0.07389824	0.01785984	0.002765121	0.001205594	0.01688395	-0.0633527	0.002479196	0.0007137042
	0.001947309	0.0005481714	0.05428375	0.04437814	0.002479196	0.0007137042	-0.004642282	0.004200752
3.1e+08	0.01762386	-0.07073504	0.002522702	0.000226228	0.07854987	0.01228406	0.002042959	0.0002559031
	0.002522702	0.000226228	0.0003983958	0.0125386	0.002985466	0.0007725158	0.06437435	0.03611296
	0.07854987	0.01228406	0.002985466	0.0007725158	0.0184593	-0.07084938	0.002592817	0.0003192843
	0.002042959	0.0002559031	0.06437435	0.03611296	0.002592817	0.0003192843	0.000884295	0.0134509
3.2e+08	0.0174135	-0.07883779	0.002552947	-0.000152282	0.08194047	0.005861443	0.002089495	-4.706504e-05
	0.002552947	-0.000152282	0.008125293	0.02050184	0.003127253	0.0003045356	0.07221519	0.02545928
	0.08194047	0.005861443	0.003127253	0.0003045356	0.01819749	-0.0790224	0.002631279	-8.297917e-05
	0.002089495	-4.706504e-05	0.07221519	0.02545928	0.002631279	-8.297917e-05	0.008718241	0.02133126
3.3e+08	0.01528008	-0.08713801	0.002522169	-0.0005248105	0.08391697	-0.001049868	0.002088067	-0.0003513208
	0.002522169	-0.0005248105	0.01785796	0.02652796	0.003186711	-0.0001815759	0.077254	0.01303478
	0.08391697	-0.001049868	0.003186711	-0.0001815759	0.01600115	-0.0873712	0.00259924	-0.000475714
	0.002088067	-0.0003513208	0.077254	0.01303478	0.00259924	-0.000475714	0.01853646	0.02724611
3.4e+08	0.01125177	-0.09513759	0.002436559	-0.0008837266	0.08443017	-0.008068675	0.00204187	-0.0006487906
	0.002436559	-0.0008837266	0.02912037	0.03009485	0.003164187	-0.0006691594	0.07911002	-0.0004207378
	0.08443017	-0.008068675	0.003164187	-0.0006691594	0.01190467	-0.09539569	0.002505928	-0.000845012
	0.00204187	-0.0006487906	0.07911002	-0.0004207379	0.002505928	-0.000845012	0.02985545	0.03067928
3.5e+08	0.005480968	-0.1023701	0.002303422	-0.001218809	0.08353421	-0.01482011	0.001955375	-0.0009334283
	0.002303422	-0.001218809	0.0412958	0.03080146	0.003063892	-0.001143247	0.07759788	-0.01409276
	0.08353421	-0.01482011	0.003063892	-0.001143247	0.006068071	-0.1026291	0.002363422	-0.001181581
	0.001955375	-0.0009334283	0.07759788	-0.01409276	0.002363422	-0.001181581	0.04205262	0.03123641
3.6e+08	-0.001768867	-0.1084304	0.00213114	-0.001526047	0.08138052	-0.02096201	0.001833559	-0.001201147
	0.00213114	-0.001526047	0.05365857	0.02840571	0.002892792	-0.001591286	0.07274022	-0.02714359
	0.08138052	-0.02096201	0.002892792	-0.001591286	-0.001238593	-0.1086674	0.002184713	-0.001481351
	0.001833559	-0.001201147	0.07274022	-0.02714359	0.002184713	-0.001481351	0.05439798	0.02868474
3.7e+08	-0.0101448	-0.1129982	0.001927124	-0.001804375	0.07820434	-0.0262095	0.001681037	-0.00144978
	0.001927124	-0.001804375	0.0654165	0.02285508	0.002659835	-0.002003581	0.0647656	-0.03876492
	0.07820434	-0.0262095	0.002659835	-0.002003581	-0.009656193	-0.1131944	0.001981593	-0.001745211
	0.001681037	-0.00144978	0.0647656	-0.03876492	0.001981593	-0.001745211	0.06609765	0.02298155
3.8e+08	-0.01922933	-0.1158573	0.001696996	-0.002054793	0.07430561	-0.03035442	0.001501573	-0.001678476
	0.001696996	-0.002054793	0.07576132	0.01430402	0.002374857	-0.002373539	0.05409398	-0.04822661
	0.07430561	-0.03035442	0.002374857	-0.002373539	-0.01876166	-0.1159986	0.001763079	-0.001977834
	0.001501573	-0.001678476	0.05409398	-0.04822661	0.001763079	-0.001977834	0.07634385	0.01429127
3.9e+08	-0.02856913	-0.1169066	0.001443928	-0.002279369	0.07002646	-0.03327912	0.001297515	-0.001887256
	0.001443928	-0.002279369	0.08392336	0.003119522	0.002047439	-0.00269765	0.04131202	-0.05492099
	0.07002646	-0.03327912	0.002047439	-0.00269765	-0.02809844	-0.1169852	0.001534107	-0.00218631
	0.001297515	-0.001887256	0.04131202	-0.05492099	0.001534107	-0.00218631	0.08437074	0.002991599
4e+08	-0.03770484	-0.1161638	0.001168581	-0.00247998	0.06572506	-0.03496386	0.001069732	-0.002076158
	0.001168581	-0.00247998	0.08922982	-0.01012948	0.001685886	-0.002974908	0.02713708	-0.05839831
	0.06572506	-0.03496386	0.001685886	-0.002974908	-0.03720476	-0.116179	0.001294951	-0.002378177
	0.001069732	-0.002076158	0.02713708	-0.05839831	0.001294951	-0.002378177	0.08951112	-0.01034006
4.1e+08	-0.04620093	-0.1137617	0.0008694889	-0.002657173	0.06174941	-0.03548695	0.0008177385	-0.002244534
	0.0008694889	-0.002657173	0.09115856	-0.02469836	0.001296848	-0.003205896	0.01237642	-0.05839299
	0.06174941	-0.03548695	0.001296848	-0.003205896	-0.04564556	-0.1137204	0.001041655	-0.002559397
	0.0008177385	-0.002244534	0.01237642	-0.05839299	0.001041655	-0.002559397	0.09125067	-0.02495098
4.2e+08	-0.05367352	-0.1099393	0.0005439353	-0.002809249	0.05841123	-0.03502024	0.0005401686	-0.002390361
	0.0005439353	-0.002809249	0.0893839	-0.03970584	0.0008844636	-0.003391946	-0.002119412	-0.05483963
	0.05841123	-0.03502024	0.0008844636	-0.003391946	-0.05303842	-0.109856	0.0007666966	-0.002732694
	0.0005401686	-0.002390361	-0.002119412	-0.05483963	0.0007666966	-0.002732694	0.08927393	-0.03995409
4.3e+08	-0.05981483	-0.1050238	0.0001890295	-0.002931749	0.05596231	-0.03381398	0.0002352985	-0.002509724
	0.0001890295	-0.002931749	0.08381451	-0.05418908	0.0004510155	-0.003533847	-0.01550468	-0.047877
	0.05596231	-0.03381398	0.0004510155	-0.003533847	-0.0590804	-0.1049197	0.0004607067	-0.002896154
	0.0002352985	-0.002509724	-0.01550468	-0.047877	0.0004607067	-0.002896154	0.08350098	-0.05438354
4.4e+08	-0.06441366	-0.09940923	-0.0001969312	-0.003017378	0.05457443	-0.03217998	-9.772935e-05	-0.002596666
	-0.0001969312	-0.003017378	0.07461359	-0.06716644	-3.06169e-06	-0.003630938	-0.02698559	-0.03784222
	0.05457443	-0.03217998	-3.06169e-06	-0.003630938	-0.06356554	-0.09931137	0.0001147144	-0.003042572
	-9.772935e-05	-0.002596666	-0.02698559	-0.03784222	0.0001147144	-0.003042572	0.07410727	-0.06725686
4.5e+08	-0.06736909	-0.09352978	-0.0006132324	-0.003056527	0.05432556	-0.03046714	-0.0004581094	-0.002643392
	-0.0006132324	-0.003056527	0.06220327	-0.07770535	-0.0004779916	-0.003680306	-0.035866	-0.02525422
	0.05432556	-0.03046714	-0.0004779916	-0.003680306	-0.06640054	-0.09346901	-0.0002779449	-0.003159717
	-0.0004581094	-0.002643392	-0.035866	-0.02525422	-0.0002779449	-0.003159717	0.06152747	-0.0776442
4.6e+08	-0.06869771	-0.08782954	-0.001055558	-0.003038217	0.05519151	-0.02903434	-0.0008425295	-0.002640808
	-0.001055558	-0.003038217	0.04724901	-0.08499321	-0.0009732053	-0.003676484	-0.04158754	-0.01078703
	0.05519151	-0.02903434	-0.0009732053	-0.003676484	-0.0676104	-0.08783851	-0.0007195193	-0.003231191
	-0.0008425295	-0.002640808	-0.04158754	-0.01078703	-0.0007195193	-0.003231191	0.04643866	-0.08473917
4.7e+08	-0.06853284	-0.08273018	-0.001515582	-0.002951458	0.0570463	-0.02822084	-0.001244311	-0.002579563
	-0.001515582	-0.002951458	0.03062489	-0.0884035	-0.001486343	-0.003611665	-0.04376404	0.004765419
	0.0570463	-0.02822084	-0.001486343	-0.003611665	-0.06733715	-0.08284168	-0.001205856	-0.003238493
	-0.001244311	-0.002579563	-0.04376404	0.004765419	-0.001205856	-0.003238493	0.02972563	-0.08792298
4.8e+08	-0.06711365	-0.07860314	-0.001980645	-0.002786907	0.05967101	-0.02831894	-0.001653306	-0.002451228
	-0.001980645	-0.002786907	0.01336035	-0.08754708	-0.002012028	-0.003476477	-0.04220683	0.02053146
	0.05967101	-0.02831894	-0.002012028	-0.003476477	-0.06582926	-0.07884646	-0.001725954	-0.003163187
	-0.001653306	-0.002451228	-0.04220683	0.02053146	-0.001725954	-0.003163187	0.01242646	-0.08681912
4.9e+08	-0.0647704	-0.07574067	-0.002434289	-0.002538506	0.06276963	-0.02954815	-0.002056001	-0.002249738
	-0.002434289	-0.002538506	-0.003425053	-0.0823138	-0.002540572	-0.003261461	-0.03694119	0.03561101
