!$
! Info: Touchstone file created by Circ.  Input file=Intel_C2M_200G_10p5in_202208016_staggered.circ
!$
# Hz S RI R 50
0	0.0328732	5.106678e-24	9.944674e-05	1.507295e-22	0.0001413935	3.408747e-22	9.938318e-05	1.504822e-22
	9.944674e-05	1.507295e-22	0.03288594	5.266416e-24	9.943073e-05	1.506329e-22	0.0001410193	3.378546e-22
	0.0001414495	3.409979e-22	9.943071e-05	1.506346e-22	0.03286819	4.857657e-24	9.939655e-05	1.503901e-22
	9.938317e-05	1.504839e-22	0.0001410753	3.379775e-22	9.939655e-05	1.503901e-22	0.03288394	4.98072e-24
1e+07	0.0406372	0.01059614	9.54907e-05	7.217369e-06	0.002383753	0.007729078	1.501591e-05	7.119775e-05
	9.54907e-05	7.217369e-06	0.04048558	0.01072929	9.057746e-05	5.709545e-05	0.002846353	0.007815574
	0.002383753	0.007729078	9.057746e-05	5.709545e-05	0.04140914	0.01035216	5.229445e-05	3.815095e-05
	1.501591e-05	7.119775e-05	0.002846353	0.007815574	5.229445e-05	3.815095e-05	0.04014702	0.01051568
2e+07	0.04919579	0.01418645	7.4509e-05	1.998494e-05	0.00613796	0.01399208	6.331348e-05	7.134803e-05
	7.4509e-05	1.998494e-05	0.04924703	0.0144406	0.0001128209	3.40952e-05	0.006558254	0.01397658
	0.006137966	0.01399207	0.0001128209	3.409521e-05	0.0495087	0.01357132	5.534313e-05	1.184566e-05
	6.331348e-05	7.134804e-05	0.006558261	0.01397657	5.534313e-05	1.184566e-05	0.04870752	0.01426409
3e+07	0.05632024	0.01392986	6.686952e-05	2.955625e-05	0.01156354	0.01887503	9.888783e-05	5.760156e-05
	6.686952e-05	2.955625e-05	0.05652804	0.01417195	0.0001292678	1.600561e-05	0.01194203	0.01883027
	0.01156353	0.01887507	0.0001292678	1.600561e-05	0.05628787	0.01330281	5.697274e-05	-4.49421e-07
	9.888783e-05	5.760155e-05	0.01194201	0.01883032	5.697274e-05	-4.494233e-07	0.05586004	0.01411853
4e+07	0.06208313	0.01169997	5.999138e-05	3.127064e-05	0.01821748	0.02183409	0.0001245754	3.557626e-05
	5.999138e-05	3.127064e-05	0.06241819	0.01188173	0.0001395982	-5.201656e-06	0.01854754	0.02177589
	0.01821749	0.02183411	0.0001395982	-5.201658e-06	0.06179387	0.01117036	5.635796e-05	-1.097226e-05
	0.0001245754	3.557626e-05	0.01854754	0.02177591	5.635796e-05	-1.097226e-05	0.06168485	0.0119773
5e+07	0.06661225	0.008278763	5.261269e-05	3.002833e-05	0.02549111	0.02264488	0.0001413299	8.392803e-06
	5.261269e-05	3.002833e-05	0.0670493	0.008368052	0.0001451211	-3.255353e-05	0.02576431	0.02258416
	0.02549111	0.02264489	0.0001451211	-3.255353e-05	0.0661411	0.007904863	5.391825e-05	-2.190433e-05
	0.0001413299	8.392803e-06	0.02576432	0.02258416	5.391825e-05	-2.190433e-05	0.06630025	0.008620718
6e+07	0.06998347	0.004124257	4.425108e-05	2.801904e-05	0.03274792	0.02121662	0.000149243	-2.170345e-05
	4.425108e-05	2.801904e-05	0.0704973	0.004096154	0.0001426236	-6.037324e-05	0.03295569	0.02116476
	0.03274793	0.0212166	0.0001426236	-6.037324e-05	0.06939981	0.003935604	4.873985e-05	-3.158778e-05
	0.000149243	-2.170345e-05	0.03295569	0.02116474	4.873985e-05	-3.158778e-05	0.06977548	0.004501867
7e+07	0.07230373	-0.0004123054	4.588467e-05	1.514167e-05	0.03934546	0.01763842	0.0001480925	-5.271386e-05
	4.588467e-05	1.514167e-05	0.07286711	-0.0005781927	0.0001318414	-8.683605e-05	0.03948027	0.01760874
	0.03934546	0.01763842	0.0001318414	-8.683605e-05	0.07167093	-0.0004069777	4.124093e-05	-3.935041e-05
	0.0001480925	-5.271387e-05	0.03948027	0.01760874	4.124093e-05	-3.935041e-05	0.0722091	-3.284768e-05
8e+07	0.07373026	-0.005084679	4.550902e-05	-1.057448e-07	0.04469014	0.01217314	0.0001386298	-8.268726e-05
	4.550902e-05	-1.057447e-07	0.07431224	-0.005405108	0.0001142114	-0.0001099231	0.04474641	0.01218127
	0.04469014	0.01217315	0.0001142114	-0.0001099231	0.07310531	-0.004891927	3.215043e-05	-4.476264e-05
	0.0001386298	-8.268726e-05	0.04474641	0.01218127	3.215043e-05	-4.476264e-05	0.07374876	-0.004739932
9e+07	0.07444151	-0.009749958	4.030128e-05	-1.343181e-05	0.04828142	0.00523668	0.0001212546	-0.0001102018
	4.030128e-05	-1.343181e-05	0.07500522	-0.01023851	9.080909e-05	-0.0001282797	0.04825685	0.005300528
	0.04828143	0.005236681	9.080909e-05	-0.0001282797	0.07387585	-0.009386869	2.215559e-05	-4.755559e-05
	0.0001212546	-0.0001102018	0.04825686	0.005300529	2.215559e-05	-4.755559e-05	0.07456243	-0.009476621
1e+08	0.07467315	-0.0143327	2.976439e-05	-2.395757e-05	0.04974707	-0.002638288	9.345618e-05	-0.0001351838
	2.976439e-05	-2.395757e-05	0.07516352	-0.0150071	6.070125e-05	-0.0001413545	0.04964462	-0.002498008
	0.04974707	-0.002638289	6.070125e-05	-0.0001413545	0.07423253	-0.01381829	1.652443e-05	-4.520085e-05
	9.345618e-05	-0.0001351838	0.04964462	-0.002498008	1.652443e-05	-4.520085e-05	0.07487856	-0.01416772
1.1e+08	0.07436845	-0.01926098	1.810148e-05	-2.49533e-05	0.04884408	-0.01081102	5.920546e-05	-0.0001402442
	1.810148e-05	-2.49533e-05	0.07471126	-0.02004826	4.653243e-05	-0.0001325072	0.04867641	-0.01058087
	0.04884407	-0.01081102	4.653243e-05	-0.0001325072	0.07406836	-0.01879079	1.369503e-05	-4.049277e-05
	5.920546e-05	-0.0001402442	0.04867641	-0.01058087	1.369503e-05	-4.049277e-05	0.07458915	-0.01929654
1.2e+08	0.07331943	-0.02412865	1.045518e-05	-2.437913e-05	0.0455942	-0.0185601	3.636371e-05	-0.0001375924
	1.045518e-05	-2.437913e-05	0.073524	-0.02498729	3.500888e-05	-0.0001236617	0.0453682	-0.01822829
	0.0455942	-0.0185601	3.500888e-05	-0.0001236617	0.07306872	-0.02367675	1.049668e-05	-3.710916e-05
	3.636371e-05	-0.0001375924	0.04536819	-0.01822829	1.049668e-05	-3.710916e-05	0.0734815	-0.02429869
1.3e+08	0.07166068	-0.02890774	3.934823e-06	-2.388379e-05	0.04017447	-0.02526105	2.631518e-05	-0.0001307433
	3.934823e-06	-2.388379e-05	0.07172641	-0.02980936	2.380836e-05	-0.0001149706	0.03990059	-0.02481478
	0.04017446	-0.02526105	2.380836e-05	-0.0001149706	0.07144137	-0.02845891	6.965222e-06	-3.43816e-05
	2.631518e-05	-0.0001307433	0.03990059	-0.02481478	6.965222e-06	-3.43816e-05	0.07174413	-0.02917293
1.4e+08	0.06939265	-0.03359013	-1.804326e-06	-2.316422e-05	0.03292573	-0.0303422	1.57475e-05	-0.0001237543
	-1.804326e-06	-2.316422e-05	0.06932012	-0.03450827	1.328869e-05	-0.0001060847	0.032618	-0.02977001
	0.03292573	-0.0303422	1.328869e-05	-0.0001060847	0.0691938	-0.03314534	3.69626e-06	-3.163617e-05
	1.57475e-05	-0.0001237543	0.032618	-0.02977001	3.69626e-06	-3.163617e-05	0.06938243	-0.03392946
1.5e+08	0.06647197	-0.03814239	-6.944191e-06	-2.165826e-05	0.02433325	-0.03333606	5.081962e-06	-0.0001161809
	-6.944191e-06	-2.165826e-05	0.06626466	-0.03905132	3.585147e-06	-9.685957e-05	0.02400909	-0.03262901
	0.02433325	-0.03333606	3.585147e-06	-9.685957e-05	0.06627793	-0.037703	6.585852e-07	-2.885087e-05
	5.081962e-06	-0.0001161809	0.02400909	-0.03262901	6.585852e-07	-2.885087e-05	0.06634906	-0.03853534
1.6e+08	0.06283523	-0.04249053	-1.158767e-05	-1.947726e-05	0.01499573	-0.03391663	-5.364061e-06	-0.0001077422
	-1.158767e-05	-1.947726e-05	0.06250039	-0.04336544	-5.229435e-06	-8.720512e-05	0.01467555	-0.03306956
	0.01499573	-0.03391663	-5.229435e-06	-8.720512e-05	0.06262822	-0.04205179	-2.179995e-06	-2.598206e-05
	-5.364061e-06	-0.0001077422	0.01467555	-0.03306955	-2.179995e-06	-2.598206e-05	0.06258056	-0.04290992
1.7e+08	0.05842035	-0.04651299	-1.578378e-05	-1.665685e-05	0.005584969	-0.03192623	-1.529037e-05	-9.825399e-05
	-1.578378e-05	-1.665685e-05	0.05796932	-0.04732999	-1.340661e-05	-7.713738e-05	0.005291321	-0.03093877
	0.005584969	-0.03192623	-1.340661e-05	-7.713738e-05	0.05818528	-0.04606213	-4.916414e-06	-2.297832e-05
	-1.529037e-05	-9.825399e-05	0.005291322	-0.03093877	-4.916414e-06	-2.297832e-05	0.05802059	-0.04692326
1.8e+08	0.05318849	-0.05004012	-1.952206e-05	-1.3198e-05	-0.003200586	-0.02739085	-2.43817e-05	-8.761492e-05
	-1.952206e-05	-1.3198e-05	0.05263697	-0.05077739	-2.075912e-05	-6.639511e-05	-0.003444202	-0.02626841
	-0.003200585	-0.02739085	-2.075912e-05	-6.639511e-05	0.05291692	-0.04955831	-7.606952e-06	-1.973701e-05
	-2.43817e-05	-8.761492e-05	-0.003444202	-0.02626841	-7.606952e-06	-1.973701e-05	0.05264059	-0.05039905
1.9e+08	0.04714496	-0.05286052	-2.273626e-05	-9.096394e-06	-0.01068507	-0.0205231	-3.230517e-05	-7.581506e-05
	-2.273626e-05	-9.096394e-06	0.04651294	-0.05349907	-2.682041e-05	-5.48799e-05	-0.01085587	-0.01927735
	-0.01068507	-0.0205231	-2.682041e-05	-5.48799e-05	0.04683715	-0.05232619	-1.001859e-05	-1.613048e-05
	-3.230517e-05	-7.581506e-05	-0.01085587	-0.01927735	-1.001859e-05	-1.613048e-05	0.04645899	-0.0531235
2e+08	0.0403585	-0.05473529	-2.531715e-05	-4.360869e-06	-0.01626425	-0.01171133	-3.872228e-05	-6.293673e-05
	-2.531715e-05	-4.360869e-06	0.03966997	-0.0552599	-3.137179e-05	-4.271291e-05	-0.01634187	-0.01036032
	-0.01626425	-0.01171133	-3.137179e-05	-4.271291e-05	0.0400231	-0.05412824	-1.205032e-05	-1.214517e-05
	-3.872228e-05	-6.293673e-05	-0.01634187	-0.01036032	-1.205032e-05	-1.214517e-05	0.03955778	-0.05486037
2.1e+08	0.03297489	-0.05542014	-2.712232e-05	9.671293e-07	-0.01945016	-0.001496703	-4.330602e-05	-4.915977e-05
	-2.712232e-05	9.671293e-07	0.03225731	-0.05582034	-3.420699e-05	-3.007804e-05	-0.01941867	-6.427875e-05
	-0.01945016	-0.001496703	-3.420699e-05	-3.007804e-05	0.03262829	-0.05472365	-1.358779e-05	-7.798868e-06
	-4.330602e-05	-4.915977e-05	-0.01941867	-6.427841e-05	-1.358779e-05	-7.798868e-06	0.03209547	-0.05537138
2.2e+08	0.02522249	-0.05469005	-2.799307e-05	6.796699e-06	-0.0199091	0.009461374	-4.576495e-05	-3.476193e-05
	-2.799307e-05	6.796699e-06	0.02450592	-0.05496111	-3.515361e-05	-1.723269e-05	-0.01975867	0.01094661
	-0.0199091	0.009461374	-3.515361e-05	-1.723269e-05	0.02488681	-0.05389412	-1.451293e-05	-3.145787e-06
	-4.576495e-05	-3.476193e-05	-0.01975867	0.01094661	-1.451293e-05	-3.145787e-06	0.02431102	-0.05444207
2.3e+08	0.01740995	-0.05236823	-2.757445e-05	1.27178e-05	-0.01748959	0.02042906	-4.583308e-05	-2.001971e-05
	-2.757445e-05	1.27178e-05	0.01672594	-0.05251198	-3.405884e-05	-4.403652e-06	-0.01721797	0.02193544
	-0.01748959	0.02042906	-3.405884e-05	-4.403652e-06	0.01711004	-0.0514704	-1.471807e-05	1.7174e-06
	-4.583308e-05	-2.001971e-05	-0.01721797	0.02193544	-1.471807e-05	1.7174e-06	0.01651995	-0.05190851
2.4e+08	0.009914298	-0.04835316	-2.607072e-05	1.893769e-05	-0.01223738	0.03064785	-4.335312e-05	-5.484899e-06
	-2.607072e-05	1.893769e-05	0.009294314	-0.0483786	-3.086606e-05	7.934564e-06	-0.01185088	0.03214274
	-0.01223738	0.03064785	-3.086606e-05	7.934564e-06	0.009675951	-0.04735898	-1.41115e-05	6.669199e-06
	-4.335312e-05	-5.484899e-06	-0.01185088	0.03214274	-1.41115e-05	6.669199e-06	0.00910332	-0.04768378
2.5e+08	0.00316037	-0.04264223	-2.333019e-05	2.524538e-05	-0.004397312	0.03938793	-3.829412e-05	8.333595e-06
	-2.333019e-05	2.524538e-05	0.002634188	-0.04256571	-2.562693e-05	1.937624e-05	-0.003911107	0.04084009
	-0.004397311	0.03938793	-2.562693e-05	1.937624e-05	0.003006983	-0.04156516	-1.263092e-05	1.155282e-05
	-3.829412e-05	8.333595e-06	-0.003911107	0.04084009	-1.263092e-05	1.155282e-05	0.002485068	-0.04178086
2.6e+08	-0.002407933	-0.03534906	-1.923799e-05	3.135168e-05	0.005599001	0.04600035	-3.074032e-05	2.091446e-05
	-1.923799e-05	3.135168e-05	-0.002814143	-0.03519404	-1.848434e-05	2.95252e-05	0.006161232	0.04738246
	0.005599001	0.04600035	-1.848434e-05	2.95252e-05	-0.002456688	-0.03420931	-1.025033e-05	1.61918e-05
	-3.074032e-05	2.091446e-05	0.006161232	0.04738246	-1.025033e-05	1.61918e-05	-0.00289505	-0.03432843
2.7e+08	-0.006361123	-0.02671204	-1.37497e-05	3.693108e-05	0.01716004	0.0499637	-2.089459e-05	3.174569e-05
	-1.37497e-05	3.693108e-05	-0.006626539	-0.02650832	-9.669291e-06	3.801136e-05	0.01776717	0.0512546
	0.01716004	0.0499637	-9.669291e-06	3.801136e-05	-0.006291525	-0.02553535	-6.982726e-06	2.039955e-05
	-2.089459e-05	3.174569e-05	0.01776717	0.0512546	-6.982726e-06	2.039955e-05	-0.006616077	-0.02557881
2.8e+08	-0.008320531	-0.01709344	-6.899533e-06	4.163503e-05	0.02957211	0.05092357	-9.075801e-06	4.034996e-05
	-6.899533e-06	4.163503e-05	-0.008431317	-0.01687588	5.076698e-07	4.451081e-05	0.03018732	0.05211028
	0.02957211	0.05092357	5.076698e-07	4.451081e-05	-0.008126413	-0.0159091	-2.882689e-06	2.398643e-05
	-9.075801e-06	4.034996e-05	0.03018732	0.05211028	-2.882689e-06	2.398643e-05	-0.008311651	-0.0159057
2.9e+08	-0.007995106	-0.006966332	1.196419e-06	4.510989e-05	0.04204692	0.04871967	4.289808e-06	4.631072e-05
	1.196419e-06	4.510989e-05	-0.007945661	-0.006773223	1.1667e-05	4.876046e-05	0.04262981	0.04979891
	0.04204692	0.04871967	1.1667e-05	4.876046e-05	-0.00767781	-0.005805221	1.956041e-06	2.676954e-05
	4.289808e-06	4.631072e-05	0.04262981	0.04979891	1.956041e-06	2.676954e-05	-0.007705125	-0.005790615
3e+08	-0.005213828	0.003107962	1.033857e-05	4.701234e-05	0.05377457	0.04339915	1.868331e-05	4.929381e-05
	1.033857e-05	4.701234e-05	-0.005007591	0.003236934	2.337514e-05	5.05721e-05	0.05428375	0.04437814
	0.05377457	0.04339915	2.337514e-05	5.05721e-05	-0.00478284	0.004215765	7.401341e-06	2.857841e-05
	1.868331e-05	4.929381e-05	0.05428375	0.04437814	7.401341e-06	2.857841e-05	-0.004642282	0.004200752
3.1e+08	4.818683e-05	0.01251277	2.02354e-05	4.702501e-05	0.06397852	0.03521623	3.350767e-05	4.906685e-05
	2.02354e-05	4.702501e-05	0.0003983958	0.0125386	3.516351e-05	4.983988e-05	0.06437435	0.03611296
	0.06397852	0.03521623	3.516351e-05	4.983988e-05	0.0005759705	0.01353947	1.328312e-05	2.926093e-05
	3.350767e-05	4.906685e-05	0.06437435	0.03611296	1.328312e-05	2.926093e-05	0.000884295	0.0134509
3.2e+08	0.007653117	0.02061537	3.051124e-05	4.487661e-05	0.0719679	0.02461654	4.810644e-05	4.551543e-05
	3.051124e-05	4.487661e-05	0.008125293	0.02050184	4.653681e-05	4.654669e-05	0.07221519	0.02545928
	0.0719679	0.02461654	4.653681e-05	4.654669e-05	0.008253256	0.02153802	1.939719e-05	2.868897e-05
	4.810644e-05	4.551543e-05	0.07221519	0.02545928	1.939719e-05	2.868897e-05	0.008718241	0.02133126
3.3e+08	0.01729448	0.02681212	4.070208e-05	4.036494e-05	0.07718336	0.01220862	6.178738e-05	3.865689e-05
	4.070208e-05	4.036494e-05	0.01785796	0.02652796	5.699537e-05	4.076627e-05	0.077254	0.01303478
	0.07718336	0.01220862	5.699537e-05	4.076627e-05	0.01793728	0.02761373	2.550199e-05	2.676626e-05
	6.178738e-05	3.865689e-05	0.077254	0.01303478	2.550199e-05	2.676626e-05	0.01853646	0.02724611
3.4e+08	0.0285038	0.03057413	5.026762e-05	3.338208e-05	0.07923473	-0.001275114	7.384352e-05	2.865376e-05
	5.026762e-05	3.338208e-05	0.02912037	0.03009485	6.604251e-05	3.266752e-05	0.07911002	-0.0004207378
	0.07923473	-0.001275114	6.604251e-05	3.266752e-05	0.02915572	0.03124564	3.132443e-05	2.343542e-05
	7.384352e-05	2.865376e-05	0.07911002	-0.0004207379	3.132443e-05	2.343542e-05	0.02985545	0.03067928
3.5e+08	0.04067064	0.03149173	5.860421e-05	2.394399e-05	0.07792539	-0.01502517	8.358749e-05	1.581628e-05
	5.860421e-05	2.394399e-05	0.0412958	0.03080146	7.320792e-05	2.251326e-05	0.07759788	-0.01409276
	0.07792539	-0.01502517	7.320792e-05	2.251326e-05	0.04129626	0.03203179	3.655923e-05	1.868968e-05
	8.358749e-05	1.581628e-05	0.07759788	-0.01409276	3.655923e-05	1.868968e-05	0.04205262	0.03123641
3.6e+08	0.05307383	0.02931268	6.507473e-05	1.220999e-05	0.07326533	-0.02820598	9.037593e-05	6.121288e-07
	6.507473e-05	1.220999e-05	0.05365857	0.02840571	7.805881e-05	1.065603e-05	0.07274022	-0.02714359
	0.07326533	-0.02820598	7.805881e-05	1.065603e-05	0.05363766	0.02972902	4.08775e-05	1.258584e-05
	9.037593e-05	6.121288e-07	0.07274022	-0.02714359	4.08775e-05	1.258584e-05	0.05439798	0.02868474
3.7e+08	0.06492363	0.02397294	6.904317e-05	-1.484556e-06	0.06546989	-0.04000829	9.364897e-05	-1.633947e-05
	6.904317e-05	-1.484556e-06	0.0654165	0.02285508	8.021422e-05	-2.454264e-06	0.0647656	-0.03876492
	0.06546989	-0.04000829	8.021422e-05	-2.454264e-06	0.06539251	0.02428157	4.393889e-05	5.252041e-06
	9.364897e-05	-1.633947e-05	0.0647656	-0.03876492	4.393889e-05	5.252041e-06	0.06609765	0.02298155
3.8e+08	0.07541167	0.01561438	6.992012e-05	-1.663038e-05	0.05494603	-0.04969745	9.29669e-05	-3.427813e-05
	6.992012e-05	-1.663038e-05	0.07576132	0.01430402	7.936804e-05	-1.628439e-05	0.05409398	-0.04822661
	0.05494603	-0.04969745	7.936804e-05	-1.628439e-05	0.07575638	0.0158387	4.540556e-05	-3.092844e-06
	9.29669e-05	-3.427813e-05	0.05409398	-0.04822661	4.540556e-05	-3.092844e-06	0.07634385	0.01429127
3.9e+08	0.08376512	0.004590807	6.721765e-05	-3.253549e-05	0.04226848	-0.056658	8.804613e-05	-5.232612e-05
	6.721765e-05	-3.253549e-05	0.08392336	0.003119522	7.530702e-05	-3.021974e-05	0.04131202	-0.05492099
	0.04226848	-0.056658	7.530702e-05	-3.021974e-05	0.0839629	0.004761453	4.496407e-05	-1.214096e-05
	8.804613e-05	-5.232612e-05	0.04131202	-0.05492099	4.496407e-05	-1.214096e-05	0.08437074	0.002991599
4e+08	0.08930466	-0.008541825	6.060485e-05	-4.834571e-05	0.02814473	-0.06042934	7.879854e-05	-6.950858e-05
	6.060485e-05	-4.834571e-05	0.08922982	-0.01012948	6.793334e-05	-4.35749e-05	0.02713708	-0.05839831
	0.02814473	-0.06042934	6.793334e-05	-4.35749e-05	0.08933978	-0.008389967	4.235426e-05	-2.148128e-05
	7.879854e-05	-6.950858e-05	0.02713708	-0.05839831	4.235426e-05	-2.148128e-05	0.08951112	-0.01034006
4.1e+08	0.09149785	-0.02305086	4.995957e-05	-6.30863e-05	0.01337498	-0.0607324	6.535614e-05	-8.480782e-05
	4.995957e-05	-6.30863e-05	0.09115856	-0.02469836	5.728749e-05	-5.561448e-05	0.01237642	-0.05839299
	0.01337498	-0.0607324	5.728749e-05	-5.561448e-05	0.09136267	-0.0228792	3.739615e-05	-3.061536e-05
	6.535614e-05	-8.480782e-05	0.01237642	-0.05839299	3.739615e-05	-3.061536e-05	0.09125067	-0.02495098
4.2e+08	0.09000504	-0.03806476	3.541467e-05	-7.57085e-05	-0.001193797	-0.05748665	4.810291e-05	-9.720729e-05
	3.541467e-05	-7.57085e-05	0.0893839	-0.03970584	4.357174e-05	-6.558018e-05	-0.002119412	-0.05483963
	-0.001193797	-0.05748665	4.357174e-05	-6.558018e-05	0.08970114	-0.0378333	3.002625e-05	-3.896261e-05
	4.810291e-05	-9.720729e-05	-0.002119412	-0.05483963	3.002625e-05	-3.896261e-05	0.08927393	-0.03995409
4.3e+08	0.08471768	-0.05262691	1.738821e-05	-8.516461e-05	-0.01471545	-0.05081483	2.767559e-05	-0.0001057595
	1.738821e-05	-8.516461e-05	0.08381451	-0.05418908	2.716529e-05	-7.271684e-05	-0.01550468	-0.047877
	-0.01471545	-0.05081483	2.716529e-05	-7.271684e-05	0.08425573	-0.05229655	2.032815e-05	-4.589219e-05
	2.767559e-05	-0.0001057595	-0.01550468	-0.047877	2.032815e-05	-4.589219e-05	0.08350098	-0.05438354
4.4e+08	0.07577934	-0.06575724	-3.406496e-06	-9.049069e-05	-0.02639176	-0.04103839	4.954588e-06	-0.0001096545
	-3.406496e-06	-9.049069e-05	0.07461359	-0.06716644	8.641361e-06	-7.632488e-05	-0.02698559	-0.03784222
	-0.02639176	-0.04103839	8.641361e-06	-7.632488e-05	0.07517906	-0.06529112	8.558255e-06	-5.075895e-05
	4.954588e-06	-0.0001096545	-0.02698559	-0.03784222	8.558255e-06	-5.075895e-05	0.07410727	-0.06725686
4.5e+08	0.06359158	-0.07651908	-2.598324e-05	-9.088992e-05	-0.03551827	-0.02866181	-1.895535e-05	-0.0001082864
	-2.598324e-05	-9.088992e-05	0.06220327	-0.07770535	-1.123225e-05	-7.580996e-05	-0.035866	-0.02525422
	-0.03551827	-0.02866181	-1.123225e-05	-7.580996e-05	0.06288115	-0.07588528	-4.843909e-06	-5.295539e-05
	-1.895535e-05	-0.0001082864	-0.035866	-0.02525422	-4.843909e-06	-5.295539e-05	0.06152747	-0.0776442
4.6e+08	0.04880004	-0.08408964	-4.912143e-05	-8.581759e-05	-0.04152473	-0.01434694	-4.27833e-05	-0.0001013195
	-4.912143e-05	-8.581759e-05	0.04724901	-0.08499321	-3.151377e-05	-7.073828e-05	-0.04158754	-0.01078703
	-0.04152473	-0.01434694	-3.151377e-05	-7.073828e-05	0.0480148	-0.08326331	-1.924845e-05	-5.19693e-05
	-4.27833e-05	-0.0001013195	-0.04158754	-0.01078703	-1.924845e-05	-5.19693e-05	0.04643866	-0.08473917
4.7e+08	0.03226183	-0.08782624	-7.14407e-05	-7.505031e-05	-0.04401039	0.001121414	-6.516606e-05	-8.873749e-05
	-7.14407e-05	-7.505031e-05	0.03062489	-0.0884035	-5.110818e-05	-6.08986e-05	-0.04376404	0.004765419
	-0.04401039	0.001121414	-5.110818e-05	-6.08986e-05	0.03144326	-0.08678999	-3.386021e-05	-4.744348e-05
	-6.516606e-05	-8.873749e-05	-0.04376404	0.004765419	-3.386021e-05	-4.744348e-05	0.02972563	-0.08792298
4.8e+08	0.01499413	-0.0873185	-9.148764e-05	-5.873447e-05	-0.04276982	0.01687705	-8.472166e-05	-7.087432e-05
	-9.148764e-05	-5.873447e-05	0.01336035	-0.08754708	-6.883513e-05	-4.635571e-05	-0.04220683	0.02053146
