!$
! Info: Touchstone file created by Circ.  Input file=Intel_C2M_200G_10p5in_202208016_staggered.circ
!$
# Hz S RI R 50
0	0.03288594	5.266416e-24	0.9669167	-8.955107e-24	0.0001410193	3.378546e-22	-0.0002701193	3.308007e-20
	0.9669167	-8.951491e-24	0.03343482	9.374534e-24	-0.000270175	3.30869e-20	0.0003613039	1.266472e-21
	0.0001410753	3.379775e-22	-0.0002703091	3.310331e-20	0.03288394	4.98072e-24	0.966917	-9.154205e-24
	-0.0002702533	3.309649e-20	0.0003613681	1.26737e-21	0.966917	-9.157828e-24	0.03343625	9.609003e-24
1e+07	0.04048558	0.01072929	0.9497818	-0.144785	0.002846353	0.007815574	-0.001757877	-0.0008317598
	0.9497818	-0.144785	0.04114928	0.01032224	-0.001758412	-0.0008311931	0.002610132	0.007900466
	0.002846353	0.007815574	-0.001758412	-0.0008311931	0.04014702	0.01051568	0.9501345	-0.1445486
	-0.001757877	-0.0008317598	0.002610132	0.007900466	0.9501345	-0.1445486	0.04079401	0.01012112
2e+07	0.04924703	0.0144406	0.9124235	-0.2795528	0.006558254	0.01397658	-0.002315682	-0.0007082781
	0.9124235	-0.2795528	0.05180058	0.01300553	-0.002316278	-0.0007058584	0.005626813	0.01444384
	0.006558261	0.01397657	-0.00231629	-0.0007059663	0.04870752	0.01426409	0.9130087	-0.2793539
	-0.002315692	-0.0007083799	0.005626905	0.01444372	0.9130087	-0.2793539	0.05121512	0.0128938
3e+07	0.05652804	0.01417195	0.8585782	-0.4047717	0.01194203	0.01883027	-0.002793593	-0.0004114703
	0.8585781	-0.4047717	0.06123424	0.01048807	-0.002792919	-0.0004067267	0.01010319	0.01993001
	0.01194201	0.01883032	-0.002792961	-0.0004067168	0.05586004	0.01411853	0.8593169	-0.404707
	-0.002793607	-0.0004114724	0.01010316	0.01992998	0.8593169	-0.404707	0.06052776	0.01056159
4e+07	0.06241819	0.01188173	0.7889233	-0.5199463	0.01854754	0.02177589	-0.00312468	5.402182e-05
	0.7889233	-0.5199463	0.0696082	0.004920613	-0.003121083	6.046483e-05	0.01561353	0.02406716
	0.01854754	0.02177591	-0.003121087	6.047052e-05	0.06168485	0.0119773	0.7897523	-0.520061
	-0.003124678	5.403554e-05	0.01561353	0.02406716	0.7897523	-0.520061	0.06886349	0.005215553
5e+07	0.0670493	0.008368052	0.7047885	-0.6234492	0.02576431	0.02258416	-0.003266626	0.0006188081
	0.7047885	-0.6234492	0.07651213	-0.003159488	-0.003259009	0.0006253429	0.02177837	0.02663533
	0.02576432	0.02258416	-0.003259006	0.0006253418	0.06630025	0.008620718	0.705648	-0.6237675
	-0.003266623	0.0006188065	0.02177837	0.02663534	0.705648	-0.6237675	0.07580752	-0.002639177
6e+07	0.0704973	0.004096154	0.6078437	-0.7136543	0.03295569	0.02116476	-0.003206009	0.001197469
	0.6078437	-0.7136543	0.08151113	-0.01317765	-0.003194152	0.001202066	0.02815216	0.02755422
	0.03295569	0.02116474	-0.00319415	0.001202064	0.06977548	0.004501867	0.6086755	-0.7141852
	-0.003206006	0.001197468	0.02815216	0.02755423	0.6086755	-0.7141852	0.08091558	-0.01245201
7e+07	0.07286711	-0.0005781927	0.4999976	-0.7891096	0.03948027	0.01760874	-0.002964316	0.001710223
	0.4999976	-0.7891096	0.08429301	-0.02454124	-0.002948973	0.001710698	0.03429214	0.02686775
	0.03948027	0.01760874	-0.002948952	0.001710632	0.0722091	-3.284768e-05	0.5007442	-0.7898478
	-0.002964314	0.00171022	0.03429214	0.02686775	0.5007442	-0.7898478	0.08386216	-0.0236487
8e+07	0.07431224	-0.005405108	0.3833435	-0.8485993	0.04474641	0.01218127	-0.002589994	0.002095367
	0.3833435	-0.8485993	0.0846655	-0.03664496	-0.002572969	0.00208998	0.03978823	0.02473547
	0.04474641	0.01218127	-0.002572969	0.002089982	0.07374876	-0.004739932	0.3839501	-0.8495297
	-0.002589994	0.00209537	0.03978823	0.02473547	0.3839501	-0.8495297	0.08444035	-0.03563689
9e+07	0.07500522	-0.01023851	0.2601072	-0.8911818	0.04825685	0.005300528	-0.002149096	0.002316801
	0.2601072	-0.8911818	0.08256916	-0.04887394	-0.002133026	0.00230465	0.04429337	0.02141947
	0.04825686	0.005300529	-0.00213302	0.002304657	0.07456243	-0.009476621	0.2605176	-0.8922761
	-0.002149092	0.00231681	0.04429337	0.02141947	0.2605176	-0.8922761	0.08257624	-0.04780935
1e+08	0.07516352	-0.0150071	0.1325166	-0.9162128	0.04964462	-0.002498008	-0.001714504	0.002370487
	0.1325166	-0.9162128	0.07814414	-0.06063005	-0.001702962	0.002351895	0.04754924	0.01725849
	0.04964462	-0.002498008	-0.001702962	0.002351894	0.07487856	-0.01416772	0.1326568	-0.9174342
	-0.001714504	0.002370486	0.04754924	0.01725849	0.1326568	-0.9174342	0.07841083	-0.05957715
1.1e+08	0.07471126	-0.02004826	0.003214835	-0.9228469	0.04867641	-0.01058087	-0.00133809	0.002265394
	0.003214835	-0.9228469	0.07140563	-0.07163252	-0.001331677	0.002243536	0.04937307	0.01266213
	0.04867641	-0.01058087	-0.001331677	0.002243535	0.07458915	-0.01929654	0.003069545	-0.9240487
	-0.00133809	0.002265393	0.04937307	0.01266213	0.003069545	-0.9240487	0.0718742	-0.07070292
1.2e+08	0.073524	-0.02498729	-0.1250451	-0.9115887	0.0453682	-0.01822829	-0.001107331	0.002035751
	-0.1250451	-0.9115887	0.06254773	-0.0809761	-0.001107455	0.002012538	0.04975741	0.008073617
	0.04536819	-0.01822829	-0.001107456	0.002012537	0.0734815	-0.02429869	-0.125429	-0.9127216
	-0.001107332	0.00203575	0.04975741	0.008073618	-0.125429	-0.9127216	0.06314068	-0.08019164
1.3e+08	0.07172641	-0.02980936	-0.2499978	-0.8828371	0.03990059	-0.02481478	-0.001061644	0.001762041
	-0.2499978	-0.8828371	0.05217004	-0.08822752	-0.001068422	0.001739966	0.04879538	0.003898268
	0.03990059	-0.02481478	-0.001068423	0.001739965	0.07174413	-0.02917293	-0.2505896	-0.883864
	-0.001061645	0.00176204	0.04879538	0.003898268	-0.2505896	-0.883864	0.05283037	-0.08759119
1.4e+08	0.06932012	-0.03450827	-0.3693515	-0.8372663	0.032618	-0.02977001	-0.001208069	0.001528692
	-0.3693515	-0.8372663	0.04087284	-0.09311275	-0.00122009	0.001509978	0.04668719	0.0005014559
	0.032618	-0.02977001	-0.001220091	0.001509977	0.06938243	-0.03392946	-0.3701182	-0.8381553
	-0.00120807	0.001528691	0.04668719	0.0005014562	-0.3701182	-0.8381553	0.04155391	-0.09261113
1.5e+08	0.06626466	-0.03905132	-0.4809098	-0.7758394	0.02400909	-0.03262901	-0.001521134	0.001417102
	-0.4809098	-0.7758394	0.02928321	-0.09551715	-0.001536705	0.001402589	0.04372638	-0.001823629
	0.02400909	-0.03262901	-0.001536706	0.001402589	0.06634906	-0.03853534	-0.4818177	-0.7765678
	-0.001521135	0.001417102	0.04372638	-0.001823629	-0.4818177	-0.7765678	0.02995076	-0.09512656
1.6e+08	0.06250039	-0.04336544	-0.5826127	-0.6997986	0.01467555	-0.03306956	-0.001946436	0.001494568
	-0.5826127	-0.6997986	0.01802381	-0.09548517	-0.001963996	0.001484369	0.04027616	-0.002878474
	0.01467555	-0.03306955	-0.001963997	0.00148437	0.06258056	-0.04290992	-0.5836299	-0.7003494
	-0.001946437	0.001494568	0.04027616	-0.002878474	-0.5836299	-0.7003494	0.01865589	-0.09517623
1.7e+08	0.05796932	-0.04732999	-0.6725822	-0.6106525	0.005291321	-0.03093877	-0.002407403	0.001805257
	-0.6725822	-0.6106525	0.007676796	-0.0932136	-0.002425829	0.001799134	0.03673999	-0.00257628
	0.005291322	-0.03093877	-0.00242583	0.001799134	0.05802059	-0.04692326	-0.6736748	-0.6110137
	-0.002407404	0.001805257	0.03673999	-0.00257628	-0.6736748	-0.6110137	0.008263983	-0.09295565
1.8e+08	0.05263697	-0.05077739	-0.7491532	-0.5101505	-0.003444202	-0.02626841	-0.002814709	0.002364257
	-0.7491532	-0.5101505	-0.001250509	-0.08903625	-0.002833341	0.002361715	0.03352938	-0.000948198
	-0.003444202	-0.02626841	-0.002833341	0.002361715	0.05264059	-0.05039905	-0.7502871	-0.5103153
	-0.002814709	0.002364257	0.03352938	-0.0009481978	-0.7502871	-0.5103153	-0.0007070361	-0.08880022
1.9e+08	0.04651294	-0.05349907	-0.8109066	-0.4002588	-0.01085587	-0.01927735	-0.003076511	0.003154819
	-0.8109066	-0.4002588	-0.008356669	-0.08339959	-0.003095057	0.003155498	0.03103016	0.001859316
	-0.01085587	-0.01927735	-0.003095057	0.003155498	0.04645899	-0.0531235	-0.8120498	-0.4002275
	-0.003076511	0.00315482	0.03103016	0.001859316	-0.8120498	-0.4002275	-0.007846115	-0.08316155
2e+08	0.03966997	-0.0552599	-0.8567045	-0.2831262	-0.01634187	-0.01036032	-0.003109741	0.004129251
	-0.8567045	-0.2831262	-0.01336928	-0.07683249	-0.003128247	0.004132994	0.02957045	0.005595638
	-0.01634187	-0.01036032	-0.003128247	0.004132994	0.03955778	-0.05486037	-0.8578237	-0.2829004
	-0.003109741	0.004129251	0.02957045	0.005595638	-0.8578237	-0.2829004	-0.01287512	-0.07657484
2.1e+08	0.03225731	-0.05582034	-0.8857165	-0.1610456	-0.01941867	-6.427875e-05	-0.002850042	0.005213558
	-0.8857165	-0.1610456	-0.01616288	-0.06991049	-0.00286818	0.005220594	0.02939457	0.009927266
	-0.01941867	-6.427841e-05	-0.00286818	0.005220595	0.03209547	-0.05537138	-0.8867803	-0.1606343
	-0.002850042	0.005213559	0.02939457	0.009927266	-0.8867803	-0.1606343	-0.01566365	-0.06962411
2.2e+08	0.02450592	-0.05496111	-0.8974396	-0.03640977	-0.01975867	0.01094661	-0.002258725	0.006314723
	-0.8974396	-0.03640977	-0.01676287	-0.06321655	-0.002276258	0.006325418	0.03064212	0.01446472
	-0.01975867	0.01094661	-0.002276258	0.006325418	0.02431102	-0.05444207	-0.8984186	-0.0358256
	-0.002258725	0.006314723	0.03064212	0.01446472	-0.8984186	-0.0358256	-0.01623683	-0.06290057
2.3e+08	0.01672594	-0.05251198	-0.8917147	0.0883342	-0.01721797	0.02193544	-0.001328843	0.007330339
	-0.8917147	0.0883342	-0.0153431	-0.05730181	-0.00134483	0.007345157	0.03333708	0.01879449
	-0.01721797	0.02193544	-0.00134483	0.007345157	0.01651995	-0.05190851	-0.8925825	0.08907532
	-0.001328843	0.007330339	0.03333708	0.01879449	-0.8925825	0.08907532	-0.01477002	-0.05696329
2.4e+08	0.009294314	-0.0483786	-0.8687369	0.2107436	-0.01185088	0.03214274	-8.507436e-05	0.00815917
	-0.8687369	0.2107436	-0.0122114	-0.05264834	-9.858671e-05	0.008178347	0.03738628	0.02251354
	-0.01185088	0.03214274	-9.858678e-05	0.008178347	0.00910332	-0.04768378	-0.8694706	0.2116199
	-8.507445e-05	0.00815917	0.03738628	0.02251354	-0.8694706	0.2116199	-0.0115749	-0.05230129
2.5e+08	0.002634188	-0.04256571	-0.8290517	0.3284275	-0.003911107	0.04084009	0.001416993	0.008711338
	-0.8290517	0.3284275	-0.007785183	-0.0496376	0.001407338	0.008734651	0.04258741	0.02526127
	-0.003911107	0.04084009	0.001407338	0.008734651	0.002485068	-0.04178086	-0.8296291	0.3294153
	0.001416992	0.008711338	0.04258741	0.02526127	-0.8296291	0.3294153	-0.00707469	-0.04930068
2.6e+08	-0.002814143	-0.03519404	-0.77354	0.4391061	0.006161232	0.04738246	0.003096627	0.008917756
	-0.77354	0.4391061	-0.002561366	-0.0485253	0.003092568	0.008944354	0.0486463	0.02674857
	0.006161232	0.04738246	0.003092568	0.008944354	-0.00289505	-0.03432843	-0.773946	0.4401764
	0.003096627	0.008917756	0.0486463	0.02674857	-0.773946	0.4401764	-0.001773279	-0.04822049
2.7e+08	-0.006626539	-0.02650832	-0.7034003	0.5406582	0.01776717	0.0512546	0.004856266	0.008736427
	-0.7034003	0.5406582	0.002921103	-0.04942754	0.004858978	0.008765025	0.05520166	0.02678053
	0.01776717	0.0512546	0.004858978	0.008765025	-0.006616077	-0.02557881	-0.7036245	0.5417825
	0.004856266	0.008736427	0.05520166	0.02678053	-0.7036245	0.5417825	0.003782933	-0.04917688
2.8e+08	-0.008431317	-0.01687588	-0.6201187	0.6311705	0.03018732	0.05211028	0.006590677	0.008156552
	-0.6201187	0.6311705	0.008119137	-0.05231597	0.006601287	0.008184997	0.06185468	0.02526982
	0.03018732	0.05211028	0.006601287	0.008184997	-0.008311651	-0.0159057	-0.6201552	0.6323179
	0.006590677	0.008156552	0.06185468	0.02526982	-0.6201552	0.6323179	0.009043778	-0.05213933
2.9e+08	-0.007945661	-0.006773223	-0.5254292	0.7089758	0.04262981	0.04979891	0.008197939	0.007198328
	-0.5254292	0.7089758	0.01252309	-0.05702344	0.008216629	0.007224383	0.0682007	0.02224236
	0.04262981	0.04979891	0.008216628	0.007224383	-0.007705125	-0.005790615	-0.5252775	0.710115
	0.008197939	0.007198328	0.0682007	0.02224236	-0.5252775	0.710115	0.01349376	-0.0569369
3e+08	-0.005007591	0.003236934	-0.4212678	0.7726848	0.05428375	0.04437814	0.009588297	0.00591093
	-0.4212678	0.7726848	0.01569196	-0.06326057	0.009614504	0.005932003	0.07386096	0.01783206
	0.05428375	0.04437814	0.009614504	0.005932003	-0.004642282	0.004200752	-0.4209321	0.7737845
	0.009588297	0.00591093	0.07386096	0.01783206	-0.4209321	0.7737845	0.01668737	-0.06327419
3.1e+08	0.0003983958	0.0125386	-0.3097272	0.8212097	0.06437435	0.03611296	0.01069297	0.004365531
	-0.3097272	0.8212097	0.01728065	-0.07063932	0.01072505	0.004378897	0.0785114	0.01226934
	0.06437435	0.03611296	0.01072505	0.004378897	0.000884295	0.0134509	-0.3092183	0.8222389
	0.01069297	0.004365531	0.0785114	0.01226934	-0.3092183	0.8222389	0.01827696	-0.07075628
3.2e+08	0.008125293	0.02050184	-0.1930091	0.8537733	0.07221519	0.02545928	0.01146932	0.002647098
	-0.1930091	0.8537733	0.01706039	-0.07870286	0.01150484	0.002650881	0.08190522	0.005859836
	0.07221519	0.02545928	0.01150484	0.002650881	0.008718241	0.02133126	-0.1923404	0.8547075
	0.01146932	0.002647098	0.08190522	0.005859836	-0.1923404	0.8547075	0.01803367	-0.07891917
3.3e+08	0.01785796	0.02652796	-0.07337096	0.8699172	0.077254	0.01303478	0.01190325	0.0008446244
	-0.07337096	0.8699172	0.01492999	-0.086959	0.01193911	0.0008384086	0.08388919	-0.001039789
	0.077254	0.01303478	0.01193911	0.0008384086	0.01853646	0.02724611	-0.07256261	0.8707325
	0.01190325	0.0008446244	0.08388919	-0.001039789	-0.07256261	0.8707325	0.01585874	-0.08726334
3.4e+08	0.02912037	0.03009485	0.04691119	0.8694972	0.07911002	-0.0004207378	0.01200808	-0.0009574753
	0.04691119	0.8694972	0.01091846	-0.09491415	0.01204087	-0.000974025	0.08441344	-0.008049557
	0.07911002	-0.0004207379	0.01204087	-0.0009740249	0.02985545	0.03067928	0.04783984	0.8701756
	0.01200808	-0.0009574753	0.08441344	-0.008049557	0.04783984	0.8701756	0.011785	-0.09528924
3.5e+08	0.0412958	0.03080146	0.1655945	0.8526745	0.07759788	-0.01409276	0.01182051	-0.002689747
	0.1655945	0.8526745	0.005177622	-0.1021063	0.01184691	-0.002715214	0.08353117	-0.01479564
	0.07759788	-0.01409276	0.01184691	-0.002715214	0.04205262	0.03123641	0.1666163	0.8531982
	0.01182051	-0.002689747	0.08353117	-0.01479564	0.1666163	0.8531982	0.005970776	-0.1025302
3.6e+08	0.05365857	0.02840571	0.2804959	0.819899	0.07274022	-0.02714359	0.01139322	-0.004303295
	0.2804959	0.819899	-0.002030978	-0.1081343	0.01141085	-0.004334932	0.08139258	-0.02093653
	0.07274022	-0.02714359	0.01141085	-0.004334932	0.05439798	0.02868474	0.2815863	0.8202577
	0.01139322	-0.004303295	0.08139258	-0.02093653	0.2815863	0.8202577	-0.001315439	-0.1085821
3.7e+08	0.0654165	0.02285508	0.3895327	0.7718934	0.0647656	-0.03876492	0.01078643	-0.005773508
	0.3895327	0.7718934	-0.01035734	-0.1126809	0.0107936	-0.005808218	0.07823158	-0.02618766
	0.0647656	-0.03876492	0.0107936	-0.005808218	0.06609765	0.02298155	0.390667	0.7720811
	0.01078643	-0.005773508	0.07823158	-0.02618766	0.390667	0.7720811	-0.009716052	-0.1131279
3.8e+08	0.07576132	0.01430402	0.4907481	0.7096357	0.05409398	-0.04822661	0.01005743	-0.007101613
	0.4907481	0.7096357	-0.0193877	-0.1155319	0.01005429	-0.007135134	0.0743467	-0.03034072
	0.05409398	-0.04822661	0.01005429	-0.007135134	0.07634385	0.01429127	0.4918985	0.7096482
	0.01005743	-0.007101613	0.0743467	-0.03034072	0.4918985	0.7096482	-0.01880927	-0.1159553
3.9e+08	0.08392336	0.003119522	0.5823326	0.6343392	0.04131202	-0.05492099	0.009252649	-0.008309403
	0.5823326	0.6343392	-0.02867278	-0.1165871	0.00923976	-0.008338787	0.0700788	-0.03327759
	0.04131202	-0.05492099	0.00923976	-0.008338787	0.08437074	0.002991599	0.5834758	0.6341791
	0.009252649	-0.008309403	0.0700788	-0.03327759	0.5834758	0.6341791	-0.0281395	-0.116968
4e+08	0.08922982	-0.01012948	0.662653	0.5474335	0.02713708	-0.05839831	0.008397988	-0.009435218
	0.662653	0.5474335	-0.03775729	-0.1158636	0.008378249	-0.0094573	0.06578497	-0.03497763
	0.02713708	-0.05839831	0.008378249	-0.0094573	0.08951112	-0.01034006	0.6637641	0.5471016
	0.008397988	-0.009435218	0.06578497	-0.03497763	0.6637641	0.5471016	-0.03724564	-0.1161893
4.1e+08	0.09115856	-0.02469836	0.7302723	0.4505369	0.01237642	-0.05839299	0.007495223	-0.0105234
	0.7302723	0.4505369	-0.04620941	-0.1134925	0.007472146	-0.01053633	0.06181236	-0.03551804
	0.01237642	-0.05839299	0.007472146	-0.01053633	0.09125067	-0.02495098	0.7313287	0.4500393
	0.007495223	-0.0105234	0.06181236	-0.03551804	0.7313287	0.4500393	-0.0456929	-0.1137581
4.2e+08	0.0893839	-0.03970584	0.7839675	0.3454488	-0.002119412	-0.05483963	0.006520729	-0.01161387
	0.7839675	0.3454488	-0.05364826	-0.1097103	0.006497893	-0.01161743	0.05847223	-0.03506927
	-0.002119412	-0.05483963	0.006497893	-0.01161743	0.08927393	-0.03995409	0.7849455	0.3447945
	0.006520729	-0.01161387	0.05847223	-0.03506927	0.7849455	0.3447945	-0.05309874	-0.1099193
4.3e+08	0.08381451	-0.05418908	0.822754	0.2341139	-0.01550468	-0.047877	0.005426536	-0.01273172
	0.822754	0.2341139	-0.05976811	-0.1048408	0.005407968	-0.01272737	0.05601631	-0.0338801
	-0.01550468	-0.047877	0.005407968	-0.01272737	0.08350098	-0.05438354	0.8236319	0.2333131
	0.005426536	-0.01273172	0.05601631	-0.0338801	0.8236319	0.2333131	-0.05915968	-0.1050052
4.4e+08	0.07461359	-0.06716644	0.8459042	0.1186029	-0.02698559	-0.03784222	0.004149079	-0.01387709
	0.8459042	0.1186029	-0.06435875	-0.0992742	0.004137385	-0.01386745	0.05461676	-0.03226097
	-0.02698559	-0.03784222	0.004137385	-0.01386745	0.07410727	-0.06725686	0.8466604	0.1176696
	0.004149079	-0.01387709	0.05461676	-0.03226097	0.8466604	0.1176696	-0.06366881	-0.09941401
4.5e+08	0.06220327	-0.07770535	0.8529678	0.001084532	-0.035866	-0.02525422	0.002618601	-0.01501855
	0.8529678	0.001084532	-0.06731902	-0.09344075	0.002615293	-0.01500748	0.05435228	-0.03055937
	-0.035866	-0.02525422	0.002615293	-0.01500748	0.06152747	-0.0776442	0.853582	3.525203e-05
	0.002618601	-0.01501855	0.05435228	-0.03055937	0.853582	3.525203e-05	-0.06653145	-0.09358261
4.6e+08	0.04724901	-0.08499321	0.8437908	-0.1162132	-0.04158754	-0.01078703	0.0007720494	-0.01609032
	0.8437908	-0.1162132	-0.06866419	-0.08778101	0.0007772709	-0.01608217	0.05519991	-0.02913319
	-0.04158754	-0.01078703	0.0007772708	-0.01608217	0.04643866	-0.08473917	0.8442432	-0.1173596
	0.0007720494	-0.01609032	0.05519991	-0.02913319	0.8442432	-0.1173596	-0.06777096	-0.08795596
4.7e+08	0.03062489	-0.0884035	0.8185317	-0.2310463	-0.04376404	0.004765419	-0.001431458	-0.01699517
	0.8185317	-0.2310463	-0.06852532	-0.08271356	-0.001419964	-0.01699376	0.05703509	-0.028321
	-0.04376404	0.004765419	-0.001419964	-0.01699376	0.02972563	-0.08792298	0.8188043	-0.2322641
	-0.001431458	-0.01699517	0.05703509	-0.028321	0.8188043	-0.2322641	-0.06752734	-0.08295545
4.8e+08	0.01336035	-0.08754708	0.7776611	-0.3411901	-0.04220683	0.02053146	-0.004000345	-0.01761171
	0.7776611	-0.3411901	-0.06713849	-0.07860768	-0.003985759	-0.01762014	0.05964052	-0.02841491
	-0.04220683	0.02053146	-0.003985759	-0.01762014	0.01242646	-0.08681912	0.7777432	-0.3424524
	-0.004000345	-0.01761171	0.05964052	-0.02841491	0.7777432	-0.3424524	-0.0660471	-0.07894915
4.9e+08	-0.003425053	-0.0823138	0.7219777	-0.4444941	-0.03694119	0.03561101	-0.006898175	-0.01780811
	0.7219777	-0.4444941	-0.0648304	-0.07575442	-0.006885637	-0.01782746	0.06272181	-0.02963472
	-0.03694119	0.03561101	-0.006885637	-0.01782746	-0.004334611	-0.08133073	0.721858	-0.4457714
	-0.006898175	-0.01780811	0.06272181	-0.02963472	0.721858	-0.4457714	-0.06366567	-0.07622485
5e+08	-0.01860148	-0.07289191	0.6525859	-0.538942	-0.02820929	0.04912712	-0.01004168	-0.01745697
	0.6525859	-0.538942	-0.06199188	-0.0743451	-0.0100361	-0.01748694	0.06593157	-0.03210793
	-0.02820929	0.04912712	-0.0100361	-0.01748694	-0.01942535	-0.07166099	0.6522616	-0.5401972
	-0.01004168	-0.01745697	0.06593157	-0.03210793	0.6522616	-0.5401972	-0.06078218	-0.07496835
5.1e+08	-0.03110655	-0.05976327	0.5708821	-0.6226858	-0.01646251	0.06027902	-0.01330067	-0.0164554
	0.5708821	-0.6226858	-0.05904895	-0.07445902	-0.01330683	-0.01649305	0.06889748	-0.03585838
	-0.01646251	0.06027902	-0.01330683	-0.01649305	-0.03178632	-0.05830788	0.5703569	-0.6238859
	-0.01330067	-0.0164554	0.06889748	-0.03585838	0.5703569	-0.6238859	-0.0578288	-0.0752499
5.2e+08	-0.04002506	-0.04368139	0.478526	-0.694109	-0.002338111	0.06839418	-0.01650813	-0.0147391
	0.478526	-0.694109	-0.05643088	-0.07605659	-0.01652982	-0.01477944	0.07125401	-0.04080256
	-0.002338111	0.06839418	-0.01652982	-0.01477944	-0.04050843	-0.04203915	0.4778077	-0.6952181
