!$
! Info: Touchstone file created by Circ.  Input file=Intel_C2M_200G_10p5in_202208016_staggered.circ
!$
# Hz S RI R 50
0	0.03287325	4.854635e-24	9.917588e-05	1.504458e-22	0.0001414152	3.410513e-22	9.916934e-05	1.502068e-22
	9.917588e-05	1.504458e-22	0.03288594	5.266416e-24	9.91801e-05	1.505763e-22	0.0001410193	3.378546e-22
	0.0001414712	3.411745e-22	9.918008e-05	1.50578e-22	0.03286825	5.092585e-24	9.917153e-05	1.503218e-22
	9.916933e-05	1.502085e-22	0.0001410753	3.379775e-22	9.917153e-05	1.503218e-22	0.03288394	4.98072e-24
1e+07	0.04011276	0.01048333	1.221185e-05	4.219712e-05	0.002840519	0.007761357	1.697179e-05	3.196306e-05
	1.221185e-05	4.219712e-05	0.04048558	0.01072929	1.365885e-05	7.476324e-05	0.002846353	0.007815574
	0.002840519	0.007761357	1.365885e-05	7.476324e-05	0.04046274	0.01077945	1.240479e-05	4.394136e-05
	1.697179e-05	3.196306e-05	0.002846353	0.007815574	1.240479e-05	4.394136e-05	0.04014702	0.01051568
2e+07	0.04865491	0.01420899	2.137162e-05	3.466804e-05	0.006545734	0.01387083	1.059811e-05	2.389725e-05
	2.137164e-05	3.466807e-05	0.04924703	0.0144406	7.300167e-05	8.108853e-05	0.006558254	0.01397658
	0.006545741	0.01387081	7.300167e-05	8.108853e-05	0.04923127	0.01454272	2.346088e-05	3.723916e-05
	1.059811e-05	2.389725e-05	0.006558261	0.01397657	2.346088e-05	3.723916e-05	0.04870752	0.01426409
3e+07	0.05578409	0.01403971	3.548986e-05	2.611729e-05	0.01192034	0.01867774	1.453044e-05	1.998314e-05
	3.548987e-05	2.611728e-05	0.05652804	0.01417195	0.0001160375	6.446906e-05	0.01194203	0.01883027
	0.01192032	0.01867778	0.0001160375	6.446906e-05	0.05652289	0.0143326	3.898217e-05	2.846972e-05
	1.453044e-05	1.998314e-05	0.01194201	0.01883032	3.898217e-05	2.846971e-05	0.05586004	0.01411853
4e+07	0.06157499	0.01188832	4.466973e-05	1.514964e-05	0.01851684	0.02158239	2.028564e-05	1.352073e-05
	4.466974e-05	1.514964e-05	0.06241819	0.01188173	0.0001453575	3.635368e-05	0.01854754	0.02177589
	0.01851685	0.02158241	0.0001453575	3.635368e-05	0.06243664	0.01209237	4.923435e-05	1.688255e-05
	2.028564e-05	1.352073e-05	0.01854754	0.02177591	4.923436e-05	1.688254e-05	0.06168485	0.0119773
5e+07	0.06615378	0.008534062	4.933587e-05	2.955983e-06	0.02572742	0.02235547	2.340205e-05	6.465868e-06
	4.933587e-05	2.955982e-06	0.0670493	0.008368052	0.000162141	2.175398e-06	0.02576431	0.02258416
	0.02572742	0.02235547	0.000162141	2.175398e-06	0.06709669	0.008619034	5.468148e-05	3.817476e-06
	2.340205e-05	6.465867e-06	0.02576432	0.02258416	5.468148e-05	3.817475e-06	0.06630025	0.008620718
6e+07	0.06959263	0.004429657	4.989028e-05	-9.30553e-06	0.03291799	0.02090563	2.407294e-05	-5.368797e-07
	4.989028e-05	-9.305528e-06	0.0704973	0.004096154	0.0001672348	-3.433251e-05	0.03295569	0.02116476
	0.032918	0.02090561	0.0001672348	-3.433251e-05	0.07057536	0.00437689	5.573793e-05	-9.486053e-06
	2.407294e-05	-5.368779e-07	0.03295569	0.02116474	5.573793e-05	-9.48605e-06	0.06977548	0.004501867
7e+07	0.07199299	-7.837259e-05	4.682351e-05	-2.065314e-05	0.03944941	0.01732192	2.261588e-05	-6.916622e-06
	4.682351e-05	-2.065314e-05	0.07286711	-0.0005781927	0.0001614606	-7.027238e-05	0.03948027	0.01760874
	0.03944941	0.01732192	0.0001614606	-7.027238e-05	0.07297348	-0.0002786766	5.290004e-05	-2.199063e-05
	2.261588e-05	-6.916622e-06	0.03948027	0.01760874	5.290004e-05	-2.199063e-05	0.0722091	-3.284768e-05
8e+07	0.07350527	-0.00474705	4.073729e-05	-3.032426e-05	0.04473144	0.01186668	1.94162e-05	-1.221869e-05
	4.073729e-05	-3.032426e-05	0.07431224	-0.005405108	0.0001458578	-0.0001032822	0.04474641	0.01218127
	0.04473144	0.01186668	0.0001458578	-0.0001032822	0.07444064	-0.005096542	4.67354e-05	-3.288377e-05
	1.94162e-05	-1.221869e-05	0.04474641	0.01218127	4.673539e-05	-3.288377e-05	0.07374876	-0.004739932
9e+07	0.0743006	-0.009435095	3.219756e-05	-3.779273e-05	0.04826735	0.004954697	1.486347e-05	-1.612008e-05
	3.219756e-05	-3.779273e-05	0.07500522	-0.01023851	0.0001213649	-0.0001315776	0.04825685	0.005300528
	0.04826736	0.004954698	0.0001213649	-0.0001315776	0.07514565	-0.009927605	3.778881e-05	-4.159805e-05
	1.486347e-05	-1.612008e-05	0.04825686	0.005300529	3.778881e-05	-4.159805e-05	0.07456243	-0.009476621
1e+08	0.0746092	-0.01406964	2.087865e-05	-4.287673e-05	0.04968939	-0.00288224	8.904389e-06	-1.843899e-05
	2.087865e-05	-4.287673e-05	0.07516352	-0.0150071	8.580182e-05	-0.0001545812	0.04964462	-0.002498008
	0.04968938	-0.002882241	8.580182e-05	-0.0001545812	0.07530359	-0.01469595	2.558808e-05	-4.796889e-05
	8.904389e-06	-1.843899e-05	0.04964462	-0.002498008	2.558808e-05	-4.796889e-05	0.07487856	-0.01416772
1.1e+08	0.0743427	-0.01907762	9.516064e-06	-4.050376e-05	0.04876223	-0.01101446	3.417009e-06	-1.680299e-05
	9.516065e-06	-4.050376e-05	0.07471126	-0.02004826	4.571519e-05	-0.0001529926	0.04867641	-0.01058087
	0.04876222	-0.01101446	4.571519e-05	-0.0001529926	0.07482833	-0.01979154	1.285351e-05	-4.609377e-05
	3.417009e-06	-1.680299e-05	0.04867641	-0.01058087	1.285351e-05	-4.609377e-05	0.07458915	-0.01929654
1.2e+08	0.07330123	-0.02401936	1.768808e-06	-3.642767e-05	0.04549835	-0.01872458	1.606204e-09	-1.439861e-05
	1.768809e-06	-3.642767e-05	0.073524	-0.02498729	1.933027e-05	-0.0001434524	0.0453682	-0.01822829
	0.04549835	-0.01872458	1.933027e-05	-0.0001434524	0.07358358	-0.0247205	3.970422e-06	-4.217234e-05
	1.606581e-09	-1.439861e-05	0.04536819	-0.01822829	3.970422e-06	-4.217234e-05	0.0734815	-0.02429869
1.3e+08	0.07162726	-0.02886311	-2.107488e-06	-3.162897e-05	0.04007421	-0.02538885	-2.45256e-06	-1.185501e-05
	-2.107488e-06	-3.162897e-05	0.07172641	-0.02980936	1.072712e-05	-0.0001299725	0.03990059	-0.02481478
	0.04007421	-0.02538885	1.072712e-05	-0.0001299725	0.07174131	-0.02949886	-2.502566e-07	-3.723296e-05
	-2.45256e-06	-1.185501e-05	0.03990059	-0.02481478	-2.502561e-07	-3.723296e-05	0.07174413	-0.02917293
1.4e+08	0.06932677	-0.0335962	-2.693735e-06	-2.666989e-05	0.0328294	-0.03043726	-4.117321e-06	-9.250435e-06
	-2.693735e-06	-2.666989e-05	0.06932012	-0.03450827	2.691153e-06	-0.0001168198	0.032618	-0.02977001
	0.03282939	-0.03043726	2.691153e-06	-0.0001168198	0.06930519	-0.03414522	-1.354197e-06	-3.209184e-05
	-4.117321e-06	-9.250435e-06	0.032618	-0.02977001	-1.354197e-06	-3.209184e-05	0.06938243	-0.03392946
1.5e+08	0.06636214	-0.03818204	-2.917487e-06	-2.234812e-05	0.02424751	-0.03340374	-3.618291e-06	-6.764389e-06
	-2.917487e-06	-2.234812e-05	0.06626466	-0.03905132	-4.022813e-06	-0.000103704	0.02400909	-0.03262901
	0.02424751	-0.03340373	-4.022813e-06	-0.000103704	0.06622735	-0.03863395	-1.964676e-06	-2.736575e-05
	-3.618291e-06	-6.764389e-06	0.02400909	-0.03262901	-1.964676e-06	-2.736575e-05	0.06634906	-0.03853534
1.6e+08	0.06267602	-0.04254522	-2.615673e-06	-1.842672e-05	0.01492547	-0.03396328	-2.596546e-06	-4.742356e-06
	-2.615673e-06	-1.842672e-05	0.06250039	-0.04336544	-9.172117e-06	-9.071767e-05	0.01467555	-0.03306956
	0.01492547	-0.03396328	-9.172117e-06	-9.071767e-05	0.06244344	-0.04289127	-2.115769e-06	-2.314087e-05
	-2.596546e-06	-4.742356e-06	0.01467555	-0.03306955	-2.115769e-06	-2.314087e-05	0.06258056	-0.04290992
1.7e+08	0.0582121	-0.04656449	-1.807088e-06	-1.497402e-05	0.005533103	-0.03195871	-1.492701e-06	-3.207673e-06
	-1.807088e-06	-1.497402e-05	0.05796932	-0.04732999	-1.264156e-05	-7.80382e-05	0.005291321	-0.03093877
	0.005533103	-0.03195871	-1.264156e-05	-7.80382e-05	0.0578954	-0.04679387	-1.733013e-06	-1.933753e-05
	-1.492701e-06	-3.207673e-06	0.005291322	-0.03093877	-1.733013e-06	-1.933753e-05	0.05802059	-0.04692326
1.8e+08	0.052937	-0.05007135	-5.735223e-07	-1.207039e-05	-0.003233021	-0.02741614	-2.188011e-07	-2.048713e-06
	-5.735223e-07	-1.207039e-05	0.05263697	-0.05077739	-1.441577e-05	-6.588787e-05	-0.003444202	-0.02626841
	-0.003233021	-0.02741614	-1.441577e-05	-6.588787e-05	0.05255148	-0.05017236	-8.806284e-07	-1.603616e-05
	-2.188011e-07	-2.048713e-06	-0.003444202	-0.02626841	-8.806285e-07	-1.603616e-05	0.05264059	-0.05039905
1.9e+08	0.04686069	-0.05285739	9.785829e-07	-9.772753e-06	-0.01069889	-0.02054781	1.155767e-06	-1.292265e-06
	9.785828e-07	-9.772753e-06	0.04651294	-0.05349907	-1.455909e-05	-5.450281e-05	-0.01085587	-0.01927735
	-0.01069889	-0.02054781	-1.455909e-05	-5.450281e-05	0.04642538	-0.05281874	3.4779e-07	-1.329972e-05
	1.155767e-06	-1.292265e-06	-0.01085587	-0.01927735	3.4779e-07	-1.329972e-05	0.04645899	-0.0531235
2e+08	0.04005542	-0.05468776	2.723062e-06	-8.116977e-06	-0.01626189	-0.01174129	2.549187e-06	-9.503763e-07
	2.723062e-06	-8.116977e-06	0.03966997	-0.0552599	-1.320543e-05	-4.411325e-05	-0.01634187	-0.01036032
	-0.01626189	-0.01174129	-1.320543e-05	-4.411325e-05	0.03959296	-0.05450142	1.836984e-06	-1.117269e-05
	2.549187e-06	-9.503764e-07	-0.01634187	-0.01036032	1.836984e-06	-1.117269e-05	0.03955778	-0.05486037
2.1e+08	0.03266923	-0.05532295	4.522285e-06	-7.107403e-06	-0.01943543	-0.001536587	3.872529e-06	-1.015514e-06
	4.522285e-06	-7.107403e-06	0.03225731	-0.05582034	-1.054829e-05	-3.492503e-05	-0.01941867	-6.427875e-05
	-0.01943543	-0.001536587	-1.054829e-05	-3.492503e-05	0.03220532	-0.05498508	3.457739e-06	-9.671619e-06
	3.872529e-06	-1.015514e-06	-0.01941867	-6.427841e-05	3.457739e-06	-9.671619e-06	0.03209547	-0.05537138
2.2e+08	0.02493117	-0.05454301	6.236541e-06	-6.71861e-06	-0.0198868	0.009408252	5.035942e-06	-1.458087e-06
	6.236541e-06	-6.718611e-06	0.02450592	-0.05496111	-6.830246e-06	-2.710658e-05	-0.01975867	0.01094661
	-0.0198868	0.009408252	-6.830246e-06	-2.710658e-05	0.02449321	-0.05405621	5.07562e-06	-8.785237e-06
	5.035942e-06	-1.458088e-06	-0.01975867	0.01094661	5.07562e-06	-8.785237e-06	0.02431102	-0.05444207
2.3e+08	0.01714921	-0.05217623	7.7351e-06	-6.890269e-06	-0.01746508	0.02036102	5.955636e-06	-2.225677e-06
	7.7351e-06	-6.890269e-06	0.01672594	-0.05251198	-2.32931e-06	-2.076878e-05	-0.01721797	0.02193544
	-0.01746508	0.02036102	-2.32931e-06	-2.076878e-05	0.01676376	-0.05154948	6.558913e-06	-8.47213e-06
	5.955636e-06	-2.225677e-06	-0.01721797	0.02193544	6.558913e-06	-8.47213e-06	0.01651995	-0.05190851
2.4e+08	0.009698245	-0.04812565	8.898606e-06	-7.538312e-06	-0.01221619	0.03056488	6.561236e-06	-3.244346e-06
	8.898606e-06	-7.538312e-06	0.009294314	-0.0483786	2.653576e-06	-1.598216e-05	-0.01185088	0.03214274
	-0.01221619	0.03056488	2.653576e-06	-1.598216e-05	0.009390051	-0.04737417	7.787483e-06	-8.65994e-06
	6.561236e-06	-3.244346e-06	-0.01185088	0.03214274	7.787483e-06	-8.65994e-06	0.00910332	-0.04768378
2.5e+08	0.002999888	-0.04239242	9.631423e-06	-8.549055e-06	-0.004384627	0.03929167	6.80205e-06	-4.422814e-06
	9.631423e-06	-8.549055e-06	0.002634188	-0.04256571	7.808901e-06	-1.274189e-05	-0.003911107	0.04084009
	-0.004384627	0.03929167	7.808901e-06	-1.274189e-05	0.002789234	-0.04153711	8.663487e-06	-9.2489e-06
	6.80205e-06	-4.422814e-06	-0.003911107	0.04084009	8.663487e-06	-9.2489e-06	0.002485068	-0.04178086
2.6e+08	-0.002506135	-0.03509283	9.869043e-06	-9.787918e-06	0.005598777	0.04589393	6.652491e-06	-5.658311e-06
	9.869043e-06	-9.787918e-06	-0.002814143	-0.03519404	1.2829e-05	-1.098736e-05	0.006161232	0.04738246
	0.005598777	0.04589393	1.2829e-05	-1.098736e-05	-0.00260389	-0.03415896	9.111468e-06	-1.012145e-05
	6.652491e-06	-5.658311e-06	0.006161232	0.04738246	9.111468e-06	-1.012145e-05	-0.00289505	-0.03432843
2.7e+08	-0.00639499	-0.02646669	9.582265e-06	-1.110876e-05	0.01714365	0.04985141	6.114791e-06	-6.844213e-06
	9.582265e-06	-1.110876e-05	-0.006626539	-0.02650832	1.742838e-05	-1.059074e-05	0.01776717	0.0512546
	0.01714365	0.04985141	1.742838e-05	-1.059074e-05	-0.006370918	-0.02548258	9.088744e-06	-1.114416e-05
	6.114791e-06	-6.844213e-06	0.01776717	0.0512546	9.088744e-06	-1.114416e-05	-0.006616077	-0.02557881
2.8e+08	-0.008292919	-0.01687638	8.779918e-06	-1.236354e-05	0.02953777	0.05081051	5.219489e-06	-7.878332e-06
	8.779917e-06	-1.236354e-05	-0.008431317	-0.01687588	2.135924e-05	-1.136706e-05	0.03018732	0.05211028
	0.02953777	0.05081051	2.135924e-05	-1.136706e-05	-0.008145322	-0.01587155	8.588323e-06	-1.217812e-05
	5.219489e-06	-7.878332e-06	0.03018732	0.05211028	8.588323e-06	-1.217812e-05	-0.008311651	-0.0159057
2.9e+08	-0.007913574	-0.006793726	7.508446e-06	-1.341255e-05	0.04199447	0.04861131	4.023023e-06	-8.670996e-06
	7.508446e-06	-1.341255e-05	-0.007945661	-0.006773223	2.442334e-05	-1.308566e-05	0.04262981	0.04979891
	0.04199447	0.04861131	2.442334e-05	-1.308566e-05	-0.007647341	-0.005797362	7.638812e-06	-1.308895e-05
	4.023023e-06	-8.670996e-06	0.04262981	0.04979891	7.638812e-06	-1.308895e-05	-0.007705125	-0.005790615
3e+08	-0.005090123	0.003222415	5.848321e-06	-1.413415e-05	0.05370549	0.04330079	2.602836e-06	-9.151745e-06
	5.848321e-06	-1.413415e-05	-0.005007591	0.003236934	2.648117e-05	-1.548302e-05	0.05428375	0.04437814
	0.05370549	0.04330079	2.648117e-05	-1.548302e-05	-0.004716835	0.004183432	6.301944e-06	-1.375598e-05
	2.602836e-06	-9.151745e-06	0.05428375	0.04437814	6.301944e-06	-1.375598e-05	-0.004642282	0.004200752
3.1e+08	0.0001989047	0.01255884	3.907907e-06	-1.443343e-05	0.06389584	0.03513256	1.05077e-06	-9.27426e-06
	3.907907e-06	-1.443343e-05	0.0003983958	0.0125386	2.745753e-05	-1.827784e-05	0.06437435	0.03611296
	0.06389584	0.03513256	2.745753e-05	-1.827784e-05	0.0006621208	0.01346085	4.667498e-06	-1.408078e-05
	1.05077e-06	-9.27426e-06	0.06437435	0.03611296	4.667498e-06	-1.408078e-05	0.000884295	0.0134509
3.2e+08	0.007813334	0.02058707	1.814864e-06	-1.424828e-05	0.07187593	0.02455121	-5.346015e-07	-9.018633e-06
	1.814864e-06	-1.424828e-05	0.008125293	0.02050184	2.734314e-05	-2.118597e-05	0.07221519	0.02545928
	0.07187593	0.02455121	2.734314e-05	-2.118597e-05	0.008343806	0.02141149	2.846014e-06	-1.399328e-05
	-5.346015e-07	-9.018633e-06	0.07221519	0.02545928	2.846014e-06	-1.399328e-05	0.008718241	0.02133126
3.3e+08	0.01744548	0.02670821	-2.93438e-07	-1.355268e-05	0.07708733	0.01216388	-2.055564e-06	-8.39114e-06
	-2.93438e-07	-1.355268e-05	0.01785796	0.02652796	2.619244e-05	-2.393575e-05	0.077254	0.01303478
	0.07708733	0.01216388	2.619244e-05	-2.393575e-05	0.01801736	0.02744196	9.601943e-07	-1.345561e-05
	-2.055564e-06	-8.39114e-06	0.077254	0.01303478	9.601943e-07	-1.345561e-05	0.01853646	0.02724611
3.4e+08	0.02862698	0.03039827	-2.27999e-06	-1.235732e-05	0.07914037	-0.001298552	-3.42208e-06	-7.421981e-06
	-2.27999e-06	-1.235732e-05	0.02912037	0.03009485	2.411825e-05	-2.628209e-05	0.07911002	-0.0004207378
	0.07914037	-0.001298552	2.411825e-05	-2.628209e-05	0.02921238	0.03103508	-8.642076e-07	-1.246355e-05
	-3.42208e-06	-7.421981e-06	0.07911002	-0.0004207379	-8.642076e-07	-1.246355e-05	0.02985545	0.03067928
3.5e+08	0.04074872	0.03125233	-4.017706e-06	-1.070698e-05	0.0778384	-0.01502825	-4.55708e-06	-6.161095e-06
	-4.017706e-06	-1.070698e-05	0.0412958	0.03080146	2.128309e-05	-2.801788e-05	0.07759788	-0.01409276
	0.0778384	-0.01502825	2.128309e-05	-2.801788e-05	0.04131932	0.03179185	-2.507132e-06	-1.104484e-05
	-4.55708e-06	-6.161095e-06	0.07759788	-0.01409276	-2.507132e-06	-1.104484e-05	0.04205262	0.03123641
3.6e+08	0.05309207	0.02902246	-5.397217e-06	-8.67585e-06	0.07319102	-0.02819122	-5.400056e-06	-4.673294e-06
	-5.397217e-06	-8.67585e-06	0.05365857	0.02840571	1.788875e-05	-2.89837e-05	0.07274022	-0.02714359
	0.07319102	-0.02819122	1.788875e-05	-2.89837e-05	0.05362034	0.02947111	-3.861767e-06	-9.255694e-06
	-5.400056e-06	-4.673294e-06	0.07274022	-0.02714359	-3.861767e-06	-9.255694e-06	0.05439798	0.02868474
3.7e+08	0.06487089	0.02364811	-6.332923e-06	-6.360857e-06	0.06541267	-0.0399795	-5.908827e-06	-3.032921e-06
	-6.332923e-06	-6.360857e-06	0.0654165	0.02285508	1.416394e-05	-2.90742e-05	0.0647656	-0.03876492
	0.06541267	-0.0399795	1.416394e-05	-2.90742e-05	0.06533166	0.02401808	-4.8405e-06	-7.175393e-06
	-5.908827e-06	-3.032921e-06	0.0647656	-0.03876492	-4.8405e-06	-7.175393e-06	0.06609765	0.02298155
3.8e+08	0.07528118	0.01527367	-6.766475e-06	-3.874377e-06	0.05490914	-0.04965957	-6.059703e-06	-1.319041e-06
	-6.766475e-06	-3.874377e-06	0.07576132	0.01430402	1.035158e-05	-2.824166e-05	0.05409398	-0.04822661
	0.05490914	-0.04965957	1.035158e-05	-2.824166e-05	0.07565254	0.01558193	-5.378708e-06	-4.900063e-06
	-6.059703e-06	-1.319041e-06	0.05409398	-0.04822661	-5.378708e-06	-4.900063e-06	0.07634385	0.01429127
3.9e+08	0.08355511	0.004254344	-6.668317e-06	-1.336783e-06	0.04225376	-0.05661661	-5.846642e-06	3.886333e-07
	-6.668317e-06	-1.336783e-06	0.08392336	0.003119522	6.695888e-06	-2.649727e-05	0.04131202	-0.05492099
	0.04225376	-0.05661661	6.695888e-06	-2.649727e-05	0.08381991	0.004522562	-5.436888e-06	-2.536439e-06
	-5.846642e-06	3.886335e-07	0.04131202	-0.05492099	-5.436888e-06	-2.536439e-06	0.08437074	0.002991599
4e+08	0.08901856	-0.008853949	-6.036997e-06	1.130451e-06	0.02815247	-0.06039032	-5.27962e-06	2.012986e-06
	-6.036997e-06	1.130451e-06	0.08922982	-0.01012948	3.429282e-06	-2.390907e-05	0.02713708	-0.05839831
	0.02815247	-0.06039032	3.429282e-06	-2.390907e-05	0.08916432	-0.008601703	-5.000855e-06	-1.955197e-07
	-5.27962e-06	2.012986e-06	0.02713708	-0.05839831	-5.000855e-06	-1.955197e-07	0.08951112	-0.01034006
4.1e+08	0.09114419	-0.02331986	-4.897346e-06	3.4105e-06	0.01340398	-0.06070153	-4.382949e-06	3.481686e-06
	-4.897346e-06	3.4105e-06	0.09115856	-0.02469836	7.604551e-07	-2.059804e-05	0.01237642	-0.05839299
	0.01340398	-0.06070153	7.604551e-07	-2.059804e-05	0.09116342	-0.02305706	-4.08088e-06	2.012411e-06
	-4.382949e-06	3.481686e-06	0.01237642	-0.05839299	-4.08088e-06	2.012411e-06	0.09125067	-0.02495098
4.2e+08	0.08959702	-0.03827449	-3.2975e-06	5.395823e-06	-0.001146149	-0.05746923	-3.193666e-06	4.728813e-06
	-3.2975e-06	5.395823e-06	0.0893839	-0.03970584	-1.136238e-06	-1.67319e-05	-0.002119412	-0.05483963
	-0.001146149	-0.05746923	-1.136238e-06	-1.67319e-05	0.08948799	-0.03797344	-2.709894e-06	3.982302e-06
	-3.193666e-06	4.728813e-06	-0.002119412	-0.05483963	-2.709894e-06	3.982302e-06	0.08927393	-0.03995409
4.3e+08	0.08427236	-0.05276507	-1.305964e-06	6.991476e-06	-0.01465305	-0.05081533	-1.760341e-06	5.696115e-06
	-1.305964e-06	6.991476e-06	0.08381451	-0.05418908	-2.131062e-06	-1.251633e-05	-0.01550468	-0.047877
	-0.01465305	-0.05081533	-2.131062e-06	-1.251633e-05	0.08403885	-0.05239817	-9.416373e-07	5.617825e-06
	-1.760341e-06	5.696115e-06	-0.01550468	-0.047877	-9.416373e-07	5.617825e-06	0.08350098	-0.05438354
4.4e+08	0.07531656	-0.06581626	9.912302e-07	8.11764e-06	-0.02631953	-0.04106019	-1.423096e-07	6.334276e-06
	9.912302e-07	8.11764e-06	0.07461359	-0.06716644	-2.146656e-06	-8.185007e-06	-0.02698559	-0.03784222
	-0.02631953	-0.04106019	-2.146656e-06	-8.185007e-06	0.07496807	-0.06535629	1.151273e-06	6.834146e-06
	-1.423096e-07	6.334276e-06	-0.02698559	-0.03784222	1.151273e-06	6.834146e-06	0.07410727	-0.06725686
4.5e+08	0.06313257	-0.07649677	3.493085e-06	8.711804e-06	-0.03544181	-0.028707	1.591e-06	6.604652e-06
	3.493085e-06	8.711804e-06	0.06220327	-0.07770535	-1.164284e-06	-3.98754e-06	-0.035866	-0.02525422
	-0.03544181	-0.028707	-1.164284e-06	-3.98754e-06	0.06268436	-0.07591847	3.479079e-06	7.56092e-06
	1.591e-06	6.604652e-06	-0.035866	-0.02525422	3.479079e-06	7.56092e-06	0.06152747	-0.0776442
4.6e+08	0.048366	-0.08398939	6.085809e-06	8.731038e-06	-0.04145008	-0.01441617	3.360911e-06	6.481596e-06
	6.085809e-06	8.731038e-06	0.04724901	-0.08499321	7.723e-07	-1.755084e-07	-0.04158754	-0.01078703
	-0.04145008	-0.01441617	7.723e-07	-1.755084e-07	0.04783865	-0.08327096	5.936538e-06	7.745255e-06
	3.360911e-06	6.481596e-06	-0.04158754	-0.01078703	5.936538e-06	7.745255e-06	0.04643866	-0.08473917
4.7e+08	0.03187241	-0.08765689	8.645323e-06	8.154947e-06	-0.04394361	0.001028998	5.081094e-06	5.95535e-06
	8.645323e-06	8.154947e-06	0.03062489	-0.0884035	3.555868e-06	3.012846e-06	-0.04376404	0.004765419
	-0.04394361	0.001028998	3.555868e-06	3.012846e-06	0.03129188	-0.08677977	8.40521e-06	7.355341e-06
	5.081094e-06	5.95535e-06	-0.04376404	0.004765419	8.40521e-06	7.355341e-06	0.02972563	-0.08792298
4.8e+08	0.01466602	-0.08709369	1.10406e-05	6.988755e-06	-0.04271672	0.01676381	6.660344e-06	5.035179e-06
	1.10406e-05	6.988755e-06	0.01336035	-0.08754708	7.018996e-06	5.368342e-06	-0.04220683	0.02053146
