# GHz S RI R 45
0.000     0.026987365674    0.001868960776    0.972643136203    -0.008167767693    0.000860331489    0.001601703374    -0.000848254411    -0.000561759309
            0.972643136203    -0.008167767693    0.027190425362    0.001609757529    -0.000848032454    -0.000561663420    0.000858712201    0.001640696645
            0.000860331649    0.001601703402    -0.000848032454    -0.000561663420    0.026962183400    0.001879502808    0.972693032242    -0.008169639663
            -0.000848254411    -0.000561759309    0.000858712391    0.001640696659    0.972693032242    -0.008169639663    0.027119349964    0.001621743315
0.025     0.034916384910    0.006998478585    0.933061166875    -0.259424431285    0.004909163547    0.011150231988    -0.001493245779    -0.001746031071
            0.933061148185    -0.259424461176    0.032686571300    0.007733904387    -0.001490714497    -0.001745512843    0.003229490077    0.011899367786
            0.004908408734    0.011150430985    -0.001490883158    -0.001745918882    0.034852131896    0.006933993456    0.933226346484    -0.259148135389
            -0.001493050006    -0.001745639928    0.003229744793    0.011898792997    0.933226319346    -0.259148233117    0.032591803412    0.007689821863
0.050     0.044807345751    0.003954605959    0.828665363123    -0.494151177052    0.015301815284    0.017140016306    -0.003176613504    -0.002686104390
            0.828665363123    -0.494151177052    0.037637735222    0.008838930767    -0.003175703052    -0.002683169844    0.009622369901    0.021246921232
            0.015301803144    0.017140017761    -0.003175669212    -0.002683184949    0.044742094836    0.003823276899    0.829066958393    -0.493604954038
            -0.003176530206    -0.002686114776    0.009622467406    0.021246915495    0.829066958393    -0.493604954038    0.037437737075    0.008805901787
0.075     0.052541062269    -0.006686085759    0.667671539512    -0.692110373169    0.027534909347    0.015077941470    -0.005131593129    -0.002597072079
            0.667671539512    -0.692110373169    0.040526152677    0.007098022538    -0.005126193345    -0.002592248139    0.017853150340    0.026587318472
            0.027534903908    0.015077947237    -0.005126187264    -0.002592247311    0.052480594787    -0.006883206246    0.668439981369    -0.691463699448
            -0.005131586683    -0.002597072192    0.017853146071    0.026587320134    0.668439981369    -0.691463699448    0.040226837355    0.007165040538
0.100     0.053662267500    -0.023162112601    0.461593035419    -0.840297435636    0.036419670311    0.005145653493    -0.006957874478    -0.001730794892
            0.461593035419    -0.840297435636    0.040109935812    0.004043060365    -0.006944315209    -0.001728942013    0.025537159388    0.027925518445
            0.036419670284    0.005145653683    -0.006944313625    -0.001728945480    0.053609306695    -0.023440026367    0.462788123993    -0.839717154230
            -0.006957874628    -0.001730800087    0.025537133931    0.027925526818    0.462788123993    -0.839717154230    0.039766608737    0.004282284632
0.125     0.044867925059    -0.041207482436    0.224789533777    -0.929040293809    0.037623143382    -0.009597615286    -0.008624032558    -0.000314136941
            0.224789533777    -0.929040293809    0.035804851275    0.001907665180    -0.008599417941    -0.000334583102    0.030781123609    0.026479325977
            0.037623143382    -0.009597615286    -0.008599419140    -0.000334583149    0.044806880581    -0.041587745291    0.226409125241    -0.928712047454
            -0.008624032358    -0.000314136934    0.030781123609    0.026479325977    0.226409125241    -0.928712047454    0.035520767383    0.002349095154
0.150     0.025825657027    -0.054796834354    -0.026074932875    -0.952631342019    0.029115088894    -0.024093678992    -0.010186053194    0.001761491170
            -0.026074932875    -0.952631342019    0.028743102440    0.002928955299    -0.010164647729    0.001708637521    0.032573298655    0.024271225922
            0.029115088894    -0.024093678992    -0.010164647729    0.001708637521    0.025735758587    -0.055294865843    -0.024100086413    -0.952740326326
            -0.010186053194    0.001761491170    0.032573298655    0.024271225922    -0.024100086413    -0.952740326326    0.028615385519    0.003536216892
0.175     -0.000574927832    -0.058358605078    -0.273567111007    -0.909751030684    0.011947285606    -0.032684357404    -0.011457692264    0.004801174111
            -0.273567111007    -0.909751030684    0.020767499293    0.008636697006    -0.011460041238    0.004715433691    0.031253870614    0.023575980435
            0.011947286177    -0.032684357195    -0.011460041238    0.004715433691    -0.000740385316    -0.058982809317    -0.271373919725    -0.910461842514
            -0.011457692264    0.004801174111    0.031253870614    0.023575980435    -0.271373919725    -0.910461842514    0.020868060864    0.009312537802
0.200     -0.028483781859    -0.048325156263    -0.500302424004    -0.803645643173    -0.009743451268    -0.030917519448    -0.011826110437    0.009022786193
            -0.500302424004    -0.803645643173    0.014554191531    0.019456825792    -0.011871294717    0.008916505940    0.028406522145    0.026109653260
            -0.009743451268    -0.030917519448    -0.011871294717    0.008916505940    -0.028784538079    -0.049055760238    -0.498090896343    -0.805077990798
            -0.011826110437    0.009022786193    0.028406522145    0.026109653260    -0.498090896343    -0.805077990798    0.014886795061    0.020070858259
0.225     -0.050501026008    -0.024646589592    -0.690200700706    -0.642233032537    -0.029754872644    -0.017132449506    -0.010381993196    0.014136757999
            -0.690200700706    -0.642233032537    0.012852686189    0.034253300709    -0.010478756585    0.014031229493    0.026354492148    0.032400311610
            -0.029754872644    -0.017132449506    -0.010478756585    0.014031229493    -0.050991296085    -0.025425422596    -0.688221293148    -0.644433788832
            -0.010381995664    0.014136756187    0.026354492148    0.032400311610    -0.688221293148    -0.644433788832    0.013341059489    0.034690406758
0.250     -0.059829902653    0.008645978184    -0.829978044428    -0.437708307447    -0.041641774697    0.006703368490    -0.006404862240    0.019135877494
            -0.829978044428    -0.437708307447    0.017547099377    0.050464033177    -0.006548922902    0.019051258284    0.027371482126    0.041562580081
            -0.041641774697    0.006703368490    -0.006548922902    0.019051258284    -0.060533484065    0.007913092031    -0.828503368390    -0.440634165037
            -0.006404862240    0.019135877494    0.027371482126    0.041562580081    -0.828503368390    -0.440634165037    0.018055322350    0.050671639456
0.275     -0.052485503718    0.044253712946    -0.910482617916    -0.205469336174    -0.040761551245    0.035340828239    0.000082837563    0.022536449757
            -0.910482617916    -0.205469336174    0.028931022043    0.064747255278    -0.000096928770    0.022482926060    0.032882285858    0.051552600818
            -0.040761551245    0.035340828239    -0.000096928770    0.022482926060    -0.053372864101    0.043678961077    -0.909766848954    -0.208981330093
            0.000082837563    0.022536449757    0.032882285858    0.051552600818    -0.909766848954    -0.208981330093    0.029310245540    0.064761566673
0.300     -0.028731203591    0.073547219793    -0.927457825950    0.037495864198    -0.025801489282    0.061699349477    0.008076020709    0.023013602335
            -0.927457825950    0.037495864198    0.045487341828    0.073997460903    0.007867162723    0.022990283529    0.042975524529    0.059852191285
            -0.025801489282    0.061699349477    0.007867162723    0.022990283529    -0.029710157154    0.073230058121    -0.927703058301    0.033627080104
            0.008076020709    0.023013602335    0.042975524529    0.059852191285    -0.927703058301    0.033627080104    0.045630490855    0.073938415810
0.325     0.006819557123    0.088973895376    -0.881503737201    0.274318026920    0.000780880649    0.078868307318    0.015884288991    0.020061129700
            -0.881503737201    0.274318026920    0.064281302882    0.076276616570    0.015638861733    0.020065373076    0.056382647196    0.064261706682
            0.000780880649    0.078868307318    0.015638861733    0.020065373076    0.005896233942    0.088966037306    -0.882830781063    0.270380285884
            0.015884288991    0.020061129700    0.056382647196    0.064261706682    -0.882830781063    0.270380285884    0.064164670629    0.076311885631
0.350     0.046342533684    0.086085993586    -0.777384317125    0.489597330645    0.033403687064    0.081943583971    0.021831478991    0.014277822562
            -0.777384317125    0.489597330645    0.081794645277    0.071385935611    0.021529176530    0.014319830508    0.070888020437    0.063547978247
            0.033403687064    0.081943583971    0.021529176530    0.014319830508    0.045650098257    0.086362773029    -0.779823679097    0.485900319989
            0.021831478991    0.014277822562    0.070888020437    0.063547978247    -0.779823679097    0.485900319989    0.081492422330    0.071677557175
0.375     0.080711199610    0.064634399110    -0.623061122497    0.670131385981    0.064722267070    0.069194277294    0.024970510267    0.007091447628
            -0.623061122497    0.670131385981    0.094876905872    0.060875124844    0.024588787694    0.007205828227    0.083945346117    0.057745432370
            0.064722267070    0.069194277294    0.024588787694    0.007205828227    0.080414096571    0.065083122407    -0.626560831719    0.666984796825
            0.024970510267    0.007091447628    0.083945346117    0.057745432370    -0.626560831719    0.666984796825    0.094545964929    0.061527870495
0.400     0.101555013782    0.028670566554    -0.428891793758    0.805172842905    0.087243027677    0.042493529520    0.025431247800    0.000073495489
            -0.428891793758    0.805172842905    0.101539943246    0.047626353552    0.024963493749    0.000321349969    0.093337657144    0.048149456828
            0.087243027677    0.042493529520    0.024963493749    0.000321349969    0.101764409207    0.029096275611    -0.433323266688    0.802871286023
            0.025431247800    0.000073495489    0.093337657144    0.048149456828    -0.433323266688    0.802871286023    0.101380376460    0.048650152636
0.425     0.103084353177    -0.014200139158    -0.207135549022    0.886491172376    0.094902886270    0.007086369003    0.024213580320    -0.005808885906
            -0.207135549022    0.886491172376    0.101431870466    0.035129295376    0.023684036675    -0.005347792936    0.097732067575    0.037015787948
            0.094902886270    0.007086369003    0.023684036675    -0.005347792936    0.103818886436    -0.014050231263    -0.212295761606    0.885304634510
            0.024213580320    -0.005808885906    0.097732067575    0.037015787948    -0.212295761606    0.885304634510    0.101632615759    0.036426351493
0.450     0.083506244052    -0.054203908729    0.028276496833    0.908566784662    0.084525282156    -0.029217478920    0.022517936165    -0.010618266856
            0.028276496833    0.908566784662    0.095960561943    0.026654367638    0.021991714008    -0.009858928473    0.097090883271    0.027054951025
            0.084525282156    -0.029217478920    0.021991714008    -0.009858928473    0.084662489325    -0.054597574333    0.022662920300    0.908727326529
            0.022517936165    -0.010618266856    0.097090883271    0.027054951025    0.022662920300    0.908727326529    0.096643552137    0.028035621559
0.475     0.045845261505    -0.081348610293    0.261947739299    0.869107913799    0.056953171239    -0.057497459139    0.020917689273    -0.015292307108
            0.261947739299    0.869107913799    0.088030859823    0.024411541243    0.020510054270    -0.014156168434    0.092809397657    0.020720931549
            0.056953171239    -0.057497459139    0.020510054270    -0.014156168434    0.047185934018    -0.082512676719    0.256239642134    0.870792302748
            0.020917689273    -0.015292307108    0.092809397657    0.020720931549    0.256239642134    0.870792302748    0.089209792329    0.025639961282
0.500     -0.002120665663    -0.087821398363    0.477632519231    0.769860955098    0.017506407712    -0.069834519705    0.018818253950    -0.020892841351
            0.477632519231    0.769860955098    0.081400950184    0.028869969397    0.018728141454    -0.019335448285    0.087484561343    0.019444471881
            0.017506407712    -0.069834519705    0.018728141454    -0.019335448285    -0.000961497327    -0.089873556937    0.472268057626    0.773142979786
            0.018818253950    -0.020892841351    0.087484561343    0.019444471881    0.472268057626    0.773142979786    0.082967172709    0.029721117075
0.525     -0.049233156469    -0.070396378067    0.659490929269    0.617319570105    -0.024794371336    -0.061700277018    0.014628901099    -0.027513460747
            0.659490929269    0.617319570105    0.079669443118    0.038434213271    0.015178825260    -0.025678478487    0.084201600730    0.023023934136
            -0.024794371336    -0.061700277018    0.015178825260    -0.025678478487    -0.048716796555    -0.073245132295    0.654950303031    0.622135193760
            0.014628901099    -0.027513460747    0.084201600730    0.023023934136    0.654950303031    0.622135193760    0.081409315567    0.038752165361
0.550     -0.083806746547    -0.031978100116    0.793969448024    0.422772008018    -0.059501316636    -0.033769083420    0.007040661041    -0.033569281494
            0.793969448024    0.422772008018    0.085149450925    0.049741992037    0.008356580106    -0.032069817083    0.085514648769    0.029545571497
            -0.059501316636    -0.033769083420    0.008356580106    -0.032069817083    -0.084310817138    -0.035190856435    0.790715569125    0.428893408717
            0.007040661041    -0.033569281494    0.085514648769    0.029545571497    0.790715569125    0.428893408717    0.086766434246    0.049487727932
0.575     -0.097132509798    0.019015359529    0.871652345802    0.201264746538    -0.077842274281    0.008065115878    -0.003594428677    -0.036934768333
            0.871652345802    0.201264746538    0.098023422348    0.058609841229    -0.002124478059    -0.036274699755    0.092535025787    0.035975916024
            -0.077842274281    0.008065115878    -0.002124478059    -0.036274699755    -0.098630914427    0.016013024395    0.870077048715    0.208314465432
            -0.003594428677    -0.036934768333    0.092535025787    0.035975916024    0.870077048715    0.208314465432    0.099216126844    0.057941095631
0.600     -0.085682144703    0.071049848796    0.888406995267    -0.030330177849    -0.075100522389    0.054389924505    -0.015989444180    -0.036060531152
            0.888406995267    -0.030330177849    0.116217360639    0.061347186152    -0.014912792160    -0.036002416267    0.104594386039    0.039134938166
            -0.075100522389    0.054389924505    -0.014912792160    -0.036002416267    -0.087915153083    0.068621090683    0.888766017615    -0.022854139438
            -0.015989444180    -0.036060531152    0.104594386039    0.039134938166    0.888766017615    -0.022854139438    0.116842000027    0.060572876148
0.625     -0.051963517073    0.112386144355    0.845360069402    -0.255508229630    -0.051752203036    0.094840170374    -0.027908660643    -0.029962462160
            0.845360069402    -0.255508229630    0.136050770149    0.055889410870    -0.027283118974    -0.030149869289    0.119448089957    0.036671872574
            -0.051752203036    0.094840170374    -0.027283118974    -0.030149869289    -0.054626565624    0.110762311272    0.847729257073    -0.248168063190
            -0.027908660643    -0.029962462160    0.119448089957    0.036671872574    0.847729257073    -0.248168063190    0.136150914253    0.055327969273
0.650     -0.003634337759    0.134186212301    0.747812274188    -0.459803088155    -0.012963809583    0.120839030047    -0.036580715406    -0.019265418387
            0.747812274188    -0.459803088155    0.153380130547    0.042313574084    -0.036282681120    -0.019488843334    0.134032082324    0.027721229841
            -0.012963809583    0.120839030047    -0.036282681120    -0.019488843334    -0.006349106529    0.133484619806    0.752100693685    -0.453139496028
            -0.036580715406    -0.019265418387    0.134032082324    0.027721229841    0.752100693685    -0.453139496028    0.153146126520    0.042214656951
0.675     0.048841876059    0.132317232624    0.603816724977    -0.631447959744    0.033144859657    0.127276138349    -0.040093593056    -0.006231316750
            0.603816724977    -0.631447959744    0.164703685335    0.022660924296    -0.039976727000    -0.006399842198    0.145302997132    0.012989094348
            0.033144859657    0.127276138349    -0.039976727000    -0.006399842198    0.046493342090    0.132487746856    0.609800338153    -0.625937295428
            -0.040093593056    -0.006231316750    0.145302997132    0.012989094348    0.609800338153    -0.625937295428    0.164423005530    0.023152548972
0.700     0.094656469993    0.107650658050    0.423058798816    -0.761301447010    0.077371957681    0.113035146780    -0.038243756517    0.006225931474
            0.423058798816    -0.761301447010    0.167939632986    0.000305030133    -0.038188650363    0.006118280024    0.150919826674    -0.005520495244
            0.077371957681    0.113035146780    -0.038188650363    0.006118280024    0.093051681753    0.108460701264    0.430423541918    -0.757339995340
            -0.038243756517    0.006225931474    0.150919826674    -0.005520495244    0.430423541918    -0.757339995340    0.167932623583    0.001363642406
0.725     0.124601937860    0.065424973032    0.216295917980    -0.842455315412    0.110976995498    0.080818613985    -0.032519359464    0.015740524378
            0.216295917980    -0.842455315412    0.162772579918    -0.020844532960    -0.032460189627    0.015645681044    0.149665913899    -0.024946941406
            0.110976995498    0.080818613985    -0.032460189627    0.015645681044    0.123999367172    0.066485469874    0.224659934940    -0.840362154270
            -0.032519359464    0.015740524378    0.149665913899    -0.024946941406    0.224659934940    -0.840362154270    0.163319876000    -0.019396376492
0.750     0.132479690640    0.014195968591    -0.004707227761    -0.869977265282    0.126962914113    0.036715808598    -0.025376103323    0.021400073161
            -0.004707227761    -0.869977265282    0.150687351129    -0.037132250495    -0.025312276953    0.021255645541    0.141738237151    -0.042091864422
            0.126962914113    0.036715808598    -0.025312276953    0.021255645541    0.132954537727    0.015018666183    0.004220823789    -0.870004791408
            -0.025376103323    0.021400073161    0.141738237151    -0.042091864422    0.004220823789    -0.870004791408    0.151962695015    -0.035595438598
0.775     0.116152326988    -0.035456049992    -0.226982283763    -0.841056312215    0.121295380339    -0.010494070980    -0.019102991465    0.024014719293
            -0.226982283763    -0.841056312215    0.134736789476    -0.045894880841    -0.019089718672    0.023785959851    0.128847339149    -0.054051214901
            0.121295380339    -0.010494070980    -0.019089718672    0.023785959851    0.117555261021    -0.035376754732    -0.218000356894    -0.843386286027
            -0.019102991465    0.024014719293    0.128847339149    -0.054051214901    -0.218000356894    -0.843386286027    0.136751973407    -0.044637556519
