# GHz S RI R 45
0.000     0.025972789829    0.001529349044    0.000000320357    0.000001197907    0.000754887938    0.001360200839    0.000000368842    0.000001277594
            0.000000320357    0.000001197907    0.027190425362    0.001609757529    0.000000277823    0.000001117343    0.000858712201    0.001640696645
            0.000754887723    0.001360200843    0.000000277823    0.000001117343    0.025941875528    0.001513580623    0.000000344192    0.000001227601
            0.000000368842    0.000001277594    0.000858712391    0.001640696659    0.000000344192    0.000001227601    0.027119349964    0.001621743315
0.025     0.033329537335    0.005773372340    0.000001257833    0.000002501253    0.004396161073    0.009874132838    0.000001381261    0.000002657965
            0.000001257830    0.000002501249    0.032686571300    0.007733904387    0.000001139005    0.000002344515    0.003229490077    0.011899367786
            0.004396303754    0.009873336994    0.000001139009    0.000002344518    0.033264346575    0.005734187744    0.000001307038    0.000002561633
            0.000001381263    0.000002657969    0.003229744793    0.011898792997    0.000001307036    0.000002561634    0.032591803412    0.007689821863
0.050     0.042381704996    0.002488602663    0.000003331941    0.000003936384    0.013880207987    0.015258060732    0.000003596234    0.000004155335
            0.000003331941    0.000003936384    0.037637735222    0.008838930767    0.000003075170    0.000003718160    0.009622369901    0.021246921232
            0.013880228899    0.015258043060    0.000003075170    0.000003718160    0.042304100690    0.002470617420    0.000003435259    0.000004025480
            0.000003596234    0.000004155335    0.009622467406    0.021246915495    0.000003435258    0.000004025480    0.037437737075    0.008805901787
0.075     0.049799106509    -0.007610726624    0.000005976906    0.000004320988    0.025370794241    0.013465399519    0.000006396313    0.000004529365
            0.000005976906    0.000004320988    0.040526152677    0.007098022538    0.000005565967    0.000004108478    0.017853150340    0.026587318472
            0.025370793422    0.013465405328    0.000005565967    0.000004108478    0.049741020390    -0.007599337324    0.000006141083    0.000004408775
            0.000006396314    0.000004529365    0.017853146071    0.026587320134    0.000006141083    0.000004408775    0.040226837355    0.007165040538
0.100     0.051653608757    -0.023236122432    0.000008851271    0.000003560003    0.034340937064    0.004412627623    0.000009419521    0.000003691842
            0.000008851271    0.000003560003    0.040109935812    0.004043060365    0.000008285949    0.000003418530    0.025537159388    0.027925518445
            0.034340937041    0.004412627802    0.000008285950    0.000003418530    0.051662434682    -0.023194708030    0.000009073007    0.000003620854
            0.000009419521    0.000003691842    0.025537133931    0.027925526818    0.000009073007    0.000003620854    0.039766608737    0.004282284632
0.125     0.044861669710    -0.040883977151    0.000011598126    0.000001605927    0.036849578988    -0.009522842854    0.000012289374    0.000001603340
            0.000011598126    0.000001605927    0.035804851275    0.001907665180    0.000010897132    0.000001598947    0.030781123609    0.026479325977
            0.036849579154    -0.009522842211    0.000010897132    0.000001598947    0.044992404633    -0.040832828954    0.000011865793    0.000001619452
            0.000012289374    0.000001603340    0.030781123609    0.026479325977    0.000011865793    0.000001619452    0.035520767383    0.002349095154
0.150     0.028700729252    -0.055489988931    0.000013847791    -0.000001530969    0.030758156605    -0.024158491651    0.000014625020    -0.000001714111
            0.000013847791    -0.000001530969    0.028743102440    0.002928955299    0.000013047123    -0.000001345014    0.032573298655    0.024271225922
            0.030758156605    -0.024158491651    0.000013047123    -0.000001345014    0.028985352182    -0.055502682996    0.000014147752    -0.000001577148
            0.000014625020    -0.000001714111    0.032573298655    0.024271225922    0.000014147752    -0.000001577148    0.028615385519    0.003536216892
0.175     0.005125178554    -0.062008591539    0.000015173443    -0.000005773284    0.016435480611    -0.034579668814    0.000015989269    -0.000006176092
            0.000015173443    -0.000005773284    0.020767499293    0.008636697006    0.000014329337    -0.000005341960    0.031253870614    0.023575980435
            0.016435480611    -0.034579668814    0.000014329337    -0.000005341960    0.005560971370    -0.062174891543    0.000015493382    -0.000005887278
            0.000015989269    -0.000006176092    0.031253870614    0.023575980435    0.000015493382    -0.000005887278    0.020868060864    0.009312537802
0.200     -0.021249737557    -0.056833855715    0.000015085867    -0.000010878234    -0.003117172614    -0.036580673405    0.000015880282    -0.000011533078
            0.000015085867    -0.000010878234    0.014554191531    0.019456825792    0.000014278211    -0.000010162960    0.028406522145    0.026109653260
            -0.003117172614    -0.036580673405    0.000014278211    -0.000010162960    -0.020717358772    -0.057242746201    0.000015416383    -0.000011069031
            0.000015880282    -0.000011533078    0.028406522145    0.026109653260    0.000015416383    -0.000011069031    0.014886795061    0.020070858259
0.225     -0.044206673422    -0.039083383533    0.000013126912    -0.000016338807    -0.022925947615    -0.027984175950    0.000013821314    -0.000017266080
            0.000013126912    -0.000016338807    0.012852686189    0.034253300709    0.000012458421    -0.000015327933    0.026354492148    0.032400311610
            -0.022925947615    -0.027984175950    0.000012458421    -0.000015327933    -0.043684445178    -0.039791157696    0.000013456228    -0.000016621075
            0.000013821314    -0.000017266080    0.026354492148    0.032400311610    0.000013456228    -0.000016621075    0.013341059489    0.034690406758
0.250     -0.057532802188    -0.011230999269    0.000009066921    -0.000021375003    -0.037344182430    -0.009481993934    0.000009563815    -0.000022570356
            0.000009066921    -0.000021375003    0.017547099377    0.050464033177    0.000008651755    -0.000020098743    0.027371482126    0.041562580081
            -0.037344182430    -0.009481993934    0.000008651755    -0.000020098743    -0.057156565034    -0.012231698304    0.000009372601    -0.000021768128
            0.000009563815    -0.000022570356    0.027371482126    0.041562580081    0.000009372601    -0.000021768128    0.018055322350    0.050671639456
0.275     -0.056797705512    0.021234808930    0.000003080963    -0.000025088723    -0.041646057567    0.015336664502    0.000003273499    -0.000026508501
            0.000003080963    -0.000025088723    0.028931022043    0.064747255278    0.000003023436    -0.000023626519    0.032882285858    0.051552600818
            -0.041646057567    0.015336664502    0.000003023436    -0.000023626519    -0.056694952459    0.020022052261    0.000003322673    -0.000025607711
            0.000003273499    -0.000026508501    0.032882285858    0.051552600818    0.000003322673    -0.000025607711    0.029310245540    0.064761566673
0.300     -0.040756893068    0.051047146173    -0.000004211402    -0.000026732716    -0.033437904617    0.040813023517    -0.000004418699    -0.000028285584
            -0.000004211402    -0.000026732716    0.045487341828    0.073997460903    -0.000003841689    -0.000025205519    0.042975524529    0.059852191285
            -0.033437904617    0.040813023517    -0.000003841689    -0.000025205519    -0.041005705339    0.049768634689    -0.000004090079    -0.000027373704
            -0.000004418699    -0.000028285584    0.042975524529    0.059852191285    -0.000004090079    -0.000027373704    0.045630490855    0.073938415810
0.325     -0.011893081985    0.070987900360    -0.000011908394    -0.000025948303    -0.013415478576    0.060660901358    -0.000012575189    -0.000027501575
            -0.000011908394    -0.000025948303    0.064281302882    0.076276616570    -0.000011093146    -0.000024498210    0.056382647196    0.064261706682
            -0.013415478576    0.060660901358    -0.000011093146    -0.000024498210    -0.012489926562    0.069823316000    -0.000011967745    -0.000026677058
            -0.000012575189    -0.000027501575    0.056382647196    0.064261706682    -0.000011967745    -0.000026677058    0.064164670629    0.076311885631
0.350     0.024027676390    0.075735293580    -0.000019104217    -0.000022844976    0.014709375916    0.069574183558    -0.000020236055    -0.000024243939
            -0.000019104217    -0.000022844976    0.081794645277    0.071385935611    -0.000017877997    -0.000021608452    0.070888020437    0.063547978247
            0.014709375916    0.069574183558    -0.000017877997    -0.000021608452    0.023178837307    0.074852963997    -0.000019388922    -0.000023595164
            -0.000020236055    -0.000024243939    0.070888020437    0.063547978247    -0.000019388922    -0.000023595164    0.081492422330    0.071677557175
0.375     0.059249823791    0.063214182651    -0.000025143139    -0.000017877058    0.045040108732    0.064537817734    -0.000026686087    -0.000018971489
            -0.000025143139    -0.000017877058    0.094876905872    0.060875124844    -0.000023580721    -0.000016964739    0.083945346117    0.057745432370
            0.045040108732    0.064537817734    -0.000023580721    -0.000016964739    0.058325834390    0.062724532228    -0.000025664475    -0.000018561405
            -0.000026686087    -0.000018971489    0.083945346117    0.057745432370    -0.000025664475    -0.000018561405    0.094545964929    0.061527870495
0.400     0.085759391561    0.035176259719    -0.000029724450    -0.000011602851    0.070798338352    0.045590650766    -0.000031574121    -0.000012272281
            -0.000029724450    -0.000011602851    0.101539943246    0.047626353552    -0.000027921716    -0.000011091625    0.093337657144    0.048149456828
            0.070798338352    0.045590650766    -0.000027921716    -0.000011091625    0.084983405883    0.035095076537    -0.000030451704    -0.000012134178
            -0.000031574121    -0.000012272281    0.093337657144    0.048149456828    -0.000030451704    -0.000012134178    0.101380376460    0.048650152636
0.425     0.097050486822    -0.003071095204    -0.000032822983    -0.000004444818    0.085784586549    0.015925481368    -0.000034843809    -0.000004614617
            -0.000032822983    -0.000004444818    0.101431870466    0.035129295376    -0.000030880564    -0.000004382204    0.097732067575    0.037015787948
            0.085784586549    0.015925481368    -0.000030880564    -0.000004382204    0.096642893588    -0.002840596871    -0.000033688730    -0.000004759270
            -0.000034843809    -0.000004614617    0.097732067575    0.037015787948    -0.000033688730    -0.000004759270    0.101632615759    0.036426351493
0.450     0.089604338396    -0.043655083096    -0.000034472980    0.000003426350    0.085764605957    -0.018622130129    -0.000036520875    0.000003780211
            -0.000034472980    0.000003426350    0.095960561943    0.026654367638    -0.000032490721    0.000003010882    0.097090883271    0.027054951025
            0.085764605957    -0.018622130129    -0.000032490721    0.000003010882    0.089726363367    -0.043315087070    -0.000035392186    0.000003351841
            -0.000036520875    0.000003780211    0.097090883271    0.027054951025    -0.000035392186    0.000003351841    0.096643552137    0.028035621559
0.475     0.063821449470    -0.077689401046    -0.000034531146    0.000012014206    0.069541197252    -0.050651321126    -0.000036472477    0.000012872993
            -0.000034531146    0.000012014206    0.088030859823    0.024411541243    -0.000032614033    0.000011099737    0.092809397657    0.020720931549
            0.069541197252    -0.050651321126    -0.000032614033    0.000011099737    0.064525669935    -0.077513771520    -0.000035426202    0.000012159364
            -0.000036472477    0.000012872993    0.092809397657    0.020720931549    -0.000035426202    0.000012159364    0.089209792329    0.025639961282
0.500     0.024225653280    -0.097161938863    -0.000032540146    0.000021218538    0.039514231961    -0.072727873567    -0.000034262183    0.000022539953
            -0.000032540146    0.000021218538    0.081400950184    0.028869969397    -0.000030810303    0.000019795943    0.087484561343    0.019444471881
            0.039514231961    -0.072727873567    -0.000030810303    0.000019795943    0.025423947519    -0.097438523989    -0.000033365667    0.000021541232
            -0.000034262183    0.000022539953    0.087484561343    0.019444471881    -0.000033365667    0.000021541232    0.082967172709    0.029721117075
0.525     -0.021235398157    -0.096829793259    -0.000027839116    0.000030551592    0.001463968273    -0.079124460919    -0.000029249684    0.000032281892
            -0.000027839116    0.000030551592    0.079669443118    0.038434213271    -0.000026442565    0.000028639382    0.084201600730    0.023023934136
            0.001463968273    -0.079124460919    -0.000026442565    0.000028639382    -0.019770295823    -0.097788539572    -0.000028590630    0.000031012733
            -0.000029249684    0.000032281892    0.084201600730    0.023023934136    -0.000028590630    0.000031012733    0.081409315567    0.038752165361
0.550     -0.062795653556    -0.075682469393    -0.000019965509    0.000038971031    -0.036548027966    -0.067384033559    -0.000020980306    0.000041050210
            -0.000019965509    0.000038971031    0.085149450925    0.049741992037    -0.000019063514    0.000036641995    0.085514648769    0.029545571497
            -0.036548027966    -0.067384033559    -0.000019063514    0.000036641995    -0.061390519411    -0.077428016133    -0.000020660794    0.000039562674
            -0.000020980306    0.000041050210    0.085514648769    0.029545571497    -0.000020660794    0.000039562674    0.086766434246    0.049487727932
0.575     -0.091116998896    -0.037467747144    -0.000009078721    0.000045059451    -0.066022174999    -0.039162550285    -0.000009610951    0.000047417774
            -0.000009078721    0.000045059451    0.098023422348    0.058609841229    -0.000008819732    0.000042454526    0.092535025787    0.035975916024
            -0.066022174999    -0.039162550285    -0.000008819732    0.000042454526    -0.090124080718    -0.039937269510    -0.000009723721    0.000045814408
            -0.000009610951    0.000047417774    0.092535025787    0.035975916024    -0.000009723721    0.000045814408    0.099216126844    0.057941095631
0.600     -0.099602139085    0.010007528606    0.000003842581    0.000047513442    -0.080131012179    -0.000011468110    0.000003886419    0.000050053863
            0.000003842581    0.000047513442    0.116217360639    0.061347186152    0.000003363150    0.000044835324    0.104594386039    0.039134938166
            -0.080131012179    -0.000011468110    0.000003363150    0.000044835324    -0.099311354867    0.007044686170    0.000003291452    0.000048481571
            0.000003886419    0.000050053863    0.104594386039    0.039134938166    0.000003291452    0.000048481571    0.116842000027    0.060572876148
0.625     -0.086047317900    0.056696669895    0.000017197779    0.000045664997    -0.075410820620    0.041926659862    0.000017899257    0.000048244735
            0.000017197779    0.000045664997    0.136050770149    0.055889410870    0.000015967868    0.000043148260    0.119448089957    0.036671872574
            -0.075410820620    0.041926659862    0.000015967868    0.000043148260    -0.086612140365    0.053594312943    0.000016839225    0.000046868224
            0.000017899257    0.000048244735    0.119448089957    0.036671872574    0.000016839225    0.000046868224    0.136150914253    0.055327969273
0.650     -0.053139595627    0.092707594064    0.000029271839    0.000039737526    -0.052543519464    0.077868830579    0.000030670159    0.000042168613
            0.000029271839    0.000039737526    0.153380130547    0.042313574084    0.000027368724    0.000037605132    0.134032082324    0.027721229841
            -0.052543519464    0.077868830579    0.000027368724    0.000037605132    -0.054534770365    0.089862174150    0.000029230555    0.000041133989
            0.000030670159    0.000042168613    0.134032082324    0.027721229841    0.000029230555    0.000041133989    0.153146126520    0.042214656951
0.675     -0.007711539302    0.110534705776    0.000038761789    0.000030709387    -0.016057243158    0.100362720452    0.000040829413    0.000032780069
            0.000038761789    0.000030709387    0.164703685335    0.022660924296    0.000036332542    0.000029136162    0.145302997132    0.012989094348
            -0.016057243158    0.100362720452    0.000036332542    0.000029136162    -0.009733309359    0.108297003931    0.000039143596    0.000032184313
            0.000040829413    0.000032780069    0.145302997132    0.012989094348    0.000039143596    0.000032184313    0.164423005530    0.023152548972
0.700     0.040891680543    0.106573818608    0.000045078049    0.000019910099    0.026780205605    0.104784412146    0.000047710113    0.000021415316
            0.000045078049    0.000019910099    0.167939632986    0.000305030133    0.000042305688    0.000019003527    0.150919826674    -0.005520495244
            0.026780205605    0.104784412146    0.000042305688    0.000019003527    0.038587332755    0.105172105548    0.000045927006    0.000021294458
            0.000047710113    0.000021415316    0.150919826674    -0.005520495244    0.000045927006    0.000021294458    0.167932623583    0.001363642406
0.725     0.082811166833    0.081679630191    0.000048339443    0.000008556275    0.067487959782    0.090110885460    0.000051359469    0.000009330469
            0.000048339443    0.000008556275    0.162772579918    -0.020844532960    0.000045409196    0.000008359747    0.149665913899    -0.024946941406
            0.067487959782    0.090110885460    0.000045409196    0.000008359747    0.080642187246    0.081168754482    0.000049612727    0.000009667245
            0.000051359469    0.000009330469    0.149665913899    -0.024946941406    0.000049612727    0.000009667245    0.163319876000    -0.019396376492
0.750     0.109593482137    0.040848404420    0.000049115135    -0.000002598042    0.097971885745    0.059029323213    0.000052294677    -0.000002652679
            0.000049115135    -0.000002598042    0.150687351129    -0.037132250495    0.000046192532    -0.000002086879    0.141738237151    -0.042091864422
            0.097971885745    0.059029323213    0.000046192532    -0.000002086879    0.107970628433    0.041091848319    0.000050684889    -0.000001907164
            0.000052294677    -0.000002652679    0.141738237151    -0.042091864422    0.000050684889    -0.000001907164    0.151962695015    -0.035595438598
0.775     0.115745840994    -0.007783317097    0.000048018560    -0.000013390391    0.111984346763    0.017449425240    0.000051108838    -0.000014287508
            0.000048018560    -0.000013390391    0.134736789476    -0.045894880841    0.000045245478    -0.000012194734    0.128847339149    -0.054051214901
            0.111984346763    0.017449425240    0.000045245478    -0.000012194734    0.114990370474    -0.007097983892    0.000049702482    -0.000013186959
            0.000051108838    -0.000014287508    0.128847339149    -0.054051214901    0.000049702482    -0.000013186959    0.136751973407    -0.044637556519
