# GHz S RI R 45
0.000     0.026910962716    0.001388975743    -0.000008354341    -0.000021028833    0.000798530677    0.001197857009    -0.000008408914    -0.000022181148
            -0.000008354316    -0.000021028834    0.027190425362    0.001609757529    -0.000007693007    -0.000018815289    0.000858712201    0.001640696645
            0.000798530677    0.001197857009    -0.000007693011    -0.000018815290    0.026731168414    0.001384375649    -0.000008673647    -0.000021565781
            -0.000008408984    -0.000022181147    0.000858712391    0.001640696659    -0.000008673612    -0.000021565780    0.027119349964    0.001621743315
0.025     0.034169315905    0.006198489197    -0.000026893865    -0.000046385245    0.004391719621    0.010380453155    -0.000027226634    -0.000047630169
            -0.000026893862    -0.000046385241    0.032686571300    0.007733904387    -0.000024730268    -0.000042941533    0.003229490077    0.011899367786
            0.004391558026    0.010380774513    -0.000024730307    -0.000042941583    0.034111377698    0.006180583829    -0.000027698146    -0.000047887949
            -0.000027226634    -0.000047630169    0.003229744793    0.011898792997    -0.000027698139    -0.000047887937    0.032591803412    0.007689821863
0.050     0.042993330801    0.003204610227    -0.000067122643    -0.000071591449    0.013731228811    0.016259994935    -0.000068450606    -0.000073803934
            -0.000067122641    -0.000071591447    0.037637735222    0.008838930767    -0.000062033537    -0.000066463146    0.009622369901    0.021246921232
            0.013731220736    0.016260004372    -0.000062033539    -0.000066463148    0.042952550765    0.003194596404    -0.000069083987    -0.000074148110
            -0.000068450606    -0.000073803934    0.009622467406    0.021246915495    -0.000069084035    -0.000074148188    0.037437737075    0.008805901787
0.075     0.049779166574    -0.006509930719    -0.000117451331    -0.000075409159    0.024883448069    0.015005053184    -0.000120296217    -0.000078090475
            -0.000117451331    -0.000075409159    0.040526152677    0.007098022538    -0.000108804081    -0.000070023802    0.017853150340    0.026587318472
            0.024883443547    0.015005058748    -0.000108804081    -0.000070023802    0.049786994022    -0.006519022903    -0.000121123683    -0.000078516283
            -0.000120296203    -0.000078090496    0.017853146071    0.026587320134    -0.000121123683    -0.000078516283    0.040226837355    0.007165040538
0.100     0.050631697049    -0.021374349348    -0.000170445429    -0.000056793233    0.033292676549    0.006690110522    -0.000175156545    -0.000059198541
            -0.000170445429    -0.000056793233    0.040109935812    0.004043060365    -0.000157999542    -0.000052685546    0.025537159388    0.027925518445
            0.033292676432    0.006690111103    -0.000157999542    -0.000052685546    0.050722044342    -0.021406109830    -0.000176269152    -0.000059644546
            -0.000175156545    -0.000059198541    0.025537133931    0.027925526818    -0.000176269172    -0.000059644519    0.039766608737    0.004282284632
0.125     0.042651582855    -0.037621313186    -0.000219106694    -0.000015665366    0.035109308465    -0.006104175218    -0.000225682667    -0.000016858415
            -0.000219106694    -0.000015665366    0.035804851275    0.001907665180    -0.000203131836    -0.000014473296    0.030781123609    0.026479325977
            0.035109310542    -0.006104174948    -0.000203131846    -0.000014473297    0.042845539612    -0.037713517739    -0.000227128708    -0.000017176444
            -0.000225682667    -0.000016858415    0.030781123609    0.026479325977    -0.000227128708    -0.000017176444    0.035520767383    0.002349095154
0.150     0.025505999735    -0.049956648156    -0.000256579919    0.000047106920    0.028430061571    -0.019040692327    -0.000264564450    0.000048072927
            -0.000256579919    0.000047106920    0.028743102440    0.002928955299    -0.000237835688    0.000043812973    0.032573298655    0.024271225922
            0.028430064729    -0.019040693004    -0.000237835688    0.000043812973    0.025806343285    -0.050177895240    -0.000266287298    0.000048036063
            -0.000264564450    0.000048072927    0.032573298655    0.024271225922    -0.000266287298    0.000048036063    0.028615385519    0.003536216892
0.175     0.001685519243    -0.053414709051    -0.000274855798    0.000129728532    0.013987966372    -0.027182442397    -0.000283352475    0.000133541230
            -0.000274855798    0.000129728532    0.020767499293    0.008636697006    -0.000254714918    0.000120491748    0.031253870614    0.023575980435
            0.013987982351    -0.027182444296    -0.000254714918    0.000120491748    0.002054401743    -0.053836415195    -0.000285212182    0.000133853872
            -0.000283352475    0.000133541230    0.031253870614    0.023575980435    -0.000285212182    0.000133853872    0.020868060864    0.009312537802
0.200     -0.023690498731    -0.044757524575    -0.000264467944    0.000227097690    -0.004801176163    -0.026539582843    -0.000272319670    0.000233998279
            -0.000264467944    0.000227097690    0.014554191531    0.019456825792    -0.000244976329    0.000210868928    0.028406522145    0.026109653260
            -0.004801176163    -0.026539582843    -0.000244976329    0.000210868928    -0.023334036598    -0.045429762711    -0.000274215956    0.000234596988
            -0.000272319670    0.000233998279    0.028406522145    0.026109653260    -0.000274215956    0.000234596988    0.014886795061    0.020070858259
0.225     -0.044087176805    -0.023797022428    -0.000216549569    0.000328470293    -0.022662794081    -0.015441334730    -0.000222604938    0.000338183462
            -0.000216549569    0.000328470293    0.012852686189    0.034253300709    -0.000200339313    0.000304967852    0.026354492148    0.032400311610
            -0.022662794081    -0.015441334730    -0.000200339313    0.000304967852    -0.043853883454    -0.024722707519    -0.000224601966    0.000338962383
            -0.000222604938    0.000338183462    0.026354492148    0.032400311610    -0.000224601966    0.000338962383    0.013341059489    0.034690406758
0.250     -0.053398195969    0.006076601728    -0.000127426920    0.000417305452    -0.033973427881    0.004697795248    -0.000130771864    0.000429155458
            -0.000127426920    0.000417305452    0.017547099377    0.050464033177    -0.000117340082    0.000387366931    0.027371482126    0.041562580081
            -0.033973427881    0.004697795248    -0.000117340082    0.000387366931    -0.053398471539    0.004957442856    -0.000133075200    0.000430160413
            -0.000130771864    0.000429155458    0.027371482126    0.041562580081    -0.000133075200    0.000430160413    0.018055322350    0.050671639456
0.275     -0.047872844108    0.038529082333    -0.000002503799    0.000475008081    -0.034500718367    0.029583113425    -0.000002565009    0.000488115661
            -0.000002503799    0.000475008081    0.028931022043    0.064747255278    -0.000001031907    0.000440680022    0.032882285858    0.051552600818
            -0.034500718367    0.029583113425    -0.000001031907    0.000440680022    -0.048180079623    0.037335585468    -0.000005374773    0.000489658643
            -0.000002565009    0.000488115661    0.032882285858    0.051552600818    -0.000005374773    0.000489658643    0.029310245540    0.064761566673
0.300     -0.027434956448    0.065897357188    0.000143223975    0.000487234095    -0.022766164745    0.053188701041    0.000146733885    0.000500691126
            0.000143223975    0.000487234095    0.045487341828    0.073997460903    0.000134543357    0.000451506420    0.042975524529    0.059852191285
            -0.022766164745    0.053188701041    0.000134543357    0.000451506420    -0.028054457340    0.064783488267    0.000143499853    0.000503311590
            0.000146733885    0.000500691126    0.042975524529    0.059852191285    0.000143499853    0.000503311590    0.045630490855    0.073938415810
0.325     0.004111977701    0.081277083697    0.000289490036    0.000448981361    -0.000535404737    0.069432319731    0.000296685428    0.000461905425
            0.000289490036    0.000448981361    0.064281302882    0.076276616570    0.000270392089    0.000415217430    0.056382647196    0.064261706682
            -0.000535404737    0.069432319731    0.000270392089    0.000415217430    0.003257206615    0.080391041883    0.000293515464    0.000466127898
            0.000296685428    0.000461905425    0.056382647196    0.064261706682    0.000293515464    0.000466127898    0.064164670629    0.076311885631
0.350     0.039970426115    0.080362703050    0.000417303311    0.000365669591    0.027621471524    0.073788001205    0.000428187609    0.000377147617
            0.000417303311    0.000365669591    0.081794645277    0.071385935611    0.000388719799    0.000336976037    0.070888020437    0.063547978247
            0.027621471524    0.073788001205    0.000388719799    0.000336976037    0.039031003020    0.079804756250    0.000425945595    0.000383171646
            0.000428187609    0.000377147617    0.070888020437    0.063547978247    0.000425945595    0.000383171646    0.081492422330    0.071677557175
0.375     0.071976570820    0.062531486641    0.000514273316    0.000249615600    0.055434393765    0.064384464256    0.000528709582    0.000258595471
            0.000514273316    0.000249615600    0.094876905872    0.060875124844    0.000477960617    0.000228423164    0.083945346117    0.057745432370
            0.055434393765    0.064384464256    0.000477960617    0.000228423164    0.071147001008    0.062319383503    0.000528349425    0.000266094651
            0.000528709582    0.000258595471    0.083945346117    0.057745432370    0.000528349425    0.000266094651    0.094545964929    0.061527870495
0.400     0.092441575781    0.031050868547    0.000576333384    0.000114413818    0.076320631273    0.042473272582    0.000593867426    0.000119702105
            0.000576333384    0.000114413818    0.101539943246    0.047626353552    0.000534390252    0.000102392158    0.093337657144    0.048149456828
            0.076320631273    0.042473272582    0.000534390252    0.000102392158    0.091917587511    0.031102136255    0.000596092178    0.000127806956
            0.000593867426    0.000119702105    0.093337657144    0.048149456828    0.000596092178    0.000127806956    0.101380376460    0.048650152636
0.425     0.095838107622    -0.007508130496    0.000605347792    -0.000030171627    0.084782614257    0.012299997796    0.000625036975    -0.000029789672
            0.000605347792    -0.000030171627    0.101431870466    0.035129295376    0.000559886536    -0.000031843096    0.097732067575    0.037015787948
            0.084782614257    0.012299997796    0.000559886536    -0.000031843096    0.095766261460    -0.007372973366    0.000629992195    -0.000022218120
            0.000625036975    -0.000029789672    0.097732067575    0.037015787948    0.000629992195    -0.000022218120    0.101632615759    0.036426351493
0.450     0.080130134753    -0.044470571680    0.000604209008    -0.000180207905    0.077704128116    -0.019548684955    0.000624531248    -0.000185685732
            0.000604209008    -0.000180207905    0.095960561943    0.026654367638    0.000557388999    -0.000170551196    0.097090883271    0.027054951025
            0.077704128116    -0.019548684955    0.000557388999    -0.000170551196    0.080560130128    -0.044501020354    0.000631751679    -0.000179649786
            0.000624531248    -0.000185685732    0.097090883271    0.027054951025    0.000631751679    -0.000179649786    0.096643552137    0.028035621559
0.475     0.047560017894    -0.070779521795    0.000571591725    -0.000335557984    0.055369167320    -0.045358342445    0.000590536725    -0.000347284847
            0.000571591725    -0.000335557984    0.088030859823    0.024411541243    0.000525930649    -0.000313664152    0.092809397657    0.020720931549
            0.055369167320    -0.045358342445    0.000525930649    -0.000313664152    0.048410811126    -0.071242962843    0.000599200967    -0.000343316013
            0.000590536725    -0.000347284847    0.092809397657    0.020720931549    0.000599200967    -0.000343316013    0.089209792329    0.025639961282
0.500     0.004650214656    -0.079100672187    0.000499721816    -0.000494062439    0.021918298542    -0.058055347530    0.000515090613    -0.000511569291
            0.000499721816    -0.000494062439    0.081400950184    0.028869969397    0.000458476108    -0.000459374274    0.087484561343    0.019444471881
            0.021918298542    -0.058055347530    0.000458476108    -0.000459374274    0.005703291273    -0.080214041004    0.000524472984    -0.000509631704
            0.000515090613    -0.000511569291    0.087484561343    0.019444471881    0.000524472984    -0.000509631704    0.082967172709    0.029721117075
0.525     -0.038907145794    -0.065926869127    0.000377567462    -0.000644833772    -0.015194982721    -0.053224588033    0.000387464644    -0.000666708699
            0.000377567462    -0.000644833772    0.079669443118    0.038434213271    0.000344851389    -0.000597777100    0.084201600730    0.023023934136
            -0.015194982721    -0.053224588033    0.000344851389    -0.000597777100    -0.037974221448    -0.067784705567    0.000397296400    -0.000666542087
            0.000387464644    -0.000666708699    0.084201600730    0.023023934136    0.000397296400    -0.000666542087    0.081409315567    0.038752165361
0.550     -0.072528887439    -0.032988199396    0.000199629123    -0.000765857270    -0.046939238659    -0.030726275672    0.000202900162    -0.000790044170
            0.000199629123    -0.000765857270    0.085149450925    0.049741992037    0.000179865141    -0.000708614129    0.085514648769    0.029545571497
            -0.046939238659    -0.030726275672    0.000179865141    -0.000708614129    -0.072067691647    -0.035514117472    0.000213382710    -0.000791640675
            0.000202900162    -0.000790044170    0.085514648769    0.029545571497    0.000213382710    -0.000791640675    0.086766434246    0.049487727932
0.575     -0.087657626312    0.012812693435    -0.000025171734    -0.000829662146    -0.065238578044    0.004933185106    -0.000028727191    -0.000853998527
            -0.000025171734    -0.000829662146    0.098023422348    0.058609841229    -0.000028254963    -0.000766420091    0.092535025787    0.035975916024
            -0.065238578044    0.004933185106    -0.000028254963    -0.000766420091    -0.087951793008    0.009867006345    -0.000017359996    -0.000857950985
            -0.000028727191    -0.000853998527    0.092535025787    0.035975916024    -0.000017359996    -0.000857950985    0.099216126844    0.057941095631
0.600     -0.080248612763    0.061171339354    -0.000271332427    -0.000815024132    -0.065340113516    0.045798154662    -0.000281270692    -0.000837653032
            -0.000271332427    -0.000815024132    0.116217360639    0.061347186152    -0.000255833324    -0.000751505881    0.104594386039    0.039134938166
            -0.065340113516    0.045798154662    -0.000255833324    -0.000751505881    -0.081428844727    0.058174004258    -0.000269300569    -0.000845058272
            -0.000281270692    -0.000837653032    0.104594386039    0.039134938166    -0.000269300569    -0.000845058272    0.116842000027    0.060572876148
0.625     -0.051791392734    0.101236180465    -0.000503914714    -0.000717028705    -0.046994585309    0.082762927729    -0.000519400300    -0.000736498516
            -0.000503914714    -0.000717028705    0.136050770149    0.055889410870    -0.000470417589    -0.000659394019    0.119448089957    0.036671872574
            -0.046994585309    0.082762927729    -0.000470417589    -0.000659394019    -0.053794694270    0.098586149956    -0.000508094044    -0.000748446655
            -0.000519400300    -0.000736498516    0.119448089957    0.036671872574    -0.000508094044    -0.000748446655    0.136150914253    0.055327969273
0.650     -0.008606740886    0.124395431471    -0.000690750548    -0.000549389533    -0.014164624400    0.107943336003    -0.000710819281    -0.000564619819
            -0.000690750548    -0.000549389533    0.153380130547    0.042313574084    -0.000642223277    -0.000502925125    0.134032082324    0.027721229841
            -0.014164624400    0.107943336003    -0.000642223285    -0.000502925131    -0.011188556970    0.122424272780    -0.000702314774    -0.000581471456
            -0.000710819281    -0.000564619819    0.134032082324    0.027721229841    -0.000702314774    -0.000581471456    0.153146126520    0.042214656951
0.675     0.040032338762    0.126056877481    -0.000812143822    -0.000338247127    0.026308891083    0.116280881906    -0.000835830374    -0.000348342013
            -0.000812143822    -0.000338247127    0.164703685335    0.022660924296    -0.000753036900    -0.000306454105    0.145302997132    0.012989094348
            0.026308891083    0.116280881906    -0.000753036900    -0.000306454105    0.037244100636    0.124953816958    -0.000832578197    -0.000369202066
            -0.000835830374    -0.000348342013    0.145302997132    0.012989094348    -0.000832578197    -0.000369202066    0.164423005530    0.023152548972
0.700     0.084087025817    0.106202447183    -0.000864123635    -0.000112496005    0.066324398563    0.106205048220    -0.000890372153    -0.000116607005
            -0.000864123635    -0.000112496005    0.167939632986    0.000305030133    -0.000799241101    -0.000096810801    0.150919826674    -0.005520495244
            0.066324398563    0.106205048220    -0.000799241101    -0.000096810801    0.081515620680    0.105973097001    -0.000894298409    -0.000139250017
            -0.000890372153    -0.000116607005    0.150919826674    -0.005520495244    -0.000894298409    -0.000139250017    0.167932623583    0.001363642406
0.725     0.114641843154    0.069014633037    -0.000855548514    0.000104750169    0.097954949810    0.079607926202    -0.000883050900    0.000107461755
            -0.000855548514    0.000104750169    0.162772579918    -0.020844532960    -0.000789036248    0.000104453616    0.149665913899    -0.024946941406
            0.097954949810    0.079607926202    -0.000789036248    0.000104453616    0.112681251166    0.069474711186    -0.000894782868    0.000086167878
            -0.000883050900    0.000107461755    0.149665913899    -0.024946941406    -0.000894782868    0.000086167878    0.163319876000    -0.019396376492
0.750     0.125350763445    0.022001597719    -0.000801845837    0.000301146174    0.114657732601    0.041503684179    -0.000828832965    0.000311368783
            -0.000801845837    0.000301146174    0.150687351129    -0.037132250495    -0.000736781442    0.000285676910    0.141738237151    -0.042091864422
            0.114657732601    0.041503684179    -0.000736781442    0.000285676910    0.124286734272    0.022800648446    -0.000847356766    0.000294554117
            -0.000828832965    0.000311368783    0.141738237151    -0.042091864422    -0.000847356766    0.000294554117    0.151962695015    -0.035595438598
0.775     0.113523869534    -0.025178011182    -0.000717185300    0.000475809832    0.112391562035    -0.000568535211    -0.000741393617    0.000493698381
            -0.000717185300    0.000475809832    0.134736789476    -0.045894880841    -0.000655869202    0.000445758037    0.128847339149    -0.054051214901
            0.112391562035    -0.000568535211    -0.000655869202    0.000445758037    0.113466366125    -0.024504114527    -0.000764231598    0.000483571599
            -0.000741393617    0.000493698381    0.128847339149    -0.054051214901    -0.000764231598    0.000483571599    0.136751973407    -0.044637556519
