# GHz S RI R 45
0.000     0.027568370699    0.001607272338    0.000001828201    0.000003673432    0.000893561967    0.001642948101    0.000001988707    0.000004299847
            0.000001828050    0.000003673434    0.027190425362    0.001609757529    0.000002201130    0.000004318894    0.000858712201    0.001640696645
            0.000893561747    0.001642948107    0.000002201138    0.000004318893    0.027527385188    0.001595044043    0.000002403496    0.000005126547
            0.000001989042    0.000004299842    0.000858712391    0.001640696659    0.000002403417    0.000005126548    0.027119349964    0.001621743315
0.025     0.033475836036    0.007960902403    0.000003492695    0.000008492450    0.003489129787    0.012238460909    0.000003660466    0.000009612136
            0.000003492712    0.000008492443    0.032686571300    0.007733904387    0.000004481015    0.000010405998    0.003229490077    0.011899367786
            0.003481208110    0.012236275108    0.000004481020    0.000010406014    0.033403007299    0.007910889311    0.000004481538    0.000011636090
            0.000003660484    0.000009612146    0.003229744793    0.011898792997    0.000004481531    0.000011636079    0.032591803412    0.007689821863
0.050     0.038876016747    0.008854997035    0.000006670080    0.000015075497    0.010366203922    0.021603173831    0.000006818221    0.000017410375
            0.000006670080    0.000015075497    0.037637735222    0.008838930767    0.000008771141    0.000018105296    0.009622369901    0.021246921232
            0.010366263812    0.021603106272    0.000008771142    0.000018105295    0.038753384158    0.008826157244    0.000008444495    0.000020984007
            0.000006818221    0.000017410375    0.009622467406    0.021246915495    0.000008444495    0.000020984006    0.037437737075    0.008805901787
0.075     0.042032023546    0.006464117256    0.000010294792    0.000020418824    0.019060803104    0.026502092697    0.000010596163    0.000024272348
            0.000010294793    0.000020418824    0.040526152677    0.007098022538    0.000013502270    0.000023863016    0.017853150340    0.026587318472
            0.019060801725    0.026502145424    0.000013502271    0.000023863017    0.041879505602    0.006483318895    0.000013147625    0.000029038820
            0.000010596163    0.000024272348    0.017853146071    0.026587320134    0.000013147625    0.000029038820    0.040226837355    0.007165040538
0.100     0.041380752537    0.002506261113    0.000013920508    0.000025030110    0.026841137334    0.027046249956    0.000014831916    0.000030639114
            0.000013920508    0.000025030110    0.040109935812    0.004043060365    0.000017815711    0.000028387342    0.025537159388    0.027925518445
            0.026841136862    0.027046250425    0.000017815711    0.000028387342    0.041243720514    0.002602349332    0.000018277191    0.000036334610
            0.000014831916    0.000030639114    0.025537133931    0.027925526818    0.000018277191    0.000036334610    0.039766608737    0.004282284632
0.125     0.036239512309    -0.000335145500    0.000017484944    0.000029521662    0.031597201687    0.024758557536    0.000019656712    0.000036863894
            0.000017484944    0.000029521662    0.035804851275    0.001907665180    0.000021412350    0.000032718478    0.030781123609    0.026479325977
            0.031597201687    0.024758557536    0.000021412350    0.000032718478    0.036185993271    -0.000181610109    0.000023876724    0.000043377940
            0.000019656712    0.000036863894    0.030781123609    0.026479325977    0.000023876724    0.000043377940    0.035520767383    0.002349095154
0.150     0.027752592278    0.000513096658    0.000021358635    0.000034478775    0.032360627316    0.022083034876    0.000025446337    0.000043184854
            0.000021358635    0.000034478775    0.028743102440    0.002928955299    0.000024738683    0.000037973344    0.032573298655    0.024271225922
            0.032360627316    0.022083034876    0.000024738683    0.000037973344    0.027828926586    0.000680317257    0.000030346487    0.000050603707
            0.000025446337    0.000043184854    0.032573298655    0.024271225922    0.000030346487    0.000050603707    0.028615385519    0.003536216892
0.175     0.018245084684    0.006969532622    0.000026351304    0.000040091392    0.029762657591    0.021623409501    0.000032808305    0.000049461935
            0.000026351304    0.000040091392    0.020767499293    0.008636697006    0.000029022777    0.000044749202    0.031253870614    0.023575980435
            0.029762657591    0.021623409501    0.000029022777    0.000044749202    0.018472886981    0.007069085395    0.000038455301    0.000058012913
            0.000032808305    0.000049461935    0.031253870614    0.023575980435    0.000038455301    0.000058012913    0.020868060864    0.009312537802
0.200     0.011012711292    0.019480952652    0.000033388685    0.000045931276    0.025868073238    0.025202939562    0.000042287136    0.000055086798
            0.000033388685    0.000045931276    0.014554191531    0.019456825792    0.000035827412    0.000052711402    0.028406522145    0.026109653260
            0.025868073238    0.025202939562    0.000035827412    0.000052711402    0.011360565728    0.019417231748    0.000048991197    0.000065012973
            0.000042287136    0.000055086798    0.028406522145    0.026109653260    0.000048991197    0.000065012973    0.014886795061    0.020070858259
0.225     0.009364366184    0.036530524608    0.000043057595    0.000050871840    0.023499772627    0.033130736959    0.000054017159    0.000058989249
            0.000043057595    0.000050871840    0.012852686189    0.034253300709    0.000046371182    0.000060408143    0.026354492148    0.032400311610
            0.023499772627    0.033130736959    0.000046371182    0.000060408143    0.009743998401    0.036230556764    0.000062321860    0.000070374873
            0.000054017159    0.000058989249    0.026354492148    0.032400311610    0.000062321860    0.000070374873    0.013341059489    0.034690406758
0.250     0.015440866387    0.054863730593    0.000055135831    0.000053431235    0.025229328909    0.044008884676    0.000067406493    0.000060002923
            0.000055135831    0.000053431235    0.017547099377    0.050464033177    0.000060802108    0.000065676381    0.027371482126    0.041562580081
            0.025229328909    0.044008884676    0.000060802108    0.000065676381    0.015725843845    0.054310615007    0.000077967240    0.000072636639
            0.000067406493    0.000060002923    0.027371482126    0.041562580081    0.000077967240    0.000072636639    0.018055322350    0.050671639456
0.275     0.029338923537    0.070369429826    0.000068427778    0.000052377566    0.032420345135    0.055167182267    0.000081116510    0.000057382003
            0.000068427778    0.000052377566    0.028931022043    0.064747255278    0.000077849995    0.000066447708    0.032882285858    0.051552600818
            0.032420345135    0.055167182267    0.000077849995    0.000066447708    0.029403010722    0.069618599895    0.000094506760    0.000070711558
            0.000081116510    0.000057382003    0.032882285858    0.051552600818    0.000094506760    0.000070711558    0.029310245540    0.064761566673
0.300     0.048918384928    0.079390760189    0.000081123351    0.000047385380    0.044738814095    0.063590081774    0.000093487618    0.000051301226
            0.000081123351    0.000047385380    0.045487341828    0.073997460903    0.000095157558    0.000061691102    0.042975524529    0.059852191285
            0.044738814095    0.063590081774    0.000095157558    0.000061691102    0.048677614087    0.078561399062    0.000110012431    0.000064517932
            0.000093487618    0.000051301226    0.042975524529    0.059852191285    0.000110012431    0.000064517932    0.045630490855    0.073938415810
0.325     0.070397624717    0.079862206578    0.000091497674    0.000039233026    0.060278107822    0.066892249500    0.000103195759    0.000042887649
            0.000091497674    0.000039233026    0.064281302882    0.076276616570    0.000110118041    0.000051857318    0.056382647196    0.064261706682
            0.060278107822    0.066892249500    0.000110118041    0.000051857318    0.069838381351    0.079105971143    0.000122786258    0.000055101964
            0.000103195759    0.000042887649    0.056382647196    0.064261706682    0.000122786258    0.000055101964    0.064164670629    0.076311885631
0.350     0.089456186547    0.071927247792    0.000098585680    0.000029508952    0.076176471505    0.064018788952    0.000109811418    0.000033824398
            0.000098585680    0.000029508952    0.081794645277    0.071385935611    0.000120804974    0.000038719820    0.070888020437    0.063547978247
            0.076176471505    0.064018788952    0.000120804974    0.000038719820    0.088645541148    0.071386702349    0.000132032482    0.000044266632
            0.000109811418    0.000033824398    0.070888020437    0.063547978247    0.000132032482    0.000044266632    0.081492422330    0.071677557175
0.375     0.102413977601    0.057848150585    0.000102422843    0.000019983529    0.089409322405    0.055487161380    0.000113896838    0.000025692404
            0.000102422843    0.000019983529    0.094876905872    0.060875124844    0.000126488000    0.000024720552    0.083945346117    0.057745432370
            0.089409322405    0.055487161380    0.000126488000    0.000024720552    0.101484830285    0.057616640044    0.000138053294    0.000033873319
            0.000113896838    0.000025692404    0.083945346117    0.057745432370    0.000138053294    0.000033873319    0.094545964929    0.061527870495
0.400     0.107162716736    0.041413421889    0.000103918200    0.000012075452    0.097562680713    0.043267636233    0.000116756315    0.000019469648
            0.000103918200    0.000012075452    0.101539943246    0.047626353552    0.000127743245    0.000012283683    0.093337657144    0.048149456828
            0.097562680713    0.043267636233    0.000127743245    0.000012283683    0.106282383812    0.041505703315    0.000142053886    0.000025270892
            0.000116756315    0.000019469648    0.093337657144    0.048149456828    0.000142053886    0.000025270892    0.101380376460    0.048650152636
0.425     0.103693850826    0.027011572025    0.000104494790    0.000006541611    0.099456257240    0.030350660391    0.000119962473    0.000015291090
            0.000104494790    0.000006541611    0.101431870466    0.035129295376    0.000126217518    0.000003250641    0.097732067575    0.037015787948
            0.099456257240    0.030350660391    0.000126217518    0.000003250641    0.103020871425    0.027353723948    0.000145698373    0.000018976545
            0.000119962473    0.000015291090    0.097732067575    0.037015787948    0.000145698373    0.000018976545    0.101632615759    0.036426351493
0.450     0.094204900967    0.018585057353    0.000105789966    0.000003384121    0.095586796113    0.020074003851    0.000124973601    0.000012475684
            0.000105789966    0.000003384121    0.095960561943    0.026654367638    0.000124329108    -0.000001508566    0.097090883271    0.027054951025
            0.095586796113    0.020074003851    0.000124329108    -0.000001508566    0.093843634488    0.019025861919    0.000150725386    0.000014615876
            0.000124973601    0.000012475684    0.097090883271    0.027054951025    0.000150725386    0.000014615876    0.096643552137    0.028035621559
0.475     0.082718356762    0.018554092390    0.000109357362    0.000001779516    0.088217674106    0.015197178751    0.000132797884    0.000009632460
            0.000109357362    0.000001779516    0.088030859823    0.024411541243    0.000124818659    -0.000002452468    0.092809397657    0.020720931549
            0.088217674106    0.015197178751    0.000124818659    -0.000002452468    0.082683552313    0.018899452150    0.000158566946    0.000010929546
            0.000132797884    0.000009632460    0.092809397657    0.020720931549    0.000158566946    0.000010929546    0.089209792329    0.025639961282
0.500     0.074160654915    0.026949698322    0.000116302056    0.000000030488    0.080946192332    0.016928010503    0.000143696107    0.000004829759
            0.000116302056    0.000000030488    0.081400950184    0.028869969397    0.000130067926    -0.000001604293    0.087484561343    0.019444471881
            0.080946192332    0.016928010503    0.000130067926    -0.000001604293    0.074368346016    0.027010519289    0.000169959446    0.000005856560
            0.000143696107    0.000004829759    0.087484561343    0.019444471881    0.000169959446    0.000005856560    0.082967172709    0.029721117075
0.525     0.072887010313    0.041118282597    0.000126652755    -0.000004230525    0.077603057302    0.024276523593    0.000156793302    -0.000004041879
            0.000126652755    -0.000004230525    0.079669443118    0.038434213271    0.000141085494    -0.000002365318    0.084201600730    0.023023934136
            0.077603057302    0.024276523593    0.000141085494    -0.000002365318    0.073226970177    0.040727403604    0.000184373800    -0.000003132596
            0.000156793302    -0.000004041879    0.084201600730    0.023023934136    0.000184373800    -0.000003132596    0.081409315567    0.038752165361
0.550     0.081347622047    0.055533119097    0.000138714267    -0.000013515636    0.080970437792    0.033698985186    0.000169703740    -0.000018563592
            0.000138714267    -0.000013515636    0.085149450925    0.049741992037    0.000156569741    -0.000008507214    0.085514648769    0.029545571497
            0.080970437792    0.033698985186    0.000156569741    -0.000008507214    0.081566276423    0.055328239264    0.000199598891    -0.000018169712
            0.000169703740    -0.000018563592    0.085514648769    0.029545571497    0.000199598891    -0.000018169712    0.086766434246    0.049487727932
0.575     0.099064083590    0.066096212015    0.000149884898    -0.000028700080    0.091733972825    0.041841126241    0.000179663015    -0.000038896034
            0.000149884898    -0.000028700080    0.098023422348    0.058609841229    0.000173099363    -0.000022669824    0.092535025787    0.035975916024
            0.091733972825    0.041841126241    0.000173099363    -0.000022669824    0.098831991033    0.065422728894    0.000212332249    -0.000039950587
            0.000179663015    -0.000038896034    0.092535025787    0.035975916024    0.000212332249    -0.000039950587    0.099216126844    0.057941095631
0.600     0.122189202478    0.067603839007    0.000156530216    -0.000048963330    0.107802485793    0.044322533757    0.000183556754    -0.000063080692
            0.000156530216    -0.000048963330    0.116217360639    0.061347186152    0.000186009353    -0.000044822190    0.104594386039    0.039134938166
            0.107802485793    0.044322533757    0.000186009353    -0.000044822190    0.121557735773    0.066750228531    0.000219063609    -0.000066835606
            0.000183556754    -0.000063080692    0.104594386039    0.039134938166    0.000219063609    -0.000066835606    0.116842000027    0.060572876148
0.625     0.145738348188    0.058432159803    0.000156538177    -0.000071501473    0.125700570285    0.039198017385    0.000180052622    -0.000087821258
            0.000156538177    -0.000071501473    0.136050770149    0.055889410870    0.000191540299    -0.000072301464    0.119448089957    0.036671872574
            0.125700570285    0.039198017385    0.000191540299    -0.000072301464    0.144529965098    0.057753244984    0.000217853890    -0.000095428466
            0.000180052622    -0.000087821258    0.119448089957    0.036671872574    0.000217853890    -0.000095428466    0.136150914253    0.055327969273
0.650     0.164512529386    0.039617251954    0.000149706628    -0.000092858943    0.141729561295    0.026302551596    0.000169857069    -0.000109602913
            0.000149706628    -0.000092858943    0.153380130547    0.042313574084    0.000188029267    -0.000101047270    0.134032082324    0.027721229841
            0.141729561295    0.026302551596    0.000188029267    -0.000101047270    0.163049668664    0.039390444058    0.000208895895    -0.000121925836
            0.000169857069    -0.000109602913    0.134032082324    0.027721229841    0.000208895895    -0.000121925836    0.153146126520    0.042214656951
0.675     0.174580555821    0.014494943411    0.000137698172    -0.000110151509    0.152344438242    0.007233304536    0.000155435054    -0.000125877337
            0.000137698172    -0.000110151509    0.164703685335    0.022660924296    0.000176138744    -0.000126843198    0.145302997132    0.012989094348
            0.152344438242    0.007233304536    0.000176138744    -0.000126843198    0.173093264212    0.014734421578    0.000194390879    -0.000143216918
            0.000155435054    -0.000125877337    0.145302997132    0.012989094348    0.000194390879    -0.000143216918    0.164423005530    0.023152548972
0.700     0.174050964017    -0.012276900663    0.000123214830    -0.000121959950    0.155244004535    -0.014975371374    0.000140064771    -0.000135859369
            0.000123214830    -0.000121959950    0.167939632986    0.000305030133    0.000158361630    -0.000146628593    0.150919826674    -0.005520495244
            0.155244004535    -0.014975371374    0.000158361630    -0.000146628593    0.172747065951    -0.011625806745    0.000177646358    -0.000157971740
            0.000140064771    -0.000135859369    0.150919826674    -0.005520495244    0.000177646358    -0.000157971740    0.167932623583    0.001363642406
0.725     0.163318734462    -0.035709574880    0.000109004467    -0.000128348744    0.149660602924    -0.036555374085    0.000126764341    -0.000140452553
            0.000109004467    -0.000128348744    0.162772579918    -0.020844532960    0.000138040830    -0.000158896429    0.149665913899    -0.024946941406
            0.149660602286    -0.036555376697    0.000138040830    -0.000158896429    0.162363428504    -0.034792675777    0.000161909390    -0.000166625413
            0.000126764341    -0.000140452553    0.149665913899    -0.024946941406    0.000161909390    -0.000166625413    0.163319876000    -0.019396376492
0.750     0.145011596552    -0.051429903505    0.000097281326    -0.000130500576    0.136613627247    -0.053610460530    0.000117634269    -0.000141790859
            0.000097281326    -0.000130500576    0.150687351129    -0.037132250495    0.000118695570    -0.000163686992    0.141738237151    -0.042091864422
            0.136613627247    -0.053610460530    0.000118695570    -0.000163686992    0.144482761594    -0.050462551009    0.000149679822    -0.000170961536
            0.000117634269    -0.000141790859    0.141738237151    -0.042091864422    0.000149679822    -0.000170961536    0.151962695015    -0.035595438598
0.775     0.123651845721    -0.056606807877    0.000089504170    -0.000130251217    0.118990422320    -0.062920750734    0.000113534144    -0.000142605090
            0.000089504170    -0.000130251217    0.134736789476    -0.045894880841    0.000103555312    -0.000162435168    0.128847339149    -0.054051214901
            0.118990422320    -0.062920750734    0.000103555312    -0.000162435168    0.123506561640    -0.055826784631    0.000142361191    -0.000173544058
            0.000113534144    -0.000142605090    0.128847339149    -0.054051214901    0.000142361191    -0.000173544058    0.136751973407    -0.044637556519
0.800     0.104919818818    -0.050864873692    0.000086384539    -0.000129900412    0.101254476320    -0.062953856143    0.000114081773    -0.000145748980
            0.000086384539    -0.000129900412    0.119045982387    -0.046147679226    0.000095172266    -0.000157979610    0.114081814755    -0.058966766955
