# GHz S RI R 45
0.000     0.028224785775    0.001475315483    0.000000197894    0.000000399337    0.000910498294    0.001471327155    0.000000212151    0.000000417297
            0.000000197894    0.000000399337    0.027190425362    0.001609757529    0.000000206455    0.000000413527    0.000858712201    0.001640696645
            0.000910498450    0.001471327177    0.000000206455    0.000000413527    0.028172683933    0.001464349974    0.000000221452    0.000000432816
            0.000000212151    0.000000417297    0.000858712391    0.001640696659    0.000000221451    0.000000432816    0.027119349964    0.001621743315
0.025     0.034666395977    0.008072739780    0.000000362641    0.000000875941    0.003856628837    0.012518463080    0.000000384373    0.000000915302
            0.000000362642    0.000000875939    0.032686571300    0.007733904387    0.000000376612    0.000000908117    0.003229490077    0.011899367786
            0.003855255216    0.012518467638    0.000000376613    0.000000908117    0.034578600970    0.008032749053    0.000000399548    0.000000950569
            0.000000384374    0.000000915302    0.003229744793    0.011898792997    0.000000399548    0.000000950571    0.032591803412    0.007689821863
0.050     0.040784261375    0.008315264666    0.000000652456    0.000001558834    0.011589771912    0.021558293901    0.000000687160    0.000001629840
            0.000000652456    0.000001558834    0.037637735222    0.008838930767    0.000000676575    0.000001617350    0.009622369901    0.021246921232
            0.011589777204    0.021558199093    0.000000676575    0.000001617350    0.040625671472    0.008285771108    0.000000713300    0.000001694120
            0.000000687160    0.000001629840    0.009622467406    0.021246915495    0.000000713300    0.000001694120    0.037437737075    0.008805901787
0.075     0.044341297299    0.004537257576    0.000000974118    0.000002156111    0.021010893668    0.025268743318    0.000001024595    0.000002255402
            0.000000974118    0.000002156111    0.040526152677    0.007098022538    0.000001010358    0.000002238283    0.017853150340    0.026587318472
            0.021010897681    0.025268737380    0.000001010358    0.000002238283    0.044133481788    0.004586635189    0.000001063907    0.000002345892
            0.000001024595    0.000002255402    0.017853146071    0.026587320134    0.000001063907    0.000002345892    0.040226837355    0.007165040538
0.100     0.043240934530    -0.001281202837    0.000001319394    0.000002719152    0.028753834772    0.023946202709    0.000001388444    0.000002844938
            0.000001319394    0.000002719152    0.040109935812    0.004043060365    0.000001369953    0.000002823550    0.025537159388    0.027925518445
            0.028753857718    0.023946195471    0.000001369953    0.000002823550    0.043049928967    -0.001108030597    0.000001443456    0.000002960116
            0.000001388444    0.000002844938    0.025537133931    0.027925526818    0.000001443456    0.000002960116    0.039766608737    0.004282284632
0.125     0.036438602855    -0.005883426609    0.000001707176    0.000003287234    0.032286830574    0.019704318820    0.000001798432    0.000003438323
            0.000001707176    0.000003287234    0.035804851275    0.001907665180    0.000001774706    0.000003412687    0.030781123609    0.026479325977
            0.032286829720    0.019704318299    0.000001774706    0.000003412687    0.036359093535    -0.005598188175    0.000001872174    0.000003576842
            0.000001798432    0.000003438323    0.030781123609    0.026479325977    0.000001872174    0.000003576842    0.035520767383    0.002349095154
0.150     0.025339317050    -0.005834346992    0.000002182069    0.000003882566    0.030656688023    0.015771746551    0.000002300249    0.000004057566
            0.000002182069    0.000003882566    0.028743102440    0.002928955299    0.000002269735    0.000004027808    0.032573298655    0.024271225922
            0.030656688023    0.015771746551    0.000002269735    0.000004027808    0.025448308829    -0.005514495587    0.000002396258    0.000004217910
            0.000002300249    0.000004057566    0.032573298655    0.024271225922    0.000002396258    0.000004217910    0.028615385519    0.003536216892
0.175     0.012838491538    0.001308317797    0.000002808348    0.000004488888    0.025021870887    0.015447666468    0.000002959416    0.000004685250
            0.000002808348    0.000004488888    0.020767499293    0.008636697006    0.000002919941    0.000004652085    0.031253870614    0.023575980435
            0.025021871157    0.015447666031    0.000002919941    0.000004652085    0.013165309121    0.001544296378    0.000003081732    0.000004865240
            0.000002959416    0.000004685250    0.031253870614    0.023575980435    0.000003081732    0.000004865240    0.020868060864    0.009312537802
0.200     0.003165796462    0.016119658193    0.000003641353    0.000005040906    0.018362620305    0.020834177331    0.000003831746    0.000005253885
            0.000003641353    0.000005040906    0.014554191531    0.019456825792    0.000003780927    0.000005219192    0.028406522145    0.026109653260
            0.018362620305    0.020834177331    0.000003780927    0.000005219192    0.003661350604    0.016139474791    0.000003984654    0.000005450277
            0.000003831746    0.000005253885    0.028406522145    0.026109653260    0.000003984654    0.000005450277    0.014886795061    0.020070858259
0.225     0.000562075465    0.036599069177    0.000004690271    0.000005427562    0.014487145534    0.031904614898    0.000004925506    0.000005649606
            0.000004690271    0.000005427562    0.012852686189    0.034253300709    0.000004861561    0.000005616609    0.026354492148    0.032400311610
            0.014487145534    0.031904614898    0.000004861561    0.000005616609    0.001097758851    0.036308607904    0.000005112809    0.000005857749
            0.000004925506    0.000005649606    0.026354492148    0.032400311610    0.000005112809    0.000005857749    0.013341059489    0.034690406758
0.250     0.007682154688    0.058480053185    0.000005886565    0.000005533266    0.016611172892    0.046355094109    0.000006169571    0.000005754793
            0.000005886565    0.000005533266    0.017547099377    0.050464033177    0.000006092226    0.000005727591    0.027371482126    0.041562580081
            0.016611172892    0.046355094109    0.000006092226    0.000005727591    0.008082713415    0.057868603847    0.000006393963    0.000005968911
            0.000006169571    0.000005754793    0.027371482126    0.041562580081    0.000006393963    0.000005968911    0.018055322350    0.050671639456
0.275     0.024446448994    0.076470380002    0.000007087528    0.000005294065    0.026101471832    0.060355342486    0.000007417742    0.000005504903
            0.000007087528    0.000005294065    0.028931022043    0.064747255278    0.000007328556    0.000005487494    0.032882285858    0.051552600818
            0.026101471832    0.060355342486    0.000007328556    0.000005487494    0.024546394046    0.075629114266    0.000007680262    0.000005718655
            0.000007417742    0.000005504903    0.032882285858    0.051552600818    0.000007680262    0.000005718655    0.029310245540    0.064761566673
0.300     0.047876745170    0.086015506030    0.000008126366    0.000004745938    0.041957419728    0.069909418747    0.000008499836    0.000004937182
            0.000008126366    0.000004745938    0.045487341828    0.073997460903    0.000008401946    0.000004932480    0.042975524529    0.059852191285
            0.041957419728    0.069909418747    0.000008401946    0.000004932480    0.047578896236    0.085118125186    0.000008799776    0.000005144392
            0.000008499836    0.000004937182    0.042975524529    0.059852191285    0.000008799776    0.000005144392    0.045630490855    0.073938415810
0.325     0.072988970533    0.084754251963    0.000008883004    0.000004020133    0.061175717192    0.072166912013    0.000009293429    0.000004185605
            0.000008883004    0.000004020133    0.064281302882    0.076276616570    0.000009190784    0.000004194725    0.056382647196    0.064261706682
            0.061175717192    0.072166912013    0.000009190784    0.000004194725    0.072300395641    0.084008334445    0.000009628602    0.000004381033
            0.000009293429    0.000004185605    0.056382647196    0.064261706682    0.000009628602    0.000004381033    0.064164670629    0.076311885631
0.350     0.094281243987    0.073202322115    0.000009336297    0.000003294846    0.079710282089    0.066237954652    0.000009776624    0.000003431958
            0.000009336297    0.000003294846    0.081794645277    0.071385935611    0.000009672995    0.000003453963    0.070888020437    0.063547978247
            0.079710282089    0.066237954652    0.000009672995    0.000003453963    0.093318414082    0.072789041796    0.000010143972    0.000003611784
            0.000009776624    0.000003431958    0.070888020437    0.063547978247    0.000010143972    0.000003611784    0.081492422330    0.071677557175
0.375     0.107219883121    0.054533526828    0.000009566878    0.000002726069    0.093566263363    0.053372252032    0.000010031409    0.000002835686
            0.000009566878    0.000002726069    0.094876905872    0.060875124844    0.000009929113    0.000002867808    0.083945346117    0.057745432370
            0.093566263363    0.053372252032    0.000009929113    0.000002867808    0.106181879204    0.054554146437    0.000010427812    0.000002997724
            0.000010031409    0.000002835686    0.083945346117    0.057745432370    0.000010427812    0.000002997724    0.094545964929    0.061527870495
0.400     0.109357504251    0.033780318394    0.000009725154    0.000002399813    0.099790332310    0.036693059224    0.000010211135    0.000002485231
            0.000009725154    0.000002399813    0.101539943246    0.047626353552    0.000010110382    0.000002523869    0.093337657144    0.048149456828
            0.099790332310    0.036693059224    0.000010110382    0.000002523869    0.108477623121    0.034220991931    0.000010634175    0.000002628607
            0.000010211135    0.000002485231    0.093337657144    0.048149456828    0.000010634175    0.000002628607    0.101380376460    0.048650152636
0.425     0.100976505093    0.016678697297    0.000009982823    0.000002312354    0.097269850480    0.020569150534    0.000010492044    0.000002377104
            0.000009982823    0.000002312354    0.101431870466    0.035129295376    0.000010389975    0.000002419180    0.097732067575    0.037015787948
            0.097269850480    0.020569150534    0.000010389975    0.000002419180    0.100459357323    0.017402400569    0.000010940619    0.000002501654
            0.000010492044    0.000002377104    0.097732067575    0.037015787948    0.000010940619    0.000002501654    0.101632615759    0.036426351493
0.450     0.085262169248    0.008331040852    0.000010494748    0.000002374349    0.087311784637    0.009646816868    0.000011032936    0.000002419126
            0.000010494748    0.000002374349    0.095960561943    0.026654367638    0.000010924514    0.000002464161    0.097090883271    0.027054951025
            0.087311784637    0.009646816868    0.000010924514    0.000002464161    0.085220239914    0.009101106360    0.000011507653    0.000002524465
            0.000011032936    0.000002419126    0.097090883271    0.027054951025    0.000011507653    0.000002524465    0.096643552137    0.028035621559
0.475     0.067853525260    0.011730042182    0.000011363904    0.000002419777    0.073724008550    0.007483630124    0.000011938932    0.000002439876
            0.000011363904    0.000002419777    0.088030859823    0.024411541243    0.000011818317    0.000002491433    0.092809397657    0.020720931549
            0.073724008550    0.007483630124    0.000011818317    0.000002491433    0.068261024884    0.012267282757    0.000012441418    0.000002524324
            0.000011938932    0.000002439876    0.092809397657    0.020720931549    0.000012441418    0.000002524324    0.089209792329    0.025639961282
0.500     0.055552362549    0.026480895372    0.000012604508    0.000002223857    0.062040089817    0.015096143768    0.000013221999    0.000002208147
            0.000012604508    0.000002223857    0.081400950184    0.028869969397    0.000013085926    0.000002273906    0.087484561343    0.019444471881
            0.062040089817    0.015096143768    0.000013085926    0.000002273906    0.056242541607    0.026538631859    0.000013753987    0.000002267960
            0.000013221999    0.000002208147    0.087484561343    0.019444471881    0.000013753987    0.000002267960    0.082967172709    0.029721117075
0.525     0.054125444026    0.048402332465    0.000014096414    0.000001549970    0.057699058538    0.030126308067    0.000014755926    0.000001483294
            0.000014096414    0.000001549970    0.079669443118    0.038434213271    0.000014604623    0.000001571860    0.084201600730    0.023023934136
            0.057699058538    0.030126308067    0.000014604623    0.000001571860    0.054909098823    0.047783996580    0.000015316634    0.000001511823
            0.000014755926    0.000001483294    0.084201600730    0.023023934136    0.000015316634    0.000001511823    0.081409315567    0.038752165361
0.550     0.066268551476    0.069406169673    0.000015545653    0.000000249076    0.063967963096    0.046700420807    0.000016238049    0.000000117428
            0.000015545653    0.000000249076    0.085149450925    0.049741992037    0.000016092943    0.000000230929    0.085514648769    0.029545571497
            0.063967963096    0.046700420807    0.000016092943    0.000000230929    0.066842879141    0.069120786653    0.000016839992    0.000000102682
            0.000016238049    0.000000117428    0.085514648769    0.029545571497    0.000016839992    0.000000102682    0.086766434246    0.049487727932
0.575     0.090590871095    0.084071337601    0.000016636896    -0.000001673261    0.080811715449    0.059685217759    0.000017349721    -0.000001880414
            0.000016636896    -0.000001673261    0.098023422348    0.058609841229    0.000017205541    -0.000001729555    0.092535025787    0.035975916024
            0.080811715449    0.059685217759    0.000017205541    -0.000001729555    0.090452552573    0.083215106716    0.000017974548    -0.000001935858
            0.000017349721    -0.000001880414    0.092535025787    0.035975916024    0.000017974548    -0.000001935858    0.099216126844    0.057941095631
0.600     0.121023019206    0.085866486874    0.000017052270    -0.000003942745    0.104165149906    0.063376864225    0.000017769998    -0.000004229645
            0.000017052270    -0.000003942745    0.116217360639    0.061347186152    0.000017636222    -0.000004047228    0.104594386039    0.039134938166
            0.104165149906    0.063376864225    0.000017636222    -0.000004047228    0.120329614076    0.084866388864    0.000018411735    -0.000004335911
            0.000017769998    -0.000004229645    0.104594386039    0.039134938166    0.000018411735    -0.000004335911    0.116842000027    0.060572876148
0.625     0.150687838954    0.073539677521    0.000016699325    -0.000006178825    0.128613839559    0.055948295633    0.000017406221    -0.000006544829
            0.000016699325    -0.000006178825    0.136050770149    0.055889410870    0.000017294983    -0.000006332658    0.119448089957    0.036671872574
            0.128613839559    0.055948295633    0.000017294983    -0.000006332658    0.149265355289    0.072907193959    0.000018061851    -0.000006703086
            0.000017406221    -0.000006544829    0.119448089957    0.036671872574    0.000018061851    -0.000006703086    0.136150914253    0.055327969273
0.650     0.172993907241    0.049286725962    0.000015712437    -0.000008014998    0.149015123914    0.038109069586    0.000016394457    -0.000008454245
            0.000015712437    -0.000008014998    0.153380130547    0.042313574084    0.000016310519    -0.000008224622    0.134032082324    0.027721229841
            0.149015123914    0.038109069586    0.000016310519    -0.000008224622    0.171369856397    0.049347770036    0.000017054714    -0.000008671585
            0.000016394457    -0.000008454245    0.134032082324    0.027721229841    0.000017054714    -0.000008671585    0.153146126520    0.042214656951
0.675     0.183379194810    0.017949642675    0.000014396717    -0.000009219830    0.160901025130    0.012798549512    0.000015043298    -0.000009722255
            0.000014396717    -0.000009219830    0.164703685335    0.022660924296    0.000014985793    -0.000009482726    0.145302997132    0.012989094348
            0.160901025130    0.012798549512    0.000014985793    -0.000009482726    0.181894506700    0.018647377346    0.000015697012    -0.000009996715
            0.000015043298    -0.000009722255    0.145302997132    0.012989094348    0.000015697012    -0.000009996715    0.164423005530    0.023152548972
0.700     0.179973157650    -0.014299415441    0.000013113825    -0.000009760169    0.161701943996    -0.015410510493    0.000013720193    -0.000010313072
            0.000013113825    -0.000009760169    0.167939632986    0.000305030133    0.000013686217    -0.000010070372    0.150919826674    -0.005520495244
            0.161701943996    -0.015410510493    0.000013686217    -0.000010070372    0.178906105056    -0.013113508155    0.000014359383    -0.000010639448
            0.000013720193    -0.000010313072    0.150919826674    -0.005520495244    0.000014359383    -0.000010639448    0.167932623583    0.001363642406
0.725     0.163740855883    -0.041064688805    0.000012176495    -0.000009776819    0.150984902843    -0.041182407090    0.000012744469    -0.000010367806
            0.000012176495    -0.000009776819    0.162772579918    -0.020844532960    0.000012728061    -0.000010126716    0.149665913899    -0.024946941406
            0.150984902843    -0.041182407090    0.000012728061    -0.000010126716    0.163282088603    -0.039657887867    0.000013364525    -0.000010739190
            0.000012744469    -0.000010367806    0.149665913899    -0.024946941406    0.000013364525    -0.000010739190    0.163319876000    -0.019396376492
0.750     0.138463319350    -0.056779315723    0.000011787541    -0.000009529924    0.130799120120    -0.059163479197    0.000012325877    -0.000010151059
            0.000011787541    -0.000009529924    0.150687351129    -0.037132250495    0.000012318344    -0.000009911966    0.141738237151    -0.042091864422
            0.130799120120    -0.059163479197    0.000012318344    -0.000009911966    0.138654061365    -0.055495584325    0.000012926024    -0.000010560596
            0.000012325877    -0.000010151059    0.141738237151    -0.042091864422    0.000012926024    -0.000010560596    0.151962695015    -0.035595438598
0.775     0.110469368764    -0.057923434346    0.000012013903    -0.000009336780    0.105869011529    -0.065153660640    0.000012534598    -0.000009988758
            0.000012013903    -0.000009336780    0.134736789476    -0.045894880841    0.000012527536    -0.000009745398    0.128847339149    -0.054051214901
            0.105869011529    -0.065153660640    0.000012527536    -0.000009745398    0.111162466979    -0.057105290431    0.000013117394    -0.000010431123
            0.000012534598    -0.000009988758    0.128847339149    -0.054051214901    0.000013117394    -0.000010431123    0.136751973407    -0.044637556519
0.800     0.087718297485    -0.044464341137    0.000012781952    -0.000009524491    0.083114223196    -0.057723168222    0.000013294030    -0.000010218548
            0.000012781952    -0.000009524491    0.119045982387    -0.046147679226    0.000013284467    -0.000009958020    0.114081814755    -0.058966766955
