# GHz S RI R 45
0.000     0.026496041716    0.001868964959    -0.000004794065    -0.000010574280    0.000831707060    0.001600113121    -0.000004147846    -0.000009022893
            -0.000004794318    -0.000010574279    0.027190425362    0.001609757529    -0.000005421019    -0.000012743384    0.000858712201    0.001640696645
            0.000831706902    0.001600113090    -0.000005421101    -0.000012743383    0.026458605974    0.001877486804    -0.000004371187    -0.000010685104
            -0.000004147845    -0.000009022893    0.000858712391    0.001640696659    -0.000004371217    -0.000010685103    0.027119349964    0.001621743315
0.025     0.034160655601    0.006653775875    -0.000013381468    -0.000021738240    0.004766680298    0.010626489704    -0.000011496407    -0.000018248504
            -0.000013381471    -0.000021738245    0.032686571300    0.007733904387    -0.000015660335    -0.000025915457    0.003229490077    0.011899367786
            0.004765452685    0.010626530670    -0.000015660340    -0.000025915455    0.034101879685    0.006631242960    -0.000012585208    -0.000020306321
            -0.000011496434    -0.000018248547    0.003229744793    0.011898792997    -0.000012585204    -0.000020306315    0.032591803412    0.007689821863
0.050     0.043960212641    0.003564969344    -0.000032204959    -0.000033786525    0.014933055045    0.016315938075    -0.000027388009    -0.000028095323
            -0.000032204960    -0.000033786526    0.037637735222    0.008838930767    -0.000037921597    -0.000040235652    0.009622369901    0.021246921232
            0.014933052408    0.016315943199    -0.000037921598    -0.000040235653    0.043946462415    0.003537958075    -0.000030264119    -0.000031116245
            -0.000027388010    -0.000028095324    0.009622467406    0.021246915495    -0.000030264118    -0.000031116244    0.037437737075    0.008805901787
0.075     0.051901776586    -0.006969388335    -0.000056050277    -0.000035838342    0.027073907238    0.014213987672    -0.000047273571    -0.000029462275
            -0.000056050277    -0.000035838343    0.040526152677    0.007098022538    -0.000066066105    -0.000042833880    0.017853150340    0.026587318472
            0.027073856338    0.014213985663    -0.000066066106    -0.000042833881    0.051960598710    -0.007037533297    -0.000052197631    -0.000032496851
            -0.000047273572    -0.000029462276    0.017853146071    0.026587320134    -0.000052197631    -0.000032496851    0.040226837355    0.007165040538
0.100     0.053673339659    -0.023427821460    -0.000081404407    -0.000027178208    0.036231289766    0.004350308571    -0.000068172032    -0.000021970321
            -0.000081404407    -0.000027178208    0.040109935812    0.004043060365    -0.000096034395    -0.000032898181    0.025537159388    0.027925518445
            0.036231289744    0.004350308760    -0.000096034395    -0.000032898181    0.053820996997    -0.023580844246    -0.000075105283    -0.000024174861
            -0.000068172032    -0.000021970321    0.025537133931    0.027925526818    -0.000075105283    -0.000024174861    0.039766608737    0.004282284632
0.125     0.045948956065    -0.041882940590    -0.000104800175    -0.000007587884    0.038158031548    -0.010528314839    -0.000087361934    -0.000005609068
            -0.000104800175    -0.000007587884    0.035804851275    0.001907665180    -0.000123815043    -0.000010170051    0.030781123609    0.026479325977
            0.038158031548    -0.010528314839    -0.000123815043    -0.000010170051    0.046177940430    -0.042189060171    -0.000096070176    -0.000006243915
            -0.000087361934    -0.000005609068    0.030781123609    0.026479325977    -0.000096070177    -0.000006243915    0.035520767383    0.002349095154
0.150     0.028098389967    -0.056654422321    -0.000122700299    0.000022497915    0.030679981020    -0.025721073446    -0.000102154214    0.000019302941
            -0.000122700299    0.000022497915    0.028743102440    0.002928955299    -0.000145338524    0.000024879721    0.032573298655    0.024271225922
            0.030679981020    -0.025721073446    -0.000145338524    0.000024879721    0.028373077394    -0.057156124235    -0.000112282552    0.000020917224
            -0.000102154214    0.000019302941    0.032573298655    0.024271225922    -0.000112282552    0.000020917224    0.028615385519    0.003536216892
0.175     0.002513130973    -0.062302764028    -0.000131181088    0.000061956223    0.014453319453    -0.035814985241    -0.000109402699    0.000052128957
            -0.000131181088    0.000061956223    0.020767499293    0.008636697006    -0.000156064671    0.000071034397    0.031253870614    0.023575980435
            0.014453319453    -0.035814985241    -0.000156064671    0.000071034397    0.002764675688    -0.063037125697    -0.000120425925    0.000056697151
            -0.000109402699    0.000052128957    0.031253870614    0.023575980435    -0.000120425925    0.000056697151    0.020868060864    0.009312537802
0.200     -0.025560674699    -0.055059368334    -0.000125906072    0.000108066623    -0.006943612109    -0.036323049108    -0.000105279311    0.000090935829
            -0.000125906072    0.000108066623    0.014554191531    0.019456825792    -0.000150929758    0.000125269460    0.028406522145    0.026109653260
            -0.006943612109    -0.036323049108    -0.000150929758    0.000125269460    -0.025425832960    -0.056029283623    -0.000116344635    0.000099164757
            -0.000105279311    0.000090935829    0.028406522145    0.026109653260    -0.000116344635    0.000099164757    0.014886795061    0.020070858259
0.225     -0.049195840136    -0.034271876489    -0.000103063738    0.000155650575    -0.027828861777    -0.025167176979    -0.000086108823    0.000131457589
            -0.000103063738    0.000155650575    0.012852686189    0.034253300709    -0.000125369993    0.000181728179    0.026354492148    0.032400311610
            -0.027828861777    -0.025167176979    -0.000125369993    0.000181728179    -0.049275465087    -0.035429639894    -0.000095896005    0.000143831049
            -0.000086108823    0.000131457589    0.026354492148    0.032400311610    -0.000095896005    0.000143831049    0.013341059489    0.034690406758
0.250     -0.061660837451    -0.003073186183    -0.000061289124    0.000197156852    -0.041972952987    -0.003566149351    -0.000050299465    0.000166976753
            -0.000061289124    0.000197156852    0.017547099377    0.050464033177    -0.000077529307    0.000231729356    0.027371482126    0.041562580081
            -0.041972952987    -0.003566149351    -0.000077529307    0.000231729356    -0.062026808742    -0.004317668814    -0.000057087595    0.000183411856
            -0.000050299465    0.000166976753    0.027371482126    0.041562580081    -0.000057087595    0.000183411856    0.018055322350    0.050671639456
0.275     -0.058457079867    0.032134819557    -0.000003200300    0.000224322663    -0.044445757929    0.024068877672    -0.000000024162    0.000189849948
            -0.000003200300    0.000224322663    0.028931022043    0.064747255278    -0.000010094104    0.000265589549    0.032882285858    0.051552600818
            -0.044445757929    0.024068877672    -0.000010094104    0.000265589549    -0.059125898961    0.030941605048    -0.000002030023    0.000209406861
            -0.000000024162    0.000189849948    0.032882285858    0.051552600818    -0.000002030023    0.000209406861    0.029310245540    0.064761566673
0.300     -0.038818765548    0.063235404897    0.000064508598    0.000230835033    -0.033152523692    0.051239763257    0.000058533803    0.000194175530
            0.000064508598    0.000230835033    0.045487341828    0.073997460903    0.000069449992    0.000275666020    0.042975524529    0.059852191285
            -0.033152523692    0.051239763257    0.000069449992    0.000275666020    -0.039733136707    0.062237020140    0.000062629726    0.000215051509
            0.000058533803    0.000194175530    0.042975524529    0.059852191285    0.000062629726    0.000215051509    0.045630490855    0.073938415810
0.325     -0.006123044427    0.082538176454    0.000132924921    0.000214398575    -0.009510219768    0.071097905494    0.000116940843    0.000177963384
            0.000132924921    0.000214398575    0.064281302882    0.076276616570    0.000150823460    0.000258830999    0.056382647196    0.064261706682
            -0.009510219768    0.071097905494    0.000150823460    0.000258830999    -0.007153149555    0.081843149518    0.000127537897    0.000197837769
            0.000116940843    0.000177963384    0.056382647196    0.064261706682    0.000127537897    0.000197837769    0.064164670629    0.076311885631
0.350     0.032838838763    0.084788654648    0.000193646891    0.000177145260    0.021855447306    0.078227136833    0.000167311572    0.000143663367
            0.000193646891    0.000177145260    0.081794645277    0.071385935611    0.000224079152    0.000217132130    0.070888020437    0.063547978247
            0.021855447306    0.078227136833    0.000224079152    0.000217132130    0.031873512048    0.084434588116    0.000183744047    0.000160274444
            0.000167311572    0.000143663367    0.070888020437    0.063547978247    0.000183744047    0.000160274444    0.081492422330    0.071677557175
0.375     0.069453628014    0.068480134605    0.000240974165    0.000124150323    0.054198192469    0.069956918996    0.000204633107    0.000096676105
            0.000240974165    0.000124150323    0.094876905872    0.060875124844    0.000282216574    0.000156231230    0.083945346117    0.057745432370
            0.054198192469    0.069956918996    0.000282216574    0.000156231230    0.068745911657    0.068411977554    0.000225404250    0.000108363066
            0.000204633107    0.000096676105    0.083945346117    0.057745432370    0.000225404250    0.000108363066    0.094545964929    0.061527870495
0.400     0.095214339958    0.036269035233    0.000272593336    0.000061153717    0.080135797405    0.047019108164    0.000227566542    0.000042908775
            0.000272593336    0.000061153717    0.101539943246    0.047626353552    0.000322178343    0.000082801007    0.093337657144    0.048149456828
            0.080135797405    0.047019108164    0.000322178343    0.000082801007    0.094923016166    0.036336582012    0.000250852700    0.000048895526
            0.000227566542    0.000042908775    0.093337657144    0.048149456828    0.000250852700    0.000048895526    0.101380376460    0.048650152636
0.425     0.103566059946    -0.005490768046    0.000288609172    -0.000007467005    0.093205633492    0.013514371176    0.000237427261    -0.000013479673
            0.000288609172    -0.000007467005    0.101431870466    0.035129295376    0.000343866597    0.000002101738    0.097732067575    0.037015787948
            0.093205633492    0.013514371176    0.000343866597    0.000002101738    0.103770496400    -0.005514180126    0.000261630944    -0.000013199993
            0.000237427261    -0.000013479673    0.097732067575    0.037015787948    0.000261630944    -0.000013199993    0.101632615759    0.036426351493
0.450     0.091405256002    -0.047907055268    0.000289660234    -0.000079461497    0.089316993458    -0.023720832836    0.000236062174    -0.000071060090
            0.000289660234    -0.000079461497    0.095960561943    0.026654367638    0.000348006855    -0.000083110789    0.097090883271    0.027054951025
            0.089316993458    -0.023720832836    0.000348006855    -0.000083110789    0.092067290396    -0.048286592818    0.000260129672    -0.000076160759
            0.000236062174    -0.000071060090    0.097090883271    0.027054951025    0.000260129672    -0.000076160759    0.096643552137    0.028035621559
0.475     0.060010185466    -0.081276036365    0.000274915236    -0.000153940000    0.067885446128    -0.056345824465    0.000223487157    -0.000130333785
            0.000274915236    -0.000153940000    0.088030859823    0.024411541243    0.000333728943    -0.000171833041    0.092809397657    0.020720931549
            0.067885446128    -0.056345824465    0.000333728943    -0.000171833041    0.060951390996    -0.082260768011    0.000246815786    -0.000140697428
            0.000223487157    -0.000130333785    0.092809397657    0.020720931549    0.000246815786    -0.000140697428    0.089209792329    0.025639961282
0.500     0.015195086345    -0.097200204462    0.000241271793    -0.000229143589    0.032403609758    -0.076298471737    0.000196742684    -0.000191294920
            0.000241271793    -0.000229143589    0.081400950184    0.028869969397    0.000297433155    -0.000262346097    0.087484561343    0.019444471881
            0.032403609758    -0.076298471737    0.000297433155    -0.000262346097    0.016079812408    -0.098968634435    0.000218680483    -0.000207373654
            0.000196742684    -0.000191294920    0.087484561343    0.019444471881    0.000218680483    -0.000207373654    0.082967172709    0.029721117075
0.525     -0.033598032692    -0.090742972941    0.000184579875    -0.000299944599    -0.010020440714    -0.077902432782    0.000151004011    -0.000250456524
            0.000184579875    -0.000299944599    0.079669443118    0.038434213271    0.000234030865    -0.000349552990    0.084201600730    0.023023934136
            -0.010020440714    -0.077902432782    0.000234030865    -0.000349552990    -0.033410521381    -0.093474685949    0.000170251265    -0.000273402273
            0.000151004011    -0.000250456524    0.084201600730    0.023023934136    0.000170251265    -0.000273402273    0.081409315567    0.038752165361
0.550     -0.075318905435    -0.062051141737    0.000103036853    -0.000356941113    -0.048626146140    -0.059860433420    0.000083179071    -0.000299496770
            0.000103036853    -0.000356941113    0.085149450925    0.049741992037    0.000143722765    -0.000419412745    0.085514648769    0.029545571497
            -0.048626146140    -0.059860433420    0.000143722765    -0.000419412745    -0.074019517228    -0.066099466585    0.000099999789    -0.000327214047
            0.000083179071    -0.000299496770    0.085514648769    0.029545571497    0.000099999789    -0.000327214047    0.086766434246    0.049487727932
0.575     -0.100060504686    -0.016620912652    0.000000458388    -0.000388487730    -0.076409159845    -0.024135663871    -0.000004356958    -0.000327160569
            0.000000458388    -0.000388487730    0.098023422348    0.058609841229    0.000022755673    -0.000463310270    0.092535025787    0.035975916024
            -0.076409159845    -0.024135663871    0.000022755673    -0.000463310270    -0.100337408208    -0.020343399842    0.000003485027    -0.000360699794
            -0.000004356958    -0.000327160569    0.092535025787    0.035975916024    0.000003485027    -0.000360699794    0.099216126844    0.057941095631
0.600     -0.101555568926    0.035670129007    -0.000112156229    -0.000385082278    -0.085223249747    0.020488862774    -0.000101840385    -0.000323697602
            -0.000112156229    -0.000385082278    0.116217360639    0.061347186152    -0.000111246154    -0.000467591236    0.104594386039    0.039134938166
            -0.085223249747    0.020488862774    -0.000111246154    -0.000467591236    -0.103312995173    0.032072598541    -0.000104433526    -0.000360947460
            -0.000101840385    -0.000323697602    0.104594386039    0.039134938166    -0.000104433526    -0.000360947460    0.116842000027    0.060572876148
0.625     -0.079926241316    0.082877912773    -0.000219229122    -0.000345755731    -0.073440817276    0.064543275356    -0.000194471695    -0.000287373922
            -0.000219229122    -0.000345755731    0.136050770149    0.055889410870    -0.000242859121    -0.000427896532    0.119448089957    0.036671872574
            -0.073440817276    0.064543275356    -0.000242859126    -0.000427896541    -0.082508985972    0.080432678935    -0.000209599656    -0.000323483692
            -0.000194471695    -0.000287373922    0.119448089957    0.036671872574    -0.000209599656    -0.000323483692    0.136150914253    0.055327969273
0.650     -0.039718308455    0.116117453774    -0.000309379641    -0.000274911738    -0.043333487476    0.099367153563    -0.000270683931    -0.000222358191
            -0.000309379641    -0.000274911738    0.153380130547    0.042313574084    -0.000355485278    -0.000348797585    0.134032082324    0.027721229841
            -0.043333487476    0.099367153563    -0.000355485278    -0.000348797585    -0.042502954662    0.114505266914    -0.000296497507    -0.000252654218
            -0.000270683931    -0.000222358191    0.134032082324    0.027721229841    -0.000296497507    -0.000252654218    0.153146126520    0.042214656951
0.675     0.010922415260    0.128127875484    -0.000372350674    -0.000182080581    -0.000926341458    0.117571230743    -0.000320558445    -0.000138460572
            -0.000372350674    -0.000182080581    0.164703685335    0.022660924296    -0.000437350081    -0.000241609415    0.145302997132    0.012989094348
            -0.000926341458    0.117571230743    -0.000437350081    -0.000241609415    0.008169911911    0.127408445875    -0.000354304099    -0.000159737984
            -0.000320558445    -0.000138460572    0.145302997132    0.012989094348    -0.000354304099    -0.000159737984    0.164423005530    0.023152548972
0.700     0.061415535388    0.116689396671    -0.000405166861    -0.000079425515    0.045228570109    0.115561366577    -0.000341746726    -0.000048216784
            -0.000405166861    -0.000079425515    0.167939632986    0.000305030133    -0.000483809009    -0.000120161928    0.150919826674    -0.005520495244
            0.045228570109    0.115561366577    -0.000483809009    -0.000120161928    0.059092792201    0.116812044407    -0.000379607998    -0.000058677214
            -0.000341746726    -0.000048216784    0.150919826674    -0.005520495244    -0.000379607998    -0.000058677214    0.167932623583    0.001363642406
0.725     0.101593766612    0.084327261032    -0.000410230289    0.000023034047    0.086060339899    0.093662596514    -0.000337851447    0.000038115376
            -0.000410230289    0.000023034047    0.162772579918    -0.020844532960    -0.000496616831    0.000003233840    0.149665913899    -0.024946941406
            0.086060339899    0.093662596514    -0.000496616831    0.000003233840    0.100067854594    0.085042107564    -0.000375903231    0.000038388815
            -0.000337851447    0.000038115376    0.149665913899    -0.024946941406    -0.000375903231    0.000038388815    0.163319876000    -0.019396376492
0.750     0.123397302395    0.037548471726    -0.000392795667    0.000119166065    0.113444082434    0.055920654374    -0.000315753284    0.000114890535
            -0.000392795667    0.000119166065    0.150687351129    -0.037132250495    -0.000481516219    0.000120525475    0.141738237151    -0.042091864422
            0.113444082434    0.055920654374    -0.000481516219    0.000120525475    0.122901874976    0.038448697134    -0.000351013002    0.000124245069
            -0.000315753284    0.000114890535    0.141738237151    -0.042091864422    -0.000351013002    0.000124245069    0.151962695015    -0.035595438598
0.775     0.122210993793    -0.014310352560    -0.000358088268    0.000207103589    0.121541876439    0.009514460454    -0.000282202841    0.000181624337
            -0.000358088268    0.000207103589    0.134736789476    -0.045894880841    -0.000444806680    0.000228769388    0.128847339149    -0.054051214901
            0.121541876439    0.009514460454    -0.000444806680    0.000228769388    0.122782215370    -0.013717196221    -0.000313248944    0.000197794679
            -0.000282202841    0.000181624337    0.128847339149    -0.054051214901    -0.000313248944    0.000197794679    0.136751973407    -0.044637556519
