# GHz S RI R 45
0.000     0.027786589656    0.001478223375    0.000000567173    0.000001113684    0.000941778710    0.001469124825    0.000000640371    0.000001231697
            0.000000567173    0.000001113684    0.027190425362    0.001609757529    0.000000897195    0.000001231789    0.000858712201    0.001640696645
            0.000941778969    0.001469124777    0.000000897147    0.000001231790    0.027754485272    0.001469208477    0.000000724043    0.000001379047
            0.000000640371    0.000001231696    0.000858712391    0.001640696659    0.000000724059    0.000001379047    0.027119349964    0.001621743315
0.025     0.033784646241    0.007760804832    0.000001023774    0.000002457741    0.003554307139    0.012020559587    0.000001144596    0.000002721156
            0.000001023769    0.000002457743    0.032686571300    0.007733904387    0.000001143468    0.000002731414    0.003229490077    0.011899367786
            0.003554321720    0.012019785688    0.000001143461    0.000002731416    0.033672696440    0.007661036861    0.000001289036    0.000003052495
            0.000001144588    0.000002721154    0.003229744793    0.011898792997    0.000001289047    0.000003052496    0.032591803412    0.007689821863
0.050     0.039302428004    0.008375958046    0.000001841678    0.000004389375    0.010582229171    0.021067722160    0.000002046333    0.000004863122
            0.000001841678    0.000004389375    0.037637735222    0.008838930767    0.000002047873    0.000004882047    0.009622369901    0.021246921232
            0.010582252250    0.021067719520    0.000002047873    0.000004882047    0.039082000253    0.008249092992    0.000002293874    0.000005460802
            0.000002046333    0.000004863122    0.009622467406    0.021246915495    0.000002293874    0.000005460802    0.037437737075    0.008805901787
0.075     0.042570583763    0.005508276976    0.000002765574    0.000006075891    0.019379167274    0.025429414565    0.000003067482    0.000006738836
            0.000002765574    0.000006075891    0.040526152677    0.007098022538    0.000003072351    0.000006766071    0.017853150340    0.026587318472
            0.019379182818    0.025429416549    0.000003072351    0.000006766071    0.042236408196    0.005441847032    0.000003435484    0.000007578549
            0.000003067482    0.000006738836    0.017853146071    0.026587320134    0.000003435484    0.000007578549    0.040226837355    0.007165040538
0.100     0.041844844089    0.000871958851    0.000003768886    0.000007652564    0.027039191949    0.025235418015    0.000004183693    0.000008494434
            0.000003768885    0.000007652564    0.040109935812    0.004043060365    0.000004193068    0.000008529145    0.025537159388    0.027925518445
            0.027039191949    0.025235418015    0.000004193068    0.000008529145    0.041453709000    0.000941969648    0.000004694350    0.000009563486
            0.000004183693    0.000008494434    0.025537133931    0.027925526818    0.000004694350    0.000009563486    0.039766608737    0.004282284632
0.125     0.036255285940    -0.002777830379    0.000004895349    0.000009219663    0.031309217877    0.022156672662    0.000005443591    0.000010234014
            0.000004895349    0.000009219663    0.035804851275    0.001907665180    0.000005458193    0.000010274915    0.030781123609    0.026479325977
            0.031309200264    0.022156626574    0.000005458193    0.000010274915    0.035910324098    -0.002544201110    0.000006124803    0.000011522373
            0.000005443591    0.000010234014    0.030781123609    0.026479325977    0.000006124803    0.000011522373    0.035520767383    0.002349095154
0.150     0.026970955589    -0.002541340271    0.000006254334    0.000010836848    0.031182377655    0.018853709897    0.000006963563    0.000012018035
            0.000006254334    0.000010836848    0.028743102440    0.002928955299    0.000006983009    0.000012063250    0.032573298655    0.024271225922
            0.031182378511    0.018853710414    0.000006983009    0.000012063250    0.026774697792    -0.002186519312    0.000007849245    0.000013513688
            0.000006963563    0.000012018035    0.032573298655    0.024271225922    0.000007849245    0.000013513688    0.028615385519    0.003536216892
0.175     0.016369683709    0.003658762347    0.000008007238    0.000012467094    0.027396345458    0.018159060117    0.000008913467    0.000013803217
            0.000008007238    0.000012467094    0.020767499293    0.008636697006    0.000008936008    0.000013851922    0.031253870614    0.023575980435
            0.027396345458    0.018159060117    0.000008936008    0.000013851922    0.016386927622    0.004025954383    0.000010043655    0.000015487429
            0.000008913467    0.000013803217    0.031253870614    0.023575980435    0.000010043655    0.000015487429    0.020868060864    0.009312537802
0.200     0.007955044242    0.016409359237    0.000010297239    0.000013950575    0.022250261143    0.022036443291    0.000011441209    0.000015417184
            0.000010297239    0.000013950575    0.014554191531    0.019456825792    0.000011464790    0.000015470441    0.028406522145    0.026109653260
            0.022250261854    0.022036443995    0.000011464790    0.000015470441    0.008172238180    0.016650315215    0.000012858834    0.000017259677
            0.000011441209    0.000015417184    0.028406522145    0.026109653260    0.000012858834    0.000017259677    0.014886795061    0.020070858259
0.225     0.005317734202    0.034196403983    0.000013156814    0.000015007524    0.018862178107    0.030781706166    0.000014575773    0.000016562977
            0.000013156814    0.000015007524    0.012852686189    0.034253300709    0.000014599675    0.000016623903    0.026354492148    0.032400311610
            0.018862178107    0.030781706166    0.000014599675    0.000016623903    0.005633936696    0.034197956889    0.000016319870    0.000018517912
            0.000014575773    0.000016562977    0.026354492148    0.032400311610    0.000016319870    0.000018517912    0.013341059489    0.034690406758
0.250     0.010848014929    0.053599424514    0.000016425476    0.000015337977    0.020055926235    0.042810550315    0.000018142803    0.000016926204
            0.000016425476    0.000015337977    0.017547099377    0.050464033177    0.000018168806    0.000016998469    0.027371482126    0.041562580081
            0.020055926235    0.042810550315    0.000018168806    0.000016998469    0.011104516090    0.053325201853    0.000020239437    0.000018934614
            0.000018142803    0.000016926204    0.027371482126    0.041562580081    0.000020239437    0.000018934614    0.018055322350    0.050671639456
0.275     0.024760277961    0.070221088891    0.000019749072    0.000014759252    0.027308356304    0.055146299806    0.000021767033    0.000016318009
            0.000019749072    0.000014759252    0.028931022043    0.064747255278    0.000021799679    0.000016404416    0.032882285858    0.051552600818
            0.027308356304    0.055146299806    0.000021799679    0.000016404416    0.024796090859    0.069736251742    0.000024222830    0.000018314961
            0.000021767033    0.000016318009    0.032882285858    0.051552600818    0.000024222830    0.000018314961    0.029310245540    0.064761566673
0.300     0.044854390503    0.080094566000    0.000022697070    0.000013336105    0.040210724680    0.064445946888    0.000024995853    0.000014809273
            0.000022697070    0.000013336105    0.045487341828    0.073997460903    0.000025041247    0.000014909783    0.042975524529    0.059852191285
            0.040210724680    0.064445946888    0.000025041247    0.000014909783    0.044567268773    0.079550629533    0.000027797071    0.000016734335
            0.000024995853    0.000014809273    0.042975524529    0.059852191285    0.000027797071    0.000016734335    0.045630490855    0.073938415810
0.325     0.067131749166    0.080921754412    0.000024938931    0.000011381531    0.056617401473    0.068082586029    0.000027482620    0.000012729087
            0.000024938931    0.000011381531    0.064281302882    0.076276616570    0.000027547051    0.000012840503    0.056382647196    0.064261706682
            0.056617401473    0.068082586029    0.000027547051    0.000012840503    0.066518937159    0.080510703194    0.000030599915    0.000014535502
            0.000027482620    0.000012729087    0.056382647196    0.064261706682    0.000030599915    0.000014535502    0.064164670629    0.076311885631
0.350     0.086963987955    0.072755010121    0.000026387292    0.000009345730    0.073331784228    0.064913612663    0.000029134406    0.000010549993
            0.000026387292    0.000009345730    0.081794645277    0.071385935611    0.000029222671    0.000010665967    0.070888020437    0.063547978247
            0.073331784228    0.064913612663    0.000029222671    0.000010665967    0.086130745485    0.072648262383    0.000032532600    0.000012210225
            0.000029134406    0.000010549993    0.070888020437    0.063547978247    0.000032532600    0.000012210225    0.081492422330    0.071677557175
0.375     0.100349663031    0.057927844577    0.000027217147    0.000007639978    0.086986032246    0.055546227442    0.000030132702    0.000008704870
            0.000027217147    0.000007639978    0.094876905872    0.060875124844    0.000030246446    0.000008816276    0.083945346117    0.057745432370
            0.086986032246    0.055546227442    0.000030246446    0.000008816276    0.099484796177    0.058220272384    0.000033780826    0.000010209563
            0.000030132702    0.000008704870    0.083945346117    0.057745432370    0.000033780826    0.000010209563    0.094545964929    0.061527870495
0.400     0.104916749069    0.040452898528    0.000027792871    0.000006507791    0.094891922018    0.042204970502    0.000030859714    0.000007452845
            0.000027792871    0.000006507791    0.101539943246    0.047626353552    0.000030995727    0.000007549716    0.093337657144    0.048149456828
            0.094891922018    0.042204970502    0.000030995727    0.000007549716    0.104242164105    0.041127645664    0.000034739996    0.000008805826
            0.000030859714    0.000007452845    0.093337657144    0.048149456828    0.000034739996    0.000008805826    0.101380376460    0.048650152636
0.425     0.100516814066    0.025067118220    0.000028543185    0.000005966784    0.095737798068    0.028261784526    0.000031768843    0.000006815236
            0.000028543185    0.000005966784    0.101431870466    0.035129295376    0.000031918451    0.000006889223    0.097732067575    0.037015787948
            0.095737799520    0.028261783138    0.000031918451    0.000006889223    0.100225587071    0.025988230911    0.000035881949    0.000008023854
            0.000031768843    0.000006815236    0.097732067575    0.037015787948    0.000035881949    0.000008023854    0.101632615759    0.036426351493
0.450     0.089395072796    0.016127990412    0.000029862233    0.000005818626    0.090093724320    0.017494922245    0.000033279962    0.000006581914
            0.000029862233    0.000005818626    0.095960561943    0.026654367638    0.000033429097    0.000006630105    0.097090883271    0.027054951025
            0.090093724320    0.017494922245    0.000033429097    0.000006630105    0.089590154776    0.017066692307    0.000037645380    0.000007645824
            0.000033279962    0.000006581914    0.097090883271    0.027054951025    0.000037645380    0.000007645824    0.096643552137    0.028035621559
0.475     0.075854714137    0.016432866868    0.000032021741    0.000005674225    0.080541974643    0.013050089522    0.000035681213    0.000006335895
            0.000032021741    0.000005674225    0.088030859823    0.024411541243    0.000035814817    0.000006364837    0.092809397657    0.020720931549
            0.080541974643    0.013050089522    0.000035814817    0.000006364837    0.076506802567    0.017124787348    0.000040331259    0.000007235560
            0.000035681213    0.000006335895    0.092809397657    0.020720931549    0.000040331259    0.000007235560    0.089209792329    0.025639961282
0.500     0.065315892520    0.026203143369    0.000035089059    0.000004995708    0.071211534454    0.016312204702    0.000039037411    0.000005502314
            0.000035089059    0.000004995708    0.081400950184    0.028869969397    0.000039145957    0.000005527939    0.087484561343    0.019444471881
            0.071211534454    0.016312204702    0.000039145957    0.000005527939    0.066258541910    0.026422269323    0.000044004671    0.000006191542
            0.000039037411    0.000005502314    0.087484561343    0.019444471881    0.000044004671    0.000006191542    0.082967172709    0.029721117075
0.525     0.062755574728    0.042627131619    0.000038812242    0.000003193405    0.066557465614    0.026105940225    0.000043070107    0.000003458733
            0.000038812242    0.000003193405    0.079669443118    0.038434213271    0.000043155639    0.000003501744    0.084201600730    0.023023934136
            0.066557465614    0.026105940225    0.000043155639    0.000003501744    0.063717782615    0.042245285054    0.000048370521    0.000003865383
            0.000043070107    0.000003458733    0.084201600730    0.023023934136    0.000048370521    0.000003865383    0.081409315567    0.038752165361
0.550     0.070971012256    0.060447345802    0.000042573134    -0.000000162156    0.069729997063    0.038840072576    0.000047118005    -0.000000236095
            0.000042573134    -0.000000162156    0.085149450925    0.049741992037    0.000047195649    -0.000000158913    0.085514648769    0.029545571497
            0.069729997063    0.038840072576    0.000047195649    -0.000000158913    0.071605945627    0.059482787789    0.000052736825    -0.000000196945
            0.000047118005    -0.000000236095    0.085514648769    0.029545571497    0.000052736825    -0.000000196945    0.086766434246    0.049487727932
0.575     0.089445268409    0.073597276560    0.000045507164    -0.000005083508    0.081357730076    0.049741487067    0.000050274538    -0.000005580909
            0.000045507164    -0.000005083508    0.098023422348    0.058609841229    0.000050368024    -0.000005465409    0.092535025787    0.035975916024
            0.081357730076    0.049741487067    0.000050368024    -0.000005465409    0.089435106274    0.072308071117    0.000056164618    -0.000005990795
            0.000050274538    -0.000005580909    0.092535025787    0.035975916024    0.000056164618    -0.000005990795    0.099216126844    0.057941095631
0.600     0.114479393588    0.077240232948    0.000046831728    -0.000011039138    0.099421271969    0.054485261663    0.000051727267    -0.000012013865
            0.000046831728    -0.000011039138    0.116217360639    0.061347186152    0.000051858057    -0.000011870041    0.104594386039    0.039134938166
            0.099421271969    0.054485261663    0.000051858057    -0.000011870041    0.113740700134    0.076031505998    0.000057811630    -0.000012937693
            0.000051727267    -0.000012013865    0.104594386039    0.039134938166    0.000057811630    -0.000012937693    0.116842000027    0.060572876148
0.625     0.140491232878    0.069245246149    0.000046193305    -0.000017097815    0.120001096623    0.050508593364    0.000051109773    -0.000018562476
            0.000046193305    -0.000017097815    0.136050770149    0.055889410870    0.000051289934    -0.000018409279    0.119448089957    0.036671872574
            0.120001096623    0.050508593364    0.000051289934    -0.000018409279    0.139170673606    0.068471862628    0.000057290428    -0.000020033125
            0.000051109773    -0.000018562476    0.119448089957    0.036671872574    0.000057290428    -0.000020033125    0.136150914253    0.055327969273
0.650     0.161784025819    0.050553740335    0.000043834483    -0.000022292495    0.138597065191    0.037578463644    0.000048673651    -0.000024217405
            0.000043834483    -0.000022292495    0.153380130547    0.042313574084    0.000048904801    -0.000024075733    0.134032082324    0.027721229841
            0.138597065191    0.037578463644    0.000048904801    -0.000024075733    0.160169337263    0.050442155243    0.000054852040    -0.000026228447
            0.000048673651    -0.000024217405    0.134032082324    0.027721229841    0.000054852040    -0.000026228447    0.153146126520    0.042214656951
0.675     0.173966730763    0.024602499278    0.000040464286    -0.000025967431    0.151267311809    0.017539391213    0.000045153731    -0.000028290432
            0.000040464286    -0.000025967431    0.164703685335    0.022660924296    0.000045429271    -0.000028179461    0.145302997132    0.012989094348
            0.151267311809    0.017539391213    0.000045429271    -0.000028179461    0.172414634792    0.025215897684    0.000051248942    -0.000030802663
            0.000045153731    -0.000028290432    0.145302997132    0.012989094348    0.000051248942    -0.000030802663    0.164423005530    0.023152548972
0.700     0.174771542472    -0.003673756249    0.000036985486    -0.000027952392    0.155350581636    -0.006261817376    0.000041490477    -0.000030593340
            0.000036985486    -0.000027952392    0.167939632986    0.000305030133    0.000041796639    -0.000030528500    0.150919826674    -0.005520495244
            0.155350581636    -0.006261817376    0.000041796639    -0.000030528500    0.173630508661    -0.002446235736    0.000047451658    -0.000033547746
            0.000041490477    -0.000030593340    0.150919826674    -0.005520495244    0.000047451658    -0.000033547746    0.167932623583    0.001363642406
0.725     0.164339074087    -0.028870227114    0.000034211388    -0.000028531977    0.149863229253    -0.029596019532    0.000038540262    -0.000031411395
            0.000034211388    -0.000028531977    0.162772579918    -0.020844532960    0.000038856520    -0.000031402663    0.149665913899    -0.024946941406
            0.149863229253    -0.029596019532    0.000038856520    -0.000031402663    0.163874373396    -0.027298241292    0.000044350729    -0.000034745313
            0.000038540262    -0.000031411395    0.149665913899    -0.024946941406    0.000044350729    -0.000034745313    0.163319876000    -0.019396376492
0.750     0.145224439258    -0.046077304411    0.000032695229    -0.000028311468    0.135813450290    -0.048010442859    0.000036897745    -0.000031371927
            0.000032695229    -0.000028311468    0.150687351129    -0.037132250495    0.000037197418    -0.000031419550    0.141738237151    -0.042091864422
            0.135813450290    -0.048010442859    0.000037197418    -0.000031419550    0.145549312535    -0.044540613046    0.000042573377    -0.000035035790
            0.000036897745    -0.000031371927    0.141738237151    -0.042091864422    0.000042573377    -0.000035035790    0.151962695015    -0.035595438598
0.775     0.122149850125    -0.051872238960    0.000032656639    -0.000028049180    0.116353958730    -0.057714067375    0.000036809805    -0.000031277958
            0.000032656639    -0.000028049180    0.134736789476    -0.045894880841    0.000037064891    -0.000031366356    0.128847339149    -0.054051214901
            0.116353958730    -0.057714067375    0.000037064891    -0.000031366356    0.123175229761    -0.050784973812    0.000042388951    -0.000035249691
            0.000036809805    -0.000031277958    0.128847339149    -0.054051214901    0.000042388951    -0.000035249691    0.136751973407    -0.044637556519
0.800     0.101338773051    -0.045395190489    0.000033983824    -0.000028537810    0.096534283553    -0.056745603275    0.000038163962    -0.000031982026
            0.000033983824    -0.000028537810    0.119045982387    -0.046147679226    0.000038356583    -0.000032077409    0.114081814755    -0.058966766955
