# GHz S RI R 45
0.000     0.026308338239    0.001390152653    -0.000000327794    -0.000000213472    0.000770402068    0.001196910447    -0.000000083331    0.000000300796
            -0.000000327793    -0.000000213472    0.027190425362    0.001609757529    -0.000000660295    -0.000000886949    0.000858712201    0.001640696645
            0.000770402068    0.001196910447    -0.000000660295    -0.000000886949    0.026242631515    0.001382056295    -0.000000327498    -0.000000192564
            -0.000000083412    0.000000300797    0.000858712391    0.001640696659    -0.000000327502    -0.000000192564    0.027119349964    0.001621743315
0.025     0.033460980422    0.005960254790    -0.000000602093    -0.000000347320    0.004258528606    0.009845617694    0.000000074018    0.000000687442
            -0.000000602093    -0.000000347320    0.032686571300    0.007733904387    -0.000001509003    -0.000001692543    0.003229490077    0.011899367786
            0.004258378252    0.009845696889    -0.000001509003    -0.000001692543    0.033373595463    0.005846989821    -0.000000587477    -0.000000297101
            0.000000074017    0.000000687443    0.003229744793    0.011898792997    -0.000000587477    -0.000000297101    0.032591803412    0.007689821863
0.050     0.042282715993    0.002975443577    -0.000001017987    -0.000000295035    0.013375465550    0.015390489551    0.000000552869    0.000001249910
            -0.000001017987    -0.000000295035    0.037637735222    0.008838930767    -0.000003074684    -0.000002296216    0.009622369901    0.021246921232
            0.013375443793    0.015390508460    -0.000003074684    -0.000002296216    0.042143645009    0.002788848584    -0.000000960341    -0.000000205249
            0.000000552869    0.000001249910    0.009622467406    0.021246915495    -0.000000960341    -0.000000205249    0.037437737075    0.008805901787
0.075     0.049386304285    -0.006645207581    -0.000001340602    -0.000000015579    0.024412338768    0.014042633364    0.000001298221    0.000001590158
            -0.000001340602    -0.000000015579    0.040526152677    0.007098022538    -0.000004762452    -0.000002097396    0.017853150340    0.026587318472
            0.024412333358    0.014042638758    -0.000004762452    -0.000002097396    0.049199007784    -0.006871047357    -0.000001215269    0.000000087742
            0.000001298221    0.000001590158    0.017853146071    0.026587320134    -0.000001215269    0.000000087742    0.040226837355    0.007165040538
0.100     0.050968193823    -0.021560873599    -0.000001536370    0.000000414103    0.033020722799    0.005748858698    0.000002219261    0.000001614994
            -0.000001536370    0.000000414103    0.040109935812    0.004043060365    -0.000006381105    -0.000001174971    0.025537159388    0.027925518445
            0.033020722779    0.005748858813    -0.000006381105    -0.000001174971    0.050757228495    -0.021800223396    -0.000001332715    0.000000489345
            0.000002219261    0.000001614994    0.025537133931    0.027925526818    -0.000001332715    0.000000489345    0.039766608737    0.004282284632
0.125     0.044071771618    -0.038343803510    -0.000001564391    0.000000941121    0.035436458087    -0.007180804917    0.000003204813    0.000001269368
            -0.000001564391    0.000000941121    0.035804851275    0.001907665180    -0.000007722756    0.000000420208    0.030781123609    0.026479325977
            0.035436459067    -0.007180805116    -0.000007722756    0.000000420208    0.043866926306    -0.038594184877    -0.000001301504    0.000000940650
            0.000003204813    0.000001269368    0.030781123609    0.026479325977    -0.000001301504    0.000000940650    0.035520767383    0.002349095154
0.150     0.028078716790    -0.051915523442    -0.000001404588    0.000001502300    0.029643151725    -0.020724690922    0.000004130250    0.000000527215
            -0.000001404588    0.000001502300    0.028743102440    0.002928955299    -0.000008609437    0.000002596300    0.032573298655    0.024271225922
            0.029643151725    -0.020724690922    -0.000008609437    0.000002596300    0.027919175323    -0.052194437205    -0.000001131000    0.000001399043
            0.000004130250    0.000000527215    0.032573298655    0.024271225922    -0.000001131000    0.000001399043    0.028615385519    0.003536216892
0.175     0.005037060826    -0.057452486308    -0.000001044402    0.000002043822    0.016042098300    -0.030170201782    0.000004863054    -0.000000601777
            -0.000001044402    0.000002043822    0.020767499293    0.008636697006    -0.000008845520    0.000005263652    0.031253870614    0.023575980435
            0.016042098300    -0.030170201782    -0.000008845520    0.000005263652    0.004933866847    -0.057807318774    -0.000000816938    0.000001850811
            0.000004863054    -0.000000601777    0.031253870614    0.023575980435    -0.000000816938    0.000001850811    0.020868060864    0.009312537802
0.200     -0.020489213183    -0.051531619806    -0.000000476505    0.000002502649    -0.002430234368    -0.031518342749    0.000005265343    -0.000002070179
            -0.000000476505    0.000002502649    0.014554191531    0.019456825792    -0.000008206289    0.000008258466    0.028406522145    0.026109653260
            -0.002430234368    -0.031518342749    -0.000008206289    0.000008258466    -0.020562469102    -0.052013811323    -0.000000325031    0.000002268833
            0.000005265343    -0.000002070179    0.028406522145    0.026109653260    -0.000000325031    0.000002268833    0.014886795061    0.020070858259
0.225     -0.042397002523    -0.033412412560    0.000000291537    0.000002797465    -0.020958969762    -0.022763283406    0.000005205855    -0.000003783886
            0.000000291537    0.000002797465    0.012852686189    0.034253300709    -0.000006476596    0.000011282914    0.026354492148    0.032400311610
            -0.020958969762    -0.022763283406    -0.000006476596    0.000011282914    -0.042502342833    -0.034051613482    0.000000386258    0.000002576531
            0.000005205855    -0.000003783886    0.026354492148    0.032400311610    0.000000386258    0.000002576531    0.013341059489    0.034690406758
0.250     -0.054647133845    -0.005669066476    0.000001211274    0.000002833995    -0.034136877034    -0.004693173153    0.000004573710    -0.000005594144
            0.000001211274    0.000002833995    0.017547099377    0.050464033177    -0.000003569608    0.000013891109    0.027371482126    0.041562580081
            -0.034136877034    -0.004693173153    -0.000003569608    0.000013891109    -0.054863965201    -0.006451529208    0.000001307870    0.000002639478
            0.000004573710    -0.000005594144    0.027371482126    0.041562580081    0.000001307870    0.000002639478    0.018055322350    0.050671639456
0.275     -0.053044272612    0.026187274154    0.000002180388    0.000002535125    -0.037528569403    0.019122932772    0.000003309748    -0.000007300704
            0.000002180388    0.000002535125    0.028931022043    0.064747255278    0.000000372714    0.000015572516    0.032882285858    0.051552600818
            -0.037528569403    0.019122932772    0.000000372714    0.000015572516    -0.053440678816    0.025326356465    0.000002332181    0.000002317585
            0.000003309748    -0.000007300704    0.032882285858    0.051552600818    0.000002332181    0.000002317585    0.029310245540    0.064761566673
0.300     -0.036599071676    0.054992820025    0.000003056105    0.000001880258    -0.029020722037    0.043196607586    0.000001435506    -0.000008669158
            0.000003056105    0.000001880258    0.045487341828    0.073997460903    0.000004950341    0.000015912970    0.042975524529    0.059852191285
            -0.029020722037    0.043196607586    0.000004950341    0.000015912970    -0.037201440563    0.054159186239    0.000003256522    0.000001543514
            0.000001435506    -0.000008669158    0.042975524529    0.059852191285    0.000003256522    0.000001543514    0.045630490855    0.073938415810
0.325     -0.007989645571    0.073773135094    0.000003699796    0.000000921469    -0.009493045200    0.061557501489    -0.000000926709    -0.000009480259
            0.000003699796    0.000000921469    0.064281302882    0.076276616570    0.000009602929    0.000014729197    0.056382647196    0.064261706682
            -0.009493045200    0.061557501489    0.000009602929    0.000014729197    -0.008761010824    0.073085827005    0.000003854143    0.000000381883
            -0.000000926709    -0.000009480259    0.056382647196    0.064261706682    0.000003854143    0.000000381883    0.064164670629    0.076311885631
0.350     0.026967512379    0.077542681092    0.000004017268    -0.000000236906    0.017336744032    0.069294897217    -0.000003570435    -0.000009578443
            0.000004017268    -0.000000236906    0.081794645277    0.071385935611    0.000013771085    0.000012116897    0.070888020437    0.063547978247
            0.017336744032    0.069294897217    0.000013771085    0.000012116897    0.026131144338    0.077097859522    0.000003962722    -0.000000981572
            -0.000003570435    -0.000009578443    0.070888020437    0.063547978247    0.000003962722    -0.000000981572    0.081492422330    0.071677557175
0.375     0.060646082720    0.064557004552    0.000003969495    -0.000001478676    0.045769737385    0.063757444793    -0.000006255161    -0.000008909101
            0.000003969495    -0.000001478676    0.094876905872    0.060875124844    0.000017035450    0.000008374918    0.083945346117    0.057745432370
            0.045769737385    0.063757444793    0.000017035450    0.000008374918    0.059900227124    0.064393387223    0.000003547491    -0.000002305760
            -0.000006255161    -0.000008909101    0.083945346117    0.057745432370    0.000003547491    -0.000002305760    0.094545964929    0.061527870495
0.400     0.085304347786    0.036794992100    0.000003551860    -0.000002701156    0.069378359733    0.045209627469    -0.000008760428    -0.000007504567
            0.000003551860    -0.000002701156    0.101539943246    0.047626353552    0.000019175506    0.000003884083    0.093337657144    0.048149456828
            0.069378359733    0.045209627469    0.000019175506    0.000003884083    0.084824907160    0.036868648856    0.000002698942    -0.000003379165
            -0.000008760428    -0.000007504567    0.093337657144    0.048149456828    0.000002698942    -0.000003379165    0.101380376460    0.048650152636
0.425     0.094767348105    -0.000357123766    0.000002770850    -0.000003812711    0.082367252490    0.016885211524    -0.000010919743    -0.000005446327
            0.000002770850    -0.000003812711    0.101431870466    0.035129295376    0.000020132921    -0.000001011835    0.097732067575    0.037015787948
            0.082367252490    0.016885211524    0.000020132921    -0.000001011835    0.094709336571    -0.000181769671    0.000001589553    -0.000004083238
            -0.000010919743    -0.000005446327    0.097732067575    0.037015787948    0.000001589553    -0.000004083238    0.101632615759    0.036426351493
0.450     0.085831436211    -0.039076828231    0.000001638421    -0.000004710607    0.080867402568    -0.015501621427    -0.000012606688    -0.000002816388
            0.000001638421    -0.000004710607    0.095960561943    0.026654367638    0.000019928660    -0.000006060931    0.097090883271    0.027054951025
            0.080867402568    -0.015501621427    0.000019928660    -0.000006060931    0.086282387067    -0.039017457995    0.000000395327    -0.000004410407
            -0.000012606688    -0.000002816388    0.097090883271    0.027054951025    0.000000395327    -0.000004410407    0.096643552137    0.028035621559
0.475     0.059172009891    -0.070610340894    0.000000185263    -0.000005270565    0.063970128880    -0.044773761682    -0.000013710050    0.000000315673
            0.000000185263    -0.000005270565    0.088030859823    0.024411541243    0.000018552738    -0.000011090238    0.092809397657    0.020720931549
            0.063970128880    -0.044773761682    0.000018552738    -0.000011090238    0.060110245147    -0.070936191364    -0.000000777673    -0.000004439445
            -0.000013710050    0.000000315673    0.092809397657    0.020720931549    -0.000000777673    -0.000004439445    0.089209792329    0.025639961282
0.500     0.019576149826    -0.087146969800    -0.000001501822    -0.000005370027    0.034303328115    -0.063792337646    -0.000014083954    0.000003859807
            -0.000001501822    -0.000005370027    0.081400950184    0.028869969397    0.000015929232    -0.000015933739    0.087484561343    0.019444471881
            0.034303328115    -0.063792337646    0.000015929232    -0.000015933739    0.020832275202    -0.088127295982    -0.000001924723    -0.000004269458
            -0.000014083954    0.000003859807    0.087484561343    0.019444471881    -0.000001924723    -0.000004269458    0.082967172709    0.029721117075
0.525     -0.024740042509    -0.083788992046    -0.000003247527    -0.000004895692    -0.002175032027    -0.067238162037    -0.000013538023    0.000007681132
            -0.000003247527    -0.000004895692    0.079669443118    0.038434213271    0.000011953704    -0.000020291727    0.084201600730    0.023023934136
            -0.002175032027    -0.067238162037    0.000011953704    -0.000020291727    -0.023509980225    -0.085594377192    -0.000003102942    -0.000003911415
            -0.000013538023    0.000007681132    0.084201600730    0.023023934136    -0.000003102942    -0.000003911415    0.081409315567    0.038752165361
0.550     -0.063900091545    -0.060144658500    -0.000004814339    -0.000003805666    -0.037400222310    -0.053246892657    -0.000011887460    0.000011540584
            -0.000004814339    -0.000003805666    0.085149450925    0.049741992037    0.000006611080    -0.000023687715    0.085514648769    0.029545571497
            -0.037400222310    -0.053246892657    0.000006611080    -0.000023687715    -0.063126488310    -0.062669350505    -0.000004348912    -0.000003249931
            -0.000011887460    0.000011540584    0.085514648769    0.029545571497    -0.000004348912    -0.000003249931    0.086766434246    0.049487727932
0.575     -0.088942222744    -0.020608863033    -0.000005956932    -0.000002190223    -0.063263789812    -0.024069167099    -0.000009028900    0.000015074004
            -0.000005956932    -0.000002190223    0.098023422348    0.058609841229    0.000000138224    -0.000025551827    0.092535025787    0.035975916024
            -0.063263789812    -0.024069167099    0.000000138224    -0.000025551827    -0.088841432953    -0.023514510459    -0.000005565153    -0.000002117559
            -0.000009028900    0.000015074004    0.092535025787    0.035975916024    -0.000005565153    -0.000002117559    0.099216126844    0.057941095631
0.600     -0.093875491373    0.026721298748    -0.000006486531    -0.000000248922    -0.073581301319    0.014423901371    -0.000005013749    0.000017827713
            -0.000006486531    -0.000000248922    0.116217360639    0.061347186152    -0.000006907526    -0.000025425831    0.104594386039    0.039134938166
            -0.073581301319    0.014423901371    -0.000006907526    -0.000025425831    -0.094485736119    0.023719888194    -0.000006491916    -0.000000426341
            -0.000005013749    0.000017827713    0.104594386039    0.039134938166    -0.000006491916    -0.000000426341    0.116842000027    0.060572876148
0.625     -0.077173633389    0.071732591507    -0.000006329508    0.000001738881    -0.065667591839    0.054057174126    -0.000000115982    0.000019361095
            -0.000006329508    0.000001738881    0.136050770149    0.055889410870    -0.000013768122    -0.000023152909    0.119448089957    0.036671872574
            -0.065667591839    0.054057174126    -0.000013768122    -0.000023152909    -0.078488307389    0.068913576473    -0.000006814508    0.000001716856
            -0.000000115982    0.000019361095    0.119448089957    0.036671872574    -0.000006814508    0.000001716856    0.136150914253    0.055327969273
0.650     -0.042253138938    0.104829583119    -0.000005571058    0.000003502651    -0.040983366251    0.086447640132    0.000005188968    0.000019381977
            -0.000005571058    0.000003502651    0.153380130547    0.042313574084    -0.000019703815    -0.000018942921    0.134032082324    0.027721229841
            -0.040983366251    0.086447640132    -0.000019703815    -0.000018942921    -0.044151662761    0.102484891290    -0.000006309425    0.000004014896
            0.000005188968    0.000019381977    0.134032082324    0.027721229841    -0.000006309425    0.000004014896    0.153146126520    0.042214656951
0.675     0.003568103682    0.119181630360    -0.000004410952    0.000004887959    -0.004528938315    0.104930638139    0.000010346557    0.000017849813
            -0.000004410952    0.000004887959    0.164703685335    0.022660924296    -0.000024176321    -0.000013270194    0.145302997132    0.012989094348
            -0.004528938315    0.104930638139    -0.000024176321    -0.000013270194    0.001344211302    0.117541364004    -0.000004948841    0.000006083163
            0.000010346557    0.000017849813    0.145302997132    0.012989094348    -0.000004948841    0.000006083163    0.164423005530    0.023152548972
0.700     0.050888803582    0.111995338864    -0.000003045966    0.000005893235    0.036435428617    0.105787995026    0.000014875704    0.000014961411
            -0.000003045966    0.000005893235    0.167939632986    0.000305030133    -0.000026920778    -0.000006709793    0.150919826674    -0.005520495244
            0.036435428617    0.105787995026    -0.000026920778    -0.000006709793    0.048694637381    0.111158503793    -0.000002895698    0.000007578578
            0.000014875704    0.000014961411    0.150919826674    -0.005520495244    -0.000002895698    0.000007578578    0.167932623583    0.001363642406
0.725     0.090177044202    0.084800261779    -0.000001570173    0.000006610008    0.073856395641    0.088731788958    0.000018479351    0.000011051341
            -0.000001570173    0.000006610008    0.162772579918    -0.020844532960    -0.000027898220    0.000000206169    0.149665913899    -0.024946941406
            0.073856395641    0.088731788958    -0.000027898220    0.000000206169    0.088396696491    0.084699310697    -0.000000444767    0.000008285675
            0.000018479351    0.000011051341    0.149665913899    -0.024946941406    -0.000000444767    0.000008285675    0.163319876000    -0.019396376492
0.750     0.113503462227    0.042993680702    0.000000053623    0.000007107895    0.100283163346    0.056859867467    0.000021047260    0.000006449435
            0.000000053623    0.000007107895    0.150687351129    -0.037132250495    -0.000027210804    0.000007058624    0.141738237151    -0.042091864422
            0.100283163346    0.056859867467    -0.000027210804    0.000007058624    0.112472615925    0.043391426841    0.000002065797    0.000008146248
            0.000021047260    0.000006449435    0.141738237151    -0.042091864422    0.000002065797    0.000008146248    0.151962695015    -0.035595438598
0.775     0.115914632232    -0.005133048948    0.000001926219    0.000007336966    0.110122252138    0.016192928807    0.000022582506    0.000001384695
            0.000001926219    0.000007336966    0.134736789476    -0.045894880841    -0.000025001252    0.000013550129    0.128847339149    -0.054051214901
            0.110122252138    0.016192928807    -0.000025001252    0.000013550129    0.115848433067    -0.004615516796    0.000004328545    0.000007258077
            0.000022582506    0.000001384695    0.128847339149    -0.054051214901    0.000004328545    0.000007258077    0.136751973407    -0.044637556519
