# GHz S RI R 45
0.000     0.026871299232    0.001705433699    -0.000014476963    -0.000038273984    0.000835516643    0.001437933897    -0.000011183897    -0.000028744238
            -0.000014477002    -0.000038273985    0.027190425362    0.001609757529    -0.000020396286    -0.000053270044    0.000858712201    0.001640696645
            0.000835517271    0.001437933880    -0.000020396329    -0.000053270045    0.026787363940    0.001719715837    -0.000014742003    -0.000038677644
            -0.000011183897    -0.000028744239    0.000858712391    0.001640696659    -0.000014741902    -0.000038677643    0.027119349964    0.001621743315
0.025     0.034345997332    0.006419595250    -0.000045323550    -0.000078529878    0.004636953997    0.010551322856    -0.000035009923    -0.000059477252
            -0.000045323542    -0.000078529896    0.032686571300    0.007733904387    -0.000063068366    -0.000108961366    0.003229490077    0.011899367786
            0.004634342291    0.010550351351    -0.000063068386    -0.000108961401    0.034294790535    0.006453060352    -0.000046140434    -0.000079110281
            -0.000035010456    -0.000059477067    0.003229744793    0.011898792997    -0.000046140492    -0.000079110349    0.032591803412    0.007689821863
0.050     0.043661108334    0.003296438655    -0.000113100144    -0.000121969892    0.014440633502    0.016349618287    -0.000086789816    -0.000091568385
            -0.000113100151    -0.000121969899    0.037637735222    0.008838930767    -0.000156354201    -0.000169298267    0.009622369901    0.021246921232
            0.014440612341    0.016349619633    -0.000156354207    -0.000169298274    0.043693738484    0.003353639808    -0.000114645345    -0.000122007119
            -0.000086789832    -0.000091568370    0.009622467406    0.021246915495    -0.000114645988    -0.000122007846    0.037437737075    0.008805901787
0.075     0.050997116279    -0.006916408516    -0.000198850942    -0.000129449555    0.026147774950    0.014629808917    -0.000151466251    -0.000095897169
            -0.000198850942    -0.000129449555    0.040526152677    0.007098022538    -0.000274070358    -0.000180695653    0.017853150340    0.026587318472
            0.026147769374    0.014629814786    -0.000274070358    -0.000180695653    0.051142470651    -0.006884733879    -0.000200044052    -0.000128336037
            -0.000151466259    -0.000095897174    0.017853146071    0.026587320134    -0.000200044052    -0.000128336037    0.040226837355    0.007165040538
0.100     0.052233075780    -0.022668024403    -0.000290008439    -0.000098414457    0.034958803647    0.005452033052    -0.000219186366    -0.000071304342
            -0.000290008439    -0.000098414457    0.040109935812    0.004043060365    -0.000399594919    -0.000139970680    0.025537159388    0.027925518445
            0.034958803618    0.005452033235    -0.000399594919    -0.000139970680    0.052503575418    -0.022729659068    -0.000289497273    -0.000096912584
            -0.000219186376    -0.000071304345    0.025537133931    0.027925526818    -0.000289497273    -0.000096912584    0.039766608737    0.004282284632
0.125     0.044267177137    -0.040058277463    -0.000374061423    -0.000028018541    0.036797036243    -0.008498583300    -0.000280957405    -0.000017966278
            -0.000374061443    -0.000028018543    0.035804851275    0.001907665180    -0.000516415320    -0.000045865449    0.030781123609    0.026479325977
            0.036797036243    -0.008498583300    -0.000516415320    -0.000045865449    0.044638596653    -0.040275648848    -0.000371575025    -0.000028146010
            -0.000280957405    -0.000017966278    0.030781123609    0.026479325977    -0.000371575035    -0.000028146011    0.035520767383    0.002349095154
0.150     0.026599045794    -0.053640260526    -0.000438252703    0.000080226655    0.029610840578    -0.022661463006    -0.000328125788    0.000062875252
            -0.000438252703    0.000080226655    0.028743102440    0.002928955299    -0.000607691663    0.000100048023    0.032573298655    0.024271225922
            0.029610840578    -0.022661463006    -0.000607691663    0.000100048023    0.027011596449    -0.054082033274    -0.000435526802    0.000076506574
            -0.000328125788    0.000062875252    0.032573298655    0.024271225922    -0.000435526802    0.000076506574    0.028615385519    0.003536216892
0.175     0.001688089995    -0.058124329785    -0.000468219572    0.000222181706    0.014107044884    -0.031820938657    -0.000350554942    0.000168889703
            -0.000468219572    0.000222181706    0.020767499293    0.008636697006    -0.000654159674    0.000293025841    0.031253870614    0.023575980435
            0.014107044884    -0.031820938657    -0.000654159674    0.000293025841    0.002048248555    -0.058821765496    -0.000468532061    0.000214721451
            -0.000350554942    0.000168889703    0.031253870614    0.023575980435    -0.000468532071    0.000214721455    0.020868060864    0.009312537802
0.200     -0.025207697823    -0.049993244809    -0.000448279063    0.000387737790    -0.006182940522    -0.031705646397    -0.000336128149    0.000293593325
            -0.000448279063    0.000387737790    0.014554191531    0.019456825792    -0.000634220069    0.000520557095    0.028406522145    0.026109653260
            -0.006182940522    -0.031705646397    -0.000634220069    0.000520557095    -0.025009938818    -0.050926669599    -0.000454607173    0.000379165976
            -0.000336128149    0.000293593325    0.028406522145    0.026109653260    -0.000454607173    0.000379165976    0.014886795061    0.020070858259
0.225     -0.047298375372    -0.028861772425    -0.000364927036    0.000557875412    -0.025728893613    -0.020430260665    -0.000273351897    0.000423147783
            -0.000364927036    0.000557875412    0.012852686189    0.034253300709    -0.000528426534    0.000757979727    0.026354492148    0.032400311610
            -0.025728893613    -0.020430260665    -0.000528426534    0.000757979727    -0.047363175844    -0.029952205659    -0.000377718385    0.000552804124
            -0.000273351897    0.000423147783    0.026354492148    0.032400311610    -0.000377718385    0.000552804124    0.013341059489    0.034690406758
0.250     -0.058135823509    0.001951195723    -0.000213736145    0.000705228554    -0.038550998332    0.000667633504    -0.000157486554    0.000536040052
            -0.000213736145    0.000705228554    0.017547099377    0.050464033177    -0.000328805393    0.000968690552    0.027371482126    0.041562580081
            -0.038550998332    0.000667633504    -0.000328805393    0.000968690552    -0.058519628329    0.000835335307    -0.000229901553    0.000707843337
            -0.000157486554    0.000536040052    0.027371482126    0.041562580081    -0.000229901553    0.000707843337    0.018055322350    0.050671639456
0.275     -0.053597160690    0.036012701513    -0.000004731040    0.000800235785    -0.040032928539    0.027186855883    0.000004231847    0.000608024333
            -0.000004731040    0.000800235785    0.028931022043    0.064747255278    -0.000046601639    0.001111852209    0.032882285858    0.051552600818
            -0.040032928539    0.027186855883    -0.000046601639    0.001111852209    -0.054285707903    0.035030066558    -0.000018704853    0.000811669883
            0.000004231847    0.000608024333    0.032882285858    0.051552600818    -0.000018704853    0.000811669883    0.029310245540    0.064761566673
0.300     -0.033295335985    0.065376463441    0.000237609398    0.000820754849    -0.028383713443    0.052805228250    0.000191917560    0.000620566333
            0.000237609398    0.000820754849    0.045487341828    0.073997460903    0.000286674230    0.001155261185    0.042975524529    0.059852191285
            -0.028383713443    0.052805228250    0.000286674230    0.001155261185    -0.034191780141    0.064673519530    0.000230955685    0.000837954958
            0.000191917560    0.000620566333    0.042975524529    0.059852191285    0.000230955685    0.000837954958    0.045630490855    0.073938415810
0.325     -0.000878710100    0.082712148550    0.000481235649    0.000759274620    -0.005220727916    0.071004848145    0.000378828822    0.000567601115
            0.000481235649    0.000759274620    0.064281302882    0.076276616570    0.000627781495    0.001085843698    0.056382647196    0.064261706682
            -0.005220727916    0.071004848145    0.000627781495    0.001085843698    -0.001814345648    0.082380274821    0.000483645351    0.000776327650
            0.000378828822    0.000567601115    0.056382647196    0.064261706682    0.000483645351    0.000776327650    0.064164670629    0.076311885631
0.350     0.036793108540    0.083240074348    0.000696478222    0.000624006513    0.024813629257    0.076782030752    0.000540150733    0.000456909196
            0.000696478222    0.000624006513    0.081794645277    0.071385935611    0.000935008467    0.000912308829    0.070888020437    0.063547978247
            0.024813629257    0.076782030752    0.000935008467    0.000912308829    0.036026957850    0.083282178945    0.000705019017    0.000635373373
            0.000540150733    0.000456909196    0.070888020437    0.063547978247    0.000705019017    0.000635373373    0.081492422330    0.071677557175
0.375     0.071277058849    0.065924704415    0.000863569433    0.000433220894    0.055160446431    0.067854760367    0.000660056412    0.000305289539
            0.000863569433    0.000433220894    0.094876905872    0.060875124844    0.001179231713    0.000658506425    0.083945346117    0.057745432370
            0.055160446431    0.067854760367    0.001179231713    0.000658506425    0.070883475696    0.066240074983    0.000872073617    0.000437107717
            0.000660056412    0.000305289539    0.083945346117    0.057745432370    0.000872073617    0.000437107717    0.094545964929    0.061527870495
0.400     0.094441080329    0.033774065439    0.000974666096    0.000207081248    0.078786869493    0.045221522474    0.000733932624    0.000131003927
            0.000974666096    0.000207081248    0.101539943246    0.047626353552    0.001347995406    0.000352328813    0.093337657144    0.048149456828
            0.078786869493    0.045221522474    0.001347995406    0.000352328813    0.094567561625    0.034165491352    0.000977326025    0.000206952621
            0.000733932624    0.000131003927    0.093337657144    0.048149456828    0.000977326025    0.000206952621    0.101380376460    0.048650152636
0.425     0.100230952830    -0.006697359829    0.001030059084    -0.000039344021    0.089664656551    0.013078855943    0.000765070027    -0.000052892539
            0.001030059084    -0.000039344021    0.101431870466    0.035129295376    0.001441210120    0.000015315943    0.097732067575    0.037015787948
            0.089664656551    0.013078855943    0.001441210120    0.000015315943    0.100924907377    -0.006494632852    0.001025368804    -0.000036216602
            0.000765070027    -0.000052892539    0.097732067575    0.037015787948    0.001025368804    -0.000036216602    0.101632615759    0.036426351493
0.450     0.086080899864    -0.046653749041    0.001031362485    -0.000298418397    0.084148277960    -0.021817245156    0.000758276902    -0.000241336599
            0.001031362485    -0.000298418397    0.095960561943    0.026654367638    0.001461784876    -0.000341817582    0.097090883271    0.027054951025
            0.084148277960    -0.021817245156    0.001461784876    -0.000341817582    0.087258787448    -0.046922033288    0.001024199955    -0.000284982056
            0.000758276902    -0.000241336599    0.097090883271    0.027054951025    0.001024199955    -0.000284982056    0.096643552137    0.028035621559
0.475     0.053773454903    -0.076663051192    0.000974555995    -0.000566571325    0.062064416243    -0.051369701330    0.000712862113    -0.000434638737
            0.000974555995    -0.000566571325    0.088030859823    0.024411541243    0.001405189938    -0.000715492808    0.092809397657    0.020720931549
            0.062064416243    -0.051369701330    0.001405189938    -0.000715492808    0.055213198710    -0.077637387047    0.000974820376    -0.000541019040
            0.000712862113    -0.000434638737    0.092809397657    0.020720931549    0.000974820376    -0.000541019040    0.089209792329    0.025639961282
0.500     0.009521559679    -0.088813695389    0.000847780333    -0.000836198052    0.027251250240    -0.067921256433    0.000619489182    -0.000630988044
            0.000847780333    -0.000836198052    0.081400950184    0.028869969397    0.001254956864    -0.001098190355    0.087484561343    0.019444471881
            0.027251250240    -0.067921256433    0.001254956864    -0.001098190355    0.010889279803    -0.090612358472    0.000865471622    -0.000804904236
            0.000619489182    -0.000630988044    0.087484561343    0.019444471881    0.000865471622    -0.000804904236    0.082967172709    0.029721117075
0.525     -0.037036698252    -0.078859270990    0.000636568810    -0.001086894109    -0.012882672919    -0.066315153858    0.000464078163    -0.000817489074
            0.000636568810    -0.001086894109    0.079669443118    0.038434213271    0.000988541294    -0.001465284152    0.084201600730    0.023023934136
            -0.012882672919    -0.066315153858    0.000988541294    -0.001465284152    -0.036122175790    -0.081429895260    0.000675555656    -0.001063083691
            0.000464078163    -0.000817489074    0.084201600730    0.023023934136    0.000675555656    -0.001063083691    0.081409315567    0.038752165361
0.550     -0.075003638779    -0.047748125068    0.000336287770    -0.001283248362    -0.048982011128    -0.045633217321    0.000239088956    -0.000966690054
            0.000336287770    -0.001283248362    0.085149450925    0.049741992037    0.000594032263    -0.001770012920    0.085514648769    0.029545571497
            -0.048982011128    -0.045633217321    0.000594032263    -0.001770012920    -0.074876847659    -0.050851739196    0.000390444354    -0.001281130402
            0.000239088956    -0.000966690054    0.085514648769    0.029545571497    0.000390444354    -0.001281130402    0.086766434246    0.049487727932
0.575     -0.095099264339    -0.001774527065    -0.000035769180    -0.001383748870    -0.072242294017    -0.009780830217    -0.000044636321    -0.001043693341
            -0.000035769180    -0.001383748870    0.098023422348    0.058609841229    0.000088051633    -0.001953405000    0.092535025787    0.035975916024
            -0.072242294017    -0.009780830217    0.000088051633    -0.001953405000    -0.095950238522    -0.005023215725    0.000018594520    -0.001411283708
            -0.000044636321    -0.001043693341    0.092535025787    0.035975916024    0.000018594520    -0.001411283708    0.099216126844    0.057941095631
0.600     -0.092267139041    0.048948066983    -0.000438368084    -0.001357968105    -0.076898608513    0.033469219161    -0.000354777275    -0.001021222279
            -0.000438368084    -0.001357968105    0.116217360639    0.061347186152    -0.000478587821    -0.001966886002    0.104594386039    0.039134938166
            -0.076898608513    0.033469219161    -0.000478587821    -0.001966886002    -0.094076424715    0.046005725279    -0.000401580229    -0.001411825895
            -0.000354777275    -0.001021222279    0.104594386039    0.039134938166    -0.000401580229    -0.001411825895    0.116842000027    0.060572876148
0.625     -0.066972073326    0.093212659182    -0.000817657084    -0.001200537572    -0.061681634029    0.074649906971    -0.000646483032    -0.000892982512
            -0.000817657084    -0.001200537572    0.136050770149    0.055889410870    -0.001033009083    -0.001793186440    0.119448089957    0.036671872574
            -0.061681634029    0.074649906971    -0.001033009083    -0.001793186440    -0.069503455207    0.090981987920    -0.000810831271    -0.001266540323
            -0.000646483032    -0.000892982512    0.119448089957    0.036671872574    -0.000810831271    -0.001266540323    0.136150914253    0.055327969273
0.650     -0.024806870336    0.121579990133    -0.001125311461    -0.000933507973    -0.029831929367    0.105049654095    -0.000878387746    -0.000676985624
            -0.001125311461    -0.000933507973    0.153380130547    0.042313574084    -0.001503788138    -0.001453541134    0.134032082324    0.027721229841
            -0.029831929367    0.105049654095    -0.001503788138    -0.001453541134    -0.027656410443    0.120321249982    -0.001149482489    -0.000992730538
            -0.000878387746    -0.000676985624    0.134032082324    0.027721229841    -0.001149482489    -0.000992730538    0.153146126520    0.042214656951
0.675     0.025199175475    0.128398009627    -0.001332108640    -0.000596386644    0.012051887410    0.118553661209    -0.001025525205    -0.000407443349
            -0.001332108640    -0.000596386644    0.164703685335    0.022660924296    -0.001841651519    -0.000997798695    0.145302997132    0.012989094348
            0.012051887410    0.118553661209    -0.001841651519    -0.000997798695    0.022517100072    0.128165259898    -0.001376575238    -0.000633523001
            -0.001025525205    -0.000407443349    0.145302997132    0.012989094348    -0.001376575238    -0.000633523001    0.164423005530    0.023152548972
0.700     0.072757651956    0.112628056569    -0.001431820721    -0.000231647136    0.055621536272    0.112573861082    -0.001083557141    -0.000121922839
            -0.001431820721    -0.000231647136    0.167939632986    0.000305030133    -0.002028679465    -0.000486008656    0.150919826674    -0.005520495244
            0.055621536272    0.112573861082    -0.002028679465    -0.000486008656    0.070711024872    0.113253407724    -0.001479094058    -0.000241800095
            -0.001083557141    -0.000121922839    0.150919826674    -0.005520495244    -0.001479094058    -0.000241800095    0.167932623583    0.001363642406
0.725     0.108329080089    0.077659752594    -0.001435810079    0.000126979279    0.092332294030    0.088207316329    -0.001064731393    0.000149786052
            -0.001435810079    0.000126979279    0.162772579918    -0.020844532960    -0.002074889190    0.000029662085    0.149665913899    -0.024946941406
            0.092332294030    0.088207316329    -0.002074889190    0.000029662085    0.107277041824    0.078778949926    -0.001469939834    0.000136457938
            -0.001064731393    0.000149786052    0.149665913899    -0.024946941406    -0.001469939834    0.000136457938    0.163319876000    -0.019396376492
0.750     0.124715475539    0.030517048278    -0.001363907302    0.000460691861    0.114794044896    0.049976045636    -0.000989777898    0.000391798865
            -0.001363907302    0.000460691861    0.150687351129    -0.037132250495    -0.002006914595    0.000516645860    0.141738237151    -0.042091864422
            0.114794044896    0.049976045636    -0.002006914595    0.000516645860    0.124831930907    0.031627987902    -0.001378237379    0.000473833174
            -0.000989777898    0.000391798865    0.141738237151    -0.042091864422    -0.001378237379    0.000473833174    0.151962695015    -0.035595438598
0.775     0.118255546537    -0.019303146979    -0.001233788355    0.000765378342    0.117991544936    0.005244917592    -0.000878069158    0.000603132789
            -0.001233788355    0.000765378342    0.134736789476    -0.045894880841    -0.001852308415    0.000965446755    0.128847339149    -0.054051214901
            0.117991544936    0.005244917592    -0.001852308415    0.000965446755    0.119477415444    -0.018755110182    -0.001234855759    0.000765930077
            -0.000878069158    0.000603132789    0.128847339149    -0.054051214901    -0.001234855759    0.000765930077    0.136751973407    -0.044637556519
