# GHz S RI R 45
0.000     0.028259624411    0.001278896439    -0.000000000452    -0.000000055777    0.000894301142    0.001385613160    0.000000014197    -0.000000030178
            -0.000000000452    -0.000000055777    0.027190425362    0.001609757529    -0.000000004779    -0.000000063280    0.000858712201    0.001640696645
            0.000894300520    0.001385613204    -0.000000004779    -0.000000063280    0.028200814650    0.001283182698    0.000000009824    -0.000000037780
            0.000000014197    -0.000000030178    0.000858712391    0.001640696659    0.000000009825    -0.000000037780    0.027119349964    0.001621743315
0.025     0.034332600949    0.007502635302    -0.000000012362    -0.000000129581    0.003770703994    0.012286441569    0.000000014350    -0.000000073518
            -0.000000012362    -0.000000129581    0.032686571300    0.007733904387    -0.000000019294    -0.000000146300    0.003229490077    0.011899367786
            0.003773100480    0.012286113810    -0.000000019294    -0.000000146300    0.034300573791    0.007600529071    0.000000007344    -0.000000090484
            0.000000014350    -0.000000073518    0.003229744793    0.011898792997    0.000000007344    -0.000000090485    0.032591803412    0.007689821863
0.050     0.040102104333    0.007466734092    -0.000000038872    -0.000000243242    0.011360611374    0.021201694400    0.000000006833    -0.000000145462
            -0.000000038872    -0.000000243242    0.037637735222    0.008838930767    -0.000000050557    -0.000000273876    0.009622369901    0.021246921232
            0.011360645549    0.021201702181    -0.000000050557    -0.000000273876    0.040142810681    0.007640796572    -0.000000004932    -0.000000176491
            0.000000006833    -0.000000145462    0.009622467406    0.021246915495    -0.000000004932    -0.000000176491    0.037437737075    0.008805901787
0.075     0.043365544409    0.003604744427    -0.000000067300    -0.000000350232    0.020650667439    0.024880101448    -0.000000000522    -0.000000214535
            -0.000000067300    -0.000000350232    0.040526152677    0.007098022538    -0.000000084847    -0.000000393802    0.017853150340    0.026587318472
            0.020650682919    0.024880104194    -0.000000084847    -0.000000393802    0.043512962878    0.003805934781    -0.000000018251    -0.000000258733
            -0.000000000522    -0.000000214535    0.017853146071    0.026587320134    -0.000000018251    -0.000000258733    0.040226837355    0.007165040538
0.100     0.042111752751    -0.002198739584    -0.000000097191    -0.000000457100    0.028334162727    0.023577947364    -0.000000005708    -0.000000284960
            -0.000000097191    -0.000000457100    0.040109935812    0.004043060365    -0.000000121947    -0.000000513190    0.025537159388    0.027925518445
            0.028334162727    0.023577947364    -0.000000121947    -0.000000513190    0.042363777787    -0.002036758697    -0.000000030812    -0.000000341899
            -0.000000005708    -0.000000284960    0.025537133931    0.027925526818    -0.000000030812    -0.000000341899    0.039766608737    0.004282284632
0.125     0.035320269423    -0.006828630565    -0.000000130795    -0.000000569900    0.031898708612    0.019332065190    -0.000000008853    -0.000000362364
            -0.000000130795    -0.000000569900    0.035804851275    0.001907665180    -0.000000164585    -0.000000638265    0.030781123609    0.026479325977
            0.031898708612    0.019332065190    -0.000000164585    -0.000000638265    0.035632798388    -0.006758965645    -0.000000043196    -0.000000431583
            -0.000000008853    -0.000000362364    0.030781123609    0.026479325977    -0.000000043196    -0.000000431583    0.035520767383    0.002349095154
0.150     0.024319254456    -0.006989171298    -0.000000173699    -0.000000693102    0.030352570098    0.015291142294    -0.000000014000    -0.000000451799
            -0.000000173699    -0.000000693102    0.028743102440    0.002928955299    -0.000000218679    -0.000000772957    0.032573298655    0.024271225922
            0.030352600595    0.015291128433    -0.000000218679    -0.000000772957    0.024631641326    -0.007043129374    -0.000000059822    -0.000000532628
            -0.000000014000    -0.000000451799    0.032573298655    0.024271225922    -0.000000059822    -0.000000532628    0.028615385519    0.003536216892
0.175     0.011857689044    -0.000292900273    -0.000000235750    -0.000000827547    0.024758178106    0.014712472074    -0.000000028877    -0.000000556666
            -0.000000235750    -0.000000827547    0.020767499293    0.008636697006    -0.000000294406    -0.000000917604    0.031253870614    0.023575980435
            0.024758195177    0.014712462923    -0.000000294406    -0.000000917604    0.012089866261    -0.000462224271    -0.000000088764    -0.000000647761
            -0.000000028877    -0.000000556666    0.031253870614    0.023575980435    -0.000000088764    -0.000000647761    0.020868060864    0.009312537802
0.200     0.001974231373    0.013880364582    -0.000000327463    -0.000000966952    0.017976979211    0.019732314117    -0.000000063701    -0.000000674763
            -0.000000327463    -0.000000966952    0.014554191531    0.019456825792    -0.000000402313    -0.000001065112    0.028406522145    0.026109653260
            0.017976979211    0.019732314117    -0.000000402313    -0.000001065112    0.002055346274    0.013651773371    -0.000000140166    -0.000000773906
            -0.000000063701    -0.000000674763    0.028406522145    0.026109653260    -0.000000140166    -0.000000773906    0.014886795061    0.020070858259
0.225     -0.001232005881    0.033704976982    -0.000000455472    -0.000001097953    0.013735685103    0.030443588247    -0.000000127637    -0.000000797527
            -0.000000455472    -0.000001097953    0.012852686189    0.034253300709    -0.000000548519    -0.000001201121    0.026354492148    0.032400311610
            0.013735685103    0.030443588247    -0.000000548519    -0.000001201121    -0.001335017752    0.033511456556    -0.000000222612    -0.000000901502
            -0.000000127637    -0.000000797527    0.026354492148    0.032400311610    -0.000000222612    -0.000000901502    0.013341059489    0.034690406758
0.250     0.004887592496    0.055166629437    -0.000000616872    -0.000001202771    0.015262572819    0.044706349402    -0.000000223297    -0.000000909849
            -0.000000616872    -0.000001202771    0.017547099377    0.050464033177    -0.000000729013    -0.000001307217    0.027371482126    0.041562580081
            0.015262572819    0.044706349402    -0.000000729013    -0.000001307217    0.004624326556    0.055114950084    -0.000000337559    -0.000001014890
            -0.000000223297    -0.000000909849    0.027371482126    0.041562580081    -0.000000337559    -0.000001014890    0.018055322350    0.050671639456
0.275     0.020414801760    0.073199920116    -0.000000797718    -0.000001266998    0.024046947517    0.058824446861    -0.000000343381    -0.000000996712
            -0.000000797718    -0.000001266998    0.028931022043    0.064747255278    -0.000000928460    -0.000001368982    0.032882285858    0.051552600818
            0.024046947517    0.058824446861    -0.000000928460    -0.000001368982    0.020073643961    0.073375359505    -0.000000476348    -0.000001099098
            -0.000000343381    -0.000000996712    0.032882285858    0.051552600818    -0.000000476348    -0.000001099098    0.029310245540    0.064761566673
0.300     0.042650354478    0.083344712455    -0.000000975882    -0.000001286434    0.039277824688    0.068837776924    -0.000000470999    -0.000001049282
            -0.000000975882    -0.000001286434    0.045487341828    0.073997460903    -0.000001123536    -0.000001382977    0.042975524529    0.059852191285
            0.039277824688    0.068837776924    -0.000001123536    -0.000001382977    0.042354564820    0.083780438272    -0.000000620943    -0.000001146112
            -0.000000470999    -0.000001049282    0.042975524529    0.059852191285    -0.000000620943    -0.000001146112    0.045630490855    0.073938415810
0.325     0.066904471763    0.083160735145    -0.000001130233    -0.000001271236    0.058132635822    0.071814004307    -0.000000586907    -0.000001071373
            -0.000001130233    -0.000001271236    0.064281302882    0.076276616570    -0.000001292478    -0.000001360570    0.056382647196    0.064261706682
            0.058132635822    0.071814004307    -0.000001292478    -0.000001360570    0.066785397231    0.083820832611    -0.000000751554    -0.000001160940
            -0.000000586907    -0.000001071373    0.056382647196    0.064261706682    -0.000000751554    -0.000001160940    0.064164670629    0.076311885631
0.350     0.087884597534    0.072935480613    -0.000001248193    -0.000001242321    0.076674206346    0.066694908218    -0.000000676682    -0.000001077483
            -0.000001248193    -0.000001242321    0.081794645277    0.071385935611    -0.000001422831    -0.000001324020    0.070888020437    0.063547978247
            0.076674206346    0.066694908218    -0.000001422831    -0.000001324020    0.088044456629    0.073717440425    -0.000000853927    -0.000001159394
            -0.000000676682    -0.000001077483    0.070888020437    0.063547978247    -0.000000853927    -0.000001159394    0.081492422330    0.071677557175
0.375     0.101123178478    0.055535481396    -0.000001331363    -0.000001224739    0.090918134257    0.054527857463    -0.000000737289    -0.000001088509
            -0.000001331363    -0.000001224739    0.094876905872    0.060875124844    -0.000001516925    -0.000001299385    0.083945346117    0.057745432370
            0.090918134257    0.054527857463    -0.000001516925    -0.000001299385    0.101604041950    0.056290095107    -0.000000925802    -0.000001163290
            -0.000000737289    -0.000001088509    0.083945346117    0.057745432370    -0.000000925802    -0.000001163290    0.094545964929    0.061527870495
0.400     0.104079416910    0.035680109618    -0.000001393925    -0.000001239551    0.097821146676    0.038243698011    -0.000000776605    -0.000001123862
            -0.000001393925    -0.000001239551    0.101539943246    0.047626353552    -0.000001590104    -0.000001308247    0.093337657144    0.048149456828
            0.097821146676    0.038243698011    -0.000001590104    -0.000001308247    0.104842197572    0.036245404862    -0.000000976198    -0.000001192513
            -0.000000776605    -0.000001123862    0.093337657144    0.048149456828    -0.000000976198    -0.000001192513    0.101380376460    0.048650152636
0.425     0.096788756757    0.018858056196    -0.000001460227    -0.000001298884    0.096087865065    0.022068073472    -0.000000812292    -0.000001197676
            -0.000001460227    -0.000001298884    0.101431870466    0.035129295376    -0.000001668022    -0.000001362583    0.097732067575    0.037015787948
            0.096087865065    0.022068073472    -0.000001668022    -0.000001362583    0.097710628351    0.019101797761    -0.000001024034    -0.000001260916
            -0.000000812292    -0.000001197676    0.097732067575    0.037015787948    -0.000001024034    -0.000001260916    0.101632615759    0.036426351493
0.450     0.082062585752    0.010063559539    -0.000001559349    -0.000001402366    0.086760510515    0.010600984442    -0.000000867579    -0.000001315036
            -0.000001559349    -0.000001402366    0.095960561943    0.026654367638    -0.000001780980    -0.000001461184    0.097090883271    0.027054951025
            0.086760510515    0.010600984442    -0.000001780980    -0.000001461184    0.082955752837    0.009927187347    -0.000001093644    -0.000001372733
            -0.000000867579    -0.000001315036    0.097090883271    0.027054951025    -0.000001093644    -0.000001372733    0.096643552137    0.028035621559
0.475     0.065113585230    0.012399673090    -0.000001721361    -0.000001534775    0.073350194716    0.007511902965    -0.000000969961    -0.000001470258
            -0.000001721361    -0.000001534775    0.088030859823    0.024411541243    -0.000001959764    -0.000001587249    0.092809397657    0.020720931549
            0.073350194716    0.007511902965    -0.000001959764    -0.000001587249    0.065768868668    0.011932006509    -0.000001213120    -0.000001520690
            -0.000000969961    -0.000001470258    0.092809397657    0.020720931549    -0.000001213120    -0.000001520690    0.089209792329    0.025639961282
0.500     0.052411029186    0.025835009914    -0.000001968780    -0.000001663270    0.061173153536    0.014117938883    -0.000001145278    -0.000001641718
            -0.000001968780    -0.000001663270    0.081400950184    0.028869969397    -0.000002226711    -0.000001705893    0.087484561343    0.019444471881
            0.061173153536    0.014117938883    -0.000002226711    -0.000001705893    0.052661461649    0.025198812377    -0.000001407944    -0.000001681231
            -0.000001145278    -0.000001641718    0.087484561343    0.019444471881    -0.000001407944    -0.000001681231    0.082967172709    0.029721117075
0.525     0.049730099914    0.046675372297    -0.000002306198    -0.000001740144    0.055712100747    0.028454814265    -0.000001409057    -0.000001790885
            -0.000002306198    -0.000001740144    0.079669443118    0.038434213271    -0.000002584963    -0.000001767449    0.084201600730    0.023023934136
            0.055712100747    0.028454814265    -0.000002584963    -0.000001767449    0.049515287366    0.046114262367    -0.000001692161    -0.000001814043
            -0.000001409057    -0.000001790885    0.084201600730    0.023023934136    -0.000001692161    -0.000001814043    0.081409315567    0.038752165361
0.550     0.060005443139    0.068405125534    -0.000002707321    -0.000001715117    0.060531534737    0.045623725579    -0.000001751016    -0.000001868700
            -0.000002707321    -0.000001715117    0.085149450925    0.049741992037    -0.000003005619    -0.000001720641    0.085514648769    0.029545571497
            0.060531534737    0.045623725579    -0.000003005619    -0.000001720641    0.059407264437    0.068172322203    -0.000002052933    -0.000001869296
            -0.000001751016    -0.000001868700    0.085514648769    0.029545571497    -0.000002052933    -0.000001869296    0.086766434246    0.049487727932
0.575     0.082069921075    0.083848414365    -0.000003116024    -0.000001557531    0.075812820229    0.059503751692    -0.000002130345    -0.000001835792
            -0.000003116024    -0.000001557531    0.098023422348    0.058609841229    -0.000003429579    -0.000001535427    0.092535025787    0.035975916024
            0.075812820229    0.059503751692    -0.000003429579    -0.000001535427    0.081299335285    0.084125552596    -0.000002446683    -0.000001808331
            -0.000002130345    -0.000001835792    0.092535025787    0.035975916024    -0.000002446683    -0.000001808331    0.099216126844    0.057941095631
0.600     0.111089254414    0.087674022123    -0.000003462419    -0.000001275080    0.098399663227    0.064985289502    -0.000002484661    -0.000001683014
            -0.000003462419    -0.000001275080    0.116217360639    0.061347186152    -0.000003784624    -0.000001221723    0.104594386039    0.039134938166
            0.098399663227    0.064985289502    -0.000003784624    -0.000001221723    0.110426510688    0.088511170456    -0.000002808892    -0.000001624214
            -0.000002484661    -0.000001683014    0.104594386039    0.039134938166    -0.000002808892    -0.000001624214    0.116842000027    0.060572876148
0.625     0.140358963908    0.077962959034    -0.000003692260    -0.000000915797    0.123126909375    0.059496737228    -0.000002756588    -0.000001440812
            -0.000003692260    -0.000000915797    0.136050770149    0.055889410870    -0.000004015674    -0.000000830677    0.119448089957    0.036671872574
            0.123126920455    0.059496737281    -0.000004015674    -0.000000830677    0.140075757256    0.079262569177    -0.000003081531    -0.000001350377
            -0.000002756588    -0.000001440812    0.119448089957    0.036671872574    -0.000003081531    -0.000001350377    0.136150914253    0.055327969273
0.650     0.163420337524    0.056347985259    -0.000003787016    -0.000000550110    0.144526881275    0.043345102953    -0.000002916029    -0.000001167156
            -0.000003787016    -0.000000550110    0.153380130547    0.042313574084    -0.000004105127    -0.000000435822    0.134032082324    0.027721229841
            0.144526881275    0.043345102953    -0.000004105127    -0.000000435822    0.163709675227    0.057891353035    -0.000003235417    -0.000001047702
            -0.000002916029    -0.000001167156    0.134032082324    0.027721229841    -0.000003235417    -0.000001047702    0.153146126520    0.042214656951
0.675     0.175570339839    0.027133173733    -0.000003769271    -0.000000245154    0.158078938397    0.019200669147    -0.000002970701    -0.000000924789
            -0.000003769271    -0.000000245154    0.164703685335    0.022660924296    -0.000004077719    -0.000000106368    0.145302997132    0.012989094348
            0.158078938397    0.019200669147    -0.000004077719    -0.000000106368    0.176501579695    0.028630227352    -0.000003280450    -0.000000780845
            -0.000002970701    -0.000000924789    0.145302997132    0.012989094348    -0.000003280450    -0.000000780845    0.164423005530    0.023152548972
0.700     0.174605986276    -0.003899281057    -0.000003690189    -0.000000045405    0.160919096887    -0.008646384473    -0.000002957579    -0.000000760890
            -0.000003690189    -0.000000045405    0.167939632986    0.000305030133    -0.000003987406    0.000000112395    0.150919826674    -0.005520495244
            0.160919096887    -0.008646384473    -0.000003987406    0.000000112395    0.176104958179    -0.002748818691    -0.000003256249    -0.000000597684
            -0.000002957579    -0.000000760890    0.150919826674    -0.005520495244    -0.000003256249    -0.000000597684    0.167932623583    0.001363642406
0.725     0.161034677008    -0.030589980988    -0.000003613933    0.000000035615    0.152231251186    -0.034987523122    -0.000002929915    -0.000000697230
            -0.000003613933    0.000000035615    0.162772579918    -0.020844532960    -0.000003901076    0.000000207507    0.149665913899    -0.024946941406
            0.152231251186    -0.034987523122    -0.000003901076    0.000000207507    0.162887027000    -0.030032064997    -0.000003218639    -0.000000519325
            -0.000002929915    -0.000000697230    0.149665913899    -0.024946941406    -0.000003218639    -0.000000519325    0.163319876000    -0.019396376492
0.750     0.138078526281    -0.047416980762    -0.000003602236    0.000000013508    0.133620449673    -0.054445591699    -0.000002942539    -0.000000730192
            -0.000003602236    0.000000013508    0.150687351129    -0.037132250495    -0.000003882648    0.000000196184    0.141738237151    -0.042091864422
            0.133620449673    -0.054445591699    -0.000003882648    0.000000196184    0.139958657542    -0.047576040085    -0.000003224457    -0.000000540552
            -0.000002942539    -0.000000730192    0.141738237151    -0.042091864422    -0.000003224457    -0.000000540552    0.151962695015    -0.035595438598
0.775     0.111459365090    -0.050630903303    -0.000003706487    -0.000000071263    0.109338636557    -0.062577450329    -0.000003045530    -0.000000834412
            -0.000003706487    -0.000000071263    0.134736789476    -0.045894880841    -0.000003984832    0.000000121379    0.128847339149    -0.054051214901
            0.109338636557    -0.062577450329    -0.000003984832    0.000000121379    0.112992299636    -0.051455863011    -0.000003324887    -0.000000633548
