# GHz S RI R 45
0.000     0.026089236621    0.001712323771    -0.000001711615    -0.000003695848    0.000760964791    0.001444652215    -0.000001555547    -0.000003402689
            -0.000001711615    -0.000003695848    0.027190425362    0.001609757529    -0.000001907768    -0.000004067983    0.000858712201    0.001640696645
            0.000760964989    0.001444652224    -0.000001907768    -0.000004067983    0.026049407184    0.001725215952    -0.000001714009    -0.000003709442
            -0.000001555549    -0.000003402689    0.000858712391    0.001640696659    -0.000001714012    -0.000003709442    0.027119349964    0.001621743315
0.025     0.033573103884    0.006065912986    -0.000004764937    -0.000007431643    0.004471052343    0.009995255837    -0.000004370722    -0.000006845561
            -0.000004764933    -0.000007431641    0.032686571300    0.007733904387    -0.000005262561    -0.000008183306    0.003229490077    0.011899367786
            0.004469213001    0.009994311502    -0.000005262567    -0.000008183315    0.033514566661    0.006010218586    -0.000004777450    -0.000007464253
            -0.000004370727    -0.000006845571    0.003229744793    0.011898792997    -0.000004777452    -0.000007464256    0.032591803412    0.007689821863
0.050     0.042936404627    0.002815484429    -0.000011164980    -0.000011308284    0.014098862103    0.015404538545    -0.000010274792    -0.000010406620
            -0.000011164980    -0.000011308284    0.037637735222    0.008838930767    -0.000012295006    -0.000012461772    0.009622369901    0.021246921232
            0.014098816778    0.015404509536    -0.000012295007    -0.000012461773    0.042889947297    0.002707149618    -0.000011204443    -0.000011354436
            -0.000010274793    -0.000010406621    0.009622467406    0.021246915495    -0.000011204443    -0.000011354435    0.037437737075    0.008805901787
0.075     0.050626412800    -0.007451528425    -0.000019054747    -0.000011869987    0.025728877005    0.013536379663    -0.000017538374    -0.000010899853
            -0.000019054747    -0.000011869987    0.040526152677    0.007098022538    -0.000020962750    -0.000013107838    0.017853150340    0.026587318472
            0.025728871928    0.013536385018    -0.000020962750    -0.000013107838    0.050604864597    -0.007626594464    -0.000019108142    -0.000011911468
            -0.000017538375    -0.000010899853    0.017853146071    0.026587320134    -0.000019108142    -0.000011911468    0.040226837355    0.007165040538
0.100     0.052642456041    -0.023399343976    -0.000027366673    -0.000008969111    0.034791394193    0.004319768226    -0.000025165897    -0.000008208748
            -0.000027366673    -0.000008969111    0.040109935812    0.004043060365    -0.000030106032    -0.000009964482    0.025537159388    0.027925518445
            0.034791394125    0.004319768772    -0.000030106032    -0.000009964482    0.052647360651    -0.023666913552    -0.000027413905    -0.000009016028
            -0.000025165897    -0.000008208748    0.025537133931    0.027925526818    -0.000027413905    -0.000009016028    0.039766608737    0.004282284632
0.125     0.045819691813    -0.041451524441    -0.000035026661    -0.000002563168    0.037299325070    -0.009838926548    -0.000032181721    -0.000002314577
            -0.000035026661    -0.000002563168    0.035804851275    0.001907665180    -0.000038556418    -0.000002980266    0.030781123609    0.026479325977
            0.037299316177    -0.009838936736    -0.000038556418    -0.000002980266    0.045836298501    -0.041843391889    -0.000035071159    -0.000002647331
            -0.000032181721    -0.000002314577    0.030781123609    0.026479325977    -0.000035071159    -0.000002647331    0.035520767383    0.002349095154
0.150     0.029425021187    -0.056452268175    -0.000040942789    0.000007209504    0.031087312585    -0.024707761944    -0.000037603995    0.000006651038
            -0.000040942789    0.000007209504    0.028743102440    0.002928955299    -0.000045125091    0.000007702268    0.032573298655    0.024271225922
            0.031087312585    -0.024707761944    -0.000045125091    0.000007702268    0.029409800424    -0.056986501293    -0.000041024833    0.000007059499
            -0.000037603995    0.000006651038    0.032573298655    0.024271225922    -0.000041024833    0.000007059499    0.028615385519    0.003536216892
0.175     0.005419384012    -0.063251789368    -0.000043891463    0.000020019304    0.016518982574    -0.035311593101    -0.000040328164    0.000018406943
            -0.000043891463    0.000020019304    0.020767499293    0.008636697006    -0.000048474546    0.000021737303    0.031253870614    0.023575980435
            0.016518982574    -0.035311593101    -0.000048474546    0.000021737303    0.005317359672    -0.063929894832    -0.000044082211    0.000019813606
            -0.000040328164    0.000018406943    0.031253870614    0.023575980435    -0.000044082211    0.000019813606    0.020868060864    0.009312537802
0.200     -0.021518937908    -0.058151662516    -0.000042497812    0.000035052716    -0.003379437152    -0.037381429241    -0.000039081319    0.000032238935
            -0.000042497812    0.000035052716    0.014554191531    0.019456825792    -0.000047095012    0.000038254043    0.028406522145    0.026109653260
            -0.003379437152    -0.037381429241    -0.000047095012    0.000038254043    -0.021771075667    -0.058947711591    -0.000042856783    0.000034865380
            -0.000039081319    0.000032238935    0.028406522145    0.026109653260    -0.000042856783    0.000034865380    0.014886795061    0.020070858259
0.225     -0.045068558966    -0.040213187867    -0.000035506624    0.000050729121    -0.023577313639    -0.028690145489    -0.000032671385    0.000046709545
            -0.000035506624    0.000050729121    0.012852686189    0.034253300709    -0.000039594889    0.000055543301    0.026354492148    0.032400311610
            -0.023577313639    -0.028690145489    -0.000039594889    0.000055543301    -0.045527490999    -0.041062770926    -0.000036035892    0.000050674359
            -0.000032671385    0.000046709545    0.026354492148    0.032400311610    -0.000036035892    0.000050674359    0.013341059489    0.034690406758
0.250     -0.058891613704    -0.011906799817    -0.000022390017    0.000064687977    -0.038347579569    -0.009909975402    -0.000020568895    0.000059626111
            -0.000022390017    0.000064687977    0.017547099377    0.050464033177    -0.000025363444    0.000071035469    0.027371482126    0.041562580081
            -0.038347579569    -0.009909975402    -0.000025363444    0.000071035469    -0.059582402227    -0.012708971615    -0.000023010618    0.000064871798
            -0.000020568895    0.000059626111    0.027371482126    0.041562580081    -0.000023010618    0.000064871798    0.018055322350    0.050671639456
0.275     -0.058437640189    0.021223371572    -0.000003851873    0.000074280338    -0.042877655756    0.015349088538    -0.000003401791    0.000068497317
            -0.000003851873    0.000074280338    0.028931022043    0.064747255278    -0.000005128715    0.000081824918    0.032882285858    0.051552600818
            -0.042877655756    0.015349088538    -0.000005128715    0.000081824918    -0.059332744028    0.020588434123    -0.000004422724    0.000074742097
            -0.000003401791    0.000068497317    0.032882285858    0.051552600818    -0.000004422724    0.000074742097    0.029310245540    0.064761566673
0.300     -0.042375391186    0.051801786335    0.000018089058    0.000077395783    -0.034701530249    0.041366478351    0.000016938655    0.000071321501
            0.000018089058    0.000077395783    0.045487341828    0.073997460903    0.000018938342    0.000085571238    0.042975524529    0.059852191285
            -0.034701530249    0.041366478351    0.000018938342    0.000085571238    -0.043383160323    0.051444398111    0.000017707817    0.000078078689
            0.000016938655    0.000071321501    0.042975524529    0.059852191285    0.000017707817    0.000078078689    0.045630490855    0.073938415810
0.325     -0.013155489960    0.072469645465    0.000040635508    0.000073148398    -0.014474752991    0.061765257318    0.000037810359    0.000067259349
            0.000040635508    0.000073148398    0.064281302882    0.076276616570    0.000043795240    0.000081255370    0.056382647196    0.064261706682
            -0.014474752991    0.061765257318    0.000043795240    0.000081255370    -0.014126286737    0.072455144750    0.000040515066    0.000073924055
            0.000037810359    0.000067259349    0.056382647196    0.064261706682    0.000040515066    0.000073924055    0.064164670629    0.076311885631
0.350     0.023423760563    0.077758345896    0.000061062524    0.000062074717    0.014089570491    0.071135655806    0.000056629217    0.000056835332
            0.000061062524    0.000062074717    0.081794645277    0.071385935611    0.000066448626    0.000069413727    0.070888020437    0.063547978247
            0.014089570491    0.071135655806    0.000066448626    0.000069413727    0.022673951374    0.078079455018    0.000061178122    0.000062807040
            0.000056629217    0.000056835332    0.070888020437    0.063547978247    0.000061178122    0.000062807040    0.081492422330    0.071677557175
0.375     0.059513879319    0.065467507770    0.000077459695    0.000045709938    0.045051102058    0.066362487444    0.000071598063    0.000041537809
            0.000077459695    0.000045709938    0.094876905872    0.060875124844    0.000084777190    0.000051691793    0.083945346117    0.057745432370
            0.045051102058    0.066362487444    0.000084777190    0.000051691793    0.059166750412    0.066027921688    0.000077707651    0.000046329266
            0.000071598063    0.000041537809    0.083945346117    0.057745432370    0.000077707651    0.000046329266    0.094545964929    0.061527870495
0.400     0.086957174477    0.037267057764    0.000089006527    0.000025866003    0.071546171021    0.047403625103    0.000081977465    0.000023127030
            0.000089006527    0.000025866003    0.101539943246    0.047626353552    0.000097846865    0.000030062282    0.093337657144    0.048149456828
            0.071546171021    0.047403625103    0.000097846865    0.000030062282    0.087150332055    0.037884694394    0.000089277500    0.000026406142
            0.000081977465    0.000023127030    0.093337657144    0.048149456828    0.000089277500    0.000026406142    0.101380376460    0.048650152636
0.425     0.099072128832    -0.001554398561    0.000095702722    0.000003941017    0.087254822661    0.017405185511    0.000087843641    0.000002953530
            0.000095702722    0.000003941017    0.101431870466    0.035129295376    0.000105638256    0.000006061038    0.097732067575    0.037015787948
            0.087254822661    0.017405185511    0.000105638256    0.000006061038    0.099859952553    -0.001126742820    0.000095966743    0.000004519751
            0.000087843641    0.000002953530    0.097732067575    0.037015787948    0.000095966743    0.000004519751    0.101632615759    0.036426351493
0.450     0.092156118535    -0.043064179441    0.000097756788    -0.000019380943    0.087797590928    -0.017790558046    0.000089490461    -0.000018357041
            0.000097756788    -0.000019380943    0.095960561943    0.026654367638    0.000108378688    -0.000019562243    0.097090883271    0.027054951025
            0.087797590928    -0.017790558046    0.000108378688    -0.000019562243    0.093481027054    -0.043101668540    0.000098111445    -0.000018643060
            0.000089490461    -0.000018357041    0.097090883271    0.027054951025    0.000098111445    -0.000018643060    0.096643552137    0.028035621559
0.475     0.066453804783    -0.078228478722    0.000094897178    -0.000043906983    0.071832410339    -0.050704678640    0.000086745300    -0.000040693414
            0.000094897178    -0.000043906983    0.088030859823    0.024411541243    0.000105778296    -0.000046619380    0.092809397657    0.020720931549
            0.071832410339    -0.050704678640    0.000105778296    -0.000046619380    0.068132141717    -0.078986207788    0.000095548972    -0.000042999357
            0.000086745300    -0.000040693414    0.092809397657    0.020720931549    0.000095548972    -0.000042999357    0.089209792329    0.025639961282
0.500     0.026415564291    -0.098808376196    0.000086058043    -0.000069231411    0.041658339391    -0.073749732764    0.000078637896    -0.000063791274
            0.000086058043    -0.000069231411    0.081400950184    0.028869969397    0.000096662872    -0.000074721095    0.087484561343    0.019444471881
            0.041658339391    -0.073749732764    0.000096662872    -0.000074721095    0.028135169768    -0.100468360414    0.000087227271    -0.000068322512
            0.000078637896    -0.000063791274    0.087484561343    0.019444471881    0.000087227271    -0.000068322512    0.082967172709    0.029721117075
0.525     -0.019937916351    -0.099320606119    0.000069746360    -0.000093863941    0.003052485323    -0.081007492259    0.000063725136    -0.000086360103
            0.000069746360    -0.000093863941    0.079669443118    0.038434213271    0.000079322210    -0.000102310361    0.084201600730    0.023023934136
            0.003052485323    -0.081007492259    0.000079322210    -0.000102310361    -0.018615545472    -0.101910205884    0.000071502365    -0.000093302545
            0.000063725136    -0.000086360103    0.084201600730    0.023023934136    0.000071502365    -0.000093302545    0.081409315567    0.038752165361
0.550     -0.062675510233    -0.078656592896    0.000045092947    -0.000114905750    -0.035850192847    -0.069887542373    0.000041097214    -0.000105738769
            0.000045092947    -0.000114905750    0.085149450925    0.049741992037    0.000052633962    -0.000126217371    0.085514648769    0.029545571497
            -0.035850192847    -0.069887542373    0.000052633962    -0.000126217371    -0.062211591421    -0.081890028898    0.000047222500    -0.000115052723
            0.000041097214    -0.000105738769    0.085514648769    0.029545571497    0.000047222500    -0.000115052723    0.086766434246    0.049487727932
0.575     -0.092426891461    -0.040485711010    0.000012885606    -0.000128655807    -0.066507503614    -0.041907482081    0.000011406382    -0.000118444833
            0.000012885606    -0.000128655807    0.098023422348    0.058609841229    0.000017347249    -0.000142233653    0.092535025787    0.035975916024
            -0.066507503614    -0.041907482081    0.000017347249    -0.000142233653    -0.092977916767    -0.043829988514    0.000014976862    -0.000129648058
            0.000011406382    -0.000118444833    0.092535025787    0.035975916024    0.000014976862    -0.000129648058    0.099216126844    0.057941095631
0.600     -0.102394822540    0.007630059257    -0.000023960958    -0.000131777903    -0.081899781139    -0.002418754019    -0.000022674737    -0.000121295911
            -0.000023960958    -0.000131777903    0.116217360639    0.061347186152    -0.000023322160    -0.000146601392    0.104594386039    0.039134938166
            -0.081899781139    -0.002418754019    -0.000023322160    -0.000146601392    -0.103842818045    0.004603097726    -0.000022307662    -0.000133522206
            -0.000022674737    -0.000121295911    0.104594386039    0.039134938166    -0.000022307662    -0.000133522206    0.116842000027    0.060572876148
0.625     -0.089961927566    0.055643533923    -0.000060857503    -0.000122749272    -0.078239397823    0.040443238261    -0.000056837486    -0.000112792206
            -0.000060857503    -0.000122749272    0.136050770149    0.055889410870    -0.000064365696    -0.000137572400    0.119448089957    0.036671872574
            -0.078239397823    0.040443238261    -0.000064365696    -0.000137572400    -0.092097876047    0.053262722331    -0.000059952070    -0.000124965249
            -0.000056837486    -0.000112792206    0.119448089957    0.036671872574    -0.000059952070    -0.000124965249    0.136150914253    0.055327969273
0.650     -0.057512935493    0.093416297092    -0.000093055830    -0.000102582558    -0.055956709057    0.077729973906    -0.000086571258    -0.000093858799
            -0.000093055830    -0.000102582558    0.153380130547    0.042313574084    -0.000100545146    -0.000116124247    0.134032082324    0.027721229841
            -0.055956709057    0.077729973906    -0.000100545146    -0.000116124247    -0.060013580783    0.091931314891    -0.000093001821    -0.000104869673
            -0.000086571258    -0.000093858799    0.134032082324    0.027721229841    -0.000093001821    -0.000104869673    0.153146126520    0.042214656951
0.675     -0.011744044886    0.113107145641    -0.000117105077    -0.000074310232    -0.019436464284    0.101747392399    -0.000108581799    -0.000067376078
            -0.000117105077    -0.000074310232    0.164703685335    0.022660924296    -0.000127964469    -0.000085477476    0.145302997132    0.012989094348
            -0.019436464284    0.101747392399    -0.000127964469    -0.000085477476    -0.014183891068    0.112622238815    -0.000117762069    -0.000076290130
            -0.000108581799    -0.000067376078    0.145302997132    0.012989094348    -0.000117762069    -0.000076290130    0.164423005530    0.023152548972
0.700     0.037983911235    0.110760846123    -0.000131590790    -0.000041795591    0.024088948463    0.107600265455    -0.000121528712    -0.000037052171
            -0.000131590790    -0.000041795591    0.167939632986    0.000305030133    -0.000144929820    -0.000049845457    0.150919826674    -0.005520495244
            0.024088948463    0.107600265455    -0.000144929820    -0.000049845457    0.036058987037    0.111186854411    -0.000132643361    -0.000043269504
            -0.000121528712    -0.000037052171    0.150919826674    -0.005520495244    -0.000132643361    -0.000043269504    0.167932623583    0.001363642406
0.725     0.081658532968    0.086914198381    -0.000137002157    -0.000008496037    0.066068989489    0.093996235961    -0.000125926154    -0.000006217860
            -0.000137002157    -0.000008496037    0.162772579918    -0.020844532960    -0.000151860420    -0.000013070081    0.149665913899    -0.024946941406
            0.066068989489    0.093996235961    -0.000151860420    -0.000013070081    0.080641346398    0.087966617241    -0.000138114336    -0.000009505493
            -0.000125926154    -0.000006217860    0.149665913899    -0.024946941406    -0.000138114336    -0.000009505493    0.163319876000    -0.019396376492
0.750     0.110554122290    0.046323529114    -0.000135006364    0.000023397234    0.098235926759    0.063387505121    -0.000123452869    0.000023015877
            -0.000135006364    0.000023397234    0.150687351129    -0.037132250495    -0.000150531219    0.000022357874    0.141738237151    -0.042091864422
            0.098235926759    0.063387505121    -0.000150531219    0.000022357874    0.110692505955    0.047560837619    -0.000135987062    0.000022612477
            -0.000123452869    0.000023015877    0.141738237151    -0.042091864422    -0.000135987062    0.000022612477    0.151962695015    -0.035595438598
0.775     0.118815353846    -0.002996364664    -0.000127395824    0.000053231271    0.114070802232    0.021521346740    -0.000115939261    0.000050064621
            -0.000127395824    0.000053231271    0.134736789476    -0.045894880841    -0.000142918997    0.000055651512    0.128847339149    -0.054051214901
            0.114070802232    0.021521346740    -0.000142918997    0.000055651512    0.120150646687    -0.002101873388    -0.000128303398    0.000052380494
            -0.000115939261    0.000050064621    0.128847339149    -0.054051214901    -0.000128303398    0.000052380494    0.136751973407    -0.044637556519
