# GHz S RI R 45
0.000     0.028069504416    0.001148896933    -0.000000008549    -0.000000082978    0.000935544538    0.001223058444    0.000000009967    -0.000000051551
            -0.000000008548    -0.000000082978    0.027190425362    0.001609757529    -0.000000005967    -0.000000082277    0.000858712201    0.001640696645
            0.000935544538    0.001223058444    -0.000000005967    -0.000000082277    0.028083942141    0.001160976522    0.000000014593    -0.000000048490
            0.000000009967    -0.000000051551    0.000858712391    0.001640696659    0.000000014593    -0.000000048490    0.027119349964    0.001621743315
0.025     0.033958447194    0.007090989314    -0.000000027790    -0.000000189303    0.003568521546    0.011631880442    0.000000005773    -0.000000120411
            -0.000000027790    -0.000000189303    0.032686571300    0.007733904387    -0.000000023976    -0.000000187372    0.003229490077    0.011899367786
            0.003568443315    0.011630222465    -0.000000023976    -0.000000187372    0.033861462664    0.007042186905    0.000000012822    -0.000000113076
            0.000000005773    -0.000000120411    0.003229744793    0.011898792997    0.000000012822    -0.000000113076    0.032591803412    0.007689821863
0.050     0.039419684607    0.007089455656    -0.000000070074    -0.000000354819    0.010670948340    0.020233624287    -0.000000012916    -0.000000234869
            -0.000000070074    -0.000000354819    0.037637735222    0.008838930767    -0.000000064789    -0.000000352311    0.009622369901    0.021246921232
            0.010671004163    0.020233588063    -0.000000064789    -0.000000352311    0.039225277005    0.007074445026    -0.000000002562    -0.000000223016
            -0.000000012916    -0.000000234869    0.009622467406    0.021246915495    -0.000000002562    -0.000000223016    0.037437737075    0.008805901787
0.075     0.042614360588    0.003475064529    -0.000000119236    -0.000000509433    0.019506516615    0.023965904579    -0.000000036322    -0.000000343501
            -0.000000119236    -0.000000509433    0.040526152677    0.007098022538    -0.000000112449    -0.000000506474    0.017853150340    0.026587318472
            0.019506523756    0.023965909081    -0.000000112449    -0.000000506474    0.042328511838    0.003562346559    -0.000000022438    -0.000000327631
            -0.000000036322    -0.000000343501    0.017853146071    0.026587320134    -0.000000022438    -0.000000327631    0.040226837355    0.007165040538
0.100     0.041638503681    -0.002075862397    -0.000000173594    -0.000000661399    0.027012959961    0.022969987413    -0.000000060921    -0.000000451465
            -0.000000173594    -0.000000661399    0.040109935812    0.004043060365    -0.000000164784    -0.000000658068    0.025537159388    0.027925518445
            0.027012959961    0.022969987413    -0.000000164784    -0.000000658068    0.041315501098    -0.001818697094    -0.000000042659    -0.000000431877
            -0.000000060921    -0.000000451465    0.025537133931    0.027925526818    -0.000000042659    -0.000000431877    0.039766608737    0.004282284632
0.125     0.035514032810    -0.006703225589    -0.000000235756    -0.000000818477    0.030805817587    0.019023511691    -0.000000087013    -0.000000565517
            -0.000000235756    -0.000000818477    0.035804851275    0.001907665180    -0.000000224295    -0.000000815139    0.030781123609    0.026479325977
            0.030805816736    0.019023511165    -0.000000224295    -0.000000815139    0.035249479890    -0.006257891748    -0.000000063188    -0.000000542947
            -0.000000087013    -0.000000565517    0.030781123609    0.026479325977    -0.000000063188    -0.000000542947    0.035520767383    0.002349095154
0.150     0.025227037479    -0.007372397599    -0.000000313013    -0.000000985669    0.029831171977    0.014966141636    -0.000000119873    -0.000000691707
            -0.000000313013    -0.000000985669    0.028743102440    0.002928955299    -0.000000298038    -0.000000983177    0.032573298655    0.024271225922
            0.029831171977    0.014966141636    -0.000000298038    -0.000000983177    0.025116152741    -0.006767331277    -0.000000089284    -0.000000667210
            -0.000000119873    -0.000000691707    0.032573298655    0.024271225922    -0.000000089284    -0.000000667210    0.028615385519    0.003536216892
0.175     0.013256826037    -0.001735455426    -0.000000417590    -0.000001163537    0.024882225940    0.013826026549    -0.000000169334    -0.000000833042
            -0.000000417590    -0.000001163537    0.020767499293    0.008636697006    -0.000000398599    -0.000001163198    0.031253870614    0.023575980435
            0.024882225940    0.013826026549    -0.000000398599    -0.000001163198    0.013365528706    -0.001066703920    -0.000000131001    -0.000000808291
            -0.000000169334    -0.000000833042    0.031253870614    0.023575980435    -0.000000131001    -0.000000808291    0.020868060864    0.009312537802
0.200     0.003295459921    0.010966299922    -0.000000562576    -0.000001343665    0.018425429850    0.017719247469    -0.000000247753    -0.000000985453
            -0.000000562576    -0.000001343665    0.014554191531    0.019456825792    -0.000000539669    -0.000001347071    0.028406522145    0.026109653260
            0.018425429850    0.017719247469    -0.000000539669    -0.000001347071    0.003619015446    0.011572538129    -0.000000201335    -0.000000962549
            -0.000000247753    -0.000000985453    0.028406522145    0.026109653260    -0.000000201335    -0.000000962549    0.014886795061    0.020070858259
0.225     -0.000803277036    0.029276250981    -0.000000755867    -0.000001508284    0.013822984279    0.026987679440    -0.000000365321    -0.000001136646
            -0.000000755867    -0.000001508284    0.012852686189    0.034253300709    -0.000000729908    -0.000001517021    0.026354492148    0.032400311610
            0.013822983807    0.026987679681    -0.000000729908    -0.000001517021    -0.000347454211    0.029714808685    -0.000000311340    -0.000001117794
            -0.000000365321    -0.000001136646    0.026354492148    0.032400311610    -0.000000311340    -0.000001117794    0.013341059489    0.034690406758
0.250     0.003624900206    0.049679737466    -0.000000993154    -0.000001634247    0.014148930441    0.039950186034    -0.000000523468    -0.000001267090
            -0.000000993154    -0.000001634246    0.017547099377    0.050464033177    -0.000000965739    -0.000001649406    0.027371482126    0.041562580081
            0.014148930441    0.039950186034    -0.000000965739    -0.000001649406    0.004077067295    0.049912763534    -0.000000463321    -0.000001254030
            -0.000000523468    -0.000001267090    0.027371482126    0.041562580081    -0.000000463321    -0.000001254030    0.018055322350    0.050671639456
0.275     0.016993732385    0.067542664689    -0.000001255652    -0.000001702468    0.021051251310    0.053402389928    -0.000000710897    -0.000001357835
            -0.000001255652    -0.000001702468    0.028931022043    0.064747255278    -0.000001228730    -0.000001724266    0.032882285858    0.051552600818
            0.021051251310    0.053402389928    -0.000001228730    -0.000001724266    0.017302492847    0.067622044781    -0.000000646444    -0.000001351427
            -0.000000710897    -0.000001357835    0.032882285858    0.051552600818    -0.000000646444    -0.000001351427    0.029310245540    0.064761566673
0.300     0.037151723732    0.078576223353    -0.000001513956    -0.000001707316    0.034148356564    0.063704673277    -0.000000904688    -0.000001398861
            -0.000001513956    -0.000001707316    0.045487341828    0.073997460903    -0.000001489234    -0.000001734977    0.042975524529    0.059852191285
            0.034148356564    0.063704673277    -0.000001489234    -0.000001734977    0.037228711002    0.078631979990    -0.000000837662    -0.000001398926
            -0.000000904688    -0.000001398861    0.042975524529    0.059852191285    -0.000000837662    -0.000001398926    0.045630490855    0.073938415810
0.325     0.059972800971    0.080169753887    -0.000001739397    -0.000001661767    0.051160154722    0.067952765323    -0.000001079340    -0.000001396237
            -0.000001739397    -0.000001661767    0.064281302882    0.076276616570    -0.000001717827    -0.000001693896    0.056382647196    0.064261706682
            0.051160154722    0.067952765323    -0.000001717827    -0.000001693896    0.059818045267    0.080368801519    -0.000001010771    -0.000001401909
            -0.000001079340    -0.000001396237    0.056382647196    0.064261706682    -0.000001010771    -0.000001401909    0.064164670629    0.076311885631
0.350     0.080550813749    0.072161346888    -0.000001914705    -0.000001593521    0.068625847694    0.064826492973    -0.000001216465    -0.000001370084
            -0.000001914705    -0.000001593521    0.081794645277    0.071385935611    -0.000001896261    -0.000001628611    0.070888020437    0.063547978247
            0.068625847694    0.064826492973    -0.000001896261    -0.000001628611    0.080261274180    0.072652902491    -0.000001146453    -0.000001380317
            -0.000001216465    -0.000001370084    0.070888020437    0.063547978247    -0.000001146453    -0.000001380317    0.081492422330    0.071677557175
0.375     0.094522963409    0.056831666587    -0.000002041140    -0.000001535742    0.082848267273    0.054905548024    -0.000001312716    -0.000001347983
            -0.000002041140    -0.000001535742    0.094876905872    0.060875124844    -0.000002024979    -0.000001572734    0.083945346117    0.057745432370
            0.082848267273    0.054905548024    -0.000002024979    -0.000001572734    0.094270158824    0.057696041479    -0.000001240526    -0.000001362132
            -0.000001312716    -0.000001347983    0.083945346117    0.057745432370    -0.000001240526    -0.000001362132    0.094545964929    0.061527870495
0.400     0.099152407510    0.038326292003    -0.000002137046    -0.000001516342    0.090817678434    0.040553099397    -0.000001379368    -0.000001355078
            -0.000002137046    -0.000001516342    0.101539943246    0.047626353552    -0.000002121836    -0.000001554955    0.093337657144    0.048149456828
            0.090817678434    0.040553099397    -0.000002121836    -0.000001554955    0.099137987971    0.039543530756    -0.000001303781    -0.000001373252
            -0.000001379368    -0.000001355078    0.093337657144    0.048149456828    -0.000001303781    -0.000001373252    0.101380376460    0.048650152636
0.425     0.094010884550    0.021696048610    -0.000002233608    -0.000001550925    0.090985185741    0.025436353678    -0.000001439710    -0.000001408273
            -0.000002233608    -0.000001550925    0.101431870466    0.035129295376    -0.000002217991    -0.000001591810    0.097732067575    0.037015787948
            0.090985185741    0.025436353678    -0.000002217991    -0.000001591810    0.094409922606    0.023139091766    -0.000001359428    -0.000001431512
            -0.000001439710    -0.000001408273    0.097732067575    0.037015787948    -0.000001359428    -0.000001431512    0.101632615759    0.036426351493
0.450     0.081235424482    0.011749450375    -0.000002367569    -0.000001638716    0.083841455607    0.013744433639    -0.000001523155    -0.000001512332
            -0.000002367569    -0.000001638716    0.095960561943    0.026654367638    -0.000002350550    -0.000001683415    0.097090883271    0.027054951025
            0.083841455607    0.013744433639    -0.000002350550    -0.000001683415    0.082141846731    0.013208260956    -0.000001437274    -0.000001542600
            -0.000001523155    -0.000001512332    0.097090883271    0.027054951025    -0.000001437274    -0.000001542600    0.096643552137    0.028035621559
0.475     0.065269033957    0.011782930763    -0.000002575599    -0.000001760401    0.072114479692    0.009069720817    -0.000001662427    -0.000001658210
            -0.000002575599    -0.000001760401    0.088030859823    0.024411541243    -0.000002557022    -0.000001811189    0.092809397657    0.020720931549
            0.072114479692    0.009069720817    -0.000002557022    -0.000001811189    0.066658895806    0.013016284008    -0.000001570899    -0.000001698270
            -0.000001662427    -0.000001658210    0.092809397657    0.020720931549    -0.000001570899    -0.000001698270    0.089209792329    0.025639961282
0.500     0.051945774460    0.022421096791    -0.000002884788    -0.000001876093    0.060324478286    0.013148538876    -0.000001886845    -0.000001818815
            -0.000002884788    -0.000001876093    0.081400950184    0.028869969397    -0.000002865707    -0.000001935571    0.087484561343    0.019444471881
            0.060324478286    0.013148538876    -0.000002865707    -0.000001935571    0.053674450289    0.023221557939    -0.000001790910    -0.000001871754
            -0.000001886845    -0.000001818815    0.087484561343    0.019444471881    -0.000001790910    -0.000001871754    0.082967172709    0.029721117075
0.525     0.046862536259    0.040995240770    -0.000003300747    -0.000001928559    0.053499265402    0.024910686267    -0.000002212811    -0.000001948280
            -0.000003300747    -0.000001928559    0.079669443118    0.038434213271    -0.000003283695    -0.000001998962    0.084201600730    0.023023934136
            0.053499265402    0.024910686267    -0.000003283695    -0.000001998962    0.048694184430    0.041236780067    -0.000002115258    -0.000002016828
            -0.000002212811    -0.000001948280    0.084201600730    0.023023934136    -0.000002115258    -0.000002016828    0.081409315567    0.038752165361
0.550     0.053460921647    0.062025863245    -0.000003793261    -0.000001856901    0.055366864094    0.040530511422    -0.000002627254    -0.000001989384
            -0.000003793261    -0.000001856901    0.085149450925    0.049741992037    -0.000003781905    -0.000001939377    0.085514648769    0.029545571497
            0.055366864094    0.040530511422    -0.000003781905    -0.000001939377    0.055080137336    0.061703044172    -0.000002532047    -0.000002075080
            -0.000002627254    -0.000001989384    0.085514648769    0.029545571497    -0.000002532047    -0.000002075080    0.086766434246    0.049487727932
0.575     0.071667296961    0.078895620282    -0.000004295713    -0.000001621641    0.066928905276    0.054712171063    -0.000003081586    -0.000001895530
            -0.000004295713    -0.000001621641    0.098023422348    0.058609841229    -0.000004294568    -0.000001715553    0.092535025787    0.035975916024
            0.066928905276    0.054712171063    -0.000004294568    -0.000001715553    0.072764739214    0.078232814135    -0.000002993439    -0.000001998176
            -0.000003081586    -0.000001895530    0.092535025787    0.035975916024    -0.000002993439    -0.000001998176    0.099216126844    0.057941095631
0.600     0.097870693265    0.086064197077    -0.000004722255    -0.000001227984    0.086210971426    0.062490584677    -0.000003500969    -0.000001654972
            -0.000004722255    -0.000001227984    0.116217360639    0.061347186152    -0.000004735276    -0.000001330336    0.104594386039    0.039134938166
            0.086210971426    0.062490584677    -0.000004735276    -0.000001330336    0.098361138815    0.085439609342    -0.000003424097    -0.000001772152
            -0.000003500969    -0.000001654972    0.104594386039    0.039134938166    -0.000003424097    -0.000001772152    0.116842000027    0.060572876148
0.625     0.126215043314    0.080764325619    -0.000005001926    -0.000000731944    0.109012906738    0.060740054501    -0.000003814322    -0.000001303827
            -0.000005001926    -0.000000731944    0.136050770149    0.055889410870    -0.000005031072    -0.000000838130    0.119448089957    0.036671872574
            0.109012906738    0.060740054501    -0.000005031072    -0.000000838130    0.126236569896    0.080506572057    -0.000003751188    -0.000001431564
            -0.000003814322    -0.000001303827    0.119448089957    0.036671872574    -0.000003751188    -0.000001431564    0.136150914253    0.055327969273
0.650     0.150478818706    0.063527713446    -0.000005106602    -0.000000221084    0.130338420982    0.048888285530    -0.000003983106    -0.000000913659
            -0.000005106602    -0.000000221084    0.153380130547    0.042313574084    -0.000005151375    -0.000000326413    0.134032082324    0.027721229841
            0.130338420982    0.048888285530    -0.000005151375    -0.000000326413    0.150301102213    0.063841423048    -0.000003933889    -0.000001047786
            -0.000003983106    -0.000000913659    0.134032082324    0.027721229841    -0.000003933889    -0.000001047786    0.153146126520    0.042214656951
0.675     0.165642458519    0.037665435254    -0.000005060437    0.000000217803    0.145678224095    0.028702177845    -0.000004015878    -0.000000563322
            -0.000005060437    0.000000217803    0.164703685335    0.022660924296    -0.000005118445    0.000000116866    0.145302997132    0.012989094348
            0.145678224095    0.028702177845    -0.000005118445    0.000000116866    0.165596855027    0.038601501704    -0.000003978970    -0.000000700659
            -0.000004015878    -0.000000563322    0.145302997132    0.012989094348    -0.000003978970    -0.000000700659    0.164423005530    0.023152548972
0.700     0.168824392606    0.008259824111    -0.000004926237    0.000000525096    0.151835639072    0.003690381104    -0.000003958887    -0.000000312652
            -0.000004926237    0.000000525096    0.167939632986    0.000305030133    -0.000004994061    0.000000430272    0.150919826674    -0.005520495244
            0.151835639072    0.003690381104    -0.000004994061    0.000000430272    0.169232855987    0.009708423029    -0.000003931687    -0.000000451643
            -0.000003958887    -0.000000312652    0.150919826674    -0.005520495244    -0.000003931687    -0.000000451643    0.167932623583    0.001363642406
0.725     0.159653729868    -0.018890130000    -0.000004784832    0.000000680724    0.147393167761    -0.021552735514    -0.000003879024    -0.000000188737
            -0.000004784832    0.000000680724    0.162772579918    -0.020844532960    -0.000004859098    0.000000591869    0.149665913899    -0.024946941406
            0.147393167761    -0.021552735514    -0.000004859098    0.000000591869    0.160759851606    -0.017185202467    -0.000003858944    -0.000000329587
            -0.000003879024    -0.000000188737    0.149665913899    -0.024946941406    -0.000003858944    -0.000000329587    0.163319876000    -0.019396376492
0.750     0.140359462837    -0.038265760568    -0.000004714346    0.000000702474    0.133087147086    -0.042029841181    -0.000003844242    -0.000000186074
            -0.000004714346    0.000000702474    0.150687351129    -0.037132250495    -0.000004792442    0.000000617796    0.141738237151    -0.042091864422
            0.133087147086    -0.042029841181    -0.000004792442    0.000000617796    0.142266014951    -0.036662229575    -0.000003829413    -0.000000330491
            -0.000003844242    -0.000000186074    0.141738237151    -0.042091864422    -0.000003829413    -0.000000330491    0.151962695015    -0.035595438598
0.775     0.115632313824    -0.045678578724    -0.000004778764    0.000000639208    0.112055628508    -0.053271115127    -0.000003914249    -0.000000272417
            -0.000004778764    0.000000639208    0.134736789476    -0.045894880841    -0.000004859455    0.000000555851    0.128847339149    -0.054051214901
            0.112055628508    -0.053271115127    -0.000004859455    0.000000555851    0.118255365601    -0.044565334287    -0.000003904136    -0.000000423107
