# GHz S RI R 45
0.000     0.027351233937    0.001159045934    0.000000283653    0.000000346682    0.000823957689    0.001228736802    0.000000414991    0.000000556121
            0.000000283632    0.000000346683    0.027190425362    0.001609757529    0.000000412659    0.000000540318    0.000858712201    0.001640696645
            0.000823957547    0.001228736777    0.000000412673    0.000000540318    0.027357729366    0.001171673116    0.000000585133    0.000000815011
            0.000000415039    0.000000556120    0.000858712391    0.001640696659    0.000000585127    0.000000815011    0.027119349964    0.001621743315
0.025     0.032963366396    0.006939525081    0.000000489868    0.000000755455    0.003239779997    0.011242950438    0.000000715854    0.000001214804
            0.000000489870    0.000000755457    0.032686571300    0.007733904387    0.000000714898    0.000001183342    0.003229490077    0.011899367786
            0.003236541999    0.011243187873    0.000000714893    0.000001183343    0.032904404444    0.006998300462    0.000001006567    0.000001785841
            0.000000715855    0.000001214803    0.003229744793    0.011898792997    0.000001006565    0.000001785841    0.032591803412    0.007689821863
0.050     0.037999607622    0.007143348953    0.000000832587    0.000001255575    0.009710696830    0.019815956011    0.000001217229    0.000002061024
            0.000000832587    0.000001255575    0.037637735222    0.008838930767    0.000001216396    0.000001994043    0.009622369901    0.021246921232
            0.009710741982    0.019815911612    0.000001216396    0.000001994043    0.037931092646    0.007290581395    0.000001710476    0.000003056151
            0.000001217229    0.000002061024    0.009622467406    0.021246915495    0.000001710476    0.000003056151    0.037437737075    0.008805901787
0.075     0.040873283302    0.004194287355    0.000001179417    0.000001643119    0.017923320821    0.024132269003    0.000001736241    0.000002756282
            0.000001179417    0.000001643119    0.040526152677    0.007098022538    0.000001729259    0.000002646393    0.017853150340    0.026587318472
            0.017923325104    0.024132263330    0.000001729259    0.000002646393    0.040832867086    0.004448183944    0.000002445992    0.000004122671
            0.000001736241    0.000002756282    0.017853146071    0.026587320134    0.000002445992    0.000004122671    0.040226837355    0.007165040538
0.100     0.040056266976    -0.000362476489    0.000001532847    0.000001980717    0.025280767300    0.024230529218    0.000002286748    0.000003385374
            0.000001532847    0.000001980717    0.040109935812    0.004043060365    0.000002261258    0.000003228397    0.025537159388    0.027925518445
            0.025280767300    0.024230529218    0.000002261258    0.000003228397    0.040089082947    -0.000002061548    0.000003239177    0.000005099204
            0.000002286748    0.000003385375    0.025537133931    0.027925526818    0.000003239177    0.000005099204    0.039766608737    0.004282284632
0.125     0.034780980893    -0.004056220793    0.000001911483    0.000002303750    0.029716896022    0.021488158167    0.000002898662    0.000003988403
            0.000001911483    0.000002303750    0.035804851275    0.001907665180    0.000002838935    0.000003786234    0.030781123609    0.026479325977
            0.029716896022    0.021488158167    0.000002838935    0.000003786234    0.034937234862    -0.003620424787    0.000004130818    0.000006033152
            0.000002898662    0.000003988403    0.030781123609    0.026479325977    0.000004130818    0.000006033152    0.035520767383    0.002349095154
0.150     0.025977096028    -0.004328380043    0.000002352286    0.000002637216    0.030184843815    0.018188424641    0.000003620450    0.000004591000
            0.000002352286    0.000002637216    0.028743102440    0.002928955299    0.000003511515    0.000004352701    0.032573298655    0.024271225922
            0.030184843815    0.018188424641    0.000003511515    0.000004352701    0.026292959813    -0.003869766912    0.000005183226    0.000006953510
            0.000003620450    0.000004591000    0.032573298655    0.024271225922    0.000005183226    0.000006953510    0.028615385519    0.003536216892
0.175     0.015717044035    0.000764186067    0.000002912967    0.000002965789    0.027120043049    0.016863384617    0.000004524420    0.000005165128
            0.000002912967    0.000002965789    0.020767499293    0.008636697006    0.000004355198    0.000004906828    0.031253870614    0.023575980435
            0.027120042755    0.016863385091    0.000004355198    0.000004906828    0.016195315727    0.001161783861    0.000006484514    0.000007820900
            0.000004524420    0.000005165128    0.031253870614    0.023575980435    0.000006484514    0.000007820900    0.020868060864    0.009312537802
0.200     0.007064160814    0.011892051453    0.000003640403    0.000003230542    0.022347932165    0.019419196114    0.000005664166    0.000005628798
            0.000003640403    0.000003230542    0.014554191531    0.019456825792    0.000005431661    0.000005371497    0.028406522145    0.026109653260
            0.022347932165    0.019419196114    0.000005431661    0.000005371497    0.007654581109    0.012146234368    0.000008097741    0.000008531820
            0.000005664166    0.000005628798    0.028406522145    0.026109653260    0.000008097741    0.000008531820    0.014886795061    0.020070858259
0.225     0.003251301587    0.027931048547    0.000004539194    0.000003332657    0.018527680845    0.026422321298    0.000007035835    0.000005852871
            0.000004539194    0.000003332657    0.012852686189    0.034253300709    0.000006748017    0.000005617528    0.026354492148    0.032400311610
            0.018527680384    0.026422321621    0.000006748017    0.000005617528    0.003858299968    0.027995059817    0.000010015206    0.000008925798
            0.000007035835    0.000005852871    0.026354492148    0.032400311610    0.000010015206    0.000008925798    0.013341059489    0.034690406758
0.250     0.006606574795    0.046057797807    0.000005544280    0.000003170683    0.018257406094    0.036829435976    0.000008547737    0.000005711950
            0.000005544280    0.000003170683    0.017547099377    0.050464033177    0.000008222895    0.000005512371    0.027371482126    0.041562580081
            0.018257406094    0.036829435976    0.000008222895    0.000005512371    0.007114703359    0.045944545777    0.000012122855    0.000008848791
            0.000008547737    0.000005711950    0.027371482126    0.041562580081    0.000012122855    0.000008848791    0.018055322350    0.050671639456
0.275     0.017679681187    0.062448094828    0.000006524390    0.000002690133    0.023161022626    0.048276635347    0.000010029309    0.000005143393
            0.000006524390    0.000002690133    0.028931022043    0.064747255278    0.000009690332    0.000004980412    0.032882285858    0.051552600818
            0.023161022626    0.048276635347    0.000009690332    0.000004980412    0.017990297206    0.062235546579    0.000014211712    0.000008222039
            0.000010029309    0.000005143393    0.032882285858    0.051552600818    0.000014211712    0.000008222039    0.029310245540    0.064761566673
0.300     0.034916716440    0.073426222634    0.000007327055    0.000001927688    0.033324683323    0.057857527889    0.000011289046    0.000004198783
            0.000007327055    0.000001927688    0.045487341828    0.073997460903    0.000010954609    0.000004059479    0.042975524529    0.059852191285
            0.033324683323    0.057857527889    0.000010954609    0.000004059479    0.034983759216    0.073240823012    0.000016046301    0.000007104278
            0.000011289046    0.000004198783    0.042975524529    0.059852191285    0.000016046301    0.000007104278    0.045630490855    0.073938415810
0.325     0.055046996272    0.076567019662    0.000007844211    0.000001007026    0.047273292884    0.063037226478    0.000012192525    0.000003034499
            0.000007844211    0.000001007026    0.064281302882    0.076276616570    0.000011869579    0.000002897201    0.056382647196    0.064261706682
            0.047273292884    0.063037226478    0.000011869579    0.000002897201    0.054896522040    0.076550249202    0.000017457617    0.000005680827
            0.000012192525    0.000003034499    0.056382647196    0.064261706682    0.000017457617    0.000005680827    0.064164670629    0.076311885631
0.350     0.073995047810    0.071411263600    0.000008060406    0.000000092796    0.062435380613    0.062393395402    0.000012719708    0.000001856803
            0.000008060406    0.000000092796    0.081794645277    0.071385935611    0.000012401151    0.000001699309    0.070888020437    0.063547978247
            0.062435380613    0.062393395402    0.000012401151    0.000001699309    0.073726815821    0.071679122688    0.000018412238    0.000004201018
            0.000012719708    0.000001856803    0.070888020437    0.063547978247    0.000018412238    0.000004201018    0.081492422330    0.071677557175
0.375     0.087972421227    0.059559569970    0.000008054296    -0.000000675562    0.075850868635    0.055969057404    0.000012965671    0.000000842163
            0.000008054296    -0.000000675562    0.094876905872    0.060875124844    0.000012633089    0.000000648799    0.083945346117    0.057745432370
            0.075850868635    0.055969057404    0.000012633089    0.000000648799    0.087739490546    0.060167488212    0.000019016500    0.000002883018
            0.000012965671    0.000000842163    0.083945346117    0.057745432370    0.000019016500    0.000002883018    0.094545964929    0.061527870495
0.400     0.094426719307    0.044264617518    0.000007963686    -0.000001228570    0.084919825185    0.045272762050    0.000013103024    0.000000084013
            0.000007963686    -0.000001228570    0.101539943246    0.047626353552    0.000012731093    -0.000000150793    0.093337657144    0.048149456828
            0.084919825185    0.045272762050    0.000012731093    -0.000000150793    0.094399271051    0.045185497900    0.000019474926    0.000001848724
            0.000013103024    0.000000084013    0.093337657144    0.048149456828    0.000019474926    0.000001848724    0.101380376460    0.048650152636
0.425     0.092664082660    0.029654527163    0.000007936471    -0.000001580624    0.088050575058    0.032958318789    0.000013323267    -0.000000429760
            0.000007936471    -0.000001580624    0.101431870466    0.035129295376    0.000012884652    -0.000000700314    0.097732067575    0.037015787948
            0.088050575058    0.032958318789    0.000012884652    -0.000000700314    0.092986890002    0.030776115127    0.000020021276    0.000001092243
            0.000013323267    -0.000000429760    0.097732067575    0.037015787948    0.000020021276    0.000001092243    0.101632615759    0.036426351493
0.450     0.084096281837    0.019787162289    0.000008093689    -0.000001818229    0.085157053284    0.022261597876    0.000013790944    -0.000000808306
            0.000008093689    -0.000001818229    0.095960561943    0.026654367638    0.000013259665    -0.000001097245    0.097090883271    0.027054951025
            0.085157053284    0.022261597876    0.000013259665    -0.000001097245    0.084846445095    0.020930960069    0.000020861591    0.000000485703
            0.000013790944    -0.000000808306    0.097090883271    0.027054951025    0.000020861591    0.000000485703    0.096643552137    0.028035621559
0.475     0.072052809250    0.017625383107    0.000008504285    -0.000002083033    0.077874577875    0.016180067040    0.000014603217    -0.000001242114
            0.000008504285    -0.000002083033    0.088030859823    0.024411541243    0.000013959071    -0.000001519208    0.092809397657    0.020720931549
            0.077874577875    0.016180067040    0.000013959071    -0.000001519208    0.073209667483    0.018586511993    0.000022120141    -0.000000203261
            0.000014603217    -0.000001242114    0.092809397657    0.020720931549    0.000022120141    -0.000000203261    0.089209792329    0.025639961282
0.500     0.061105409783    0.024122212082    0.000009161836    -0.000002552337    0.069335547596    0.016537841941    0.000015752250    -0.000001974015
            0.000009161836    -0.000002552337    0.081400950184    0.028869969397    0.000014987540    -0.000002197386    0.087484561343    0.019444471881
            0.069335547596    0.016537841941    0.000014987540    -0.000002197386    0.062543140479    0.024723713354    0.000023790308    -0.000001273719
            0.000015752250    -0.000001974015    0.087484561343    0.019444471881    0.000023790308    -0.000001273719    0.082967172709    0.029721117075
0.525     0.055880620565    0.037681623459    0.000009953414    -0.000003405393    0.063358920345    0.023202303003    0.000017081681    -0.000003245897
            0.000009953414    -0.000003405393    0.079669443118    0.038434213271    0.000016209594    -0.000003369427    0.084201600730    0.023023934136
            0.063358920345    0.023202303003    0.000016209594    -0.000003369427    0.057392432021    0.037830253405    0.000025683155    -0.000003023358
            0.000017081681    -0.000003245897    0.084201600730    0.023023934136    0.000025683155    -0.000003023358    0.081409315567    0.038752165361
0.550     0.059620576472    0.054370011893    0.000010650891    -0.000004751604    0.063217103181    0.033902743855    0.000018285227    -0.000005199694
            0.000010650891    -0.000004751604    0.085149450925    0.049741992037    0.000017342518    -0.000005186400    0.085514648769    0.029545571497
            0.063217103181    0.033902743855    0.000017342518    -0.000005186400    0.060974072351    0.054092337530    0.000027428753    -0.000005628154
            0.000018285227    -0.000005199694    0.085514648769    0.029545571497    0.000027428753    -0.000005628154    0.086766434246    0.049487727932
0.575     0.073013556389    0.068995742235    0.000010961933    -0.000006546782    0.070445542227    0.044864945187    0.000018979660    -0.000007774643
            0.000010961933    -0.000006546782    0.098023422348    0.058609841229    0.000018018250    -0.000007610622    0.092535025787    0.035975916024
            0.070445542227    0.044864945187    0.000018018250    -0.000007610622    0.074018202065    0.068438312252    0.000028564587    -0.000009023286
            0.000018979660    -0.000007774643    0.092535025787    0.035975916024    0.000028564587    -0.000009023286    0.099216126844    0.057941095631
0.600     0.093891643567    0.076741679911    0.000010649584    -0.000008559423    0.084307383371    0.052078680637    0.000018858110    -0.000010675152
            0.000010649584    -0.000008559423    0.116217360639    0.061347186152    0.000017928364    -0.000010374348    0.104594386039    0.039134938166
            0.084307383371    0.052078680637    0.000017928364    -0.000010374348    0.094457030900    0.076131221145    0.000028714215    -0.000012865780
            0.000018858110    -0.000010675152    0.104594386039    0.039134938166    0.000028714215    -0.000012865780    0.116842000027    0.060572876148
0.625     0.117936872473    0.074636046530    0.000009653811    -0.000010441437    0.102114135364    0.052562243412    0.000017833178    -0.000013460684
            0.000009653811    -0.000010441437    0.136050770149    0.055889410870    0.000016968729    -0.000013058548    0.119448089957    0.036671872574
            0.102114135364    0.052562243412    0.000016968729    -0.000013058548    0.118099303635    0.074215321317    0.000027753266    -0.000016635762
            0.000017833178    -0.000013460684    0.119448089957    0.036671872574    0.000027753266    -0.000016635762    0.136150914253    0.055327969273
0.650     0.140038178745    0.062289613527    0.000008131051    -0.000011870492    0.120158749906    0.045121776032    0.000016085552    -0.000015717935
            0.000008131051    -0.000011870492    0.153380130547    0.042313574084    0.000015295396    -0.000015257182    0.134032082324    0.027721229841
            0.120158749906    0.045121776032    0.000015295396    -0.000015257182    0.139948906849    0.062252795731    0.000025872414    -0.000019833021
            0.000016085552    -0.000015717935    0.134032082324    0.027721229841    0.000025872414    -0.000019833021    0.153146126520    0.042214656951
0.675     0.155653622713    0.041777302986    0.000006385067    -0.000012674074    0.134717613085    0.030446415963    0.000013980468    -0.000017209111
            0.000006385067    -0.000012674074    0.164703685335    0.022660924296    0.000013252413    -0.000016726091    0.145302997132    0.012989094348
            0.134717613085    0.030446415963    0.000013252413    -0.000016726091    0.155540867593    0.042221624542    0.000023487645    -0.000022151515
            0.000013980468    -0.000017209111    0.145302997132    0.012989094348    0.000023487645    -0.000022151515    0.164423005530    0.023152548972
0.700     0.161797271353    0.016954550543    0.000004746246    -0.000012873268    0.142837276467    0.010795338819    0.000011930995    -0.000017928046
            0.000004746246    -0.000012873268    0.167939632986    0.000305030133    0.000011239541    -0.000017445604    0.150919826674    -0.005520495244
            0.142837276467    0.010795338819    0.000011239541    -0.000017445604    0.161911660832    0.017858407493    0.000021087604    -0.000023553035
            0.000011930995    -0.000017928046    0.150919826674    -0.005520495244    0.000021087604    -0.000023553035    0.167932623583    0.001363642406
0.725     0.157536797618    -0.007435453073    0.000003466580    -0.000012646122    0.142829451566    -0.010491794948    0.000010272591    -0.000018064227
            0.000003466580    -0.000012646122    0.162772579918    -0.020844532960    0.000009586495    -0.000017590267    0.149665913899    -0.024946941406
            0.142829451566    -0.010491794948    0.000009586495    -0.000017590267    0.158096379139    -0.006212903183    0.000019085924    -0.000024234910
            0.000010272591    -0.000018064227    0.149665913899    -0.024946941406    0.000019085924    -0.000024234910    0.163319876000    -0.019396376492
0.750     0.144148395048    -0.026673268153    0.000002667189    -0.000012252628    0.134628620321    -0.029539181730    0.000009198839    -0.000017926767
            0.000002667189    -0.000012252628    0.150687351129    -0.037132250495    0.000008485778    -0.000017455038    0.141738237151    -0.042091864422
            0.134628620321    -0.029539181730    0.000008485778    -0.000017455038    0.145286600345    -0.025365134734    0.000017741183    -0.000024550989
            0.000009198839    -0.000017926767    0.141738237151    -0.042091864422    0.000017741183    -0.000024550989    0.151962695015    -0.035595438598
0.775     0.124992077896    -0.036966478750    0.000002336263    -0.000011961991    0.120008773777    -0.042633234524    0.000008742514    -0.000017866034
            0.000002336263    -0.000011961991    0.134736789476    -0.045894880841    0.000007972206    -0.000017375196    0.128847339149    -0.054051214901
            0.120008773777    -0.042633234524    0.000007972206    -0.000017375196    0.126717796473    -0.035854808470    0.000017121559    -0.000024923297
            0.000008742514    -0.000017866034    0.128847339149    -0.054051214901    0.000017121559    -0.000024923297    0.136751973407    -0.044637556519
0.800     0.105070565003    -0.036387416120    0.000002352338    -0.000012008434    0.102555760588    -0.047130004078    0.000008783243    -0.000018220433
