# GHz S RI R 45
0.000     0.027761359177    0.001290311688    0.000000038675    -0.000000030860    0.000925888048    0.001387355818    0.000000079150    0.000000032127
            0.000000038675    -0.000000030860    0.027190425362    0.001609757529    0.000000057960    -0.000000009199    0.000858712201    0.001640696645
            0.000925887744    0.001387355781    0.000000057961    -0.000000009199    0.027705082133    0.001300316097    0.000000106394    0.000000064006
            0.000000079150    0.000000032127    0.000858712391    0.001640696659    0.000000106394    0.000000064006    0.027119349964    0.001621743315
0.025     0.033469064350    0.007237383145    0.000000052933    -0.000000073722    0.003474718918    0.011799623443    0.000000121820    0.000000064604
            0.000000052933    -0.000000073722    0.032686571300    0.007733904387    0.000000083969    -0.000000025520    0.003229490077    0.011899367786
            0.003477076976    0.011798023884    0.000000083969    -0.000000025520    0.033416247447    0.007304237965    0.000000166479    0.000000135278
            0.000000121820    0.000000064604    0.003229744793    0.011898792997    0.000000166479    0.000000135278    0.032591803412    0.007689821863
0.050     0.038687381107    0.007605386162    0.000000064386    -0.000000165740    0.010365306072    0.020722871723    0.000000183203    0.000000076024
            0.000000064386    -0.000000165740    0.037637735222    0.008838930767    0.000000115977    -0.000000085013    0.009622369901    0.021246921232
            0.010365438638    0.020722930644    0.000000115977    -0.000000085013    0.038659408653    0.007738294652    0.000000255327    0.000000196563
            0.000000183203    0.000000076024    0.009622467406    0.021246915495    0.000000255327    0.000000196563    0.037437737075    0.008805901787
0.075     0.041698014300    0.004642494777    0.000000069543    -0.000000264042    0.019032232197    0.025045796993    0.000000240527    0.000000069855
            0.000000069543    -0.000000264042    0.040526152677    0.007098022538    0.000000141164    -0.000000155768    0.017853150340    0.026587318472
            0.019032230683    0.025045803167    0.000000141164    -0.000000155768    0.041716795941    0.004831230029    0.000000340742    0.000000233196
            0.000000240527    0.000000069855    0.017853146071    0.026587320134    0.000000340742    0.000000233196    0.040226837355    0.007165040538
0.100     0.040822372143    -0.000008365665    0.000000069888    -0.000000367546    0.026619844085    0.024866982890    0.000000301309    0.000000053611
            0.000000069888    -0.000000367546    0.040109935812    0.004043060365    0.000000163159    -0.000000234398    0.025537159388    0.027925518445
            0.026619822593    0.024866989783    0.000000163159    -0.000000234398    0.040901710152    0.000215147971    0.000000433126    0.000000256889
            0.000000301309    0.000000053611    0.025537133931    0.027925526818    0.000000433126    0.000000256889    0.039766608737    0.004282284632
0.125     0.035180945918    -0.003681007958    0.000000066524    -0.000000478319    0.030896913368    0.021795129304    0.000000370030    0.000000027224
            0.000000066524    -0.000000478319    0.035804851275    0.001907665180    0.000000184663    -0.000000321774    0.030781123609    0.026479325977
            0.030896913368    0.021795129304    0.000000184663    -0.000000321774    0.035330716255    -0.003456479461    0.000000538551    0.000000267685
            0.000000370030    0.000000027224    0.030781123609    0.026479325977    0.000000538551    0.000000267685    0.035520767383    0.002349095154
0.150     0.025952443890    -0.003615493826    0.000000057546    -0.000000598002    0.030832202764    0.018420113135    0.000000448705    -0.000000011968
            0.000000057546    -0.000000598002    0.028743102440    0.002928955299    0.000000204466    -0.000000419480    0.032573298655    0.024271225922
            0.030832202764    0.018420113135    0.000000204466    -0.000000419480    0.026148285428    -0.003415144789    0.000000660556    0.000000263092
            0.000000448705    -0.000000011968    0.032573298655    0.024271225922    0.000000660556    0.000000263092    0.028615385519    0.003536216892
0.175     0.015366757149    0.002221313061    0.000000039868    -0.000000729819    0.027088398014    0.017531649978    0.000000539303    -0.000000071134
            0.000000039868    -0.000000729819    0.020767499293    0.008636697006    0.000000221631    -0.000000531724    0.031253870614    0.023575980435
            0.027088398014    0.017531649978    0.000000221631    -0.000000531724    0.015582197412    0.002384689653    0.000000802436    0.000000233976
            0.000000539303    -0.000000071134    0.031253870614    0.023575980435    0.000000802436    0.000000233976    0.020868060864    0.009312537802
0.200     0.006767615599    0.014453947768    0.000000007389    -0.000000874374    0.021865993320    0.021110148654    0.000000636806    -0.000000160080
            0.000000007389    -0.000000874374    0.014554191531    0.019456825792    0.000000230465    -0.000000661611    0.028406522145    0.026109653260
            0.021865993320    0.021110148654    0.000000230465    -0.000000661611    0.006972557324    0.014581794428    0.000000959945    0.000000167611
            0.000000636806    -0.000000160080    0.028406522145    0.026109653260    0.000000959945    0.000000167611    0.014886795061    0.020070858259
0.225     0.003630759874    0.031706421606    -0.000000047327    -0.000001029901    0.018206208657    0.029537634407    0.000000730360    -0.000000286423
            -0.000000047327    -0.000001029901    0.012852686189    0.034253300709    0.000000223157    -0.000000810564    0.026354492148    0.032400311610
            0.018206208657    0.029537634407    0.000000223157    -0.000000810564    0.003797731608    0.031817654327    0.000001120416    0.000000052778
            0.000000730360    -0.000000286423    0.026354492148    0.032400311610    0.000001120416    0.000000052778    0.013341059489    0.034690406758
0.250     0.008336936145    0.050757469886    -0.000000130907    -0.000001188692    0.018924717114    0.041360727041    0.000000802155    -0.000000450313
            -0.000000130907    -0.000001188692    0.017547099377    0.050464033177    0.000000189855    -0.000000973517    0.027371482126    0.041562580081
            0.018924717114    0.041360727041    0.000000189855    -0.000000973517    0.008451201536    0.050886362340    0.000001262722    -0.000000113427
            0.000000802155    -0.000000450313    0.027371482126    0.041562580081    0.000001262722    -0.000000113427    0.018055322350    0.050671639456
0.275     0.021222406573    0.067394441850    -0.000000245815    -0.000001340039    0.025578264355    0.053722589601    0.000000836865    -0.000000641010
            -0.000000245815    -0.000001340039    0.028931022043    0.064747255278    0.000000124204    -0.000001140707    0.032882285858    0.051552600818
            0.025578264355    0.053722589601    0.000000124204    -0.000001140707    0.021290591693    0.067582504906    0.000001366297    -0.000000320665
            0.000000836865    -0.000000641010    0.032882285858    0.051552600818    0.000001366297    -0.000000320665    0.029310245540    0.064761566673
0.300     0.040306467297    0.077735990992    -0.000000386851    -0.000001470939    0.037902268955    0.063333139446    0.000000826430    -0.000000838747
            -0.000000386851    -0.000001470939    0.045487341828    0.073997460903    0.000000026734    -0.000001297407    0.042975524529    0.059852191285
            0.037902268955    0.063333139446    0.000000026734    -0.000001297407    0.040359840838    0.078018520031    0.000001418584    -0.000000547154
            0.000000826430    -0.000000838747    0.042975524529    0.059852191285    0.000001418584    -0.000000547154    0.045630490855    0.073938415810
0.325     0.061831004528    0.079431660254    -0.000000541789    -0.000001574142    0.053905206388    0.067526028352    0.000000777681    -0.000001023343
            -0.000000541789    -0.000001574142    0.064281302882    0.076276616570    -0.000000092797    -0.000001432781    0.056382647196    0.064261706682
            0.053905206388    0.067526028352    -0.000000092797    -0.000001432781    0.061918882254    0.079824185535    0.000001423420    -0.000000768104
            0.000000777681    -0.000001023343    0.056382647196    0.064261706682    0.000001423420    -0.000000768104    0.064164670629    0.076311885631
0.350     0.081345823224    0.072356402796    -0.000000694342    -0.000001650282    0.070500631661    0.065040087256    0.000000707012    -0.000001182031
            -0.000000694342    -0.000001650282    0.081794645277    0.071385935611    -0.000000218809    -0.000001542792    0.070888020437    0.063547978247
            0.070500631661    0.065040087256    -0.000000218809    -0.000001542792    0.081524545625    0.072845457144    0.000001397257    -0.000000965996
            0.000000707012    -0.000001182031    0.070888020437    0.063547978247    0.000001397257    -0.000000965996    0.081492422330    0.071677557175
0.375     0.094913787469    0.058595441204    -0.000000831962    -0.000001711279    0.084356490056    0.056321691851    0.000000635856    -0.000001315742
            -0.000000831962    -0.000001711279    0.094876905872    0.060875124844    -0.000000336434    -0.000001635591    0.083945346117    0.057745432370
            0.084356490056    0.056321691851    -0.000000336434    -0.000001635591    0.095228909383    0.059136892455    0.000001364050    -0.000001137392
            0.000000635856    -0.000001315742    0.083945346117    0.057745432370    0.000001364050    -0.000001137392    0.094545964929    0.061527870495
0.400     0.100093140493    0.041904916770    -0.000000949989    -0.000001774775    0.092736103362    0.043430770685    0.000000580238    -0.000001436705
            -0.000000949989    -0.000001774775    0.101539943246    0.047626353552    -0.000000437550    -0.000001726446    0.093337657144    0.048149456828
            0.092736103362    0.043430770685    -0.000000437550    -0.000001726446    0.100563725815    0.042431786813    0.000001344129    -0.000001292883
            0.000000580238    -0.000001436705    0.093337657144    0.048149456828    0.000001344129    -0.000001292883    0.101380376460    0.048650152636
0.425     0.096539770409    0.026820051329    -0.000001056137    -0.000001860602    0.094198371033    0.029606722611    0.000000547814    -0.000001566273
            -0.000001056137    -0.000001860602    0.101431870466    0.035129295376    -0.000000525201    -0.000001835490    0.097732067575    0.037015787948
            0.094198371033    0.029606722611    -0.000000525201    -0.000001835490    0.097146860101    0.027258339504    0.000001349946    -0.000001454280
            0.000000547814    -0.000001566273    0.097732067575    0.037015787948    0.000001349946    -0.000001454280    0.101632615759    0.036426351493
0.450     0.086203133798    0.017609860799    -0.000001168390    -0.000001982821    0.089112168517    0.018566687240    0.000000532954    -0.000001728123
            -0.000001168390    -0.000001982821    0.095960561943    0.026654367638    -0.000000613626    -0.000001979210    0.097090883271    0.027054951025
            0.089112168517    0.018566687240    -0.000000613626    -0.000001979210    0.086887874983    0.017900604136    0.000001379649    -0.000001648950
            0.000000532954    -0.000001728123    0.097090883271    0.027054951025    0.000001379649    -0.000001648950    0.096643552137    0.028035621559
0.475     0.073048474149    0.017155343567    -0.000001313990    -0.000002146119    0.079821195000    0.013514647913    0.000000516886    -0.000001944907
            -0.000001313990    -0.000002146119    0.088030859823    0.024411541243    -0.000000727589    -0.000002167295    0.092809397657    0.020720931549
            0.079821195000    0.013514647913    -0.000000727589    -0.000002167295    0.073725491162    0.017276556361    0.000001416303    -0.000001904922
            0.000000516886    -0.000001944907    0.092809397657    0.020720931549    0.000001416303    -0.000001904922    0.089209792329    0.025639961282
0.500     0.062212683921    0.025967798653    -0.000001522702    -0.000002338633    0.070249550027    0.016050521615    0.000000465402    -0.000002227463
            -0.000001522702    -0.000002338633    0.081400950184    0.028869969397    -0.000000897927    -0.000002393811    0.087484561343    0.019444471881
            0.070249550027    0.016050521615    -0.000000897927    -0.000002393811    0.062802241453    0.025942711855    0.000001423725    -0.000002239841
            0.000000465402    -0.000002227463    0.087484561343    0.019444471881    0.000001423725    -0.000002239841    0.082967172709    0.029721117075
0.525     0.058520426384    0.041722677217    -0.000001820792    -0.000002531361    0.064763342167    0.025369972359    0.000000334944    -0.000002566909
            -0.000001820792    -0.000002531361    0.079669443118    0.038434213271    -0.000001155369    -0.000002635188    0.084201600730    0.023023934136
            0.064763342167    0.025369972359    -0.000001155369    -0.000002635188    0.059048968229    0.041576943911    0.000001352621    -0.000002649919
            0.000000334944    -0.000002566909    0.084201600730    0.023023934136    0.000001352621    -0.000002649919    0.081409315567    0.038752165361
0.550     0.065163171342    0.058812867999    -0.000002213006    -0.000002675399    0.066812216244    0.037746383534    0.000000086940    -0.000002920673
            -0.000002213006    -0.000002675399    0.085149450925    0.049741992037    -0.000001514283    -0.000002846273    0.085514648769    0.029545571497
            0.066812216244    0.037746383534    -0.000001514283    -0.000002846273    0.065498360215    0.059387878412    0.000001155668    -0.000003096557
            0.000000086940    -0.000002920673    0.085514648769    0.029545571497    0.000001155668    -0.000003096557    0.086766434246    0.049487727932
0.575     0.082077795378    0.073040585173    -0.000002685613    -0.000002723958    0.077456661471    0.049459904835    -0.000000290420    -0.000003233230
            -0.000002685613    -0.000002723958    0.098023422348    0.058609841229    -0.000001965462    -0.000002975308    0.092535025787    0.035975916024
            0.077456661471    0.049459904835    -0.000001965462    -0.000002975308    0.082216815715    0.073528595320    0.000000812348    -0.000003516396
            -0.000000290420    -0.000003233230    0.092535025787    0.035975916024    0.000000812348    -0.000003516396    0.099216126844    0.057941095631
0.600     0.105796823005    0.078407372096    -0.000003181565    -0.000002640853    0.094796389331    0.055376567750    -0.000000764446    -0.000003436413
            -0.000003181565    -0.000002640853    0.116217360639    0.061347186152    -0.000002460858    -0.000002979536    0.104594386039    0.039134938166
            0.094796389331    0.055376567750    -0.000002460858    -0.000002979536    0.106015338139    0.078993633934    0.000000347998    -0.000003835599
            -0.000000764446    -0.000003436413    0.104594386039    0.039134938166    0.000000347998    -0.000003835599    0.116842000027    0.060572876148
0.625     0.131307072722    0.072672638982    -0.000003636209    -0.000002427099    0.115117875865    0.052944512113    -0.000001270023    -0.000003497541
            -0.000003636209    -0.000002427099    0.136050770149    0.055889410870    -0.000002936374    -0.000002851807    0.119448089957    0.036671872574
            0.115117875865    0.052944512113    -0.000002936374    -0.000002851807    0.131499196434    0.073478134751    -0.000000171892    -0.000004011184
            -0.000001270023    -0.000003497541    0.119448089957    0.036671872574    -0.000000171892    -0.000004011184    0.136150914253    0.055327969273
0.650     0.153077734848    0.056318955449    -0.000003992700    -0.000002120756    0.134271636842    0.041602877480    -0.000001734626    -0.000003426030
            -0.000003992700    -0.000002120756    0.153380130547    0.042313574084    -0.000003332193    -0.000002619991    0.134032082324    0.027721229841
            0.134271636842    0.041602877480    -0.000003332193    -0.000002619991    0.153582263569    0.057408197299    -0.000000671876    -0.000004043016
            -0.000001734626    -0.000003426030    0.134032082324    0.027721229841    -0.000000671876    -0.000004043016    0.153146126520    0.042214656951
0.675     0.166644996188    0.032340477773    -0.000004225301    -0.000001786166    0.148132355287    0.022770981956    -0.000002105091    -0.000003270758
            -0.000004225301    -0.000001786166    0.164703685335    0.022660924296    -0.000003614009    -0.000002343540    0.145302997132    0.012989094348
            0.148132355287    0.022770981956    -0.000003614009    -0.000002343540    0.167593337814    0.033490509744    -0.000001089485    -0.000003974006
            -0.000002105091    -0.000003270758    0.145302997132    0.012989094348    -0.000001089485    -0.000003974006    0.164423005530    0.023152548972
0.700     0.169490940990    0.005305547338    -0.000004345478    -0.000001490346    0.153812909945    -0.000418764897    -0.000002364048    -0.000003097084
            -0.000004345478    -0.000001490346    0.167939632986    0.000305030133    -0.000003784780    -0.000002088731    0.150919826674    -0.005520495244
            0.153812909945    -0.000418764897    -0.000003784780    -0.000002088731    0.170888026230    0.006298222578    -0.000001398116    -0.000003869212
            -0.000002364048    -0.000003097084    0.150919826674    -0.005520495244    -0.000001398116    -0.000003869212    0.167932623583    0.001363642406
0.725     0.161375819253    -0.019616109812    -0.000004397409    -0.000001284119    0.150045859713    -0.023877113033    -0.000002529502    -0.000002967750
            -0.000004397409    -0.000001284119    0.162772579918    -0.020844532960    -0.000003880979    -0.000001909842    0.149665913899    -0.024946941406
            0.150045859713    -0.023877113033    -0.000003880979    -0.000001909842    0.163127409740    -0.018984354200    -0.000001607421    -0.000003795397
            -0.000002529502    -0.000002967750    0.149665913899    -0.024946941406    -0.000001607421    -0.000003795397    0.163319876000    -0.019396376492
0.750     0.144384831256    -0.037582681749    -0.000004442772    -0.000001191291    0.137493579747    -0.043181745738    -0.000002644666    -0.000002927521
            -0.000004442772    -0.000001191291    0.150687351129    -0.037132250495    -0.000003959007    -0.000001836862    0.141738237151    -0.042091864422
            0.137493579747    -0.043181745738    -0.000003959007    -0.000001836862    0.146302203366    -0.037458760693    -0.000001755641    -0.000003804480
            -0.000002644666    -0.000002927521    0.141738237151    -0.042091864422    -0.000001755641    -0.000003804480    0.151962695015    -0.035595438598
0.775     0.122731293416    -0.045020319215    -0.000004550246    -0.000001205221    0.118926414816    -0.054412467708    -0.000002769469    -0.000002999854
            -0.000004550246    -0.000001205221    0.134736789476    -0.045894880841    -0.000004085581    -0.000001871793    0.128847339149    -0.054051214901
            0.118926414816    -0.054412467708    -0.000004085581    -0.000001871793    0.124556891487    -0.045449383430    -0.000001901176    -0.000003929127
            -0.000002769469    -0.000002999854    0.128847339149    -0.054051214901    -0.000001901176    -0.000003929127    0.136751973407    -0.044637556519
