# GHz S RI R 45
0.000     0.026823221955    0.001531856418    -0.000004029552    -0.000008666506    0.000829433715    0.001360376261    -0.000002570221    -0.000006211571
            -0.000004029549    -0.000008666506    0.027190425362    0.001609757529    -0.000032058091    -0.000011460212    0.000858712201    0.001640696645
            0.000829434175    0.001360376214    -0.000032058092    -0.000011460213    0.026706719196    0.001522369467    -0.000004084374    -0.000008754978
            -0.000002570206    -0.000006211572    0.000858712391    0.001640696659    -0.000004084394    -0.000008754978    0.027119349964    0.001621743315
0.025     0.034153424441    0.006225743103    -0.000013130436    -0.000018720749    0.004552419616    0.010432442117    -0.000007838154    -0.000012703432
            -0.000013130288    -0.000018720503    0.032686571300    0.007733904387    -0.000045914319    -0.000021990968    0.003229490077    0.011899367786
            0.004553796610    0.010431933874    -0.000045914476    -0.000021990757    0.034080030426    0.006202740549    -0.000012595159    -0.000019378224
            -0.000007838153    -0.000012703426    0.003229744793    0.011898792997    -0.000012595158    -0.000019378245    0.032591803412    0.007689821863
0.050     0.043278596034    0.003154118955    -0.000032099893    -0.000025085935    0.014240342025    0.016197879838    -0.000019100884    -0.000019145922
            -0.000032099903    -0.000025085933    0.037637735222    0.008838930767    -0.000078182023    -0.000026352073    0.009622369901    0.021246921232
            0.014240339585    0.016197903288    -0.000078182024    -0.000026352073    0.043201108989    0.003147695092    -0.000031005519    -0.000028219025
            -0.000019100887    -0.000019145919    0.009622467406    0.021246915495    -0.000031005521    -0.000028219027    0.037437737075    0.008805901787
0.075     0.050510731184    -0.006896232344    -0.000051056987    -0.000019011105    0.025821273331    0.014535773202    -0.000032753988    -0.000019535424
            -0.000051056990    -0.000019011106    0.040526152677    0.007098022538    -0.000104945214    -0.000006122060    0.017853150340    0.026587318472
            0.025821268907    0.014535779021    -0.000104945214    -0.000006122060    0.050448611449    -0.006877453665    -0.000051988912    -0.000026045390
            -0.000032753988    -0.000019535424    0.017853146071    0.026587320134    -0.000051988912    -0.000026045390    0.040226837355    0.007165040538
0.100     0.051759979015    -0.022421204316    -0.000064146817    -0.000004579286    0.034546417432    0.005494467033    -0.000046758882    -0.000013846289
            -0.000064146817    -0.000004579286    0.040109935812    0.004043060365    -0.000116078958    0.000024953669    0.025537159388    0.027925518445
            0.034546417413    0.005494467154    -0.000116078958    0.000024953669    0.051751460985    -0.022378991868    -0.000070997811    -0.000014162396
            -0.000046758882    -0.000013846289    0.025537133931    0.027925526818    -0.000070997809    -0.000014162396    0.039766608737    0.004282284632
0.125     0.043951039703    -0.039567789691    -0.000069812480    0.000011918255    0.036378998435    -0.008263180016    -0.000059268895    -0.000002249418
            -0.000069812480    0.000011918255    0.035804851275    0.001907665180    -0.000114031141    0.000054610540    0.030781123609    0.026479325977
            0.036378995077    -0.008263181256    -0.000114031141    0.000054610540    0.044034825610    -0.039542973183    -0.000085108468    0.000004478190
            -0.000059268895    -0.000002249418    0.030781123609    0.026479325977    -0.000085108469    0.000004478190    0.035520767383    0.002349095154
0.150     0.026584093677    -0.052992574849    -0.000071209840    0.000026998070    0.029295430047    -0.022220026214    -0.000068575317    0.000014900854
            -0.000071209840    0.000026998070    0.028743102440    0.002928955299    -0.000105293773    0.000078379351    0.032573298655    0.024271225922
            0.029295430047    -0.022220026214    -0.000105293773    0.000078379351    0.026784059332    -0.053035239841    -0.000093429016    0.000028099702
            -0.000068575317    0.000014900854    0.032573298655    0.024271225922    -0.000093429016    0.000028099702    0.028615385519    0.003536216892
0.175     0.002079085866    -0.057465879172    -0.000072466333    0.000041255051    0.014010894209    -0.031215607807    -0.000072668214    0.000037103500
            -0.000072466333    0.000041255051    0.020767499293    0.008636697006    -0.000097120351    0.000098259928    0.031253870614    0.023575980435
            0.014010894209    -0.031215607807    -0.000097120351    0.000098259928    0.002378889976    -0.057651825750    -0.000095395505    0.000055447066
            -0.000072668215    0.000037103501    0.031253870614    0.023575980435    -0.000095395505    0.000055447066    0.020868060864    0.009312537802
0.200     -0.024376821264    -0.049517573013    -0.000074839037    0.000059086391    -0.005963409488    -0.031039516343    -0.000069096159    0.000063060808
            -0.000074839037    0.000059086391    0.014554191531    0.019456825792    -0.000091323260    0.000121680870    0.028406522145    0.026109653260
            -0.005963409488    -0.031039516343    -0.000091323260    0.000121680870    -0.024042789735    -0.049915640742    -0.000089829944    0.000085834811
            -0.000069096159    0.000063060808    0.028406522145    0.026109653260    -0.000089829944    0.000085834811    0.014886795061    0.020070858259
0.225     -0.046087097236    -0.028777168473    -0.000074283830    0.000084929674    -0.025150121245    -0.019856453935    -0.000055437492    0.000089959601
            -0.000074283830    0.000084929674    0.012852686189    0.034253300709    -0.000081471490    0.000155295683    0.026354492148    0.032400311610
            -0.025150121245    -0.019856453935    -0.000081471490    0.000155295683    -0.045826262701    -0.029416956085    -0.000074456983    0.000117811075
            -0.000055437492    0.000089959601    0.026354492148    0.032400311610    -0.000074456983    0.000117811075    0.013341059489    0.034690406758
0.250     -0.056701502802    0.001467619229    -0.000062942897    0.000118641201    -0.037646643646    0.000976383449    -0.000030594951    0.000113281361
            -0.000062942897    0.000118641201    0.017547099377    0.050464033177    -0.000055871306    0.000198307924    0.027371482126    0.041562580081
            -0.037646643646    0.000976383449    -0.000055871306    0.000198307924    -0.056636617414    0.000619188563    -0.000047018667    0.000147862214
            -0.000030594951    0.000113281361    0.027371482126    0.041562580081    -0.000047018667    0.000147862214    0.018055322350    0.050671639456
0.275     -0.052176137729    0.034860688733    -0.000033828525    0.000153399152    -0.038919390101    0.027077917548    0.000003940916    0.000127769128
            -0.000033828525    0.000153399152    0.028931022043    0.064747255278    -0.000004815364    0.000239936804    0.032882285858    0.051552600818
            -0.038919390101    0.027077917548    -0.000004815364    0.000239936804    -0.052407280345    0.033904828129    -0.000007214498    0.000170484658
            0.000003940916    0.000127769128    0.032882285858    0.051552600818    -0.000007214498    0.000170484658    0.029310245540    0.064761566673
0.300     -0.032162189824    0.063564807880    0.000014099586    0.000177933383    -0.027244491997    0.052183807485    0.000043796620    0.000129365145
            0.000014099586    0.000177933383    0.045487341828    0.073997460903    0.000072093684    0.000263205685    0.042975524529    0.059852191285
            -0.027244491997    0.052183807485    0.000072093684    0.000263205685    -0.032729152197    0.062653799030    0.000041877752    0.000180022268
            0.000043796620    0.000129365145    0.042975524529    0.059852191285    0.000041877752    0.000180022268    0.045630490855    0.073938415810
0.325     -0.000295470022    0.080369104867    0.000074056985    0.000181817502    -0.004276850603    0.069858957435    0.000083011306    0.000116873034
            0.000074056985    0.000181817502    0.064281302882    0.076276616570    0.000163549649    0.000252967666    0.056382647196    0.064261706682
            -0.004276850603    0.069858957435    0.000163549649    0.000252967666    -0.001154512482    0.079668509157    0.000094273639    0.000173029754
            0.000083011306    0.000116873034    0.056382647196    0.064261706682    0.000094273639    0.000173029754    0.064164670629    0.076311885631
0.350     0.036625211308    0.080600127480    0.000133724738    0.000160670542    0.025337229765    0.075194013930    0.000116191896    0.000092297464
            0.000133724738    0.000160670542    0.081794645277    0.071385935611    0.000250349228    0.000203453248    0.070888020437    0.063547978247
            0.025337229765    0.075194013930    0.000250349228    0.000203453248    0.035602642548    0.080243205264    0.000143030779    0.000149700218
            0.000116191896    0.000092297464    0.070888020437    0.063547978247    0.000143030779    0.000149700218    0.081492422330    0.071677557175
0.375     0.070256144696    0.063301173187    0.000180234308    0.000118358317    0.055071096243    0.066003244902    0.000140186001    0.000059555657
            0.000180234308    0.000118358317    0.094876905872    0.060875124844    0.000313122240    0.000121166981    0.083945346117    0.057745432370
            0.055071096243    0.066003244902    0.000313122240    0.000121166981    0.069260972757    0.063347405366    0.000182397152    0.000113526817
            0.000140186001    0.000059555657    0.083945346117    0.057745432370    0.000182397152    0.000113526817    0.094545964929    0.061527870495
0.400     0.092594014370    0.031521827968    0.000204925637    0.000065695833    0.077963843762    0.043373548293    0.000154404939    0.000022641692
            0.000204925637    0.000065695833    0.101539943246    0.047626353552    0.000339913603    0.000022226516    0.093337657144    0.048149456828
            0.077963843762    0.043373548293    0.000339913603    0.000022226516    0.091837332301    0.031928539675    0.000208720309    0.000070078782
            0.000154404939    0.000022641692    0.093337657144    0.048149456828    0.000208720309    0.000070078782    0.101380376460    0.048650152636
0.425     0.097733264111    -0.008230605958    0.000204939787    0.000016513033    0.088103608592    0.011565308591    0.000159872502    -0.000015794690
            0.000204939787    0.000016513033    0.101431870466    0.035129295376    0.000330190389    -0.000074283050    0.097732067575    0.037015787948
            0.088103608592    0.011565308591    0.000330190389    -0.000074283050    0.097394167568    -0.007614145189    0.000219107487    0.000025728168
            0.000159872502    -0.000015794690    0.097732067575    0.037015787948    0.000219107487    0.000025728168    0.101632615759    0.036426351493
0.450     0.083262647234    -0.047190815570    0.000178560012    -0.000020096858    0.082000650281    -0.022654675651    0.000157697632    -0.000054622664
            0.000178560012    -0.000020096858    0.095960561943    0.026654367638    0.000293862799    -0.000153765039    0.097090883271    0.027054951025
            0.082000650281    -0.022654675651    0.000293862799    -0.000153765039    0.083431256260    -0.046604366224    0.000205831893    -0.000016204846
            0.000157697632    -0.000054622664    0.097090883271    0.027054951025    0.000205831893    -0.000016204846    0.096643552137    0.028035621559
0.475     0.051094697642    -0.076073233122    0.000130233558    -0.000061671845    0.059647602007    -0.051262234285    0.000147175076    -0.000093516294
            0.000130233558    -0.000061671845    0.088030859823    0.024411541243    0.000245039989    -0.000211443372    0.092809397657    0.020720931549
            0.059647602007    -0.051262234285    0.000245039989    -0.000211443372    0.051723861363    -0.075801059329    0.000164275702    -0.000075866099
            0.000147175076    -0.000093516294    0.092809397657    0.020720931549    0.000164275702    -0.000075866099    0.089209792329    0.025639961282
0.500     0.007503085342    -0.087184216331    0.000102025155    -0.000114111952    0.024994923971    -0.066771342481    0.000125534390    -0.000132698165
            0.000102025155    -0.000114111952    0.081400950184    0.028869969397    0.000194926327    -0.000254172257    0.087484561343    0.019444471881
            0.024994923971    -0.066771342481    0.000194926327    -0.000254172257    0.008363170126    -0.087493021899    0.000132069605    -0.000152585876
            0.000125534390    -0.000132698165    0.087484561343    0.019444471881    0.000132069605    -0.000152585876    0.082967172709    0.029721117075
0.525     -0.037930091819    -0.076525473206    0.000087388863    -0.000154523068    -0.014644559533    -0.064307903345    0.000090451584    -0.000171174683
            0.000087388863    -0.000154523068    0.079669443118    0.038434213271    0.000146587173    -0.000293042151    0.084201600730    0.023023934136
            -0.014644559533    -0.064307903345    0.000146587173    -0.000293042151    -0.037422512579    -0.077690907494    0.000098067682    -0.000212004660
            0.000090451584    -0.000171174683    0.084201600730    0.023023934136    0.000098067682    -0.000212004660    0.081409315567    0.038752165361
0.550     -0.074487415617    -0.045269082086    0.000065524083    -0.000191890498    -0.048841862967    -0.043618444027    0.000042372950    -0.000201997647
            0.000065524083    -0.000191890498    0.085149450925    0.049741992037    0.000093758411    -0.000332445336    0.085514648769    0.029545571497
            -0.048841862967    -0.043618444027    0.000093758411    -0.000332445336    -0.072752234893    -0.047964282916    0.000048047441    -0.000252872893
            0.000042372950    -0.000201997647    0.085514648769    0.029545571497    0.000048047441    -0.000252872893    0.086766434246    0.049487727932
0.575     -0.093122722070    0.000253092045    0.000026513778    -0.000228150752    -0.071028426608    -0.007347591462    -0.000017821580    -0.000216703516
            0.000026513778    -0.000228150752    0.098023422348    0.058609841229    0.000020247263    -0.000372614404    0.092535025787    0.035975916024
            -0.071028426608    -0.007347591462    0.000020247263    -0.000372614404    -0.092622669767    -0.002319810983    -0.000021266770    -0.000275592256
            -0.000017821580    -0.000216703516    0.092535025787    0.035975916024    -0.000021266770    -0.000275592256    0.099216126844    0.057941095631
0.600     -0.088874425508    0.049815704748    -0.000033489468    -0.000254141118    -0.074413553068    0.035276538624    -0.000083162680    -0.000209335735
            -0.000033489468    -0.000254141118    0.116217360639    0.061347186152    -0.000077007062    -0.000398249561    0.104594386039    0.039134938166
            -0.074413553068    0.035276538624    -0.000077007062    -0.000398249561    -0.089724433509    0.047121184175    -0.000099094906    -0.000273949213
            -0.000083162680    -0.000209335735    0.104594386039    0.039134938166    -0.000099094906    -0.000273949213    0.116842000027    0.060572876148
0.625     -0.063206726786    0.091965292182    -0.000109354560    -0.000258865392    -0.058541167170    0.075078609004    -0.000143027118    -0.000179750737
            -0.000109354560    -0.000258865392    0.136050770149    0.055889410870    -0.000194016193    -0.000392211510    0.119448089957    0.036671872574
            -0.058541167170    0.075078609004    -0.000194016193    -0.000392211510    -0.064884679649    0.090073036047    -0.000175615056    -0.000245500863
            -0.000143027118    -0.000179750737    0.119448089957    0.036671872574    -0.000175615056    -0.000245500863    0.136150914253    0.055327969273
0.650     -0.021544204755    0.118709677035    -0.000191530621    -0.000233457666    -0.026586185599    0.104152129610    -0.000189765189    -0.000131875163
            -0.000191530621    -0.000233457666    0.153380130547    0.042313574084    -0.000314821866    -0.000342480880    0.134032082324    0.027721229841
            -0.026586185599    0.104152129610    -0.000314821866    -0.000342480880    -0.023663878158    0.117383019792    -0.000240242090    -0.000193222914
            -0.000189765189    -0.000131875163    0.134032082324    0.027721229841    -0.000240242090    -0.000193222914    0.153146126520    0.042214656951
0.675     0.027474861028    0.124135982395    -0.000263893725    -0.000176136411    0.014921625563    0.116283872402    -0.000217350634    -0.000073407020
            -0.000263893725    -0.000176136411    0.164703685335    0.022660924296    -0.000418129530    -0.000248036529    0.145302997132    0.012989094348
            0.014921625563    0.116283872402    -0.000418129530    -0.000248036529    0.025050478810    0.123592071035    -0.000285678220    -0.000124369416
            -0.000217350634    -0.000073407020    0.145302997132    0.012989094348    -0.000285678220    -0.000124369416    0.164423005530    0.023152548972
0.700     0.073535138604    0.107407408924    -0.000312844788    -0.000094250521    0.057553319219    0.109106357717    -0.000225609013    -0.000013157165
            -0.000312844788    -0.000094250521    0.167939632986    0.000305030133    -0.000484941536    -0.000119508824    0.150919826674    -0.005520495244
            0.057553319219    0.109106357717    -0.000484941536    -0.000119508824    0.071174989366    0.107766009328    -0.000309343808    -0.000047492527
            -0.000225609013    -0.000013157165    0.150919826674    -0.005520495244    -0.000309343808    -0.000047492527    0.167932623583    0.001363642406
0.725     0.107272447419    0.072135789308    -0.000330577746    -0.000000448131    0.092833579381    0.083966372254    -0.000218194170    0.000042666707
            -0.000330577746    -0.000000448131    0.162772579918    -0.020844532960    -0.000504431798    0.000024480125    0.149665913899    -0.024946941406
            0.092833579381    0.083966372254    -0.000504431798    0.000024480125    0.105389826401    0.073315158194    -0.000312463208    0.000030271622
            -0.000218194170    0.000042666707    0.149665913899    -0.024946941406    -0.000312463208    0.000030271622    0.163319876000    -0.019396376492
0.750     0.121768528696    0.025486162624    -0.000316707016    0.000091165886    0.113555834801    0.045610003957    -0.000200046048    0.000091524383
            -0.000316707016    0.000091165886    0.150687351129    -0.037132250495    -0.000476627938    0.000163297194    0.141738237151    -0.042091864422
            0.113555834801    0.045610003957    -0.000476627938    0.000163297194    0.120713028114    0.027213709759    -0.000298104474    0.000104448793
            -0.000200046048    0.000091524383    0.141738237151    -0.042091864422    -0.000298104474    0.000104448793    0.151962695015    -0.035595438598
0.775     0.113713961173    -0.023020328894    -0.000277630743    0.000169217483    0.115005292639    0.001552421908    -0.000174991864    0.000134024506
            -0.000277630743    0.000169217483    0.134736789476    -0.045894880841    -0.000411250831    0.000280514841    0.128847339149    -0.054051214901
            0.115005292639    0.001552421908    -0.000411250831    0.000280514841    0.113688559948    -0.021165074356    -0.000269174755    0.000173112123
            -0.000174991864    0.000134024506    0.128847339149    -0.054051214901    -0.000269174755    0.000173112123    0.136751973407    -0.044637556519
