!$
! Info: Touchstone file created by Circ.  Input file=C2M_PCB_85ohms_4p0in_20230620_v3.circ
!$
# Hz S RI R 50
0	0.005973433	2.57308e-24	0.9939961	-2.340878e-24	0.0001441941	7.347691e-23	-0.0001404852	1.727529e-20
	0.9939961	-2.195967e-24	0.005792271	1.105024e-24	-0.000137817	1.694855e-20	-5.586509e-07	8.272602e-21
	0.0001441942	7.351124e-23	-0.000137817	1.694833e-20	0.005976791	3.073139e-24	0.9940095	-2.282566e-24
	-0.0001404851	1.727531e-20	-5.586727e-07	8.272676e-21	0.9940095	-2.299336e-24	0.005805645	1.567397e-24
1e+07	0.008204516	-0.002874495	0.9887026	-0.07360042	0.0004338283	0.00266156	-0.0002310873	-0.0005132935
	0.9887026	-0.07360042	0.007842638	-0.002706941	-0.0002290685	-0.0005138597	0.0002733155	0.002730769
	0.0004338283	0.00266156	-0.0002290685	-0.0005138597	0.008281442	-0.002872102	0.9886381	-0.07363143
	-0.0002310873	-0.0005132935	0.0002733156	0.002730769	0.9886381	-0.07363143	0.007920158	-0.002700094
2e+07	0.009760755	-0.007764892	0.9784932	-0.1445219	0.001149394	0.005180687	-0.0003424274	-0.0009640207
	0.9784932	-0.1445219	0.008779783	-0.007390956	-0.0003409401	-0.0009643579	0.0008290525	0.005300692
	0.001149429	0.005180596	-0.000340917	-0.0009644058	0.009819729	-0.007783491	0.978431	-0.1445489
	-0.0003424019	-0.0009640656	0.0008290719	0.00530069	0.978431	-0.1445489	0.008844772	-0.007402662
3e+07	0.01020037	-0.01356436	0.9638506	-0.213581	0.002265855	0.007516141	-0.0004861592	-0.001370564
	0.9638506	-0.213581	0.008153075	-0.01281004	-0.0004847845	-0.001370663	0.001646122	0.007730797
	0.002265844	0.007516132	-0.0004847926	-0.001370659	0.01024434	-0.01358569	0.9637889	-0.2136164
	-0.0004861685	-0.00137056	0.001646114	0.007730814	0.9637889	-0.2136164	0.008210446	-0.0128239
4e+07	0.009742595	-0.01961811	0.9446543	-0.281027	0.003752859	0.009643691	-0.0006588203	-0.001765736
	0.9446543	-0.281027	0.006231031	-0.01819831	-0.0006573659	-0.001765605	0.002712369	0.01004241
	0.00375286	0.009643694	-0.0006573674	-0.001765602	0.009773548	-0.01963646	0.9445911	-0.2810736
	-0.0006588214	-0.001765734	0.002712366	0.01004241	0.9445911	-0.2810736	0.006283645	-0.01821109
5e+07	0.008488853	-0.02571296	0.9209354	-0.3466714	0.005574904	0.01152213	-0.000859812	-0.002160918
	0.9209354	-0.3466714	0.00317959	-0.02325407	-0.0008581325	-0.002160632	0.004014443	0.01221997
	0.005574904	0.01152213	-0.0008581342	-0.002160631	0.008508283	-0.0257247	0.9208682	-0.346731
	-0.0008598138	-0.002160917	0.00401444	0.01221997	0.9208682	-0.346731	0.003229965	-0.02326449
6e+07	0.006503007	-0.03171561	0.8927958	-0.4102568	0.007697214	0.01310687	-0.001098106	-0.00255944
	0.8927958	-0.4102568	-0.0008655571	-0.0277713	-0.00109615	-0.002559132	0.005540487	0.014241
	0.007697213	0.01310687	-0.001096148	-0.002559131	0.006513048	-0.03171794	0.8927224	-0.4103305
	-0.001098104	-0.002559441	0.00554049	0.014241	0.8927224	-0.4103305	-0.0008158122	-0.02777916
7e+07	0.003837947	-0.03752266	0.8603765	-0.471509	0.01007756	0.01435775	-0.001382386	-0.002961525
	0.8603765	-0.471509	-0.005770602	-0.03158578	-0.001380175	-0.002961323	0.007272549	0.01608395
	0.01007756	0.01435775	-0.001380172	-0.002961325	0.003840546	-0.03751359	0.8602936	-0.4715969
	-0.001382384	-0.002961527	0.007272552	0.01608394	0.8602936	-0.4715969	-0.0057199	-0.03159096
8e+07	0.0005465453	-0.04304734	0.8238503	-0.530156	0.01266806	0.01524057	-0.001721424	-0.003364821
	0.8238503	-0.530156	-0.01139445	-0.0345625	-0.001718999	-0.003364798	0.009189107	0.01773016
	0.01266806	0.01524057	-0.001719	-0.003364796	0.0005438267	-0.04302538	0.823755	-0.5302579
	-0.001721426	-0.003364818	0.009189105	0.01773017	0.823755	-0.5302579	-0.01134148	-0.03456501
9e+07	-0.003314383	-0.04821585	0.7834123	-0.5859337	0.01541675	0.01572822	-0.002123955	-0.003764472
	0.7834123	-0.5859337	-0.01758633	-0.03659141	-0.002121375	-0.003764699	0.01126658	0.01916444
	0.01541675	0.01572822	-0.002121378	-0.00376469	-0.00331982	-0.04817974	0.7833023	-0.5860495
	-0.002123955	-0.003764462	0.01126658	0.01916445	0.7833023	-0.5860495	-0.01753013	-0.03659151
1e+08	-0.007680332	-0.05296653	0.7392795	-0.6385943	0.01826858	0.01580165	-0.002599	-0.004153862
	0.7392795	-0.6385943	-0.024187	-0.03758376	-0.002596356	-0.004154395	0.01348135	0.02037534
	0.01826858	0.01580165	-0.002596356	-0.004154395	-0.007684508	-0.05291502	0.7391499	-0.6387237
	-0.002599	-0.004153862	0.01348135	0.02037534	0.7391499	-0.6387237	-0.02412666	-0.03758058
1.1e+08	-0.01249715	-0.05725418	0.6916828	-0.6878854	0.02117041	0.01544451	-0.003156113	-0.004515234
	0.6916828	-0.6878854	-0.03099333	-0.03751081	-0.003152455	-0.004517455	0.01580683	0.02134747
	0.02117041	0.01544451	-0.003152455	-0.004517456	-0.01249593	-0.05718049	0.6915309	-0.6880218
	-0.003156112	-0.004515236	0.01580683	0.02134746	0.6915309	-0.6880218	-0.03085964	-0.03750052
1.2e+08	-0.01770882	-0.06103285	0.6408905	-0.7335947	0.02405746	0.01464991	-0.003791639	-0.004841459
	0.6408905	-0.7335947	-0.03788306	-0.03630988	-0.003788629	-0.004844779	0.01821166	0.02208107
	0.02405746	0.01464991	-0.003788629	-0.004844781	-0.01769904	-0.06094751	0.6407148	-0.7337372
	-0.003791639	-0.00484146	0.01821166	0.02208107	0.6407148	-0.7337372	-0.03772869	-0.036329
1.3e+08	-0.02324382	-0.06426356	0.5871696	-0.7755279	0.02687096	0.01342197	-0.004511014	-0.005119557
	0.5871696	-0.7755279	-0.04466516	-0.03397557	-0.004508963	-0.005123162	0.02067193	0.02257546
	0.02687096	0.01342197	-0.004508963	-0.005123164	-0.02322675	-0.06417155	0.5869665	-0.7756719
	-0.004511014	-0.005119558	0.02067194	0.02257546	0.5869665	-0.7756719	-0.04451748	-0.0340177
1.4e+08	-0.02902954	-0.0669195	0.5307972	-0.8135062	0.02955338	0.01177123	-0.00531511	-0.005333613
	0.5307972	-0.8135062	-0.05116202	-0.03053354	-0.005313822	-0.005337069	0.02316364	0.02283254
	0.02955338	0.01177123	-0.005313822	-0.00533707	-0.02900726	-0.06682237	0.5305668	-0.8136494
	-0.005315111	-0.005333614	0.02316364	0.02283253	0.5305668	-0.8136494	-0.05102819	-0.03058643
1.5e+08	-0.03499346	-0.06898578	0.4720653	-0.8473761	0.03204868	0.009715086	-0.006201208	-0.005466831
	0.4720653	-0.8473761	-0.05720778	-0.02603272	-0.00620043	-0.005470023	0.02566364	0.02285617
	0.03204868	0.009715086	-0.00620043	-0.005470023	-0.03496712	-0.06888319	0.4718067	-0.8475142
	-0.006201209	-0.005466832	0.02566364	0.02285617	0.4718067	-0.8475142	-0.0570854	-0.02608811
1.6e+08	-0.04106379	-0.07045781	0.4112703	-0.877002	0.0343035	0.007277643	-0.007163263	-0.005502255
	0.4112703	-0.877002	-0.06264685	-0.02054271	-0.00716286	-0.005505212	0.0281504	0.02265276
	0.0343035	0.007277644	-0.00716286	-0.005505212	-0.0410336	-0.07034893	0.4109834	-0.8771315
	-0.007163264	-0.005502255	0.0281504	0.02265276	0.4109834	-0.8771315	-0.06253088	-0.02059703
1.7e+08	-0.04717199	-0.0713406	0.3487172	-0.9022695	0.03626779	0.004489535	-0.008191811	-0.00542333
	0.3487172	-0.9022695	-0.06733575	-0.01415342	-0.008191718	-0.005426126	0.03060391	0.02223047
	0.03626779	0.004489535	-0.008191718	-0.005426126	-0.04713723	-0.07122471	0.3484025	-0.9023872
	-0.008191811	-0.00542333	0.03060391	0.02223047	0.3484025	-0.9023872	-0.06722142	-0.01420655
1.8e+08	-0.0532523	-0.07164751	0.2847148	-0.9230875	0.03789584	0.001387215	-0.009274323	-0.005214514
	0.2847148	-0.9230875	-0.07114506	-0.006972943	-0.009274579	-0.005217185	0.03300609	0.02159908
	0.03789584	0.001387215	-0.009274579	-0.005217185	-0.05321204	-0.07152433	0.284373	-0.9231912
	-0.009274324	-0.005214514	0.03300609	0.02159908	0.284373	-0.9231912	-0.07102898	-0.007026535
1.9e+08	-0.05924428	-0.07139946	0.2195757	-0.939386	0.03914687	-0.001987539	-0.01039512	-0.004861831
	0.2195757	-0.939386	-0.07396161	0.0008736113	-0.01039579	-0.004864384	0.03534082	0.02076988
	0.03914687	-0.001987539	-0.01039579	-0.004864384	-0.05919704	-0.07126924	0.2192068	-0.9394709
	-0.01039512	-0.004861831	0.03534082	0.02076988	0.2192068	-0.9394709	-0.07384138	0.0008170677
2e+08	-0.0650918	-0.07062393	0.1536117	-0.951115	0.03998494	-0.005588258	-0.01153572	-0.004353388
	0.1536117	-0.951115	-0.07569005	0.009247043	-0.01153689	-0.004355762	0.03759361	0.01975465
	0.03998494	-0.005588258	-0.01153689	-0.004355762	-0.06503649	-0.07048736	0.1532178	-0.9511788
	-0.01153572	-0.004353388	0.03759361	0.01975465	0.1532178	-0.9511788	-0.07556515	0.009184607
2.1e+08	-0.07074465	-0.0693543	0.08714018	-0.958246	0.04038027	-0.009364456	-0.01267513	-0.003679984
	0.08714018	-0.958246	-0.07625525	0.01799538	-0.01267685	-0.003682089	0.03975192	0.01856623
	0.04038027	-0.009364456	-0.01267685	-0.003682089	-0.07068029	-0.06921238	0.08672145	-0.958285
	-0.01267513	-0.003679984	0.03975192	0.01856623	0.08672145	-0.958285	-0.07612568	0.01792484
2.2e+08	-0.07615899	-0.06762849	0.02047284	-0.9607714	0.04030921	-0.01326243	-0.01379044	-0.002835535
	0.02047284	-0.9607714	-0.07560335	0.02695821	-0.01379273	-0.002837219	0.04180534	0.01721805
	0.04030921	-0.01326243	-0.01379273	-0.002837219	-0.07608483	-0.06748244	0.02003094	-0.9607835
	-0.01379044	-0.002835535	0.04180534	0.01721805	0.02003094	-0.9607835	-0.07547041	0.02687754
2.3e+08	-0.08129738	-0.06548812	-0.04607982	-0.9587045	0.03975421	-0.01722569	-0.014857	-0.001817417
	-0.04607982	-0.9587045	-0.0737031	0.03596876	-0.01485985	-0.00181853	0.04374418	0.01572308
	0.03975421	-0.01722569	-0.01485985	-0.00181853	-0.08121294	-0.06533937	-0.04654223	-0.9586867
	-0.014857	-0.001817417	0.04374418	0.01572308	-0.04654223	-0.9586867	-0.07356818	0.03587649
2.4e+08	-0.0861289	-0.06297809	-0.1122068	-0.9520749	0.03870476	-0.02119605	-0.0158494	-0.000626806
	-0.1122068	-0.9520749	-0.07054553	0.04485642	-0.01585274	-0.0006272084	0.04556119	0.01409527
	0.03870476	-0.02119605	-0.01585274	-0.0006272085	-0.08603403	-0.06282799	-0.1126887	-0.9520236
	-0.0158494	-0.000626806	0.04556119	0.01409527	-0.1126887	-0.9520236	-0.07040997	0.04475188
2.5e+08	-0.09063001	-0.06014442	-0.1776066	-0.9409361	0.03715694	-0.02511423	-0.01674184	0.0007311562
	-0.1776066	-0.9409361	-0.06614517	0.05345185	-0.01674558	0.0007316412	0.04725038	0.01234813
	0.03715694	-0.02511423	-0.01674558	0.0007316412	-0.09052461	-0.05999451	-0.1781056	-0.9408485
	-0.01674184	0.0007311561	0.04725038	0.01234813	-0.1781056	-0.9408485	-0.06601068	0.05333462
2.6e+08	-0.09478376	-0.05703443	-0.2419781	-0.9253573	0.03511397	-0.02892073	-0.01750916	0.002247306
	-0.2419781	-0.9253573	-0.06053954	0.06158737	-0.01751317	0.002248784	0.04880702	0.01049521
	0.03511397	-0.02892073	-0.01751317	0.002248784	-0.09466815	-0.05688609	-0.2424907	-0.9252318
	-0.01750916	0.002247306	0.04880702	0.01049521	-0.2424907	-0.9252318	-0.0604077	0.0614576
2.7e+08	-0.0985798	-0.05369516	-0.3050294	-0.9054281	0.03258548	-0.03255619	-0.01812688	0.00390855
	-0.3050294	-0.9054281	-0.05378777	0.06910251	-0.0181309	0.003911087	0.05022776	0.008549748
	0.03258548	-0.03255619	-0.0181309	0.003911087	-0.09845432	-0.05354978	-0.3055543	-0.9052612
	-0.01812688	0.00390855	0.05022776	0.008549748	-0.3055543	-0.9052612	-0.05365954	0.06896069
2.8e+08	-0.1020147	-0.05017232	-0.3664741	-0.8812544	0.02958825	-0.03596274	-0.01857243	0.005697945
	-0.3664741	-0.8812544	-0.04597024	0.07584488	-0.01857638	0.005701659	0.0515109	0.006525089
	0.02958825	-0.03596274	-0.01857638	0.005701659	-0.1018799	-0.0500314	-0.3670063	-0.8810442
	-0.01857243	0.005697945	0.0515109	0.006525089	-0.3670063	-0.8810442	-0.04584677	0.07569132
2.9e+08	-0.1050906	-0.04650982	-0.426033	-0.8529619	0.02614545	-0.03908394	-0.01882527	0.007594975
	-0.426033	-0.8529619	-0.03718762	0.08167403	-0.01882894	0.007599859	0.05265511	0.004433705
	0.02614545	-0.03908394	-0.01882894	0.007599859	-0.1049475	-0.04637444	-0.4265701	-0.8527072
	-0.01882527	0.007594975	0.05265511	0.004433705	-0.4265701	-0.8527072	-0.03706984	0.08150959
3e+08	-0.1078156	-0.04274876	-0.483438	-0.820693	0.02228679	-0.04186634	-0.01886837	0.009576148
	-0.483438	-0.820693	-0.02755801	0.08646387	-0.01887148	0.009582175	0.05366115	0.002288197
	0.02228679	-0.04186634	-0.01887148	0.009582175	-0.107665	-0.0426203	-0.483976	-0.820391
	-0.01886837	0.009576148	0.05366115	0.002288197	-0.483976	-0.820391	-0.02744639	0.08628898
3.1e+08	-0.1102025	-0.0389268	-0.5384276	-0.7846046	0.01804806	-0.04425961	-0.01868734	0.01161507
	-0.5384276	-0.7846046	-0.01721544	0.09010381	-0.01868972	0.01162218	0.0545305	0.0001005024
	0.01804806	-0.04425961	-0.01868972	0.01162218	-0.1100457	-0.03880649	-0.5389621	-0.7842533
	-0.01868734	0.01161507	0.0545305	0.0001005023	-0.5389621	-0.7842533	-0.01711017	0.08991893
3.2e+08	-0.1122685	-0.03507768	-0.5907541	-0.7448712	0.01347079	-0.04621733	-0.01827206	0.01368339
	-0.5907541	-0.7448712	-0.006307411	0.09250222	-0.0182736	0.01369158	0.05526602	-0.002118053
	0.01347079	-0.04621733	-0.0182736	0.01369158	-0.112107	-0.03496636	-0.5912796	-0.7444712
	-0.01827206	0.01368339	0.05526602	-0.002118053	-0.5912796	-0.7444712	-0.006209628	0.09230784
3.3e+08	-0.1140345	-0.03123032	-0.6401773	-0.701687	0.008601847	-0.04769765	-0.01761625	0.0157511
	-0.6401773	-0.701687	0.00500594	0.09358728	-0.01761671	0.0157602	0.05587158	-0.004356846
	0.008601847	-0.04769765	-0.01761671	0.0157602	-0.1138696	-0.03112887	-0.6406914	-0.7012355
	-0.01761625	0.0157511	0.05587158	-0.004356846	-0.6406914	-0.7012355	0.005096644	0.09338393
3.4e+08	-0.1155237	-0.02740905	-0.6864746	-0.6552547	0.003492923	-0.04866403	-0.01671821	0.01778753
	-0.6864746	-0.6552547	0.01655805	0.09330817	-0.01671742	0.01779744	0.05635244	-0.006606081
	0.003492922	-0.04866403	-0.01671742	0.01779744	-0.1153573	-0.02731806	-0.6869716	-0.6547532
	-0.01671821	0.01778753	0.05635244	-0.006606081	-0.6869716	-0.6547532	0.01664081	0.0930964
3.5e+08	-0.1167616	-0.0236327	-0.7294333	-0.605797	-0.001799813	-0.04908538	-0.01558037	0.01976161
	-0.7294333	-0.605797	0.0281751	0.09163659	-0.0155783	0.01977224	0.05671429	-0.008856971
	-0.001799813	-0.04908538	-0.0155783	0.01977224	-0.1165954	-0.02355263	-0.7299093	-0.6052452
	-0.01558037	0.01976161	0.05671429	-0.008856971	-0.7299093	-0.6052452	0.02824995	0.09141689
3.6e+08	-0.1177747	-0.01991477	-0.7688565	-0.5535503	-0.007216786	-0.04893707	-0.01420989	0.02164301
	-0.7688565	-0.5535503	0.03968111	0.08856715	-0.01420633	0.02165416	0.05696443	-0.01110192
	-0.007216786	-0.04893707	-0.01420633	0.02165416	-0.1176106	-0.01984573	-0.7693054	-0.5529485
	-0.01420989	0.02164301	0.05696443	-0.01110192	-0.7693054	-0.5529485	0.03974743	0.0883397
3.7e+08	-0.1185893	-0.01626391	-0.8045634	-0.4987599	-0.01269534	-0.04820089	-0.01261781	0.02340249
	-0.8045634	-0.4987599	0.05090112	0.08411673	-0.01261268	0.02341399	0.05711045	-0.01333471
	-0.01269534	-0.04820089	-0.01261268	0.02341399	-0.1184294	-0.01620579	-0.8049818	-0.4981092
	-0.01261781	0.02340249	0.05711045	-0.01333471	-0.8049818	-0.4981092	0.05095885	0.08388221
3.8e+08	-0.1192314	-0.01268294	-0.8363883	-0.4416892	-0.01817059	-0.04686583	-0.01081948	0.02501271
	-0.8363883	-0.4416892	0.06166237	0.07832574	-0.0108127	0.02502439	0.05716079	-0.01555051
	-0.01817059	-0.04686583	-0.0108127	0.02502439	-0.1190777	-0.01263524	-0.83677	-0.4409911
	-0.01081948	0.02501271	0.05716079	-0.01555051	-0.83677	-0.4409911	0.06171097	0.07808442
3.9e+08	-0.1197253	-0.009170423	-0.8641866	-0.3826076	-0.02357617	-0.04492805	-0.008833701	0.02644884
	-0.8641866	-0.3826076	0.07180001	0.07125632	-0.008825187	0.02646042	0.05712421	-0.01774624
	-0.02357617	-0.04492805	-0.008825187	0.02646042	-0.1195797	-0.009132419	-0.8645274	-0.3818635
	-0.008833701	0.02644884	0.05712421	-0.01774624	-0.8645274	-0.3818635	0.07183944	0.07100866
4e+08	-0.1200928	-0.005719621	-0.8878291	-0.3217985	-0.02884512	-0.04239112	-0.006682641	0.02768903
	-0.8878291	-0.3217985	0.08115735	0.06299191	-0.006672353	0.02770034	0.05700969	-0.01992066
	-0.02884512	-0.04239112	-0.006672353	0.02770034	-0.1199573	-0.005690301	-0.8881244	-0.3210108
	-0.006682641	0.02768903	0.05700969	-0.01992066	-0.8881244	-0.3210108	0.08118738	0.06273837
4.1e+08	-0.1203527	-0.00232005	-0.9072086	-0.2595532	-0.03391055	-0.03926621	-0.00439105	0.02871473
	-0.9072086	-0.2595532	0.08959035	0.05363584	-0.004379042	0.02872565	0.05682576	-0.02207401
	-0.03391055	-0.03926621	-0.004379042	0.02872565	-0.1202291	-0.002298059	-0.9074533	-0.2587255
	-0.00439105	0.02871473	0.05682576	-0.02207401	-0.9074533	-0.2587255	0.08961055	0.05337708
4.2e+08	-0.1205203	0.00104194	-0.9222356	-0.1961687	-0.03870699	-0.03557179	-0.001985757	0.02951142
	-0.9222356	-0.1961687	0.09696917	0.0433086	-0.001971999	0.02952169	0.0565807	-0.0242085
	-0.03870699	-0.03557179	-0.001971999	0.02952169	-0.1204102	0.001058368	-0.9224258	-0.1953036
	-0.001985757	0.02951142	0.0565807	-0.0242085	-0.9224258	-0.1953036	0.09697971	0.043045
4.3e+08	-0.1206063	0.004383287	-0.9328442	-0.1319497	-0.04317077	-0.03133403	0.0005049647	0.03006847
	-0.9328442	-0.1319497	0.1031816	0.03214715	0.0005204676	0.0300778	0.05628172	-0.02632811
	-0.04317077	-0.03133403	0.0005204676	0.0300778	-0.1205111	0.004395999	-0.9329763	-0.1310523
	0.0005049647	0.03006847	0.05628172	-0.02632811	-0.9329763	-0.1310523	0.1031822	0.03187969
4.4e+08	-0.1206167	0.007722649	-0.9389902	-0.06720498	-0.04724101	-0.02658604	0.003052142	0.03037924
	-0.9389902	-0.06720498	0.1081339	0.02030191	0.003069262	0.03038765	0.05593517	-0.02843857
	-0.04724101	-0.02658604	0.003069262	0.03038765	-0.1205376	0.007733872	-0.9390587	-0.06627881
	0.003052142	0.03037924	0.05593517	-0.02843857	-0.9390587	-0.06627881	0.1081243	0.02003066
4.5e+08	-0.1205526	0.01108004	-0.9406504	-0.002246436	-0.05086048	-0.0213676	0.005626645	0.03044143
	-0.9406504	-0.002246436	0.1117528	0.007933445	0.005645341	0.03044865	0.05554559	-0.03054668
	-0.05086048	-0.0213676	0.005645341	0.03044865	-0.1204904	0.011092	-0.9406528	-0.001296497
	0.005626645	0.03044143	0.05554559	-0.03054668	-0.9406528	-0.001296497	0.1117332	0.007659265
4.6e+08	-0.1204098	0.01447526	-0.9378225	0.06261526	-0.05397628	-0.01572527	0.008199943	0.03025674
	-0.9378225	0.06261526	0.1139867	-0.004789658	0.008220112	0.03026263	0.05511604	-0.03266082
	-0.05397628	-0.01572527	0.008220112	0.03026263	-0.1203651	0.0144907	-0.9377548	0.06358412
	0.008199943	0.03025674	0.05511604	-0.03266082	-0.9377548	0.06358412	0.113957	-0.005066609
4.7e+08	-0.1201787	0.01792792	-0.9305288	0.1270676	-0.05654087	-0.009710989	0.01074463	0.02983058
	-0.9305288	0.1270676	0.1148066	-0.01769409	0.01076619	0.02983488	0.05464719	-0.03478969
	-0.05654087	-0.009710989	0.01076619	0.02983488	-0.1201516	0.01794925	-0.9303905	0.1280507
	0.01074463	0.02983058	0.05464719	-0.03478969	-0.9303905	0.1280507	0.1147673	-0.01797309
4.8e+08	-0.1198445	0.02145573	-0.9188142	0.1908009	-0.05851225	-0.00338219	0.01323508	0.02917173
	-0.9188142	0.1908009	0.1142066	-0.03060404	0.01325793	0.02917432	0.05413779	-0.03694294
	-0.05851225	-0.00338219	0.01325793	0.02917432	-0.1198348	0.021486	-0.9186011	0.1917918
	0.01323508	0.02917173	0.05413779	-0.03694294	-0.9186011	0.1917918	0.1141574	-0.03088483
4.9e+08	-0.1193876	0.02507362	-0.9027459	0.2535129	-0.05985496	0.003199224	0.01564791	0.02829244
	-0.9027459	0.2535129	0.1122043	-0.04334654	0.01567193	0.02829319	0.05358419	-0.03912999
	-0.05985496	0.003199224	0.01567193	0.02829319	-0.1193947	0.02511541	-0.9024562	0.2545057
	0.01564791	0.02829244	0.05358419	-0.03912999	-0.9024562	0.2545057	0.1121454	-0.04362855
5e+08	-0.1187838	0.02879357	-0.8824082	0.3149027	-0.06054005	0.009967839	0.01796234	0.02720707
	-0.8824082	0.3149027	0.1088379	-0.05575212	0.01798736	0.02720586	0.0529802	-0.04136028
	-0.06054005	0.009967839	0.01798736	0.02720586	-0.1188067	0.02884952	-0.8820418	0.3158923
	0.01796234	0.02720707	0.0529802	-0.04136028	-0.8820418	0.3158923	0.1087699	-0.05603507
5.1e+08	-0.1180049	0.03262265	-0.8579113	0.3746829	-0.06054596	0.01685503	0.02016049	0.02593216
	-0.8579113	0.3746829	0.1041693	-0.06765936	0.02018641	0.02592889	0.05231738	-0.04364182
	-0.06054596	0.01685503	0.02018641	0.02592889	-0.1180421	0.03269546	-0.8574666	0.375662
	0.02016049	0.02593216	0.05231738	-0.04364182	-0.8574666	0.375662	0.104092	-0.06794291
5.2e+08	-0.1170197	0.03656345	-0.8293835	0.4325706	-0.05985873	0.02379021	0.02222761	0.02448584
	-0.8293835	0.4325706	0.09827898	-0.07891695	0.02225429	0.02448031	0.05158536	-0.04598201
