!$
! Info: Touchstone file created by Circ.  Input file=C2M_PCB_85ohms_5p0in_20230620_v3.circ
!$
# Hz S RI R 50
0	0.006767154	2.848232e-24	0.9932024	-2.633316e-24	0.000149391	7.836303e-23	-0.000145685	1.792587e-20
	0.9932024	-2.488514e-24	0.006585943	1.409504e-24	-0.0001430188	1.759935e-20	4.646105e-06	8.294624e-21
	0.0001493911	7.83973e-23	-0.0001430188	1.759914e-20	0.006770507	3.336705e-24	0.9932158	-2.552384e-24
	-0.0001456849	1.79259e-20	4.646083e-06	8.294698e-21	0.9932158	-2.569144e-24	0.006599339	1.846067e-24
1e+07	0.00923915	-0.003905532	0.98671	-0.08406426	0.0005017845	0.002817289	-0.0002428149	-0.0004959214
	0.98671	-0.08406426	0.008809302	-0.003711987	-0.0002408014	-0.0004965041	0.0003115354	0.002894217
	0.0005017845	0.002817289	-0.0002408014	-0.0004965041	0.009319155	-0.003903262	0.9866421	-0.08409412
	-0.0002428149	-0.0004959214	0.0003115355	0.002894217	0.9866421	-0.08409412	0.008890122	-0.003704149
2e+07	0.01078539	-0.01012725	0.9737336	-0.1648798	0.001380162	0.00545148	-0.0003557773	-0.0009246788
	0.9737336	-0.1648798	0.009546546	-0.009652607	-0.0003542844	-0.0009250439	0.0009460209	0.005608211
	0.001380193	0.005451389	-0.0003542625	-0.0009250925	0.01084583	-0.01014644	0.9736687	-0.1649035
	-0.0003557529	-0.0009247242	0.0009460401	0.005608209	0.9736687	-0.1649035	0.009614499	-0.009663355
3e+07	0.01084639	-0.01736087	0.9549173	-0.2432569	0.002745653	0.007838541	-0.0004969577	-0.001312249
	0.9549173	-0.2432569	0.008246191	-0.01633957	-0.0004955597	-0.001312399	0.001883646	0.008156495
	0.002745641	0.007838533	-0.0004955677	-0.001312395	0.01089061	-0.01738195	0.9548532	-0.2432876
	-0.000496967	-0.001312246	0.001883638	0.008156512	0.9548532	-0.2432876	0.008306757	-0.01635183
4e+07	0.009682253	-0.02480848	0.9301694	-0.3193723	0.004551259	0.009931399	-0.0006662805	-0.001695354
	0.9301694	-0.3193723	0.005245161	-0.0228266	-0.0006647832	-0.00169531	0.003105757	0.01055185
	0.00455126	0.009931401	-0.0006647846	-0.001695308	0.009712634	-0.02482513	0.9301037	-0.3194131
	-0.0006662815	-0.001695351	0.003105754	0.01055185	0.9301037	-0.3194131	0.005301611	-0.0228372
5e+07	0.007421995	-0.03218626	0.8995883	-0.392901	0.006740235	0.01166965	-0.0008678136	-0.002087641
	0.8995883	-0.392901	0.0007732359	-0.02870995	-0.0008660788	-0.002087499	0.004590498	0.01277132
	0.006740235	0.01166965	-0.0008660805	-0.002087498	0.007440536	-0.03219444	0.8995185	-0.3929536
	-0.0008678154	-0.00208764	0.004590495	0.01277132	0.8995185	-0.3929536	0.000828393	-0.02871779
6e+07	0.004159161	-0.03930572	0.8633662	-0.4634459	0.009252307	0.01299357	-0.001115961	-0.002492569
	0.8633662	-0.4634459	-0.00496046	-0.03370561	-0.001113955	-0.002492474	0.006316085	0.01478706
	0.009252307	0.01299357	-0.001113952	-0.002492474	0.004168595	-0.03930243	0.8632895	-0.4635113
	-0.00111596	-0.00249257	0.006316089	0.01478706	0.8632895	-0.4635113	-0.004904785	-0.03371078
7e+07	-1.883158e-05	-0.04601741	0.8217514	-0.5306001	0.01201666	0.01385313	-0.001425112	-0.002908397
	0.8217514	-0.5306001	-0.01173846	-0.03759057	-0.001422877	-0.002908482	0.008253753	0.01657437
	0.01201666	0.01385313	-0.001422875	-0.002908484	-1.592412e-05	-0.04600058	0.8216645	-0.5306782
	-0.00142511	-0.002908399	0.008253756	0.01657437	0.8216645	-0.5306782	-0.01168057	-0.03759329
8e+07	-0.005019537	-0.0521966	0.7750393	-0.5939699	0.01495483	0.01421015	-0.001809391	-0.003328672
	0.7750393	-0.5939699	-0.01932778	-0.04018995	-0.001806993	-0.003329009	0.01037083	0.01811386
	0.01495483	0.01421015	-0.001806994	-0.003329007	-0.005020386	-0.05216486	0.774939	-0.5940601
	-0.001809392	-0.00332867	0.01037083	0.01811386	0.774939	-0.5940601	-0.01926635	-0.04019057
9e+07	-0.01074235	-0.05773971	0.7235601	-0.6531825	0.01798345	0.01403968	-0.002281919	-0.003742437
	0.7235601	-0.6531825	-0.02748035	-0.04137308	-0.002279441	-0.003743084	0.01263281	0.01939191
	0.01798345	0.01403968	-0.002279443	-0.003743075	-0.0107437	-0.05769214	0.7234438	-0.6532846
	-0.002281919	-0.003742428	0.01263281	0.01939192	0.7234438	-0.6532846	-0.02741448	-0.04137218
1e+08	-0.01707612	-0.06256474	0.6676765	-0.7078968	0.02101655	0.01333137	-0.002854824	-0.004135384
	0.6676765	-0.7078968	-0.03593794	-0.04105015	-0.002852377	-0.004136374	0.01500616	0.02040089
	0.02101655	0.01333137	-0.002852377	-0.004136375	-0.01707334	-0.06250085	0.667539	-0.7080098
	-0.002854823	-0.004135385	0.01500616	0.02040088	0.667539	-0.7080098	-0.03586683	-0.0410471
1.1e+08	-0.0239221	-0.06661015	0.607776	-0.7577846	0.023972	0.01208144	-0.003538113	-0.004478522
	0.607776	-0.7577846	-0.04439708	-0.03920947	-0.003534932	-0.004481298	0.0174545	0.02112931
	0.023972	0.01208144	-0.003534932	-0.0044813	-0.02390903	-0.06652448	0.6076151	-0.7579015
	-0.003538113	-0.004478523	0.0174545	0.0211293	0.6076151	-0.7579015	-0.04425163	-0.03920094
1.2e+08	-0.03117135	-0.06982038	0.5442845	-0.8025741	0.02675556	0.01030365	-0.004324769	-0.004756262
	0.5442845	-0.8025741	-0.05264128	-0.03582856	-0.004322451	-0.004760049	0.01993749	0.02158655
	0.02675556	0.01030365	-0.004322451	-0.004760051	-0.03114675	-0.0697243	0.5440984	-0.8026932
	-0.004324769	-0.004756264	0.01993749	0.02158655	0.5440984	-0.8026932	-0.05247453	-0.0358513
1.3e+08	-0.03870184	-0.0721594	0.4776335	-0.8420271	0.02928475	0.008028035	-0.005215865	-0.004945912
	0.4776335	-0.8420271	-0.06039493	-0.03095763	-0.005214627	-0.004949839	0.02242561	0.0217808
	0.02928475	0.008028036	-0.005214627	-0.004949841	-0.03866795	-0.07205782	0.4774192	-0.842143
	-0.005215865	-0.004945913	0.02242561	0.0217808	0.4774192	-0.842143	-0.06023454	-0.0310054
1.4e+08	-0.04639249	-0.07361054	0.4082674	-0.8759381	0.03148242	0.005295197	-0.006204765	-0.005022402
	0.4082674	-0.8759381	-0.06740642	-0.02469361	-0.006204355	-0.005026032	0.02489075	0.02172352
	0.03148242	0.005295197	-0.006204356	-0.005026033	-0.04635165	-0.0735047	0.4080252	-0.8760479
	-0.006204766	-0.005022403	0.02489075	0.02172352	0.4080252	-0.8760479	-0.06725996	-0.02475428
1.5e+08	-0.05412559	-0.07417594	0.3366452	-0.9041439	0.03327785	0.002156445	-0.00727855	-0.004961195
	0.3366452	-0.9041439	-0.07344974	-0.01717008	-0.007278691	-0.004964417	0.02730746	0.02142852
	0.03327785	0.002156445	-0.007278691	-0.004964417	-0.05407874	-0.07406544	0.3363749	-0.9042427
	-0.007278551	-0.004961195	0.02730746	0.02142851	0.3363749	-0.9042427	-0.07331516	-0.01723547
1.6e+08	-0.06178826	-0.07387448	0.2632299	-0.9265151	0.03460858	-0.001327268	-0.008418627	-0.004739669
	0.2632299	-0.9265151	-0.07832481	-0.008552111	-0.00841917	-0.004742502	0.02965365	0.02091215
	0.03460858	-0.001327268	-0.00841917	-0.004742502	-0.06173526	-0.07375868	0.2629321	-0.9265989
	-0.008418627	-0.004739669	0.02965365	0.02091215	0.2629321	-0.9265989	-0.07819749	-0.008618655
1.7e+08	-0.06927572	-0.07273969	0.1884905	-0.942959	0.03542145	-0.005086366	-0.009601097	-0.004338299
	0.1884905	-0.942959	-0.08186131	0.0009669821	-0.009601962	-0.004340799	0.03191036	0.02019233
	0.03542145	-0.005086366	-0.009601962	-0.004340799	-0.06921558	-0.07261838	0.1881665	-0.9430242
	-0.009601097	-0.0043383	0.03191036	0.02019233	0.1881665	-0.9430242	-0.08173689	0.0008994905
1.8e+08	-0.07649141	-0.07081804	0.1128963	-0.9534212	0.03567394	-0.009044404	-0.01079772	-0.003741699
	0.1128963	-0.9534212	-0.08392162	0.01117108	-0.01079892	-0.003743873	0.03406207	0.01928811
	0.03567394	-0.009044404	-0.01079892	-0.003743873	-0.07642307	-0.07069153	0.1125472	-0.9534652
	-0.01079772	-0.003741699	0.03406207	0.01928811	0.1125472	-0.9534652	-0.08379714	0.01110119
1.9e+08	-0.0833498	-0.0681666	0.03691537	-0.9578821	0.03533482	-0.01311953	-0.01197654	-0.002939551
	0.03691537	-0.9578821	-0.0844037	0.02182561	-0.01197809	-0.002941383	0.03609651	0.01821937
	0.03533482	-0.01311953	-0.01197809	-0.002941383	-0.08327191	-0.06803594	0.03654243	-0.9578998
	-0.01197654	-0.002939551	0.03609651	0.01821937	0.03654243	-0.9578998	-0.08427705	0.021751
2e+08	-0.08977577	-0.06485154	-0.03899005	-0.9563555	0.03438418	-0.01722582	-0.01310298	-0.001927286
	-0.03899005	-0.9563555	-0.08324253	0.03268371	-0.01310491	-0.001928695	0.03800411	0.01700577
	0.03438418	-0.01722582	-0.01310491	-0.001928696	-0.08968755	-0.06471815	-0.03938387	-0.9563444
	-0.01310298	-0.001927286	0.03800411	0.01700577	-0.03938387	-0.9563444	-0.08311357	0.03260176
2.1e+08	-0.09570631	-0.06094623	-0.1143586	-0.9488899	0.03281457	-0.02127523	-0.01414096	-0.0007067189
	-0.1143586	-0.9488899	-0.08041247	0.04349086	-0.01414326	-0.0007076147	0.03977825	0.01566724
	0.03281457	-0.02127523	-0.01414326	-0.0007076148	-0.09560727	-0.06081174	-0.1147721	-0.9488459
	-0.01414096	-0.000706719	0.03977825	0.01566724	-0.1147721	-0.9488459	-0.08028141	0.04339969
2.2e+08	-0.1010908	-0.0565288	-0.188742	-0.935566	0.03063066	-0.02517912	-0.01505434	0.0007137549
	-0.188742	-0.935566	-0.07592678	0.05399245	-0.01505695	0.000713507	0.04141523	0.01422343
	0.03063066	-0.02517912	-0.01505695	0.0007135069	-0.1009808	-0.05639502	-0.1891723	-0.9354869
	-0.01505434	0.0007137548	0.04141523	0.01422343	-0.1891723	-0.9354869	-0.07579513	0.05389044
2.3e+08	-0.1058907	-0.05168056	-0.2617005	-0.9164965	0.02784911	-0.02884945	-0.01580784	0.002319075
	-0.2617005	-0.9164965	-0.06983784	0.06393869	-0.01581067	0.002319589	0.04291277	0.01269274
	0.02784911	-0.02884945	-0.01581067	0.002319588	-0.1057701	-0.05154936	-0.262144	-0.9163796
	-0.01580784	0.002319075	0.04291277	0.01269274	-0.262144	-0.9163796	-0.06970719	0.06382481
2.4e+08	-0.1100801	-0.04648472	-0.332802	-0.8918224	0.02449879	-0.03220092	-0.0163687	0.004087782
	-0.332802	-0.8918224	-0.06223502	0.07308972	-0.01637162	0.00408914	0.04427179	0.0110937
	0.02449879	-0.03220092	-0.01637162	0.00408914	-0.1099496	-0.04635772	-0.3332558	-0.8916639
	-0.0163687	0.004087782	0.04427179	0.0110937	-0.3332558	-0.8916639	-0.06210672	0.07296367
2.5e+08	-0.1136449	-0.04102314	-0.401633	-0.8617173	0.02061991	-0.03515216	-0.01670769	0.005992475
	-0.401633	-0.8617173	-0.05324308	0.08122343	-0.01671052	0.005994774	0.04549506	0.00944353
	0.02061991	-0.03515216	-0.01671052	0.005994774	-0.1135053	-0.04090209	-0.4020935	-0.8615148
	-0.01670769	0.005992475	0.04549506	0.00944353	-0.4020935	-0.8615148	-0.05311886	0.08108522
2.6e+08	-0.1165825	-0.03537614	-0.4677898	-0.8263813	0.01626386	-0.03762747	-0.01680053	0.008000622
	-0.4677898	-0.8263813	-0.04301957	0.08813748	-0.01680312	0.008003878	0.04658731	0.007758553
	0.01626386	-0.03762747	-0.01680312	0.008003878	-0.1164352	-0.03526239	-0.4682522	-0.8261339
	-0.01680053	0.008000622	0.04658731	0.007758553	-0.4682522	-0.8261339	-0.042901	0.08798778
2.7e+08	-0.1189007	-0.02962025	-0.530888	-0.7860436	0.011492	-0.0395575	-0.01662822	0.01007537
	-0.530888	-0.7860436	-0.03175	0.09365663	-0.01663031	0.01007952	0.04755527	0.006053759
	0.011492	-0.0395575	-0.01663031	0.01007952	-0.118747	-0.02951507	-0.5313493	-0.785748
	-0.01662822	0.01007537	0.04755527	0.006053759	-0.5313493	-0.785748	-0.03163782	0.09349624
2.8e+08	-0.1206173	-0.02382647	-0.5905591	-0.7409584	0.006375191	-0.04088153	-0.01617842	0.01217675
	-0.5905591	-0.7409584	-0.01964455	0.0976346	-0.01617987	0.01218181	0.04840803	0.004343018
	0.00637519	-0.04088153	-0.01617987	0.01218181	-0.1204589	-0.02373103	-0.5910127	-0.7406142
	-0.01617842	0.01217675	0.04840803	0.004343018	-0.5910127	-0.7406142	-0.01953985	0.0974643
2.9e+08	-0.121758	-0.01805978	-0.6464541	-0.6914083	0.0009926346	-0.04154765	-0.01544538	0.01426271
	-0.6464541	-0.6914083	-0.006933584	0.0999587	-0.01544604	0.01426857	0.04915555	0.002637965
	0.0009926346	-0.04154765	-0.01544604	0.01426857	-0.1215966	-0.01797465	-0.6468964	-0.691015
	-0.01544538	0.01426271	0.04915555	0.002637965	-0.6468964	-0.691015	-0.006836987	0.09977972
3e+08	-0.1223556	-0.01237775	-0.6982468	-0.6376993	-0.004569434	-0.04151473	-0.01443113	0.016291
	-0.6982468	-0.6376993	0.00613879	0.1005521	-0.01443078	0.01629748	0.0498104	0.0009487231
	-0.004569434	-0.04151473	-0.01443078	0.01629748	-0.1221933	-0.01230366	-0.6986721	-0.6372557
	-0.01443113	0.016291	0.0498104	0.000948723	-0.6986721	-0.6372557	0.006227053	0.1003652
3.1e+08	-0.1224488	-0.006829881	-0.7456305	-0.5801601	-0.01021895	-0.04075287	-0.01314423	0.01821966
	-0.7456305	-0.5801601	0.01931944	0.0993745	-0.01314276	0.01822661	0.05038612	-0.0007170651
	-0.01021895	-0.04075287	-0.01314276	0.01822661	-0.1222877	-0.006767161	-0.7460328	-0.5796658
	-0.01314423	0.01821966	0.05038612	-0.0007170652	-0.7460328	-0.5796658	0.01939942	0.09918038
3.2e+08	-0.12208	-0.001457298	-0.7883262	-0.5191414	-0.01585951	-0.03924421	-0.01160054	0.02000912
	-0.7883262	-0.5191414	0.0323525	0.09642463	-0.01159791	0.02001646	0.05089762	-0.002354461
	-0.01585951	-0.03924421	-0.01159791	0.02001646	-0.1219223	-0.001405688	-0.7886993	-0.5185994
	-0.01160054	0.02000912	0.05089762	-0.002354461	-0.7886993	-0.5185994	0.03242344	0.09622425
3.3e+08	-0.1212942	0.003708058	-0.8260787	-0.4550204	-0.02139193	-0.03698365	-0.009822089	0.02162293
	-0.8260787	-0.4550204	0.04498341	0.09173987	-0.009818215	0.02163041	0.05136042	-0.003961452
	-0.02139193	-0.03698365	-0.009818215	0.02163041	-0.121142	0.003748872	-0.8264185	-0.4544295
	-0.009822089	0.02162293	0.05136042	-0.003961452	-0.8264185	-0.4544295	0.04504609	0.09153374
3.4e+08	-0.1201372	0.008642609	-0.8586634	-0.3881852	-0.02671605	-0.03397934	-0.007836731	0.02302933
	-0.8586634	-0.3881852	0.05696804	0.08539418	-0.007831558	0.02303679	0.05179062	-0.00553921
	-0.02671605	-0.03397934	-0.007831558	0.02303679	-0.1199929	0.008673489	-0.8589639	-0.3875494
	-0.007836731	0.02302933	0.05179062	-0.00553921	-0.8589639	-0.3875494	0.05702207	0.08518321
3.5e+08	-0.1186543	0.01333163	-0.8858843	-0.3190475	-0.03173204	-0.03025268	-0.005676797	0.02420167
	-0.8858843	-0.3190475	0.0680749	0.07749819	-0.005670393	0.02420902	0.05220345	-0.007092265
	-0.03173204	-0.03025268	-0.005670393	0.02420902	-0.1185198	0.01335364	-0.8861407	-0.3183687
	-0.005676797	0.02420167	0.05220345	-0.007092265	-0.8861407	-0.3183687	0.06812075	0.07728292
3.6e+08	-0.1168882	0.01776832	-0.9075776	-0.2480336	-0.03634285	-0.02583842	-0.003378314	0.02511969
	-0.9075776	-0.2480336	0.07809248	0.06819578	-0.003370641	0.0251267	0.05261385	-0.008628611
	-0.03634285	-0.02583842	-0.003370641	0.0251267	-0.1167656	0.01778309	-0.9077836	-0.2473154
	-0.003378314	0.02511968	0.05261385	-0.008628612	-0.9077836	-0.2473154	0.07812991	0.06797658
3.7e+08	-0.1148788	0.02195275	-0.9236118	-0.1755787	-0.04045545	-0.02078423	-0.0009793213	0.02576947
	-0.9236118	-0.1755787	0.0868339	0.05765981	-0.0009704238	0.025776	0.05303467	-0.01015957
	-0.04045545	-0.02078423	-0.0009704238	0.025776	-0.1147698	0.02196208	-0.9237638	-0.1748246
	-0.0009793213	0.02576947	0.05303467	-0.01015957	-0.9237638	-0.1748246	0.08686342	0.05743727
3.8e+08	-0.1126607	0.02589162	-0.9338904	-0.102134	-0.04398292	-0.01515042	0.001480994	0.02614407
	-0.9338904	-0.102134	0.09414011	0.04609004	0.001491071	0.02615	0.05347663	-0.01169954
	-0.04398292	-0.01515042	0.001491071	0.02615	-0.1125666	0.0258978	-0.9339827	-0.1013489
	0.001480994	0.02614407	0.05347663	-0.01169954	-0.9339827	-0.1013489	0.09416161	0.04586452
3.9e+08	-0.1102633	0.029596	-0.9383539	-0.02815211	-0.04684592	-0.00900895	0.003964016	0.02624322
	-0.9383539	-0.02815211	0.09988543	0.03370642	0.003975215	0.02624835	0.0539474	-0.01326565
	-0.04684592	-0.00900895	0.003975215	0.02624835	-0.1101852	0.02960147	-0.9383827	-0.02734019
	0.003964016	0.02624322	0.0539474	-0.01326565	-0.9383827	-0.02734019	0.09989935	0.03347822
4e+08	-0.1077092	0.0330812	-0.9369778	0.04590518	-0.04897444	-0.002442398	0.006432678	0.02607313
	-0.9369778	0.04590518	0.1039784	0.02074525	0.006444947	0.02607737	0.05445113	-0.01487743
	-0.04897444	-0.002442398	0.006444947	0.02607737	-0.1076479	0.03308864	-0.9369393	0.04673845
	0.006432678	0.02607313	0.05445113	-0.01487743	-0.9369393	0.04673845	0.103985	0.02051471
4.1e+08	-0.1050141	0.03636415	-0.9297761	0.1195768	-0.05030908	0.004457049	0.008852776	0.02564566
	-0.9297761	0.1195768	0.106365	0.00745291	0.008866021	0.025649	0.05498755	-0.01655546
	-0.05030908	0.004457049	0.008866021	0.025649	-0.1049698	0.03637639	-0.929667	0.1204246
	0.008852776	0.02564566	0.05498755	-0.01655546	-0.929667	0.1204246	0.1063644	0.007220519
4.2e+08	-0.1021873	0.0394623	-0.9167973	0.1924041	-0.05080245	0.01158965	0.01119403	0.0249779
	-0.9167973	0.1924041	0.107029	-0.005920511	0.0112082	0.02498018	0.0555522	-0.01832126
	-0.05080245	0.01158965	0.0112082	0.02498018	-0.1021597	0.03948236	-0.9166153	0.193261
	0.01119403	0.0249779	0.0555522	-0.01832126	-0.9166153	0.193261	0.1070218	-0.006154708
4.3e+08	-0.09923046	0.04239213	-0.8981297	0.2639333	-0.05042035	0.01884901	0.01343079	0.02409083
	-0.8981297	0.2639333	0.105993	-0.01912624	0.01344581	0.02409187	0.05613567	-0.02019604
	-0.05042035	0.01884901	0.01344581	0.02409187	-0.09921878	0.04242286	-0.8978737	0.2647918
	0.01343079	0.02409083	0.05613567	-0.02019604	-0.8978737	0.2647918	0.1059795	-0.01936169
4.4e+08	-0.09613897	0.0451674	-0.8738979	0.3337197	-0.04914215	0.02612426	0.01554262	0.02300815
	-0.8738979	0.3337197	0.1033169	-0.0319232	0.01555845	0.0230081	0.05672423	-0.02220002
	-0.04914215	0.02612426	0.01555845	0.0230081	-0.09614195	0.04521165	-0.8735649	0.3345729
	0.01554262	0.02300815	0.05672423	-0.02220002	-0.8735649	0.3345729	0.1032972	-0.03216008
4.5e+08	-0.09290244	0.04779791	-0.8442611	0.4013293	-0.04696152	0.03330195	0.01751462	0.02175546
	-0.8442611	0.4013293	0.09909582	-0.04408415	0.01753119	0.02175413	0.05729934	-0.02435091
	-0.04696152	0.03330195	0.01753119	0.02175413	-0.09291847	0.04785825	-0.8438515	0.4021703
	0.01751462	0.02175546	0.05729934	-0.02435091	-0.8438515	0.4021703	0.09907051	-0.04432223
4.6e+08	-0.08950606	0.05028781	-0.8094108	0.4663447	-0.04388697	0.04026749	0.0193375	0.02035875
	-0.8094108	0.4663447	0.09345772	-0.05540024	0.01935477	0.02035608	0.05783876	-0.0266639
	-0.04388697	0.04026749	0.01935477	0.02035608	-0.0895328	0.05036678	-0.8089238	0.4671662
	0.0193375	0.02035875	0.05783876	-0.0266639	-0.8089238	0.4671662	0.09342704	-0.05563983
4.7e+08	-0.08593108	0.05263491	-0.7695739	0.5283644	-0.03994149	0.04690787	0.0210072	0.01884319
	-0.7695739	0.5283644	0.0865604	-0.06568657	0.0210251	0.01883899	0.05831639	-0.02914976
	-0.03994149	0.04690787	0.0210251	0.01883899	-0.08596607	0.0527344	-0.7690119	0.5291608
	0.0210072	0.01884319	0.05831639	-0.02914976	-0.7690119	0.5291608	0.08652488	-0.06592776
4.8e+08	-0.08215694	0.05482947	-0.7250085	0.5870078	-0.0351625	0.05311273	0.02252459	0.01723202
	-0.7250085	0.5870078	0.0785868	-0.07478525	0.02254306	0.01722621	0.05870376	-0.03181532
	-0.0351625	0.05311273	0.02254306	0.01722621	-0.08219698	0.05495134	-0.7243714	0.5877705
	0.02252459	0.01723202	0.05870376	-0.03181532	-0.7243714	0.5877705	0.07854653	-0.07502828
4.9e+08	-0.0781632	0.05685401	-0.6759998	0.6419195	-0.02960141	0.05877673	0.02389484	0.01554601
	-0.6759998	0.6419195	0.06974061	-0.08257088	0.02391384	0.01553848	0.0589705	-0.03466215
	-0.02960141	0.05877673	0.02391384	0.01553848	-0.07820505	0.0569993	-0.6752897	0.6426417
	0.02389484	0.01554601	0.0589705	-0.03466215	-0.6752897	0.6426417	0.06969577	-0.08281588
5e+08	-0.07393029	0.05868301	-0.6228581	0.6927629	-0.02332248	0.06380099	0.02512625	0.01380202
	-0.6228581	0.6927629	0.06023974	-0.08895069	0.02514568	0.01379265	0.05908515	-0.03768699
	-0.02332248	0.06380099	0.02514568	0.01379265	-0.07397044	0.05885229	-0.6220782	0.693439
	0.02512625	0.01380202	0.05908515	-0.03768699	-0.6220782	0.693439	0.06019063	-0.08919815
5.1e+08	-0.06944244	0.06028261	-0.5659193	0.7392347	-0.01640251	0.06809478	0.02622947	0.01201286
	-0.5659193	0.7392347	0.05031305	-0.09386822	0.02624927	0.0120015	0.05901654	-0.04088064
	-0.01640251	0.06809478	0.02624927	0.0120015	-0.06947713	0.06047602	-0.5650727	0.739857
	0.02622947	0.01201286	0.05901654	-0.04088064	-0.5650727	0.739857	0.05025968	-0.09411848
5.2e+08	-0.06468874	0.06161201	-0.5055416	0.7810546	-0.008929457	0.07157722	0.02721644	0.01018701
	-0.5055416	0.7810546	0.0401927	-0.09730341	0.02723643	0.01017343	0.05873477	-0.04422931
	-0.008929457	0.07157722	0.02723643	0.01017343	-0.06471424	0.06182879	-0.5046322	0.781617
