!$
! Info: Touchstone file created by Circ.  Input file=C2M_PCB_85ohms_10p0in_20230620_v3.circ
!$
# Hz S RI R 50
0	0.01071682	4.200053e-24	0.9892529	-4.075916e-24	0.0001751198	1.024968e-22	-0.0001714285	2.114679e-20
	0.9892529	-3.931657e-24	0.01053536	2.916925e-24	-0.0001687722	2.082138e-20	3.041426e-05	8.404202e-21
	0.0001751199	1.025307e-22	-0.0001687722	2.082117e-20	0.01072014	4.631411e-24	0.9892662	-3.883111e-24
	-0.0001714285	2.114682e-20	3.041424e-05	8.404275e-21	0.9892662	-3.899821e-24	0.01054886	3.225719e-24
1e+07	0.01403588	-0.009340667	0.9751167	-0.1358806	0.0008880754	0.003567622	-0.000289485	-0.000403769
	0.9751167	-0.1358806	0.01327764	-0.00899682	-0.0002874992	-0.0004044347	0.0005530026	0.003692189
	0.0008880754	0.003567622	-0.0002874992	-0.0004044347	0.014131	-0.009339876	0.9750324	-0.1359038
	-0.000289485	-0.000403769	0.0005530027	0.003692189	0.9750324	-0.1359038	0.01337504	-0.008985015
2e+07	0.0143393	-0.02235499	0.9436319	-0.2645168	0.002683453	0.006636378	-0.0003760856	-0.0007335493
	0.9436319	-0.2645168	0.01189809	-0.02122566	-0.000374575	-0.0007340689	0.001713766	0.007044003
	0.002683464	0.006636284	-0.0003745595	-0.0007341197	0.01440664	-0.02237778	0.9435554	-0.2645229
	-0.0003760673	-0.0007335973	0.001713784	0.007043999	0.9435554	-0.2645229	0.01198126	-0.02123334
3e+07	0.01048107	-0.03632306	0.8967008	-0.3858825	0.005368419	0.008953832	-0.0004648743	-0.001072855
	0.8967008	-0.3858825	0.005450817	-0.03350174	-0.0004634059	-0.001073299	0.003428296	0.009994043
	0.005368405	0.008953827	-0.0004634134	-0.001073294	0.01052699	-0.03634293	0.8966283	-0.3858888
	-0.0004648829	-0.00107285	0.003428288	0.00999406	0.8966283	-0.3858888	0.005528571	-0.03350905
4e+07	0.003132227	-0.04938943	0.8349119	-0.4990352	0.008695391	0.01032345	-0.0006036336	-0.001481205
	0.8349119	-0.4990352	-0.005023893	-0.04362039	-0.0006020525	-0.001481675	0.005591215	0.01248634
	0.008695393	0.01032345	-0.0006020532	-0.001481672	0.003162403	-0.04939722	0.8348401	-0.499046
	-0.0006036341	-0.001481203	0.005591211	0.01248634	0.8348401	-0.499046	-0.004946141	-0.04362518
5e+07	-0.007135179	-0.06064949	0.7593923	-0.6023347	0.01236582	0.0106043	-0.0008528432	-0.001966605
	0.7593923	-0.6023347	-0.01849322	-0.05046107	-0.0008511055	-0.001967253	0.008075893	0.01445808
	0.01236582	0.0106043	-0.000851107	-0.001967252	-0.007114844	-0.06063992	0.7593177	-0.6023519
	-0.0008528446	-0.001966604	0.00807589	0.01445808	0.7593177	-0.6023519	-0.0184115	-0.05046425
6e+07	-0.01969946	-0.06946889	0.6715922	-0.6942099	0.01605606	0.009733039	-0.001278372	-0.002495881
	0.6715922	-0.6942099	-0.03382802	-0.05332599	-0.001276575	-0.002496849	0.01074997	0.01587576
	0.01605606	0.00973304	-0.001276573	-0.002496849	-0.01968221	-0.06943954	0.6715108	-0.6942345
	-0.00127837	-0.002495882	0.01074998	0.01587576	0.6715108	-0.6942345	-0.03374039	-0.05332999
7e+07	-0.03387692	-0.07541083	0.5731883	-0.773289	0.01943629	0.007738015	-0.001928718	-0.003004831
	0.5731883	-0.773289	-0.04983298	-0.05187021	-0.001927037	-0.003006173	0.01347953	0.01674201
	0.0194363	0.007738016	-0.001927035	-0.003006176	-0.03385648	-0.07536151	0.5730957	-0.77332
	-0.001928717	-0.003004834	0.01347953	0.016742	0.5730957	-0.77332	-0.04973849	-0.05187747
8e+07	-0.04894246	-0.07822271	0.4660209	-0.8384519	0.02219716	0.004736571	-0.00282454	-0.003407541
	0.4660209	-0.8384519	-0.06531152	-0.04608185	-0.002823122	-0.0034092	0.01614158	0.01709301
	0.02219716	0.004736571	-0.002823123	-0.003409198	-0.0489131	-0.07815516	0.465913	-0.8384873
	-0.00282454	-0.003407539	0.01614158	0.01709301	0.465913	-0.8384873	-0.06521031	-0.04609457
9e+07	-0.0641627	-0.07783016	0.3520343	-0.8888469	0.02407312	0.0009248916	-0.003952124	-0.003608828
	0.3520343	-0.8888469	-0.07913728	-0.03625708	-0.003951084	-0.003610693	0.01863281	0.01699182
	0.02407312	0.000924892	-0.003951081	-0.003610684	-0.06411929	-0.07774789	0.3519071	-0.8888846
	-0.00395212	-0.00360882	0.01863281	0.01699183	0.3519071	-0.8888846	-0.07903056	-0.03627712
1e+08	-0.07883183	-0.0743311	0.2332295	-0.9238973	0.02486209	-0.003435744	-0.005264486	-0.003518868
	0.2332295	-0.9238973	-0.09032446	-0.02295916	-0.00526388	-0.003520785	0.02087691	0.0165198
	0.02486209	-0.003435745	-0.00526388	-0.003520786	-0.0787697	-0.07423978	0.2330772	-0.9239324
	-0.005264487	-0.003518869	0.02087691	0.0165198	0.2330772	-0.9239324	-0.09021341	-0.0229864
1.1e+08	-0.09232434	-0.06794591	0.1116246	-0.9432884	0.02443744	-0.00805734	-0.006673403	-0.003044884
	0.1116246	-0.9432884	-0.0980291	-0.007008594	-0.006673197	-0.003048299	0.02281123	0.01575495
	0.02443744	-0.00805734	-0.006673198	-0.0030483	-0.09223478	-0.06785199	0.1114474	-0.9433109
	-0.006673403	-0.003044886	0.02281124	0.01575495	0.1114474	-0.9433109	-0.09784737	-0.007040759
1.2e+08	-0.1040544	-0.05902802	-0.01078836	-0.9469612	0.02273372	-0.01260615	-0.00805522	-0.002162785
	-0.01078836	-0.9469612	-0.1017481	0.01065302	-0.008056321	-0.002166187	0.02439884	0.01481211
	0.02273372	-0.01260615	-0.008056321	-0.002166189	-0.1039478	-0.05894135	-0.01099029	-0.9469651
	-0.008055221	-0.002162787	0.02439884	0.01481211	-0.01099029	-0.9469651	-0.1015516	0.01058024
1.3e+08	-0.1135527	-0.04805135	-0.1320643	-0.9350887	0.01978776	-0.01674715	-0.009292864	-0.0008694909
	-0.1320643	-0.9350887	-0.1011786	0.02897239	-0.009294838	-0.0008719843	0.02563874	0.01378922
	0.01978776	-0.01674715	-0.009294839	-0.0008719853	-0.113436	-0.04797369	-0.1322886	-0.9350647
	-0.009292865	-0.0008694918	0.02563874	0.01378921	-0.1322886	-0.9350647	-0.1009972	0.02886644
1.4e+08	-0.1204727	-0.0355659	-0.2503273	-0.9080548	0.0157157	-0.02016472	-0.01026544	0.0007994222
	-0.2503273	-0.9080548	-0.09630012	0.04686379	-0.01026764	0.0007980401	0.0265478	0.01277882
	0.01571571	-0.02016472	-0.01026764	0.0007980395	-0.1203494	-0.03549658	-0.2505694	-0.9079983
	-0.01026544	0.0007994216	0.0265478	0.01277882	-0.2505694	-0.9079983	-0.09614358	0.04673887
1.5e+08	-0.1246013	-0.02216954	-0.3637849	-0.8664469	0.01070768	-0.02257768	-0.01086551	0.002770187
	-0.3637849	-0.8664469	-0.08736552	0.06328504	-0.01086744	0.002769744	0.02716098	0.01186486
	0.01070768	-0.02257768	-0.01086744	0.002769744	-0.1244728	-0.02210843	-0.3640389	-0.8663518
	-0.01086551	0.002770187	0.02716098	0.01186485	-0.3640389	-0.8663518	-0.08723334	0.06315154
1.6e+08	-0.1258614	-0.008478497	-0.4707394	-0.8110302	0.005018382	-0.02375516	-0.0110118	0.004937553
	-0.4707394	-0.8110302	-0.07487353	0.07729967	-0.01101321	0.004937769	0.0275302	0.01112119
	0.005018382	-0.02375516	-0.01101321	0.004937769	-0.1257287	-0.008426399	-0.4709987	-0.8108926
	-0.0110118	0.004937553	0.0275302	0.01112119	-0.4709987	-0.8108926	-0.07476213	0.07716394
1.7e+08	-0.1243081	0.004902845	-0.5695957	-0.7427437	-0.00104498	-0.02352975	-0.01065835	0.00717507
	-0.5695957	-0.7427437	-0.05953369	0.08813076	-0.01065913	0.00717562	0.02772276	0.01060851
	-0.00104498	-0.02352975	-0.01065913	0.00717562	-0.1241728	0.004944411	-0.5698527	-0.742561
	-0.01065835	0.00717507	0.02772276	0.01060851	-0.5698527	-0.742561	-0.05943913	0.08799601
1.8e+08	-0.1201205	0.01740738	-0.6588747	-0.6626902	-0.007137814	-0.02180872	-0.009799725	0.009348185
	-0.6588747	-0.6626902	-0.04221872	0.09520581	-0.009799901	0.009348809	0.02781991	0.01037117
	-0.007137814	-0.02180872	-0.009799902	0.009348809	-0.1199851	0.01743714	-0.6591225	-0.6624615
	-0.009799726	0.009348185	0.02781991	0.01037117	-0.6591225	-0.6624615	-0.04213759	0.09507384
1.9e+08	-0.1135877	0.02853065	-0.7372232	-0.5721297	-0.01289499	-0.01858181	-0.008471239	0.01132783
	-0.7372232	-0.5721297	-0.02391002	0.09818768	-0.008470926	0.01132832	0.0279142	0.01043374
	-0.01289499	-0.01858181	-0.008470927	0.01132832	-0.1134558	0.02854774	-0.7374523	-0.5718532
	-0.008471239	0.01132783	0.0279142	0.01043374	-0.7374523	-0.5718532	-0.02383927	0.09805873
2e+08	-0.1050917	0.03784982	-0.803429	-0.4724702	-0.01794913	-0.01392546	-0.006744669	0.01300356
	-0.803429	-0.4724702	-0.005635969	0.09699296	-0.006744017	0.0130038	0.02810484	0.01079655
	-0.01794913	-0.01392546	-0.006744017	0.0130038	-0.1049671	0.0378547	-0.8036311	-0.4721486
	-0.006744669	0.01300356	0.02810484	0.01079655	-0.8036311	-0.4721486	-0.00557384	0.09686739
2.1e+08	-0.09508582	0.04504077	-0.8564368	-0.3652676	-0.02195108	-0.008004253	-0.004719723	0.01429446
	-0.8564368	-0.3652676	0.01158975	0.09179607	-0.004718914	0.01429438	0.02849237	0.01143345
	-0.02195108	-0.008004253	-0.004718915	0.01429438	-0.0949724	0.04503503	-0.8566031	-0.3649025
	-0.004719723	0.01429446	0.02849237	0.01143345	-0.8566031	-0.3649025	0.01164531	0.091674
2.2e+08	-0.08407022	0.04988872	-0.895373	-0.2522059	-0.02459049	-0.001066855	-0.002512138	0.01515652
	-0.895373	-0.2522059	0.02683352	0.08301745	-0.002511328	0.01515614	0.02917123	0.01229022
	-0.02459049	-0.001066855	-0.002511328	0.01515614	-0.08397149	0.04987512	-0.8954962	-0.2518021
	-0.002512138	0.01515652	0.02917123	0.01229022	-0.8954962	-0.2518021	0.02688388	0.08289914
2.3e+08	-0.07256652	0.05229336	-0.9195653	-0.1350863	-0.02561568	0.006562417	-0.0002398685	0.01558502
	-0.9195653	-0.1350863	0.03929937	0.07129654	-0.000239194	0.01558442	0.0302201	0.01328495
	-0.02561568	0.006562417	-0.0002391941	0.01558442	-0.07248515	0.05227572	-0.9196378	-0.1346505
	-0.0002398686	0.01558502	0.0302201	0.01328495	-0.9196378	-0.1346505	0.03934598	0.07118225
2.4e+08	-0.06109195	0.05226851	-0.9285616	-0.0158084	-0.02485326	0.01449724	0.001990764	0.01561246
	-0.9285616	-0.0158084	0.04838022	0.05745059	0.001991203	0.01561179	0.03169538	0.01431355
	-0.02485326	0.01449724	0.001991203	0.01561179	-0.06102948	0.05225122	-0.9285763	-0.01534657
	0.001990764	0.01561246	0.03169538	0.01431355	-0.9285763	-0.01534657	0.04842489	0.05734021
2.5e+08	-0.05013357	0.04993438	-0.9221589	0.1036653	-0.02222334	0.02230819	0.00409732	0.01530095
	-0.9221589	0.1036653	0.05369893	0.04242187	0.004097538	0.01530039	0.03362279	0.01525585
	-0.02222334	0.02230819	0.004097538	0.01530039	-0.05009051	0.0499223	-0.9221103	0.1041446
	0.00409732	0.01530095	0.03362279	0.01525585	-0.9221103	0.1041446	0.05374326	0.04231518
2.6e+08	-0.04012744	0.04550571	-0.9004109	0.2213341	-0.01775114	0.02954588	0.006029921	0.01473116
	-0.9004109	0.2213341	0.0551311	0.02721425	0.006029962	0.01473089	0.03599309	0.01598546
	-0.01775114	0.02954588	0.006029962	0.01473089	-0.04010281	0.04550366	-0.9002963	0.2218209
	0.006029921	0.01473116	0.03599309	0.01598546	-0.9002963	0.2218209	0.05517705	0.02711103
2.7e+08	-0.0314407	0.03927422	-0.8636439	0.3352052	-0.01157148	0.03576695	0.00777509	0.01398774
	-0.8636439	0.3352052	0.05281539	0.01282672	0.007775081	0.01398784	0.03876118	0.01638104
	-0.01157148	0.03576695	0.007775081	0.01398784	-0.03143248	0.03928672	-0.8634597	0.3356914
	0.00777509	0.01398774	0.03876118	0.01638104	-0.8634597	0.3356914	0.05286476	0.0127257
2.8e+08	-0.02435904	0.03158812	-0.8124553	0.4433313	-0.003927845	0.04056235	0.009354033	0.0131454
	-0.8124553	0.4433313	0.04714179	0.000184656	0.009354248	0.01314603	0.04184925	0.01633727
	-0.003927845	0.04056235	0.009354248	0.01314603	-0.02436399	0.03161926	-0.812201	0.4438048
	0.009354033	0.0131454	0.04184925	0.01633727	-0.812201	0.4438048	0.04719626	8.468993e-05
2.9e+08	-0.01908116	0.02283078	-0.7477115	0.543854	0.004837242	0.04358383	0.01081532	0.01225552
	-0.7477115	0.543854	0.03872454	-0.00992232	0.01081601	0.0122567	0.04515214	0.01577383
	0.004837242	0.04358383	0.01081601	0.0122567	-0.01909503	0.0228834	-0.7473883	0.544306
	0.01081532	0.01225552	0.04515214	0.01577382	-0.7473883	0.544306	0.03878539	-0.01002321
3e+08	-0.01571788	0.0133992	-0.6705303	0.6350488	0.01429834	0.04456923	0.01222351	0.01133781
	-0.6705303	0.6350488	0.02835879	-0.01689449	0.01222495	0.01133936	0.04854834	0.01464252
	0.01429834	0.04456923	0.01222495	0.01133936	-0.0157358	0.01347546	-0.6701394	0.6354688
	0.01222351	0.01133781	0.04854834	0.01464252	-0.6701394	0.6354688	0.02842684	-0.01699857
3.1e+08	-0.01429691	0.003684813	-0.5822575	0.7153575	0.02396966	0.04336182	0.01364404	0.01037496
	-0.5822575	0.7153575	0.01696418	-0.02036163	0.0136465	0.01037668	0.0519095	0.01292969
	0.02396966	0.04336182	0.0136465	0.01037668	-0.01431346	0.003785479	-0.5818018	0.7157351
	0.01364404	0.01037496	0.0519095	0.01292969	-0.5818018	0.7157351	0.01703992	-0.02047128
3.2e+08	-0.01477166	-0.005942515	-0.4844398	0.7834268	0.03333231	0.03992381	0.01512855	0.009315557
	-0.4844398	0.7834268	0.005520597	-0.02020664	0.01513231	0.00931715	0.05511153	0.01065519
	0.03333231	0.03992381	0.01513231	0.00931715	-0.01478132	-0.005818299	-0.4839262	0.783752
	0.01512855	0.009315557	0.05511153	0.01065519	-0.4839262	0.783752	0.005603489	-0.02032449
3.3e+08	-0.01703226	-0.01514723	-0.3787952	0.8381305	0.04186427	0.03434259	0.0167008	0.008081119
	-0.3787952	0.8381305	-0.005000122	-0.01657123	0.0167059	0.008082102	0.05804339	0.007868125
	0.04186427	0.03434259	0.0167059	0.008082102	-0.01702987	-0.01500144	-0.378227	0.838396
	0.0167008	0.008081119	0.05804339	0.007868125	-0.378227	0.838396	-0.004910985	-0.0166996
3.4e+08	-0.02091822	-0.02363557	-0.2671631	0.8785932	0.04907124	0.02682901	0.01834723	0.006578904
	-0.2671631	0.8785932	-0.01370042	-0.009843432	0.01835365	0.006578756	0.06061392	0.004640133
	0.04907124	0.02682901	0.01835365	0.006578756	-0.02089911	-0.02347166	-0.2665494	0.8787906
	0.01834723	0.006578904	0.06061392	0.004640133	-0.2665494	0.8787906	-0.01360662	-0.009984433
3.5e+08	-0.0262309	-0.03116077	-0.1514791	0.9041993	0.05451555	0.01770808	0.02001187	0.0047171
	-0.1514791	0.9041993	-0.01981764	-0.0006285367	0.0200195	0.004715351	0.06275438	0.001057861
	0.05451555	0.01770808	0.0200195	0.004715351	-0.02619133	-0.0309832	-0.1508271	0.904322
	0.02001187	0.0047171	0.06275438	0.001057861	-0.1508271	0.904322	-0.01972106	-0.0007837231
3.6e+08	-0.03274491	-0.0375242	-0.03372967	0.914602	0.05784285	0.007402668	0.0215983	0.002421591
	-0.03372967	0.914602	-0.02277403	0.01029414	0.02160666	0.002417731	0.06442039	-0.002784297
	0.05784285	0.007402668	0.02160666	0.002417731	-0.03268239	-0.03733853	-0.03304893	0.9146425
	0.0215983	0.002421591	0.06442039	-0.002784297	-0.03304893	0.9146425	-0.02267701	0.0101235
3.7e+08	-0.04021772	-0.04257446	0.08408844	0.9097201	0.05880277	-0.00358837	0.02297659	-0.0003492774
	0.08408844	0.9097201	-0.02221346	0.02202557	0.02298514	-0.0003556133	0.06558945	-0.006790375
	0.05880277	-0.00358837	0.02298514	-0.0003556133	-0.04013121	-0.04238665	0.08478861	0.9096742
	0.02297659	-0.0003492774	0.06558945	-0.006790375	0.08478861	0.9096742	-0.02211847	0.02183904
3.8e+08	-0.04839877	-0.0462056	0.1999954	0.8897367	0.05726468	-0.01471629	0.02399629	-0.003592687
	0.1999954	0.8897367	-0.01802393	0.03360774	0.02400438	-0.003601706	0.06625892	-0.01086678
	0.05726468	-0.01471629	0.02400438	-0.003601706	-0.04828885	-0.04602196	0.2007033	0.8895991
	0.02399629	-0.003592687	0.06625892	-0.01086678	0.2007033	0.8895991	-0.01793344	0.03340512
3.9e+08	-0.05703505	-0.04835353	0.3120729	0.8550877	0.05322617	-0.02541141	0.02450251	-0.007255037
	0.3120729	0.8550877	-0.01034169	0.04408848	0.02450932	-0.007266719	0.06644323	-0.01492541
	0.05322617	-0.02541141	0.02450932	-0.007266719	-0.0569039	-0.04818003	0.3127777	0.8548552
	0.02450251	-0.007255037	0.06644323	-0.01492541	0.3127777	0.8548552	-0.01025791	0.04387034
4e+08	-0.0658776	-0.04899327	0.4184852	0.8064485	0.04681492	-0.03511316	0.02435376	-0.01123115
	0.4184852	0.8064485	0.0004586664	0.0525831	0.02435855	-0.0112453	0.0661718	-0.01888501
	0.04681492	-0.03511316	0.02435855	-0.0112453	-0.06572892	-0.04883528	0.4191742	0.8061195
	0.02435376	-0.01123115	0.0661718	-0.01888501	0.4191742	0.8061195	0.0005336255	0.05235031
4.1e+08	-0.07468465	-0.04813481	0.5175137	0.7447189	0.03828375	-0.0432992	0.02343901	-0.01536993
	0.5175137	0.7447189	0.01379085	0.05833262	0.0234412	-0.01538614	0.06548736	-0.02267197
	0.03828375	-0.0432992	0.0234412	-0.01538614	-0.07452353	-0.04799667	0.5181728	0.7442935
	0.02343901	-0.01536993	0.06548736	-0.02267197	0.5181728	0.7442935	0.01385499	0.05808639
4.2e+08	-0.08322495	-0.04582066	0.6075793	0.6710002	0.02799878	-0.04951336	0.02169244	-0.01948593
	0.6075793	0.6710002	0.02889629	0.06075118	0.02169139	-0.0195036	0.06444591	-0.02622238
	0.02799878	-0.04951336	0.02169139	-0.0195036	-0.08305772	-0.04570528	0.6081955	0.6704797
	0.02169244	-0.01948593	0.06444591	-0.02622238	0.6081955	0.6704797	0.02894839	0.06049302
4.3e+08	-0.09128103	-0.04212184	0.6872663	0.5865789	0.01642267	-0.05338926	0.01910313	-0.02337472
	0.6872663	0.5865789	0.04489418	0.05946417	0.01909839	-0.02339303	0.0631158	-0.02948411
	0.01642267	-0.05338926	0.01909839	-0.02339303	-0.0911145	-0.04203043	0.6878255	0.5859684
	0.01910313	-0.02337472	0.0631158	-0.02948411	0.6878255	0.5859684	0.04493279	0.05919608
4.4e+08	-0.09865042	-0.03713544	0.7553415	0.4929006	0.004091919	-0.0546699	0.01571924	-0.02683113
	0.7553415	0.4929006	0.0608382	0.05433084	0.01571079	-0.02684941	0.06157712	-0.03242037
	0.004091919	-0.0546699	0.01571079	-0.02684941	-0.09849181	-0.03706734	0.7558287	0.4922046
	0.01571924	-0.02683113	0.06157712	-0.03242037	0.7558287	0.4922046	0.06086249	0.05405414
4.5e+08	-0.1051475	-0.03098163	0.8107685	0.3915451	-0.008408881	-0.05322181	0.0116462	-0.02966824
	0.8107685	0.3915451	0.07577762	0.04545155	0.01163401	-0.0296856	0.05991867	-0.03501306
	-0.008408881	-0.05322181	0.01163401	-0.0296856	-0.1050036	-0.03093436	0.8111711	0.3907727
	0.0116462	-0.02966824	0.05991867	-0.03501306	0.8111711	0.3907727	0.07578718	0.04516847
4.6e+08	-0.1106038	-0.02380162	0.8527219	0.2841978	-0.020475	-0.04904332	0.00703833	-0.03173422
	0.8527219	0.2841978	0.08881809	0.0331612	0.007022645	-0.03174991	0.05823416	-0.03726739
	-0.020475	-0.04904332	0.007022645	-0.03174991	-0.1104809	-0.02377073	0.8530268	0.2833592
	0.00703833	-0.03173422	0.05823416	-0.03726739	0.8530268	0.2833592	0.08881278	0.0328732
4.7e+08	-0.1148692	-0.01575533	0.8805984	0.1726285	-0.03151178	-0.04226596	0.002085607	-0.03292576
	0.8805984	0.1726285	0.09917803	0.01800656	0.002066768	-0.03293902	0.05661537	-0.03921358
	-0.03151178	-0.04226596	0.002066768	-0.03293902	-0.1147721	-0.01573495	0.8807965	0.1717365
	0.002085606	-0.03292576	0.05661537	-0.03921358	0.8807965	0.1717365	0.0991584	0.01771586
4.8e+08	-0.1178117	-0.007020847	0.8940226	0.05865921	-0.0409629	-0.03314969	-0.003003386	-0.03319622
	0.8940226	0.05865921	0.1062379	0.0007116533	-0.003024834	-0.03320655	0.05514503	-0.04090846
	-0.0409629	-0.03314969	-0.003024834	-0.03320655	-0.1177438	-0.007003501	0.8941028	0.05772846
	-0.003003386	-0.03319622	0.05514503	-0.04090846	0.8941028	0.05772846	0.1062042	0.0004195462
4.9e+08	-0.1193187	0.002205514	0.8928512	-0.05586713	-0.04833813	-0.02207196	-0.008019872	-0.03255838
	0.8928512	-0.05586713	0.1095794	-0.01787123	-0.008043351	-0.03256544	0.053888	-0.04243244
	-0.04833813	-0.02207196	-0.008043351	-0.03256544	-0.1192812	0.002227807	0.8928066	-0.05682011
	-0.008019872	-0.03255838	0.053888	-0.04243244	0.8928066	-0.05682011	0.1095325	-0.0181631
5e+08	-0.1192983	0.01170964	0.8771665	-0.1691084	-0.05323714	-0.009510554	-0.0127732	-0.03107958
	0.8771665	-0.1691084	0.1090082	-0.03681417	-0.01279807	-0.03108314	0.05288345	-0.04388477
	-0.05323714	-0.009510554	-0.01279807	-0.03108314	-0.1192901	0.01174517	0.8769938	-0.1700667
	-0.0127732	-0.03107958	0.05288345	-0.04388477	0.8769938	-0.1700667	0.1089496	-0.03710464
5.1e+08	-0.1176819	0.02125768	0.8472823	-0.2792592	-0.0553696	0.003977196	-0.01710624	-0.02887259
	0.8472823	-0.2792592	0.1045688	-0.05517363	-0.01713198	-0.02887259	0.05213928	-0.04537435
	-0.0553696	0.003977196	-0.01713198	-0.02887259	-0.1176999	0.02131453	0.8469788	-0.2802039
	-0.01710624	-0.02887259	0.05213928	-0.04537435	0.8469788	-0.2802039	0.1044997	-0.0554619
5.2e+08	-0.1144289	0.03059632	0.8037288	-0.3845701	-0.05457018	0.01777995	-0.02090673	-0.0260815
	0.8037288	-0.3845701	0.09653649	-0.07204992	-0.02093285	-0.02607789	0.05162944	-0.04701077
	-0.05457018	0.01777995	-0.02093285	-0.02607789	-0.1144677	0.03068143	0.8032959	-0.3854826
	-0.02090673	-0.0260815	0.05162944	-0.04701077	0.8032959	-0.3854826	0.09645833	-0.07233539
