!$
! Info: Touchstone file created by Circ.  Input file=C2M_PCB_85ohms_8p0in_20230620_v3.circ
!$
# Hz S RI R 50
0	0.009140729	3.664076e-24	0.9908289	-3.502769e-24	0.0001648791	9.290227e-23	-0.0001611819	1.986479e-20
	0.9908289	-3.358294e-24	0.00895937	2.316937e-24	-0.0001585217	1.953894e-20	2.015787e-05	8.360477e-21
	0.0001648792	9.293635e-23	-0.0001585217	1.953873e-20	0.009144065	4.118118e-24	0.9908422	-3.354468e-24
	-0.0001611819	1.986482e-20	2.015785e-05	8.360551e-21	0.9908422	-3.371198e-24	0.00897283	2.676585e-24
1e+07	0.01219383	-0.007112937	0.9800785	-0.1152592	0.0007244379	0.003273402	-0.0002732518	-0.0004415677
	0.9800785	-0.1152592	0.01156455	-0.006833203	-0.0002712547	-0.0004422001	0.0004464746	0.003377132
	0.0007244379	0.003273402	-0.0002712547	-0.0004422001	0.01228297	-0.007111384	0.9800006	-0.1152852
	-0.0002732518	-0.0004415677	0.0004464746	0.003377132	0.9800006	-0.1152852	0.01165531	-0.006822786
2e+07	0.01323477	-0.0173988	0.9569195	-0.2251286	0.002134283	0.006197817	-0.0003770402	-0.000808026
	0.9569195	-0.2251286	0.01125549	-0.01656046	-0.0003755344	-0.000808481	0.001371402	0.006492069
	0.002134301	0.006197723	-0.0003755163	-0.0008085311	0.01329945	-0.01742003	0.9568473	-0.225142
	-0.0003770194	-0.0008080731	0.001371421	0.006492066	0.9568473	-0.225142	0.01133251	-0.01656902
3e+07	0.01134095	-0.02880263	0.922642	-0.3300994	0.00428331	0.008610321	-0.0004930227	-0.001155945
	0.922642	-0.3300994	0.007208476	-0.02678809	-0.000491572	-0.001156264	0.002744526	0.00932297
	0.004283297	0.008610316	-0.0004915797	-0.00115626	0.0113861	-0.02882297	0.9225721	-0.3301157
	-0.0004930316	-0.001155941	0.002744518	0.009322987	0.9225721	-0.3301157	0.007279161	-0.02679676
4e+07	0.006959308	-0.03996783	0.8774255	-0.4298419	0.007031402	0.01037759	-0.0006423948	-0.001536302
	0.8774255	-0.4298419	8.904458e-05	-0.03588693	-0.0006408189	-0.001536556	0.004508451	0.01184563
	0.007031404	0.01037759	-0.0006408199	-0.001536553	0.006989029	-0.03997917	0.877355	-0.4298647
	-0.0006423955	-0.0015363	0.004508448	0.01184563	0.877355	-0.4298647	0.0001579692	-0.03589297
5e+07	0.0004002392	-0.05029059	0.8218122	-0.52337	0.01020647	0.01138087	-0.000856067	-0.00196529
	0.8218122	-0.52337	-0.009511776	-0.04305279	-0.0008542736	-0.00196562	0.00659298	0.01401119
	0.01020647	0.01138087	-0.0008542752	-0.001965619	0.0004186291	-0.05028792	0.8217378	-0.5234011
	-0.0008560686	-0.001965289	0.006592977	0.01401119	0.8217378	-0.5234011	-0.009440968	-0.04305612
6e+07	-0.00802679	-0.05933757	0.756549	-0.6096663	0.01361702	0.01153398	-0.00117589	-0.002435106
	0.756549	-0.6096663	-0.0209639	-0.04773289	-0.001173919	-0.00243567	0.008923022	0.01578028
	0.01361702	0.01153398	-0.001173917	-0.00243567	-0.008014715	-0.05931784	0.7564673	-0.6097067
	-0.001175889	-0.002435107	0.008923025	0.01578028	0.7564673	-0.6097067	-0.02088908	-0.04773486
7e+07	-0.01798404	-0.06677624	0.6825269	-0.687781	0.01705509	0.01079686	-0.00163941	-0.002919929
	0.6825269	-0.687781	-0.0335861	-0.04955919	-0.001637388	-0.002920839	0.01141596	0.01713149
	0.01705509	0.01079686	-0.001637385	-0.002920841	-0.01797347	-0.06673804	0.682434	-0.68783
	-0.001639409	-0.002919932	0.01141596	0.01713149	0.682434	-0.68783	-0.03350569	-0.0495613
8e+07	-0.02910313	-0.0723609	0.6007512	-0.7568719	0.02030869	0.009178262	-0.002274824	-0.003378492
	0.6007512	-0.7568719	-0.04666439	-0.04833617	-0.002272882	-0.003379762	0.0139889	0.01806266
	0.02030869	0.009178262	-0.002272883	-0.003379759	-0.02908928	-0.07230419	0.6006432	-0.7569282
	-0.002274825	-0.003378489	0.01398889	0.01806266	0.6006432	-0.7569282	-0.04657759	-0.04833997
9e+07	-0.040994	-0.07593027	0.512311	-0.8162212	0.02317379	0.006734976	-0.003096474	-0.003757951
	0.512311	-0.8162212	-0.05948008	-0.0440345	-0.003094744	-0.003759554	0.01656425	0.01858927
	0.02317379	0.006734977	-0.003094743	-0.003759545	-0.04097201	-0.07585631	0.5121847	-0.8162834
	-0.00309647	-0.003757942	0.01656425	0.01858928	0.5121847	-0.8162834	-0.0593869	-0.04404154
1e+08	-0.05325702	-0.07740962	0.4183588	-0.8652483	0.02546549	0.003569857	-0.004103496	-0.003999952
	0.4183588	-0.8652483	-0.07134308	-0.03677951	-0.0041021	-0.004001808	0.01907577	0.0187416
	0.02546549	0.003569857	-0.0041021	-0.004001809	-0.05322138	-0.07732133	0.4182083	-0.8653134
	-0.004103496	-0.003999953	0.01907577	0.01874159	0.4182083	-0.8653134	-0.07124364	-0.03678976
1.1e+08	-0.06552159	-0.07678724	0.3200911	-0.9035013	0.02702949	-0.0001893127	-0.005272667	-0.00402805
	0.3200911	-0.9035013	-0.08157208	-0.02687552	-0.005271325	-0.004031635	0.02146055	0.01854804
	0.02702949	-0.0001893125	-0.005271325	-0.004031636	-0.06546274	-0.07668579	0.3199155	-0.9035606
	-0.005272667	-0.004028051	0.02146055	0.01854804	0.3199155	-0.9035606	-0.0813986	-0.02688679
1.2e+08	-0.07740377	-0.07411685	0.2187279	-0.9306797	0.027726	-0.004369446	-0.006548172	-0.003800651
	0.2187279	-0.9306797	-0.08966496	-0.01470996	-0.006548132	-0.003804682	0.02366475	0.01807147
	0.027726	-0.004369446	-0.006548132	-0.003804684	-0.07732727	-0.07401404	0.2185258	-0.9307292
	-0.006548173	-0.003800652	0.02366475	0.01807146	0.2185258	-0.9307292	-0.08947222	-0.0147589
1.3e+08	-0.08854808	-0.06953095	0.1154896	-0.9466147	0.02746961	-0.008772954	-0.007874992	-0.003276999
	0.1154896	-0.9466147	-0.0951633	-0.0007968211	-0.007876103	-0.003280515	0.02565955	0.01736806
	0.02746961	-0.008772953	-0.007876104	-0.003280516	-0.08845916	-0.06943042	0.1152606	-0.946646
	-0.007874993	-0.003277	0.02565955	0.01736805	0.1152606	-0.946646	-0.09498025	-0.0008769858
1.4e+08	-0.09863908	-0.06322018	0.01158659	-0.9512611	0.02621669	-0.01319046	-0.009181782	-0.002431178
	0.01158659	-0.9512611	-0.09774242	0.01426614	-0.009183548	-0.002433806	0.02742624	0.01649521
	0.02621669	-0.01319046	-0.009183549	-0.002433807	-0.09854074	-0.06312222	0.01133289	-0.9512702
	-0.009181783	-0.002431179	0.02742624	0.01649521	0.01133289	-0.9512702	-0.0975782	0.01416751
1.5e+08	-0.1074103	-0.0554244	-0.09179108	-0.9447014	0.02396721	-0.01740728	-0.01038886	-0.001257346
	-0.09179108	-0.9447014	-0.09722007	0.02983404	-0.01039086	-0.001259067	0.02895702	0.01550919
	0.02396721	-0.01740728	-0.01039086	-0.001259067	-0.1073033	-0.05532889	-0.09206658	-0.944682
	-0.01038886	-0.001257346	0.02895702	0.01550919	-0.09206658	-0.944682	-0.0970739	0.02972592
1.6e+08	-0.1146494	-0.04642153	-0.1934856	-0.9271272	0.02076484	-0.02121205	-0.01141482	0.0002285414
	-0.1934856	-0.9271272	-0.09355552	0.04524539	-0.01141679	0.0002276288	0.03025457	0.0144645
	0.02076484	-0.02121205	-0.01141679	0.0002276284	-0.1145338	-0.046329	-0.1937792	-0.9270746
	-0.01141482	0.0002285411	0.03025457	0.0144645	-0.1937792	-0.9270746	-0.09342392	0.04513252
1.7e+08	-0.1202027	-0.03651473	-0.2923756	-0.8988381	0.01669549	-0.0244047	-0.01218284	0.001988818
	-0.2923756	-0.8988381	-0.0868483	0.0598505	-0.0121846	0.001988562	0.0313309	0.0134123
	0.01669549	-0.0244047	-0.0121846	0.001988561	-0.1200783	-0.03642668	-0.2926828	-0.8987483
	-0.01218284	0.001988817	0.0313309	0.0134123	-0.2926828	-0.8987483	-0.08672781	0.05973452
1.8e+08	-0.1239757	-0.02602214	-0.3873866	-0.8602356	0.01188423	-0.02680447	-0.01262684	0.003966262
	-0.3873866	-0.8602356	-0.07733008	0.07304022	-0.0126283	0.003966547	0.03220691	0.01239956
	0.01188423	-0.02680447	-0.0126283	0.003966547	-0.123843	-0.02594045	-0.387703	-0.8601059
	-0.01262684	0.003966262	0.03220691	0.01239956	-0.387703	-0.8601059	-0.07721829	0.07292144
1.9e+08	-0.1259333	-0.01526429	-0.4774937	-0.8118163	0.006491113	-0.02825681	-0.01269647	0.006087535
	-0.4774937	-0.8118163	-0.06535269	0.08427039	-0.01269757	0.006088244	0.03291185	0.01146829
	0.006491114	-0.02825681	-0.01269757	0.006088244	-0.1257935	-0.01519138	-0.4778133	-0.8116419
	-0.01269647	0.006087535	0.03291184	0.01146829	-0.4778133	-0.8116419	-0.06524768	0.08414795
2e+08	-0.1260971	-0.004555325	-0.5617291	-0.7541649	0.0007059673	-0.02863896	-0.01236096	0.008268079
	-0.5617291	-0.7541649	-0.05137025	0.09308452	-0.01236166	0.008269129	0.03348228	0.0106537
	0.0007059673	-0.02863896	-0.01236166	0.008269129	-0.1259523	-0.004493076	-0.5620454	-0.7539449
	-0.01236096	0.008268079	0.03348228	0.0106537	-0.5620454	-0.7539449	-0.05127186	0.09295772
2.1e+08	-0.1245423	0.005807629	-0.6391823	-0.6879569	-0.005257672	-0.02786605	-0.01161165	0.01041781
	-0.6391823	-0.6879569	-0.03592064	0.09913199	-0.01161193	0.0104191	0.03396203	0.009983591
	-0.005257672	-0.02786605	-0.01161193	0.0104191	-0.1243953	0.005857799	-0.6394891	-0.6876887
	-0.01161165	0.01041781	0.03396203	0.009983591	-0.6394891	-0.6876887	-0.03582854	0.09900048
2.2e+08	-0.121392	0.01555307	-0.7090141	-0.6139474	-0.01116973	-0.02589499	-0.01046267	0.01244747
	-0.7090141	-0.6139474	-0.01959945	0.102183	-0.01046249	0.01244892	0.03440123	0.00947654
	-0.01116973	-0.02589499	-0.01046249	0.01244892	-0.1212458	0.01559043	-0.7093048	-0.613631
	-0.01046267	0.01244747	0.03440123	0.009476539	-0.7093048	-0.613631	-0.01951428	0.1020469
2.3e+08	-0.1168104	0.02444224	-0.7704582	-0.5329713	-0.01679098	-0.02272736	-0.008949637	0.01427454
	-0.7704582	-0.5329713	-0.003035227	0.1021373	-0.008948996	0.01427606	0.03485357	0.009139403
	-0.01679098	-0.02272736	-0.008948996	0.01427606	-0.1166685	0.02446686	-0.7707251	-0.5326081
	-0.008949637	0.01427454	0.03485357	0.009139403	-0.7707251	-0.5326081	-0.002957566	0.1019971
2.4e+08	-0.1109963	0.0322752	-0.822825	-0.4459397	-0.02188197	-0.01841191	-0.007127119	0.01582912
	-0.822825	-0.4459397	0.01313812	0.09902709	-0.007126044	0.01583062	0.03537612	0.008967304
	-0.02188197	-0.01841191	-0.007126044	0.01583062	-0.1108618	0.03228798	-0.8230607	-0.4455299
	-0.00712712	0.01582912	0.03537612	0.008967304	-0.8230607	-0.4455299	0.01320826	0.0988835
2.5e+08	-0.1041726	0.03889564	-0.8655207	-0.3538319	-0.02621166	-0.01304438	-0.005064118	0.01705841
	-0.8655207	-0.3538319	0.02831044	0.09301748	-0.00506261	0.01705983	0.03602521	0.008941235
	-0.02621166	-0.01304438	-0.00506261	0.01705983	-0.1040487	0.0388981	-0.8657178	-0.3533783
	-0.005064118	0.01705841	0.03602521	0.008941235	-0.8657178	-0.3533783	0.02837288	0.09287152
2.6e+08	-0.09657891	0.04419304	-0.898044	-0.2576926	-0.02956685	-0.00676658	-0.002838766	0.01793012
	-0.898044	-0.2576926	0.04192022	0.08439622	-0.002836901	0.01793139	0.03685339	0.009028051
	-0.02956685	-0.00676658	-0.002836901	0.01793139	-0.09646822	0.04418752	-0.898196	-0.2572005
	-0.002838766	0.01793012	0.03685339	0.009028051	-0.898196	-0.2572005	0.0419753	0.08424946
2.7e+08	-0.08846111	0.04810337	-0.9200042	-0.1586206	-0.03176073	0.0002371151	-0.0005318014	0.01843338
	-0.9200042	-0.1586206	0.05348223	0.07356275	-0.0005296237	0.01843439	0.03790581	0.009180996
	-0.03176073	0.0002371151	-0.0005296237	0.01843439	-0.08836585	0.04809265	-0.9201045	-0.1580927
	-0.0005318015	0.01843338	0.03790581	0.009180996	-0.9201045	-0.1580927	0.05353093	0.073416
2.8e+08	-0.08006226	0.05060812	-0.9311233	-0.05775991	-0.0326423	0.007744321	0.001779511	0.01857882
	-0.9311233	-0.05775991	0.06260759	0.06100818	0.001781947	0.01857966	0.03921691	0.009341418
	-0.0326423	0.007744321	0.001781947	0.01857966	-0.07998414	0.05059557	-0.9311653	-0.05720416
	0.001779511	0.01857882	0.03921691	0.009341418	-0.9311653	-0.05720416	0.06265081	0.0608626
2.9e+08	-0.07161467	0.05173063	-0.931248	0.04371012	-0.03210341	0.01550152	0.004027509	0.01839563
	-0.931248	0.04371012	0.06902204	0.04729393	0.004030123	0.01839631	0.04080581	0.00944098
	-0.03210341	0.01550152	0.004030123	0.01839631	-0.0715543	0.05171985	-0.9312279	0.04428757
	0.004027508	0.01839563	0.04080581	0.00944098	-0.9312279	0.04428757	0.06906126	0.04715021
3e+08	-0.06333212	0.0515315	-0.920355	0.144593	-0.030086	0.02323276	0.006158942	0.01792848
	-0.920355	0.144593	0.07257912	0.03302456	0.00616173	0.01792898	0.04267561	0.009406183
	-0.030086	0.02323276	0.00616173	0.01792898	-0.06328976	0.05152635	-0.9202678	0.1451846
	0.006158942	0.01792848	0.04267561	0.009406183	-0.9202678	0.1451846	0.07261585	0.03288281
3.1e+08	-0.05540419	0.05010237	-0.8985516	0.2436863	-0.02658645	0.03064946	0.008138646	0.01723068
	-0.8985516	0.2436863	0.07326564	0.01881933	0.008141606	0.01723108	0.0448106	0.00916244
	-0.02658645	0.03064946	0.008141606	0.01723108	-0.05537915	0.05010681	-0.8983932	0.2442837
	0.008138646	0.01723068	0.0448106	0.00916244	-0.8983932	0.2442837	0.0733016	0.01867935
3.2e+08	-0.04799244	0.04755871	-0.866082	0.3398023	-0.02165835	0.0374615	0.009951061	0.01635917
	-0.866082	0.3398023	0.0712027	0.005282976	0.009954274	0.0163596	0.0471768	0.008639025
	-0.02165835	0.0374615	0.009954274	0.0163596	-0.04798292	0.04757641	-0.8658519	0.3403949
	0.009951061	0.01635917	0.0471768	0.008639025	-0.8658519	0.3403949	0.0712392	0.00514442
3.3e+08	-0.04122768	0.04403226	-0.8233283	0.4317777	-0.01541288	0.04338885	0.01159977	0.01536723
	-0.8233283	0.4317777	0.06663844	-0.007022518	0.01160332	0.01536767	0.04972318	0.007773993
	-0.01541288	0.04338885	0.01160332	0.01536767	-0.0412314	0.04406653	-0.8230243	0.4323591
	0.01159977	0.01536723	0.04972318	0.007773992	-0.8230243	0.4323591	0.06667705	-0.007160994
3.4e+08	-0.03521067	0.03966377	-0.7707985	0.5185027	-0.008016752	0.04817343	0.01310518	0.01429909
	-0.7707985	0.5185027	0.05993595	-0.01760655	0.01310922	0.01429953	0.0523848	0.006518291
	-0.008016752	0.04817343	0.01310922	0.01429953	-0.03522439	0.03971743	-0.7704225	0.5190621
	0.01310517	0.01429909	0.0523848	0.006518291	-0.7704225	0.5190621	0.0599777	-0.01774596
3.5e+08	-0.03001307	0.03459586	-0.7091297	0.5989251	0.0003123796	0.05158984	0.01450003	0.01318439
	-0.7091297	0.5989251	0.05155437	-0.02607099	0.0145048	0.01318486	0.05508588	0.004839058
	0.0003123796	0.05158984	0.0145048	0.01318486	-0.03003309	0.03467107	-0.708683	0.5994546
	0.01450003	0.01318439	0.05508588	0.004839058	-0.708683	0.5994546	0.05160018	-0.02621297
3.6e+08	-0.02568095	0.02896759	-0.6390758	0.6720728	0.00931302	0.05345612	0.01582404	0.0120354
	-0.6390758	0.6720728	0.04202647	-0.03213003	0.01582967	0.01203568	0.05774557	0.002721465
	0.00931302	0.05345612	0.01582967	0.01203568	-0.02570291	0.0290656	-0.6385606	0.6725622
	0.01582404	0.0120354	0.05774557	0.002721465	-0.6385606	0.6725622	0.04207654	-0.03227625
3.7e+08	-0.02223907	0.02291055	-0.5614924	0.7370663	0.0186886	0.05364172	0.01711711	0.01084506
	-0.5614924	0.7370663	0.03193141	-0.03562299	0.01712378	0.01084492	0.0602819	0.0001691455
	0.0186886	0.05364172	0.01712378	0.01084492	-0.02225853	0.02303168	-0.5609127	0.7375084
	0.01711711	0.01084506	0.0602819	0.0001691455	-0.5609127	0.7375084	0.03198582	-0.0357753
3.8e+08	-0.01969538	0.01654528	-0.4773337	0.7931273	0.02811803	0.05207453	0.0184129	0.009588258
	-0.4773337	0.7931273	0.02186677	-0.0365206	0.01842072	0.00958739	0.06261676	-0.002796599
	0.02811803	0.05207453	0.01842072	0.00958739	-0.01970767	0.01668878	-0.4766942	0.7935129
	0.0184129	0.009588258	0.06261676	-0.002796599	-0.4766942	0.7935129	0.02192506	-0.03668071
3.9e+08	-0.01804643	0.009981433	-0.3876297	0.8395948	0.03726746	0.04874491	0.01973261	0.008224348
	-0.3876297	0.8395948	0.01241894	-0.03492572	0.01974152	0.008222344	0.06467997	-0.006139163
	0.03726746	0.04874491	0.01974152	0.008222344	-0.01804718	0.01014556	-0.3869354	0.839917
	0.01973261	0.008224348	0.06467997	-0.006139163	-0.3869354	0.839917	0.01248033	-0.03509529
4e+08	-0.01728125	0.003316994	-0.2934793	0.8759257	0.04580274	0.04370776	0.02108	0.006702118
	-0.2934793	0.8759257	0.00413492	-0.03106684	0.02108994	0.006698559	0.06641203	-0.009809685
	0.04580274	0.04370776	0.02108994	0.006698559	-0.01726645	0.003499063	-0.2927366	0.8761775
	0.02108	0.006702118	0.06641203	-0.009809685	-0.2927366	0.8761775	0.004198324	-0.0312473
4.1e+08	-0.01738581	-0.003358944	-0.1960318	0.9017061	0.05340178	0.03708202	0.02243791	0.004965734
	-0.1960318	0.9017061	-0.002504014	-0.02528606	0.02244876	0.004960257	0.06776587	-0.01375004
	0.05340178	0.03708202	0.02244876	0.004960257	-0.01735207	-0.003162549	-0.1952486	0.9018806
	0.02243791	0.004965734	0.06776587	-0.01375004	-0.1952486	0.9018806	-0.002439994	-0.02547862
4.2e+08	-0.01834476	-0.009963547	-0.09647134	0.9166504	0.05976732	0.02904738	0.02376737	0.002961866
	-0.09647134	0.9166504	-0.00710502	-0.01802192	0.02377873	0.002954024	0.06870791	-0.01789698
	0.05976732	0.02904738	0.02377873	0.002954024	-0.01828951	-0.009757318	-0.09565481	0.9167425
	0.02376737	0.002961866	0.06870791	-0.01789698	-0.09565481	0.9167425	-0.007041845	-0.01822749
4.3e+08	-0.02014349	-0.01641781	0.003994987	0.9206092	0.06463798	0.01983953	0.0250081	0.0006467915
	0.003994987	0.9206092	-0.009381724	-0.009787329	0.02501941	0.0006362305	0.06921743	-0.02218501
	0.06463798	0.01983953	0.02501941	0.0006362305	-0.02006518	-0.01620661	0.004835242	0.9206146
	0.0250081	0.0006467915	0.06921743	-0.02218501	0.004835242	0.9206146	-0.009321291	-0.01000638
4.4e+08	-0.02276763	-0.02264262	0.1041537	0.9135673	0.0677987	0.009742208	0.02608162	-0.002006876
	0.1041537	0.9135673	-0.009168144	-0.001144461	0.02609253	-0.002020349	0.06928602	-0.02654925
	0.0677987	0.009742208	0.02609253	-0.002020349	-0.02266583	-0.02243181	0.105009	0.9134802
	0.02608162	-0.002006876	0.06928602	-0.02654925	0.105009	0.9134802	-0.009112147	-0.001377466
4.5e+08	-0.02620196	-0.02855638	0.2027988	0.8956425	0.06908953	-0.0009220503	0.02689668	-0.005004498
	0.2027988	0.8956425	-0.006425669	0.007321774	0.02690645	-0.005021021	0.06891568	-0.03092682
	0.06908953	-0.0009220503	0.02690645	-0.005021021	-0.02607736	-0.02835121	0.2036591	0.8954607
	0.02689668	-0.005004498	0.06891568	-0.03092682	0.2036591	0.8954607	-0.006375918	0.007075036
4.6e+08	-0.03042801	-0.03407224	0.2987482	0.8670832	0.06841264	-0.01180224	0.0273556	-0.008325585
	0.2987482	0.8670832	-0.001244414	0.01503295	0.02736354	-0.008345104	0.06811777	-0.0352589
	0.06841264	-0.01180224	0.02736354	-0.008345104	-0.03028263	-0.03387813	0.2996031	0.8668035
	0.0273556	-0.008325585	0.06811777	-0.0352589	0.2996031	0.8668035	-0.00120252	0.01477248
4.7e+08	-0.03542155	-0.03909756	0.3908544	0.8282692	0.06573711	-0.02253189	0.02736196	-0.01192168
	0.3908544	0.8282692	0.006160873	0.02144336	0.02736726	-0.011944	0.06691126	-0.0394904
	0.06573711	-0.02253189	0.02736726	-0.011944	-0.03525844	-0.0389191	0.3916943	0.827892
	0.02736196	-0.01192168	0.06691126	-0.0394904	0.3916943	0.827892	0.006193207	0.02117018
4.8e+08	-0.04114877	-0.04353322	0.4780211	0.7797046	0.06110121	-0.03274113	0.02682854	-0.01571696
	0.4780211	0.7797046	0.01546117	0.0260677	0.02683054	-0.01574169	0.06532231	-0.04357137
	0.06110121	-0.03274113	0.02683054	-0.01574169	-0.04097233	-0.04337476	0.4788333	0.7792281
	0.02682854	-0.01571696	0.06532231	-0.04357137	0.4788333	0.7792281	0.01548258	0.02578215
4.9e+08	-0.04756254	-0.04727484	0.5592192	0.7220108	0.05461254	-0.04207046	0.02568558	-0.01961101
	0.5592192	0.7220108	0.02622993	0.02850269	0.02568368	-0.01963761	0.06338333	-0.04745662
	0.05461254	-0.04207046	0.02568368	-0.01963761	-0.0473779	-0.04713937	0.5599922	0.7214362
	0.02568558	-0.01961101	0.06338333	-0.04745662	0.5599922	0.7214362	0.026239	0.02820583
5e+08	-0.05460008	-0.05021521	0.6334916	0.6559169	0.04644486	-0.05018368	0.02388672	-0.02348348
	0.6334916	0.6559169	0.03796121	0.02844633	0.02388044	-0.02351124	0.06113249	-0.05110668
	0.04644486	-0.05018368	0.02388044	-0.02351124	-0.05441314	-0.05010462	0.6342146	0.6552472
	0.02388672	-0.02348348	0.06113249	-0.05110668	0.6342146	0.6552472	0.03795698	0.02813942
5.1e+08	-0.06217939	-0.0522466	0.6999774	0.5822549	0.03683353	-0.05678028	0.02141475	-0.02720094
	0.6999774	0.5822549	0.05009637	0.02571377	0.02140376	-0.02722911	0.05861384	-0.05448785
	0.03683353	-0.05678028	0.02140376	-0.02722911	-0.06199661	-0.05216162	0.7006371	0.5814937
	0.02141475	-0.02720094	0.05861384	-0.05448785	0.7006371	0.5814937	0.05007769	0.02539774
5.2e+08	-0.07019797	-0.05326576	0.7579119	0.5019462	0.02606759	-0.06160706	0.01828476	-0.03062494
	0.7579119	0.5019462	0.06204756	0.0202442	0.0182688	-0.0306526	0.05587713	-0.05757441
	0.02606759	-0.06160706	0.0182688	-0.0306526	-0.07002589	-0.05320536	0.7584966	0.5010991
	0.01828476	-0.03062494	0.05587713	-0.05757441	0.7584966	0.5010991	0.06201353	0.0199205
