!$
! Info: Touchstone file created by Circ.  Input file=C2M_PCB_85ohms_6p0in_20230620_v3.circ
!$
# Hz S RI R 50
0	0.007559609	3.121776e-24	0.99241	-2.92444e-24	0.0001545707	8.322923e-23	-0.0001508676	1.857431e-20
	0.99241	-2.779747e-24	0.007378348	1.71298e-24	-0.0001482034	1.824801e-20	9.833735e-06	8.316611e-21
	0.0001545708	8.326344e-23	-0.0001482034	1.82478e-20	0.007562956	3.598718e-24	0.9924233	-2.82097e-24
	-0.0001508676	1.857434e-20	9.833714e-06	8.316685e-21	0.9924233	-2.837719e-24	0.007391765	2.12382e-24
1e+07	0.01024915	-0.004955999	0.9846082	-0.09449608	0.0005729008	0.002971215	-0.0002537591	-0.0004781565
	0.9846082	-0.09449608	0.009752058	-0.004735082	-0.000251751	-0.0004787557	0.0003531563	0.003056474
	0.0005729008	0.002971215	-0.000251751	-0.0004787557	0.01033222	-0.004953911	0.9845369	-0.09452472
	-0.0002537591	-0.0004781565	0.0003531563	0.003056474	0.9845369	-0.09452472	0.009836185	-0.004726318
2e+07	0.0117066	-0.01252335	0.9685493	-0.1851063	0.001621561	0.005711546	-0.0003659704	-0.0008854197
	0.9685493	-0.1851063	0.01021513	-0.01193756	-0.0003644726	-0.0008858139	0.001075606	0.005909627
	0.001621588	0.005711453	-0.000364452	-0.0008858629	0.01176848	-0.01254318	0.9684818	-0.1851266
	-0.0003659472	-0.0008854657	0.001075625	0.005909624	0.9684818	-0.1851266	0.01028608	-0.01194747
3e+07	0.01125158	-0.02117623	0.945063	-0.2725883	0.003243251	0.008129011	-0.0005014206	-0.001256636
	0.945063	-0.2725883	0.008118255	-0.01985493	-0.0005000019	-0.001256839	0.002146741	0.00856478
	0.003243239	0.008129004	-0.0005000099	-0.001256835	0.01129608	-0.02119706	0.9449967	-0.2726142
	-0.0005014298	-0.001256632	0.002146733	0.008564797	0.9449967	-0.2726142	0.008182113	-0.0198658
4e+07	0.009193075	-0.02995366	0.9141123	-0.357001	0.00536781	0.01015025	-0.0006650451	-0.001633008
	0.9141123	-0.357001	0.003884031	-0.0273375	-0.0006635129	-0.001633059	0.003538606	0.01102419
	0.005367811	0.01015025	-0.0006635141	-0.001633056	0.009223058	-0.02996857	0.9140447	-0.3570359
	-0.000665046	-0.001633005	0.003538603	0.01102419	0.9140447	-0.3570359	0.003944496	-0.02734624
5e+07	0.005700536	-0.03848373	0.8758983	-0.437842	0.007909255	0.01169452	-0.0008675746	-0.002030107
	0.8758983	-0.437842	-0.002169588	-0.0338626	-0.0008658017	-0.002030117	0.005217428	0.01325655
	0.007909255	0.01169452	-0.0008658033	-0.002030117	0.005718607	-0.0384883	0.8758263	-0.4378874
	-0.0008675762	-0.002030106	0.005217425	0.01325655	0.8758263	-0.4378874	-0.002109392	-0.03386838
6e+07	0.0009142297	-0.04650873	0.8307438	-0.5145403	0.01077297	0.01268856	-0.001130782	-0.002450111
	0.8307438	-0.5145403	-0.009730463	-0.03905927	-0.001128756	-0.002450236	0.007147839	0.01522887
	0.01077297	0.01268857	-0.001128754	-0.002450236	0.0009238118	-0.04649982	0.8306648	-0.5145973
	-0.001130781	-0.002450112	0.007147843	0.01522887	0.8306648	-0.5145973	-0.009668561	-0.03906255
7e+07	-0.005023597	-0.05382333	0.7790519	-0.5865294	0.01385067	0.01307713	-0.001476186	-0.002886868
	0.7790519	-0.5865294	-0.01846495	-0.04264574	-0.001473976	-0.00288724	0.009286718	0.01691469
	0.01385067	0.01307713	-0.001473973	-0.002887242	-0.005019215	-0.05379894	0.7789621	-0.5865976
	-0.001476184	-0.00288687	0.00928672	0.01691469	0.7789621	-0.5865976	-0.0183996	-0.04264712
8e+07	-0.01195844	-0.06025976	0.7212914	-0.6532751	0.01702525	0.0128257	-0.001923741	-0.003326528
	0.7212914	-0.6532751	-0.02801518	-0.04441684	-0.001921436	-0.003327209	0.01158718	0.01829634
	0.01702525	0.0128257	-0.001921437	-0.003327206	-0.01195581	-0.0602188	0.7211874	-0.6533538
	-0.001923742	-0.003326525	0.01158718	0.01829635	0.7211874	-0.6533538	-0.02794512	-0.04441705
9e+07	-0.01972241	-0.06568472	0.6579817	-0.7142869	0.0201755	0.01192189	-0.002490133	-0.003748225
	0.6579817	-0.7142869	-0.03800484	-0.04424046	-0.00248784	-0.003749253	0.01400151	0.01936517
	0.02017549	0.01192189	-0.002487841	-0.003749244	-0.01971763	-0.0656268	0.6578606	-0.7143753
	-0.002490131	-0.003748216	0.01400151	0.01936518	0.6578606	-0.7143753	-0.03792935	-0.04424043
1e+08	-0.02813451	-0.07000082	0.5896859	-0.7691287	0.02318047	0.0103768	-0.003188282	-0.004126071
	0.5896859	-0.7691287	-0.04805023	-0.04205368	-0.003186127	-0.004127446	0.01648495	0.02012123
	0.02318048	0.0103768	-0.003186127	-0.004127447	-0.02812245	-0.06992642	0.5895425	-0.7692254
	-0.003188281	-0.004126072	0.01648495	0.02012123	0.5895425	-0.7692254	-0.0479687	-0.04205303
1.1e+08	-0.03702851	-0.07313941	0.517003	-0.8174053	0.02592765	0.008213831	-0.004024326	-0.004416446
	0.517003	-0.8174053	-0.05772756	-0.0378982	-0.004021719	-0.004419645	0.01899081	0.02056139
	0.02592765	0.008213831	-0.004021719	-0.004419646	-0.03700134	-0.0730449	0.5168353	-0.8175028
	-0.004024325	-0.004416448	0.01899081	0.02056139	0.5168353	-0.8175028	-0.05757119	-0.03789408
1.2e+08	-0.04622125	-0.07505056	0.4405694	-0.8588011	0.02829576	0.005483547	-0.004982563	-0.004593398
	0.4405694	-0.8588011	-0.06671553	-0.03183373	-0.004981011	-0.00459746	0.02147094	0.02070857
	0.02829576	0.005483548	-0.004981011	-0.004597462	-0.04617986	-0.07494785	0.4403756	-0.8588968
	-0.004982563	-0.004593399	0.02147094	0.02070857	0.4403756	-0.8588968	-0.06653786	-0.03186302
1.3e+08	-0.05552281	-0.07572021	0.3610317	-0.8930579	0.03018482	0.002258117	-0.006053125	-0.004623892
	0.3610317	-0.8930579	-0.0746531	-0.02401185	-0.006052738	-0.004627901	0.02389216	0.02058373
	0.03018482	0.002258117	-0.006052738	-0.004627902	-0.05547044	-0.07561397	0.3608095	-0.8931455
	-0.006053126	-0.004623893	0.02389216	0.02058373	0.3608095	-0.8931455	-0.07448216	-0.02406836
1.4e+08	-0.06474983	-0.07516417	0.2790486	-0.9199743	0.03150811	-0.001376052	-0.007214564	-0.004475169
	0.2790486	-0.9199743	-0.08122474	-0.01464815	-0.007215019	-0.00447869	0.02622499	0.02021127
	0.03150811	-0.001376052	-0.00721502	-0.004478691	-0.06468903	-0.07505535	0.2787988	-0.9200504
	-0.007214565	-0.00447517	0.02622499	0.02021127	0.2787988	-0.9200504	-0.0810686	-0.01471975
1.5e+08	-0.07372977	-0.0734265	0.1952884	-0.9394144	0.03219417	-0.005319269	-0.008436357	-0.004118747
	0.1952884	-0.9394144	-0.08616578	-0.004007327	-0.008437337	-0.004121681	0.02844506	0.01961768
	0.03219417	-0.005319269	-0.008437338	-0.004121682	-0.07366132	-0.07331472	0.1950116	-0.9394736
	-0.008436358	-0.004118748	0.02844505	0.01961768	0.1950116	-0.9394736	-0.08602283	-0.004085764
1.6e+08	-0.08230363	-0.070576	0.1104186	-0.9512971	0.03218897	-0.009461335	-0.009680551	-0.003532572
	0.1104186	-0.9512971	-0.08926444	0.007607062	-0.009681876	-0.003534938	0.03053346	0.01883137
	0.03218897	-0.009461335	-0.009681876	-0.003534938	-0.08222721	-0.07046099	0.1101161	-0.951335
	-0.009680552	-0.003532572	0.03053346	0.01883137	0.1101161	-0.951335	-0.0891305	0.007525549
1.7e+08	-0.09032997	-0.06670203	0.02510496	-0.9555983	0.03145715	-0.01368417	-0.01090333	-0.002702724
	0.02510496	-0.9555983	-0.09036684	0.01986128	-0.01090488	-0.002704578	0.03247636	0.01788135
	0.03145715	-0.01368417	-0.01090488	-0.002704578	-0.09024457	-0.06658419	0.02477901	-0.955611
	-0.01090333	-0.002702725	0.03247635	0.01788135	0.02477901	-0.955611	-0.09023797	0.01977718
1.8e+08	-0.09768571	-0.06191138	-0.05999558	-0.9523506	0.02998304	-0.01786525	-0.01205727	-0.0016246
	-0.05999558	-0.9523506	-0.08937989	0.03240244	-0.01205902	-0.00162595	0.03426491	0.01679671
	0.02998304	-0.01786525	-0.01205902	-0.00162595	-0.09759044	-0.06179169	-0.06034291	-0.9523352
	-0.01205727	-0.0016246	0.03426491	0.0167967	-0.06034291	-0.9523352	-0.0892535	0.0323147
1.9e+08	-0.104269	-0.0563237	-0.1442369	-0.9416389	0.02777095	-0.02188059	-0.01309331	-0.0003037265
	-0.1442369	-0.9416389	-0.08627318	0.04486804	-0.01309523	-0.0003045681	0.03589491	0.01560619
	0.02777095	-0.02188059	-0.01309523	-0.0003045683	-0.104163	-0.05620397	-0.1446031	-0.94159
	-0.01309332	-0.0003037266	0.03589491	0.01560619	-0.1446031	-0.94159	-0.08614738	0.04477471
2e+08	-0.1099987	-0.05006874	-0.2269896	-0.9235969	0.02484466	-0.02560735	-0.01396311	0.001244041
	-0.2269896	-0.9235969	-0.08107824	0.05689721	-0.01396516	0.001243765	0.03736604	0.01433715
	0.02484466	-0.02560736	-0.01396516	0.001243765	-0.109882	-0.04995094	-0.2273706	-0.9235123
	-0.01396311	0.001244041	0.03736604	0.01433715	-0.2273706	-0.9235123	-0.08095316	0.05679618
2.1e+08	-0.1148161	-0.04328238	-0.307637	-0.8984094	0.02124754	-0.02892735	-0.01462136	0.002992691
	-0.307637	-0.8984094	-0.07388859	0.06814002	-0.01462347	0.002993024	0.03868202	0.01301596
	0.02124754	-0.02892735	-0.01462347	0.002993024	-0.114689	-0.04316858	-0.3080301	-0.8982848
	-0.01462136	0.002992691	0.03868202	0.01301596	-0.3080301	-0.8982848	-0.0737645	0.06802988
2.2e+08	-0.1186841	-0.03610283	-0.3855877	-0.8663062	0.01704131	-0.03172964	-0.0150281	0.004906962
	-0.3855877	-0.8663062	-0.06485507	0.07826901	-0.01503017	0.004907974	0.03985052	0.01166744
	0.01704131	-0.03172964	-0.01503017	0.004907974	-0.1185475	-0.03599506	-0.385989	-0.8661397
	-0.0150281	0.004906962	0.03985052	0.01166744	-0.385989	-0.8661397	-0.06473349	0.07814872
2.3e+08	-0.1215864	-0.0286676	-0.4602723	-0.8275628	0.01230486	-0.03391275	-0.01515041	0.006943479
	-0.4602723	-0.8275628	-0.05418208	0.08698757	-0.0151523	0.006945202	0.0408817	0.01031375
	0.01230486	-0.03391275	-0.0151523	0.006945202	-0.1214418	-0.02856771	-0.4606765	-0.8273522
	-0.01515041	0.006943479	0.0408817	0.01031375	-0.4606765	-0.8273522	-0.05406455	0.08685664
2.4e+08	-0.1235274	-0.02111084	-0.5311422	-0.7824962	0.007132897	-0.03538788	-0.01496436	0.009052564
	-0.5311422	-0.7824962	-0.0421209	0.09403753	-0.01496594	0.009054991	0.04178993	0.008975607
	0.007132897	-0.03538788	-0.01496594	0.009054991	-0.1233764	-0.02102024	-0.5315449	-0.7822384
	-0.01496436	0.009052564	0.04178993	0.008975607	-0.5315449	-0.7822384	-0.04200858	0.0938961
2.5e+08	-0.1245298	-0.01355915	-0.5976832	-0.7314666	0.001633835	-0.03608068	-0.01445606	0.0111802
	-0.5976832	-0.7314666	-0.02896208	0.09920888	-0.01445715	0.01118332	0.04259238	0.007670493
	0.001633835	-0.03608068	-0.01445715	0.01118332	-0.1243745	-0.01347916	-0.598079	-0.7311601
	-0.01445606	0.0111802	0.04259238	0.007670493	-0.598079	-0.7311601	-0.02885648	0.09905743
2.6e+08	-0.1246333	-0.006130351	-0.659406	-0.6748731	-0.004072198	-0.03593363	-0.01362268	0.01327044
	-0.659406	-0.6748731	-0.01502811	0.1023425	-0.01362317	0.01327417	0.04330906	0.006412722
	-0.004072198	-0.03593363	-0.01362317	0.01327417	-0.1244759	-0.00606167	-0.6597891	-0.6745184
	-0.01362268	0.01327044	0.04330906	0.006412722	-0.6597891	-0.6745184	-0.01493046	0.1021823
2.7e+08	-0.123892	0.001069201	-0.715858	-0.6131534	-0.009855857	-0.03490707	-0.01247212	0.01526751
	-0.715858	-0.6131534	-0.0006622329	0.1033376	-0.01247181	0.01527168	0.04396246	0.005212687
	-0.009855857	-0.03490707	-0.01247181	0.01527168	-0.1237349	0.00112611	-0.7162234	-0.6127483
	-0.01247212	0.01526751	0.04396246	0.005212687	-0.7162234	-0.6127483	-0.0005728809	0.1031695
2.8e+08	-0.1223722	0.007946895	-0.7666203	-0.5467801	-0.01558136	-0.03298153	-0.01102321	0.01711846
	-0.7666203	-0.5467801	0.01378015	0.1021517	-0.01102205	0.01712302	0.04457756	0.004076591
	-0.01558136	-0.03298153	-0.01102205	0.01712302	-0.1222179	0.007991956	-0.7669606	-0.5463264
	-0.01102321	0.01711846	0.04457756	0.004076591	-0.7669606	-0.5463264	0.0138605	0.1019771
2.9e+08	-0.1201493	0.01442428	-0.811314	-0.4762622	-0.02110905	-0.03015794	-0.009304416	0.01877504
	-0.811314	-0.4762622	0.02794177	0.09880409	-0.009302354	0.01877981	0.04517971	0.003005119
	-0.02110905	-0.03015794	-0.009302354	0.01877981	-0.1200001	0.01445811	-0.8116243	-0.4757612
	-0.009304416	0.01877504	0.04517971	0.003005118	-0.8116243	-0.4757612	0.02801308	0.09862439
3e+08	-0.1173053	0.02043836	-0.8496032	-0.4021388	-0.02629905	-0.02645896	-0.007353162	0.02019648
	-0.8496032	-0.4021388	0.041475	0.0933741	-0.00735011	0.02020124	0.04579565	0.001993887
	-0.02629905	-0.02645896	-0.00735011	0.02020124	-0.1171637	0.02046166	-0.8498769	-0.4015919
	-0.007353162	0.02019648	0.04579565	0.001993887	-0.8498769	-0.4015919	0.0415375	0.0931902
3.1e+08	-0.1139257	0.02594177	-0.8811942	-0.3249777	-0.03101414	-0.02192876	-0.005213104	0.02134999
	-0.8811942	-0.3249777	0.05405099	0.08599803	-0.005209091	0.02135459	0.04645098	0.001032563
	-0.03101414	-0.02192876	-0.005209091	0.02135459	-0.1137943	0.02595582	-0.8814244	-0.324387
	-0.005213105	0.02134999	0.04645098	0.001032563	-0.8814244	-0.324387	0.05410522	0.08581081
3.2e+08	-0.1100969	0.03090222	-0.9058441	-0.2453708	-0.03512314	-0.0166328	-0.002932819	0.02221293
	-0.9058441	-0.2453708	0.06537014	0.07686621	-0.002927903	0.02221732	0.04716965	0.000104831
	-0.03512314	-0.0166328	-0.002927903	0.02221732	-0.1099776	0.03090893	-0.906025	-0.2447423
	-0.002932819	0.02221293	0.04716965	0.0001048309	-0.906025	-0.2447423	0.06541607	0.07667678
3.3e+08	-0.105903	0.03530231	-0.9233603	-0.1639379	-0.03850426	-0.01065704	-0.0005630389	0.02277282
	-0.9233603	-0.1639379	0.07516933	0.06621752	-0.0005572731	0.0227768	0.04797225	-0.0008112846
	-0.03850426	-0.01065704	-0.0005572731	0.0227768	-0.1057976	0.03530367	-0.923487	-0.1632729
	-0.0005630389	0.02277282	0.04797225	-0.0008112847	-0.923487	-0.1632729	0.07520822	0.06602617
3.4e+08	-0.1014237	0.03913744	-0.9336042	-0.08130756	-0.04104847	-0.004106579	0.001845499	0.02302792
	-0.9336042	-0.08130756	0.08323229	0.05432999	0.001852072	0.02303141	0.0488752	-0.001742925
	-0.04104847	-0.004106579	0.001852072	0.02303141	-0.1013337	0.03913605	-0.9336718	-0.08061321
	0.001845499	0.02302792	0.0488752	-0.001742926	-0.9336718	-0.08061321	0.08326447	0.05413758
3.5e+08	-0.09673188	0.04241471	-0.9364931	0.001872731	-0.04266208	0.002896102	0.004244581	0.02298623
	-0.9364931	0.001872731	0.08939333	0.0415149	0.004251853	0.02298926	0.04988859	-0.00272151
	-0.04266208	0.002896102	0.004251853	0.02298926	-0.09665846	0.04241329	-0.9364975	0.002591725
	0.004244581	0.02298623	0.04988859	-0.00272151	-0.9364975	0.002591725	0.08941982	0.04132167
3.6e+08	-0.09189209	0.04515049	-0.932003	0.08494911	-0.04327009	0.01021385	0.006590533	0.02266503
	-0.932003	0.08494911	0.09354386	0.02810589	0.006598476	0.02266748	0.0510164	-0.003781609
	-0.04327009	0.01021385	0.006598476	0.02266748	-0.09183566	0.04515216	-0.9319394	0.08568572
	0.006590533	0.02266503	0.0510164	-0.003781609	-0.9319394	0.08568572	0.09356502	0.027912
3.7e+08	-0.08695956	0.04736799	-0.9201664	0.1672691	-0.04281802	0.01769742	0.008846253	0.02208874
	-0.9201664	0.1672691	0.09563481	0.01444798	0.008854811	0.02209059	0.05225462	-0.00495939
	-0.04281802	0.01769742	0.008854811	0.02209059	-0.08692011	0.04737583	-0.9200327	0.1680174
	0.008846253	0.02208874	0.05225462	-0.00495939	-0.9200327	0.1680174	0.09565167	0.01425347
3.8e+08	-0.08197871	0.04909487	-0.9010776	0.248179	-0.04127427	0.02518877	0.01098236	0.02128757
	-0.9010776	0.248179	0.09567757	0.000888823	0.01099151	0.0212888	0.05359144	-0.006291
	-0.04127427	0.02518877	0.01099151	0.0212888	-0.08195555	0.04911215	-0.9008703	0.248931
	0.01098236	0.02128757	0.05359144	-0.006291	-0.9008703	0.248931	0.09569057	0.0006936223
3.9e+08	-0.07698429	0.05036028	-0.8748888	0.327041	-0.03863111	0.03252457	0.0129783	0.02029497
	-0.8748888	0.327041	0.09374406	-0.01223416	0.01298802	0.02029549	0.05500712	-0.007810763
	-0.03863111	0.03252457	0.01298802	0.02029549	-0.07697618	0.05039004	-0.8746066	0.32779
	0.0129783	0.02029497	0.05500712	-0.007810763	-0.8746066	0.32779	0.09375395	-0.01243039
4e+08	-0.07200054	0.05119275	-0.8418108	0.4032278	-0.03490566	0.03954006	0.01482252	0.0191456
	-0.8418108	0.4032278	0.08996289	-0.0246025	0.01483282	0.01914538	0.05647439	-0.009549709
	-0.03490566	0.03954006	0.01483282	0.01914538	-0.07200569	0.05123789	-0.8414527	0.4039662
	0.01482252	0.0191456	0.05647439	-0.009549709	-0.8414527	0.4039662	0.08997025	-0.0248001
4.1e+08	-0.06704333	0.0516172	-0.8021111	0.4761364	-0.03014007	0.04607264	0.01651213	0.01787269
	-0.8021111	0.4761364	0.08451565	-0.03592731	0.01652306	0.01787178	0.05795896	-0.01153327
	-0.03014007	0.04607264	0.01652306	0.01787178	-0.06705934	0.05168027	-0.8016775	0.4768553
	0.01651213	0.01787269	0.05795896	-0.01153327	-0.8016775	0.4768553	0.08452093	-0.03612656
4.2e+08	-0.06212175	0.05165364	-0.7561086	0.5451892	-0.02440082	0.05196618	0.01805234	0.01650631
	-0.7561086	0.5451892	0.07762984	-0.04595812	0.01806392	0.01650455	0.05942136	-0.0137806
	-0.02440082	0.05196618	0.01806392	0.01650455	-0.06214561	0.05173679	-0.7556001	0.5458819
	0.01805234	0.01650631	0.05942136	-0.0137806	-0.7556001	0.5458819	0.07763362	-0.04615978
4.3e+08	-0.05723941	0.05131495	-0.7041754	0.6098416	-0.01777819	0.05707436	0.01945486	0.0150712
	-0.7041754	0.6098416	0.06957259	-0.05448991	0.01946709	0.0150684	0.06081776	-0.01630312
	-0.01777819	0.05707436	0.01946709	0.0150684	-0.05726789	0.05141974	-0.703595	0.6104998
	0.01945486	0.0150712	0.06081776	-0.01630312	-0.703595	0.6104998	0.06957517	-0.05469438
4.4e+08	-0.05239756	0.05060623	-0.6467308	0.6695854	-0.01038415	0.06126422	0.02073616	0.01358532
	-0.6467308	0.6695854	0.06064052	-0.06136917	0.02074916	0.01358152	0.06210237	-0.01910414
	-0.01038415	0.06126422	0.02074916	0.01358152	-0.05242697	0.05073363	-0.6460794	0.6702008
	0.02073616	0.01358532	0.06210237	-0.01910414	-0.6460794	0.6702008	0.06064183	-0.0615773
4.5e+08	-0.04759719	0.04952429	-0.5842371	0.7239518	-0.002350269	0.06441941	0.02191556	0.0120592
	-0.5842371	0.7239518	0.05115046	-0.06649859	0.0219293	0.01205415	0.06322858	-0.02217794
	-0.002350269	0.06441941	0.0219293	0.01205415	-0.04762382	0.04967463	-0.5835189	0.7245176
	0.02191556	0.0120592	0.06322858	-0.02217794	-0.5835189	0.7245176	0.05115068	-0.06671105
4.6e+08	-0.0428423	0.04805791	-0.5171931	0.7725159	0.006174258	0.06644308	0.02301298	0.01049533
	-0.5171931	0.7725159	0.04142894	-0.06983849	0.02302744	0.01048882	0.06415126	-0.02551092
	0.006174258	0.06644308	0.02302744	0.01048882	-0.04286202	0.04823078	-0.5164114	0.7730248
	0.02301298	0.01049533	0.06415126	-0.02551092	-0.5164114	0.7730248	0.04142791	-0.07005628
4.7e+08	-0.03814161	0.04618839	-0.4461358	0.8148999	0.01502651	0.06726042	0.02404645	0.008888382
	-0.4461358	0.8148999	0.03180243	-0.07140873	0.02406152	0.008880077	0.06482787	-0.02908095
	0.01502651	0.06726042	0.02406152	0.008880077	-0.03815076	0.04638268	-0.445296	0.8153471
	0.02404645	0.008888382	0.06482787	-0.02908095	-0.445296	0.8153471	0.03179983	-0.0716326
4.8e+08	-0.03351158	0.04389122	-0.3716326	0.8507754	0.02403231	0.06682036	0.02503019	0.007225824
	-0.3716326	0.8507754	0.0225863	-0.07128593	0.02504575	0.007215485	0.06522049	-0.03285944
	0.02403231	0.06682036	0.02504575	0.007215485	-0.03350615	0.04410501	-0.3707393	0.8511529
	0.02503019	0.007225824	0.06522049	-0.03285944	-0.3707393	0.8511529	0.02258172	-0.07151666
4.9e+08	-0.0289782	0.04113853	-0.2942743	0.8798672	0.0330101	0.06509743	0.02597292	0.005489579
	-0.2942743	0.8798672	0.01407533	-0.06960207	0.02598878	0.00547693	0.06529664	-0.03681168
	0.0330101	0.06509743	0.02598878	0.00547693	-0.02895496	0.04136924	-0.2933334	0.8801692
	0.02597292	0.005489579	0.06529664	-0.03681168	-0.2933334	0.8801692	0.01406813	-0.06984023
5e+08	-0.02457794	0.03790078	-0.2146748	0.9019469	0.04177474	0.06209219	0.02687576	0.003657206
	-0.2146748	0.9019469	0.006533908	-0.06653821	0.02689167	0.003642012	0.06502986	-0.04089883
	0.04177474	0.06209219	0.02689167	0.003642012	-0.02453402	0.03814515	-0.2136923	0.9021696
	0.02687576	0.003657206	0.06502986	-0.04089883	-0.2136923	0.9021696	0.006523405	-0.06678445
5.1e+08	-0.02035965	0.03415018	-0.133463	0.9168471	0.05014092	0.05783238	0.02773154	0.001704318
	-0.133463	0.9168471	0.0001889822	-0.0623191	0.02774718	0.001686311	0.06440063	-0.0450784
	0.05014092	0.05783238	0.02774718	0.001686311	-0.02029254	0.0344044	-0.1324461	0.9169846
	0.02773154	0.001704318	0.06440063	-0.0450784	-0.1324461	0.9169846	0.0001743731	-0.06257398
5.2e+08	-0.01638349	0.02986369	-0.05128349	0.9244519	0.05792747	0.05237266	0.02852427	-0.000393198
	-0.05128349	0.9244519	-0.004778043	-0.05720599	0.02853915	-0.0004142467	0.06339653	-0.04930672
	0.05792747	0.05237266	0.02853915	-0.0004142468	-0.0162917	0.03012339	-0.05023959	0.9245
