!$
! Info: Touchstone file created by Circ.  Input file=C2M_PCB_85ohms_9p5in_20230620_v3.circ
!$
# Hz S RI R 50
0	0.01032327	4.066648e-24	0.9896464	-3.933112e-24	0.000172566	1.001055e-22	-0.0001688732	2.082708e-20
	0.9896464	-3.788799e-24	0.01014183	2.767298e-24	-0.0001662159	2.050156e-20	2.785649e-05	8.393284e-21
	0.000172566	1.001394e-22	-0.0001662159	2.050135e-20	0.01032659	4.503657e-24	0.9896597	-3.751403e-24
	-0.0001688731	2.082711e-20	2.785646e-05	8.393357e-21	0.9896597	-3.768118e-24	0.01015533	3.088774e-24
1e+07	0.01358513	-0.008777355	0.9763975	-0.130739	0.0008460523	0.003494841	-0.000285736	-0.0004133188
	0.9763975	-0.130739	0.01285882	-0.008450024	-0.0002837474	-0.0004139761	0.0005251477	0.003613979
	0.0008460523	0.003494841	-0.0002837474	-0.0004139761	0.01367876	-0.008776353	0.9763147	-0.1307629
	-0.000285736	-0.0004133188	0.0005251477	0.003613979	0.9763147	-0.1307629	0.01295455	-0.008438541
2e+07	0.01410309	-0.02111036	0.9471076	-0.2547331	0.002542978	0.006531368	-0.0003774186	-0.0007518045
	0.9471076	-0.2547331	0.01177477	-0.02005725	-0.0003759089	-0.0007523077	0.001623968	0.006909089
	0.00254299	0.006531273	-0.0003758927	-0.0007523583	0.01416978	-0.02113275	0.9470321	-0.254741
	-0.0003773997	-0.0007518523	0.001623987	0.006909086	0.9470321	-0.254741	0.0118564	-0.02006511
3e+07	0.01078377	-0.03445937	0.9035093	-0.3721111	0.005093908	0.008881125	-0.0004735195	-0.001091772
	0.9035093	-0.3721111	0.005967733	-0.03184963	-0.0004720541	-0.001092184	0.003249957	0.009835
	0.005093895	0.00888112	-0.0004720617	-0.001092179	0.01082948	-0.03447935	0.9034373	-0.3721199
	-0.0004735282	-0.001091767	0.003249948	0.009835018	0.9034373	-0.3721199	0.006043703	-0.0318572
4e+07	0.004231728	-0.04710368	0.8460673	-0.4821057	0.008281987	0.01036317	-0.0006140951	-0.001490908
	0.8460673	-0.4821057	-0.003630575	-0.04177493	-0.0006125115	-0.001491323	0.00531173	0.012344
	0.008281989	0.01036317	-0.0006125123	-0.001491321	0.004261723	-0.04711235	0.8459957	-0.4821195
	-0.0006140956	-0.001490906	0.005311727	0.012344	0.8459957	-0.4821195	-0.003555051	-0.0417799
5e+07	-0.005060517	-0.0582194	0.7757356	-0.5832555	0.01184415	0.01083976	-0.0008514077	-0.001960419
	0.7757356	-0.5832555	-0.01611611	-0.04879284	-0.000849649	-0.001960989	0.007698805	0.01437605
	0.01184415	0.01083977	-0.0008496505	-0.001960988	-0.005040815	-0.0582115	0.7756608	-0.5832762
	-0.0008514091	-0.001960418	0.007698802	0.01437605	0.7756608	-0.5832762	-0.01603711	-0.04879584
6e+07	-0.01656536	-0.0672224	0.693758	-0.6741356	0.01549267	0.01023735	-0.001245286	-0.00247525
	0.693758	-0.6741356	-0.03050304	-0.05223454	-0.001243435	-0.002476122	0.01029473	0.01589454
	0.01549267	0.01023735	-0.001243433	-0.002476123	-0.01654963	-0.0671953	0.6936763	-0.674164
	-0.001245284	-0.002475251	0.01029473	0.01589454	0.6936763	-0.674164	-0.03041856	-0.05223772
7e+07	-0.0297015	-0.07369601	0.6015838	-0.7534791	0.01892918	0.008561083	-0.001842595	-0.002982694
	0.6015838	-0.7534791	-0.04574	-0.05173401	-0.001840817	-0.00298394	0.0129792	0.01689381
	0.01892918	0.008561085	-0.001840815	-0.002983943	-0.02968382	-0.07364916	0.6014909	-0.7535145
	-0.001842595	-0.002982697	0.0129792	0.01689381	0.6014909	-0.7535145	-0.04564886	-0.05173959
8e+07	-0.0438469	-0.07737786	0.5008142	-0.8202276	0.02186711	0.005894254	-0.002668179	-0.003409365
	0.5008142	-0.8202276	-0.06076032	-0.0472117	-0.00266662	-0.003410949	0.01563909	0.01739798
	0.02186711	0.005894254	-0.002666621	-0.003410946	-0.04382172	-0.07731249	0.500706	-0.8202681
	-0.002668179	-0.003409363	0.01563909	0.01739799	0.500706	-0.8202681	-0.0606624	-0.04722174
9e+07	-0.05836409	-0.07815567	0.3931524	-0.8735484	0.02405194	0.002391506	-0.00371853	-0.003670862
	0.3931524	-0.8735484	-0.07454053	-0.03885666	-0.003717315	-0.003672693	0.01817648	0.0174559
	0.02405194	0.002391506	-0.003717312	-0.003672684	-0.05832626	-0.07807469	0.3930251	-0.873592
	-0.003718526	-0.003670854	0.01817648	0.01745591	0.3930251	-0.873592	-0.0744367	-0.038873
1e+08	-0.07262885	-0.0760648	0.2803635	-0.9128438	0.02527879	-0.001730929	-0.004961679	-0.003683829
	0.2803635	-0.9128438	-0.08616017	-0.02709607	-0.004960886	-0.003685768	0.02051578	0.01713432
	0.02527879	-0.001730929	-0.004960886	-0.003685769	-0.07257337	-0.07597319	0.2802113	-0.9128862
	-0.004961679	-0.00368383	0.02051578	0.01713432	0.2802113	-0.9128862	-0.08605131	-0.02711866
1.1e+08	-0.08607907	-0.07124636	0.1642414	-0.937741	0.02540489	-0.006228482	-0.006328813	-0.003356295
	0.1642414	-0.937741	-0.09479757	-0.01259709	-0.006328352	-0.003359795	0.0225921	0.01649747
	0.02540489	-0.006228482	-0.006328352	-0.003359796	-0.08599675	-0.07114929	0.1640641	-0.9377726
	-0.006328813	-0.003356296	0.0225921	0.01649747	0.1640641	-0.9377726	-0.09461697	-0.01262376
1.2e+08	-0.09817252	-0.06395695	0.04657019	-0.9480946	0.0243351	-0.01080813	-0.007714756	-0.002654901
	0.04657019	-0.9480946	-0.09992269	0.003855582	-0.007715622	-0.002658497	0.02436164	0.01564652
	0.0243351	-0.01080813	-0.007715623	-0.002658499	-0.09807255	-0.06386492	0.04636743	-0.9481098
	-0.007714757	-0.002654902	0.02436164	0.01564652	0.04636743	-0.9481098	-0.09972605	0.003788834
1.3e+08	-0.1084551	-0.05456511	-0.07089696	-0.9439638	0.02206397	-0.0151663	-0.009017522	-0.001561423
	-0.07089696	-0.9439638	-0.10116	0.02135344	-0.009019351	-0.001564192	0.02581381	0.01466888
	0.02206397	-0.0151663	-0.009019352	-0.001564193	-0.108344	-0.05448045	-0.07112352	-0.9439535
	-0.009017523	-0.001561424	0.02581381	0.01466888	-0.07112352	-0.9439535	-0.1009769	0.02125374
1.4e+08	-0.1165691	-0.04351415	-0.1864576	-0.9255957	0.01865609	-0.01900743	-0.0101257	-9.024227e-05
	-0.1864576	-0.9255957	-0.09837464	0.03893215	-0.01012788	-9.192767e-05	0.02695379	0.01364867
	0.01865609	-0.01900743	-0.01012788	-9.192833e-05	-0.1164504	-0.04343648	-0.1867041	-0.9255553
	-0.01012571	-9.024295e-05	0.02695379	0.01364867	-0.1867041	-0.9255553	-0.09821481	0.03881325
1.5e+08	-0.1222645	-0.03130021	-0.2984738	-0.8934206	0.01424353	-0.02205683	-0.01093336	0.00170963
	-0.2984738	-0.8934206	-0.0916718	0.05563635	-0.0109354	0.001708912	0.02780286	0.01266381
	0.01424353	-0.02205683	-0.0109354	0.001708911	-0.1221393	-0.03122945	-0.2987352	-0.8933439
	-0.01093336	0.001709629	0.02780286	0.01266381	-0.2987352	-0.8933439	-0.09153475	0.05550826
1.6e+08	-0.1254028	-0.01844854	-0.4053838	-0.8480275	0.009019763	-0.02407479	-0.01135158	0.003758091
	-0.4053838	-0.8480275	-0.08137861	0.07057346	-0.0113532	0.003758111	0.02839742	0.01178497
	0.009019763	-0.02407479	-0.0113532	0.003758111	-0.1252718	-0.01838551	-0.4056541	-0.8479103
	-0.01135158	0.003758091	0.02839742	0.01178497	-0.4056541	-0.8479103	-0.08126088	0.07044209
1.7e+08	-0.1259573	-0.005488591	-0.5057083	-0.7901608	0.003231161	-0.02486879	-0.01131769	0.005950777
	-0.5057083	-0.7901608	-0.06802152	0.08296159	-0.01131876	0.005951252	0.02878762	0.01107314
	0.003231161	-0.02486879	-0.01131876	0.005951252	-0.1258217	-0.00543497	-0.5059809	-0.7899999
	-0.01131769	0.005950777	0.02878762	0.01107314	-0.5059809	-0.7899999	-0.06791942	0.08282976
1.8e+08	-0.1240083	0.007066903	-0.5980629	-0.7207104	-0.002834089	-0.02430433	-0.0108019	0.008168822
	-0.5980629	-0.7207104	-0.05229213	0.09217183	-0.01080239	0.008169518	0.02903653	0.01057737
	-0.002834089	-0.02430433	-0.01080239	0.008169518	-0.12387	0.007109515	-0.5983313	-0.7205042
	-0.0108019	0.008168822	0.02903652	0.01057737	-0.5983313	-0.7205042	-0.05220262	0.09204098
1.9e+08	-0.1197345	0.01874388	-0.6811644	-0.6407051	-0.008858665	-0.02231328	-0.009810036	0.01028974
	-0.6811644	-0.6407051	-0.03500655	0.09775996	-0.00981001	0.01029046	0.02921851	0.01033224
	-0.008858665	-0.02231328	-0.00981001	0.01029046	-0.1195966	0.01877399	-0.68142	-0.6404509
	-0.009810036	0.01028974	0.02921851	0.01033224	-0.68142	-0.6404509	-0.03492698	0.09763014
2e+08	-0.1134018	0.02912343	-0.7538428	-0.5513041	-0.01451015	-0.01889943	-0.008382874	0.01219893
	-0.7538428	-0.5513041	-0.01705749	0.09948939	-0.008382418	0.01219953	0.02941634	0.01035398
	-0.01451015	-0.01889943	-0.008382418	0.01219953	-0.1132679	0.02914072	-0.7540774	-0.5510034
	-0.008382874	0.01219893	0.02941634	0.01035398	-0.7540774	-0.5510034	-0.01698661	0.09936076
2.1e+08	-0.1053479	0.03785798	-0.8150511	-0.4537986	-0.01945706	-0.0141426	-0.006591661	0.0138002
	-0.8150511	-0.4537986	0.0006346569	0.09734309	-0.006590907	0.01380058	0.029718	0.01063824
	-0.01945706	-0.0141426	-0.006590907	0.01380058	-0.1052219	0.03786312	-0.8152565	-0.4534517
	-0.006591661	0.0138002	0.029718	0.01063824	-0.8152565	-0.4534517	0.0006983616	0.09721579
2.2e+08	-0.09596488	0.04468267	-0.863886	-0.3495958	-0.02338548	-0.008198378	-0.004530402	0.0150245
	-0.863886	-0.3495958	0.01717658	0.09152367	-0.004529471	0.01502462	0.03021157	0.01115758
	-0.02338548	-0.008198378	-0.004529471	0.01502462	-0.09585037	0.04467742	-0.8640548	-0.3492062
	-0.004530402	0.0150245	0.03021157	0.01115758	-0.8640548	-0.3492062	0.01723391	0.09139809
2.3e+08	-0.08567956	0.04942271	-0.8996016	-0.2402138	-0.02601577	-0.001294809	-0.002305581	0.01583518
	-0.8996016	-0.2402138	0.03175211	0.08244088	-0.002304597	0.01583505	0.03097767	0.01185989
	-0.02601577	-0.001294809	-0.002304597	0.01583505	-0.08557983	0.04940994	-0.8997256	-0.2397867
	-0.002305581	0.01583518	0.03097767	0.01185989	-0.8997256	-0.2397867	0.03180396	0.08231753
2.4e+08	-0.07493387	0.05199692	-0.9216236	-0.127269	-0.02712005	0.00627468	-2.472643e-05	0.01623007
	-0.9216236	-0.127269	0.04366988	0.07068726	-2.381293e-05	0.01622976	0.03208444	0.012671
	-0.02712005	0.00627468	-2.3813e-05	0.01622976	-0.07485125	0.05198023	-0.9216953	-0.1268091
	-2.47265e-05	0.01623007	0.03208444	0.012671	-0.9216953	-0.1268091	0.04371763	0.07056646
2.5e+08	-0.06416305	0.05241573	-0.9295768	-0.01245198	-0.0265373	0.01416292	0.002215205	0.01623905
	-0.9295768	-0.01245198	0.05240581	0.05700376	0.002216012	0.01623868	0.03357921	0.01349721
	-0.0265373	0.01416292	0.002216012	0.01623868	-0.06409916	0.05239935	-0.9295898	-0.01196636
	0.002215205	0.01623905	0.03357921	0.01349721	-0.9295898	-0.01196636	0.05245066	0.0568858
2.6e+08	-0.05377789	0.05077538	-0.9232909	0.1024886	-0.02418686	0.02198424	0.004337866	0.01591818
	-0.9232909	0.1024886	0.05763235	0.04223377	0.004338529	0.01591788	0.0354831	0.01423158
	-0.02418686	0.02198424	0.004338529	0.01591788	-0.05373299	0.05076386	-0.9232411	0.1029909
	0.004337866	0.01591818	0.0354831	0.01423158	-0.9232411	0.1029909	0.05767603	0.04211913
2.7e+08	-0.04414748	0.04724738	-0.9028203	0.2157801	-0.02007721	0.02933317	0.006294915	0.01533968
	-0.9028203	0.2157801	0.05924083	0.02727272	0.006295473	0.01533952	0.03778741	0.01476207
	-0.02007721	0.02933317	0.006295473	0.01533952	-0.04412091	0.04724524	-0.9027029	0.2162919
	0.006294915	0.01533968	0.03778741	0.01476207	-0.9027029	0.2162919	0.05928512	0.02716083
2.8e+08	-0.03558555	0.04206466	-0.8684469	0.3256533	-0.01431179	0.03580611	0.008069454	0.01458105
	-0.8684469	0.3256533	0.05734593	0.01301156	0.008070069	0.01458123	0.04045297	0.01498066
	-0.01431179	0.03580611	0.008070069	0.01458123	-0.03557548	0.04207639	-0.8682596	0.3261633
	0.008069453	0.01458105	0.04045297	0.01498066	-0.8682596	0.3261633	0.05739261	0.012902
2.9e+08	-0.02834219	0.03550594	-0.820686	0.430377	-0.00708795	0.04102343	0.009675075	0.01371244
	-0.820686	0.430377	0.05227865	0.0002820026	0.009675905	0.01371306	0.04341108	0.01479199
	-0.00708795	0.04102343	0.009675905	0.01371306	-0.0283456	0.03553519	-0.8204286	0.4308764
	0.009675075	0.01371244	0.04341108	0.01479199	-0.8204286	0.4308764	0.0523294	0.0001735034
3e+08	-0.02259886	0.02787878	-0.7602797	0.5282953	0.001308868	0.04465278	0.01115082	0.01278667
	-0.7602797	0.5282953	0.04456472	-0.01019629	0.01115209	0.01278765	0.04657034	0.01412202
	0.001308868	0.04465278	0.01115209	0.01278765	-0.02261204	0.0279288	-0.7599518	0.528774
	0.01115082	0.01278667	0.04657034	0.01412202	-0.7599518	0.528774	0.04462086	-0.01030542
3.1e+08	-0.0184683	0.01950323	-0.6881836	0.6178564	0.01051713	0.04642941	0.01255174	0.0118294
	-0.6881836	0.6178564	0.03488974	-0.01786025	0.01255369	0.01183068	0.04982286	0.01292337
	0.01051713	0.04642941	0.01255369	0.01183068	-0.01848666	0.01957626	-0.6877862	0.6183041
	0.01255174	0.0118294	0.04982286	0.01292337	-0.6877862	0.6183041	0.03495242	-0.01797198
3.2e+08	-0.01599849	0.01069719	-0.6055524	0.6976493	0.02011606	0.04617381	0.01393768	0.01083589
	-0.6055524	0.6976493	0.02405489	-0.02233815	0.01394065	0.01083735	0.05305352	0.01117829
	0.02011606	0.04617381	0.01394065	0.01083735	-0.01601691	0.01079408	-0.6050905	0.6980553
	0.01393768	0.01083589	0.05305352	0.01117829	-0.6050905	0.6980553	0.0241244	-0.02245478
3.3e+08	-0.01517904	0.001763747	-0.5137211	0.7664255	0.02964667	0.04380485	0.01536032	0.009770331
	-0.5137211	0.7664255	0.0129248	-0.02347153	0.01536445	0.009771619	0.05614869	0.008898562
	0.02964667	0.04380485	0.01536445	0.009771619	-0.01519239	0.00188432	-0.5131969	0.7667824
	0.01536032	0.009770331	0.05614869	0.008898562	-0.5131969	0.7667824	0.01300104	-0.02359548
3.4e+08	-0.01595028	-0.007017352	-0.414167	0.8231282	0.0386355	0.03934745	0.01685159	0.008571095
	-0.414167	0.8231282	0.002372118	-0.02132368	0.01685702	0.0085718	0.05900454	0.006122425
	0.0386355	0.03934745	0.01685702	0.0085718	-0.01595339	-0.006874701	-0.413588	0.8234266
	0.01685159	0.008571095	0.05900454	0.006122425	-0.413588	0.8234266	0.002454349	-0.02145721
3.5e+08	-0.01821264	-0.01539639	-0.3084933	0.866904	0.04661933	0.03293409	0.01841378	0.00715924
	-0.3084933	0.866904	-0.006777813	-0.01617302	0.01842059	0.007158955	0.06153224	0.002909597
	0.04661933	0.03293409	0.01842059	0.007158955	-0.01820081	-0.01523438	-0.3078652	0.8671367
	0.01841378	0.00715924	0.06153224	0.002909597	-0.3078652	0.8671367	-0.006690757	-0.01631813
3.6e+08	-0.02183607	-0.02315637	-0.198392	0.897119	0.05317049	0.02480062	0.02001419	0.005450858
	-0.198392	0.897119	-0.01379835	-0.008493762	0.02002218	0.005449031	0.06366287	-0.0006649406
	0.05317049	0.02480062	0.02002218	0.005449031	-0.02180532	-0.02297904	-0.1977229	0.8972776
	0.02001419	0.005450858	0.06366287	-0.0006649407	-0.1977229	0.8972776	-0.01370826	-0.008652258
3.7e+08	-0.0266682	-0.03011341	-0.08560999	0.9133636	0.05791933	0.01527613	0.02158353	0.003370147
	-0.08560999	0.9133636	-0.01810623	0.001075904	0.02159236	0.0033663	0.06534783	-0.004517378
	0.05791933	0.01527613	0.02159236	0.0033663	-0.02661565	-0.0299256	-0.0849077	0.9134428
	0.02158353	0.003370147	0.06534783	-0.004517378	-0.0849077	0.9134428	-0.01801518	0.0009028332
3.8e+08	-0.03254205	-0.03611645	0.02807298	0.915457	0.06057462	0.004768116	0.02301986	0.0008631197
	0.02807298	0.915457	-0.01929695	0.01177475	0.02302909	0.0008568525	0.0665587	-0.008560309
	0.06057462	0.004768116	0.02302909	0.0008568525	-0.03246603	-0.03592385	0.02879846	0.9154503
	0.02301986	0.0008631198	0.0665587	-0.008560309	0.02879846	0.9154503	-0.01920717	0.01158621
3.9e+08	-0.03928067	-0.04104418	0.1408852	0.9034461	0.06093934	-0.00625677	0.02419678	-0.002091246
	0.1408852	0.9034461	-0.01716773	0.02276746	0.0242057	-0.002100198	0.06728537	-0.01270745
	0.06093934	-0.00625677	0.0242057	-0.002100198	-0.03918099	-0.04085268	0.1416245	0.903349
	0.02419678	-0.002091246	0.06728537	-0.01270745	0.1416245	0.903349	-0.01708147	0.02256326
4e+08	-0.04670205	-0.04480359	0.2510813	0.8775985	0.05892214	-0.01729498	0.02497525	-0.005472663
	0.2510813	0.8775985	-0.01172904	0.03319581	0.02498318	-0.005484414	0.06753363	-0.01687634
	0.05892214	-0.01729498	0.02498318	-0.005484414	-0.04657995	-0.04461915	0.2518235	0.8774075
	0.02497525	-0.005472663	0.06753363	-0.01687634	0.2518235	0.8774075	-0.01164854	0.03297612
4.1e+08	-0.05462119	-0.04732655	0.3569761	0.8383967	0.05454337	-0.02782986	0.02521763	-0.009215831
	0.3569761	0.8383967	-0.003202261	0.04223217	0.02522391	-0.009230285	0.06732266	-0.02098972
	0.05454337	-0.02782986	0.02522391	-0.009230285	-0.05447944	-0.04715474	0.3577084	0.8381094
	0.02521763	-0.009215831	0.06732266	-0.02098972	0.3577084	0.8381094	-0.003129766	0.04199754
4.2e+08	-0.06285157	-0.04856853	0.4569671	0.7865224	0.04793558	-0.03735701	0.02480289	-0.0132118
	0.4569671	0.7865224	0.007995206	0.04912878	0.02480673	-0.01322865	0.06668396	-0.02497702
	0.04793558	-0.03735701	0.02480673	-0.01322865	-0.06269447	-0.04841422	0.4576779	0.7861377
	0.02480289	-0.0132118	0.06668396	-0.02497702	0.4576779	0.7861377	0.008058051	0.04888019
4.3e+08	-0.07120725	-0.04850671	0.5495582	0.7228483	0.03933911	-0.04540798	0.02364017	-0.01731378
	0.5495582	0.7228483	0.02127623	0.05326358	0.02364083	-0.0173325	0.06566002	-0.02877498
	0.03933911	-0.04540798	0.02364083	-0.0173325	-0.07104012	-0.04837355	0.550234	0.722368
	0.02364017	-0.01731378	0.06566002	-0.02877498	0.550234	0.722368	0.02132749	0.05300253
4.4e+08	-0.07950293	-0.04713917	0.6333813	0.6484194	0.02909164	-0.05157316	0.02168007	-0.02134763
	0.6333813	0.6484194	0.03591959	0.05417685	0.02167724	-0.02136764	0.06430434	-0.03232915
	0.02909164	-0.05157316	0.02167724	-0.02136764	-0.07933211	-0.04702945	0.6340081	0.6478443
	0.02168007	-0.02134763	0.06430434	-0.03232915	0.6340081	0.6478443	0.03595797	0.05390435
4.5e+08	-0.08755517	-0.0444844	0.7072136	0.5644336	0.01761373	-0.05552165	0.01892247	-0.02512556
	0.7072136	0.5644336	0.05111409	0.0515974	0.01891573	-0.02514606	0.0626805	-0.03559543
	0.01761373	-0.05552165	0.01891573	-0.02514606	-0.08738736	-0.0443988	0.7077784	0.563769
	0.01892247	-0.02512556	0.0626805	-0.03559543	0.7077784	0.563769	0.05113853	0.05131539
4.6e+08	-0.09518261	-0.04058124	0.7699949	0.4722206	0.005390691	-0.05701761	0.01541898	-0.02846156
	0.7699949	0.4722206	0.06600739	0.04545894	0.01540822	-0.02848172	0.0608616	-0.03854361
	0.005390691	-0.05701761	0.01540822	-0.02848172	-0.09502497	-0.04051862	0.7704839	0.4714722
	0.01541898	-0.02846156	0.0608616	-0.03854361	0.7704839	0.4714722	0.06601716	0.04516871
4.7e+08	-0.1022077	-0.03548875	0.8208415	0.3732249	-0.007049836	-0.0559323	0.01127075	-0.03118689
	0.8208415	0.3732249	0.07975646	0.03590285	0.01125596	-0.0312058	0.05892754	-0.04115968
	-0.007049836	-0.0559323	0.01125596	-0.0312058	-0.1020666	-0.03544625	0.8212439	0.3724019
	0.01127075	-0.03118689	0.05892754	-0.04115968	0.8212439	0.3724019	0.07975132	0.03560664
4.8e+08	-0.1084569	-0.02928696	0.8590571	0.2689801	-0.01916084	-0.05225082	0.006621151	-0.03316421
	0.8590571	0.2689801	0.09157761	0.02327017	0.006602623	-0.0331811	0.05696191	-0.04344982
	-0.01916084	-0.05225082	0.006602623	-0.0331811	-0.1083385	-0.02925987	0.8593591	0.2680925
	0.006621151	-0.03316421	0.05696191	-0.04344982	0.8593591	0.2680925	0.09155718	0.02296927
4.9e+08	-0.1137626	-0.0220781	0.8841422	0.1610816	-0.03040093	-0.04607418	0.001644823	-0.03429916
	0.8841422	0.1610816	0.1007937	0.008078642	0.001622977	-0.03431337	0.05504634	-0.0454418
	-0.03040093	-0.04607418	0.001622977	-0.03431337	-0.1136713	-0.02206033	0.8843334	0.1601423
	0.001644823	-0.03429916	0.05504635	-0.0454418	0.8843334	0.1601423	0.100758	0.007774932
5e+08	-0.1179647	-0.01398682	0.8957913	0.05116726	-0.0402586	-0.03761519	-0.003466891	-0.03454655
	0.8957913	0.05116726	0.1068703	-0.00900712	-0.003491471	-0.03455751	0.05325404	-0.04718589
	-0.0402586	-0.03761519	-0.003491471	-0.03455751	-0.1179034	-0.01397112	0.8958644	0.05019027
	-0.003466891	-0.03454655	0.05325404	-0.04718589	0.8958644	0.05019027	0.1068203	-0.00931199
5.1e+08	-0.1209125	-0.00516249	0.8939068	-0.05911262	-0.04827498	-0.0271905	-0.008521108	-0.03391299
	0.8939068	-0.05911262	0.1094512	-0.02721558	-0.008547842	-0.03392036	0.05164316	-0.04875213
	-0.04827498	-0.0271905	-0.008547842	-0.03392036	-0.1208824	-0.005140812	0.893854	-0.06011089
	-0.008521108	-0.03391299	0.05164316	-0.04875213	0.893854	-0.06011089	0.1093872	-0.02752024
5.2e+08	-0.1224688	0.004219814	0.878587	-0.168114	-0.05406462	-0.01520715	-0.01333874	-0.03245412
	0.878587	-0.168114	0.1083734	-0.04571446	-0.01336701	-0.03245756	0.05025062	-0.05022717
	-0.05406462	-0.01520715	-0.01336701	-0.03245756	-0.1224687	0.004255672	0.8784044	-0.1691164
	-0.01333874	-0.03245412	0.05025062	-0.05022717	0.8784044	-0.1691164	0.1082964	-0.04601749
