!$
! Info: Touchstone file created by Circ.  Input file=C2M_PCB_85ohms_7p0in_20230620_v3.circ
!$
# Hz S RI R 50
0	0.008350799	3.393721e-24	0.9916189	-3.214255e-24	0.0001597334	8.807561e-23	-0.0001560333	1.922061e-20
	0.9916189	-3.069672e-24	0.008169489	2.015457e-24	-0.0001533711	1.889454e-20	1.50043e-05	8.338562e-21
	0.0001597335	8.810976e-23	-0.0001533711	1.889433e-20	0.008354141	3.859186e-24	0.9916322	-3.088329e-24
	-0.0001560333	1.922064e-20	1.500428e-05	8.338636e-21	0.9916321	-3.105069e-24	0.008182928	2.400658e-24
1e+07	0.01123416	-0.006025327	0.9823975	-0.1048948	0.0006471335	0.003123274	-0.0002639083	-0.0004600285
	0.9823975	-0.1048948	0.01067058	-0.005775673	-0.0002619056	-0.0004606443	0.0003981469	0.003217468
	0.0006471335	0.003123274	-0.0002619056	-0.0004606443	0.01132027	-0.006023477	0.982323	-0.1049221
	-0.0002639083	-0.0004600285	0.000398147	0.003217468	0.982323	-0.1049221	0.01075802	-0.00576605
2e+07	0.01252334	-0.01494871	0.9629435	-0.2051922	0.001873103	0.005960458	-0.0003730417	-0.0008464633
	0.9629435	-0.2051922	0.01078493	-0.0142416	-0.0003715395	-0.0008468875	0.001217508	0.006204416
	0.001873125	0.005960365	-0.0003715201	-0.0008469371	0.01258664	-0.01496922	0.9628736	-0.2052091
	-0.0003730197	-0.00084651	0.001217527	0.006204413	0.9628736	-0.2052091	0.0108589	-0.01425077
3e+07	0.01141607	-0.0249952	0.9343	-0.3015456	0.00375653	0.008386556	-0.0004999543	-0.001204344
	0.9343	-0.3015456	0.007771362	-0.02334231	-0.000498518	-0.001204603	0.002434152	0.008954093
	0.003756518	0.00838655	-0.0004985258	-0.001204599	0.01146088	-0.02501578	0.9342317	-0.3015667
	-0.0004999634	-0.00120434	0.002434144	0.00895411	0.9342317	-0.3015667	0.007838597	-0.02335198
4e+07	0.008282102	-0.03501828	0.8965183	-0.393846	0.006196537	0.01029916	-0.0006565629	-0.00157972
	0.8965183	-0.393846	0.002160286	-0.03170064	-0.0006550042	-0.001579871	0.004007418	0.01145636
	0.006196538	0.01029916	-0.0006550053	-0.001579868	0.008311864	-0.03503141	0.896449	-0.3938748
	-0.0006565637	-0.001579718	0.004007414	0.01145636	0.896449	-0.3938748	0.00222492	-0.03170785
5e+07	0.003349416	-0.0445394	0.8499442	-0.481371	0.009068939	0.01159753	-0.0008624992	-0.00198922
	0.8499442	-0.481371	-0.005611946	-0.03865956	-0.0008607065	-0.001989388	0.0058876	0.01367108
	0.00906894	0.01159753	-0.0008607082	-0.001989388	0.003367437	-0.04454033	0.8498707	-0.4814093
	-0.0008625008	-0.001989219	0.005887597	0.01367108	0.8498707	-0.4814093	-0.005546514	-0.03866383
6e+07	-0.003171879	-0.05321842	0.7950824	-0.5633422	0.0122354	0.01219873	-0.001148782	-0.002431546
	0.7950824	-0.5633422	-0.01509469	-0.04375654	-0.001146767	-0.002431892	0.008021654	0.01556108
	0.0122354	0.01219874	-0.001146765	-0.002431892	-0.003161407	-0.053204	0.7950017	-0.5633908
	-0.00114878	-0.002431547	0.008021658	0.01556108	0.7950017	-0.5633908	-0.01502637	-0.04375875
7e+07	-0.01105811	-0.06078732	0.7325471	-0.6390099	0.01554157	0.01204988	-0.00154494	-0.002892788
	0.7325471	-0.6390099	-0.02580084	-0.04665843	-0.001542802	-0.002893438	0.01034845	0.01710064
	0.01554157	0.01204988	-0.0015428	-0.00289344	-0.01105115	-0.06075576	0.7324553	-0.6390685
	-0.001544939	-0.002892791	0.01034845	0.01710063	0.7324553	-0.6390685	-0.02572793	-0.04665961
8e+07	-0.02006441	-0.06703549	0.6630408	-0.7076881	0.01882502	0.01113104	-0.002076121	-0.003347637
	0.6630408	-0.7076881	-0.03721218	-0.04714935	-0.002073971	-0.003348633	0.01280415	0.01827743
	0.01882502	0.01113104	-0.002073972	-0.00334863	-0.02005682	-0.06698614	0.6629343	-0.7077554
	-0.002076121	-0.003347634	0.01280415	0.01827744	0.6629343	-0.7077554	-0.03713358	-0.04715064
9e+07	-0.02992733	-0.07180717	0.5873339	-0.7687669	0.021923	0.009456235	-0.002760071	-0.003761167
	0.5873339	-0.7687669	-0.04879406	-0.04512676	-0.002758035	-0.003762518	0.01532629	0.01909222
	0.021923	0.009456236	-0.002758034	-0.003762509	-0.02991466	-0.07174036	0.5872096	-0.768842
	-0.002760069	-0.003761158	0.01532629	0.01909223	0.5872096	-0.768842	-0.04870935	-0.04512942
1e+08	-0.04036979	-0.07500369	0.5062518	-0.8217265	0.0246798	0.007073774	-0.00360609	-0.004092373
	0.5062518	-0.8217265	-0.06001568	-0.04059538	-0.003604296	-0.004094041	0.01785875	0.01955754
	0.0246798	0.007073774	-0.003604296	-0.004094042	-0.0403466	-0.07492106	0.5061041	-0.8218072
	-0.00360609	-0.004092374	0.01785876	0.01955754	0.5061041	-0.8218072	-0.05992457	-0.04059926
1.1e+08	-0.05113401	-0.07656896	0.4206626	-0.8661257	0.02695663	0.004050855	-0.004609845	-0.004280978
	0.4206626	-0.8661257	-0.07032246	-0.03369889	-0.004607866	-0.004284447	0.02034544	0.01968352
	0.02695663	0.004050855	-0.004607866	-0.004284448	-0.05109129	-0.07646914	0.4204901	-0.866204
	-0.004609845	-0.00428098	0.02034545	0.01968352	0.4204901	-0.866204	-0.07015659	-0.03370151
1.2e+08	-0.061943	-0.07648546	0.3314684	-0.9016346	0.02861459	0.0004918423	-0.005739665	-0.004291168
	0.3314684	-0.9016346	-0.07929164	-0.0246316	-0.005738892	-0.004295307	0.0227332	0.01951108
	0.02861459	0.0004918427	-0.005738892	-0.004295309	-0.06188394	-0.0763805	0.3312693	-0.9017071
	-0.005739665	-0.004291169	0.0227332	0.01951108	0.3312693	-0.9017071	-0.07910514	-0.02466982
1.3e+08	-0.0725258	-0.07479159	0.2395801	-0.9280137	0.0295502	-0.003473819	-0.006966837	-0.004082425
	0.2395801	-0.9280137	-0.08649381	-0.01369941	-0.006967256	-0.004086285	0.02498864	0.01907743
	0.0295502	-0.003473818	-0.006967256	-0.004086286	-0.07245463	-0.07468576	0.2393531	-0.9280731
	-0.006966837	-0.004082427	0.02498864	0.01907743	0.2393531	-0.9280731	-0.08631516	-0.01376701
1.4e+08	-0.08262996	-0.07156917	0.1459139	-0.9451107	0.02968556	-0.00770122	-0.008247591	-0.003620141
	0.1459139	-0.9451107	-0.09158104	-0.001286783	-0.008248797	-0.003623306	0.02708505	0.01842264
	0.02968556	-0.00770122	-0.008248797	-0.003623306	-0.08254946	-0.0714631	0.1456602	-0.9451533
	-0.008247592	-0.003620142	0.02708505	0.01842264	0.1456602	-0.9451533	-0.09141885	-0.00137142
1.5e+08	-0.09202813	-0.06693919	0.05138468	-0.9528679	0.02897073	-0.01203316	-0.009527725	-0.002880621
	0.05138468	-0.9528679	-0.09429517	0.01216677	-0.009529348	-0.002883018	0.02900361	0.01758768
	0.02897073	-0.01203316	-0.009529349	-0.002883019	-0.09193903	-0.06683265	0.05110606	-0.9528876
	-0.009527725	-0.002880621	0.02900361	0.01758768	0.05110606	-0.9528876	-0.09414829	0.01207361
1.6e+08	-0.1005222	-0.06105555	-0.04310561	-0.9513075	0.02738558	-0.01630549	-0.01074625	-0.001853605
	-0.04310561	-0.9513075	-0.09447007	0.0261853	-0.01074807	-0.001855279	0.03073339	0.01661404
	0.02738558	-0.01630549	-0.01074807	-0.001855279	-0.1004242	-0.06094867	-0.0434067	-0.9512998
	-0.01074625	-0.001853606	0.03073339	0.01661404	-0.0434067	-0.9512998	-0.09433473	0.02608778
1.7e+08	-0.1079478	-0.05409743	-0.1366704	-0.940533	0.02494037	-0.02035214	-0.01183903	-0.0005438263
	-0.1366704	-0.940533	-0.09203572	0.04027354	-0.01184089	-0.0005448636	0.03227051	0.01554221
	0.02494037	-0.02035214	-0.01184089	-0.0005448639	-0.1078402	-0.05399122	-0.1369908	-0.9404938
	-0.01183903	-0.0005438266	0.03227051	0.01554221	-0.1369908	-0.9404938	-0.0919083	0.04017263
1.8e+08	-0.1141758	-0.04626347	-0.2284475	-0.9207257	0.02167544	-0.02401075	-0.01274298	0.001028644
	-0.2284475	-0.9207257	-0.08701801	0.05393588	-0.01274479	0.001028197	0.03361783	0.01441105
	0.02167544	-0.02401075	-0.01274479	0.001028197	-0.1140582	-0.04615949	-0.228784	-0.9206521
	-0.01274298	0.001028644	0.03361783	0.01441105	-0.228784	-0.9206521	-0.08689613	0.05383114
1.9e+08	-0.119114	-0.03776388	-0.3176017	-0.8921393	0.01766009	-0.0271276	-0.01339972	0.002828842
	-0.3176017	-0.8921393	-0.0795364	0.06669309	-0.01340143	0.002828941	0.03478447	0.01325738
	0.01766009	-0.0271276	-0.01340143	0.002828941	-0.1189865	-0.03766446	-0.3179502	-0.8920259
	-0.01339972	0.002828842	0.03478447	0.01325738	-0.3179502	-0.8920259	-0.07941828	0.06658307
2e+08	-0.122707	-0.02881535	-0.4033311	-0.8550945	0.01299045	-0.02956179	-0.01375927	0.004808478
	-0.4033311	-0.8550945	-0.0697974	0.07809954	-0.01376082	0.004809115	0.03578492	0.0121147
	0.01299045	-0.02956179	-0.01376082	0.004809115	-0.1225705	-0.02872267	-0.4036864	-0.8549394
	-0.01375927	0.004808478	0.03578492	0.0121147	-0.4036864	-0.8549394	-0.06968316	0.07798281
2.1e+08	-0.1249356	-0.0196342	-0.4848649	-0.8099808	0.007787378	-0.03119029	-0.0137832	0.006908216
	-0.4848649	-0.8099808	-0.05808803	0.08775778	-0.01378451	0.006909361	0.03663926	0.01101344
	0.007787378	-0.03119029	-0.01378451	0.006909361	-0.1247917	-0.0195503	-0.4852224	-0.8097804
	-0.0137832	0.006908216	0.03663926	0.01101344	-0.4852224	-0.8097804	-0.05797778	0.08763347
2.2e+08	-0.1258154	-0.01043036	-0.5614758	-0.7572489	0.002193094	-0.03191162	-0.01344712	0.00906092
	-0.5614758	-0.7572489	-0.04476309	0.09533343	-0.01344809	0.009062556	0.03737296	0.009979941
	0.002193094	-0.03191162	-0.01344809	0.009062556	-0.1256661	-0.01035694	-0.5618303	-0.7570019
	-0.01344712	0.00906092	0.03737296	0.009979941	-0.5618303	-0.7570019	-0.04465808	0.09520112
2.3e+08	-0.1253937	-0.001402501	-0.632479	-0.6974101	-0.003632274	-0.03164885	-0.01274201	0.01119505
	-0.632479	-0.6974101	-0.03023329	0.1005657	-0.01274253	0.01119712	0.03801521	0.009034865
	-0.003632274	-0.03164885	-0.01274253	0.01119712	-0.1252415	-0.001340792	-0.6328238	-0.6971157
	-0.01274201	0.01119505	0.03801521	0.009034864	-0.6328238	-0.6971157	-0.03013473	0.1004255
2.4e+08	-0.1237469	0.007266487	-0.6972319	-0.6310337	-0.009514987	-0.03035334	-0.01167515	0.01323876
	-0.6972319	-0.6310337	-0.01495001	0.1032757	-0.01167516	0.01324119	0.03860031	0.008193759
	-0.009514987	-0.03035334	-0.01167516	0.01324119	-0.1235946	0.007315928	-0.6975609	-0.63069
	-0.01167515	0.01323876	0.03860031	0.008193759	-0.6975609	-0.63069	-0.01485861	0.103128
2.5e+08	-0.120976	0.01541454	-0.7551499	-0.558744	-0.01527234	-0.02800647	-0.0102695	0.0151238
	-0.7551499	-0.558744	0.0006116778	0.1033744	-0.01026888	0.0151265	0.03916555	0.007464723
	-0.01527234	-0.02800647	-0.01026889	0.0151265	-0.1208265	0.01545152	-0.7554565	-0.5583513
	-0.0102695	0.0151238	0.03916555	0.007464723	-0.7554565	-0.5583513	0.0006949289	0.1032202
2.6e+08	-0.1172025	0.02290264	-0.8056991	-0.4812179	-0.02071776	-0.0246217	-0.008562559	0.01678941
	-0.8056991	-0.4812179	0.0159684	0.100863	-0.008561305	0.01679226	0.03975031	0.006847925
	-0.02071776	-0.0246217	-0.008561306	0.01679226	-0.1170587	0.02292778	-0.8059764	-0.4807789
	-0.008562559	0.01678941	0.03975031	0.006847925	-0.8059764	-0.4807789	0.01604292	0.1007038
2.7e+08	-0.1125635	0.02961749	-0.8484097	-0.399181	-0.0256659	-0.02024473	-0.006603592	0.01818517
	-0.8484097	-0.399181	0.03064819	0.09583498	-0.006601643	0.01818797	0.04039455	0.006334701
	-0.0256659	-0.02024473	-0.006601643	0.01818797	-0.1124281	0.0296318	-0.8486516	-0.3986956
	-0.006603592	0.01818516	0.04039455	0.006334701	-0.8486516	-0.3986956	0.03071423	0.09567193
2.8e+08	-0.1072058	0.03547336	-0.8828762	-0.3134025	-0.02993877	-0.01495425	-0.004450961	0.01927399
	-0.8828762	-0.3134025	0.04420591	0.0884705	-0.004448348	0.01927672	0.04113736	0.005907256
	-0.02993877	-0.01495425	-0.004448348	0.01927672	-0.1070815	0.03547845	-0.8830751	-0.3128754
	-0.004450961	0.01927399	0.04113736	0.005907256	-0.8830751	-0.3128754	0.04426347	0.08830503
2.9e+08	-0.1012814	0.04041165	-0.9087659	-0.2246936	-0.03337071	-0.008860399	-0.002168147	0.02003334
	-0.9087659	-0.2246936	0.05623985	0.07903125	-0.00216494	0.02003588	0.04201343	0.005537983
	-0.03337071	-0.008860399	-0.00216494	0.02003588	-0.1011701	0.04040973	-0.9089168	-0.2241284
	-0.002168147	0.02003334	0.04201343	0.005537983	-0.9089168	-0.2241284	0.05628968	0.07886468
3e+08	-0.09494171	0.04440063	-0.9258236	-0.1338969	-0.03581483	-0.002103005	0.0001798039	0.02045672
	-0.9258236	-0.1338969	0.06640746	0.06784972	0.0001835833	0.02045892	0.04305264	0.005190821
	-0.03581483	-0.002103005	0.0001835832	0.02045892	-0.09484559	0.04439419	-0.9259199	-0.1332982
	0.0001798039	0.02045672	0.04305264	0.005190821	-0.9259199	-0.1332982	0.06645045	0.0676828
3.1e+08	-0.08833331	0.04743367	-0.9338725	-0.04188256	-0.03714783	0.005151545	0.002530871	0.02055195
	-0.9338725	-0.04188256	0.07443685	0.05531629	0.002535133	0.02055377	0.04427641	0.004821911
	-0.03714783	0.005151545	0.002535133	0.02055377	-0.08825378	0.04742573	-0.9339079	-0.04125581
	0.002530871	0.02055195	0.04427641	0.004821911	-0.9339079	-0.04125581	0.07447419	0.05514966
3.2e+08	-0.08159341	0.04952638	-0.9328233	0.05046237	-0.03727496	0.01271436	0.00482934	0.02034083
	-0.9328233	0.05046237	0.08013784	0.04186506	0.004834017	0.02034233	0.04569634	0.004381438
	-0.03727496	0.01271436	0.004834017	0.02034233	-0.08153112	0.04952028	-0.932794	0.05110848
	0.00482934	0.02034083	0.04569634	0.004381438	-0.932794	0.05110848	0.08017037	0.04169944
3.3e+08	-0.07484613	0.05071356	-0.9226767	0.1422355	-0.0361342	0.02037903	0.007029196	0.01985584
	-0.9226767	0.1422355	0.08340775	0.0279577	0.007034229	0.01985698	0.0473124	0.003816125
	-0.0361342	0.02037903	0.007034229	0.01985698	-0.07480128	0.05071265	-0.9225784	0.1428967
	0.007029196	0.01985584	0.0473124	0.003816125	-0.9225784	0.1428967	0.08343709	0.02779275
3.4e+08	-0.06820056	0.05104485	-0.9035211	0.2325421	-0.03369963	0.02792752	0.009096431	0.01913757
	-0.9035211	0.2325421	0.08423639	0.01406333	0.009101826	0.01913837	0.0491125	0.003071953
	-0.03369963	0.02792752	0.009101826	0.01913837	-0.06817254	0.05105267	-0.9033518	0.2332087
	0.009096431	0.01913757	0.0491125	0.003071953	-0.9033518	0.2332087	0.08426358	0.01389923
3.5e+08	-0.06174854	0.0505805	-0.8755385	0.3204915	-0.02998337	0.03513621	0.01101041	0.01823027
	-0.8755385	0.3204915	0.08270462	0.0006429366	0.01101619	0.01823085	0.0510714	0.002097233
	-0.02998337	0.03513621	0.01101619	0.01823085	-0.06173618	0.05060044	-0.8752963	0.3211565
	0.01101041	0.01823027	0.0510714	0.002097233	-0.8752963	0.3211565	0.08273099	0.0004791203
3.6e+08	-0.05556467	0.04938696	-0.8390015	0.4052143	-0.02503678	0.04178342	0.01276416	0.01717846
	-0.8390015	0.4052143	0.07898162	-0.01186991	0.01277039	0.01717877	0.0531527	0.0008455508
	-0.02503678	0.04178342	0.01277039	0.01717877	-0.0555659	0.04942224	-0.8386847	0.4058682
	0.01276416	0.01717846	0.0531527	0.0008455507	-0.8386847	0.4058682	0.07900788	-0.0120341
3.7e+08	-0.04970724	0.04753284	-0.7942677	0.4858737	-0.01894989	0.0476558	0.0143635	0.01602244
	-0.7942677	0.4858737	0.0733169	-0.02308624	0.01437026	0.01602246	0.05530929	-0.0007214189
	-0.01894989	0.0476558	0.01437026	0.01602246	-0.04971949	0.04758617	-0.7938772	0.4865092
	0.0143635	0.01602244	0.05530929	-0.000721419	-0.7938772	0.4865092	0.07334405	-0.02325178
3.8e+08	-0.04421906	0.04508465	-0.7417834	0.5616686	-0.01185013	0.05255558	0.01582499	0.01479529
	-0.7417834	0.5616686	0.06603023	-0.03267527	0.0158324	0.01479497	0.05748595	-0.002631611
	-0.01185013	0.05255558	0.0158324	0.01479497	-0.04423903	0.04515831	-0.7413196	0.5622762
	0.01582499	0.01479529	0.05748595	-0.002631611	-0.7413196	0.5622762	0.06605872	-0.03284315
3.9e+08	-0.03913113	0.0421043	-0.6820713	0.6318524	-0.003899212	0.05630693	0.01717313	0.01351976
	-0.6820713	0.6318524	0.05749828	-0.0403785	0.01718127	0.01351892	0.05962214	-0.004900999
	-0.003899212	0.05630693	0.01718127	0.01351892	-0.03915515	0.04219981	-0.681536	0.6324245
	0.01717313	0.01351976	0.05962214	-0.004900999	-0.681536	0.6324245	0.05752851	-0.04054997
4e+08	-0.03446439	0.03864631	-0.6157297	0.6957315	0.004710882	0.058762	0.01843677	0.01220665
	-0.6157297	0.6957315	0.04813899	-0.04601797	0.01844576	0.01220511	0.06165478	-0.007532952
	0.004710882	0.058762	0.01844576	0.01220511	-0.03448847	0.03876452	-0.6151259	0.69626
	0.01843677	0.01220665	0.06165478	-0.007532952	-0.6151259	0.69626	0.04817108	-0.04619429
4.1e+08	-0.0302345	0.03475686	-0.5434237	0.7526793	0.01376269	0.059806	0.019645	0.01085383
	-0.5434237	0.7526793	0.03839469	-0.04950327	0.01965495	0.01085145	0.06352114	-0.01051762
	0.01376269	0.059806	0.01965495	0.01085145	-0.03025443	0.03489778	-0.5427558	0.7531557
	0.01964499	0.01085383	0.06352114	-0.01051762	-0.5427558	0.7531557	0.03842849	-0.04968561
4.2e+08	-0.02645478	0.03047425	-0.4658751	0.8021382	0.02301977	0.0593615	0.02082345	0.009446923
	-0.4658751	0.8021382	0.02871395	-0.05083416	0.02083436	0.009443353	0.06516215	-0.01383338
	0.02301977	0.0593615	0.02083436	0.009443353	-0.02646628	0.03063689	-0.4651472	0.8025558
	0.02082345	0.009446923	0.06516215	-0.01383338	-0.4651472	0.8025558	0.02874918	-0.05102386
4.3e+08	-0.02313961	0.02582867	-0.3838596	0.8436286	0.03223247	0.0573917	0.02199021	0.007960629
	-0.3838596	0.8436286	0.01953455	-0.05009957	0.02200195	0.007955487	0.06652434	-0.01744788
	0.03223247	0.0573917	0.02200195	0.007955487	-0.02313871	0.02601131	-0.3830783	0.8439807
	0.02199021	0.007960629	0.06652434	-0.01744788	-0.3830783	0.8439807	0.0195705	-0.05029766
4.4e+08	-0.02030746	0.02084496	-0.2981952	0.8767514	0.04114544	0.05390199	0.02315258	0.006361361
	-0.2981952	0.8767514	0.01126517	-0.04747324	0.0231652	0.006354417	0.06756233	-0.02132029
	0.04114544	0.05390199	0.0231652	0.006354417	-0.02029046	0.02104496	-0.2973656	0.8770302
	0.02315258	0.006361361	0.06756233	-0.02132029	-0.2973656	0.8770302	0.01130091	-0.04768085
4.5e+08	-0.01798289	0.01554478	-0.209735	0.9011901	0.04950475	0.04894088	0.02430498	0.00461085
	-0.209735	0.9011901	0.004269851	-0.04320655	0.02431817	0.004601692	0.06823944	-0.02540283
	0.04950475	0.04894088	0.02431817	0.004601692	-0.01794672	0.0157589	-0.2088644	0.9013907
	0.02430498	0.00461085	0.06823944	-0.02540283	-0.2088644	0.9013907	0.004304389	-0.04342448
4.6e+08	-0.01619822	0.009950281	-0.1193564	0.9167137	0.05706489	0.04259989	0.02542736	0.002669977
	-0.1193564	0.9167137	-0.001146172	-0.0376169	0.02544081	0.002658286	0.06852882	-0.02964402
	0.05706489	0.04259989	0.02544081	0.002658286	-0.01614028	0.01017434	-0.1184517	0.9168301
	0.02542736	0.002669977	0.06852882	-0.02964402	-0.1184517	0.9168301	-0.001113979	-0.03784607
4.7e+08	-0.01499355	0.004086731	-0.0279575	0.9231809	0.06359659	0.03501138	0.02648493	0.0005032818
	-0.0279575	0.9231809	-0.00474816	-0.03107629	0.02649813	0.0004887149	0.06841296	-0.03398967
	0.06359659	0.03501138	0.02649813	0.0004887149	-0.0149123	0.004316376	-0.0270265	0.9232106
	0.02648493	0.0005032818	0.06841296	-0.03398967	-0.0270265	0.9232106	-0.004719788	-0.03131695
4.8e+08	-0.01441631	-0.002013281	0.06355381	0.9205403	0.06889298	0.02634609	0.02742916	-0.001916969
	0.06355381	0.9205403	-0.006381235	-0.02399453	0.0274416	-0.0019346	0.06788376	-0.03838593
	0.06889298	0.02634609	0.0274416	-0.0019346	-0.01431088	-0.001783232	0.0645025	0.9204775
	0.02742916	-0.001916969	0.06788376	-0.03838593	0.0645025	0.9204775	-0.006357884	-0.0242472
4.9e+08	-0.01451912	-0.008306496	0.1542716	0.9088311	0.07277646	0.01680916	0.02820037	-0.004606563
	0.1542716	0.9088311	-0.005975547	-0.0168043	0.02821148	-0.004627375	0.06694142	-0.04277998
	0.07277646	0.01680916	0.02821148	-0.004627375	-0.01438988	-0.008081012	0.155229	0.9086727
	0.02820037	-0.004606563	0.06694142	-0.04277998	0.155229	0.9086727	-0.005958688	-0.01706893
5e+08	-0.0153575	-0.01473712	0.2432932	0.8881786	0.07510401	0.006634729	0.02873016	-0.00756626
	0.2432932	0.8881786	-0.003549923	-0.009943387	0.02873928	-0.007590209	0.06559322	-0.04712182
	0.07510401	0.006634729	0.02873928	-0.007590209	-0.01520584	-0.01452122	0.2442507	0.887923
	0.02873016	-0.00756626	0.06559322	-0.04712182	0.2442507	0.887923	-0.00354089	-0.01021973
5.1e+08	-0.0169865	-0.02123362	0.3297367	0.8588023	0.07577239	-0.00391937	0.02894597	-0.01077918
	0.3297367	0.8588023	0.000790312	-0.003836522	0.02895245	-0.01080615	0.06385296	-0.05136411
	0.07577239	-0.00391937	0.02895245	-0.01080615	-0.01681474	-0.02103225	0.3306838	0.8584472
	0.02894597	-0.01077918	0.06385296	-0.05136411	0.3306838	0.8584472	0.0007901667	-0.004124486
5.2e+08	-0.01945619	-0.02770871	0.4127411	0.8210084	0.07472213	-0.01457888	0.02877572	-0.0142096
	0.4127411	0.8210084	0.006855838	0.001119917	0.0287788	-0.01423929	0.06174012	-0.05546363
	0.07472213	-0.01457888	0.0287788	-0.01423929	-0.01926789	-0.02752614	0.4136675	0.8205531
	0.02877572	-0.0142096	0.06174012	-0.05546363	0.4136675	0.8205531	0.006845154	0.0008209482
