!$
! Info: Touchstone file created by Circ.  Input file=C2M_PCB_85ohms_6p5in_20230620_v3.circ
!$
# Hz S RI R 50
0	0.007955362	3.257948e-24	0.9920143	-3.06951e-24	0.0001571542	8.565489e-23	-0.0001534526	1.889773e-20
	0.9920143	-2.924873e-24	0.007774076	1.864343e-24	-0.0001507894	1.857154e-20	1.242115e-05	8.327591e-21
	0.0001571543	8.568907e-23	-0.0001507894	1.857133e-20	0.007958706	3.729145e-24	0.9920276	-2.954802e-24
	-0.0001534526	1.889775e-20	1.242113e-05	8.327665e-21	0.9920276	-2.971547e-24	0.007787505	2.262353e-24
1e+07	0.0107448	-0.005488341	0.9835164	-0.09969963	0.0006096304	0.003047482	-0.0002589338	-0.000469136
	0.9835164	-0.09969963	0.01021437	-0.005253225	-0.0002569284	-0.0004697435	0.0003752324	0.003137133
	0.0006096304	0.003047482	-0.0002569284	-0.0004697435	0.01082939	-0.005486365	0.9834435	-0.09972765
	-0.0002589338	-0.000469136	0.0003752324	0.003137133	0.9834435	-0.09972765	0.01030015	-0.005244023
2e+07	0.01212809	-0.01373265	0.9657989	-0.1951674	0.001746095	0.005837422	-0.0003698935	-0.0008658901
	0.9657989	-0.1951674	0.01051241	-0.01308746	-0.0003683934	-0.0008662991	0.001145037	0.006057882
	0.00174612	0.005837329	-0.0003683735	-0.0008663484	0.01219068	-0.01375282	0.9657302	-0.195186
	-0.000369871	-0.0008659364	0.001145056	0.006057879	0.9657302	-0.195186	0.01058487	-0.01309699
3e+07	0.01136387	-0.02308621	0.9397942	-0.2871155	0.003498066	0.008261956	-0.0005014009	-0.001230038
	0.9397942	-0.2871155	0.007972013	-0.02160298	-0.000499973	-0.001230269	0.00228749	0.008761902
	0.003498054	0.008261949	-0.0004999809	-0.001230265	0.01140852	-0.02310692	0.9397269	-0.2871391
	-0.00050141	-0.001230034	0.002287482	0.008761919	0.9397269	-0.2871391	0.00803755	-0.02161322
4e+07	0.008789758	-0.03249822	0.9055051	-0.3755256	0.005781028	0.01023349	-0.0006616146	-0.001605176
	0.9055051	-0.3755256	0.003066597	-0.02953939	-0.000660068	-0.001605276	0.003768745	0.01124547
	0.005781029	0.0102335	-0.0006600692	-0.001605273	0.008819607	-0.03251225	0.9054366	-0.3755574
	-0.0006616155	-0.001605173	0.003768742	0.01124547	0.9054366	-0.3755574	0.003129129	-0.02954732
5e+07	0.00460186	-0.04154579	0.863199	-0.4597905	0.008491072	0.01166115	-0.0008654246	-0.002007549
	0.863199	-0.4597905	-0.00383084	-0.03630866	-0.0008636394	-0.002007638	0.005547603	0.01347291
	0.008491072	0.01166115	-0.0008636411	-0.002007638	0.004619854	-0.04154854	0.8631263	-0.4598324
	-0.0008654262	-0.002007548	0.0055476	0.01347291	0.8631263	-0.4598324	-0.003768047	-0.03631361
6e+07	-0.001027923	-0.04993155	0.8132829	-0.5392397	0.01151291	0.0124662	-0.001139005	-0.002437924
	0.8132829	-0.5392397	-0.0123437	-0.04149426	-0.00113698	-0.00243816	0.00758039	0.01540893
	0.01151291	0.0124662	-0.001136978	-0.00243816	-0.001017988	-0.04991986	0.8132029	-0.5392925
	-0.001139003	-0.002437925	0.007580393	0.01540893	0.8132029	-0.5392925	-0.0122786	-0.0414969
7e+07	-0.007920347	-0.05741938	0.7562575	-0.6132177	0.01471625	0.01259343	-0.001507815	-0.002886741
	0.7562575	-0.6132177	-0.02206652	-0.0447873	-0.001505635	-0.002887254	0.009815433	0.01702709
	0.01471625	0.01259344	-0.001505633	-0.002887256	-0.007914809	-0.05739135	0.7561666	-0.613281
	-0.001507813	-0.002886744	0.009815435	0.01702708	0.7561666	-0.613281	-0.02199738	-0.04478843
8e+07	-0.0158796	-0.06381969	0.6927006	-0.6811153	0.01796203	0.01201406	-0.001994572	-0.003334966
	0.6927006	-0.6811153	-0.03256574	-0.04597411	-0.001992338	-0.003335809	0.01219768	0.01831185
	0.01796203	0.01201406	-0.001992339	-0.003335806	-0.01587466	-0.06377442	0.6925952	-0.6811883
	-0.001994573	-0.003334964	0.01219768	0.01831185	0.6925952	-0.6811883	-0.03249138	-0.04597468
9e+07	-0.02469377	-0.06898645	0.6232488	-0.7423819	0.02110851	0.01072699	-0.002616925	-0.003755221
	0.6232488	-0.7423819	-0.04338946	-0.0449327	-0.002614752	-0.003756418	0.01467217	0.01925864
	0.02110851	0.01072699	-0.002614752	-0.003756409	-0.02468525	-0.06892388	0.623126	-0.7424636
	-0.002616922	-0.003755212	0.01467217	0.01925865	0.623126	-0.7424636	-0.04330929	-0.0449338
1e+08	-0.03413721	-0.07281923	0.5485885	-0.7965373	0.02401704	0.008759812	-0.00338667	-0.004114441
	0.5485885	-0.7965373	-0.05408266	-0.04162809	-0.003384689	-0.004115975	0.0171884	0.01987313
	0.02401704	0.008759812	-0.003384689	-0.004115976	-0.03411978	-0.07274041	0.5484428	-0.796626
	-0.00338667	-0.004114442	0.0171884	0.01987313	0.5484428	-0.796626	-0.05399621	-0.04162946
1.1e+08	-0.04400082	-0.07525246	0.4694458	-0.84316	0.02656102	0.006155688	-0.004305667	-0.004360803
	0.4694458	-0.84316	-0.06415667	-0.0361462	-0.00430337	-0.004364156	0.01969477	0.02015818
	0.02656102	0.006155688	-0.00430337	-0.004364157	-0.043966	-0.07515483	0.4692754	-0.8432478
	-0.004305667	-0.004360804	0.01969477	0.02015817	0.4692754	-0.8432478	-0.06399533	-0.03614518
1.2e+08	-0.05405671	-0.0762483	0.386583	-0.8819224	0.02860875	0.002990026	-0.005351229	-0.004463157
	0.386583	-0.8819224	-0.07323796	-0.02860697	-0.005350068	-0.004467282	0.02214016	0.02014518
	0.02860875	0.002990026	-0.005350068	-0.004467284	-0.05400653	-0.07614391	0.3863864	-0.8820065
	-0.005351229	-0.004463158	0.02214016	0.02014518	0.3863864	-0.8820065	-0.07305557	-0.02864046
1.3e+08	-0.06407562	-0.07581439	0.3007732	-0.91257	0.03005625	-0.0006380727	-0.006505073	-0.00438411
	0.3007732	-0.91257	-0.08092786	-0.0192323	-0.006505099	-0.004388071	0.02449078	0.01986282
	0.03005625	-0.0006380723	-0.0065051	-0.004388072	-0.0640138	-0.07570772	0.3005482	-0.9126435
	-0.006505073	-0.004384111	0.02449078	0.01986281	0.3005482	-0.9126435	-0.08075266	-0.01929411
1.4e+08	-0.07383981	-0.07399469	0.2127985	-0.9349196	0.03081842	-0.004614195	-0.007735451	-0.004088945
	0.2127985	-0.9349196	-0.08688922	-0.008316082	-0.007736302	-0.004092315	0.02671794	0.01934305
	0.03081842	-0.004614195	-0.007736302	-0.004092316	-0.07376902	-0.07388654	0.2125463	-0.934979
	-0.007735452	-0.004088946	0.02671794	0.01934304	0.2125463	-0.934979	-0.08672956	-0.008394007
1.5e+08	-0.08314849	-0.07086682	0.1234467	-0.9488672	0.03083132	-0.008810542	-0.009000563	-0.003550179
	0.1234467	-0.9488672	-0.09085343	0.003794473	-0.009001895	-0.003552869	0.02879941	0.01861944
	0.03083132	-0.008810542	-0.009001895	-0.00355287	-0.08306947	-0.07075687	0.1231683	-0.9489067
	-0.009000563	-0.003550179	0.02879941	0.01861944	0.1231683	-0.9489067	-0.09070793	0.003708797
1.6e+08	-0.09182124	-0.06653732	0.03349885	-0.9543758	0.03005432	-0.01308988	-0.01025107	-0.002749985
	0.03349885	-0.9543758	-0.09262286	0.01671283	-0.01025268	-0.002752023	0.03071964	0.01772687
	0.03005432	-0.01308988	-0.01025268	-0.002752023	-0.09173365	-0.06642551	0.03319631	-0.9543908
	-0.01025107	-0.002749985	0.03071964	0.01772687	0.03319631	-0.9543908	-0.09248755	0.01662334
1.7e+08	-0.09970231	-0.06113602	-0.05627096	-0.951477	0.02847111	-0.0173093	-0.01143259	-0.001681961
	-0.05627096	-0.951477	-0.09207578	0.03002564	-0.01143434	-0.001683415	0.0324691	0.01670013
	0.02847111	-0.0173093	-0.01143435	-0.001683415	-0.09960524	-0.06102306	-0.05659506	-0.9514636
	-0.01143259	-0.001681961	0.0324691	0.01670013	-0.05659506	-0.9514636	-0.09194691	0.02993303
1.8e+08	-0.1066618	-0.05481171	-0.1451048	-0.9402694	0.02609027	-0.02132464	-0.01248888	-0.0003520599
	-0.1451048	-0.9402694	-0.08916823	0.04330744	-0.01249072	-0.0003529523	0.03404411	0.01557327
	0.02609027	-0.02132464	-0.01249072	-0.0003529525	-0.1065546	-0.0546989	-0.1454479	-0.9402247
	-0.01248888	-0.0003520601	0.03404411	0.01557327	-0.1454479	-0.9402247	-0.08904333	0.04321096
1.9e+08	-0.1125981	-0.04772607	-0.2322627	-0.9209138	0.02294497	-0.0249945	-0.01336462	0.001221037
	-0.2322627	-0.9209138	-0.0839343	0.05613365	-0.0133665	0.001220691	0.03544637	0.01437928
	0.02294497	-0.0249945	-0.0133665	0.001220691	-0.1124804	-0.0476155	-0.2326214	-0.9208323
	-0.01336462	0.001221037	0.03544637	0.01437927	-0.2326214	-0.9208323	-0.08381156	0.05603157
2e+08	-0.1174379	-0.04004987	-0.3170289	-0.8936283	0.01909182	-0.02818355	-0.01400852	0.003006416
	-0.3170289	-0.8936283	-0.07648307	0.0680947	-0.01401038	0.003006645	0.03668217	0.01314889
	0.01909182	-0.02818355	-0.01401038	0.003006645	-0.11731	-0.03994368	-0.3173987	-0.8935079
	-0.01400852	0.003006416	0.03668217	0.01314889	-0.3173987	-0.8935079	-0.07636264	0.06798524
2.1e+08	-0.1211364	-0.03195776	-0.3987088	-0.8586909	0.01461011	-0.03076686	-0.0143761	0.004961976
	-0.3987088	-0.8586909	-0.066996	0.07880802	-0.01437786	0.004962789	0.03776253	0.01191101
	0.01461011	-0.03076686	-0.01437786	0.004962789	-0.1209993	-0.03185807	-0.399086	-0.8585276
	-0.0143761	0.004961976	0.03776253	0.01191101	-0.399086	-0.8585276	-0.06687812	0.07869004
2.2e+08	-0.1236768	-0.02362337	-0.4766412	-0.8164322	0.009599618	-0.03263307	-0.01443233	0.007036354
	-0.4766412	-0.8164322	-0.05571883	0.0879315	-0.01443389	0.007037776	0.03870315	0.01069194
	0.009599618	-0.03263307	-0.01443389	0.007037776	-0.1235319	-0.02353213	-0.4770213	-0.8162243
	-0.01443233	0.007036353	0.03870315	0.01069194	-0.4770213	-0.8162243	-0.0556049	0.08780427
2.3e+08	-0.1250684	-0.01521546	-0.5501962	-0.7672356	0.00417851	-0.03368708	-0.01415331	0.009171079
	-0.5501962	-0.7672356	-0.04295429	0.09517321	-0.01415452	0.009173096	0.0395228	0.009514123
	0.00417851	-0.03368708	-0.01415452	0.009173096	-0.1249178	-0.01513429	-0.5505732	-0.7669815
	-0.01415331	0.009171079	0.0395228	0.009514123	-0.5505732	-0.7669815	-0.04284574	0.09503652
2.4e+08	-0.1253457	-0.006894336	-0.6187741	-0.711534	-0.001519285	-0.03385364	-0.01352793	0.0113035
	-0.6187741	-0.711534	-0.02905171	0.1002997	-0.01352871	0.01130606	0.04024508	0.008397064
	-0.001519285	-0.03385364	-0.01352871	0.01130606	-0.1251916	-0.006824302	-0.6191427	-0.7112312
	-0.01352793	0.0113035	0.04024508	0.008397064	-0.6191427	-0.7112312	-0.02894951	0.1001539
2.5e+08	-0.1245647	0.001192784	-0.6818202	-0.6498091	-0.007347284	-0.03307921	-0.01255844	0.01336971
	-0.6818202	-0.6498091	-0.01439515	0.1031458	-0.01255863	0.01337277	0.0408967	0.007355285
	-0.007347284	-0.03307921	-0.01255863	0.01337277	-0.1244096	0.00125084	-0.6821742	-0.6494569
	-0.01255844	0.01336971	0.0408967	0.007355285	-0.6821742	-0.6494569	-0.01430058	0.1029916
2.6e+08	-0.1228008	0.008913562	-0.7388159	-0.5825884	-0.01314981	-0.03133443	-0.01126059	0.01530785
	-0.7388159	-0.5825884	0.0006076139	0.1036162	-0.0112601	0.01531128	0.04150726	0.006398094
	-0.01314981	-0.03133443	-0.0112601	0.01531128	-0.1226474	0.008959525	-0.739149	-0.5821882
	-0.01126059	0.01530785	0.04150726	0.006398093	-0.739149	-0.5821882	0.0006936021	0.103455
2.7e+08	-0.120145	0.01615334	-0.7892913	-0.5104429	-0.01876563	-0.02861493	-0.009662294	0.01706074
	-0.7892913	-0.5104429	0.01554036	0.1016916	-0.009661012	0.01706435	0.04210838	0.005528666
	-0.01876563	-0.02861493	-0.009661012	0.01706435	-0.1199958	0.01618741	-0.789598	-0.5099934
	-0.009662294	0.01706074	0.04210838	0.005528666	-0.789598	-0.5099934	0.0156177	0.1015245
2.8e+08	-0.1167003	0.02281739	-0.8328238	-0.4339833	-0.02403229	-0.02494315	-0.007802688	0.01857897
	-0.8328238	-0.4339833	0.02999038	0.09742647	-0.007800601	0.01858271	0.04273321	0.004743617
	-0.02403229	-0.02494315	-0.007800601	0.01858271	-0.1165582	0.0228403	-0.8330962	-0.4334878
	-0.007802688	0.01857897	0.04273321	0.004743617	-0.8330962	-0.4334878	0.03005869	0.09725482
2.9e+08	-0.1125778	0.0288311	-0.8690448	-0.3538603	-0.02878982	-0.02036808	-0.005729531	0.01982279
	-0.8690448	-0.3538603	0.04356209	0.09094914	-0.005726658	0.01982649	0.04341361	0.004031798
	-0.02878982	-0.02036808	-0.005726658	0.01982649	-0.112445	0.02884423	-0.869278	-0.3533211
	-0.005729531	0.01982279	0.04341361	0.004031798	-0.869278	-0.3533211	0.04362169	0.09077443
3e+08	-0.1078929	0.03414073	-0.8976443	-0.2707563	-0.03288579	-0.01496539	-0.003497153	0.02076463
	-0.8976443	-0.2707563	0.05589104	0.08245647	-0.003493471	0.02076811	0.04418052	0.003374951
	-0.03288579	-0.01496539	-0.003493471	0.02076811	-0.1077719	0.03414568	-0.8978314	-0.2701764
	-0.003497153	0.02076463	0.04418052	0.00337495	-0.8978314	-0.2701764	0.05594249	0.08227957
3.1e+08	-0.1027612	0.03871289	-0.9183702	-0.1853835	-0.03617926	-0.008836171	-0.001162693	0.02138887
	-0.9183702	-0.1853835	0.06665478	0.07220674	-0.001158276	0.02139201	0.04506078	0.002747335
	-0.03617926	-0.008836171	-0.001158276	0.02139201	-0.1026541	0.03871184	-0.9185045	-0.1847667
	-0.001162693	0.02138887	0.04506078	0.002747335	-0.9185045	-0.1847667	0.06669894	0.07202846
3.2e+08	-0.09729527	0.04253308	-0.931038	-0.09847643	-0.03854507	-0.002105253	0.001216405	0.02169314
	-0.931038	-0.09847643	0.07558453	0.06051179	0.001221474	0.02169593	0.04607607	0.002116378
	-0.03854507	-0.002105253	0.001221474	0.02169593	-0.0972035	0.04252874	-0.9311144	-0.09783004
	0.001216405	0.02169314	0.04607607	0.002116378	-0.9311144	-0.09783004	0.0756218	0.06033315
3.3e+08	-0.09160079	0.0456043	-0.9355316	-0.01079376	-0.03987802	0.005081326	0.003585795	0.02168697
	-0.9355316	-0.01079376	0.0824726	0.04772685	0.003591438	0.02168931	0.04724089	0.001443874
	-0.03987802	0.005081326	0.003591438	0.02168931	-0.09152558	0.04559946	-0.9355453	-0.01012068
	0.003585795	0.02168697	0.04724089	0.001443874	-0.9355453	-0.01012068	0.08250446	0.04754787
3.4e+08	-0.08577459	0.04794404	-0.9318043	0.07690266	-0.04009652	0.01255956	0.005896899	0.0213911
	-0.9318043	0.07690266	0.08718131	0.03423598	0.005903079	0.02139295	0.04856161	0.0006874574
	-0.04009652	0.01255956	0.005903079	0.02139295	-0.0857165	0.04794192	-0.9317518	0.07759392
	0.005896899	0.0213911	0.04856161	0.0006874573	-0.9317518	0.07759392	0.08720849	0.03405727
3.5e+08	-0.07990185	0.04958167	-0.9198838	0.1638404	-0.0391454	0.0201511	0.008109364	0.02083476
	-0.9198838	0.1638404	0.0896454	0.02044152	0.008116016	0.02083623	0.0500345	-0.0001974362
	-0.0391454	0.0201511	0.008116016	0.02083623	-0.07986093	0.04958552	-0.9197618	0.1645438
	0.008109364	0.02083476	0.0500345	-0.0001974363	-0.9197618	0.1645438	0.08966913	0.02026298
3.6e+08	-0.07405504	0.05055506	-0.899872	0.2492512	-0.03699877	0.0276682	0.01019277	0.0200538
	-0.899872	0.2492512	0.08987525	0.006748726	0.0101999	0.02005481	0.05164642	-0.001255446
	-0.03699877	0.0276682	0.0101999	0.02005481	-0.07403059	0.05056831	-0.899677	0.2499583
	0.01019277	0.0200538	0.05164642	-0.001255446	-0.899677	0.2499583	0.08989615	0.006570173
3.7e+08	-0.06829387	0.05090728	-0.8719415	0.3323805	-0.03366123	0.03491815	0.01212776	0.01908706
	-0.8719415	0.3323805	0.08795535	-0.006448887	0.01213536	0.01908762	0.05337379	-0.002528865
	-0.03366123	0.03491815	0.01213536	0.01908762	-0.06828462	0.05093307	-0.8716729	0.3330846
	0.01212776	0.01908706	0.05337379	-0.002528865	-0.8716729	0.3330846	0.08797452	-0.006627885
3.8e+08	-0.06266447	0.05068306	-0.836341	0.4124879	-0.0291691	0.0417086	0.01390603	0.01797389
	-0.836341	0.4124879	0.08404095	-0.01878149	0.01391417	0.017974	0.05518369	-0.004055361
	-0.0291691	0.0417086	0.01391417	0.017974	-0.06266837	0.05072445	-0.8359973	0.4131799
	0.01390603	0.01797389	0.05518369	-0.004055361	-0.8359973	0.4131799	0.08405895	-0.01896143
3.9e+08	-0.05720177	0.04992582	-0.793388	0.4888647	-0.02359	0.04785271	0.01552997	0.01675073
	-0.793388	0.4888647	0.07835237	-0.02991766	0.01553866	0.01675028	0.05703504	-0.00586585
	-0.02359	0.04785271	0.01553866	0.01675028	-0.05721627	0.04998537	-0.7929691	0.4895372
	0.01552997	0.01675073	0.05703504	-0.00586585	-0.7929691	0.4895372	0.07836989	-0.03009935
4e+08	-0.05192981	0.04867486	-0.7434681	0.5608311	-0.01702193	0.05317448	0.01701103	0.01544869
	-0.7434681	0.5608311	0.07116602	-0.03957412	0.01702037	0.01544761	0.05888015	-0.007982998
	-0.01702193	0.05317448	0.01702037	0.01544761	-0.05195186	0.04875472	-0.7429751	0.5614761
	0.01701103	0.01544869	0.05888015	-0.007982998	-0.7429751	0.5614761	0.07118353	-0.03975837
4.1e+08	-0.0468653	0.04696304	-0.6870313	0.6277503	-0.009591546	0.05751346	0.01836767	0.014091
	-0.6870313	0.6277503	0.06280452	-0.04752616	0.01837776	0.01408927	0.06066663	-0.01041929
	-0.009591546	0.05751346	0.01837776	0.01408927	-0.04689137	0.04706474	-0.6864666	0.6283588
	0.01836767	0.014091	0.06066663	-0.01041929	-0.6864666	0.6283588	0.0628223	-0.04771376
4.2e+08	-0.04202013	0.04481607	-0.6245835	0.6890301	-0.001450978	0.06072976	0.01962298	0.01269176
	-0.6245835	0.6890301	0.05362416	-0.05361493	0.01963387	0.01268914	0.06234012	-0.01317704
	-0.001450978	0.06072976	0.01963387	0.01268914	-0.04204625	0.04494039	-0.6239495	0.6895952
	0.01962298	0.01269176	0.06234012	-0.01317704	-0.6239495	0.6895952	0.05364245	-0.05380701
4.3e+08	-0.03740392	0.04225089	-0.5566869	0.7441317	0.007224894	0.06270794	0.02080148	0.01125484
	-0.5566869	0.7441317	0.04400302	-0.05775216	0.02081314	0.01125105	0.06384617	-0.01624789
	0.007224894	0.06270794	0.02081314	0.01125105	-0.03742613	0.04239791	-0.5559886	0.7446458
	0.02080148	0.01125484	0.06384617	-0.01624789	-0.5559886	0.7446458	0.04402173	-0.05794956
4.4e+08	-0.03302762	0.03927665	-0.4839515	0.7925727	0.01624303	0.0633603	0.02192608	0.009773859
	-0.4839515	0.7925727	0.03432614	-0.05992256	0.02193865	0.009768804	0.06513309	-0.01961358
	0.01624303	0.0633603	0.02193865	0.009768804	-0.03304183	0.03944561	-0.4831919	0.7930275
	0.02192608	0.009773859	0.06513309	-0.01961358	-0.4831919	0.7930275	0.03434483	-0.06012638
4.5e+08	-0.02890604	0.0358954	-0.407029	0.8339301	0.02539668	0.0626298	0.0230153	0.008233289
	-0.407029	0.8339301	0.02497217	-0.06018404	0.02302866	0.008226608	0.06615328	-0.02324631
	0.02539668	0.0626298	0.02302866	0.008226608	-0.02890843	0.03608485	-0.4062139	0.8343196
	0.0230153	0.008233289	0.06615328	-0.02324631	-0.4062139	0.8343196	0.02499046	-0.06039515
4.6e+08	-0.02506094	0.03210423	-0.3266046	0.8678439	0.03446988	0.0604923	0.02408053	0.006609789
	-0.3266046	0.8678439	0.01629978	-0.05866385	0.02409457	0.006601185	0.06686545	-0.02711106
	0.03446988	0.0604923	0.02409457	0.006601185	-0.02504767	0.03231177	-0.3257392	0.8681612
	0.02408053	0.006609789	0.06686545	-0.02711106	-0.3257392	0.8681612	0.01631702	-0.05888337
4.7e+08	-0.02152238	0.02789708	-0.2433967	0.8940212	0.04324344	0.05695757	0.0251237	0.00487461
	-0.2433967	0.8940212	0.008635451	-0.05555497	0.02513814	0.004863695	0.06723527	-0.03116609
	0.04324344	0.05695757	0.02513814	0.004863695	-0.02149041	0.02811979	-0.2424877	0.8942627
	0.0251237	0.00487461	0.06723527	-0.03116609	-0.2424877	0.8942627	0.008650708	-0.05578356
4.8e+08	-0.0183306	0.02326817	-0.1581475	0.9122376	0.0514995	0.05206983	0.02613587	0.002996186
	-0.1581475	0.9122376	0.002261575	-0.05110704	0.02615041	0.002982678	0.06723658	-0.03536587
	0.0514995	0.05206983	0.02615041	0.002982678	-0.01827703	0.02350219	-0.1572015	0.9123961
	0.02613587	0.002996186	0.06723658	-0.03536587	-0.1572015	0.9123961	0.002274003	-0.05134545
4.9e+08	-0.01553617	0.0182156	-0.07161391	0.9223398	0.05902741	0.04590754	0.02709684	0.0009436005
	-0.07161391	0.9223398	-0.002592828	-0.04561846	0.02711111	0.0009272281	0.06685145	-0.03966203
	0.05902741	0.04590754	0.02711111	0.0009272281	-0.01545918	0.01845676	-0.07063845	0.9224108
	0.02709684	0.0009436005	0.06685145	-0.03966203	-0.07063845	0.9224108	-0.002584366	-0.04586708
5e+08	-0.01319958	0.0127438	0.01543257	0.9242403	0.06562883	0.03858172	0.02797454	-0.001310535
	0.01543257	0.9242403	-0.005760678	-0.03942462	0.02798807	-0.001329947	0.06606965	-0.04400569
	0.06562883	0.03858172	0.02798807	-0.001329947	-0.01309811	0.01298746	0.01643018	0.9242211
	0.02797454	-0.001310535	0.06606965	-0.04400569	0.01643018	0.9242211	-0.005757321	-0.03968374
5.1e+08	-0.0113906	0.006867841	0.1022185	0.9179298	0.07112285	0.03023474	0.02872643	-0.003786584
	0.1022185	0.9179298	-0.007141533	-0.03288562	0.0287387	-0.00380919	0.0648887	-0.04834796
	0.07112285	0.03023474	0.0287387	-0.00380919	-0.01126429	0.00710902	0.1032293	0.9178158
	0.02872643	-0.003786584	0.0648887	-0.04834796	0.1032293	0.9178158	-0.007144448	-0.03315555
5.2e+08	-0.01018517	0.0006157767	0.1879677	0.9034682	0.07535116	0.02103716	0.02930128	-0.006495042
	0.1879677	0.9034682	-0.006706214	-0.02637437	0.02931161	-0.006520876	0.06331316	-0.05264211
	0.07535116	0.02103716	0.02931161	-0.006520876	-0.01003495	0.0008494897	0.1889829	0.9032568
