!$
! Info: Touchstone file created by Circ.  Input file=C2M_PCB_85ohms_7p5in_20230620_v3.circ
!$
# Hz S RI R 50
0	0.008745921	3.529097e-24	0.9912237	-3.358674e-24	0.0001623084	9.04914e-23	-0.0001586097	1.954297e-20
	0.9912237	-3.214145e-24	0.008564587	2.166321e-24	-0.0001559485	1.9217e-20	1.758321e-05	8.349524e-21
	0.0001623085	9.052551e-23	-0.0001559485	1.921679e-20	0.00874926	3.988844e-24	0.991237	-3.221551e-24
	-0.0001586097	1.954299e-20	1.758319e-05	8.349598e-21	0.991237	-3.238285e-24	0.008578037	2.538735e-24
1e+07	0.01171718	-0.006566883	0.9812515	-0.1100813	0.0006854046	0.003198583	-0.0002686813	-0.0004508378
	0.9812515	-0.1100813	0.01112065	-0.006302356	-0.0002666815	-0.0004514619	0.0004218957	0.003297471
	0.0006854046	0.003198583	-0.0002666815	-0.0004514619	0.01180481	-0.006565175	0.9811753	-0.110108
	-0.0002686813	-0.0004508378	0.0004218958	0.003297471	0.9811753	-0.110108	0.01120975	-0.006292328
2e+07	0.01289227	-0.01617094	0.9599836	-0.2151797	0.00200252	0.006080606	-0.0003754214	-0.0008271664
	0.9599836	-0.2151797	0.01103264	-0.01539944	-0.0003739173	-0.0008276059	0.001292977	0.006349166
	0.002002541	0.006080513	-0.0003738986	-0.0008276557	0.01295626	-0.01619181	0.9599125	-0.2151948
	-0.0003754	-0.0008272133	0.001292996	0.006349163	0.9599125	-0.2151948	0.01110813	-0.01540829
3e+07	0.01140835	-0.0269013	0.928582	-0.3158747	0.004018371	0.008502709	-0.0004971406	-0.001179624
	0.928582	-0.3158747	0.0075167	-0.02507124	-0.0004956966	-0.001179913	0.002586557	0.009141174
	0.004018358	0.008502703	-0.0004957044	-0.001179909	0.01145333	-0.02692176	0.9285129	-0.3158934
	-0.0004971495	-0.00117962	0.002586549	0.009141191	0.9285129	-0.3158934	0.007585651	-0.02508039
4e+07	0.007671447	-0.03750955	0.8871567	-0.4119541	0.006613581	0.0103472	-0.0006500884	-0.001556735
	0.8871567	-0.4119541	0.001167064	-0.03381765	-0.0006485199	-0.001556937	0.004254149	0.01165651
	0.006613582	0.0103472	-0.000648521	-0.001556934	0.007701166	-0.0375218	0.8870868	-0.4119799
	-0.0006500892	-0.001556733	0.004254146	0.01165651	0.8870868	-0.4119799	0.00123383	-0.03382423
5e+07	0.00194736	-0.04745682	0.8361448	-0.5025689	0.009641263	0.01150396	-0.000859235	-0.001975139
	0.8361448	-0.5025689	-0.007507492	-0.04090946	-0.0008574395	-0.001975388	0.006236404	0.01385063
	0.009641264	0.01150397	-0.0008574411	-0.001975387	0.001965514	-0.04745594	0.8360708	-0.5026036
	-0.0008592366	-0.001975138	0.006236401	0.01385063	0.8360708	-0.5026036	-0.007439385	-0.04091318
6e+07	-0.005508209	-0.0563575	0.7761638	-0.586825	0.01293766	0.01188749	-0.001160844	-0.002430717
	0.7761638	-0.586825	-0.01797203	-0.0458384	-0.001158847	-0.002431173	0.008469809	0.01568495
	0.01293766	0.01188749	-0.001158845	-0.002431173	-0.005497022	-0.05634039	0.7760825	-0.5868695
	-0.001160843	-0.002430718	0.008469813	0.01568494	0.7760825	-0.5868695	-0.01790047	-0.04584038
7e+07	-0.01441899	-0.06391113	0.7079575	-0.6638744	0.01632247	0.0114498	-0.001588521	-0.002904167
	0.7079575	-0.6638744	-0.02964762	-0.04825119	-0.001586436	-0.00290495	0.01088291	0.01713536
	0.01632247	0.0114498	-0.001586433	-0.002904952	-0.01441034	-0.06387617	0.7078651	-0.6639281
	-0.00158852	-0.00290417	0.01088291	0.01713536	0.7078651	-0.6639281	-0.02957094	-0.0482527
8e+07	-0.02448274	-0.06988805	0.6323709	-0.7329528	0.01960882	0.01018339	-0.002169312	-0.003362772
	0.6323709	-0.7329528	-0.04192247	-0.0479375	-0.00216726	-0.003363911	0.01340253	0.01819397
	0.01960882	0.01018339	-0.002167261	-0.003363909	-0.02447217	-0.06983488	0.6322635	-0.7330145
	-0.002169312	-0.00336277	0.01340253	0.01819398	0.6322635	-0.7330145	-0.04183971	-0.04793987
9e+07	-0.03537667	-0.07412693	0.5503248	-0.7933942	0.022613	0.008121476	-0.002919947	-0.003763083
	0.5503248	-0.7933942	-0.05417268	-0.04482512	-0.002918058	-0.00376457	0.01595863	0.0188682
	0.022613	0.008121476	-0.002918058	-0.003764561	-0.0353595	-0.07405631	0.5501993	-0.7934628
	-0.002919944	-0.003763075	0.01595863	0.01886821	0.5501993	-0.7934628	-0.05408363	-0.04482977
1e+08	-0.04676561	-0.07653717	0.4628	-0.8446448	0.02516364	0.005337447	-0.003845584	-0.004055579
	0.4628	-0.8446448	-0.06578859	-0.03897177	-0.003843986	-0.004057355	0.01848977	0.01917876
	0.02516364	0.005337447	-0.003843986	-0.004057356	-0.04673633	-0.07645138	0.4626508	-0.8447176
	-0.003845584	-0.00405558	0.01848977	0.01917876	0.4626508	-0.8447176	-0.06569314	-0.03897862
1.1e+08	-0.05833767	-0.0770801	0.3708216	-0.8862526	0.02711242	0.001926781	-0.004933579	-0.004171639
	0.3708216	-0.8862526	-0.07615065	-0.03059362	-0.004931921	-0.004175185	0.02093602	0.01914432
	0.02711242	0.001926781	-0.004931921	-0.004175186	-0.05828691	-0.076979	0.3706473	-0.8863213
	-0.004933579	-0.00417164	0.02093602	0.01914432	0.3706473	-0.8863213	-0.07598071	-0.03060035
1.2e+08	-0.06976342	-0.07576824	0.2754441	-0.9178962	0.02831744	-0.001973426	-0.006141209	-0.00407179
	0.2754441	-0.9178962	-0.0847923	-0.01997406	-0.006140812	-0.004075897	0.02324324	0.01881632
	0.02831744	-0.001973426	-0.006140812	-0.004075899	-0.06969555	-0.07566382	0.2752433	-0.9179571
	-0.00614121	-0.004071792	0.02324324	0.01881632	0.2752433	-0.9179571	-0.08460234	-0.02001746
1.3e+08	-0.08072927	-0.07268122	0.1777281	-0.939364	0.02868114	-0.006200624	-0.007427426	-0.003714205
	0.1777281	-0.939364	-0.09126324	-0.007516566	-0.007428209	-0.003717914	0.02537968	0.01824119
	0.02868114	-0.006200624	-0.00742821	-0.003717915	-0.08064901	-0.07257746	0.1774998	-0.9394094
	-0.007427427	-0.003714206	0.02537968	0.01824118	0.1774998	-0.9394094	-0.09108195	-0.007590324
1.4e+08	-0.09094945	-0.06794948	0.07873279	-0.9505495	0.02813923	-0.01057787	-0.008735086	-0.003067033
	0.07873279	-0.9505495	-0.09521865	0.006292559	-0.008736599	-0.003069946	0.02732189	0.0174675
	0.02813923	-0.01057787	-0.0087366	-0.003069947	-0.09085971	-0.06784684	0.07847864	-0.9505753
	-0.008735086	-0.003067033	0.02732189	0.0174675	0.07847864	-0.9505753	-0.09505494	0.00620097
1.5e+08	-0.1001739	-0.06174798	-0.02049244	-0.9514566	0.02666291	-0.01491852	-0.009997091	-0.002113669
	-0.02049244	-0.9514566	-0.09642824	0.0209137	-0.009998938	-0.002115738	0.02905584	0.01654386
	0.02666291	-0.01491852	-0.009998939	-0.002115739	-0.1000754	-0.0616463	-0.02077011	-0.9514567
	-0.009997092	-0.00211367	0.02905584	0.01654386	-0.02077011	-0.9514567	-0.09628114	0.020813
1.6e+08	-0.108193	-0.05428781	-0.1189198	-0.9421834	0.02426013	-0.01903317	-0.01114143	-0.0008550874
	-0.1189198	-0.9421834	-0.09477744	0.03577804	-0.01114337	-0.0008563787	0.03057662	0.01551833
	0.02426013	-0.01903317	-0.01114337	-0.0008563791	-0.1080856	-0.05418741	-0.1192179	-0.9421532
	-0.01114143	-0.0008550877	0.03057662	0.01551832	-0.1192179	-0.9421532	-0.09464335	0.03567266
1.7e+08	-0.1148422	-0.04580619	-0.2155464	-0.9229224	0.02097528	-0.02273607	-0.01209609	0.0006891982
	-0.2155464	-0.9229224	-0.09026951	0.05030999	-0.01209795	0.0006885684	0.03188746	0.01443693
	0.02097528	-0.02273607	-0.01209795	0.0006885682	-0.1147254	-0.04570837	-0.2158612	-0.9228576
	-0.0120961	0.000689198	0.03188746	0.01443693	-0.2158612	-0.9228576	-0.09014492	0.05020121
1.8e+08	-0.1200031	-0.03655871	-0.3094043	-0.8939552	0.01688778	-0.025852	-0.01279435	0.002481783
	-0.3094043	-0.8939552	-0.08302215	0.06395096	-0.01279603	0.002481736	0.03299938	0.01334293
	0.01688778	-0.025852	-0.01279603	0.002481736	-0.1198769	-0.03646524	-0.3097319	-0.8938532
	-0.01279435	0.002481783	0.03299938	0.01334293	-0.3097319	-0.8938532	-0.0829047	0.06383871
1.9e+08	-0.1236049	-0.02680929	-0.3995627	-0.8556472	0.0121096	-0.02822217	-0.01317913	0.004469079
	-0.3995627	-0.8556472	-0.07326112	0.07617994	-0.01318057	0.004469538	0.03393057	0.01227629
	0.0121096	-0.02822217	-0.01318057	0.004469537	-0.1234699	-0.02672258	-0.3998982	-0.8555028
	-0.01317913	0.004469079	0.03393057	0.01227628	-0.3998982	-0.8555028	-0.07314899	0.07606306
2e+08	-0.125623	-0.01682332	-0.4851352	-0.8084407	0.006781858	-0.02970918	-0.0132071	0.006584364
	-0.4851352	-0.8084407	-0.06130887	0.0865337	-0.01320825	0.006585281	0.03470559	0.01127221
	0.006781858	-0.02970918	-0.01320825	0.006585281	-0.1254808	-0.01674549	-0.4854726	-0.8082523
	-0.0132071	0.006584364	0.03470559	0.01127221	-0.4854726	-0.8082523	-0.06120208	0.08641112
2.1e+08	-0.1260778	-0.006859129	-0.5652784	-0.7528572	0.001070972	-0.03020274	-0.01285171	0.008751634
	-0.5652784	-0.7528572	-0.04757272	0.09462355	-0.0128525	0.008752941	0.03535545	0.01036105
	0.001070972	-0.03020274	-0.0128525	0.008752941	-0.1259305	-0.006791981	-0.5656124	-0.7526216
	-0.01285171	0.008751634	0.03535545	0.01036105	-0.5656124	-0.7526216	-0.04747119	0.09449467
2.2e+08	-0.1250309	0.002839353	-0.6392047	-0.6894879	-0.004836405	-0.02962356	-0.01210515	0.01089038
	-0.6392047	-0.6894879	-0.03252621	0.1001509	-0.01210552	0.01089202	0.03591723	0.009566882
	-0.004836405	-0.02962356	-0.01210552	0.01089202	-0.1248812	0.002894514	-0.6395294	-0.6892045
	-0.01210515	0.01089038	0.03591723	0.009566881	-0.6395294	-0.6892045	-0.03243094	0.1000156
2.3e+08	-0.1225811	0.01204861	-0.7061828	-0.6189942	-0.01073854	-0.02792655	-0.01097871	0.01292031
	-0.7061828	-0.6189942	-0.01669135	0.1029177	-0.01097859	0.0129222	0.03643196	0.008905546
	-0.01073854	-0.02792655	-0.01097859	0.0129222	-0.122432	0.01209114	-0.7064908	-0.6186632
	-0.01097871	0.01292031	0.03643196	0.008905545	-0.7064908	-0.6186632	-0.01660326	0.1027762
2.4e+08	-0.11886	0.02057094	-0.7655386	-0.542104	-0.01642501	-0.02510421	-0.009502288	0.01476653
	-0.7655386	-0.542104	-0.0006176168	0.1028327	-0.009501652	0.01476857	0.03694555	0.008384791
	-0.01642501	-0.02510421	-0.009501652	0.01476857	-0.1187144	0.02060093	-0.7658231	-0.5417244
	-0.009502288	0.01476653	0.03694555	0.008384791	-0.7658231	-0.5417244	-0.000537102	0.1026858
2.5e+08	-0.1140247	0.02823963	-0.8166725	-0.459607	-0.0216832	-0.02118777	-0.007722119	0.01636403
	-0.8166725	-0.459607	0.01514091	0.09991747	-0.007720923	0.01636615	0.03750571	0.008001775
	-0.0216832	-0.02118777	-0.007720923	0.01636615	-0.1138859	0.0282577	-0.8169264	-0.4591803
	-0.007722119	0.01636403	0.03750571	0.008001775	-0.8169264	-0.4591803	0.01521323	0.09976608
2.6e+08	-0.1082523	0.03492135	-0.8590542	-0.3723524	-0.02630545	-0.01624828	-0.005697744	0.01766181
	-0.8590542	-0.3723524	0.0300457	0.09430171	-0.005696019	0.0176639	0.03816025	0.007742571
	-0.02630545	-0.01624828	-0.005696019	0.0176639	-0.1081231	0.03492895	-0.8592708	-0.3718825
	-0.005697744	0.01766181	0.03816025	0.007742571	-0.8592708	-0.3718825	0.03010968	0.09414747
2.7e+08	-0.1017328	0.04051829	-0.8922377	-0.2812418	-0.03009584	-0.01039536	-0.003497388	0.01862517
	-0.8922377	-0.2812418	0.04359784	0.08622072	-0.003495139	0.01862706	0.03895445	0.007581665
	-0.03009584	-0.01039536	-0.00349514	0.01862706	-0.1016158	0.04051731	-0.8924104	-0.28073
	-0.003497388	0.01862517	0.03895445	0.007581665	-0.8924104	-0.28073	0.04365409	0.08606463
2.8e+08	-0.09466126	0.04496895	-0.915863	-0.1872232	-0.03287815	-0.003775923	-0.001193494	0.01923781
	-0.915863	-0.1872232	0.05535648	0.07600356	-0.001190779	0.01923952	0.03992871	0.00748232
	-0.03287815	-0.003775923	-0.001190779	0.01923952	-0.09455882	0.04496192	-0.9159844	-0.1866758
	-0.001193494	0.01923781	0.03992871	0.00748232	-0.9159844	-0.1866758	0.05540545	0.075847
2.9e+08	-0.08723184	0.04824655	-0.929666	-0.09128511	-0.0345021	0.003429474	0.001142636	0.01950145
	-0.929666	-0.09128511	0.0649573	0.06406078	0.001145722	0.01950293	0.04111422	0.007396999
	-0.0345021	0.003429474	0.001145722	0.01950293	-0.08714543	0.04823644	-0.9297317	-0.09070709
	0.001142635	0.01950145	0.04111422	0.007396999	-0.9297317	-0.09070709	0.06500012	0.06390484
3e+08	-0.07963087	0.05035696	-0.9334843	0.00555609	-0.03485067	0.01101131	0.003445483	0.01943545
	-0.9334843	0.00555609	0.07212829	0.05086641	0.003448909	0.01943661	0.04253207	0.007270036
	-0.03485067	0.01101131	0.003448909	0.01943661	-0.07956179	0.05034708	-0.9334882	0.006158716
	0.003445482	0.01943545	0.04253207	0.007270036	-0.9334882	0.006158716	0.0721662	0.05071158
3.1e+08	-0.07203147	0.05133515	-0.9272579	0.1022639	-0.0338453	0.01873713	0.005660073	0.01907277
	-0.9272579	0.1022639	0.07669988	0.03693766	0.005663774	0.01907363	0.04418959	0.007039858
	-0.0338453	0.01873713	0.005663774	0.01907363	-0.07198022	0.05132911	-0.9271947	0.102884
	0.005660073	0.01907277	0.04418959	0.007039858	-0.9271947	0.102884	0.07673437	0.03678424
3.2e+08	-0.06458918	0.05124026	-0.9110382	0.1977965	-0.03145049	0.02635876	0.007745089	0.01845733
	-0.9110382	0.1977965	0.07861269	0.0228134	0.007749054	0.01845803	0.04607947	0.006642392
	-0.03145049	0.02635876	0.007749054	0.01845803	-0.06455528	0.05124179	-0.9109057	0.1984244
	0.007745089	0.01845733	0.04607947	0.006642392	-0.9109057	0.1984244	0.07864493	0.02266165
3.3e+08	-0.0574383	0.05015058	-0.8849903	0.2911123	-0.02767701	0.03362053	0.009675083	0.01763856
	-0.8849903	0.2911123	0.07791872	0.009031517	0.00967931	0.01763908	0.04817887	0.006014987
	-0.02767701	0.03362053	0.00967931	0.01763908	-0.05742075	0.05016322	-0.8847849	0.2917423
	0.009675083	0.01763856	0.04817887	0.006014987	-0.8847849	0.2917423	0.0779504	0.008880621
3.4e+08	-0.05069086	0.04815753	-0.8493862	0.3811954	-0.02258349	0.0402682	0.01144115	0.01666693
	-0.8493862	0.3811954	0.07477947	-0.003896385	0.01144573	0.01666729	0.0504505	0.005100212
	-0.02258349	0.0402682	0.01144573	0.01666729	-0.05068773	0.04818472	-0.8491079	0.3818173
	0.01144115	0.01666693	0.0504505	0.005100212	-0.8491079	0.3818173	0.07481172	-0.004046804
3.5e+08	-0.04443565	0.04535998	-0.8046112	0.4670568	-0.01627602	0.04605769	0.01304994	0.01558825
	-0.8046112	0.4670568	0.06945731	-0.0155046	0.01305499	0.01558858	0.05284321	0.003849577
	-0.01627602	0.04605769	0.01305499	0.01558858	-0.04444444	0.04540474	-0.8042596	0.4676627
	0.01304994	0.01558825	0.05284321	0.003849577	-0.8042596	0.4676627	0.0694914	-0.01565565
3.6e+08	-0.03873972	0.04185892	-0.751156	0.5477533	-0.008906121	0.05076479	0.01452137	0.01443975
	-0.751156	0.5477533	0.06230419	-0.02539467	0.01452702	0.01443992	0.05529592	0.002226533
	-0.008906121	0.05076479	0.01452702	0.01443992	-0.03875708	0.04192374	-0.7507313	0.5483333
	0.01452137	0.01443975	0.05529592	0.002226533	-0.7507313	0.5483333	0.06234068	-0.02554755
3.7e+08	-0.03365099	0.03775322	-0.6896076	0.6224007	-0.0006668118	0.05419312	0.01588486	0.0132458
	-0.6896076	0.6224007	0.05374461	-0.03325251	0.01589126	0.01324573	0.05773991	0.0002087073
	-0.0006668118	0.05419312	0.01589126	0.01324573	-0.03367323	0.03783986	-0.6891124	0.6229474
	0.01588486	0.0132458	0.05773991	0.0002087072	-0.6891124	0.6229474	0.05378417	-0.03340869
3.8e+08	-0.02920085	0.03313533	-0.6206501	0.6901801	0.008212686	0.05618227	0.01717477	0.01201613
	-0.6206501	0.6901801	0.04425701	-0.0388605	0.01718207	0.01201565	0.06010302	-0.002210836
	0.008212686	0.05618227	0.01718207	0.01201565	-0.0292237	0.03324473	-0.620087	0.6906838
	0.01717477	0.01201613	0.06010302	-0.002210836	-0.620087	0.6906838	0.04429973	-0.03902143
3.9e+08	-0.02540902	0.02808986	-0.5450478	0.7503554	0.01747402	0.05661411	0.01842524	0.01074456
	-0.5450478	0.7503554	0.0343518	-0.04210725	0.01843351	0.01074337	0.06231364	-0.005023638
	0.01747402	0.05661411	0.01843351	0.01074337	-0.02542817	0.02822206	-0.5444201	0.7508088
	0.01842524	0.01074456	0.06231364	-0.005023638	-0.5444201	0.7508088	0.03439757	-0.04227451
4e+08	-0.0222867	0.02269159	-0.4636411	0.8022735	0.02683783	0.05541803	0.01966501	0.009410038
	-0.4636411	0.8022735	0.0245487	-0.04299071	0.01967432	0.009407839	0.06430406	-0.008206925
	0.02683783	0.05541803	0.01967432	0.009407839	-0.02229777	0.02284574	-0.4629536	0.8026688
	0.01966501	0.009410038	0.06430406	-0.008206925	-0.4629536	0.8026688	0.02459707	-0.04316579
4.1e+08	-0.01984161	0.0170064	-0.3773337	0.8453777	0.03601241	0.05257455	0.02091243	0.007978696
	-0.3773337	0.8453777	0.01535361	-0.04161766	0.02092282	0.007975206	0.06601342	-0.0117249
	0.03601241	0.05257455	0.02092282	0.007975206	-0.01984041	0.01718069	-0.3765928	0.8457073
	0.02091243	0.007978696	0.06601342	-0.0117249	-0.3765928	0.8457073	0.01540384	-0.04180189
4.2e+08	-0.01808078	0.0110931	-0.28708	0.8792089	0.04470378	0.048117	0.02217192	0.00640775
	-0.28708	0.8792089	0.007236421	-0.03819803	0.02218322	0.006402522	0.06739048	-0.01553192
	0.04470378	0.048117	0.02218322	0.006402522	-0.01806347	0.01128467	-0.2862912	0.8794666
	0.02217192	0.00640775	0.06739048	-0.01553192	-0.2862912	0.8794666	0.007287592	-0.03839268
4.3e+08	-0.01701363	0.005004789	-0.1938776	0.903414	0.05262473	0.04213204	0.02343086	0.004650055
	-0.1938776	0.903414	0.0006111476	-0.03303475	0.02344276	0.004642663	0.06839455	-0.01957484
	0.05262473	0.04213204	0.02344276	0.004642663	-0.01697706	0.005210155	-0.1930492	0.9035942
	0.02343086	0.004650055	0.06839455	-0.01957484	-0.1930492	0.9035942	0.000661907	-0.03324073
4.4e+08	-0.01665351	-0.001207122	-0.09875396	0.9177472	0.05950469	0.0347575	0.02465842	0.002659569
	-0.09875396	0.9177472	-0.004182687	-0.02650966	0.02467077	0.002649735	0.06899661	-0.02379628
	0.05950469	0.0347575	0.02467077	0.002649735	-0.01659526	-0.0009922722	-0.09789282	0.9178431
	0.02465842	0.002659569	0.06899661	-0.02379628	-0.09789282	0.9178431	-0.004133725	-0.02672788
4.5e+08	-0.01701821	-0.007490002	-0.002755882	0.9220713	0.06509886	0.02617916	0.02580619	0.0003971406
	-0.002755882	0.9220713	-0.006894017	-0.01906687	0.02581846	0.0003845139	0.06917855	-0.0281365
	0.06509886	0.02617916	0.02581846	0.0003845139	-0.01693676	-0.007270301	-0.001870693	0.922079
	0.02580619	0.0003971406	0.06917855	-0.0281365	-0.001870693	0.922079	-0.006848385	-0.01929771
4.6e+08	-0.01812931	-0.01378597	0.09306424	0.9163578	0.06919661	0.01662627	0.02681007	-0.002164257
	0.09306424	0.9163578	-0.007370795	-0.01119185	0.02682173	-0.00217988	0.06893289	-0.0325366
	0.06919661	0.01662627	0.02682173	-0.00217988	-0.01802413	-0.01356673	0.09396483	0.9162728
	0.02681007	-0.002164257	0.06893289	-0.0325366	0.09396483	0.9162728	-0.007329981	-0.01143584
4.7e+08	-0.0200106	-0.02002973	0.1876549	0.9006915	0.07162935	0.006364359	0.02759375	-0.005034585
	0.1876549	0.9006915	-0.005566511	-0.003391618	0.02760406	-0.005053347	0.0682612	-0.03693901
	0.07162935	0.006364359	0.02760406	-0.005053347	-0.01988231	-0.01981597	0.1885622	0.9005124
	0.02759375	-0.005034585	0.0682612	-0.03693901	0.1885622	0.9005124	-0.005532263	-0.003648396
4.8e+08	-0.02268521	-0.0261454	0.2799798	0.8752672	0.07227643	-0.004311865	0.0280735	-0.008203376
	0.2799798	0.8752672	-0.001542199	0.003829274	0.0280818	-0.008225219	0.0671734	-0.04128975
	0.07227643	-0.004311865	0.0280818	-0.008225219	-0.02253557	-0.02594253	0.2808832	0.8749899
	0.0280735	-0.008203376	0.0671734	-0.04128975	0.2808832	0.8749899	-0.001515897	0.003559607
4.9e+08	-0.02617174	-0.03204509	0.3690319	0.8403877	0.07107055	-0.01508765	0.02816453	-0.01163742
	0.3690319	0.8403877	0.004537247	0.009989355	0.02817015	-0.01166217	0.0656863	-0.04553834
	0.07107055	-0.01508765	0.02817015	-0.01166217	-0.02600363	-0.03185775	0.3699209	0.8400109
	0.02816453	-0.01163742	0.0656863	-0.04553834	0.3699209	0.8400109	0.004554044	0.009707368
5e+08	-0.03048098	-0.0376291	0.4538366	0.7964581	0.0680005	-0.02563804	0.0277864	-0.01528031
	0.4538366	0.7964581	0.01240871	0.01465144	0.02778864	-0.01530757	0.06382244	-0.04963876
	0.0680005	-0.02563804	0.02778864	-0.01530757	-0.03029835	-0.03746138	0.4547016	0.7959822
	0.0277864	-0.01528031	0.06382244	-0.04963876	0.4547016	0.7959822	0.01241474	0.01435794
5.1e+08	-0.03561138	-0.04278546	0.5334743	0.7439881	0.06311331	-0.0356378	0.02686988	-0.01905358
	0.5334743	0.7439881	0.02172424	0.01744308	0.02686816	-0.01908289	0.06160987	-0.05354881
	0.06311331	-0.0356378	0.02686816	-0.01908289	-0.03541904	-0.04264086	0.534303	0.7434133
	0.02686988	-0.01905358	0.06160987	-0.05354881	0.534303	0.7434133	0.02171818	0.01713858
5.2e+08	-0.04154499	-0.04739305	0.6070803	0.6835826	0.05651369	-0.0447724	0.02536289	-0.02285982
	0.6070803	0.6835826	0.03206387	0.01807094	0.02535659	-0.0228905	0.05908185	-0.05723144
	0.05651369	-0.0447724	0.02535659	-0.0228905	-0.04134866	-0.04727369	0.6078613	0.6829109
	0.02536289	-0.02285982	0.05908185	-0.05723144	0.6078613	0.6829109	0.0320445	0.01775651
