!$
! Info: Touchstone file created by Circ.  Input file=C2M_PCB_85ohms_3p5in_20230620_v3.circ
!$
# Hz S RI R 50
0	0.005576097	2.434898e-24	0.9943935	-2.194164e-24	0.0001415893	7.102635e-23	-0.0001378788	1.694919e-20
	0.9943935	-2.049198e-24	0.005394959	9.524072e-25	-0.0001352096	1.662234e-20	-3.167471e-06	8.261577e-21
	0.0001415893	7.106072e-23	-0.0001352096	1.662212e-20	0.005579457	2.940771e-24	0.9944068	-2.147193e-24
	-0.0001378788	1.694922e-20	-3.167492e-06	8.261651e-21	0.9944068	-2.163968e-24	0.005408322	1.427716e-24
1e+07	0.007678075	-0.002366439	0.9896578	-0.06835686	0.0004010485	0.002583039	-0.0002249337	-0.000521823
	0.9896578	-0.06835686	0.007350447	-0.002211357	-0.0002229121	-0.000522381	0.0002554903	0.002648621
	0.0004010485	0.002583039	-0.0002229121	-0.000522381	0.007753456	-0.002364008	0.989595	-0.06838842
	-0.0002249337	-0.000521823	0.0002554903	0.002648621	0.989595	-0.06838842	0.007426319	-0.002205031
2e+07	0.009210032	-0.006597764	0.9807128	-0.1342965	0.001038144	0.005041405	-0.0003345619	-0.0009836533
	0.9807128	-0.1342965	0.008359829	-0.006270188	-0.0003330775	-0.0009839768	0.0007753875	0.005144811
	0.001038181	0.005041315	-0.0003330538	-0.0009840245	0.00926826	-0.006616083	0.980652	-0.1343252
	-0.0003345358	-0.0009836978	0.0007754069	0.005144809	0.980652	-0.1343252	0.00842335	-0.006282416
3e+07	0.009787269	-0.01167795	0.9679682	-0.1986234	0.002033275	0.007343317	-0.0004782738	-0.001400528
	0.9679682	-0.1986234	0.008023209	-0.01104433	-0.0004769117	-0.001400603	0.001537313	0.007511927
	0.002033264	0.007343308	-0.0004769199	-0.0014006	0.009831126	-0.0116994	0.9679078	-0.198661
	-0.0004782832	-0.001400525	0.001537305	0.007511944	0.9679078	-0.198661	0.008079023	-0.01105905
4e+07	0.009610573	-0.01701721	0.9512972	-0.261607	0.003362305	0.009474497	-0.0006514141	-0.001803569
	0.9512972	-0.261607	0.006579996	-0.01584994	-0.0006499839	-0.001803395	0.002531491	0.009774829
	0.003362305	0.0094745	-0.0006499854	-0.001803393	0.009641876	-0.01703638	0.9512354	-0.2616566
	-0.0006514153	-0.001803566	0.002531488	0.00977483	0.9512354	-0.2616566	0.006630768	-0.01586393
5e+07	0.008770923	-0.02243171	0.9307077	-0.3231132	0.004997706	0.01140251	-0.0008517014	-0.00220302
	0.9307077	-0.3231132	0.00417157	-0.02042989	-0.0008500557	-0.002202665	0.003747742	0.01192118
	0.004997707	0.01140251	-0.0008500575	-0.002202665	0.008790953	-0.0224452	0.9306421	-0.3231763
	-0.0008517033	-0.002203019	0.003747739	0.01192118	0.9306421	-0.3231763	0.004219668	-0.02044178
6e+07	0.007321997	-0.02781064	0.9062693	-0.3829416	0.00691442	0.01309035	-0.001086083	-0.002601842
	0.9062693	-0.3829416	0.0009061037	-0.02461287	-0.001084164	-0.002601431	0.005177967	0.01393107
	0.006914419	0.01309035	-0.001084162	-0.002601431	0.007332625	-0.02781575	0.9061978	-0.3830194
	-0.001086081	-0.002601842	0.005177971	0.01393107	0.9061978	-0.3830194	0.0009530266	-0.02462234
7e+07	0.005305125	-0.03306951	0.8780837	-0.4408738	0.009081289	0.01450363	-0.001361003	-0.0030006
	0.8780837	-0.4408738	-0.003113972	-0.02826228	-0.001358822	-0.003000258	0.006808394	0.01578476
	0.009081289	0.01450363	-0.001358819	-0.00300026	0.005308016	-0.03306433	0.8780032	-0.4409667
	-0.001361002	-0.003000603	0.006808397	0.01578475	0.8780032	-0.4409667	-0.003066707	-0.02826908
8e+07	0.0027599	-0.03813764	0.8462786	-0.4966904	0.01146255	0.01561197	-0.00168297	-0.003398048
	0.8462786	-0.4966904	-0.007782436	-0.03126406	-0.001680557	-0.003397846	0.00862192	0.01746455
	0.01146255	0.01561198	-0.001680559	-0.003397844	0.002756882	-0.03812068	0.8461863	-0.4967981
	-0.001682971	-0.003398046	0.008621918	0.01746455	0.8461863	-0.4967981	-0.00773356	-0.03126807
9e+07	-0.0002717276	-0.04295454	0.8109988	-0.5501755	0.01401902	0.01638993	-0.002058619	-0.003791191
	0.8109988	-0.5501755	-0.01298615	-0.03352238	-0.002056022	-0.0037912	0.01059944	0.01895533
	0.01401902	0.01638992	-0.002056025	-0.003791191	-0.0002783767	-0.04292445	0.8108925	-0.5502982
	-0.002058619	-0.003791182	0.01059944	0.01895534	0.8108925	-0.5502982	-0.01293468	-0.03352368
1e+08	-0.003741389	-0.04746855	0.7724066	-0.6011253	0.01670871	0.01681773	-0.00249512	-0.004175904
	0.7724066	-0.6011253	-0.01860503	-0.03495573	-0.002492419	-0.00417619	0.01272155	0.02024489
	0.01670871	0.01681773	-0.002492419	-0.004176191	-0.003748046	-0.04742377	0.7722817	-0.6012628
	-0.00249512	-0.004175905	0.01272155	0.02024489	0.7722817	-0.6012628	-0.01855007	-0.03495334
1.1e+08	-0.007609798	-0.05164346	0.7306731	-0.6493242	0.01949109	0.01687708	-0.003000879	-0.004538659
	0.7306731	-0.6493242	-0.02447709	-0.03553641	-0.002997032	-0.00454056	0.014966	0.02131723
	0.01949109	0.01687708	-0.002997032	-0.004540562	-0.007613433	-0.05157676	0.7305267	-0.6494704
	-0.003000879	-0.00453866	0.014966	0.02131723	0.7305267	-0.6494704	-0.02434941	-0.03552628
1.2e+08	-0.01183999	-0.05544081	0.6860064	-0.6945921	0.02231523	0.01655599	-0.003572667	-0.004875456
	0.6860064	-0.6945921	-0.0305204	-0.03519355	-0.003569358	-0.00487848	0.0173059	0.02216959
	0.02231523	0.01655599	-0.003569358	-0.004878482	-0.01183656	-0.0553622	0.6858369	-0.6947463
	-0.003572667	-0.004875458	0.0173059	0.02216959	0.6858369	-0.6947463	-0.03037251	-0.03521207
1.3e+08	-0.01637912	-0.05882405	0.6386091	-0.7367611	0.02513437	0.01585116	-0.004216344	-0.005177245
	0.6386091	-0.7367611	-0.03658179	-0.03390763	-0.004213926	-0.005180605	0.0197204	0.02279824
	0.02513437	0.01585116	-0.004213926	-0.005180606	-0.01636941	-0.05873851	0.6384129	-0.7369191
	-0.004216344	-0.005177246	0.0197204	0.02279823	0.6384129	-0.7369191	-0.03644099	-0.03394827
1.4e+08	-0.02117296	-0.06176635	0.5886925	-0.7756726	0.02790205	0.01476393	-0.004934355	-0.005432211
	0.5886925	-0.7756726	-0.04251919	-0.03168379	-0.004932657	-0.005435476	0.02218807	0.02320165
	0.02790205	0.01476393	-0.004932657	-0.005435477	-0.02115892	-0.06167557	0.5884696	-0.7758324
	-0.004934355	-0.005432213	0.02218807	0.02320165	0.5884696	-0.7758324	-0.04239247	-0.03173423
1.5e+08	-0.02616664	-0.06425023	0.5364816	-0.8111872	0.03057196	0.01330065	-0.005726599	-0.005627531
	0.5364816	-0.8111872	-0.04819852	-0.02854452	-0.005725373	-0.005630581	0.02468776	0.02337997
	0.03057196	0.01330065	-0.005725374	-0.005630582	-0.02614952	-0.06415394	0.5362308	-0.8113448
	-0.005726599	-0.005627532	0.02468776	0.02337997	0.5362308	-0.8113448	-0.04808334	-0.02859642
1.6e+08	-0.03130502	-0.06626609	0.4822051	-0.8431775	0.03309899	0.01147276	-0.00659066	-0.005749856
	0.4822051	-0.8431775	-0.05349154	-0.02452771	-0.006589773	-0.005752727	0.02719925	0.02333564
	0.03309899	0.01147276	-0.006589773	-0.005752728	-0.0312852	-0.06616345	0.4819261	-0.8433297
	-0.00659066	-0.005749856	0.02719925	0.02333563	0.4819261	-0.8433297	-0.05338271	-0.02457743
1.7e+08	-0.03653485	-0.06781194	0.4261001	-0.8715311	0.03543948	0.009296792	-0.007521663	-0.00578564
	0.4261001	-0.8715311	-0.05827681	-0.01968702	-0.007521049	-0.005788417	0.02970317	0.02307278
	0.03543948	0.009296792	-0.007521049	-0.005788418	-0.03651185	-0.06770206	0.425793	-0.8716749
	-0.007521663	-0.005785641	0.02970317	0.02307278	0.425793	-0.8716749	-0.05816935	-0.01973443
1.8e+08	-0.04180422	-0.06889217	0.368408	-0.8961534	0.03755219	0.006794005	-0.00851251	-0.005721555
	0.368408	-0.8961534	-0.06244092	-0.01409075	-0.008512213	-0.005724294	0.03218147	0.02259716
	0.03755219	0.006794005	-0.008512213	-0.005724294	-0.04177725	-0.06877452	0.3680734	-0.8962868
	-0.008512511	-0.005721556	0.03218146	0.02259716	0.3680734	-0.8962868	-0.06233126	-0.01413753
1.9e+08	-0.04706475	-0.06951739	0.3093749	-0.9169651	0.03939865	0.003990145	-0.009553645	-0.005544829
	0.3093749	-0.9169651	-0.06588027	-0.007821543	-0.009553741	-0.005547556	0.03461747	0.02191616
	0.03939865	0.003990145	-0.009553741	-0.005547556	-0.04703242	-0.06939184	0.3090121	-0.9170836
	-0.009553645	-0.005544829	0.03461747	0.02191616	0.3090121	-0.9170836	-0.06576585	-0.007870197
2e+08	-0.05227057	-0.06970338	0.249247	-0.9339018	0.04094303	0.0009149848	-0.01063323	-0.005243616
	0.249247	-0.9339018	-0.06850229	-0.0009745608	-0.01063382	-0.005246293	0.03699558	0.02103786
	0.04094303	0.0009149849	-0.01063382	-0.005246293	-0.05223176	-0.0695703	0.248858	-0.9340032
	-0.01063323	-0.005243616	0.03699558	0.02103786	0.248858	-0.9340032	-0.06838239	-0.001028103
2.1e+08	-0.0573797	-0.06947097	0.188278	-0.9469149	0.04215335	-0.002397899	-0.01173717	-0.004807469
	0.188278	-0.9469149	-0.0702275	0.00634288	-0.01173834	-0.004810021	0.0393017	0.01997162
	0.04215335	-0.002397899	-0.01173834	-0.004810021	-0.05733333	-0.06933099	0.1878622	-0.9469958
	-0.01173717	-0.004807469	0.0393017	0.01997162	0.1878622	-0.9469958	-0.070102	0.006282147
2.2e+08	-0.06235457	-0.06884502	0.1267174	-0.9559722	0.04300145	-0.005911702	-0.01284948	-0.004227704
	0.1267174	-0.9559722	-0.07099069	0.01401442	-0.01285129	-0.004229991	0.04152346	0.01872769
	0.04300145	-0.005911702	-0.01285129	-0.004229991	-0.06229972	-0.06869903	0.1262762	-0.9560306
	-0.01284948	-0.004227704	0.04152346	0.01872769	0.1262762	-0.9560306	-0.07086072	0.01394431
2.3e+08	-0.06716199	-0.0678538	0.06481591	-0.9610574	0.0434629	-0.009586595	-0.01395224	-0.003497685
	0.06481591	-0.9610574	-0.07074233	0.02191571	-0.01395471	-0.003499558	0.04364884	0.01731615
	0.0434629	-0.009586595	-0.01395471	-0.003499558	-0.06709793	-0.06770292	0.06435152	-0.9610903
	-0.01395224	-0.003497685	0.04364884	0.01731615	0.06435152	-0.9610903	-0.07060914	0.02183464
2.4e+08	-0.07177321	-0.06652885	0.002826819	-0.9621657	0.043518	-0.01338038	-0.01502622	-0.002613208
	0.002826819	-0.9621657	-0.06944834	0.02991607	-0.01502933	-0.002614521	0.04566801	0.01574835
	0.043518	-0.01338038	-0.01502933	-0.002614521	-0.07169953	-0.06637417	0.002339539	-0.9621696
	-0.01502622	-0.002613208	0.04566801	0.01574835	0.002339539	-0.9621696	-0.06931319	0.02982321
2.5e+08	-0.07616516	-0.06490332	-0.05900304	-0.9593123	0.04315144	-0.01724894	-0.01605102	-0.001572738
	-0.05900304	-0.9593123	-0.067092	0.03788225	-0.01605471	-0.001573296	0.04757211	0.01403556
	0.04315144	-0.01724894	-0.01605471	-0.001573296	-0.07608139	-0.06474613	-0.05951142	-0.9592845
	-0.01605102	-0.001572738	0.04757211	0.01403556	-0.05951142	-0.9592845	-0.06695653	0.037777
2.6e+08	-0.08031942	-0.06301222	-0.1204248	-0.9525234	0.04235291	-0.02114667	-0.01700585	-0.000377616
	-0.1204248	-0.9525234	-0.06367372	0.04567818	-0.01701006	-0.0003772897	0.0493533	0.01218934
	0.04235291	-0.02114667	-0.01701006	-0.0003772898	-0.08022553	-0.06285374	-0.1209513	-0.9524622
	-0.01700585	-0.0003776161	0.0493533	0.01218934	-0.1209513	-0.9524622	-0.06353945	0.0455605
2.7e+08	-0.08422266	-0.06089113	-0.1811952	-0.9418418	0.0411164	-0.02502682	-0.01786936	0.0009679215
	-0.1811952	-0.9418418	-0.05921058	0.05316952	-0.01787385	0.0009692503	0.05100494	0.01022125
	0.0411164	-0.02502682	-0.01787385	0.0009692503	-0.08411858	-0.0607326	-0.1817394	-0.9417437
	-0.01786936	0.0009679215	0.05100494	0.01022125	-0.1817394	-0.9417437	-0.05907848	0.05303974
2.8e+08	-0.08786711	-0.05857552	-0.2410737	-0.9273225	0.03944126	-0.02884234	-0.01862062	0.002456544
	-0.2410737	-0.9273225	-0.05373655	0.06022388	-0.01862534	0.002459026	0.05252178	0.008143286
	0.03944126	-0.02884234	-0.01862534	0.002459026	-0.08775296	-0.05841835	-0.2416313	-0.9271853
	-0.01862062	0.002456544	0.05252178	0.008143285	-0.2416313	-0.9271853	-0.0536077	0.06008211
2.9e+08	-0.09124951	-0.05610026	-0.2998231	-0.9090367	0.03733143	-0.03254575	-0.01923908	0.00407791
	-0.2998231	-0.9090367	-0.04730256	0.06671388	-0.01924385	0.004081593	0.05389877	0.005966861
	0.03733143	-0.03254575	-0.01924385	0.004081593	-0.0911258	-0.05594554	-0.3003923	-0.9088589
	-0.01923908	0.00407791	0.05389877	0.005966861	-0.3003923	-0.9088589	-0.04717796	0.06656078
3e+08	-0.09437145	-0.05349883	-0.3572132	-0.8870688	0.03479595	-0.03609033	-0.01970603	0.005818838
	-0.3572132	-0.8870688	-0.03997467	0.07251919	-0.01971058	0.005823766	0.05513268	0.003703893
	0.03479595	-0.03609033	-0.01971058	0.005823766	-0.09423852	-0.05334798	-0.3577909	-0.8868475
	-0.01970603	0.005818838	0.05513268	0.003703893	-0.3577909	-0.8868475	-0.03985483	0.07235503
3.1e+08	-0.09723892	-0.05080288	-0.4130171	-0.8615143	0.03184866	-0.03943016	-0.02000353	0.00766328
	-0.4130171	-0.8615143	-0.03183347	0.0775273	-0.02000767	0.00766946	0.05622082	0.001366012
	0.03184866	-0.03943016	-0.02000767	0.00766946	-0.0970974	-0.05065722	-0.4135997	-0.8612466
	-0.02000353	0.00766328	0.05622082	0.001366012	-0.4135997	-0.8612466	-0.03171861	0.07735241
3.2e+08	-0.09986164	-0.04804156	-0.4670168	-0.8324829	0.0285081	-0.04252063	-0.02011613	0.009592766
	-0.4670168	-0.8324829	-0.02297293	0.08163671	-0.02011977	0.009600238	0.05716164	-0.001035299
	0.0285081	-0.04252063	-0.02011977	0.009600238	-0.09971253	-0.04790222	-0.4675993	-0.8321689
	-0.02011613	0.009592766	0.05716164	-0.001035299	-0.4675993	-0.8321689	-0.02286425	0.08145133
3.3e+08	-0.1022532	-0.04524096	-0.5189968	-0.8001009	0.02479743	-0.04531901	-0.02003047	0.01158649
	-0.5189968	-0.8001009	-0.01350059	0.0847575	-0.02003334	0.01159517	0.05795441	-0.003488745
	0.02479743	-0.04531901	-0.02003334	0.01159517	-0.1020974	-0.04510907	-0.5195779	-0.7997374
	-0.02003047	0.01158649	0.05795441	-0.003488745	-0.5195779	-0.7997374	-0.01339783	0.08456211
3.4e+08	-0.1044298	-0.04242399	-0.568755	-0.7645012	0.02074425	-0.04778499	-0.01973612	0.01362189
	-0.568755	-0.7645012	-0.003532681	0.08681315	-0.01973803	0.01363173	0.05859965	-0.005983262
	0.02074425	-0.04778499	-0.01973803	0.01363173	-0.1042686	-0.04230056	-0.5693295	-0.7640887
	-0.01973612	0.01362189	0.05859966	-0.005983262	-0.5693295	-0.7640887	-0.003436802	0.08660806
3.5e+08	-0.1064104	-0.03960955	-0.6160934	-0.7258334	0.01638047	-0.0498807	-0.01922534	0.01567473
	-0.6160934	-0.7258334	0.006804014	0.08774172	-0.0192262	0.01568569	0.05909822	-0.008508124
	0.01638047	-0.0498807	-0.0192262	0.01568569	-0.106245	-0.03949553	-0.616658	-0.7253709
	-0.01922534	0.01567473	0.05909822	-0.008508124	-0.616658	-0.7253709	0.006892902	0.08752736
3.6e+08	-0.1082157	-0.0368126	-0.6608241	-0.6842592	0.0117418	-0.05157176	-0.01849381	0.01771986
	-0.6608241	-0.6842592	0.01737602	0.08749705	-0.01849338	0.0177318	0.05945261	-0.01105303
	0.0117418	-0.05157176	-0.01849338	0.0177318	-0.1080478	-0.0367087	-0.6613735	-0.6837457
	-0.01849381	0.01771986	0.05945261	-0.01105303	-0.6613735	-0.6837457	0.01745719	0.08727344
3.7e+08	-0.1098674	-0.03404431	-0.7027702	-0.6399475	0.006867578	-0.05282711	-0.01754021	0.01973144
	-0.7027702	-0.6399475	0.02804534	0.08604876	-0.01753833	0.01974423	0.05966569	-0.01360829
	0.006867578	-0.05282711	-0.01753833	0.01974423	-0.1096985	-0.03395107	-0.7033013	-0.6393834
	-0.01754021	0.01973144	0.05966569	-0.01360829	-0.7033013	-0.6393834	0.02811854	0.08581651
3.8e+08	-0.1113881	-0.03131103	-0.7417628	-0.5930838	0.001800503	-0.05361988	-0.01636679	0.02168347
	-0.7417628	-0.5930838	0.03866952	0.0833839	-0.01636332	0.02169698	0.05974151	-0.01616471
	0.001800503	-0.05361988	-0.01636332	0.02169698	-0.1112202	-0.03122876	-0.7422699	-0.5924691
	-0.01636679	0.02168347	0.05974151	-0.01616471	-0.7422699	-0.5924691	0.03873409	0.08314314
3.9e+08	-0.1128001	-0.02861545	-0.7776485	-0.5438596	-0.003413841	-0.05392734	-0.01497903	0.0235504
	-0.7776485	-0.5438596	0.04910649	0.07950667	-0.0149738	0.02356438	0.05968478	-0.018714
	-0.003413841	-0.05392734	-0.0149738	0.02356438	-0.1126348	-0.02854423	-0.7781279	-0.5431945
	-0.01497903	0.0235504	0.05968478	-0.018714	-0.7781279	-0.5431945	0.04916222	0.07925784
4e+08	-0.1141251	-0.02595545	-0.8102823	-0.4924795	-0.008727491	-0.05373141	-0.01338579	0.02530742
	-0.8102823	-0.4924795	0.05921411	0.07443846	-0.01337868	0.02532171	0.05950113	-0.02124886
	-0.008727491	-0.05373141	-0.01337868	0.02532171	-0.1139645	-0.02589516	-0.8107294	-0.4917649
	-0.01338579	0.02530742	0.05950113	-0.02124886	-0.8107294	-0.4917649	0.05926058	0.07418197
4.1e+08	-0.1153833	-0.02332509	-0.8395345	-0.4391567	-0.01409029	-0.05301885	-0.01159898	0.02693087
	-0.8395345	-0.4391567	0.06885388	0.06821807	-0.01158997	0.02694535	0.05919645	-0.02376267
	-0.01409029	-0.05301885	-0.01158997	0.02694535	-0.1152293	-0.0232753	-0.8399443	-0.4383948
	-0.01159898	0.02693087	0.05919645	-0.02376267	-0.8399443	-0.4383948	0.06889045	0.06795447
4.2e+08	-0.1165932	-0.02071508	-0.8652869	-0.384111	-0.01945102	-0.05178142	-0.009633422	0.02839907
	-0.8652869	-0.384111	0.0778923	0.06090003	-0.009622405	0.02841346	0.0587774	-0.02625013
	-0.01945102	-0.05178142	-0.009622405	0.02841346	-0.1164476	-0.02067499	-0.8656554	-0.3833029
	-0.009633422	0.02839907	0.0587774	-0.02625013	-0.8656554	-0.3833029	0.07791897	0.06062973
4.3e+08	-0.1177703	-0.0181121	-0.8874376	-0.3275717	-0.02475725	-0.05001643	-0.007506609	0.02969228
	-0.8874376	-0.3275717	0.08620376	0.05255546	-0.007493485	0.02970628	0.05825067	-0.02870709
	-0.02475725	-0.05001643	-0.007493485	0.02970628	-0.1176351	-0.01808078	-0.8877607	-0.3267211
	-0.007506609	0.02969228	0.05825067	-0.02870709	-0.8877607	-0.3267211	0.08621999	0.05227941
4.4e+08	-0.1189276	-0.01550013	-0.9058999	-0.2697748	-0.0299562	-0.04772628	-0.00523819	0.03079305
	-0.9058999	-0.2697748	0.09367153	0.04327036	-0.005223063	0.03080663	0.05762342	-0.03113084
	-0.0299562	-0.04772628	-0.005223063	0.03080663	-0.1188044	-0.01547626	-0.9061719	-0.2688833
	-0.00523819	0.03079305	0.05762342	-0.03113084	-0.9061719	-0.2688833	0.09367686	0.0429886
4.5e+08	-0.1200743	-0.01286043	-0.9206015	-0.210962	-0.03499538	-0.04491865	-0.002849843	0.03168682
	-0.9206015	-0.210962	0.1001898	0.03314377	-0.002832667	0.03169967	0.05690235	-0.03351958
	-0.03499538	-0.04491865	-0.002832667	0.03169967	-0.1199648	-0.01284262	-0.9208191	-0.2100332
	-0.002849843	0.03168682	0.05690235	-0.03351958	-0.9208191	-0.2100332	0.1001841	0.03285722
4.6e+08	-0.1212157	-0.0101727	-0.9314853	-0.1513771	-0.03982276	-0.04160696	-0.000364683	0.03236196
	-0.9314853	-0.1513771	0.1056653	0.02228695	-0.0003455116	0.03237388	0.05609421	-0.03587319
	-0.03982276	-0.04160696	-0.0003455116	0.03237388	-0.1211214	-0.01015902	-0.9316438	-0.1504142
	-0.0003646829	0.03236196	0.05609421	-0.03587319	-0.9316438	-0.1504142	0.1056484	0.0219958
4.7e+08	-0.1223529	-0.00741474	-0.9385123	-0.09127055	-0.04438808	-0.03780955	0.002193079	0.03280982
	-0.9385123	-0.09127055	0.1100191	0.01082165	0.002214243	0.03282048	0.05520478	-0.03819224
	-0.04438808	-0.03780955	0.002214243	0.03282048	-0.1222749	-0.007403393	-0.9386102	-0.09027723
	0.002193079	0.03280982	0.05520478	-0.03819224	-0.9386102	-0.09027723	0.1099912	0.01052684
4.8e+08	-0.1234826	-0.004563846	-0.9416604	-0.03089483	-0.0486426	-0.03355009	0.00479873	0.03302477
	-0.9416604	-0.03089483	0.1131873	-0.001120961	0.004821795	0.033034	0.05423949	-0.0404789
	-0.0486426	-0.03355009	0.004821795	0.033034	-0.1234221	-0.004552367	-0.9416924	-0.02987552
	0.00479873	0.03302477	0.05423949	-0.0404789	-0.9416924	-0.02987552	0.1131479	-0.001419175
4.9e+08	-0.1245969	-0.001597616	-0.9409258	0.02949962	-0.05254022	-0.02885714	0.007427348	0.03300476
	-0.9409258	0.02949962	0.115123	-0.0134044	0.007452226	0.03301237	0.05320267	-0.0427361
	-0.05254022	-0.02885714	0.007452226	0.03301237	-0.1245544	-0.001583745	-0.9408887	0.03054029
	0.007427348	0.03300476	0.05320267	-0.0427361	-0.9408887	0.03054029	0.1150721	-0.01370528
5e+08	-0.1256835	0.001506253	-0.9363161	0.08965898	-0.05603766	-0.02376358	0.01005443	0.03275036
	-0.9363161	0.08965898	0.1157943	-0.02588691	0.01008096	0.03275615	0.05209737	-0.04496792
	-0.05603766	-0.02376358	0.01008096	0.03275615	-0.1256594	0.001524997	-0.9362085	0.09071683
	0.01005443	0.03275036	0.05209737	-0.04496792	-0.9362085	0.09071683	0.1157322	-0.02618995
5.1e+08	-0.126725	0.004768135	-0.9278622	0.1493354	-0.05909509	-0.01830683	0.01265614	0.03226521
	-0.9278622	0.1493354	0.1151889	-0.03842461	0.01268423	0.03226903	0.05092539	-0.04717852
	-0.05909509	-0.01830683	0.01268423	0.03226903	-0.1267195	0.004794456	-0.9276806	0.1504045
	0.01265614	0.03226521	0.05092539	-0.04717852	-0.9276806	0.1504045	0.1151154	-0.03872929
5.2e+08	-0.1277006	0.008206651	-0.9156088	0.2082798	-0.06167678	-0.01252818	0.01520984	0.03155582
