!$
! Info: Touchstone file created by Circ.  Input file=C2M_PCB_85ohms_4p5in_20230620_v3.circ
!$
# Hz S RI R 50
0	0.006370452	2.710858e-24	0.9935991	-2.487262e-24	0.0001467947	7.592246e-23	-0.0001430872	1.760085e-20
	0.9935991	-2.342405e-24	0.006189265	1.25739e-24	-0.00014042	1.727422e-20	2.045872e-06	8.283617e-21
	0.0001467948	7.595676e-23	-0.00014042	1.7274e-20	0.006373808	3.205117e-24	0.9936125	-2.41763e-24
	-0.0001430872	1.760087e-20	2.04585e-06	8.283691e-21	0.9936125	-2.434394e-24	0.00620265	1.706847e-24
1e+07	0.008724889	-0.003387549	0.98772	-0.07883627	0.0004674087	0.002739646	-0.0002370483	-0.0005046584
	0.98772	-0.07883627	0.008328937	-0.003207174	-0.0002350321	-0.0005052329	0.0002919985	0.002812638
	0.0004674087	0.002739646	-0.0002350321	-0.0005052329	0.008803358	-0.00338521	0.9876538	-0.07886671
	-0.0002370483	-0.0005046584	0.0002919985	0.002812638	0.9876538	-0.07886671	0.008408106	-0.003199823
2e+07	0.01028593	-0.008941571	0.9761666	-0.1547167	0.00126342	0.005317397	-0.0003494985	-0.0009443533
	0.9761666	-0.1547167	0.00917539	-0.008518604	-0.0003480083	-0.0009447043	0.0008859417	0.005455181
	0.001263453	0.005317306	-0.0003479859	-0.0009447525	0.01034564	-0.008960462	0.9761031	-0.1547421
	-0.0003494736	-0.0009443984	0.0008859609	0.005455179	0.9761031	-0.1547421	0.009241857	-0.008529817
3e+07	0.01055345	-0.01545931	0.9594998	-0.2284601	0.002503399	0.007681265	-0.0004923735	-0.001341109
	0.9594998	-0.2284601	0.008227361	-0.01457571	-0.0004909868	-0.001341233	0.001761614	0.007945722
	0.002503387	0.007681256	-0.0004909949	-0.00134123	0.01059754	-0.01548051	0.9594369	-0.2284932
	-0.0004923827	-0.001341106	0.001761605	0.007945739	0.9594369	-0.2284932	0.008286316	-0.01458874
4e+07	0.009766351	-0.02221671	0.9376104	-0.3002849	0.00414942	0.009796064	-0.0006637227	-0.001729612
	0.9376104	-0.3002849	0.005785695	-0.02052519	-0.0006622459	-0.001729524	0.002903922	0.01030156
	0.004149421	0.009796066	-0.0006622474	-0.001729521	0.009796998	-0.02223421	0.9375459	-0.3003287
	-0.0006637238	-0.00172961	0.002903919	0.01030156	0.9375459	-0.3003287	0.005840202	-0.02053684
5e+07	0.008038537	-0.02896735	0.9105594	-0.3699394	0.006156291	0.01161121	-0.0008650501	-0.002122391
	0.9105594	-0.3699394	0.002045566	-0.02601648	-0.0008633408	-0.002122175	0.004295653	0.01250358
	0.006156291	0.01161122	-0.0008633426	-0.002122175	0.008057471	-0.02897733	0.9104908	-0.3699955
	-0.0008650518	-0.00212239	0.00429565	0.01250358	0.9104908	-0.3699955	0.002098297	-0.02602554
6e+07	0.005446944	-0.03555211	0.8784891	-0.4371004	0.008477541	0.01307449	-0.001107805	-0.00252297
	0.8784891	-0.4371004	-0.002823933	-0.03080589	-0.00110582	-0.002522767	0.00592041	0.01452665
	0.008477541	0.01307449	-0.001105818	-0.002522767	0.005456587	-0.03555163	0.878414	-0.4371699
	-0.001107804	-0.002522971	0.005920413	0.01452665	0.878414	-0.4371699	-0.002771267	-0.03081231
7e+07	0.002059577	-0.04184588	0.8415891	-0.5014309	0.01105774	0.01414039	-0.001403326	-0.002930841
	0.8415891	-0.5014309	-0.008650896	-0.03470021	-0.001401097	-0.002930782	0.007755261	0.01634752
	0.01105774	0.01414039	-0.001401095	-0.002930784	0.002062182	-0.04183291	0.8415041	-0.5015139
	-0.001403324	-0.002930843	0.007755263	0.01634751	0.8415041	-0.5015139	-0.008596645	-0.03470402
8e+07	-0.002053331	-0.04774378	0.8000877	-0.5626008	0.01383479	0.01477199	-0.001762949	-0.003341955
	0.8000877	-0.5626008	-0.01525216	-0.03754381	-0.001760528	-0.003342113	0.009773497	0.01794692
	0.01383479	0.01477199	-0.00176053	-0.003342111	-0.002055324	-0.04771687	0.7999897	-0.5626968
	-0.00176295	-0.003341953	0.009773495	0.01794692	0.7999897	-0.5626968	-0.015195	-0.0375452
9e+07	-0.00681566	-0.05315748	0.7542413	-0.6202932	0.01674193	0.01494217	-0.002197614	-0.003748841
	0.7542413	-0.6202932	-0.02243212	-0.03921466	-0.002195074	-0.003749282	0.01194639	0.01931011
	0.01674193	0.01494217	-0.002195076	-0.003749272	-0.006819324	-0.05311552	0.7541279	-0.6204021
	-0.002197613	-0.003748832	0.01194639	0.01931012	0.7541279	-0.6204021	-0.0223711	-0.03921402
1e+08	-0.0121422	-0.05801498	0.7043333	-0.6742145	0.01970937	0.01463487	-0.002718064	-0.004141512
	0.7043333	-0.6742145	-0.02998548	-0.03962073	-0.002715505	-0.004142281	0.01424559	0.02042712
	0.01970937	0.01463487	-0.002715505	-0.004142282	-0.01214322	-0.05795707	0.7041995	-0.6743357
	-0.002718063	-0.004141513	0.0142456	0.02042712	0.7041995	-0.6743357	-0.02991974	-0.03961732
1.1e+08	-0.01795917	-0.06226233	0.6506665	-0.7240739	0.02266994	0.01383841	-0.003334477	-0.004497059
	0.6506665	-0.7240739	-0.03766181	-0.03873809	-0.003331043	-0.004499572	0.01663977	0.02128401
	0.02266994	0.01383841	-0.003331042	-0.004499574	-0.01795236	-0.06218229	0.6505099	-0.7242006
	-0.003334476	-0.00449706	0.01663977	0.021284	0.6505099	-0.7242006	-0.03752218	-0.03872834
1.2e+08	-0.0241867	-0.06584753	0.5935817	-0.7696285	0.02554423	0.01255434	-0.004042035	-0.004804457
	0.5935817	-0.7696285	-0.04529374	-0.03651966	-0.004039357	-0.004808033	0.019093	0.02188506
	0.02554423	0.01255434	-0.004039357	-0.004808035	-0.02416982	-0.06575634	0.5934005	-0.7697594
	-0.004042035	-0.004804459	0.019093	0.02188506	0.5934005	-0.7697594	-0.04513304	-0.03654021
1.3e+08	-0.03073024	-0.06873136	0.5334218	-0.8106598	0.02826127	0.01079777	-0.004844683	-0.005046114
	0.5334218	-0.8106598	-0.05264894	-0.03298278	-0.004843028	-0.005049909	0.02157845	0.02223354
	0.02826127	0.01079777	-0.004843028	-0.005049911	-0.03070506	-0.06863398	0.5332127	-0.8107898
	-0.004844683	-0.005046115	0.02157845	0.02223354	0.5332127	-0.8107898	-0.05249469	-0.0330273
1.4e+08	-0.0374949	-0.07088999	0.4705416	-0.8469727	0.03075302	0.008592255	-0.00574036	-0.005201584
	0.4705416	-0.8469727	-0.05951271	-0.02818326	-0.005739506	-0.005205163	0.02406979	0.02233567
	0.03075302	0.008592256	-0.005739506	-0.005205164	-0.03746363	-0.07078782	0.4703049	-0.8470993
	-0.005740361	-0.005201585	0.02406979	0.02233567	0.4703049	-0.8470993	-0.05937225	-0.02823959
1.5e+08	-0.04438713	-0.07231463	0.4053112	-0.8784052	0.0329549	0.005970187	-0.006722149	-0.005250014
	0.4053112	-0.8784052	-0.06568777	-0.02220674	-0.006721832	-0.005253262	0.0265424	0.0221999
	0.0329549	0.005970187	-0.006721832	-0.005253263	-0.0443508	-0.07220727	0.4050461	-0.8785237
	-0.00672215	-0.005250015	0.0265424	0.0221999	0.4050461	-0.8785237	-0.06555887	-0.02226667
1.6e+08	-0.05131571	-0.07300973	0.3381052	-0.9048204	0.03480738	0.002972239	-0.007778645	-0.005171162
	0.3381052	-0.9048204	-0.0709937	-0.01516505	-0.007778726	-0.005174105	0.02897407	0.0218373
	0.03480738	0.002972239	-0.007778726	-0.005174105	-0.05127435	-0.07289644	0.3378121	-0.9049271
	-0.007778646	-0.005171162	0.02897407	0.0218373	0.3378121	-0.9049271	-0.07087151	-0.01522504
1.7e+08	-0.05819468	-0.07299175	0.269306	-0.9261098	0.03625684	-0.000353124	-0.008894026	-0.004946258
	0.269306	-0.9261098	-0.07526974	-0.007194676	-0.008894434	-0.004948958	0.03134487	0.02126066
	0.03625684	-0.0003531239	-0.008894435	-0.004948958	-0.05814741	-0.07287203	0.2689856	-0.9262013
	-0.008894026	-0.004946258	0.03134487	0.02126066	0.2689856	-0.9262013	-0.0751497	-0.007254578
1.8e+08	-0.06494308	-0.07228767	0.1992986	-0.9421952	0.0372567	-0.003950808	-0.01004863	-0.004558832
	0.1992986	-0.9421952	-0.07837733	0.001546767	-0.0100494	-0.004561309	0.03363752	0.02048425
	0.0372567	-0.003950808	-0.0100494	-0.004561309	-0.06488888	-0.07216153	0.198952	-0.942269
	-0.01004863	-0.004558832	0.03363751	0.02048424	0.198952	-0.942269	-0.07825627	0.001485373
1.9e+08	-0.0714877	-0.07093357	0.1284701	-0.9530257	0.03776819	-0.007759993	-0.01121916	-0.003995483
	0.1284701	-0.9530257	-0.08020279	0.01088304	-0.01122033	-0.003997728	0.03583734	0.01952354
	0.03776819	-0.007759993	-0.01122033	-0.003997728	-0.07142509	-0.07080164	0.1280978	-0.953077
	-0.01121916	-0.003995483	0.03583734	0.01952354	0.1280978	-0.953077	-0.08007845	0.01081773
2e+08	-0.07776223	-0.0689734	0.05720458	-0.958577	0.03776027	-0.01171506	-0.01237932	-0.003246521
	0.05720458	-0.958577	-0.0806589	0.02062365	-0.01238094	-0.003248458	0.03793183	0.01839424
	0.03776027	-0.01171506	-0.01238094	-0.003248458	-0.07769023	-0.06883675	0.05680916	-0.9586032
	-0.01237932	-0.003246521	0.03793183	0.01839424	0.05680916	-0.9586032	-0.08053095	0.02055161
2.1e+08	-0.08370893	-0.06645781	-0.01411073	-0.9588523	0.03721099	-0.01574682	-0.01350046	-0.002306649
	-0.01411073	-0.9588523	-0.07968754	0.03056654	-0.01350257	-0.002308182	0.03991091	0.01711275
	0.03721099	-0.01574682	-0.01350257	-0.002308182	-0.08362675	-0.06631777	-0.01452867	-0.9588496
	-0.01350046	-0.002306649	0.03991091	0.01711275	-0.01452867	-0.9588496	-0.07955611	0.0304857
2.2e+08	-0.08927907	-0.06344232	-0.08509746	-0.9538812	0.03610737	-0.01978367	-0.01455256	-0.001175356
	-0.08509746	-0.9538812	-0.07726019	0.04050397	-0.01455513	-0.001176336	0.04176704	0.01569565
	0.03610737	-0.01978367	-0.01455513	-0.001176336	-0.08918624	-0.06330044	-0.08553577	-0.9538474
	-0.01455256	-0.001175356	0.04176704	0.01569565	-0.08553577	-0.9538474	-0.0771267	0.04041248
2.3e+08	-0.0944329	-0.05998612	-0.1553816	-0.9437195	0.03444535	-0.02375231	-0.01550477	0.0001427785
	-0.1553816	-0.9437195	-0.07337899	0.05022585	-0.01550773	0.000142491	0.04349371	0.01415872
	0.03444535	-0.02375231	-0.01550773	0.0001424909	-0.09432929	-0.05984408	-0.155837	-0.9436516
	-0.01550477	0.0001427784	0.04349371	0.01415872	-0.155837	-0.9436516	-0.07324496	0.05012246
2.4e+08	-0.09913977	-0.05615128	-0.2245917	-0.9284449	0.03223048	-0.02757939	-0.01632663	0.001637952
	-0.2245917	-0.9284449	-0.06807575	0.05952351	-0.01632991	0.001638474	0.04508721	0.01251836
	0.03223048	-0.02757939	-0.01632991	0.001638474	-0.09902561	-0.05601062	-0.2250625	-0.9283393
	-0.01632663	0.001637952	0.04508721	0.01251836	-0.2250625	-0.9283393	-0.06794254	0.0594077
2.5e+08	-0.1033786	-0.05200012	-0.2923702	-0.9081633	0.02947735	-0.03119232	-0.0169889	0.003295175
	-0.2923702	-0.9081633	-0.06141212	0.06819611	-0.01699234	0.003296651	0.04654536	0.01079013
	0.02947735	-0.03119232	-0.01699234	0.003296651	-0.1032542	-0.05186254	-0.2928533	-0.9080172
	-0.0169889	0.003295175	0.04654536	0.01079013	-0.2928533	-0.9080172	-0.06128148	0.06806768
2.6e+08	-0.1071371	-0.04759516	-0.3583637	-0.8830015	0.02620989	-0.0345206	-0.01746475	0.005094553
	-0.3583637	-0.8830015	-0.05347829	0.07605189	-0.0174682	0.005097048	0.04786752	0.008989256
	0.02620989	-0.0345206	-0.0174682	0.005097048	-0.1070033	-0.04746211	-0.3588549	-0.8828137
	-0.01746475	0.005094553	0.04786752	0.008989256	-0.3588549	-0.8828137	-0.05335183	0.07591123
2.7e+08	-0.1104113	-0.04299731	-0.4222323	-0.8531108	0.02246046	-0.03749634	-0.01773002	0.007011638
	-0.4222323	-0.8531108	-0.04439025	0.08291469	-0.01773321	0.007015155	0.04905471	0.007130254
	0.02246046	-0.03749634	-0.01773321	0.007015155	-0.1102689	-0.04287018	-0.4227295	-0.8528778
	-0.01773002	0.007011638	0.04905471	0.007130254	-0.4227295	-0.8528778	-0.04426885	0.08276245
2.8e+08	-0.1132057	-0.03826436	-0.483646	-0.8186632	0.01827012	-0.04005606	-0.01776461	0.009017986
	-0.483646	-0.8186632	-0.0342882	0.08862548	-0.01776742	0.009022598	0.05010992	0.005227281
	0.01827012	-0.04005606	-0.01776742	0.009022598	-0.1130558	-0.0381446	-0.4841434	-0.8183836
	-0.01776461	0.009017986	0.05010992	0.005227281	-0.4841434	-0.8183836	-0.034173	0.08846219
2.9e+08	-0.1155317	-0.03345063	-0.5422876	-0.7798543	0.01368775	-0.0421408	-0.01755263	0.01108176
	-0.5422876	-0.7798543	-0.02333418	0.09304671	-0.01755486	0.0110874	0.05103678	0.003293119
	0.01368775	-0.0421408	-0.01755486	0.0110874	-0.1153757	-0.03333913	-0.5427823	-0.7795272
	-0.01755263	0.01108176	0.05103678	0.003293119	-0.5427823	-0.7795272	-0.023226	0.09287344
3e+08	-0.1174071	-0.0286056	-0.5978557	-0.7369003	0.008769629	-0.0436979	-0.01708385	0.01316891
	-0.5978557	-0.7369003	-0.01170764	0.09606502	-0.01708525	0.01317547	0.05184131	0.001340069
	0.008769629	-0.0436979	-0.01708525	0.01317547	-0.1172465	-0.02850354	-0.5983428	-0.7365237
	-0.01708385	0.01316891	0.05184131	0.001340069	-0.5983428	-0.7365237	-0.01160686	0.09588235
3.1e+08	-0.1188554	-0.02377337	-0.6500613	-0.6900357	0.00357865	-0.04468137	-0.01635278	0.01524345
	-0.6500613	-0.6900357	0.0003974266	0.09759236	-0.01635319	0.01525082	0.05253045	-0.0006209124
	0.00357865	-0.04468137	-0.01635319	0.01525082	-0.1186919	-0.02368162	-0.6505354	-0.6896082
	-0.01635278	0.01524345	0.05253045	-0.0006209125	-0.6505354	-0.6896082	0.0004907084	0.0974009
3.2e+08	-0.119904	-0.01899213	-0.6986348	-0.639515	-0.001816437	-0.04505276	-0.01536	0.017269
	-0.6986348	-0.639515	0.01277672	0.09756931	-0.01535933	0.01727713	0.05311271	-0.002580299
	-0.001816437	-0.04505276	-0.01535933	0.01727713	-0.1197396	-0.01891109	-0.6990901	-0.6390382
	-0.01536	0.017269	0.05311271	-0.002580299	-0.6990901	-0.6390382	0.01286151	0.09736979
3.3e+08	-0.1205842	-0.01429329	-0.7433216	-0.585616	-0.007341942	-0.04478195	-0.01411156	0.01920935
	-0.7433216	-0.585616	0.02521785	0.09596577	-0.01410965	0.01921801	0.05359763	-0.004530166
	-0.007341942	-0.04478195	-0.01410965	0.01921801	-0.1204206	-0.01422333	-0.7437547	-0.5850878
	-0.01411156	0.01920935	0.05359763	-0.004530166	-0.7437547	-0.5850878	0.02529473	0.09575874
3.4e+08	-0.1209287	-0.009701905	-0.7838899	-0.5286267	-0.01292028	-0.04384786	-0.01261926	0.02102981
	-0.7838899	-0.5286267	0.03750809	0.09278087	-0.012616	0.02103886	0.05399606	-0.006464411
	-0.01292028	-0.04384786	-0.012616	0.02103886	-0.1207682	-0.00964298	-0.7842948	-0.5280497
	-0.01261926	0.02102981	0.05399606	-0.006464411	-0.7842948	-0.5280497	0.03757638	0.09256708
3.5e+08	-0.1209716	-0.005235915	-0.8201261	-0.4688573	-0.01847072	-0.04223868	-0.01089996	0.02269769
	-0.8201261	-0.4688573	0.04943493	0.08804426	-0.01089534	0.02270701	0.05431901	-0.008379005
	-0.01847072	-0.04223868	-0.01089534	0.02270701	-0.1208162	-0.005187798	-0.8204985	-0.4682323
	-0.01089996	0.02269769	0.05431901	-0.008379005	-0.8204985	-0.4682323	0.04949488	0.08782425
3.6e+08	-0.1207465	-0.0009066018	-0.8518398	-0.4066329	-0.02391111	-0.0399526	-0.008975473	0.02418363
	-0.8518398	-0.4066329	0.06079251	0.08181503	-0.008969392	0.02419301	0.05457861	-0.01027221
	-0.02391111	-0.0399526	-0.008969392	0.02419301	-0.1205983	-0.0008685769	-0.852173	-0.4059617
	-0.008975473	0.02418363	0.05457861	-0.01027221	-0.852173	-0.4059617	0.06084363	0.0815891
3.7e+08	-0.1202859	0.003280706	-0.8788633	-0.3422882	-0.0291586	-0.03699768	-0.006871459	0.02546196
	-0.8788633	-0.3422882	0.07138564	0.07417967	-0.006863894	0.02547121	0.05478654	-0.01214472
	-0.0291586	-0.03699768	-0.006863894	0.02547121	-0.1201468	0.003309564	-0.8791539	-0.3415731
	-0.006871459	0.02546196	0.05478654	-0.01214472	-0.8791539	-0.3415731	0.07142815	0.07394852
3.8e+08	-0.1196194	0.007327163	-0.9010534	-0.2761762	-0.03413112	-0.03339238	-0.004617187	0.02651159
	-0.9010534	-0.2761762	0.08103228	0.06525217	-0.004608136	0.02652054	0.05495437	-0.01399966
	-0.03413112	-0.03339238	-0.004608136	0.02652054	-0.1194916	0.007348268	-0.9012951	-0.2754203
	-0.004617187	0.02651159	0.05495437	-0.01399967	-0.9012951	-0.2754203	0.08106582	0.06501614
3.9e+08	-0.1187736	0.01123847	-0.918295	-0.2086546	-0.03874851	-0.02916517	-0.002244254	0.02731633
	-0.918295	-0.2086546	0.08956955	0.05517005	-0.002233717	0.02732473	0.05509275	-0.01584271
	-0.03874851	-0.02916517	-0.002233717	0.02732473	-0.1186586	0.01125345	-0.9184835	-0.2078606
	-0.002244254	0.02731633	0.05509275	-0.01584271	-0.9184835	-0.2078606	0.08959432	0.05492958
4e+08	-0.1177706	0.01502552	-0.9304973	-0.140094	-0.04293391	-0.02435433	0.0002140199	0.02786531
	-0.9304973	-0.140094	0.09685462	0.04409263	0.0002260199	0.02787302	0.05521113	-0.01768214
	-0.04293391	-0.02435433	0.0002260199	0.02787302	-0.1176701	0.0150363	-0.9306281	-0.1392657
	0.0002140199	0.02786531	0.05521113	-0.01768214	-0.9306281	-0.1392657	0.0968706	0.04384818
4.1e+08	-0.1166275	0.01870225	-0.9375993	-0.07086975	-0.04661477	-0.0190078	0.002723735	0.02815285
	-0.9375993	-0.07086975	0.1027692	0.03219744	0.002737102	0.02815979	0.05531682	-0.01952803
	-0.04661477	-0.0190078	0.002737102	0.02815979	-0.1165426	0.01871107	-0.9376681	-0.07001273
	0.002723735	0.02815285	0.05531682	-0.01952803	-0.9376681	-0.07001273	0.1027763	0.03194965
4.2e+08	-0.115356	0.02228492	-0.9395656	-0.001360838	-0.04972445	-0.01318205	0.005251359	0.02817878
	-0.9395656	-0.001360838	0.1072209	0.01967578	0.005266057	0.02818474	0.05541514	-0.02139263
	-0.04972445	-0.01318205	0.005266057	0.02818474	-0.1152877	0.02229434	-0.9395689	-0.000479046
	0.005251359	0.02817878	0.05541514	-0.02139263	-0.9395689	-0.000479046	0.1072194	0.01942493
4.3e+08	-0.1139618	0.02579136	-0.9363923	0.06805111	-0.05220305	-0.006942125	0.007764579	0.0279479
	-0.9363923	0.06805111	0.1101461	0.006730005	0.007780543	0.02795264	0.05550844	-0.02328965
	-0.05220305	-0.006942125	0.007780543	0.02795264	-0.1139105	0.02580396	-0.9363277	0.06895125
	0.007764579	0.0279479	0.05550844	-0.02328965	-0.9363277	0.06895125	0.1101361	0.006476944
4.4e+08	-0.1124443	0.02923932	-0.9281048	0.1369852	-0.05399833	-0.0003602035	0.01023318	0.02746947
	-0.9281048	0.1369852	0.1115103	-0.006431236	0.0102503	0.02747307	0.05559636	-0.02523395
	-0.05399833	-0.0003602035	0.0102503	0.02747307	-0.1124101	0.02925791	-0.9279675	0.1378983
	0.01023318	0.02746947	0.05559636	-0.02523395	-0.9279675	0.1378983	0.1114918	-0.006686487
4.5e+08	-0.1107973	0.03264559	-0.9147559	0.2050629	-0.05506669	0.006485334	0.01262975	0.02675703
	-0.9147559	0.2050629	0.1113088	-0.01959786	0.01264795	0.0267593	0.05567493	-0.02724044
	-0.05506669	0.006485334	0.01264795	0.0267593	-0.1107799	0.03267286	-0.9145448	0.2059828
	0.01262975	0.02675703	0.05567493	-0.02724044	-0.9145448	0.2059828	0.1112821	-0.01985469
4.6e+08	-0.1090088	0.0360242	-0.8964259	0.2719128	-0.05537403	0.01351048	0.01493031	0.02582752
	-0.8964259	0.2719128	0.1095661	-0.03256202	0.01494949	0.02582837	0.0557371	-0.02932429
	-0.05537403	0.01351048	0.01494949	0.02582837	-0.1090074	0.03606315	-0.8961383	0.2728332
	0.01493031	0.02582752	0.0557371	-0.02932429	-0.8961383	0.2728332	0.1095314	-0.03282041
4.7e+08	-0.1070611	0.03938601	-0.8732253	0.3371694	-0.05489626	0.0206277	0.0171147	0.02470041
	-0.8732253	0.3371694	0.1063364	-0.04512279	0.01713477	0.02469962	0.05577201	-0.03149919
	-0.05489626	0.0206277	0.01713477	0.02469962	-0.1070745	0.03943915	-0.8728621	0.3380847
	0.0171147	0.02470041	0.05577201	-0.03149919	-0.8728621	0.3380847	0.1062943	-0.04538239
4.8e+08	-0.1049322	0.04273701	-0.8452924	0.4004772	-0.05361961	0.02774631	0.01916692	0.02339685
	-0.8452924	0.4004772	0.1017012	-0.05708937	0.0191878	0.02339436	0.05576588	-0.03377784
	-0.05361961	0.02774631	0.0191878	0.02339436	-0.1049587	0.0428072	-0.8448512	0.4013798
	0.01916692	0.02339685	0.05576588	-0.03377784	-0.8448512	0.4013798	0.1016516	-0.05735009
4.9e+08	-0.1025968	0.04607754	-0.8127909	0.4614962	-0.05154117	0.03477428	0.02107536	0.02193931
	-0.8127909	0.4614962	0.09576778	-0.06828706	0.02109695	0.02193503	0.05570185	-0.03617044
	-0.05154117	0.03477428	0.02109695	0.02193503	-0.1026343	0.04616699	-0.8122718	0.4623795
	0.02107536	0.02193931	0.05570185	-0.03617044	-0.8122718	0.4623795	0.09571108	-0.06854865
5e+08	-0.1000264	0.04940191	-0.7759065	0.5198952	-0.04866845	0.04161946	0.02283247	0.02034994
	-0.7759065	0.5198952	0.08866534	-0.07855817	0.02285464	0.02034379	0.05556025	-0.03868488
	-0.04866845	0.04161946	0.02285464	0.02034379	-0.1000724	0.04951258	-0.775311	0.5207534
	0.02283247	0.02034994	0.05556025	-0.03868488	-0.775311	0.5207534	0.08860203	-0.07882073
5.1e+08	-0.0971915	0.0526968	-0.7348517	0.5753655	-0.04501994	0.04819064	0.02443471	0.01865027
	-0.7348517	0.5753655	0.0805445	-0.08776702	0.0244574	0.01864215	0.05531947	-0.04132519
	-0.04501994	0.04819064	0.0244574	0.01864215	-0.09724307	0.05283053	-0.7341804	0.5761907
	0.02443471	0.01865027	0.05531947	-0.04132519	-0.7341804	0.5761907	0.08047469	-0.08803051
5.2e+08	-0.09406243	0.05594216	-0.6898598	0.627611	-0.04062468	0.05439919	0.02588223	0.01686052
	-0.6898598	0.627611	0.07157147	-0.0958015	0.0259053	0.01685024	0.05495658	-0.04409245
