!$
! Info: Touchstone file created by Circ.  Input file=C2M_PCB_85ohms_8p5in_20230620_v3.circ
!$
# Hz S RI R 50
0	0.009535221	3.798661e-24	0.9904345	-3.646539e-24	0.0001674456	9.530822e-23	-0.0001637499	2.018608e-20
	0.9904345	-3.502118e-24	0.009353838	2.467305e-24	-0.0001610906	1.986034e-20	2.27283e-05	8.371422e-21
	0.0001674457	9.534227e-23	-0.0001610907	1.986013e-20	0.009538555	4.247011e-24	0.9904478	-3.487082e-24
	-0.0001637499	2.018611e-20	2.272828e-05	8.371495e-21	0.9904478	-3.503807e-24	0.009367309	2.814208e-24
1e+07	0.01266406	-0.007663416	0.9788784	-0.1204281	0.0007642276	0.003347723	-0.0002776184	-0.0004322219
	0.9788784	-0.1204281	0.01200223	-0.007368144	-0.0002756241	-0.0004328626	0.0004718791	0.003456442
	0.0007642276	0.003347723	-0.0002756241	-0.0004328626	0.01275471	-0.007662033	0.9787989	-0.1204535
	-0.0002776184	-0.0004322219	0.0004718792	0.003456442	0.9787989	-0.1204535	0.01209465	-0.007357356
2e+07	0.01355079	-0.0186317	0.9537519	-0.2350379	0.002268324	0.006312044	-0.0003779063	-0.0007890682
	0.9537519	-0.2350379	0.01145348	-0.01772412	-0.000376399	-0.0007895391	0.00145274	0.006633064
	0.002268341	0.00631195	-0.0003763816	-0.0007895894	0.01361614	-0.0186533	0.9536785	-0.2350495
	-0.0003778862	-0.0007891156	0.001452758	0.00663306	0.9536785	-0.2350495	0.01153203	-0.01773241
3e+07	0.01121415	-0.03069732	0.9164819	-0.3442161	0.004551068	0.00870931	-0.0004876668	-0.001133371
	0.9164819	-0.3442161	0.006847195	-0.0284912	-0.0004862102	-0.00113372	0.002907875	0.009499313
	0.004551055	0.008709304	-0.0004862179	-0.001133716	0.01125947	-0.03071754	0.9164113	-0.3442299
	-0.0004876756	-0.001133366	0.002907867	0.00949933	0.9164113	-0.3442299	0.006919629	-0.02849945
4e+07	0.006147374	-0.04238896	0.8673298	-0.4475016	0.007449246	0.01039034	-0.0006336902	-0.001518487
	0.8673298	-0.4475016	-0.001071518	-0.03790509	-0.0006321092	-0.001518795	0.004769824	0.01202342
	0.007449247	0.01039034	-0.0006321101	-0.001518792	0.006177142	-0.04239941	0.8672589	-0.4475214
	-0.0006336908	-0.001518485	0.004769821	0.01202342	0.8672589	-0.4475214	-0.001000412	-0.03791068
5e+07	-0.001287024	-0.0530335	0.8069583	-0.5437603	0.01076302	0.01122875	-0.000853426	-0.00195962
	0.8069583	-0.5437603	-0.01161883	-0.04508434	-0.0008516394	-0.00196003	0.00695628	0.01415244
	0.01076302	0.01122875	-0.000851641	-0.001960029	-0.001268297	-0.05302906	0.8068836	-0.543788
	-0.0008534275	-0.001959619	0.006956277	0.01415244	0.8068836	-0.543788	-0.0115453	-0.04508741
6e+07	-0.01071685	-0.06214813	0.7362607	-0.6318451	0.01427092	0.01113987	-0.001194579	-0.002444311
	0.7362607	-0.6318451	-0.02405808	-0.04943386	-0.00119264	-0.002444981	0.009379459	0.01584698
	0.01427092	0.01113987	-0.001192638	-0.002444981	-0.01070372	-0.06212586	0.7361789	-0.6318815
	-0.001194577	-0.002444312	0.009379463	0.01584698	0.7361789	-0.6318815	-0.02398002	-0.04943602
7e+07	-0.02173339	-0.06936954	0.6562942	-0.7107013	0.01773585	0.01009496	-0.001698339	-0.002939031
	0.6562942	-0.7107013	-0.0375952	-0.05057758	-0.001696389	-0.00294006	0.01194482	0.01708949
	0.01773585	0.01009496	-0.001696387	-0.002940063	-0.02172066	-0.06932826	0.6562012	-0.7107457
	-0.001698338	-0.002939034	0.01194482	0.01708948	0.6562012	-0.7107457	-0.03751112	-0.05058058
8e+07	-0.033893	-0.07444029	0.5682432	-0.7794111	0.02092051	0.008123149	-0.002393079	-0.003392836
	0.5682432	-0.7794111	-0.05140581	-0.04834569	-0.002391257	-0.003394224	0.01455947	0.01788498
	0.02092052	0.008123149	-0.002391258	-0.003394222	-0.03387561	-0.07438036	0.5681349	-0.779462
	-0.00239308	-0.003392833	0.01455947	0.01788498	0.5681349	-0.779462	-0.05131512	-0.04835125
9e+07	-0.04673055	-0.07720628	0.4733831	-0.8372102	0.02360185	0.005309309	-0.003289126	-0.003742778
	0.4733831	-0.8372102	-0.06467204	-0.04276572	-0.003287564	-0.003744478	0.01713853	0.01825854
	0.02360185	0.005309309	-0.003287562	-0.003744468	-0.04670348	-0.07712946	0.4732562	-0.8372661
	-0.003289122	-0.00374277	0.01713853	0.01825855	0.4732562	-0.8372661	-0.06457501	-0.04277553
1e+08	-0.05977611	-0.07761799	0.3730545	-0.8835008	0.02558433	0.001790072	-0.004377513	-0.003921667
	0.3730545	-0.8835008	-0.07662377	-0.03404651	-0.004376321	-0.003923577	0.01961166	0.01825131
	0.02558433	0.001790072	-0.004376321	-0.003923578	-0.05973395	-0.0775279	0.3729031	-0.8835583
	-0.004377513	-0.003921668	0.01961166	0.01825131	0.3729031	-0.8835583	-0.07652075	-0.03406056
1.1e+08	-0.07259688	-0.07570174	0.2686396	-0.9178431	0.02671206	-0.002270802	-0.005622099	-0.00384622
	0.2686396	-0.9178431	-0.08652355	-0.02259682	-0.005621066	-0.003849809	0.021914	0.01790259
	0.02671206	-0.002270802	-0.005621066	-0.003849811	-0.07253	-0.07560086	0.268463	-0.9178931
	-0.005622099	-0.003846222	0.021914	0.01790259	0.268463	-0.9178931	-0.0863471	-0.02261296
1.2e+08	-0.08475389	-0.07156496	0.1615355	-0.939972	0.02685327	-0.00666166	-0.006952093	-0.003474802
	0.1615355	-0.939972	-0.09384484	-0.008922809	-0.006952385	-0.003478719	0.02399344	0.01728744
	0.02685327	-0.006661659	-0.006952386	-0.003478721	-0.08466909	-0.07146478	0.1613327	-0.94001
	-0.006952094	-0.003474803	0.02399344	0.01728743	0.1613327	-0.94001	-0.09365005	-0.008977544
1.3e+08	-0.09585271	-0.06540553	0.05313231	-0.9497771	0.02594163	-0.01114894	-0.008297271	-0.002770649
	0.05313231	-0.9497771	-0.098137	0.006339246	-0.008298668	-0.002773939	0.0258256	0.0164722
	0.02594163	-0.01114894	-0.008298668	-0.00277394	-0.09575568	-0.06530933	0.05290338	-0.9497945
	-0.008297272	-0.002770651	0.0258256	0.0164722	0.05290338	-0.9497945	-0.09795306	0.006252544
1.4e+08	-0.1055542	-0.0574864	-0.05520156	-0.947292	0.02396176	-0.01549175	-0.009571949	-0.001717382
	-0.05520156	-0.947292	-0.09911534	0.02247274	-0.00957391	-0.001719702	0.027398	0.01552326
	0.02396176	-0.01549175	-0.00957391	-0.001719702	-0.105448	-0.05739425	-0.05545386	-0.9472845
	-0.00957195	-0.001717383	0.027398	0.01552326	-0.05545386	-0.9472845	-0.09895161	0.02236712
1.5e+08	-0.1135843	-0.04812311	-0.1621302	-0.9326956	0.02095013	-0.01945026	-0.01068509	-0.0003237569
	-0.1621302	-0.9326956	-0.09666831	0.0387257	-0.01068717	-0.000325127	0.02871073	0.01450443
	0.02095013	-0.01945026	-0.01068717	-0.0003251275	-0.11347	-0.04803494	-0.1624023	-0.9326569
	-0.01068509	-0.0003237574	0.02871073	0.01450443	-0.1624023	-0.9326569	-0.09652417	0.03861044
1.6e+08	-0.1197401	-0.03766928	-0.2663629	-0.9062918	0.01699364	-0.02279625	-0.01154864	0.00137571
	-0.2663629	-0.9062918	-0.09085296	0.05434848	-0.01155056	0.001375153	0.02977575	0.01347632
	0.01699364	-0.02279625	-0.01155056	0.001375153	-0.1196177	-0.03758578	-0.2666503	-0.9062172
	-0.01154864	0.00137571	0.02977575	0.01347632	-0.2666503	-0.9062172	-0.09072499	0.05422868
1.7e+08	-0.1238924	-0.0265004	-0.3666586	-0.8685069	0.01222646	-0.02532254	-0.0120851	0.003322463
	-0.3666586	-0.8685069	-0.08188858	0.06862859	-0.01208669	0.003322526	0.03061568	0.01249458
	0.01222646	-0.02532254	-0.01208669	0.003322526	-0.1237622	-0.02642319	-0.3669562	-0.8683926
	-0.0120851	0.003322463	0.03061568	0.01249458	-0.3669562	-0.8683926	-0.08177332	0.06850626
1.8e+08	-0.1259863	-0.01500044	-0.4618368	-0.8198824	0.006824756	-0.02685211	-0.01223439	0.005438092
	-0.4618368	-0.8198824	-0.07014212	0.08092442	-0.01223555	0.005438618	0.03126333	0.01160876
	0.006824756	-0.02685211	-0.01223555	0.005438618	-0.1258494	-0.01493144	-0.4621395	-0.819726
	-0.01223439	0.005438092	0.03126333	0.01160876	-0.4621395	-0.819726	-0.07003703	0.08080026
1.9e+08	-0.1260392	-0.00354657	-0.5507814	-0.761068	0.00100039	-0.02724586	-0.01195882	0.00762994
	-0.5507814	-0.761068	-0.05610868	0.09069314	-0.01195953	0.007630777	0.03176102	0.01086122
	0.00100039	-0.02724586	-0.01195953	0.007630777	-0.1258973	-0.003488038	-0.5510823	-0.7608651
	-0.01195882	0.00762994	0.03176102	0.01086122	-0.5510823	-0.7608651	-0.05601167	0.09056661
2e+08	-0.1241359	0.007502123	-0.6324483	-0.6928137	-0.005006689	-0.02640857	-0.01124631	0.009798162
	-0.6324483	-0.6928137	-0.04038557	0.09751506	-0.01124657	0.009799195	0.03215931	0.01028463
	-0.005006689	-0.02640857	-0.01124657	0.009799195	-0.1239917	0.007548677	-0.6327403	-0.6925642
	-0.01124631	0.009798162	0.03215931	0.01028463	-0.6327403	-0.6925642	-0.0402962	0.09738579
2.1e+08	-0.1204232	0.01781722	-0.7058683	-0.615973	-0.01093723	-0.02429503	-0.01011149	0.01184332
	-0.7058683	-0.615973	-0.02364518	0.1011119	-0.01011131	0.01184443	0.03251634	0.009900871
	-0.01093723	-0.02429503	-0.01011131	0.01184443	-0.1202799	0.01785093	-0.7061444	-0.6156749
	-0.01011149	0.01184332	0.03251634	0.009900871	-0.7061444	-0.6156749	-0.0235628	0.1009797
2.2e+08	-0.1151005	0.02711095	-0.7701622	-0.5314899	-0.01652247	-0.02091338	-0.008594373	0.01367415
	-0.7701622	-0.5314899	-0.006600417	0.1013593	-0.008593775	0.01367525	0.03289604	0.009718627
	-0.01652247	-0.02091338	-0.008593775	0.01367525	-0.1149617	0.02713179	-0.7704154	-0.5311445
	-0.008594373	0.01367415	0.03289604	0.009718627	-0.7704154	-0.5311445	-0.006525256	0.1012246
2.3e+08	-0.1084109	0.03514402	-0.8245455	-0.4403994	-0.02149432	-0.01632711	-0.00675668	0.01521422
	-0.8245455	-0.4403994	0.01002811	0.09829186	-0.006755706	0.01521523	0.03336421	0.009730714
	-0.02149432	-0.01632711	-0.006755706	0.01521523	-0.10828	0.03515294	-0.8247676	-0.440009
	-0.00675668	0.01521422	0.03336421	0.009730714	-0.8247676	-0.440009	0.01009592	0.0981552
2.4e+08	-0.10063	0.04173197	-0.8683348	-0.3438213	-0.02559702	-0.01065562	-0.004676585	0.01640775
	-0.8683348	-0.3438213	0.02554681	0.09210008	-0.004675316	0.01640861	0.03398692	0.009914174
	-0.02559702	-0.01065562	-0.004675316	0.01640861	-0.1005103	0.04173074	-0.8685181	-0.3433877
	-0.004676586	0.01640775	0.03398692	0.009914174	-0.8685181	-0.3433877	0.0256077	0.09196217
2.5e+08	-0.09205311	0.04674887	-0.9009693	-0.2429496	-0.02859831	-0.004071841	-0.002441627	0.0172231
	-0.9009693	-0.2429496	0.03932425	0.08312251	-0.002440101	0.0172238	0.03482492	0.01022861
	-0.02859831	-0.004071842	-0.002440101	0.0172238	-0.09194745	0.04673998	-0.9011065	-0.2424769
	-0.002441627	0.0172231	0.03482492	0.01022861	-0.9011065	-0.2424769	0.03937849	0.08298427
2.6e+08	-0.08298393	0.05012829	-0.9220115	-0.1390465	-0.03030095	0.003201981	-0.0001410943	0.01765446
	-0.9220115	-0.1390465	0.05081984	0.07182685	-0.0001394075	0.01765499	0.03592937	0.01061739
	-0.03030095	0.003201981	-0.0001394076	0.01765499	-0.08289447	0.05011494	-0.9220965	-0.1385414
	-0.0001410944	0.01765446	0.03592937	0.01061739	-0.9220965	-0.1385414	0.05086827	0.07168964
2.7e+08	-0.07372221	0.05186165	-0.9311655	-0.03342624	-0.03055264	0.0109014	0.00214204	0.01772006
	-0.9311655	-0.03342624	0.05961335	0.05878818	0.002143835	0.01772038	0.03733728	0.01100999
	-0.03055264	0.0109014	0.002143835	0.01772038	-0.07365044	0.05184742	-0.9311921	-0.03289303
	0.00214204	0.01772006	0.03733728	0.01100999	-0.9311921	-0.03289303	0.05965732	0.05865247
2.8e+08	-0.06455198	0.05199428	-0.928282	0.07255815	-0.0292562	0.01872886	0.004338004	0.01745922
	-0.928282	0.07255815	0.06542408	0.04465828	0.004339893	0.01745948	0.03906794	0.01132581
	-0.0292562	0.01872886	0.004339893	0.01745948	-0.06449866	0.05198321	-0.9282447	0.07311018
	0.004338004	0.01745922	0.03906794	0.01132581	-0.9282447	0.07311018	0.06546489	0.04452489
2.9e+08	-0.0557328	0.05061874	-0.9133695	0.1775319	-0.02637605	0.02636505	0.006395918	0.01692608
	-0.9133695	0.1775319	0.06812564	0.03013339	0.006397872	0.01692635	0.04111885	0.01147873
	-0.02637605	0.02636505	0.006397872	0.01692635	-0.05569745	0.05061481	-0.9132655	0.1780955
	0.006395918	0.01692608	0.04111885	0.01147873	-0.9132655	0.1780955	0.06816504	0.03000243
3e+08	-0.04749159	0.04786678	-0.8865987	0.2801216	-0.0219439	0.03348245	0.008287234	0.01618338
	-0.8865987	0.2801216	0.06775261	0.01591714	0.008289311	0.01618368	0.04346622	0.01138361
	-0.0219439	0.03348245	0.008289311	0.01618368	-0.04747322	0.04787409	-0.8864243	0.2806881
	0.008287234	0.01618338	0.04346622	0.01138361	-0.8864243	0.2806881	0.06779225	0.01578817
3.1e+08	-0.04001755	0.04389998	-0.8483005	0.3789725	-0.01606015	0.03975954	0.01000664	0.01529304
	-0.8483005	0.3789725	0.06449728	0.002683969	0.01000893	0.01529343	0.04606433	0.01096207
	-0.01606015	0.03975954	0.01000893	0.01529343	-0.04001412	0.04392238	-0.8480532	0.3795324
	0.01000664	0.01529304	0.04606433	0.01096207	-0.8480532	0.3795324	0.0645389	0.002556248
3.2e+08	-0.0334598	0.03889977	-0.7989688	0.4727745	-0.008892728	0.0448956	0.01157031	0.01430947
	-0.7989688	0.4727745	0.0586995	-0.008956113	0.01157299	0.01431008	0.04884855	0.01014823
	-0.008892728	0.0448956	0.01157299	0.01431008	-0.0334682	0.03894044	-0.7986499	0.4733168
	0.01157031	0.01430947	0.04884855	0.01014823	-0.7986499	0.4733168	0.05874436	-0.00908365
3.3e+08	-0.02792669	0.03305768	-0.7392566	0.5602772	-0.0006723871	0.0486253	0.0130114	0.01327202
	-0.7392566	0.5602772	0.05082734	-0.01848905	0.01301464	0.01327275	0.05173926	0.00889358
	-0.0006723871	0.0486253	0.01301464	0.01327275	-0.02794338	0.03311922	-0.7388654	0.5607949
	0.0130114	0.01327202	0.05173926	0.00889358	-0.7388654	0.5607949	0.05087663	-0.01861825
3.4e+08	-0.02348882	0.02656696	-0.6699581	0.6403206	0.008315175	0.05073213	0.01437382	0.01220038
	-0.6699581	0.6403206	0.04145142	-0.02552479	0.01437783	0.01220113	0.05464769	0.007170053
	0.008315175	0.05073213	0.01437783	0.01220113	-0.02350947	0.02665108	-0.6694984	0.6408031
	0.01437382	0.01220038	0.05464769	0.007170053	-0.6694984	0.6408031	0.04150583	-0.02565729
3.5e+08	-0.02018256	0.01961489	-0.5920063	0.7118436	0.01773997	0.05105942	0.01570408	0.01109155
	-0.5920063	0.7118436	0.03121362	-0.02981556	0.01570914	0.0110922	0.05748092	0.004971491
	0.01773997	0.05105942	0.01570914	0.0110922	-0.02020259	0.0197224	-0.591481	0.7122829
	0.01570408	0.01109155	0.05748092	0.004971491	-0.591481	0.7122829	0.03127349	-0.02995336
3.6e+08	-0.01801566	0.01237768	-0.506454	0.7739063	0.02724124	0.04951975	0.0170433	0.009920443
	-0.506454	0.7739063	0.02079246	-0.03126877	0.0170495	0.009920628	0.06014906	0.002313078
	0.02724124	0.04951975	0.0170495	0.009920628	-0.01803019	0.0125082	-0.5058674	0.7742926
	0.0170433	0.009920443	0.06014906	0.002313078	-0.5058674	0.7742926	0.02085741	-0.03141387
3.7e+08	-0.01697313	0.005017635	-0.4144527	0.8257023	0.03644196	0.04610028	0.01841891	0.008642389
	-0.4144527	0.8257023	0.01086611	-0.02995047	0.01842634	0.008641745	0.06256949	-0.0007709212
	0.03644196	0.04610028	0.01842634	0.008641745	-0.01697753	0.005169738	-0.4138103	0.8260289
	0.01841891	0.008642389	0.06256949	-0.0007709212	-0.4138103	0.8260289	0.01093548	-0.03010482
3.8e+08	-0.01702308	-0.002319215	-0.3172443	0.8665678	0.04496487	0.04086573	0.01983834	0.007199122
	-0.3172443	0.8665678	0.002076618	-0.0260803	0.01984698	0.007197223	0.06467132	-0.004230394
	0.04496487	0.04086573	0.01984698	0.007197223	-0.01701296	-0.002148137	-0.3165524	0.8668262
	0.01983834	0.007199122	0.06467132	-0.004230394	-0.3165524	0.8668262	0.002149278	-0.02624561
3.9e+08	-0.018122	-0.009501404	-0.2161311	0.8959945	0.05244838	0.03395721	0.02128443	0.005525967
	-0.2161311	0.8959945	-0.005004077	-0.02001844	0.02129404	0.005522335	0.06639808	-0.008003862
	0.05244838	0.03395721	0.02129404	0.005522335	-0.0180937	-0.009314877	-0.2153964	0.8961784
	0.02128443	0.005525967	0.06639808	-0.008003862	-0.2153964	0.8961784	-0.004929561	-0.02019614
4e+08	-0.02021888	-0.0164117	-0.1124662	0.9136288	0.0585623	0.02558812	0.02271366	0.003560773
	-0.1124662	0.9136288	-0.009903824	-0.0122456	0.02272396	0.003554962	0.06770869	-0.01202276
	0.0585623	0.02558812	0.02272396	0.003554962	-0.0201695	-0.01621408	-0.1116964	0.9137321
	0.02271366	0.003560773	0.06770869	-0.01202276	-0.1116964	0.9137321	-0.009829153	-0.01243677
4.1e+08	-0.02325825	-0.02294334	-0.007628342	0.9192803	0.06302197	0.016037	0.024057	0.001252789
	-0.007628342	0.9192803	-0.0122746	-0.003336396	0.02406765	0.001244465	0.06857712	-0.01621501
	0.06302197	0.016037	0.02406765	0.001244465	-0.02318597	-0.02273967	-0.006833163	0.9192973
	0.024057	0.001252789	0.06857712	-0.01621501	-0.006833163	0.9192973	-0.0122017	-0.003541824
4.2e+08	-0.02718089	-0.02899745	0.09699609	0.9129171	0.06560126	0.00563689	0.02522437	-0.001428927
	0.09699609	0.9129171	-0.01190981	0.006070958	0.02523472	-0.001440073	0.06899172	-0.02050889
	0.06560126	0.00563689	0.02523472	-0.001440073	-0.02708513	-0.0287933	0.09780819	0.9128438
	0.02522437	-0.001428927	0.06899172	-0.02050889	0.09780819	0.9128438	-0.01184048	0.005850945
4.3e+08	-0.03192483	-0.03448074	0.2000303	0.894671	0.06614277	-0.005236426	0.02611063	-0.004488619
	0.2000303	0.894671	-0.008754203	0.01530895	0.02611993	-0.004502728	0.06895312	-0.02483504
	0.06614277	-0.005236426	0.02611993	-0.004502728	-0.03180622	-0.03428159	0.2008483	0.8945045
	0.02611063	-0.004488619	0.06895312	-0.02483504	0.2008483	0.8945045	-0.008690627	0.01507451
4.4e+08	-0.03742355	-0.03930284	0.3001264	0.8648309	0.06456527	-0.01617935	0.0266042	-0.007899249
	0.3001264	0.8648309	-0.002906703	0.02371572	0.02661195	-0.007916295	0.06847301	-0.02912833
	0.06456527	-0.01617935	0.02661195	-0.007916295	-0.03728411	-0.03911415	0.3009397	0.864567
	0.0266042	-0.007899249	0.06847301	-0.02912833	0.3009397	0.864567	-0.002850661	0.02346691
4.5e+08	-0.04360443	-0.04337541	0.3959824	0.8238375	0.06086846	-0.02677604	0.02659701	-0.01160063
	0.3959824	0.8238375	0.005385678	0.03066875	0.02660239	-0.01162042	0.06757206	-0.033328
	0.06086846	-0.02677604	0.02660239	-0.01162042	-0.04344731	-0.04320201	0.3967796	0.8234758
	0.02659701	-0.01160063	0.06757206	-0.033328	0.3967796	0.8234758	0.00543239	0.03040645
4.6e+08	-0.05038607	-0.04661141	0.4863607	0.7722753	0.05513471	-0.03661439	0.02599423	-0.01550071
	0.4863607	0.7722753	0.01574119	0.03561814	0.02599657	-0.01552285	0.06627932	-0.03737907
	0.05513471	-0.03661439	0.02599657	-0.01552285	-0.05021579	-0.0464576	0.48713	0.7718148
	0.02599423	-0.01550071	0.06627932	-0.03737907	0.48713	0.7718148	0.01577708	0.03534289
4.7e+08	-0.05767657	-0.04892636	0.5701023	0.7108689	0.04752673	-0.04530326	0.02472368	-0.01947957
	0.5701023	0.7108689	0.02766274	0.03811383	0.02472227	-0.0195035	0.06463116	-0.04123173
	0.04752673	-0.04530326	0.02472227	-0.0195035	-0.05749836	-0.0487951	0.5708329	0.7103123
	0.02472368	-0.01947957	0.06463116	-0.04123173	0.5708329	0.7103123	0.0276864	0.03782722
4.8e+08	-0.06537079	-0.05023966	0.6461435	0.6404695	0.03828264	-0.05248748	0.02274341	-0.02339646
	0.6461435	0.6404695	0.04056372	0.03783018	0.02273781	-0.02342147	0.06267154	-0.04484314
	0.03828264	-0.05248748	0.02273781	-0.02342147	-0.06519101	-0.05013296	0.6468215	0.6398182
	0.02274341	-0.02339646	0.06267154	-0.04484314	0.6468215	0.6398182	0.04057397	0.03753293
4.9e+08	-0.0733485	-0.05047774	0.7135327	0.5620412	0.02770765	-0.05786296	0.02004778	-0.027099
	0.7135327	0.5620412	0.05379947	0.03458096	0.02003768	-0.02712431	0.06045136	-0.04817791
	0.02770765	-0.05786296	0.02003768	-0.02712431	-0.07317361	-0.05039584	0.7141455	0.5612997
	0.02004778	-0.027099	0.06045136	-0.04817791	0.7141455	0.5612997	0.05379523	0.03427455
5e+08	-0.08147438	-0.04957703	0.7714334	0.4766472	0.0161625	-0.06118882	0.01666922	-0.03043308
	0.7714334	0.4766472	0.06669769	0.02832911	0.0166545	-0.03045779	0.05802775	-0.05121036
	0.0161625	-0.06118882	0.0166545	-0.03045779	-0.081311	-0.04951866	0.7719701	0.4758217
	0.01666922	-0.03043308	0.05802775	-0.05121036	0.7719701	0.4758217	0.06667845	0.02801514
5.1e+08	-0.08959676	-0.04748753	0.8191485	0.3854357	0.004050587	-0.0622978	0.01267832	-0.0332538
	0.8191485	0.3854357	0.07859631	0.01918969	0.01265905	-0.03327707	0.05546313	-0.0539257
	0.004050587	-0.0622978	0.01265905	-0.03327707	-0.08945137	-0.04744995	0.819596	0.3845343
	0.01267832	-0.0332538	0.05546313	-0.0539257	0.819596	0.3845343	0.07856128	0.01886942
5.2e+08	-0.09754941	-0.04417739	0.8561169	0.2896239	-0.008197779	-0.06110343	0.008180144	-0.03543574
	0.8561169	0.2896239	0.08887368	0.007422139	0.008156505	-0.03545668	0.05282327	-0.05632313
	-0.008197779	-0.06110343	0.008156505	-0.03545668	-0.0974276	-0.04415611	0.8564642	0.2886563
	0.008180144	-0.03543574	0.05282327	-0.05632313	0.8564642	0.2886563	0.08882242	0.007097289
