!$
! Info: Touchstone file created by Circ.  Input file=C2M_PCB_85ohms_11p0in_20230620_v3.circ
!$
# Hz S RI R 50
0	0.01150298	4.465692e-24	0.9884668	-4.360563e-24	0.0001802149	1.072648e-22	-0.0001765265	2.178463e-20
	0.9884668	-4.216411e-24	0.01132148	3.21544e-24	-0.0001738722	2.145944e-20	3.55172e-05	8.426011e-21
	0.000180215	1.072987e-22	-0.0001738722	2.145923e-20	0.0115063	4.885789e-24	0.98848	-4.145626e-24
	-0.0001765265	2.178465e-20	3.551718e-05	8.426084e-21	0.98848	-4.162326e-24	0.011335	3.498933e-24
1e+07	0.01491763	-0.0104796	0.9724749	-0.1461354	0.0009743123	0.003711593	-0.0002963588	-0.0003844926
	0.9724749	-0.1461354	0.0140962	-0.01010176	-0.0002943787	-0.000385175	0.0006111304	0.003847447
	0.0009743123	0.003711593	-0.0002943787	-0.000385175	0.01501571	-0.01047928	0.9723874	-0.146157
	-0.0002963588	-0.0003844926	0.0006111304	0.003847447	0.9723874	-0.146157	0.01419691	-0.01008936
2e+07	0.01473168	-0.02485197	0.936376	-0.2839509	0.002970353	0.006836893	-0.0003712998	-0.0006979159
	0.936376	-0.2839509	0.01207016	-0.02356353	-0.0003697882	-0.0006984692	0.001901481	0.007307346
	0.00297036	0.006836798	-0.000369774	-0.0006985203	0.01480031	-0.0248756	0.9362975	-0.2839532
	-0.0003712827	-0.0006979644	0.001901499	0.007307342	0.9362975	-0.2839532	0.01215642	-0.02357095
3e+07	0.00970324	-0.04000674	0.88245	-0.4130557	0.005922183	0.009072613	-0.0004448235	-0.001039029
	0.88245	-0.4130557	0.004266144	-0.03674388	-0.0004433523	-0.001039539	0.003798558	0.01029382
	0.00592217	0.00907261	-0.0004433596	-0.001039534	0.009749587	-0.0400264	0.8823766	-0.413057
	-0.000444832	-0.001039024	0.00379855	0.01029384	0.8823766	-0.413057	0.00434749	-0.03675083
4e+07	0.0006615883	-0.05379894	0.8115826	-0.5321127	0.009512581	0.01019244	-0.0005824598	-0.001470015
	0.8115826	-0.5321127	-0.008024253	-0.04711765	-0.0005808913	-0.001470593	0.006164565	0.01273416
	0.009512582	0.01019244	-0.0005808919	-0.001470591	0.0006922557	-0.053805	0.8115108	-0.5321175
	-0.0005824601	-0.001470012	0.006164562	0.01273417	0.8115108	-0.5321175	-0.007942028	-0.04712238
5e+07	-0.0116291	-0.06515426	0.7253086	-0.6390952	0.01336446	0.01005547	-0.0008625215	-0.001989588
	0.7253086	-0.6390952	-0.02347013	-0.05340643	-0.0008608397	-0.00199039	0.008836371	0.01456219
	0.01336446	0.01005547	-0.0008608412	-0.001990389	-0.01160723	-0.06514148	0.7252346	-0.6391057
	-0.0008625229	-0.001989587	0.008836367	0.01456219	0.7252346	-0.6391057	-0.023383	-0.05341041
6e+07	-0.0263231	-0.07334371	0.6255572	-0.7321305	0.01707783	0.008629536	-0.001362225	-0.002544339
	0.6255572	-0.7321305	-0.04061723	-0.05487671	-0.001360555	-0.002545484	0.01164694	0.01575479
	0.01707783	0.008629538	-0.001360553	-0.002545484	-0.02630239	-0.07331018	0.6254769	-0.7321476
	-0.001362224	-0.002544341	0.01164694	0.01575479	0.6254769	-0.7321476	-0.0405235	-0.05488294
7e+07	-0.04249853	-0.07791009	0.5145275	-0.8096455	0.02026051	0.006003062	-0.002129851	-0.003043388
	0.5145275	-0.8096455	-0.05795424	-0.05126561	-0.002128381	-0.003044893	0.01443429	0.01633641
	0.02026051	0.006003063	-0.00212838	-0.003044896	-0.0424721	-0.0778565	0.5144362	-0.8096682
	-0.00212985	-0.003043391	0.01443429	0.0163364	0.5144362	-0.8096682	-0.05785347	-0.05127693
8e+07	-0.0591983	-0.07865278	0.3946001	-0.8704228	0.02256427	0.002375675	-0.003171733	-0.003374058
	0.3946001	-0.8704228	-0.07401373	-0.04274897	-0.003170605	-0.003375823	0.01705719	0.01637268
	0.02256427	0.002375675	-0.003170605	-0.00337582	-0.05916019	-0.07858199	0.3944933	-0.8704486
	-0.003171733	-0.003374056	0.01705719	0.01637268	0.3944933	-0.8704486	-0.07390672	-0.0427678
9e+07	-0.07548261	-0.07561497	0.2682551	-0.9136119	0.02371459	-0.001961201	-0.004446485	-0.003421234
	0.2682551	-0.9136119	-0.08747408	-0.02989482	-0.004445782	-0.00342311	0.01940496	0.01595952
	0.02371458	-0.0019612	-0.004445778	-0.003423101	-0.07542791	-0.07553173	0.2681289	-0.913638
	-0.004446479	-0.003421227	0.01940496	0.01595953	0.2681289	-0.913638	-0.08736274	-0.02992294
1e+08	-0.09048187	-0.06906666	0.1380091	-0.9387268	0.02353334	-0.006648486	-0.005870357	-0.003087739
	0.1380091	-0.9387268	-0.09725196	-0.01359308	-0.005870086	-0.003089553	0.02140437	0.01521065
	0.02353334	-0.006648486	-0.005870087	-0.003089554	-0.09040686	-0.06897793	0.1378576	-0.9387475
	-0.005870358	-0.00308774	0.02140437	0.01521065	0.1378576	-0.9387475	-0.09713806	-0.01363009
1.1e+08	-0.1034574	-0.05943479	0.006361786	-0.9456247	0.02194821	-0.01130969	-0.007311824	-0.002288734
	0.006361786	-0.9456247	-0.1025134	0.00498557	-0.007312058	-0.002291918	0.02300263	0.01423361
	0.02194821	-0.01130969	-0.007312058	-0.002291919	-0.1033548	-0.05934946	0.006186091	-0.9456292
	-0.007311824	-0.002288735	0.02300263	0.0142336	0.006186092	-0.9456292	-0.1023313	0.004942298
1.2e+08	-0.113766	-0.04731206	-0.1242551	-0.9344792	0.01897728	-0.01553545	-0.008610882	-0.001030678
	-0.1242551	-0.9344792	-0.1028809	0.02456137	-0.008612341	-0.001033657	0.02418258	0.01317082
	0.01897728	-0.01553545	-0.008612342	-0.001033658	-0.1136483	-0.04723822	-0.1244537	-0.9344607
	-0.008610883	-0.001030679	0.02418258	0.01317082	-0.1244537	-0.9344607	-0.1026871	0.02447695
1.3e+08	-0.1209515	-0.03341999	-0.2514971	-0.9057539	0.01476559	-0.01894199	-0.009626207	0.0006471446
	-0.2514971	-0.9057539	-0.09827908	0.04379131	-0.009628334	0.0006451888	0.02496851	0.01214051
	0.01476559	-0.01894199	-0.009628335	0.000645188	-0.1208265	-0.0333581	-0.2517144	-0.9057029
	-0.009626208	0.0006471437	0.02496851	0.0121405	-0.2517144	-0.9057029	-0.09810341	0.04367394
1.4e+08	-0.1247454	-0.01854707	-0.3731322	-0.8601722	0.009553037	-0.02119579	-0.01022959	0.002656911
	-0.3731322	-0.8601722	-0.089	0.06137434	-0.01023168	0.002656057	0.02540724	0.01124992
	0.009553037	-0.02119579	-0.01023168	0.002656057	-0.1246167	-0.01849581	-0.3733624	-0.8600842
	-0.01022959	0.00265691	0.02540724	0.01124992	-0.3733624	-0.8600842	-0.08885234	0.06123914
1.5e+08	-0.1250729	-0.003504793	-0.4870571	-0.7987059	0.003661498	-0.02203268	-0.01032696	0.004870338
	-0.4870571	-0.7987059	-0.07567087	0.07615092	-0.01032856	0.004870296	0.02556804	0.01059109
	0.003661498	-0.02203268	-0.01032856	0.004870295	-0.1249423	-0.003463763	-0.4872925	-0.7985755
	-0.01032696	0.004870338	0.02556804	0.01059109	-0.4872925	-0.7985755	-0.07555049	0.07600917
1.6e+08	-0.1220481	0.01091613	-0.5913078	-0.7225485	-0.002523549	-0.02127627	-0.009871348	0.007133855
	-0.5913078	-0.7225485	-0.05919649	0.08718067	-0.009872272	0.00713425	0.02554099	0.01023775
	-0.002523549	-0.02127627	-0.009872273	0.00713425	-0.1219172	0.01094642	-0.5915401	-0.722373
	-0.009871349	0.007133855	0.02554099	0.01023775	-0.5915401	-0.722373	-0.05909932	0.08703956
1.7e+08	-0.115959	0.02398797	-0.6840722	-0.6331116	-0.008574781	-0.0188519	-0.008868863	0.009287051
	-0.6840722	-0.6331116	-0.0406913	0.09380405	-0.008869108	0.009287495	0.02543401	0.01024013
	-0.008574781	-0.0188519	-0.008869109	0.009287496	-0.1158304	0.02400663	-0.6842927	-0.6328897
	-0.008868863	0.009287051	0.02543401	0.01024013	-0.6842927	-0.6328897	-0.04061266	0.0936675
1.8e+08	-0.1072462	0.03508105	-0.7637113	-0.5320144	-0.01404849	-0.01479624	-0.007377518	0.01118239
	-0.7637113	-0.5320144	-0.02139664	0.09568568	-0.007377229	0.01118261	0.02536859	0.01061958
	-0.01404849	-0.01479624	-0.007377229	0.01118261	-0.1071231	0.03508787	-0.7639119	-0.5317469
	-0.007377518	0.01118239	0.02536859	0.01061958	-0.7639119	-0.5317469	-0.02133212	0.095556
1.9e+08	-0.09647244	0.04369502	-0.8287791	-0.4210765	-0.01851206	-0.009261304	-0.005498707	0.01270262
	-0.8287791	-0.4210765	-0.002591799	0.09283427	-0.005498126	0.01270245	0.02547299	0.01136382
	-0.01851206	-0.009261304	-0.005498126	0.01270245	-0.09635905	0.04369072	-0.8289492	-0.4207641
	-0.005498707	0.01270262	0.02547299	0.01136382	-0.8289492	-0.4207641	-0.002537347	0.09271197
2e+08	-0.08428933	0.04948031	-0.8780496	-0.3023037	-0.02157263	-0.002511724	-0.00336283	0.01377412
	-0.8780496	-0.3023037	0.01449915	0.08560019	-0.003362207	0.01377354	0.0258722	0.01242277
	-0.02157263	-0.002511724	-0.003362207	0.01377354	-0.08418952	0.04946721	-0.8781807	-0.3019515
	-0.00336283	0.01377412	0.0258722	0.01242277	-0.8781807	-0.3019515	0.01454652	0.08548561
2.1e+08	-0.07139721	0.05225281	-0.9105495	-0.1778787	-0.02290707	0.005084341	-0.001110821	0.01437383
	-0.9105495	-0.1778787	0.02879516	0.07464977	-0.001110398	0.01437291	0.02667682	0.01370906
	-0.02290707	0.005084341	-0.001110398	0.01437291	-0.07131428	0.05223448	-0.9106329	-0.1774912
	-0.001110821	0.01437383	0.02667682	0.01370906	-0.9106329	-0.1774912	0.02883864	0.07454266
2.2e+08	-0.05850412	0.05199717	-0.9255937	-0.05012541	-0.02228936	0.01307312	0.001125783	0.01452865
	-0.9255937	-0.05012541	0.03944066	0.06091511	0.001125854	0.01452757	0.0279709	0.01510199
	-0.02228936	0.01307312	0.001125854	0.01452757	-0.05844027	0.05197823	-0.9256231	-0.04971014
	0.001125782	0.01452865	0.0279709	0.01510199	-0.9256231	-0.04971014	0.03948275	0.06081502
2.3e+08	-0.04628564	0.04886035	-0.9228172	0.07852201	-0.01961382	0.02094043	0.00324302	0.01430668
	-0.9228172	0.07852201	0.04586916	0.04552383	0.003242673	0.01430566	0.02979956	0.01645556
	-0.01961382	0.02094043	0.003242673	0.01430566	-0.04624167	0.04884614	-0.9227865	0.0789558
	0.00324302	0.01430668	0.02979956	0.01645556	-0.9227865	0.0789558	0.04591229	0.04543002
2.4e+08	-0.03534812	0.04313575	-0.9021989	0.2055629	-0.01491264	0.02814448	0.005178002	0.01380239
	-0.9021989	0.2055629	0.04784735	0.02971253	0.005177277	0.01380171	0.03216338	0.0176129
	-0.01491264	0.02814448	0.005177277	0.01380171	-0.03532319	0.04313159	-0.9021029	0.2060066
	0.005178002	0.01380239	0.03216338	0.0176129	-0.9021029	0.2060066	0.04789391	0.02962364
2.5e+08	-0.02619721	0.0352369	-0.8640878	0.3284946	-0.008362951	0.03415362	0.006915196	0.01311692
	-0.8640878	0.3284946	0.04549429	0.01473019	0.006914298	0.01311679	0.03501446	0.01842084
	-0.008362951	0.03415362	0.006914298	0.01311679	-0.02618912	0.03524799	-0.8639236	0.3289378
	0.006915196	0.01311692	0.03501446	0.01842084	-0.8639236	0.3289378	0.04554615	0.0146445
2.6e+08	-0.01921636	0.02566714	-0.8092025	0.4448646	-0.0002838534	0.03848661	0.008484251	0.01233779
	-0.8092025	0.4448646	0.03926967	0.001738934	0.008483442	0.01233838	0.03826021	0.01874605
	-0.0002838534	0.03848661	0.008483442	0.01233838	-0.01922132	0.02569774	-0.8089705	0.4452959
	0.008484251	0.01233779	0.03826021	0.01874605	-0.8089705	0.4452959	0.0393287	0.001654614
2.7e+08	-0.01465399	0.01498414	-0.7386281	0.5523423	0.008879185	0.04075101	0.009949188	0.01152029
	-0.7386281	0.5523423	0.02993786	-0.008277666	0.009948777	0.01152156	0.04177278	0.01848875
	0.008879185	0.04075101	0.009948777	0.01152156	-0.0146673	0.01503749	-0.7383274	0.5527525
	0.009949188	0.01152029	0.04177278	0.01848875	-0.7383274	0.5527525	0.03000517	-0.008363298
2.8e+08	-0.0126208	0.00376429	-0.6537917	0.6487773	0.0185802	0.04067788	0.01139106	0.01067583
	-0.6537917	0.6487773	0.01850341	-0.01459322	0.01139149	0.01067771	0.04540263	0.01759181
	0.0185802	0.04067788	0.01139149	0.01067771	-0.01263679	0.003842366	-0.6534255	0.6491541
	0.01139106	0.01067583	0.04540263	0.01759181	-0.6534255	0.6491541	0.01857973	-0.01468272
2.9e+08	-0.0130966	-0.007429241	-0.5564309	0.7322576	0.02820844	0.03814652	0.01288651	0.00976766
	-0.5564309	0.7322576	0.006128973	-0.01679434	0.01288809	0.0097699	0.04899291	0.01604353
	0.02820844	0.03814652	0.01288809	0.0097699	-0.01310936	-0.007326378	-0.5560033	0.7325923
	0.01288651	0.00976766	0.04899291	0.01604353	-0.5560033	0.7325923	0.006214087	-0.01689067
3e+08	-0.01594388	-0.01807474	-0.4485451	0.8011592	0.03713057	0.03319982	0.01448698	0.008717017
	-0.4485451	0.8011592	-0.00595948	-0.01481116	0.0144899	0.008719126	0.0523957	0.01387593
	0.03713057	0.03319982	0.0144899	0.008719126	-0.01594743	-0.01794824	-0.4480605	0.8014416
	0.01448698	0.008717017	0.0523957	0.01387593	-0.4480605	0.8014416	-0.005866363	-0.01491707
3.1e+08	-0.02092657	-0.02771342	-0.3323425	0.854178	0.04473521	0.02604599	0.01620038	0.00741597
	-0.3323425	0.854178	-0.01657138	-0.00891889	0.01620473	0.007417451	0.05548274	0.01115692
	0.04473521	0.02604599	0.01620473	0.007417451	-0.02091535	-0.02756619	-0.331807	0.8543985
	0.01620038	0.00741597	0.05548274	0.01115692	-0.331807	0.8543985	-0.01647149	-0.009036834
3.2e+08	-0.02773161	-0.03596419	-0.2101828	0.8903599	0.05047652	0.01704827	0.01798137	0.005748576
	-0.2101828	0.8903599	-0.02464595	0.0002883685	0.01798712	0.005748895	0.05815355	0.007980519
	0.05047652	0.01704827	0.01798712	0.005748895	-0.02770112	-0.03580075	-0.2096063	0.8905103
	0.01798137	0.005748577	0.05815355	0.007980519	-0.2096063	0.8905103	-0.02454164	0.0001560895
3.3e+08	-0.03599124	-0.04253287	-0.08452378	0.9091113	0.05391321	0.00670327	0.01972919	0.003613633
	-0.08452378	0.9091113	-0.02933457	0.01194809	0.01973597	0.003612233	0.06033837	0.004456264
	0.05391321	0.00670327	0.01973597	0.003612233	-0.03593818	-0.04235862	-0.08391241	0.9091847
	0.01972919	0.003613633	0.06033837	0.004456264	-0.08391241	0.9091847	-0.02922813	0.01180023
3.4e+08	-0.04530402	-0.04721471	0.04214913	0.9102008	0.0547401	-0.004390318	0.02129617	0.0009472935
	0.04214913	0.9102008	-0.03006349	0.02500113	0.02130348	0.0009437102	0.06199789	0.0006998023
	0.0547401	-0.004390318	0.02130348	0.0009437103	-0.04522668	-0.04703606	0.0427834	0.9101911
	0.02129617	0.0009472935	0.06199789	0.0006998022	0.0427834	0.9101911	-0.0299578	0.02483677
3.5e+08	-0.05525482	-0.04989379	0.1673634	0.8937531	0.05280967	-0.01556945	0.0225034	-0.002259221
	0.1673634	0.8937531	-0.02657574	0.03827557	0.0225107	-0.002265254	0.06311956	-0.003174051
	0.05280967	-0.01556945	0.0225107	-0.002265254	-0.05515319	-0.04971739	0.1680105	0.8936553
	0.0225034	-0.002259221	0.06311956	-0.003174051	0.1680105	0.8936553	-0.02647337	0.03809472
3.6e+08	-0.06543183	-0.05053825	0.288716	0.8602346	0.04814381	-0.02614899	0.02316366	-0.005949017
	0.288716	0.8602346	-0.01894635	0.05057837	0.02317014	-0.005957587	0.06371533	-0.007055836
	0.04814381	-0.02614899	0.02317014	-0.005957587	-0.06530787	-0.05037077	0.2893628	0.860044
	0.02316366	-0.005949017	0.06371533	-0.007055836	0.2893628	0.860044	-0.01885006	0.05038127
3.7e+08	-0.07544087	-0.04919345	0.4039193	0.8104287	0.04093373	-0.03546412	0.0231058	-0.009998338
	0.4039193	0.8104287	-0.007572477	0.06078603	0.02311069	-0.01000928	0.06381755	-0.01084429
	0.04093373	-0.03546412	0.02311069	-0.01000928	-0.07529824	-0.04904075	0.4045536	0.8101437
	0.0231058	-0.009998338	0.06381755	-0.01084429	0.4045536	0.8101437	-0.007484578	0.06057396
3.8e+08	-0.08491862	-0.04597283	0.5108323	0.7454169	0.03153029	-0.04291156	0.02219927	-0.01422444
	0.5108323	0.7454169	0.006858337	0.06792854	0.02220189	-0.01423737	0.06347787	-0.01444801
	0.03153029	-0.04291156	0.02220189	-0.01423737	-0.08476272	-0.04583974	0.5114392	0.7450364
	0.02219927	-0.01422444	0.06347787	-0.01444801	0.5114392	0.7450364	0.006935737	0.06770271
3.9e+08	-0.09354104	-0.04104797	0.6075046	0.6665448	0.02042417	-0.04798653	0.0203735	-0.01840241
	0.6075046	0.6665448	0.02342424	0.07126081	0.02037325	-0.01841668	0.06276617	-0.01778845
	0.02042417	-0.04798653	0.02037325	-0.01841668	-0.09337841	-0.04093765	0.6080701	0.66607
	0.0203735	-0.01840241	0.06276617	-0.01778845	0.6080701	0.66607	0.02348973	0.07102306
4e+08	-0.1010317	-0.03463701	0.6921945	0.5753952	0.008218449	-0.05031384	0.01763063	-0.02228768
	0.6921945	0.5753952	0.04103742	0.07031552	0.01762715	-0.02230259	0.0617699	-0.0208036
	0.008218449	-0.05031384	0.01762715	-0.02230259	-0.1008696	-0.03455078	0.6927036	0.5748301
	0.01763063	-0.02228768	0.0617699	-0.0208036	0.6927036	0.5748301	0.04108987	0.07006779
4.1e+08	-0.1071647	-0.0269933	0.7634004	0.4737551	-0.004405132	-0.04967137	0.01404877	-0.02564199
	0.7634004	0.4737551	0.05852674	0.06493648	0.014042	-0.02565678	0.06059164	-0.02345281
	-0.004405132	-0.04967137	0.014042	-0.02565678	-0.1070109	-0.02693034	0.7638375	0.4731067
	0.01404877	-0.02564199	0.06059164	-0.02345281	0.7638375	0.4731067	0.05856523	0.06468089
4.2e+08	-0.1117671	-0.01839474	0.8198765	0.3635801	-0.01672499	-0.04600519	0.009776246	-0.02825923
	0.8198765	0.3635801	0.07472374	0.05528706	0.009766227	-0.02827309	0.05934528	-0.02572321
	-0.01672499	-0.04600519	0.009766227	-0.02827309	-0.1116288	-0.01835195	0.820228	0.362857
	0.009776246	-0.02825923	0.05934528	-0.02572321	0.820228	0.362857	0.07474838	0.05502563
4.3e+08	-0.1147178	-0.0091325	0.8606525	0.2469643	-0.02801983	-0.0394354	0.005016778	-0.02998704
	0.8606525	0.2469643	0.08854896	0.04183806	0.005003763	-0.02999918	0.0581481	-0.02763462
	-0.02801983	-0.0394354	0.005003763	-0.02999918	-0.1146012	-0.009104927	0.8609058	0.2461795
	0.005016778	-0.02998704	0.0581481	-0.02763462	0.8609058	0.2461795	0.08855978	0.04157324
4.4e+08	-0.1159441	0.0004965462	0.8850461	0.1261025	-0.03761012	-0.03025195	7.925404e-06	-0.0307419
	0.8850461	0.1261025	0.09908987	0.02533127	-7.543053e-06	-0.03075196	0.05711119	-0.02924242
	-0.03761012	-0.03025195	-7.543058e-06	-0.03075196	-0.1158538	0.0005156835	0.8851884	0.1252694
	7.925398e-06	-0.0307419	0.05711119	-0.02924242	0.8851884	0.1252694	0.09908734	0.02506446
4.5e+08	-0.1154183	0.0101965	0.8926703	0.003254218	-0.04489723	-0.01890154	-0.005004135	-0.03051606
	0.8926703	0.003254218	0.1056671	0.006723341	-0.005021574	-0.03052357	0.0563268	-0.03063595
	-0.04489723	-0.01890154	-0.005021574	-0.03052357	-0.115357	0.01021501	0.8926937	0.002389692
	-0.005004135	-0.03051606	0.0563268	-0.03063595	0.8926937	0.002389692	0.1056525	0.00645651
4.6e+08	-0.1131525	0.01967552	0.8834392	-0.1192965	-0.04939878	-0.005965998	-0.009790699	-0.02937435
	0.8834392	-0.1192965	0.1078833	-0.01288436	-0.009809557	-0.02937912	0.05585719	-0.03193347
	-0.04939878	-0.005965998	-0.009809557	-0.02937912	-0.1131205	0.01970217	0.8833369	-0.1201746
	-0.009790699	-0.02937435	0.05585719	-0.03193347	0.8833369	-0.1201746	0.1078579	-0.01315029
4.7e+08	-0.1091958	0.02864803	0.8575722	-0.239275	-0.05077851	0.007868267	-0.01416336	-0.02744222
	0.8575722	-0.239275	0.1056512	-0.03232757	-0.01418316	-0.02744409	0.05572425	-0.03327057
	-0.05077851	0.007868267	-0.01418316	-0.02744409	-0.109191	0.02869112	0.8573428	-0.2401483
	-0.01416336	-0.02744222	0.05572425	-0.03327057	0.8573428	-0.2401483	0.105617	-0.03259158
4.8e+08	-0.1036326	0.0368339	0.8155882	-0.3544584	-0.04886804	0.02184575	-0.01799099	-0.02488642
	0.8155882	-0.3544584	0.09919859	-0.05046415	-0.01801132	-0.02488544	0.05590474	-0.03478719
	-0.04886804	0.02184575	-0.01801132	-0.02488544	-0.1036502	0.03690143	0.8152301	-0.3553065
	-0.01799099	-0.02488642	0.05590474	-0.03478719	0.8152301	-0.3553065	0.09915711	-0.05072611
4.9e+08	-0.09658428	0.04395822	0.7582956	-0.462716	-0.04368056	0.03518273	-0.02120843	-0.02189169
	0.7582956	-0.462716	0.08904981	-0.06626016	-0.02122899	-0.02188795	0.05633002	-0.03661096
	-0.04368056	0.03518273	-0.02122899	-0.02188795	-0.09661759	0.0440563	0.7578122	-0.4635194
	-0.02120843	-0.02189169	0.05633002	-0.03661096	0.7578122	-0.4635194	0.08900278	-0.06652016
5e+08	-0.08821265	0.04975268	0.6867762	-0.5620382	-0.03541411	0.04711019	-0.02381552	-0.018635
	0.6867762	-0.5620382	0.07598386	-0.07886292	-0.02383609	-0.01862857	0.05689201	-0.038843
	-0.03541411	0.04711019	-0.02383609	-0.01862857	-0.0882532	0.04988543	0.6861745	-0.5627793
	-0.02381552	-0.018635	0.05689201	-0.038843	0.6861745	-0.5627793	0.07593307	-0.0791219
5.1e+08	-0.07872664	0.05395833	0.6023716	-0.6505815	-0.02444609	0.05691664	-0.02586742	-0.01526343
	0.6023716	-0.6505815	0.06097806	-0.08766456	-0.0258879	-0.01525427	0.05745476	-0.04154509
	-0.02444609	0.05691664	-0.0258879	-0.01525427	-0.07876486	0.05412754	0.6016604	-0.6512418
	-0.02586742	-0.01526343	0.05745476	-0.04154509	0.6016604	-0.6512418	0.06092462	-0.08792375
5.2e+08	-0.06838878	0.05633445	0.5066583	-0.7266894	-0.01131715	0.06398956	-0.02745717	-0.01187694
	0.5066583	-0.7266894	0.04513205	-0.09234462	-0.02747737	-0.01186485	0.05786934	-0.04473412
	-0.01131715	0.06398956	-0.02747737	-0.01186485	-0.06841479	0.05653884	0.5058492	-0.7272531
	-0.02745717	-0.01187694	0.05786934	-0.04473412	0.5058492	-0.7272531	0.0450767	-0.0926055
