!$
! Info: Touchstone file created by Circ.  Input file=C2M_PCB_85ohms_2p5in_20230620_v3.circ
!$
# Hz S RI R 50
0	0.004780469	2.157316e-24	0.9951891	-1.899741e-24	0.0001363666	6.611019e-23	-0.0001326532	1.629538e-20
	0.9951891	-1.754665e-24	0.00459938	6.464155e-25	-0.000129982	1.59683e-20	-8.398033e-06	8.239501e-21
	0.0001363667	6.614461e-23	-0.000129982	1.596809e-20	0.004783835	2.674858e-24	0.9952024	-1.875515e-24
	-0.0001326532	1.62954e-20	-8.398055e-06	8.239575e-21	0.9952024	-1.8923e-24	0.004612722	1.147662e-24
1e+07	0.006607183	-0.001365604	0.9914859	-0.05784714	0.0003379113	0.002424726	-0.0002120549	-0.0005385507
	0.9914859	-0.05784714	0.006348564	-0.001234405	-0.0002100281	-0.0005390922	0.0002224272	0.002483519
	0.0003379113	0.002424726	-0.0002100281	-0.0005390922	0.006679461	-0.001363138	0.9914265	-0.05787975
	-0.0002120549	-0.0005385507	0.0002224273	0.002483519	0.9914265	-0.05787975	0.006421148	-0.001229171
2e+07	0.008032633	-0.004294371	0.9848299	-0.1137586	0.0008241951	0.004755358	-0.0003164439	-0.001022702
	0.9848299	-0.1137586	0.007447364	-0.004051388	-0.0003149657	-0.001022999	0.0006778581	0.004829149
	0.0008242356	0.004755269	-0.0003149409	-0.001023046	0.00808935	-0.004312163	0.984772	-0.1137904
	-0.0003164167	-0.001022746	0.0006778776	0.004829146	0.984772	-0.1137904	0.007507977	-0.004064742
3e+07	0.008781887	-0.007938333	0.9754985	-0.1684874	0.001583999	0.006975192	-0.0004573462	-0.001461643
	0.9754985	-0.1684874	0.007596521	-0.007519771	-0.0004560108	-0.001461672	0.001340269	0.007063207
	0.001583989	0.006975182	-0.0004560191	-0.001461669	0.008825536	-0.007960023	0.9754409	-0.1685296
	-0.0004573557	-0.00146164	0.001340261	0.007063224	0.9754409	-0.1685296	0.007649308	-0.007536362
4e+07	0.009021053	-0.01182664	0.9633658	-0.2223161	0.002602082	0.009086671	-0.0006285069	-0.001883671
	0.9633658	-0.2223161	0.006984942	-0.01110481	-0.0006271297	-0.001883419	0.002203241	0.009216181
	0.002602082	0.009086673	-0.0006271314	-0.001883417	0.009053178	-0.01184739	0.9633069	-0.2223714
	-0.0006285082	-0.001883669	0.002203237	0.009216182	0.9633069	-0.2223714	0.007032198	-0.01112144
5e+07	0.008824544	-0.0158238	0.9484092	-0.2751922	0.003862367	0.01107265	-0.0008253573	-0.002296968
	0.9484092	-0.2751922	0.005716342	-0.01462584	-0.0008237901	-0.002296485	0.003261165	0.01128115
	0.003862367	0.01107265	-0.0008237919	-0.002296485	0.008846076	-0.01584067	0.9483471	-0.2752622
	-0.0008253592	-0.002296967	0.003261162	0.01128115	0.9483471	-0.2752622	0.005760144	-0.01464103
6e+07	0.008231921	-0.01985461	0.9306539	-0.3270056	0.005353909	0.01291017	-0.001052026	-0.002703497
	0.9306539	-0.3270056	0.00385853	-0.01797133	-0.001050201	-0.002702892	0.004511428	0.01324281
	0.005353908	0.01291017	-0.001050198	-0.002702892	0.008244284	-0.01986518	0.9305868	-0.3270916
	-0.001052024	-0.002703497	0.004511431	0.01324281	0.9305868	-0.3270916	0.003900155	-0.01798458
7e+07	0.007269342	-0.02386438	0.9101465	-0.3776284	0.007061837	0.01457665	-0.001311703	-0.003103746
	0.9101465	-0.3776284	0.001468334	-0.02105397	-0.001309616	-0.003103134	0.005946453	0.01508499
	0.007061837	0.01457665	-0.001309613	-0.003103135	0.007273716	-0.02386692	0.9100717	-0.3777309
	-0.001311701	-0.003103748	0.005946456	0.01508499	0.9100717	-0.3777309	0.001509137	-0.02106479
8e+07	0.005959162	-0.02780807	0.8869508	-0.426928	0.008968487	0.01605102	-0.001607419	-0.003497393
	0.8869508	-0.426928	-0.001398983	-0.02379964	-0.001605082	-0.003496837	0.007555826	0.01679248
	0.008968487	0.01605102	-0.001605084	-0.003496836	0.005956849	-0.02780118	0.8868655	-0.4270471
	-0.00160742	-0.003497391	0.007555824	0.01679249	0.8868655	-0.4270471	-0.001357835	-0.02380767
9e+07	0.004323931	-0.03164701	0.8611393	-0.4747711	0.01105414	0.01731434	-0.001942326	-0.003883396
	0.8611393	-0.4747711	-0.004685932	-0.02614335	-0.001939768	-0.00388297	0.009327386	0.01835145
	0.01105414	0.01731434	-0.001939772	-0.003882961	0.004316612	-0.03162925	0.8610418	-0.4749072
	-0.001942328	-0.003883387	0.009327385	0.01835146	0.8610418	-0.4749072	-0.004643496	-0.02614842
1e+08	0.002390586	-0.03534652	0.8327955	-0.5210304	0.01329721	0.01835012	-0.00232014	-0.004260426
	0.8327955	-0.5210304	-0.008331285	-0.0280249	-0.002317414	-0.004260201	0.01124842	0.01974965
	0.01329721	0.01835012	-0.002317414	-0.004260202	0.002381145	-0.03531591	0.8326815	-0.521184
	-0.002320139	-0.004260427	0.01124842	0.01974965	0.8326815	-0.521184	-0.008286696	-0.02802584
1.1e+08	0.0001802622	-0.03888655	0.802002	-0.5655587	0.01567705	0.0191421	-0.002746286	-0.004620895
	0.802002	-0.5655587	-0.01223665	-0.02943036	-0.002742175	-0.004622102	0.01330369	0.02097193
	0.01567705	0.0191421	-0.002742174	-0.004622103	0.0001694475	-0.03883542	0.8018683	-0.5657241
	-0.002746285	-0.004620897	0.01330369	0.02097193	0.8018683	-0.5657241	-0.01212079	-0.02942268
1.2e+08	-0.002295914	-0.04224464	0.7688789	-0.6082363	0.01816615	0.01967592	-0.003217267	-0.004964803
	0.7688789	-0.6082363	-0.01638465	-0.0302882	-0.003213484	-0.004967135	0.01547456	0.02201195
	0.01816615	0.01967592	-0.003213483	-0.004967137	-0.002302472	-0.04218177	0.7687243	-0.6084134
	-0.003217266	-0.004964805	0.01547456	0.02201195	0.7687243	-0.6084134	-0.01624981	-0.03030801
1.3e+08	-0.005011159	-0.04539191	0.7335336	-0.6489499	0.02073884	0.01994219	-0.003737852	-0.005288557
	0.7335336	-0.6489499	-0.02068432	-0.0305701	-0.003734826	-0.005291289	0.01774588	0.02286238
	0.02073884	0.01994219	-0.003734825	-0.00529129	-0.005013326	-0.04532213	0.7333543	-0.6491353
	-0.003737851	-0.005288558	0.01774588	0.02286238	0.7333543	-0.6491353	-0.0205577	-0.03061069
1.4e+08	-0.007937313	-0.04830602	0.696078	-0.6875871	0.02336909	0.01993361	-0.004310879	-0.005586513
	0.696078	-0.6875871	-0.02505461	-0.03026296	-0.004308482	-0.005589212	0.02010158	0.02351742
	0.02336909	0.01993361	-0.004308482	-0.005589213	-0.007936698	-0.04823134	0.6958738	-0.6877794
	-0.004310879	-0.005586514	0.02010158	0.02351742	0.6958738	-0.6877794	-0.02494297	-0.03031175
1.5e+08	-0.01104495	-0.0509705	0.6566352	-0.7240457	0.02603013	0.01964495	-0.004937981	-0.005852293
	0.6566352	-0.7240457	-0.02941927	-0.02936171	-0.004935976	-0.005854829	0.02252508	0.02397222
	0.02603013	0.01964495	-0.004935976	-0.00585483	-0.01104295	-0.05089091	0.6564044	-0.7242415
	-0.004937981	-0.005852294	0.02252508	0.02397222	0.6564044	-0.7242415	-0.02931989	-0.02941017
1.6e+08	-0.01430356	-0.05337322	0.6153295	-0.7582275	0.028695	0.01907338	-0.005619871	-0.00607902
	0.6153295	-0.7582275	-0.03370369	-0.0278681	-0.005618112	-0.006081435	0.02499991	0.02422366
	0.028695	0.01907338	-0.005618112	-0.006081436	-0.01430095	-0.05328795	0.6150714	-0.7584242
	-0.005619872	-0.006079021	0.02499991	0.02422366	0.6150714	-0.7584242	-0.03361111	-0.02791244
1.7e+08	-0.01768313	-0.05550672	0.5722917	-0.7900408	0.03133649	0.01821854	-0.006356236	-0.006259346
	0.5722917	-0.7900408	-0.03783447	-0.02579157	-0.006354638	-0.006261739	0.02750956	0.0242699
	0.03133649	0.01821854	-0.006354639	-0.006261739	-0.01767989	-0.0554147	0.572006	-0.7902359
	-0.006356236	-0.006259347	0.02750956	0.0242699	0.572006	-0.7902359	-0.03774347	-0.02583151
1.8e+08	-0.02115343	-0.05736691	0.5276568	-0.8194033	0.03392777	0.01708257	-0.007145937	-0.006385618
	0.5276568	-0.8194033	-0.04173963	-0.02314917	-0.007144536	-0.006388081	0.03003785	0.02411047
	0.03392777	0.01708257	-0.007144536	-0.006388082	-0.02114919	-0.05726733	0.5273437	-0.8195953
	-0.007145937	-0.006385619	0.03003785	0.02411047	0.5273437	-0.8195953	-0.04164628	-0.02318633
1.9e+08	-0.02468572	-0.05895375	0.4815637	-0.8462398	0.03644249	0.01567006	-0.007986712	-0.006449907
	0.4815637	-0.8462398	-0.04534942	-0.01996617	-0.007985583	-0.006452513	0.03256909	0.02374639
	0.03644249	0.01567006	-0.007985583	-0.006452514	-0.02467946	-0.0588459	0.4812217	-0.8464249
	-0.007986712	-0.006449907	0.03256909	0.02374639	0.4812217	-0.8464249	-0.04525093	-0.02000299
2e+08	-0.0282517	-0.06027002	0.434152	-0.8704824	0.03885447	0.0139877	-0.008875244	-0.006444139
	0.434152	-0.8704824	-0.0485969	-0.0162754	-0.008874511	-0.006446905	0.03508779	0.02317944
	0.03885447	0.0139877	-0.008874511	-0.006446905	-0.02824247	-0.0601537	0.4337824	-0.8706584
	-0.008875244	-0.006444139	0.03508779	0.02317944	0.4337824	-0.8706584	-0.04849217	-0.01631489
2.1e+08	-0.03182442	-0.06132187	0.385569	-0.89207	0.04113864	0.01204464	-0.009806997	-0.006360285
	0.385569	-0.89207	-0.05141902	-0.01211785	-0.009806767	-0.006363185	0.03757907	0.02241282
	0.04113864	0.01204464	-0.009806767	-0.006363185	-0.03181121	-0.06119708	0.3851707	-0.8922343
	-0.009806997	-0.006360286	0.03757907	0.02241282	0.3851707	-0.8922343	-0.05130768	-0.01216239
2.2e+08	-0.03537877	-0.06211824	0.33596	-0.9109513	0.04327087	0.009852098	-0.01077635	-0.006190556
	0.33596	-0.9109513	-0.05375771	-0.007541249	-0.01077674	-0.006193498	0.04002904	0.02145086
	0.04327087	0.009852098	-0.01077674	-0.006193498	-0.03536063	-0.06198521	0.3355337	-0.9111022
	-0.01077635	-0.006190557	0.04002904	0.02145086	0.3355337	-0.9111022	-0.05364057	-0.007593155
2.3e+08	-0.03889143	-0.06267053	0.2854731	-0.9270832	0.04522776	0.007423329	-0.01177634	-0.005927449
	0.2854731	-0.9270832	-0.05556079	-0.00260004	-0.01177743	-0.005930322	0.04242351	0.02029805
	0.04522776	0.007423329	-0.01177743	-0.005930322	-0.03886742	-0.06252974	0.28502	-0.9272179
	-0.01177634	-0.005927449	0.04242351	0.02029805	0.28502	-0.9272179	-0.05543877	-0.002661014
2.4e+08	-0.04234059	-0.06299277	0.2342601	-0.9404261	0.04698758	0.004773606	-0.01279894	-0.005564056
	0.2342601	-0.9404261	-0.05678158	0.002645131	-0.01280079	-0.005566739	0.04474978	0.01896055
	0.04698758	0.004773606	-0.01280079	-0.005566739	-0.04231004	-0.06284473	0.2337795	-0.9405417
	-0.01279894	-0.005564056	0.04474978	0.01896055	0.2337795	-0.9405417	-0.05665575	0.002574089
2.5e+08	-0.04570753	-0.06310081	0.1824705	-0.9509545	0.04852981	0.001919893	-0.01383494	-0.005094187
	0.1824705	-0.9509545	-0.057381	0.008129234	-0.01383758	-0.005096494	0.04699571	0.01744482
	0.04852981	0.001919893	-0.01383758	-0.005096494	-0.04566962	-0.06294618	0.1819631	-0.9510485
	-0.01383494	-0.005094187	0.04699571	0.01744482	0.1819631	-0.9510485	-0.05725278	0.008047332
2.6e+08	-0.04897544	-0.06301252	0.1302574	-0.9586459	0.04983581	-0.001119065	-0.01487432	-0.004512614
	0.1302574	-0.9586459	-0.05732737	0.01378195	-0.01487776	-0.004514417	0.04914961	0.01575808
	0.04983581	-0.001119065	-0.01487776	-0.004514417	-0.04892969	-0.06285203	0.1297254	-0.9587165
	-0.01487432	-0.004512614	0.04914961	0.01575808	0.1297254	-0.9587165	-0.05719797	0.01368885
2.7e+08	-0.05213008	-0.06274705	0.07777259	-0.9634888	0.05088805	-0.0043231	-0.01590585	-0.003815007
	0.07777259	-0.9634888	-0.05659648	0.01953039	-0.01590996	-0.003816134	0.05120068	0.01390801
	0.05088805	-0.0043231	-0.01590996	-0.003816134	-0.05207594	-0.0625814	0.07721492	-0.9635331
	-0.01590585	-0.003815007	0.05120068	0.01390801	0.07721492	-0.9635331	-0.05646686	0.01942619
2.8e+08	-0.05516047	-0.06232479	0.02516786	-0.9654769	0.05167129	-0.007670656	-0.01691767	-0.002998314
	0.02516786	-0.9654769	-0.05517234	0.02529851	-0.01692248	-0.002998602	0.05313912	0.01190312
	0.05167129	-0.007670656	-0.01692248	-0.002998602	-0.0550974	-0.06215491	0.02458772	-0.9654921
	-0.01691767	-0.002998314	0.05313912	0.01190312	0.02458772	-0.9654921	-0.05504333	0.02518307
2.9e+08	-0.05805806	-0.0617668	-0.02740376	-0.9646135	0.05217169	-0.01113879	-0.01789694	-0.002060696
	-0.02740376	-0.9646135	-0.0530478	0.03100863	-0.01790236	-0.002060037	0.05495505	0.009751845
	0.05217169	-0.01113879	-0.01790236	-0.002060037	-0.05798595	-0.06159352	-0.02800566	-0.9645984
	-0.01789694	-0.002060696	0.05495505	0.009751845	-0.02800566	-0.9645984	-0.05292036	0.03088223
3e+08	-0.06081733	-0.06109459	-0.07979201	-0.9609098	0.05237768	-0.01470367	-0.01883101	-0.001001843
	-0.07979201	-0.9609098	-0.05022386	0.03658258	-0.01883685	-0.001000091	0.05664011	0.007463507
	0.05237768	-0.01470367	-0.01883685	-0.001000091	-0.06073571	-0.06091888	-0.08041419	-0.9608612
	-0.01883101	-0.001001843	0.05664011	0.007463506	-0.08041419	-0.9608612	-0.05009843	0.03644528
3.1e+08	-0.06343562	-0.06032982	-0.131846	-0.9543815	0.05227963	-0.01834046	-0.01970612	0.0001772009
	-0.131846	-0.9543815	-0.04670968	0.04194173	-0.01971226	0.0001801408	0.05818619	0.005047582
	0.05227963	-0.01834046	-0.01971226	0.0001801408	-0.06334422	-0.06015276	-0.1324866	-0.9542962
	-0.01970612	0.0001772008	0.05818619	0.005047582	-0.1324866	-0.9542962	-0.04658644	0.04179362
3.2e+08	-0.06591293	-0.05949376	-0.1834186	-0.9450536	0.05186987	-0.02202355	-0.02050884	0.001473809
	-0.1834186	-0.9450536	-0.04252296	0.04700899	-0.02051524	0.001478048	0.05958606	0.002513873
	0.05186987	-0.02202355	-0.02051524	0.001478048	-0.06581184	-0.05931644	-0.1840736	-0.9449305
	-0.02050884	0.001473809	0.05958606	0.002513873	-0.1840736	-0.9449305	-0.04240298	0.04684988
3.3e+08	-0.06825237	-0.0586072	-0.2343587	-0.9329606	0.05114289	-0.02572675	-0.02122549	0.00288378
	-0.2343587	-0.9329606	-0.03769073	0.05170852	-0.02123191	0.002889371	0.06083308	-0.0001275356
	0.05114289	-0.02572675	-0.02123191	0.002889371	-0.06814151	-0.05843065	-0.2350287	-0.9327968
	-0.02122549	0.00288378	0.06083308	-0.0001275357	-0.2350287	-0.9327968	-0.03757398	0.05153874
3.4e+08	-0.07045927	-0.05768991	-0.2845245	-0.9181405	0.05009543	-0.02942354	-0.02184292	0.004401359
	-0.2845245	-0.9181405	-0.03224666	0.05596775	-0.02184921	0.004408392	0.06192151	-0.002866291
	0.05009543	-0.02942354	-0.02184921	0.004408392	-0.07033888	-0.05751532	-0.2852053	-0.9179351
	-0.02184292	0.004401359	0.06192151	-0.002866291	-0.2852053	-0.9179351	-0.03213405	0.0557872
3.5e+08	-0.07254182	-0.05676035	-0.3337709	-0.9006413	0.04872629	-0.03308681	-0.02234808	0.006019177
	-0.3337709	-0.9006413	-0.02623343	0.05971736	-0.02235416	0.006027704	0.06284575	-0.005691808
	0.04872629	-0.03308681	-0.02235416	0.006027704	-0.0724121	-0.05658888	-0.334461	-0.9003926
	-0.02234808	0.006019177	0.06284575	-0.005691808	-0.334461	-0.9003926	-0.02612523	0.05952622
3.6e+08	-0.07451053	-0.05583548	-0.3819564	-0.8805186	0.04703654	-0.03668971	-0.02272885	0.00772837
	-0.3819564	-0.8805186	-0.01970081	0.06289252	-0.02273447	0.007738413	0.06360155	-0.008593276
	0.04703654	-0.03668971	-0.02273447	0.007738413	-0.07437199	-0.05566835	-0.3826519	-0.8802242
	-0.02272885	0.00772837	0.06360155	-0.008593276	-0.3826519	-0.8802242	-0.01959776	0.06269056
3.7e+08	-0.0763776	-0.05493065	-0.4289446	-0.8578317	0.04502935	-0.04020526	-0.02297359	0.009518652
	-0.4289446	-0.8578317	-0.01270489	0.0654334	-0.02297855	0.009530223	0.06418485	-0.01155984
	0.04502935	-0.04020526	-0.02297855	0.009530223	-0.07623074	-0.05476895	-0.4296437	-0.8574909
	-0.02297359	0.009518652	0.06418485	-0.01155984	-0.4296437	-0.8574909	-0.0126075	0.06522098
3.8e+08	-0.07815768	-0.05405893	-0.474598	-0.8326508	0.04271027	-0.04360685	-0.02307184	0.01137827
	-0.474598	-0.8326508	-0.005309307	0.06728595	-0.02307597	0.01139137	0.06459254	-0.01458027
	0.04271027	-0.04360685	-0.02307597	0.01139137	-0.07800334	-0.05390383	-0.4752965	-0.8322618
	-0.02307184	0.01137827	0.06459254	-0.01458027	-0.4752965	-0.8322618	-0.005218285	0.06706295
3.9e+08	-0.07986633	-0.05323134	-0.518788	-0.8050507	0.04008695	-0.04686818	-0.02301419	0.01329432
	-0.518788	-0.8050507	0.002417669	0.06840307	-0.0230172	0.01330886	0.06482218	-0.01764348
	0.04008695	-0.04686818	-0.0230172	0.01330886	-0.07970536	-0.05308384	-0.5194837	-0.8046121
	-0.02301419	0.01329432	0.06482218	-0.01764348	-0.5194837	-0.8046121	0.00250189	0.06816977
4e+08	-0.08152121	-0.05245635	-0.5613853	-0.7751145	0.03716916	-0.0499636	-0.02279261	0.01525267
	-0.5613853	-0.7751145	0.01040177	0.06874432	-0.02279431	0.01526863	0.06487219	-0.02073832
	0.03716916	-0.0499636	-0.02279431	0.01526863	-0.08135461	-0.05231748	-0.5620748	-0.7746254
	-0.02279261	0.01525267	0.06487219	-0.02073832	-0.5620748	-0.7746254	0.01047858	0.06850093
4.1e+08	-0.08314056	-0.05173972	-0.6022671	-0.7429323	0.03396896	-0.05286804	-0.02240036	0.01723812
	-0.6022671	-0.7429323	0.01856462	0.06827738	-0.02240064	0.01725544	0.06474142	-0.02385334
	0.03396896	-0.05286804	-0.02240064	0.01725544	-0.08296949	-0.05161035	-0.6029461	-0.7423925
	-0.02240036	0.01723812	0.06474142	-0.02385334	-0.6029461	-0.7423925	0.01863321	0.06802416
4.2e+08	-0.08474314	-0.05108496	-0.6413138	-0.7085982	0.03050007	-0.05555765	-0.0218324	0.01923484
	-0.6413138	-0.7085982	0.02682431	0.06697729	-0.021831	0.01925339	0.06442971	-0.02697731
	0.03050007	-0.05555765	-0.021831	0.01925339	-0.08456903	-0.05096583	-0.6419796	-0.708007
	-0.0218324	0.01923484	0.06442971	-0.02697731	-0.6419796	-0.708007	0.02688442	0.06671456
4.3e+08	-0.08634847	-0.05049233	-0.678412	-0.6722155	0.02677864	-0.05800962	-0.0210853	0.02122623
	-0.678412	-0.6722155	0.03509646	0.06482823	-0.02108193	0.02124583	0.0639375	-0.03009907
	0.02677864	-0.05800962	-0.02108193	0.02124583	-0.08617267	-0.05038409	-0.6790607	-0.6715739
	-0.0210853	0.02122623	0.0639375	-0.03009907	-0.6790607	-0.6715739	0.03514722	0.06455668
4.4e+08	-0.08797588	-0.04995953	-0.713454	-0.6338936	0.0228225	-0.06020231	-0.02015718	0.02319515
	-0.713454	-0.6338936	0.04329457	0.06182328	-0.02015187	0.02321576	0.06326623	-0.0332078
	0.0228225	-0.06020231	-0.02015187	0.02321576	-0.0878	-0.04986264	-0.7140808	-0.6332
	-0.02015718	0.02319515	0.06326623	-0.0332078	-0.7140808	-0.6332	0.04333546	0.06154279
4.5e+08	-0.08964462	-0.04948143	-0.7463362	-0.5937474	0.01865115	-0.06211553	-0.01904815	0.02512433
	-0.7463362	-0.5937474	0.05133117	0.05796378	-0.01904065	0.02514572	0.06241784	-0.03629248
	0.01865115	-0.06211553	-0.01904065	0.02514572	-0.08947012	-0.04939624	-0.746938	-0.5930032
	-0.01904815	0.02512433	0.06241784	-0.03629248	-0.746938	-0.5930032	0.05136173	0.05767516
4.6e+08	-0.09137282	-0.04905025	-0.7769619	-0.5518955	0.0142862	-0.06373067	-0.01776006	0.02699641
	-0.7769619	-0.5518955	0.0591191	0.05326044	-0.01775024	0.02701839	0.06139525	-0.03934281
	0.0142862	-0.06373067	-0.01775024	0.02701839	-0.09120162	-0.04897691	-0.7775343	-0.5511005
	-0.01776006	0.02699641	0.06139525	-0.03934281	-0.7775343	-0.5511005	0.05913887	0.05296372
4.7e+08	-0.0931781	-0.04865528	-0.8052408	-0.508465	0.009750321	-0.06503099	-0.0162966	0.02879409
	-0.8052408	-0.508465	0.06657191	0.04773282	-0.01628424	0.0288164	0.06020177	-0.04234828
	0.009750321	-0.06503099	-0.01628424	0.0288164	-0.0930117	-0.04859375	-0.8057819	-0.507621
	-0.0162966	0.02879409	0.06020177	-0.04234828	-0.8057819	-0.507621	0.06658064	0.04742903
4.8e+08	-0.09507651	-0.0482832	-0.8310899	-0.4635886	0.005067936	-0.06600144	-0.01466309	0.03050038
	-0.8310899	-0.4635886	0.07360497	0.0414103	-0.01464812	0.03052279	0.05884174	-0.04529929
	0.005067936	-0.06600144	-0.01464812	0.03052279	-0.09491703	-0.04823323	-0.8315939	-0.462696
	-0.01466309	0.03050038	0.05884174	-0.04529929	-0.8315939	-0.462696	0.07360205	0.04109942
4.9e+08	-0.09708229	-0.04791868	-0.8544356	-0.4174013	0.0002646395	-0.06662917	-0.01286692	0.03209915
	-0.8544356	-0.4174013	0.08013757	0.03432997	-0.01284924	0.03212143	0.05732007	-0.04818643
	0.0002646395	-0.06662917	-0.01284924	0.03212143	-0.09693136	-0.0478798	-0.8548988	-0.4164616
	-0.01286692	0.03209915	0.05732007	-0.04818643	-0.8548988	-0.4164616	0.08012255	0.03401269
5e+08	-0.09920823	-0.0475438	-0.8752057	-0.3700436	-0.004633118	-0.06690315	-0.01091678	0.03357466
	-0.8752057	-0.3700436	0.08609083	0.0265373	-0.01089637	0.03359654	0.05564208	-0.05100118
	-0.004633118	-0.06690315	-0.01089637	0.03359654	-0.09906757	-0.04751531	-0.8756256	-0.3690585
	-0.01091678	0.03357466	0.05564208	-0.05100118	-0.8756256	-0.3690585	0.08606369	0.02621426
5.1e+08	-0.1014643	-0.04713874	-0.8933436	-0.3216588	-0.009597763	-0.06681478	-0.008823083	0.03491221
	-0.8933436	-0.3216588	0.09139286	0.01808637	-0.008799893	0.03493345	0.05381371	-0.05373511
	-0.009597763	-0.06681478	-0.008799893	0.03493345	-0.1013358	-0.04711978	-0.8937152	-0.3206307
	-0.008823083	0.03491221	0.05381371	-0.05373511	-0.8937152	-0.3206307	0.09135299	0.01775793
