!$
! Info: Touchstone file created by Circ.  Input file=C2M_PCB_85ohms_0p5in_20230620_v3.circ
!$
# Hz S RI R 50
0	0.003185388	1.59725e-24	0.9967841	-1.306897e-24	0.0001258695	5.621732e-23	-0.0001221501	1.498125e-20
	0.9967841	-1.161599e-24	0.003004398	3.138965e-26	-0.0001194749	1.465373e-20	-1.891107e-05	8.19524e-21
	0.0001258695	5.625187e-23	-0.0001194749	1.465351e-20	0.003188765	2.138295e-24	0.9967975	-1.328409e-24
	-0.0001221501	1.498128e-20	-1.89111e-05	8.195314e-21	0.9967975	-1.345214e-24	0.003017696	5.847707e-25
1e+07	0.004394722	0.0005730381	0.9948114	-0.03674136	0.0002214655	0.002103245	-0.0001840631	-0.00057058
	0.9948114	-0.03674136	0.004276065	0.0006607659	-0.0001820258	-0.0005710888	0.0001667449	0.002150349
	0.0002214655	0.002103245	-0.0001820258	-0.0005710888	0.004460753	0.0005753902	0.9947589	-0.03677589
	-0.0001840631	-0.00057058	0.0001667449	0.002150349	0.9947589	-0.03677589	0.004342102	0.0006636176
2e+07	0.005379599	0.0001737032	0.9917667	-0.07236686	0.0004320113	0.004155015	-0.0002706877	-0.001099144
	0.9917667	-0.07236686	0.005336191	0.0002807398	-0.000269223	-0.001099391	0.0005228176	0.004184174
	0.0004320594	0.00415493	-0.0002691959	-0.001099436	0.00543322	0.0001568272	0.991715	-0.07240471
	-0.0002706584	-0.001099186	0.0005228373	0.004184172	0.991715	-0.07240471	0.005391119	0.0002648044
3e+07	0.006063728	-0.0006448601	0.9877075	-0.1074407	0.0007556282	0.006153854	-0.0003941006	-0.001586083
	0.9877075	-0.1074407	0.006076944	-0.0005474377	-0.0003928238	-0.001586033	0.001031763	0.006128062
	0.0007556193	0.006153842	-0.0003928322	-0.001586031	0.006107034	-0.0006669981	0.9876562	-0.1074915
	-0.0003941102	-0.001586081	0.001031755	0.006128079	0.9876562	-0.1074915	0.006124061	-0.0005682801
4e+07	0.006546127	-0.001617742	0.9825449	-0.1421793	0.001184534	0.008122161	-0.000546881	-0.002056286
	0.9825449	-0.1421793	0.006605454	-0.001535973	-0.0005456256	-0.002055903	0.001689962	0.008018589
	0.001184533	0.008122163	-0.0005456275	-0.002055901	0.006580359	-0.001641368	0.9824933	-0.1422455
	-0.0005468825	-0.002056284	0.001689959	0.00801859	0.9824933	-0.1422455	0.006646433	-0.001558699
5e+07	0.006875333	-0.002675725	0.9762422	-0.176605	0.001712293	0.01006198	-0.0007228707	-0.002515244
	0.9762422	-0.176605	0.006979984	-0.002611414	-0.0007214975	-0.002514546	0.002495915	0.009855455
	0.001712293	0.01006198	-0.0007214993	-0.002514546	0.006901015	-0.002698748	0.9761891	-0.1766882
	-0.0007228726	-0.002515244	0.002495912	0.009855455	0.9761891	-0.1766882	0.007016395	-0.002634459
6e+07	0.007074882	-0.003786334	0.9687909	-0.2107042	0.002340129	0.01196966	-0.0009242164	-0.002963324
	0.9687909	-0.2107042	0.007227275	-0.003743073	-0.0009226514	-0.002962393	0.003452064	0.01162943
	0.002340128	0.01196966	-0.0009226495	-0.002962393	0.007092867	-0.003806952	0.9687351	-0.2108058
	-0.0009242146	-0.002963324	0.003452068	0.01162943	0.9687351	-0.2108058	0.00725999	-0.003765726
7e+07	0.007157139	-0.004928506	0.9601913	-0.244452	0.003067395	0.01384066	-0.001151636	-0.003400023
	0.9601913	-0.244452	0.007360794	-0.004911793	-0.001149859	-0.003398949	0.004556667	0.01332978
	0.003067394	0.01384067	-0.001149856	-0.00339895	0.007167979	-0.004945523	0.9601309	-0.2445728
	-0.001151634	-0.003400025	0.00455667	0.01332977	0.9601309	-0.2445728	0.007390839	-0.004933325
8e+07	0.007130215	-0.006085549	0.9504516	-0.2778192	0.003892506	0.01567034	-0.001405264	-0.003824669
	0.9504516	-0.2778192	0.007388255	-0.006102569	-0.00140327	-0.003823493	0.00580577	0.0149459
	0.003892506	0.01567034	-0.001403272	-0.003823492	0.007134501	-0.006097955	0.9503847	-0.2779599
	-0.001405266	-0.003824667	0.005805768	0.0149459	0.9503847	-0.2779599	0.007416534	-0.006122325
9e+07	0.007001046	-0.007242981	0.9395809	-0.3107747	0.004813397	0.01745438	-0.00168504	-0.004236529
	0.9395809	-0.3107747	0.007314981	-0.007301695	-0.001682829	-0.004235309	0.007194137	0.01646764
	0.004813396	0.01745438	-0.001682834	-0.004235301	0.006999546	-0.007249502	0.9395065	-0.3109361
	-0.001685042	-0.00423652	0.007194136	0.01646765	0.9395065	-0.3109361	0.00734226	-0.007319174
1e+08	0.006778457	-0.008384695	0.9275919	-0.3432909	0.005827566	0.01918824	-0.001990953	-0.004634816
	0.9275919	-0.3432909	0.007146429	-0.008492242	-0.001988543	-0.004633622	0.008715795	0.01788509
	0.005827566	0.01918824	-0.001988542	-0.004633623	0.006772671	-0.008383047	0.9275066	-0.3434744
	-0.001990953	-0.004634817	0.008715796	0.01788509	0.9275066	-0.3434744	0.007173407	-0.008506122
1.1e+08	0.006474475	-0.009508397	0.9144828	-0.3753142	0.006931668	0.02086849	-0.002323527	-0.005017203
	0.9144828	-0.3753142	0.00691805	-0.009701299	-0.002319392	-0.005016956	0.01036227	0.0191886
	0.006931668	0.02086849	-0.002319391	-0.005016957	0.006460812	-0.009491741	0.914383	-0.3755154
	-0.002323526	-0.005017204	0.01036227	0.01918859	0.914383	-0.3755154	0.007013363	-0.009706471
1.2e+08	0.006079954	-0.01061605	0.9002945	-0.4068105	0.008123424	0.02249063	-0.002679356	-0.005385514
	0.9002945	-0.4068105	0.006578778	-0.01088168	-0.002675216	-0.005386274	0.0121265	0.02037089
	0.008123423	0.02249063	-0.002675215	-0.005386275	0.006066457	-0.01059012	0.9001799	-0.4070299
	-0.002679355	-0.005385515	0.0121265	0.02037089	0.9001799	-0.4070299	0.0066903	-0.01091379
1.3e+08	0.005598652	-0.01169134	0.8850453	-0.4377515	0.009399486	0.02405067	-0.003059985	-0.00573928
	0.8850453	-0.4377515	0.006153358	-0.0120235	-0.003056404	-0.005740449	0.01400052	0.02142358
	0.009399485	0.02405067	-0.003056404	-0.00574045	0.005587221	-0.0116603	0.8849119	-0.4379876
	-0.003059984	-0.005739281	0.01400052	0.02142357	0.8849119	-0.4379876	0.006253841	-0.01207553
1.4e+08	0.005035607	-0.0127224	0.8687516	-0.4681039	0.0107566	0.0255454	-0.003465989	-0.006077218
	0.8687516	-0.4681039	0.005653958	-0.01312454	-0.003462931	-0.006078357	0.0159758	0.02233938
	0.0107566	0.0255454	-0.003462931	-0.006078358	0.005025597	-0.01268867	0.8685998	-0.468356
	-0.003465988	-0.006077219	0.0159758	0.02233938	0.8685998	-0.468356	0.005736792	-0.01318348
1.5e+08	0.004397199	-0.01370002	0.8514379	-0.4978366	0.01219128	0.02697137	-0.003897408	-0.006397992
	0.8514379	-0.4978366	0.00508744	-0.01418213	-0.003894659	-0.006398919	0.01804304	0.02311112
	0.01219128	0.02697137	-0.003894659	-0.00639892	0.00438728	-0.01366429	0.8512654	-0.4981028
	-0.003897408	-0.006397992	0.01804304	0.02311112	0.8512654	-0.4981028	0.005155374	-0.0142391
1.6e+08	0.003690707	-0.01461601	0.8331249	-0.5269173	0.01370006	0.02832535	-0.004354098	-0.006700348
	0.8331249	-0.5269173	0.004458879	-0.01519236	-0.004351481	-0.006701071	0.02019275	0.02373254
	0.01370006	0.02832535	-0.004351481	-0.006701072	0.003679677	-0.01457813	0.8329308	-0.5271962
	-0.004354098	-0.006700348	0.02019274	0.02373254	0.8329308	-0.5271962	0.004517513	-0.0152432
1.7e+08	0.002923595	-0.01546412	0.8138361	-0.5553129	0.01527915	0.0296042	-0.004835747	-0.006983009
	0.8138361	-0.5553129	0.003773125	-0.01615073	-0.004833122	-0.006983612	0.02241486	0.02419787
	0.01527915	0.0296042	-0.004833122	-0.006983612	0.002910666	-0.01542333	0.8136196	-0.555603
	-0.004835747	-0.00698301	0.02241485	0.02419787	0.8136196	-0.555603	0.003827889	-0.01619479
1.8e+08	0.002103742	-0.01623838	0.7935965	-0.5829931	0.01692485	0.03080512	-0.005342138	-0.007244781
	0.7935965	-0.5829931	0.003035676	-0.01705242	-0.005339474	-0.007245383	0.0246991	0.02450199
	0.01692485	0.03080512	-0.005339474	-0.007245383	0.00208848	-0.01619397	0.7933577	-0.5832938
	-0.005342138	-0.007244782	0.0246991	0.02450199	0.7933577	-0.5832938	0.003090827	-0.01709098
1.9e+08	0.001238903	-0.01693455	0.7724326	-0.6099274	0.01863335	0.0319257	-0.005872961	-0.007484369
	0.7724326	-0.6099274	0.002252537	-0.0178931	-0.005870272	-0.007485091	0.02703506	0.02464068
	0.01863335	0.0319257	-0.005870272	-0.007485091	0.001221333	-0.01688546	0.7721688	-0.6102365
	-0.005872961	-0.007484369	0.02703506	0.02464068	0.7721688	-0.6102365	0.00231097	-0.01792838
2e+08	0.000337091	-0.01754846	0.750369	-0.6360871	0.02040062	0.03296323	-0.006427925	-0.007700428
	0.750369	-0.6360871	0.001430333	-0.01866896	-0.006425286	-0.007701366	0.02941178	0.02460994
	0.02040062	0.03296323	-0.006425286	-0.007701367	0.0003174234	-0.01749404	0.750081	-0.636403
	-0.006427925	-0.007700428	0.02941178	0.02460994	0.750081	-0.636403	0.00149355	-0.0187036
2.1e+08	-0.0005934318	-0.01807688	0.7274358	-0.661441	0.02222265	0.03391558	-0.007006642	-0.007891512
	0.7274358	-0.661441	0.0005762716	-0.01937696	-0.007004133	-0.007892728	0.0318182	0.02440675
	0.02222265	0.03391558	-0.007004133	-0.007892728	-0.0006148897	-0.01801653	0.7271216	-0.6617627
	-0.007006642	-0.007891512	0.0318182	0.02440675	0.7271216	-0.6617627	0.0006448912	-0.01941323
2.2e+08	-0.001544566	-0.01851745	0.7036607	-0.6859627	0.02409543	0.03478082	-0.007608729	-0.008056167
	0.7036607	-0.6859627	-0.0003023942	-0.02001499	-0.007606469	-0.008057676	0.03424347	0.02402893
	0.02409543	0.03478082	-0.007606468	-0.008057676	-0.00156741	-0.0184507	0.7033205	-0.6862893
	-0.007608729	-0.008056167	0.03424347	0.02402893	0.7033205	-0.6862893	-0.0002287132	-0.02005503
2.3e+08	-0.00250816	-0.01886838	0.6790733	-0.7096264	0.02601465	0.03555689	-0.008233598	-0.008192733
	0.6790733	-0.7096264	-0.001198514	-0.02058186	-0.008231683	-0.008194527	0.03667565	0.0234743
	0.02601465	0.03555689	-0.008231683	-0.008194527	-0.00253188	-0.01879487	0.678707	-0.7099559
	-0.008233598	-0.008192733	0.03667565	0.0234743	0.678707	-0.7099559	-0.001120307	-0.02062714
2.4e+08	-0.003475518	-0.01912829	0.6537044	-0.7324026	0.02797613	0.03624227	-0.008880643	-0.008299563
	0.6537044	-0.7324026	-0.0021044	-0.021077	-0.008879172	-0.008301623	0.03910358	0.02274207
	0.02797613	0.03624227	-0.008879172	-0.008301623	-0.003499765	-0.01904783	0.6533102	-0.7327337
	-0.008880643	-0.008299563	0.03910358	0.02274207	0.6533102	-0.7327337	-0.002022487	-0.02112854
2.5e+08	-0.004438592	-0.019297	0.627585	-0.7542697	0.02997564	0.03683547	-0.009549057	-0.008374897
	0.627585	-0.7542697	-0.00301285	-0.02150063	-0.009548139	-0.008377143	0.04151582	0.02183193
	0.02997564	0.03683547	-0.009548139	-0.008377143	-0.004462854	-0.01920925	0.6271624	-0.7546009
	-0.009549057	-0.008374897	0.04151582	0.02183193	0.6271624	-0.7546009	-0.002928265	-0.02155916
2.6e+08	-0.005388836	-0.01937466	0.6007478	-0.7752017	0.03200901	0.0373355	-0.01023808	-0.008417098
	0.6007478	-0.7752017	-0.003916986	-0.02185399	-0.01023778	-0.008419499	0.04390071	0.02074419
	0.03200901	0.0373355	-0.01023778	-0.008419499	-0.00541272	-0.01927956	0.6002978	-0.7755315
	-0.01023808	-0.008417098	0.04390071	0.02074419	0.6002978	-0.7755315	-0.003830388	-0.02191979
2.7e+08	-0.006317897	-0.01936194	0.5732258	-0.7951772	0.03407187	0.03774108	-0.01094659	-0.008424272
	0.5732258	-0.7951772	-0.004809714	-0.02213853	-0.01094691	-0.008426685	0.04624678	0.01947987
	0.03407187	0.03774108	-0.01094691	-0.008426685	-0.006341037	-0.01925929	0.5727459	-0.7955047
	-0.01094659	-0.008424272	0.04624678	0.01947987	0.5727459	-0.7955047	-0.004721919	-0.02221172
2.8e+08	-0.007217678	-0.01926069	0.5450519	-0.8141738	0.03616009	0.03805158	-0.01167342	-0.008394635
	0.5450519	-0.8141738	-0.005684492	-0.02235662	-0.01167451	-0.008397022	0.04854291	0.01804093
	0.03616009	0.03805158	-0.01167451	-0.008397022	-0.007239514	-0.01915031	0.5445432	-0.814496
	-0.01167342	-0.008394635	0.04854291	0.01804093	0.5445432	-0.814496	-0.005595809	-0.02243718
2.9e+08	-0.00808013	-0.01907302	0.5162617	-0.832171	0.0382692	0.03826622	-0.01241706	-0.008326196
	0.5162617	-0.832171	-0.006535221	-0.02251114	-0.01241892	-0.008328493	0.05077731	0.01642955
	0.0382692	0.03826622	-0.01241892	-0.008328493	-0.008100404	-0.01895502	0.5157241	-0.8324878
	-0.01241706	-0.008326196	0.05077731	0.01642955	0.5157241	-0.8324878	-0.006446232	-0.02259911
3e+08	-0.008897465	-0.01880183	0.4868902	-0.849151	0.04039507	0.03838468	-0.0131763	-0.008217453
	0.4868902	-0.849151	-0.007356007	-0.02260548	-0.0131789	-0.008219505	0.05293911	0.01464903
	0.04039507	0.03838468	-0.0131789	-0.008219505	-0.008915608	-0.01867595	0.4863228	-0.8494601
	-0.0131763	-0.008217453	0.05293911	0.01464903	0.4863228	-0.8494601	-0.007266923	-0.02270086
3.1e+08	-0.009662041	-0.01845066	0.4569722	-0.8650935	0.0425335	0.03840672	-0.0139492	-0.008066398
	0.4569722	-0.8650935	-0.008141093	-0.02264352	-0.01395255	-0.00806813	0.05501726	0.01270314
	0.0425335	0.03840672	-0.01395255	-0.00806813	-0.00967748	-0.0183168	0.4563744	-0.8653925
	-0.0139492	-0.008066398	0.05501726	0.01270313	0.4563744	-0.8653925	-0.008051885	-0.02274629
3.2e+08	-0.01036656	-0.01802343	0.4265422	-0.8799829	0.04468026	0.03833226	-0.01473403	-0.007871393
	0.4265422	-0.8799829	-0.008885296	-0.02262951	-0.01473824	-0.00787277	0.05700106	0.0105963
	0.04468026	0.03833226	-0.01473824	-0.00787277	-0.01037882	-0.01788172	0.4259163	-0.8802696
	-0.01473403	-0.007871393	0.05700106	0.0105963	0.4259163	-0.8802696	-0.008796371	-0.02273999
3.3e+08	-0.01100406	-0.01752502	0.3956412	-0.8938027	0.0468312	0.0381614	-0.01552864	-0.007630693
	0.3956412	-0.8938027	-0.009583937	-0.02256846	-0.01553363	-0.007631583	0.05888001	0.008333646
	0.0468312	0.0381614	-0.01553363	-0.007631583	-0.01101265	-0.01737535	0.3949843	-0.8940765
	-0.01552864	-0.007630693	0.05888001	0.008333646	0.3949843	-0.8940765	-0.009495451	-0.02268668
3.4e+08	-0.01156787	-0.01696038	0.3643017	-0.9065391	0.04898234	0.0378945	-0.01633098	-0.007342796
	0.3643017	-0.9065391	-0.01023267	-0.02246543	-0.01633678	-0.007343091	0.06064413	0.005920854
	0.04898234	0.0378945	-0.01633678	-0.007343091	-0.01157221	-0.0168029	0.3636162	-0.9067981
	-0.01633098	-0.007342796	0.06064413	0.005920854	0.3636162	-0.9067981	-0.01014493	-0.02259171
3.5e+08	-0.01205191	-0.01633537	0.3325633	-0.9181787	0.05112943	0.03753203	-0.01713856	-0.007006132
	0.3325633	-0.9181787	-0.01082782	-0.02232606	-0.01714524	-0.007005797	0.06228323	0.003364267
	0.05112943	0.03753203	-0.01714524	-0.007005797	-0.01205144	-0.01617007	0.3318487	-0.9184217
	-0.01713856	-0.007006132	0.06228323	0.003364267	0.3318487	-0.9184217	-0.01074103	-0.02246056
3.6e+08	-0.0124505	-0.01565631	0.3004651	-0.9287099	0.05326863	0.03707464	-0.01794899	-0.006619424
	0.3004651	-0.9287099	-0.01136599	-0.02215629	-0.01795647	-0.006618309	0.06378808	0.0006708234
	0.05326863	0.03707464	-0.01795647	-0.006618309	-0.01244458	-0.01548342	0.2997221	-0.9289339
	-0.01794899	-0.006619424	0.06378808	0.0006708234	0.2997221	-0.9289339	-0.01128058	-0.02229931
3.7e+08	-0.01275815	-0.01492957	0.2680424	-0.9381214	0.05539598	0.03652302	-0.0187595	-0.006181313
	0.2680424	-0.9381214	-0.01184435	-0.02196223	-0.01876777	-0.006179311	0.06514953	-0.002152097
	0.05539598	0.03652302	-0.01876777	-0.006179311	-0.01274626	-0.01474921	0.2672711	-0.9383261
	-0.0187595	-0.006181313	0.06514953	-0.002152097	0.2672711	-0.9383261	-0.01176078	-0.02211392
3.8e+08	-0.01297023	-0.01416252	0.2353368	-0.9464032	0.05750773	0.03587822	-0.01956729	-0.005690737
	0.2353368	-0.9464032	-0.01226072	-0.02175051	-0.01957633	-0.005687744	0.06635888	-0.005096365
	0.05750773	0.03587822	-0.01957633	-0.005687744	-0.01295172	-0.01397502	0.2345381	-0.9465857
	-0.01956729	-0.005690737	0.06635888	-0.005096365	0.2345381	-0.9465857	-0.01217942	-0.02191109
3.9e+08	-0.01308235	-0.01336216	0.2023842	-0.9535486	0.05960008	0.03514136	-0.0203694	-0.005146684
	0.2023842	-0.9535486	-0.01261345	-0.02152761	-0.02037908	-0.005142565	0.06740806	-0.008153529
	0.05960008	0.03514136	-0.02037908	-0.005142565	-0.01305668	-0.0131678	0.2015578	-0.9537077
	-0.0203694	-0.005146684	0.06740806	-0.008153529	0.2015578	-0.9537077	-0.0125349	-0.02169714
4e+08	-0.01309084	-0.01253665	0.1692252	-0.9595498	0.0616694	0.03431367	-0.0211628	-0.004548405
	0.1692252	-0.9595498	-0.01290148	-0.02130048	-0.02117309	-0.00454303	0.06828943	-0.0113147
	0.0616694	0.03431367	-0.02117309	-0.00454303	-0.01305741	-0.01233575	0.1683719	-0.959684
	-0.0211628	-0.004548405	0.06828943	-0.0113147	0.1683719	-0.959684	-0.01282619	-0.02147903
4.1e+08	-0.01299275	-0.01169399	0.1358992	-0.9644024	0.06371195	0.03339665	-0.02194412	-0.003895277
	0.1358992	-0.9644024	-0.01312447	-0.02107596	-0.02195504	-0.003888591	0.06899566	-0.0145702
	0.06371195	0.03339665	-0.02195504	-0.003888591	-0.01295098	-0.01148696	0.1350206	-0.9645095
	-0.02194412	-0.003895277	0.06899566	-0.0145702	0.1350206	-0.9645095	-0.01305298	-0.02126357
4.2e+08	-0.01278523	-0.01084226	0.1024446	-0.9681001	0.06572437	0.03239159	-0.02271021	-0.003186899
	0.1024446	-0.9681001	-0.01328259	-0.02086111	-0.02272161	-0.00317875	0.0695202	-0.01791021
	0.06572437	0.03239159	-0.02272161	-0.00317875	-0.01273459	-0.01062968	0.1015406	-0.9681791
	-0.02271021	-0.003186899	0.0695202	-0.01791021	0.1015406	-0.9681791	-0.01321531	-0.02105776
4.3e+08	-0.01246656	-0.009990138	0.06890093	-0.970641	0.06770335	0.03130032	-0.02345763	-0.002423068
	0.06890093	-0.970641	-0.01337643	-0.02066291	-0.02346934	-0.002413327	0.06985684	-0.02132439
	0.06770335	0.03130032	-0.02346934	-0.002413327	-0.01240653	-0.009772442	0.06797381	-0.9706909
	-0.02345763	-0.002423068	0.06985684	-0.02132439	0.06797381	-0.9706909	-0.01331406	-0.02086845
4.4e+08	-0.0120354	-0.009146275	0.03530782	-0.9720243	0.06964555	0.03012459	-0.02418277	-0.001603757
	0.03530782	-0.9720243	-0.01340756	-0.02048816	-0.02419489	-0.001592387	0.07000027	-0.02480228
	0.06964555	0.03012459	-0.02419489	-0.001592387	-0.01196549	-0.008924102	0.03435795	-0.9720417
	-0.02418277	-0.001603757	0.07000027	-0.02480228	0.03435795	-0.9720417	-0.01335051	-0.02070264
4.5e+08	-0.011491	-0.008319658	0.0017054	-0.9722493	0.0715478	0.0288661	-0.02488214	-0.0007292233
	0.0017054	-0.9722493	-0.01337802	-0.02034411	-0.02489446	-0.0007161	0.06994551	-0.02833267
	0.0715478	0.0288661	-0.02489446	-0.0007161	-0.01141073	-0.008093469	0.0007341626	-0.9722337
	-0.02488214	-0.0007292233	0.06994551	-0.02833267	0.0007341626	-0.9722337	-0.01332681	-0.02056723
4.6e+08	-0.01083325	-0.007518881	-0.03186846	-0.9713153	0.07340694	0.02752711	-0.0255522	0.0002001069
	-0.03186846	-0.9713153	-0.01329033	-0.02023707	-0.02556462	0.0002150514	0.06968836	-0.03190453
	0.07340694	0.02752711	-0.02556462	0.0002150514	-0.01074213	-0.007289556	-0.03286014	-0.9712644
	-0.0255522	0.0002001069	0.06968836	-0.03190453	-0.03286014	-0.9712644	-0.01324535	-0.02046891
4.7e+08	-0.01006281	-0.006753116	-0.06537333	-0.9692252	0.07522015	0.02610952	-0.02618928	0.001183425
	-0.06537333	-0.9692252	-0.01314775	-0.02017404	-0.02620157	0.001200321	0.06922504	-0.03550597
	0.07522015	0.02610952	-0.02620157	0.001200321	-0.009960493	-0.006521112	-0.06638474	-0.9691397
	-0.02618928	0.001183425	0.06922504	-0.03550597	-0.06638474	-0.9691397	-0.01310966	-0.0204141
4.8e+08	-0.009181061	-0.006031303	-0.09876889	-0.9659832	0.07698451	0.02461562	-0.02678961	0.002219838
	-0.09876889	-0.9659832	-0.01295432	-0.02016094	-0.02680164	0.002238735	0.06855267	-0.03912534
	0.07698451	0.02461562	-0.02680164	0.002238735	-0.009067078	-0.005797693	-0.09979819	-0.9658597
	-0.02678961	0.002219838	0.06855267	-0.03912534	-0.09979819	-0.9658597	-0.01292337	-0.0204093
4.9e+08	-0.00818971	-0.005362054	-0.132018	-0.9615955	0.07869739	0.02304778	-0.02734983	0.003308086
	-0.132018	-0.9615955	-0.01271416	-0.02020397	-0.02736146	0.003329053	0.06766902	-0.04275054
	0.07869739	0.02304778	-0.02736146	0.003329053	-0.008063808	-0.005127476	-0.1330638	-0.9614326
	-0.02734983	0.003308086	0.06766902	-0.04275054	-0.1330638	-0.9614326	-0.01269086	-0.02046025
5e+08	-0.007091242	-0.004754479	-0.1650795	-0.9560647	0.08035606	0.02140814	-0.02786619	0.004446764
	-0.1650795	-0.9560647	-0.01243249	-0.02030912	-0.02787726	0.004469818	0.06657225	-0.04636964
	0.08035606	0.02140814	-0.02787726	0.004469818	-0.006953211	-0.004519719	-0.166141	-0.9558623
	-0.02786619	0.004446764	0.06657225	-0.04636964	-0.166141	-0.9558623	-0.01241724	-0.02057295
5.1e+08	-0.005888962	-0.00421694	-0.1979172	-0.9494004	0.08195813	0.01969925	-0.02833508	0.005634144
	-0.1979172	-0.9494004	-0.01211438	-0.02048124	-0.02834544	0.00565935	0.06526143	-0.0499701
	0.08195813	0.01969925	-0.02834544	0.00565935	-0.005738479	-0.003982977	-0.1989922	-0.9491563
