!$
! Info: Touchstone file created by Circ.  Input file=C2M_PCB_85ohms_9p0in_20230620_v3.circ
!$
# Hz S RI R 50
0	0.0099294	3.932887e-24	0.9900403	-3.790003e-24	0.0001700079	9.77093e-23	-0.0001663136	2.050685e-20
	0.9900403	-3.645636e-24	0.009747992	2.617441e-24	-0.0001636554	2.018122e-20	2.52945e-05	8.382357e-21
	0.000170008	9.774332e-23	-0.0001636554	2.0181e-20	0.009932731	4.375534e-24	0.9900536	-3.619403e-24
	-0.0001663136	2.050687e-20	2.529448e-05	8.382431e-21	0.9900536	-3.636123e-24	0.009761475	2.951631e-24
1e+07	0.01312784	-0.008218247	0.9776514	-0.1255881	0.0008047677	0.003421538	-0.0002817802	-0.0004228043
	0.9776514	-0.1255881	0.01243367	-0.007907108	-0.0002797887	-0.0004234533	0.000498105	0.003535394
	0.0008047677	0.003421538	-0.0002797887	-0.0004234533	0.01321998	-0.008217047	0.9775703	-0.1256128
	-0.0002817802	-0.0004228043	0.000498105	0.003535394	0.9775703	-0.1256128	0.01252774	-0.007895964
2e+07	0.01384024	-0.01986908	0.9504811	-0.2449064	0.002404579	0.006423242	-0.0003780292	-0.0007703192
	0.9504811	-0.2449064	0.01162657	-0.01888989	-0.0003765205	-0.0007708061	0.001536944	0.00677209
	0.002404593	0.006423148	-0.0003765037	-0.0007708566	0.01390627	-0.01989107	0.9504066	-0.2449162
	-0.0003780096	-0.0007703668	0.001536962	0.006772087	0.9504066	-0.2449162	0.01170666	-0.01889796
3e+07	0.01102828	-0.03258351	0.9101037	-0.3582212	0.004821362	0.008799599	-0.0004811418	-0.001111961
	0.9101037	-0.3582212	0.006433412	-0.03017892	-0.0004796803	-0.001112341	0.003076417	0.009670041
	0.004821349	0.008799594	-0.0004796879	-0.001112337	0.0110738	-0.03260361	0.9100323	-0.3582324
	-0.0004811505	-0.001111956	0.003076409	0.009670059	0.9100323	-0.3582324	0.006507608	-0.0301868
4e+07	0.005237506	-0.0447689	0.8568752	-0.4649254	0.007866357	0.01038551	-0.0006241857	-0.001503343
	0.8568752	-0.4649254	-0.002312233	-0.03986881	-0.0006226021	-0.001503704	0.005037757	0.01218962
	0.007866359	0.01038551	-0.000622603	-0.001503702	0.005267364	-0.04477846	0.8568039	-0.4649422
	-0.0006241863	-0.001503341	0.005037754	0.01218962	0.8568039	-0.4649422	-0.002238925	-0.03987404
5e+07	-0.003109151	-0.05567864	0.7915952	-0.5637265	0.01130941	0.01104816	-0.0008517352	-0.001958038
	0.7915952	-0.5637265	-0.01382242	-0.0469992	-0.0008499602	-0.001958528	0.007325244	0.01427413
	0.01130941	0.01104816	-0.0008499617	-0.001958527	-0.003089985	-0.05567246	0.7915204	-0.5637507
	-0.0008517367	-0.001958037	0.00732524	0.01427413	0.7915204	-0.5637507	-0.01374616	-0.04700216
6e+07	-0.01356701	-0.06477941	0.7153223	-0.6533412	0.0148969	0.010707	-0.001217523	-0.002457868
	0.7153223	-0.6533412	-0.02724206	-0.05093592	-0.001215625	-0.00245864	0.009837298	0.01588502
	0.0148969	0.010707	-0.001215623	-0.002458641	-0.01355266	-0.06475468	0.7152405	-0.6533736
	-0.001217522	-0.002457868	0.009837301	0.01588502	0.7152405	-0.6533736	-0.02716077	-0.05093849
7e+07	-0.02564634	-0.07167946	0.6292996	-0.7326089	0.01836152	0.009348246	-0.001765911	-0.002960348
	0.6292996	-0.7326089	-0.04165362	-0.05130309	-0.001764043	-0.00296149	0.01246678	0.01700998
	0.01836152	0.009348247	-0.001764041	-0.002961493	-0.02563124	-0.0716353	0.6292065	-0.7326488
	-0.00176591	-0.002960351	0.01246678	0.01700997	0.6292065	-0.7326488	-0.04156596	-0.05130725
8e+07	-0.03881894	-0.07611531	0.5349097	-0.800539	0.02144089	0.007025821	-0.002524234	-0.003403799
	0.5349097	-0.800539	-0.05611489	-0.04796901	-0.00252254	-0.003405292	0.01511067	0.01766274
	0.02144089	0.007025821	-0.002522541	-0.003405289	-0.03879776	-0.07605249	0.5348014	-0.8005847
	-0.002524235	-0.003403796	0.01511067	0.01766274	0.5348014	-0.8005847	-0.05602049	-0.04797666
9e+07	-0.05253703	-0.07794865	0.4336328	-0.8563285	0.02389491	0.00385722	-0.003496939	-0.003714665
	0.4336328	-0.8563285	-0.06970584	-0.04103359	-0.003495549	-0.003716441	0.01767723	0.01787949
	0.02389491	0.00385722	-0.003495547	-0.003716431	-0.05250466	-0.07786949	0.4335056	-0.8563782
	-0.003496935	-0.003714657	0.01767723	0.0178795	0.4335056	-0.8563782	-0.06960525	-0.0410465
1e+08	-0.06625548	-0.07716617	0.3270139	-0.8993733	0.02552112	1.697869e-05	-0.004664722	-0.003817284
	0.3270139	-0.8993733	-0.08157877	-0.03080601	-0.004663733	-0.003819221	0.02009295	0.01771357
	0.02552112	1.697856e-05	-0.004663733	-0.003819222	-0.06620667	-0.07707496	0.3268619	-0.8994232
	-0.004664723	-0.003817285	0.02009295	0.01771356	0.3268619	-0.8994232	-0.08147259	-0.03082419
1.1e+08	-0.07947704	-0.07384467	0.2166344	-0.9292593	0.02616723	-0.004292003	-0.005976207	-0.003623025
	0.2166344	-0.9292593	-0.0909485	-0.01781602	-0.005975468	-0.003626584	0.02229225	0.01721623
	0.02616723	-0.004292002	-0.005975469	-0.003626586	-0.07940231	-0.07374526	0.2164572	-0.9293001
	-0.005976207	-0.003623026	0.02229226	0.01721623	0.2164572	-0.9293001	-0.09076967	-0.01783732
1.2e+08	-0.09170929	-0.06815892	0.1040799	-0.9457728	0.02571615	-0.008817766	-0.007344013	-0.003092828
	0.1040799	-0.9457728	-0.09727817	-0.002702598	-0.007344608	-0.003096598	0.02422632	0.01647537
	0.02571615	-0.008817765	-0.007344608	-0.003096599	-0.09161663	-0.06806237	0.1038768	-0.9457994
	-0.007344013	-0.003092829	0.02422632	0.01647537	0.1038768	-0.9457994	-0.09708208	-0.002763302
1.3e+08	-0.102524	-0.06038542	-0.009081806	-0.9488791	0.02412807	-0.013291	-0.008682034	-0.002197319
	-0.009081806	-0.9488791	-0.1001438	0.0137657	-0.00868367	-0.002200356	0.02587682	0.0155678
	0.02412808	-0.013291	-0.008683671	-0.002200357	-0.1024196	-0.06029454	-0.009309918	-0.9488826
	-0.008682034	-0.00219732	0.02587682	0.01556779	-0.009309918	-0.9488826	-0.09995985	0.01367244
1.4e+08	-0.111567	-0.05087146	-0.1213177	-0.9387086	0.0214237	-0.01744158	-0.009890925	-0.0009335193
	-0.1213177	-0.9387086	-0.09932325	0.03074893	-0.00989302	-0.000935521	0.02723918	0.01456884
	0.0214237	-0.01744158	-0.009893021	-0.0009355217	-0.111454	-0.05078612	-0.1215676	-0.9386846
	-0.009890926	-0.00093352	0.02723918	0.01456884	-0.1215676	-0.9386846	-0.099161	0.0306365
1.5e+08	-0.1185689	-0.04001843	-0.2311424	-0.915556	0.01768364	-0.02100913	-0.01087055	0.0006714237
	-0.2311424	-0.915556	-0.09480028	0.04739011	-0.01087264	0.0006703927	0.02832313	0.01354962
	0.01768365	-0.02100913	-0.01087264	0.0006703923	-0.1184484	-0.03993858	-0.2314097	-0.9154981
	-0.01087055	0.0006714233	0.02832313	0.01354962	-0.2314097	-0.9154981	-0.09465921	0.04726814
1.6e+08	-0.1233501	-0.02826311	-0.33713	-0.8798571	0.01304505	-0.02375541	-0.01153002	0.002561349
	-0.33713	-0.8798571	-0.08675456	0.06286082	-0.01153182	0.002561108	0.0291518	0.01257623
	0.01304505	-0.02375541	-0.01153182	0.002561108	-0.1232226	-0.02818952	-0.3374097	-0.8797609
	-0.01153002	0.002561349	0.0291518	0.01257623	-0.3374097	-0.8797609	-0.08663126	0.0627348
1.7e+08	-0.1258231	-0.0160574	-0.43792	-0.832186	0.007696012	-0.02547514	-0.01179629	0.004655041
	-0.43792	-0.832186	-0.07554821	0.07640257	-0.01179764	0.004655351	0.02976048	0.01170778
	0.007696013	-0.02547514	-0.01179764	0.004655351	-0.1256892	-0.01599178	-0.438206	-0.8320479
	-0.01179629	0.00465504	0.02976048	0.01170778	-0.438206	-0.8320479	-0.07543914	0.07627491
1.8e+08	-0.1259908	-0.003851445	-0.5322279	-0.7732462	0.001867764	-0.02600621	-0.01162128	0.006852968
	-0.5322279	-0.7732462	-0.06170262	0.08736525	-0.01162212	0.006853633	0.03019603	0.01099476
	0.001867765	-0.02600621	-0.01162212	0.006853633	-0.1258519	-0.003795615	-0.5325146	-0.7730642
	-0.01162129	0.006852968	0.03019603	0.01099476	-0.5325146	-0.7730642	-0.06160503	0.08723703
1.9e+08	-0.1239411	0.007924879	-0.6188508	-0.7038641	-0.00417453	-0.02523784	-0.01098617	0.009045437
	-0.6188508	-0.7038641	-0.04586948	0.09523757	-0.0109865	0.009046273	0.03051588	0.01047734
	-0.00417453	-0.02523784	-0.0109865	0.009046273	-0.1237999	0.007968973	-0.6191303	-0.7036345
	-0.01098617	0.009045437	0.03051588	0.01047734	-0.6191303	-0.7036345	-0.04578105	0.09510856
2e+08	-0.1198406	0.01887582	-0.6966759	-0.6249804	-0.01014225	-0.02311671	-0.00990313	0.01112192
	-0.6966759	-0.6249804	-0.02879479	0.09967177	-0.009902988	0.0111228	0.03078622	0.01018222
	-0.01014225	-0.02311671	-0.009902988	0.0111228	-0.1197001	0.01890719	-0.6969407	-0.6247038
	-0.009903131	0.01112192	0.03078622	0.01018222	-0.6969407	-0.6247038	-0.02871471	0.09954189
2.1e+08	-0.1139239	0.0286543	-0.7646873	-0.5376528	-0.01573542	-0.01965241	-0.008414113	0.0129804
	-0.7646873	-0.5376528	-0.0112816	0.1005	-0.008413576	0.01298119	0.03108032	0.01012087
	-0.01573542	-0.01965242	-0.008413576	0.01298119	-0.1137877	0.02867277	-0.7649295	-0.5373284
	-0.008414113	0.0129804	0.03108032	0.01012087	-0.7649295	-0.5373284	-0.01120883	0.1003693
2.2e+08	-0.106481	0.03697287	-0.8219822	-0.4430423	-0.02065573	-0.01491963	-0.006586748	0.01453603
	-0.8219822	-0.4430423	0.005854287	0.09774214	-0.006585889	0.01453667	0.03147536	0.01028682
	-0.02065573	-0.01491963	-0.006585889	0.01453667	-0.1063529	0.03697929	-0.8221945	-0.4426724
	-0.006586749	0.01453603	0.03147536	0.01028681	-0.8221945	-0.4426724	0.005920016	0.09761101
2.3e+08	-0.09784404	0.04361188	-0.8677802	-0.3424112	-0.0246198	-0.009058086	-0.004507566	0.01572773
	-0.8677802	-0.3424112	0.02182577	0.09160401	-0.004506476	0.01572816	0.03204686	0.01065319
	-0.0246198	-0.009058086	-0.004506476	0.01572816	-0.0977275	0.04360812	-0.8679544	-0.3419994
	-0.004507567	0.01572773	0.03204686	0.01065319	-0.8679544	-0.3419994	0.02188482	0.09147308
2.4e+08	-0.08837165	0.04842502	-0.9014336	-0.2371148	-0.02737394	-0.002270142	-0.002273643	0.01652283
	-0.9014336	-0.2371148	0.03591618	0.08246538	-0.002272434	0.01652306	0.03286543	0.01117359
	-0.02737394	-0.002270142	-0.002272434	0.01652306	-0.08826957	0.04841378	-0.9015618	-0.2366644
	-0.002273643	0.01652283	0.03286543	0.01117359	-0.9015618	-0.2366644	0.03596945	0.08233521
2.5e+08	-0.07843227	0.05134096	-0.9224511	-0.1285854	-0.0287075	0.005185403	1.705027e-05	0.01691836
	-0.9224511	-0.1285854	0.04751927	0.07086064	1.83233e-05	0.01691842	0.03398956	0.011782
	-0.0287075	0.005185403	1.832323e-05	0.01691842	-0.07834705	0.05132566	-0.9225265	-0.128102
	1.70502e-05	0.01691836	0.03398956	0.011782	-0.9225265	-0.128102	0.04756752	0.07073193
2.6e+08	-0.06838947	0.05236178	-0.9305021	-0.01832189	-0.02846612	0.01300218	0.002275065	0.01693953
	-0.9305021	-0.01832189	0.05616987	0.05744797	0.002276318	0.01693951	0.03546047	0.0123961
	-0.02846612	0.01300218	0.002276318	0.01693951	-0.06832245	0.0523464	-0.9305193	-0.01781344
	0.002275065	0.01693953	0.03546047	0.0123961	-0.9305193	-0.01781344	0.0562144	0.05732173
2.7e+08	-0.05858685	0.05155765	-0.925436	0.09213349	-0.02656194	0.02083848	0.00442808	0.01663431
	-0.925436	0.09213349	0.06157207	0.04297422	0.00442929	0.01663422	0.03729732	0.01292223
	-0.02656194	0.02083848	0.004429289	0.01663422	-0.05853856	0.05154636	-0.9253894	0.09266122
	0.00442808	0.01663431	0.03729732	0.01292223	-0.9253894	0.09266122	0.06161452	0.04285045
2.8e+08	-0.04933487	0.04905861	-0.9072873	0.2012153	-0.02298289	0.02833222	0.006427106	0.0160665
	-0.9072873	0.2012153	0.06361374	0.02823166	0.006428331	0.01606654	0.03949444	0.01326188
	-0.02298289	0.02833222	0.006428331	0.01606654	-0.04930485	0.04905588	-0.9071729	0.2017518
	0.006427106	0.0160665	0.03949444	0.01326188	-0.9071729	0.2017518	0.06365573	0.02811062
2.9e+08	-0.0409016	0.04504389	-0.876286	0.3073596	-0.0177968	0.03511758	0.00824993	0.01530594
	-0.876286	0.3073596	0.06237316	0.01401405	0.008251227	0.01530622	0.04201902	0.01331855
	-0.0177968	0.03511758	0.008251227	0.01530622	-0.04088813	0.04505371	-0.8761023	0.3078968
	0.00824993	0.01530594	0.04201902	0.01331855	-0.8761023	0.3078968	0.06241652	0.01389521
3e+08	-0.03350547	0.03972959	-0.832857	0.409034	-0.01115284	0.04084386	0.009901253	0.0144196
	-0.832857	0.409034	0.0581143	0.001070375	0.009902765	0.0144201	0.0448142	0.01300601
	-0.01115284	0.04084386	0.009902765	0.0144201	-0.03350619	0.03975588	-0.8326017	0.4095622
	0.009901253	0.0144196	0.0448142	0.01300601	-0.8326017	0.4095622	0.05816063	0.0009526625
3.1e+08	-0.02731189	0.03335585	-0.7776148	0.5047609	-0.003277626	0.04519353	0.01140904	0.01346076
	-0.7776148	0.5047609	0.05127006	-0.009937921	0.01141095	0.01346152	0.04780156	0.01225462
	-0.003277626	0.04519353	0.01141095	0.01346152	-0.0273234	0.03340189	-0.7772871	0.5052702
	0.01140904	0.01346076	0.04780156	0.01225462	-0.7772871	0.5052702	0.05132093	-0.01005588
3.2e+08	-0.02243352	0.02617428	-0.7113587	0.5931497	0.005532582	0.04789982	0.01281819	0.01246264
	-0.7113587	0.5931497	0.04241671	-0.01847478	0.01282077	0.01246368	0.05088741	0.0110166
	0.005532582	0.04789982	0.01282077	0.01246368	-0.02245154	0.02624231	-0.7109621	0.593629
	0.01281819	0.01246264	0.05088741	0.0110166	-0.7109621	0.593629	0.04247303	-0.01859473
3.3e+08	-0.01893262	0.01843637	-0.6350633	0.6729154	0.01492391	0.04876223	0.01418136	0.01143276
	-0.6350633	0.6729154	0.032239	-0.02415964	0.0141848	0.01143388	0.05396948	0.009269227
	0.01492391	0.04876223	0.0141848	0.01143388	-0.01895262	0.01852778	-0.6345983	0.6733573
	0.01418136	0.01143276	0.05396948	0.009269227	-0.6345983	0.6733573	0.03230139	-0.02428383
3.4e+08	-0.01682699	0.01038466	-0.5498504	0.7429103	0.0245004	0.047659	0.01554906	0.01035204
	-0.5498504	0.7429103	0.02148932	-0.02678927	0.01555359	0.01035298	0.05694478	0.007015377
	0.0245004	0.047659	0.01555359	0.01035298	-0.01684393	0.01049964	-0.5493228	0.7433047
	0.01554906	0.01035204	0.05694478	0.007015377	-0.5493228	0.7433047	0.02155785	-0.02691977
3.5e+08	-0.01609631	0.002245208	-0.4569814	0.802135	0.03384185	0.04455541	0.01695919	0.009176545
	-0.4569814	0.802135	0.01094329	-0.02634702	0.01696502	0.009177031	0.05971563	0.004281918
	0.03384185	0.04455541	0.01696502	0.009177031	-0.01610524	0.002382884	-0.4563956	0.8024742
	0.01695919	0.009176545	0.05971563	0.004281918	-0.4563956	0.8024742	0.01101757	-0.02648599
3.6e+08	-0.01668975	-0.00577645	-0.3578287	0.8497589	0.04252405	0.03950831	0.01842848	0.0078437
	-0.3578287	0.8497589	0.001354501	-0.02300277	0.0184356	0.007843244	0.06219651	0.001116107
	0.04252405	0.03950831	0.0184356	0.007843244	-0.01668587	-0.005618316	-0.3571908	0.8500337
	0.01842848	0.0078437	0.06219651	0.001116107	-0.3571908	0.8500337	0.001433443	-0.02315226
3.7e+08	-0.01853306	-0.01349696	-0.2538489	0.8851298	0.05013848	0.03266545	0.01994569	0.006280407
	-0.2538489	0.8851298	-0.006589283	-0.01710113	0.01995401	0.00627854	0.06431711	-0.002419335
	0.05013848	0.03266545	0.01995401	0.00627854	-0.01851228	-0.01332159	-0.2531656	0.8853343
	0.01994569	0.006280407	0.06431711	-0.002419335	-0.2531656	0.8853343	-0.006507111	-0.01726285
3.8e+08	-0.02153538	-0.02075607	-0.1465672	0.9077826	0.05631231	0.02426098	0.02146866	0.004413958
	-0.1465672	0.9077826	-0.0123053	-0.009140084	0.02147795	0.004410208	0.06602474	-0.006251219
	0.05631231	0.02426098	0.02147795	0.004410208	-0.02149432	-0.02056783	-0.1458468	0.907909
	0.02146866	0.004413958	0.06602474	-0.006251219	-0.1458468	0.907909	-0.01222166	-0.009315478
3.9e+08	-0.02559398	-0.02741397	-0.0375421	0.9174454	0.06072626	0.01460612	0.02292476	0.002182885
	-0.0375421	0.9174454	-0.01534832	0.0002593746	0.02293454	0.002176817	0.06728472	-0.01030128
	0.06072626	0.01460612	0.02293454	0.002176817	-0.02553041	-0.02721787	-0.03679255	0.9174883
	0.02292476	0.002182885	0.06728472	-0.01030128	-0.03679255	0.9174883	-0.01526518	6.940556e-05
4e+08	-0.03059848	-0.03335033	0.07164932	0.9140374	0.06313049	0.004076455	0.02421524	-0.0004522632
	0.07164932	0.9140374	-0.01543533	0.01038929	0.024225	-0.0004609946	0.06807917	-0.0144903
	0.06313049	0.004076455	0.024225	-0.0004609946	-0.03051133	-0.0331519	0.07241863	0.9139917
	0.02421524	-0.0004522632	0.06807917	-0.0144903	0.07241863	0.9139917	-0.01535478	0.01018422
4.1e+08	-0.03643282	-0.0384605	0.1794411	0.8976707	0.06335709	-0.006903717	0.02522273	-0.003500291
	0.1794411	0.8976707	-0.01246052	0.02049629	0.02523192	-0.003511857	0.06840498	-0.0187408
	0.06335709	-0.006903717	0.02523192	-0.003511857	-0.03632243	-0.03826554	0.180219	0.8975323
	0.02522273	-0.003500291	0.06840498	-0.0187408	0.180219	0.8975323	-0.0123848	0.02027598
4.2e+08	-0.04297573	-0.04265383	0.2842997	0.8686416	0.06132909	-0.01788009	0.02582199	-0.00693355
	0.2842997	0.8686416	-0.006500072	0.02982392	0.02582981	-0.006947992	0.06827218	-0.02297971
	0.06132909	-0.01788009	0.02582981	-0.006947992	-0.04284392	-0.04246807	0.2850762	0.8684076
	0.02582199	-0.00693355	0.06827218	-0.02297971	0.2850762	0.8684076	-0.006431029	0.02958872
4.3e+08	-0.05010163	-0.04585189	0.3847451	0.8274295	0.05706557	-0.02838736	0.02589135	-0.01068547
	0.3847451	0.8274295	0.002193127	0.03765616	0.02589697	-0.01070261	0.06770177	-0.02713911
	0.05706557	-0.02838736	0.02589697	-0.01070261	-0.04995149	-0.04568046	0.3855079	0.8270993
	0.02589135	-0.01068547	0.06770177	-0.02713911	0.3855079	0.8270993	0.002253296	0.03740691
4.4e+08	-0.05767921	-0.04798743	0.4793726	0.774685	0.05068197	-0.03796989	0.02532499	-0.01465223
	0.4793726	0.774685	0.01320391	0.04335735	0.02532793	-0.01467173	0.06672489	-0.03115721
	0.05068197	-0.03796989	0.02532793	-0.01467173	-0.05751519	-0.04783475	0.4801091	0.7742563
	0.02532499	-0.01465223	0.06672489	-0.03115721	0.4801091	0.7742563	0.01325358	0.04309463
4.5e+08	-0.06557089	-0.0490045	0.5668706	0.7112183	0.04238658	-0.04620173	0.02404458	-0.01869815
	0.5668706	0.7112183	0.02597901	0.04640679	0.02404411	-0.01871948	0.06538162	-0.0349784
	0.04238658	-0.04620173	0.02404411	-0.01871948	-0.06539833	-0.04887381	0.5675685	0.7106932
	0.02404458	-0.01869815	0.06538162	-0.0349784	0.5675685	0.7106932	0.02601665	0.04613208
4.6e+08	-0.07363149	-0.048859	0.6460403	0.6379837	0.0324733	-0.05270521	0.02200815	-0.0226646
	0.6460403	0.6379837	0.03985848	0.04642844	0.02200383	-0.02268707	0.06372112	-0.03855512
	0.0324733	-0.05270521	0.02200383	-0.02268707	-0.07345682	-0.04875232	0.6466863	0.6373642
	0.02200815	-0.0226646	0.06372112	-0.03855512	0.6466863	0.6373642	0.03988289	0.0461427
4.7e+08	-0.0817085	-0.0475202	0.7158103	0.5560707	0.02130939	-0.05716841	0.01921639	-0.02638111
	0.7158103	0.5560707	0.05411204	0.04321068	0.01920779	-0.02640387	0.06180078	-0.04184852
	0.02130939	-0.05716841	0.01920779	-0.02640387	-0.0815382	-0.04743784	0.7163932	0.5553624
	0.01921639	-0.02638111	0.06180078	-0.04184852	0.7163932	0.5553624	0.05412233	0.04291593
4.8e+08	-0.08964124	-0.04497259	0.7752517	0.466683	0.009321213	-0.05935865	0.01571476	-0.02967824
	0.7752517	0.466683	0.06797983	0.03671898	0.01570181	-0.02970046	0.05968597	-0.04483171
	0.009321213	-0.05935865	0.01570181	-0.02970046	-0.08948241	-0.04491328	0.775757	0.4658913
	0.01571476	-0.02967824	0.05968597	-0.04483171	0.775757	0.4658913	0.06797514	0.03641628
4.9e+08	-0.09726145	-0.04121866	0.8235923	0.3711178	-0.003023488	-0.05913373	0.01159232	-0.03240098
	0.8235923	0.3711178	0.08071558	0.02709552	0.0115751	-0.03242181	0.05744787	-0.04749162
	-0.003023488	-0.05913373	0.0115751	-0.03242181	-0.09712037	-0.04117936	0.8240077	0.3702513
	0.01159232	-0.03240098	0.05744787	-0.04749162	0.8240077	0.3702513	0.08069532	0.02678665
5e+08	-0.104395	-0.03628084	0.8602171	0.2707489	-0.01523512	-0.05644823	0.006975584	-0.03441994
	0.8602171	0.2707489	0.09162461	0.01465175	0.006954389	-0.03443855	0.05516047	-0.04983203
	-0.01523512	-0.05644823	0.006954389	-0.03443855	-0.1042773	-0.03625692	0.8605326	0.2698178
	0.006975584	-0.03441994	0.05516047	-0.04983203	0.8605326	0.2698178	0.09158888	0.01433846
5.1e+08	-0.1108626	-0.03020454	0.8846882	0.1670037	-0.02682209	-0.0513566	0.002020048	-0.03564146
	0.8846882	0.1670037	0.1001057	-0.000148624	0.001995289	-0.03565718	0.0528967	-0.0518745
	-0.02682209	-0.0513566	0.001995289	-0.03565718	-0.1107729	-0.03019	0.8848925	0.1660205
	0.002020048	-0.03564146	0.0528967	-0.0518745	0.8848925	0.1660205	0.1000543	-0.000464865
5.2e+08	-0.1164835	-0.02306091	0.8967373	0.0613452	-0.03731159	-0.04401137	-0.003101222	-0.03601421
	0.8967373	0.0613452	0.1056799	-0.01671655	-0.003129026	-0.03602636	0.05072352	-0.05365998
	-0.03731159	-0.04401137	-0.003129026	-0.03602636	-0.1164246	-0.02304853	0.8968221	0.0603238
	-0.003101222	-0.03601421	0.05072352	-0.05365998	0.8968221	0.0603238	0.1056129	-0.01703398
