!$
! Info: Touchstone file created by Circ.  Input file=Intel_C2M_200G_5p0in_202208016_staggered.circ
!$
# Hz S RI R 50
0	0.01817557	2.902676e-24	5.762888e-05	7.589883e-23	0.0001011572	2.685755e-22	5.762155e-05	7.576311e-23
	5.762888e-05	7.589883e-23	0.01818864	3.213432e-24	5.763351e-05	7.596625e-23	0.0001007504	2.668958e-22
	0.0001012149	2.687025e-22	5.76335e-05	7.59674e-23	0.01817041	3.022818e-24	5.762408e-05	7.582217e-23
	5.762154e-05	7.576427e-23	0.0001008081	2.670223e-22	5.762408e-05	7.582217e-23	0.01818658	3.045891e-24
1e+07	0.02201285	0.002989797	4.147978e-06	2.335918e-05	0.001424942	0.005459408	8.033671e-06	1.725292e-05
	4.147979e-06	2.335918e-05	0.0219846	0.003377704	2.934784e-06	2.57052e-05	0.001430782	0.005519244
	0.001424942	0.005459408	2.934784e-06	2.57052e-05	0.0219622	0.003428883	4.175707e-06	2.419307e-05
	8.033671e-06	1.725292e-05	0.001430782	0.005519244	4.175707e-06	2.419307e-05	0.02204128	0.003012817
2e+07	0.02557576	0.002623461	8.242144e-06	1.885752e-05	0.003115595	0.01023091	5.416261e-06	1.098305e-05
	8.242151e-06	1.885756e-05	0.02595864	0.003257043	1.751283e-05	2.787186e-05	0.003127771	0.01034918
	0.003115606	0.0102309	1.751283e-05	2.787186e-05	0.02594763	0.003359834	9.05947e-06	2.021509e-05
	5.416261e-06	1.098305e-05	0.003127782	0.01034917	9.05947e-06	2.021509e-05	0.02561863	0.002660181
3e+07	0.02811723	0.0006365172	1.46112e-05	1.663736e-05	0.005604843	0.01469611	3.804558e-06	9.807619e-06
	1.46112e-05	1.663736e-05	0.02880956	0.001279222	3.048177e-05	2.632009e-05	0.005627331	0.01487043
	0.005604817	0.01469614	3.048177e-05	2.632009e-05	0.02880991	0.001438686	1.603976e-05	1.810125e-05
	3.80456e-06	9.807619e-06	0.005627304	0.01487046	1.603977e-05	1.810125e-05	0.02816525	0.0006868189
4e+07	0.02970552	-0.002072692	1.96732e-05	1.377774e-05	0.008889965	0.01859009	4.932804e-06	8.164701e-06
	1.96732e-05	1.377774e-05	0.03064488	-0.001503171	4.069279e-05	2.166151e-05	0.00892568	0.01881687
	0.008889961	0.01859011	4.069279e-05	2.166151e-05	0.03067001	-0.00129171	2.161457e-05	1.520235e-05
	4.932805e-06	8.1647e-06	0.008925677	0.0188169	2.161457e-05	1.520235e-05	0.02976187	-0.002013586
5e+07	0.03050125	-0.005075321	2.361874e-05	1.023312e-05	0.01284306	0.02182628	6.744215e-06	6.101801e-06
	2.361874e-05	1.023312e-05	0.03163896	-0.004629241	4.851851e-05	1.493332e-05	0.01289398	0.02210123
	0.01284306	0.02182629	4.851851e-05	1.493332e-05	0.03169653	-0.004371482	2.601119e-05	1.15229e-05
	6.744215e-06	6.1018e-06	0.01289398	0.02210124	2.601119e-05	1.15229e-05	0.03056452	-0.005009941
6e+07	0.03060093	-0.008161842	2.653739e-05	6.143875e-06	0.01734989	0.02430482	7.938851e-06	3.870876e-06
	2.653739e-05	6.143875e-06	0.03189452	-0.007874982	5.411227e-05	6.762894e-06	0.01741686	0.02462309
	0.0173499	0.02430481	5.411227e-05	6.762895e-06	0.03199092	-0.007577422	2.933487e-05	7.221069e-06
	7.93885e-06	3.870876e-06	0.01741688	0.02462307	2.933487e-05	7.221069e-06	0.03067002	-0.008091288
7e+07	0.03008008	-0.0111626	2.846711e-05	1.641219e-06	0.02227645	0.02594412	8.522172e-06	1.547927e-06
	2.846711e-05	1.641219e-06	0.03149001	-0.01106308	5.755119e-05	-2.393287e-06	0.02235911	0.02630054
	0.02227645	0.02594411	5.755119e-05	-2.393287e-06	0.03163037	-0.01073364	3.162817e-05	2.431942e-06
	8.522172e-06	1.547928e-06	0.02235911	0.02630053	3.162817e-05	2.431942e-06	0.03015455	-0.01108783
8e+07	0.02903424	-0.01393634	2.94054e-05	-3.177849e-06	0.02747782	0.02668516	8.492465e-06	-7.767918e-07
	2.94054e-05	-3.177849e-06	0.03052155	-0.01404887	5.882899e-05	-1.22248e-05	0.02757448	0.02707452
	0.02747782	0.02668516	5.8829e-05	-1.22248e-05	0.03070948	-0.01369638	3.288685e-05	-2.751668e-06
	8.492465e-06	-7.767919e-07	0.02757448	0.02707452	3.288685e-05	-2.751668e-06	0.0291144	-0.01385821
9e+07	0.02758122	-0.01637447	2.928908e-05	-8.284012e-06	0.03280262	0.0264923	7.835635e-06	-3.018423e-06
	2.928908e-05	-8.284012e-06	0.02910386	-0.01672599	5.781581e-05	-2.258446e-05	0.03291032	0.02690971
	0.03280263	0.02649231	5.781581e-05	-2.258446e-05	0.02934062	-0.01635995	3.303887e-05	-8.317037e-06
	7.835635e-06	-3.018423e-06	0.03291032	0.02690971	3.303887e-05	-8.317038e-06	0.02766739	-0.01629421
1e+08	0.0258856	-0.01836907	2.762098e-05	-1.41126e-05	0.0380982	0.025353	6.334355e-06	-5.180983e-06
	2.762098e-05	-1.41126e-05	0.0273781	-0.0190192	5.345476e-05	-3.42128e-05	0.03821273	0.02579421
	0.0380982	0.025353	5.345476e-05	-3.42128e-05	0.02766238	-0.01864923	3.154262e-05	-1.479075e-05
	6.334355e-06	-5.180983e-06	0.03821273	0.02579421	3.154262e-05	-1.479075e-05	0.02597822	-0.01828857
1.1e+08	0.02411369	-0.02017773	2.324478e-05	-1.740304e-05	0.04321817	0.02326444	4.15731e-06	-5.867412e-06
	2.324478e-05	-1.740304e-05	0.02541081	-0.02102341	4.38376e-05	-4.033672e-05	0.04333429	0.02372594
	0.04321817	0.02326444	4.38376e-05	-4.033672e-05	0.02579281	-0.02069053	2.693985e-05	-1.861637e-05
	4.15731e-06	-5.867412e-06	0.04333429	0.02372594	2.693985e-05	-1.861637e-05	0.02426189	-0.02013046
1.2e+08	0.02211026	-0.02161386	1.966362e-05	-1.920849e-05	0.04796688	0.02028907	2.478743e-06	-6.004479e-06
	1.966362e-05	-1.920849e-05	0.02324259	-0.02257404	3.638694e-05	-4.354071e-05	0.04807814	0.02076839
	0.04796687	0.02028906	3.638694e-05	-4.354071e-05	0.02365699	-0.02228585	2.316007e-05	-2.08025e-05
	2.478744e-06	-6.004479e-06	0.04807813	0.02076839	2.316007e-05	-2.08025e-05	0.02225203	-0.02159909
1.3e+08	0.02004246	-0.02263341	1.741346e-05	-1.938371e-05	0.05221745	0.01649104	1.056349e-06	-6.013729e-06
	1.741346e-05	-1.938371e-05	0.02102204	-0.0236716	3.393061e-05	-4.155186e-05	0.0523167	0.01698708
	0.05221745	0.01649104	3.393061e-05	-4.155186e-05	0.02144643	-0.02341195	2.103568e-05	-2.089634e-05
	1.056349e-06	-6.013729e-06	0.0523167	0.01698708	2.103568e-05	-2.089634e-05	0.02016088	-0.0226284
1.4e+08	0.01802106	-0.02325471	1.612695e-05	-1.843075e-05	0.0558456	0.01195562	-1.915323e-07	-5.904385e-06
	1.612695e-05	-1.843075e-05	0.01885722	-0.02434522	3.142061e-05	-3.993081e-05	0.05592522	0.01246874
	0.0558456	0.01195561	3.142061e-05	-3.993081e-05	0.01928947	-0.02410504	1.976605e-05	-1.99809e-05
	-1.915322e-07	-5.904385e-06	0.05592522	0.01246874	1.976605e-05	-1.99809e-05	0.01812081	-0.02324564
1.5e+08	0.0161381	-0.02351755	1.508678e-05	-1.767431e-05	0.05873851	0.006786511	-1.295784e-06	-5.597498e-06
	1.508678e-05	-1.767431e-05	0.01683945	-0.02464052	2.887799e-05	-3.84434e-05	0.05879071	0.007318614
	0.0587385	0.00678651	2.887799e-05	-3.84434e-05	0.0172807	-0.02441941	1.852645e-05	-1.916092e-05
	-1.295783e-06	-5.597498e-06	0.0587907	0.007318613	1.852645e-05	-1.916092e-05	0.01622787	-0.02350129
1.6e+08	0.01446976	-0.02347816	1.405597e-05	-1.697332e-05	0.06079938	0.001103883	-2.199095e-06	-5.18709e-06
	1.405597e-05	-1.697332e-05	0.0150448	-0.02461765	2.636003e-05	-3.700034e-05	0.06081647	0.001658452
	0.06079938	0.001103882	2.636003e-05	-3.700034e-05	0.01549424	-0.02442003	1.744442e-05	-1.850245e-05
	-2.199095e-06	-5.18709e-06	0.06081647	0.001658451	1.744442e-05	-1.850245e-05	0.01455665	-0.02345847
1.7e+08	0.01307644	-0.02320639	1.304735e-05	-1.630289e-05	0.06195023	-0.004958489	-2.862311e-06	-4.808176e-06
	1.304735e-05	-1.630289e-05	0.01353358	-0.02434955	2.390124e-05	-3.55649e-05	0.06192491	-0.00437638
	0.06195023	-0.00495849	2.390124e-05	-3.55649e-05	0.01398674	-0.02418084	1.637503e-05	-1.788975e-05
	-2.862311e-06	-4.808176e-06	0.06192491	-0.00437638	1.637503e-05	-1.788975e-05	0.01316366	-0.0231902
1.8e+08	0.01200046	-0.02278253	1.206339e-05	-1.566361e-05	0.06213406	-0.01125612	-3.179369e-06	-4.144676e-06
	1.206339e-05	-1.566361e-05	0.01234804	-0.02391897	2.15275e-05	-3.410545e-05	0.06205968	-0.01063982
	0.06213406	-0.01125612	2.15275e-05	-3.410545e-05	0.01279734	-0.02378348	1.5319e-05	-1.731911e-05
	-3.179369e-06	-4.144676e-06	0.06205968	-0.01063982	1.5319e-05	-1.731911e-05	0.0120875	-0.02277771
1.9e+08	0.01126543	-0.02229416	1.111984e-05	-1.502229e-05	0.06131663	-0.01763704	-3.399219e-06	-3.441797e-06
	1.111984e-05	-1.502229e-05	0.01151148	-0.02341566	1.927002e-05	-3.258742e-05	0.06118755	-0.01697845
	0.06131663	-0.01763704	1.927002e-05	-3.258742e-05	0.01194721	-0.02331524	1.429225e-05	-1.675333e-05
	-3.399219e-06	-3.441797e-06	0.06118755	-0.01697845	1.429225e-05	-1.675333e-05	0.01134833	-0.022308
2e+08	0.01087435	-0.0218321	1.02266e-05	-1.436996e-05	0.05948707	-0.02394549	-3.55223e-06	-2.733499e-06
	1.02266e-05	-1.436996e-05	0.01102657	-0.0229322	1.714991e-05	-3.100486e-05	0.05929887	-0.02323518
	0.05948707	-0.02394549	1.714991e-05	-3.100486e-05	0.01143871	-0.02286587	1.330412e-05	-1.618053e-05
	-3.552229e-06	-2.733499e-06	0.05929887	-0.02323518	1.330412e-05	-1.618053e-05	0.01094735	-0.02187063
2.1e+08	0.01081018	-0.02148543	9.389765e-06	-1.370461e-05	0.05665812	-0.03002517	-3.634488e-06	-2.02582e-06
	9.389765e-06	-1.370461e-05	0.01087567	-0.02255927	1.518332e-05	-2.935911e-05	0.0564079	-0.02925258
	0.05665812	-0.03002517	1.518332e-05	-2.935911e-05	0.01125408	-0.02252347	1.236069e-05	-1.559598e-05
	-3.634488e-06	-2.02582e-06	0.0564079	-0.02925258	1.236069e-05	-1.559598e-05	0.01086527	-0.02155334
2.2e+08	0.01103578	-0.02133877	8.614606e-06	-1.302627e-05	0.05286598	-0.03572289	-3.643686e-06	-1.325818e-06
	8.614606e-06	-1.302627e-05	0.01102092	-0.02238281	1.338379e-05	-2.76561e-05	0.05255256	-0.03487661
	0.05286598	-0.03572289	1.338379e-05	-2.76561e-05	0.01135681	-0.02237107	1.146739e-05	-1.499722e-05
	-3.643686e-06	-1.325818e-06	0.05255256	-0.03487661	1.146739e-05	-1.499722e-05	0.01106394	-0.02143862
2.3e+08	0.01149595	-0.02146738	7.905147e-06	-1.233684e-05	0.04816973	-0.04089228	-3.579066e-06	-6.411845e-07
	7.905147e-06	-1.233684e-05	0.01140628	-0.02247909	1.176181e-05	-2.590551e-05	0.04779385	-0.03996025
	0.04816973	-0.04089228	1.176181e-05	-2.590551e-05	0.01169286	-0.02248335	1.062864e-05	-1.438374e-05
	-3.579066e-06	-6.411845e-07	0.04779385	-0.03996025	1.062864e-05	-1.438374e-05	0.01148756	-0.02160033
2.4e+08	0.01211933	-0.02193387	7.264404e-06	-1.163952e-05	0.04265	-0.04539648	-3.44129e-06	2.005487e-08
	7.264404e-06	-1.163952e-05	0.01195946	-0.02291142	1.032516e-05	-2.411979e-05	0.04221451	-0.04436634
	0.04265	-0.04539648	1.032516e-05	-2.411979e-05	0.01219158	-0.02292216	9.848199e-06	-1.375661e-05
	-3.44129e-06	2.005487e-08	0.0422145	-0.04436634	9.848199e-06	-1.375661e-05	0.01206369	-0.02209916
2.5e+08	0.01282083	-0.022785	6.694317e-06	-1.09385e-05	0.03640726	-0.04911154	-3.232403e-06	6.498344e-07
	6.694317e-06	-1.09385e-05	0.01259436	-0.02372704	9.07891e-06	-2.231338e-05	0.03591712	-0.04797096
	0.03640726	-0.04911154	9.07891e-06	-2.231338e-05	0.01276964	-0.02373417	9.128946e-06	-1.311799e-05
	-3.232403e-06	6.498344e-07	0.03591712	-0.04797096	9.128946e-06	-1.311799e-05	0.01270733	-0.02298027
2.6e+08	0.01350538	-0.02404948	6.195894e-06	-1.023861e-05	0.02955999	-0.05192957	-2.955734e-06	1.240288e-06
	6.195894e-06	-1.023861e-05	0.01321494	-0.02495477	8.025588e-06	-2.050208e-05	0.02902245	-0.05066665
	0.02955999	-0.05192957	8.025588e-06	-2.050208e-05	0.01333287	-0.02494803	8.473072e-06	-1.247095e-05
	-2.955734e-06	1.240288e-06	0.02902245	-0.05066665	8.473072e-06	-1.247095e-05	0.01332273	-0.02427041
2.7e+08	0.01407122	-0.02573602	5.769183e-06	-9.545114e-06	0.02224202	-0.05376028	-2.615766e-06	1.783926e-06
	5.769183e-06	-9.545114e-06	0.0137185	-0.02660316	7.16514e-06	-1.87025e-05	0.02166651	-0.05236389
	0.02224202	-0.05376028	7.16514e-06	-1.87025e-05	0.01378089	-0.02657269	7.882034e-06	-1.181922e-05
	-2.615766e-06	1.783926e-06	0.02166651	-0.05236389	7.882034e-06	-1.181922e-05	0.01380823	-0.02597626
2.8e+08	0.01441386	-0.02783148	5.413441e-06	-8.863547e-06	0.01459979	-0.05453401	-2.218048e-06	2.273831e-06
	5.413441e-06	-8.863547e-06	0.01399974	-0.02865866	6.495208e-06	-1.69318e-05	0.01399787	-0.05299426
	0.01459979	-0.05453401	6.495208e-06	-1.69318e-05	0.01401073	-0.02859555	7.356684e-06	-1.116707e-05
	-2.218048e-06	2.273831e-06	0.01399787	-0.05299426	7.356684e-06	-1.116707e-05	0.01405991	-0.02808267
2.9e+08	0.01443058	-0.03030129	5.127083e-06	-8.19952e-06	0.006789374	-0.0542033	-1.769063e-06	2.7038e-06
	5.127083e-06	-8.19952e-06	0.01395532	-0.03108597	6.011065e-06	-1.520708e-05	0.006174629	-0.05251185
	0.006789374	-0.0542033	6.011065e-06	-1.520708e-05	0.0139203	-0.03098251	6.89722e-06	-1.051912e-05
	-1.769063e-06	2.7038e-06	0.006174629	-0.05251185	6.89722e-06	-1.051912e-05	0.01397518	-0.03055271
3e+08	0.01402443	-0.03308918	4.907798e-06	-7.558601e-06	-0.001026843	-0.05274353	-1.276067e-06	3.068437e-06
	4.907798e-06	-7.558601e-06	0.01348787	-0.03382791	5.705754e-06	-1.354517e-05	-0.001639091	-0.050894
	-0.001026843	-0.05274353	5.705754e-06	-1.354517e-05	0.01341368	-0.03367822	6.503189e-06	-9.880226e-06
	-1.276067e-06	3.068437e-06	-0.001639091	-0.050894	6.503189e-06	-9.880226e-06	0.01345812	-0.03332795
3.1e+08	0.01310844	-0.03611856	4.752607e-06	-6.94621e-06	-0.008683838	-0.05015453	-7.469747e-07	3.363288e-06
	4.752607e-06	-6.94621e-06	0.01251037	-0.0368068	5.570301e-06	-1.196229e-05	-0.009276814	-0.04814283
	-0.008683838	-0.05015453	5.570301e-06	-1.196229e-05	0.0124043	-0.03660655	6.173573e-06	-9.255482e-06
	-7.469747e-07	3.363288e-06	-0.009276814	-0.04814283	6.173573e-06	-9.255482e-06	0.01242275	-0.03632914
3.2e+08	0.0116092	-0.03929396	4.657918e-06	-6.367563e-06	-0.01601742	-0.04646039	-1.902051e-07	3.584872e-06
	4.657918e-06	-6.367563e-06	0.0109496	-0.03992597	5.593706e-06	-1.047371e-05	-0.01657326	-0.04428505
	-0.01601742	-0.04646039	5.593706e-06	-1.047371e-05	0.0108203	-0.03967282	5.906699e-06	-8.650044e-06
	-1.902051e-07	3.584872e-06	-0.01657326	-0.04428505	5.906699e-06	-8.650044e-06	0.01079837	-0.03945852
3.3e+08	0.009471037	-0.042504	4.619563e-06	-5.827592e-06	-0.0228676	-0.04170897	3.854624e-07	3.730697e-06
	4.619563e-06	-5.827592e-06	0.008750578	-0.04307283	5.763237e-06	-9.093662e-06	-0.02336769	-0.03937132
	-0.0228676	-0.04170897	5.763237e-06	-9.093662e-06	0.008606211	-0.0427662	5.700319e-06	-8.069106e-06
	3.854624e-07	3.730697e-06	-0.02336769	-0.03937132	5.700319e-06	-8.069106e-06	0.008531346	-0.04260229
3.4e+08	0.006659139	-0.045624	4.632843e-06	-5.330923e-06	-0.02908277	-0.03597153	9.710145e-07	3.79936e-06
	4.632843e-06	-5.330923e-06	0.005879454	-0.04612159	6.064483e-06	-7.834908e-06	-0.02950836	-0.03347591
	-0.02908277	-0.03597153	6.064483e-06	-7.834908e-06	0.005728107	-0.04576332	5.551557e-06	-7.517832e-06
	9.710145e-07	3.79936e-06	-0.02950836	-0.03347591	5.551557e-06	-7.517832e-06	0.005590222	-0.04563436
3.5e+08	0.003161891	-0.0485205	4.692568e-06	-4.881795e-06	-0.03452231	-0.02934087	1.55733e-06	3.790454e-06
	4.692568e-06	-4.881795e-06	0.00232604	-0.04893781	6.481617e-06	-6.708728e-06	-0.03485482	-0.02669468
	-0.03452231	-0.02934087	6.481617e-06	-6.708728e-06	0.002174536	-0.04853106	5.456931e-06	-7.001291e-06
	1.55733e-06	3.790454e-06	-0.03485482	-0.02669468	5.456931e-06	-7.001291e-06	0.001966564	-0.04841937
3.6e+08	-0.001007302	-0.05105496	4.793074e-06	-4.484032e-06	-0.03906024	-0.02192994	2.135303e-06	3.704655e-06
	4.793074e-06	-4.484032e-06	-0.001894547	-0.05138226	6.997544e-06	-5.724601e-06	-0.03928195	-0.0191436
	-0.03906024	-0.02192994	6.997544e-06	-5.724601e-06	-0.002040066	-0.05093206	5.412296e-06	-6.524352e-06
	2.135303e-06	3.704655e-06	-0.03928195	-0.0191436	5.412296e-06	-6.524352e-06	-0.002321667	-0.05081826
3.7e+08	-0.005808479	-0.05308915	4.928249e-06	-4.141004e-06	-0.04258817	-0.01386882	2.695971e-06	3.543636e-06
	4.928249e-06	-4.141004e-06	-0.006740274	-0.05331634	7.594156e-06	-4.890127e-06	-0.04268263	-0.01095575
	-0.04258817	-0.01386882	7.594156e-06	-4.890127e-06	-0.006875355	-0.05282905	5.412879e-06	-6.091631e-06
	2.695971e-06	3.543636e-06	-0.04268263	-0.01095575	5.412879e-06	-6.091631e-06	-0.007230162	-0.05269268
3.8e+08	-0.01117554	-0.0544892	5.091545e-06	-3.855558e-06	-0.04501685	-0.005302291	3.230581e-06	3.310049e-06
	5.091545e-06	-3.855558e-06	-0.01214278	-0.05460635	8.25254e-06	-4.210941e-06	-0.04496941	-0.002278657
	-0.04501685	-0.005302291	8.25254e-06	-4.210941e-06	-0.01226495	-0.0540889	5.453261e-06	-5.707395e-06
	3.230581e-06	3.310049e-06	-0.04496941	-0.002278657	5.453261e-06	-5.707395e-06	-0.01268829	-0.05390918
3.9e+08	-0.01701583	-0.05513043	5.275991e-06	-3.629972e-06	-0.04627931	0.003612937	3.730699e-06	3.00756e-06
	5.275991e-06	-3.629972e-06	-0.018007	-0.05512814	8.953112e-06	-3.69051e-06	-0.04607754	0.006728449
	-0.04627931	0.003612937	8.953112e-06	-3.69051e-06	-0.01811552	-0.05458886	5.527329e-06	-5.375435e-06
	3.730699e-06	3.00756e-06	-0.04607754	0.006728449	5.527329e-06	-5.375435e-06	-0.01859837	-0.05434562
4e+08	-0.02321277	-0.05490318	5.474221e-06	-3.465861e-06	-0.04633115	0.0127124	4.188317e-06	2.640726e-06
	5.474221e-06	-3.465861e-06	-0.02421398	-0.05477328	9.676013e-06	-3.330143e-06	-0.04596528	0.01589897
	-0.04633115	0.0127124	9.676013e-06	-3.330143e-06	-0.02431086	-0.05422002	5.628421e-06	-5.098956e-06
	4.188317e-06	2.640726e-06	-0.04596528	0.01589897	5.628421e-06	-5.098956e-06	-0.02483984	-0.05389441
4.1e+08	-0.02962844	-0.05371708	5.678706e-06	-3.363761e-06	-0.04515186	0.02182653	4.595783e-06	2.215007e-06
	5.678706e-06	-3.363761e-06	-0.03062331	-0.05345311	1.040278e-05	-3.128014e-06	-0.04461511	0.0250616
	-0.04515186	0.02182653	1.040278e-05	-3.128014e-06	-0.03071241	-0.05289319	5.750705e-06	-4.879412e-06
	4.595783e-06	2.215007e-06	-0.04461511	0.0250616	5.750705e-06	-4.879412e-06	-0.03127015	-0.05246859
4.2e+08	-0.03610511	-0.05150395	5.881328e-06	-3.323938e-06	-0.04274559	0.03078485	4.946254e-06	1.736822e-06
	5.881328e-06	-3.323938e-06	-0.03707531	-0.05110182	1.111366e-05	-3.081448e-06	-0.04203447	0.03404455
	-0.04274559	0.03078485	1.111366e-05	-3.081448e-06	-0.03716253	-0.05054178	5.886525e-06	-4.719099e-06
	4.946254e-06	1.736822e-06	-0.04203447	0.03404455	5.886525e-06	-4.719099e-06	-0.03772786	-0.05000463
4.3e+08	-0.0424714	-0.04822281	6.073829e-06	-3.345661e-06	-0.03913997	0.0394193	5.233682e-06	1.213324e-06
	6.073829e-06	-3.345661e-06	-0.04339705	-0.04768112	1.178807e-05	-3.185898e-06	-0.03825443	0.04267899
	-0.03913997	0.0394193	1.178807e-05	-3.185898e-06	-0.04349055	-0.047126	6.026506e-06	-4.619863e-06
	5.233682e-06	1.213324e-06	-0.03825443	0.04267899	6.026506e-06	-4.619863e-06	-0.04403889	-0.04646666
4.4e+08	-0.04854622	-0.04386165	6.247924e-06	-3.426986e-06	-0.03438603	0.04756727	5.452692e-06	6.524375e-07
	6.247924e-06	-3.426986e-06	-0.04940622	-0.04318221	1.240721e-05	-3.433666e-06	-0.03332964	0.05080203
	-0.03438603	0.04756727	1.240721e-05	-3.433666e-06	-0.0495153	-0.04263509	6.162062e-06	-4.581448e-06
	5.452692e-06	6.524375e-07	-0.03332964	0.05080203	6.162062e-06	-4.581448e-06	-0.05001957	-0.04184843
4.5e+08	-0.05414257	-0.03843968	6.395342e-06	-3.564894e-06	-0.02855695	0.05507532	5.598822e-06	6.277293e-08
	6.395342e-06	-3.564894e-06	-0.05491519	-0.03762782	1.295314e-05	-3.814843e-06	-0.02733689	0.05826048
	-0.02855695	0.05507532	1.295314e-05	-3.814843e-06	-0.05505045	-0.03708953	6.28445e-06	-4.602461e-06
	5.598822e-06	6.277293e-08	-0.02733689	0.05826048	6.28445e-06	-4.602461e-06	-0.05548187	-0.0361755
4.6e+08	-0.05907427	-0.03200806	6.508033e-06	-3.755214e-06	-0.02174603	0.06180173	5.668632e-06	-5.464544e-07
	6.508033e-06	-3.755214e-06	-0.05973773	-0.03107288	1.340922e-05	-4.317393e-06	-0.02037311	0.06491335
	-0.02174603	0.06180173	1.340922e-05	-4.317393e-06	-0.0599111	-0.03054161	6.384983e-06	-4.68025e-06
	5.668632e-06	-5.464544e-07	-0.02037311	0.06491335	6.384983e-06	-4.68025e-06	-0.06024006	-0.02950561
4.7e+08	-0.06316258	-0.02465079	6.578399e-06	-3.992549e-06	-0.01406486	0.0676195	5.65982e-06	-1.165541e-06
	6.578399e-06	-3.992549e-06	-0.06369585	-0.02360522	1.376031e-05	-4.927181e-06	-0.01255337	0.070635
	-0.01406486	0.0676195	1.376031e-05	-4.927181e-06	-0.0639182	-0.02307622	6.455193e-06	-4.810883e-06
	5.65982e-06	-1.165541e-06	-0.01255337	0.070635	6.455193e-06	-4.810883e-06	-0.06411531	-0.02192929
4.8e+08	-0.06623883	-0.01648172	6.599414e-06	-4.270394e-06	-0.00564122	0.07241797	5.571287e-06	-1.784401e-06
	6.599414e-06	-4.270394e-06	-0.06662218	-0.0153425	1.399299e-05	-5.628291e-06	-0.004008784	0.07531647
	-0.00564122	0.07241797	1.399299e-05	-5.628291e-06	-0.0669049	-0.01480902	6.487082e-06	-4.98914e-06
