!$
! Info: Touchstone file created by Circ.  Input file=Intel_C2M_200G_5p0in_202208016_staggered.circ
!$
# Hz S RI R 50
0	0.01817551	3.030325e-24	5.790855e-05	7.605051e-23	0.0001011349	2.684774e-22	5.784244e-05	7.591024e-23
	5.790855e-05	7.605051e-23	0.01818864	3.213432e-24	5.78913e-05	7.600431e-23	0.0001007504	2.668958e-22
	0.0001011926	2.686044e-22	5.789129e-05	7.600546e-23	0.01817035	2.903427e-24	5.785548e-05	7.586659e-23
	5.784243e-05	7.59114e-23	0.0001008081	2.670223e-22	5.785548e-05	7.586659e-23	0.01818658	3.045891e-24
1e+07	0.0225308	0.00324936	4.660937e-05	4.058672e-06	0.001184564	0.005394878	2.089582e-06	1.049329e-05
	4.660937e-05	4.058673e-06	0.0219846	0.003377704	5.30543e-05	1.957241e-05	0.001430782	0.005519244
	0.001184564	0.005394878	5.30543e-05	1.957241e-05	0.02271695	0.003064732	2.120044e-05	1.069759e-05
	2.089582e-06	1.049329e-05	0.001430782	0.005519244	2.120044e-05	1.069759e-05	0.02204128	0.003012817
2e+07	0.02625002	0.002847195	3.174232e-05	2.813714e-05	0.002858629	0.01021706	1.92267e-05	2.483253e-05
	3.174232e-05	2.813714e-05	0.02595864	0.003257043	4.75728e-05	5.556865e-06	0.003127771	0.01034918
	0.002858639	0.01021705	4.75728e-05	5.556865e-06	0.02617738	0.002500612	1.299457e-05	1.594432e-05
	1.92267e-05	2.483253e-05	0.003127782	0.01034917	1.299457e-05	1.594432e-05	0.02561863	0.002660181
3e+07	0.02890413	0.0007983303	2.622223e-05	3.795195e-05	0.005337767	0.0147131	3.271635e-05	2.724855e-05
	2.622223e-05	3.795195e-05	0.02880956	0.001279222	4.499529e-05	5.276231e-06	0.005627331	0.01487043
	0.005337741	0.01471314	4.499528e-05	5.276234e-06	0.02863272	0.0004666577	7.948272e-06	2.185801e-05
	3.271636e-05	2.724855e-05	0.005627304	0.01487046	7.948271e-06	2.185801e-05	0.02816525	0.0006868189
4e+07	0.03057416	-0.001995553	2.197332e-05	4.227261e-05	0.008618345	0.01863706	4.404964e-05	2.596835e-05
	2.197332e-05	4.227261e-05	0.03064488	-0.001503171	4.421947e-05	8.814256e-06	0.00892568	0.01881687
	0.008618341	0.01863708	4.421947e-05	8.814256e-06	0.03015177	-0.002258106	1.295065e-05	2.349319e-05
	4.404964e-05	2.596835e-05	0.008925677	0.0188169	1.295065e-05	2.349319e-05	0.02976187	-0.002013586
5e+07	0.03142499	-0.005098237	2.858229e-05	4.091243e-05	0.0125721	0.02190331	5.367831e-05	2.225351e-05
	2.858229e-05	4.091243e-05	0.03163896	-0.004629241	4.728291e-05	7.756233e-06	0.01289398	0.02210123
	0.01257211	0.02190332	4.728291e-05	7.756233e-06	0.03088657	-0.005259728	2.010786e-05	2.192799e-05
	5.367831e-05	2.225351e-05	0.01289398	0.02210124	2.010786e-05	2.192799e-05	0.03056452	-0.005009941
6e+07	0.03155501	-0.008294869	3.971153e-05	3.522282e-05	0.01708459	0.02441166	6.155224e-05	1.651351e-05
	3.971153e-05	3.522282e-05	0.03189452	-0.007874982	4.930981e-05	5.340046e-06	0.01741686	0.02462309
	0.0170846	0.02441165	4.930981e-05	5.340046e-06	0.03093187	-0.008333611	2.608229e-05	1.888044e-05
	6.155224e-05	1.651351e-05	0.01741688	0.02462307	2.608229e-05	1.888044e-05	0.03067002	-0.008091288
7e+07	0.03104068	-0.01141191	4.847499e-05	2.753686e-05	0.02202162	0.02607997	6.779985e-05	9.284872e-06
	4.847499e-05	2.753686e-05	0.03149001	-0.01106308	5.026681e-05	2.189298e-06	0.02235911	0.02630054
	0.02202162	0.02607996	5.026681e-05	2.189298e-06	0.03036262	-0.0113129	3.083602e-05	1.476221e-05
	6.779985e-05	9.284871e-06	0.02235911	0.02630053	3.083602e-05	1.476221e-05	0.03015455	-0.01108783
8e+07	0.02997773	-0.01430536	5.485502e-05	1.831295e-05	0.02723821	0.02684873	7.238652e-05	8.014132e-07
	5.485502e-05	1.831295e-05	0.03052155	-0.01404887	5.009227e-05	-1.292037e-06	0.02757448	0.02707452
	0.02723821	0.02684873	5.009227e-05	-1.292037e-06	0.02927429	-0.01405736	3.434273e-05	9.800808e-06
	7.238652e-05	8.014132e-07	0.02757448	0.02707452	3.434273e-05	9.800808e-06	0.0291144	-0.01385821
9e+07	0.02848259	-0.01686577	5.867831e-05	7.747357e-06	0.03258305	0.02668194	7.515207e-05	-8.923374e-06
	5.867831e-05	7.747357e-06	0.02910386	-0.01672599	4.873156e-05	-4.725707e-06	0.03291032	0.02690971
	0.03258306	0.02668195	4.873156e-05	-4.725707e-06	0.02778452	-0.01645826	3.650089e-05	4.102828e-06
	7.515207e-05	-8.923374e-06	0.03291032	0.02690971	3.650089e-05	4.102829e-06	0.02766739	-0.01629421
1e+08	0.02670753	-0.01899521	5.869166e-05	-5.251328e-06	0.03790527	0.0255681	7.50755e-05	-2.104577e-05
	5.869166e-05	-5.251328e-06	0.0273781	-0.0190192	4.57624e-05	-7.65269e-06	0.03821273	0.02579421
	0.03790527	0.0255681	4.57624e-05	-7.652689e-06	0.02605999	-0.01840121	3.663146e-05	-2.832712e-06
	7.50755e-05	-2.104577e-05	0.03821273	0.02579421	3.663146e-05	-2.832712e-06	0.02597822	-0.01828857
1.1e+08	0.02479459	-0.02087048	5.230151e-05	-1.235751e-05	0.04306015	0.02349129	6.891813e-05	-2.88064e-05
	5.230151e-05	-1.235751e-05	0.02541081	-0.02102341	4.276937e-05	-7.995546e-06	0.04333429	0.02372594
	0.04306015	0.02349129	4.276937e-05	-7.995546e-06	0.02434249	-0.02019794	3.333002e-05	-6.711869e-06
	6.891813e-05	-2.88064e-05	0.04333429	0.02372594	3.333002e-05	-6.711869e-06	0.02426189	-0.02013046
1.2e+08	0.02267284	-0.02233348	4.80097e-05	-1.647152e-05	0.04783911	0.02052041	6.563524e-05	-3.208393e-05
	4.80097e-05	-1.647152e-05	0.02324259	-0.02257404	4.078096e-05	-8.091369e-06	0.04807814	0.02076839
	0.04783911	0.0205204	4.078096e-05	-8.091369e-06	0.02233094	-0.02163385	3.112289e-05	-9.100777e-06
	6.563524e-05	-3.208393e-05	0.04807813	0.02076839	3.112289e-05	-9.100777e-06	0.02225203	-0.02159909
1.3e+08	0.02049858	-0.02335897	4.512523e-05	-1.985715e-05	0.05211722	0.01672248	6.588103e-05	-3.093551e-05
	4.512523e-05	-1.985715e-05	0.02102204	-0.0236716	3.927478e-05	-8.055514e-06	0.0523167	0.01698708
	0.05211722	0.01672247	3.927478e-05	-8.055514e-06	0.02023861	-0.02263462	2.935386e-05	-1.113619e-05
	6.588103e-05	-3.093551e-05	0.0523167	0.01698708	2.935386e-05	-1.113619e-05	0.02016088	-0.0226284
1.4e+08	0.01838122	-0.02397072	4.326992e-05	-2.295251e-05	0.05577042	0.01218375	6.610605e-05	-3.060624e-05
	4.326992e-05	-2.295251e-05	0.01885722	-0.02434522	3.81591e-05	-7.976593e-06	0.05592522	0.01246874
	0.05577041	0.01218374	3.81591e-05	-7.976593e-06	0.01819787	-0.02322551	2.782471e-05	-1.280811e-05
	6.610605e-05	-3.060624e-05	0.05592522	0.01246874	2.782471e-05	-1.280811e-05	0.01812081	-0.02324564
1.5e+08	0.01641256	-0.02421191	4.155473e-05	-2.577887e-05	0.05868588	0.007008588	6.631789e-05	-3.102114e-05
	4.155473e-05	-2.577887e-05	0.01683945	-0.02464052	3.737057e-05	-8.020724e-06	0.05879071	0.007318614
	0.05868588	0.007008587	3.737057e-05	-8.020724e-06	0.01630476	-0.02345599	2.76242e-05	-1.310873e-05
	6.631789e-05	-3.102114e-05	0.0587907	0.007318613	2.76242e-05	-1.310873e-05	0.01622787	-0.02350129
1.6e+08	0.01466879	-0.02414137	3.994044e-05	-2.847014e-05	0.06076679	0.001317683	6.648522e-05	-3.203204e-05
	3.994044e-05	-2.847014e-05	0.0150448	-0.02461765	3.685251e-05	-8.188419e-06	0.06081647	0.001658452
	0.06076679	0.001317682	3.685251e-05	-8.188419e-06	0.01463388	-0.02338835	2.782847e-05	-1.328123e-05
	6.648522e-05	-3.203204e-05	0.06081647	0.001658451	2.782847e-05	-1.328123e-05	0.01455665	-0.02345847
1.7e+08	0.01321036	-0.02383117	3.943429e-05	-3.026287e-05	0.06193514	-0.004754716	6.653889e-05	-3.365117e-05
	3.943429e-05	-3.026287e-05	0.01353358	-0.02434955	3.678508e-05	-8.944658e-06	0.06192491	-0.00437638
	0.06193514	-0.004754717	3.678508e-05	-8.944658e-06	0.01324192	-0.023095	2.812301e-05	-1.382912e-05
	6.653889e-05	-3.365117e-05	0.06192491	-0.00437638	2.812301e-05	-1.382912e-05	0.01316366	-0.0231902
1.8e+08	0.01207955	-0.02336355	3.984758e-05	-3.159765e-05	0.0621339	-0.01106368	6.640331e-05	-3.583201e-05
	3.984758e-05	-3.159765e-05	0.01234804	-0.02391897	3.683356e-05	-1.023931e-05	0.06205968	-0.01063982
	0.0621339	-0.01106368	3.683356e-05	-1.023931e-05	0.01216773	-0.02265662	2.844194e-05	-1.479857e-05
	6.640331e-05	-3.583201e-05	0.06205968	-0.01063982	2.844194e-05	-1.479857e-05	0.0120875	-0.02277771
1.9e+08	0.01129976	-0.02282788	4.007386e-05	-3.34122e-05	0.06132886	-0.01745685	6.604715e-05	-3.845977e-05
	4.007386e-05	-3.34122e-05	0.01151148	-0.02341566	3.676798e-05	-1.17694e-05	0.06118755	-0.01697845
	0.06132886	-0.01745685	3.676798e-05	-1.17694e-05	0.01143196	-0.02215977	2.862685e-05	-1.603979e-05
	6.604715e-05	-3.845977e-05	0.06118755	-0.01697845	2.862685e-05	-1.603979e-05	0.01134833	-0.022308
2e+08	0.01087372	-0.02231657	4.005198e-05	-3.568572e-05	0.0595092	-0.02377809	6.54072e-05	-4.150613e-05
	4.005198e-05	-3.568572e-05	0.01102657	-0.0229322	3.655174e-05	-1.353487e-05	0.05929887	-0.02323518
	0.0595092	-0.02377809	3.655174e-05	-1.353487e-05	0.01103638	-0.02169376	2.864526e-05	-1.753742e-05
	6.54072e-05	-4.150613e-05	0.05929887	-0.02323518	2.864526e-05	-1.753742e-05	0.01094735	-0.02187063
2.1e+08	0.01078388	-0.02192021	3.970814e-05	-3.839447e-05	0.05668773	-0.02987074	6.441475e-05	-4.493718e-05
	3.970814e-05	-3.839447e-05	0.01087567	-0.02255927	3.613841e-05	-1.553358e-05	0.0564079	-0.02925258
	0.05668773	-0.02987074	3.613841e-05	-1.553358e-05	0.01096242	-0.02134615	2.846132e-05	-1.92747e-05
	6.441475e-05	-4.493718e-05	0.0564079	-0.02925258	2.846132e-05	-1.92747e-05	0.01086527	-0.02155334
2.2e+08	0.01099255	-0.02172477	3.896527e-05	-4.150363e-05	0.05290077	-0.0355813	6.29992e-05	-4.871048e-05
	3.896527e-05	-4.150363e-05	0.01102092	-0.02238281	3.548097e-05	-1.775374e-05	0.05255256	-0.03487661
	0.05290077	-0.0355813	3.548097e-05	-1.775374e-05	0.01117275	-0.02119953	2.80366e-05	-2.123149e-05
	6.29992e-05	-4.871048e-05	0.05255256	-0.03487661	2.80366e-05	-2.123149e-05	0.01106394	-0.02143862
2.3e+08	0.01144382	-0.02180673	3.774355e-05	-4.496679e-05	0.04820754	-0.04076309	6.108845e-05	-5.277458e-05
	3.774355e-05	-4.496679e-05	0.01140628	-0.02247909	3.452822e-05	-2.017791e-05	0.04779385	-0.03996025
	0.04820754	-0.04076309	3.452822e-05	-2.017791e-05	0.01161246	-0.02132806	2.733157e-05	-2.338216e-05
	6.108845e-05	-5.277458e-05	0.04779385	-0.03996025	2.733157e-05	-2.338216e-05	0.01148756	-0.02160033
2.4e+08	0.01206549	-0.02222973	3.596357e-05	-4.872375e-05	0.04268885	-0.04527896	5.861425e-05	-5.706437e-05
	3.596357e-05	-4.872375e-05	0.01195946	-0.02291142	3.322988e-05	-2.277788e-05	0.04221451	-0.04436634
	0.04268885	-0.04527896	3.322988e-05	-2.277788e-05	0.01220998	-0.02179299	2.630644e-05	-2.569669e-05
	5.861425e-05	-5.706437e-05	0.0422145	-0.04436634	2.630644e-05	-2.569669e-05	0.01206369	-0.02209916
2.5e+08	0.01277152	-0.02304143	3.354941e-05	-5.269969e-05	0.03644535	-0.04900473	5.551257e-05	-6.150316e-05
	3.354941e-05	-5.269969e-05	0.01259436	-0.02372704	3.153545e-05	-2.551713e-05	0.03591712	-0.04797096
	0.03644535	-0.04900473	3.153545e-05	-2.551713e-05	0.01288115	-0.02264029	2.492308e-05	-2.813746e-05
	5.551257e-05	-6.150316e-05	0.03591712	-0.04797096	2.492308e-05	-2.813746e-05	0.01270733	-0.02298027
2.6e+08	0.01346584	-0.02427128	3.043188e-05	-5.680429e-05	0.02959577	-0.0518323	5.172723e-05	-6.60016e-05
	3.043188e-05	-5.680429e-05	0.01321494	-0.02495477	2.939765e-05	-2.834935e-05	0.02902245	-0.05066665
	0.02959577	-0.0518323	2.939765e-05	-2.834935e-05	0.01353092	-0.02389785	2.314503e-05	-3.066113e-05
	5.172723e-05	-6.60016e-05	0.02902245	-0.05066665	2.314503e-05	-3.066113e-05	0.01332273	-0.02427041
2.7e+08	0.01404563	-0.02592852	2.65512e-05	-6.093318e-05	0.02227416	-0.05367117	4.72116e-05	-7.045896e-05
	2.65512e-05	-6.093318e-05	0.0137185	-0.02660316	2.677242e-05	-3.121881e-05	0.02166651	-0.05236389
	0.02227416	-0.05367117	2.677242e-05	-3.121881e-05	0.01405816	-0.02557366	2.093824e-05	-3.321804e-05
	4.72116e-05	-7.045896e-05	0.02166651	-0.05236389	2.093824e-05	-3.321804e-05	0.01380823	-0.02597626
2.8e+08	0.01440527	-0.02800041	2.18627e-05	-6.496676e-05	0.01462726	-0.05445156	4.193288e-05	-7.476281e-05
	2.18627e-05	-6.496676e-05	0.01399974	-0.02865866	2.362071e-05	-3.406087e-05	0.01399787	-0.05299426
	0.01462726	-0.05445156	2.362071e-05	-3.406087e-05	0.01435924	-0.02765418	1.827465e-05	-3.57506e-05
	4.193288e-05	-7.476281e-05	0.01399787	-0.05299426	1.827465e-05	-3.57506e-05	0.01405991	-0.02808267
2.9e+08	0.0144409	-0.03045258	1.633753e-05	-6.877378e-05	0.006811416	-0.0541259	3.587423e-05	-7.879162e-05
	1.633753e-05	-6.877378e-05	0.01395532	-0.03108597	1.991217e-05	-3.680096e-05	0.006174629	-0.05251185
	0.006811416	-0.0541259	1.991217e-05	-3.680096e-05	0.01433152	-0.03010423	1.513113e-05	-3.819517e-05
	3.587423e-05	-7.879162e-05	0.006174629	-0.05251185	1.513113e-05	-3.819517e-05	0.01397518	-0.03055271
3e+08	0.01405447	-0.03322876	9.964145e-06	-7.221403e-05	-0.001010685	-0.05266951	2.903528e-05	-8.241658e-05
	9.964145e-06	-7.221403e-05	0.01348787	-0.03382791	1.562623e-05	-3.935641e-05	-0.001639091	-0.050894
	-0.001010685	-0.05266951	1.562623e-05	-3.935641e-05	0.01387866	-0.03286731	1.149171e-05	-4.048156e-05
	2.903528e-05	-8.241658e-05	-0.001639091	-0.050894	1.149171e-05	-4.048156e-05	0.01345812	-0.03332795
3.1e+08	0.01315792	-0.03625222	2.757444e-06	-7.513913e-05	-0.008673751	-0.05008221	2.143582e-05	-8.550482e-05
	2.757444e-06	-7.513913e-05	0.01251037	-0.0368068	1.074969e-05	-4.163755e-05	-0.009276814	-0.04814283
	-0.008673751	-0.05008221	1.074969e-05	-4.163755e-05	0.01291383	-0.03586608	7.350019e-06	-4.253374e-05
	2.143582e-05	-8.550482e-05	-0.009276814	-0.04814283	7.350019e-06	-4.253374e-05	0.01242275	-0.03632914
3.2e+08	0.0116768	-0.03942713	-5.248846e-06	-7.739835e-05	-0.01601329	-0.04638812	1.311724e-05	-8.792142e-05
	-5.248846e-06	-7.739835e-05	0.0109496	-0.03992597	5.286134e-06	-4.354799e-05	-0.01657326	-0.04428505
	-0.01601329	-0.04638812	5.286134e-06	-4.354799e-05	0.01136506	-0.03900467	2.707357e-06	-4.42708e-05
	1.311724e-05	-8.792142e-05	-0.01657326	-0.04428505	2.707357e-06	-4.42708e-05	0.01079837	-0.03945852
3.3e+08	0.009554497	-0.04264163	-1.399337e-05	-7.884098e-05	-0.02286901	-0.04163518	4.141037e-06	-8.953373e-05
	-1.399337e-05	-7.884098e-05	0.008750578	-0.04307283	-7.51179e-07	-4.4987e-05	-0.02336769	-0.03937132
	-0.02286901	-0.04163518	-7.51179e-07	-4.4987e-05	0.009176945	-0.04217107	-2.421198e-06	-4.560788e-05
	4.141037e-06	-8.953373e-05	-0.02336769	-0.03937132	-2.421198e-06	-4.560788e-05	0.008531346	-0.04260229
3.4e+08	0.006755385	-0.04577043	-2.339079e-05	-7.932081e-05	-0.02908906	-0.03589476	-5.405736e-06	-9.021485e-05
	-2.339079e-05	-7.932081e-05	0.005879454	-0.04612159	-7.331915e-06	-4.585007e-05	-0.02950836	-0.03347591
	-0.02908906	-0.03589476	-7.331915e-06	-4.585007e-05	0.006315791	-0.04524068	-8.010121e-06	-4.645741e-05
	-5.405736e-06	-9.021485e-05	-0.02950836	-0.03347591	-8.010121e-06	-4.645741e-05	0.005590222	-0.04563436
3.5e+08	0.003267146	-0.04867931	-3.332746e-05	-7.870226e-05	-0.03453256	-0.02925984	-1.542033e-05	-8.984608e-05
	-3.332746e-05	-7.870226e-05	0.00232604	-0.04893781	-1.440754e-05	-4.603276e-05	-0.03485482	-0.02669468
	-0.03453256	-0.02925984	-1.440754e-05	-4.603276e-05	0.00277051	-0.04807927	-1.401926e-05	-4.673118e-05
	-1.542033e-05	-8.984608e-05	-0.03485482	-0.02669468	-1.401926e-05	-4.673118e-05	0.001966564	-0.04841937
3.6e+08	-0.0008973844	-0.05122886	-4.367073e-05	-7.68595e-05	-0.03907331	-0.02184355	-2.577439e-05	-8.832207e-05
	-4.367073e-05	-7.68595e-05	-0.001894547	-0.05138226	-2.19168e-05	-4.543031e-05	-0.03928195	-0.0191436
	-0.03907331	-0.02184355	-2.19168e-05	-4.543031e-05	-0.001443914	-0.05054846	-2.039257e-05	-4.634251e-05
	-2.577439e-05	-8.832207e-05	-0.03928195	-0.0191436	-2.039257e-05	-4.634251e-05	-0.002321667	-0.05081826
3.7e+08	-0.00569862	-0.05327995	-5.425958e-05	-7.368964e-05	-0.04260276	-0.0137762	-3.63215e-05	-8.555388e-05
	-5.425958e-05	-7.368964e-05	-0.006740274	-0.05331634	-2.977378e-05	-4.394465e-05	-0.04268263	-0.01095575
	-0.04260276	-0.0137762	-2.977378e-05	-4.394465e-05	-0.006286472	-0.05251	-2.706262e-05	-4.520669e-05
	-3.63215e-05	-8.555388e-05	-0.04268263	-0.01095575	-2.706262e-05	-4.520669e-05	-0.007230162	-0.05269268
3.8e+08	-0.01107067	-0.05469776	-6.491797e-05	-6.910501e-05	-0.04503153	-0.005202851	-4.689887e-05	-8.147231e-05
	-6.491797e-05	-6.910501e-05	-0.01214278	-0.05460635	-3.787907e-05	-4.148266e-05	-0.04496941	-0.002278657
	-0.04503153	-0.005202851	-3.787907e-05	-4.148267e-05	-0.01169001	-0.05382996	-3.394158e-05	-4.324774e-05
	-4.689887e-05	-8.147231e-05	-0.04496941	-0.002278657	-3.394158e-05	-4.324774e-05	-0.01268829	-0.05390918
3.9e+08	-0.01692094	-0.05535661	-7.545037e-05	-6.304632e-05	-0.04629253	0.003719546	-5.733289e-05	-7.602716e-05
	-7.545037e-05	-6.304632e-05	-0.018007	-0.05512814	-4.611362e-05	-3.796205e-05	-0.04607754	0.006728449
	-0.04629253	0.003719546	-4.611362e-05	-3.796205e-05	-0.01756032	-0.05438493	-4.093104e-05	-4.039483e-05
	-5.733289e-05	-7.602716e-05	-0.04607754	0.006728449	-4.093104e-05	-4.039483e-05	-0.01859837	-0.05434562
4e+08	-0.02313271	-0.05514592	-8.564662e-05	-5.548234e-05	-0.04634136	0.01282622	-6.743381e-05	-6.919836e-05
	-8.564662e-05	-5.548234e-05	-0.02421398	-0.05477328	-5.433874e-05	-3.331528e-05	-0.04596528	0.01589897
	-0.04634136	0.01282622	-5.433874e-05	-3.331528e-05	-0.02378023	-0.05406543	-4.7913e-05	-3.659337e-05
	-6.743381e-05	-6.919836e-05	-0.04596528	0.01589897	-4.7913e-05	-3.659337e-05	-0.02483984	-0.05389441
4.1e+08	-0.02956766	-0.05397444	-9.528955e-05	-4.640736e-05	-0.04515748	0.02194734	-7.700913e-05	-6.098504e-05
	-9.528955e-05	-4.640736e-05	-0.03062331	-0.05345311	-6.24022e-05	-2.749132e-05	-0.04461511	0.0250616
	-0.04515748	0.02194734	-6.24022e-05	-2.749132e-05	-0.03021036	-0.05278183	-5.476074e-05	-3.179874e-05
	-7.700913e-05	-6.098504e-05	-0.04461511	0.0250616	-5.476074e-05	-3.179874e-05	-0.03127015	-0.05246859
4.2e+08	-0.03606765	-0.05177323	-0.0001041566	-3.58513e-05	-0.04274508	0.03091211	-8.586043e-05	-5.1421e-05
	-0.0001041566	-3.58513e-05	-0.03707531	-0.05110182	-7.013831e-05	-2.04607e-05	-0.04203447	0.03404455
	-0.04274508	0.03091211	-7.013831e-05	-2.04607e-05	-0.03669198	-0.05046731	-6.133253e-05	-2.598621e-05
	-8.586043e-05	-5.1421e-05	-0.04203447	0.03404455	-6.133253e-05	-2.598621e-05	-0.03772786	-0.05000463
4.3e+08	-0.04246089	-0.04850057	-0.000112026	-2.387581e-05	-0.0391319	0.03955221	-9.37904e-05	-4.056495e-05
	-0.000112026	-2.387581e-05	-0.04339705	-0.04768112	-7.736383e-05	-1.221665e-05	-0.03825443	0.04267899
	-0.0391319	0.03955221	-7.736383e-05	-1.221665e-05	-0.04305324	-0.04708203	-6.747909e-05	-1.91509e-05
	-9.37904e-05	-4.056495e-05	-0.03825443	0.04267899	-6.747909e-05	-1.91509e-05	-0.04403889	-0.04646666
4.4e+08	-0.04856564	-0.04414376	-0.0001186813	-1.05767e-05	-0.03436914	0.04770482	-0.0001006085	-2.85001e-05
	-0.0001186813	-1.05767e-05	-0.04940622	-0.04318221	-8.389313e-05	-2.780751e-06	-0.03332964	0.05080203
	-0.03436914	0.04770482	-8.389313e-05	-2.780751e-06	-0.04911199	-0.04261534	-7.304338e-05	-1.131076e-05
	-0.0001006085	-2.85001e-05	-0.03332964	0.05080203	-7.304338e-05	-1.131076e-05	-0.05001957	-0.04184843
4.5e+08	-0.05419413	-0.03872155	-0.0001239132	3.922555e-06	-0.02853009	0.05521623	-0.0001061299	-1.534413e-05
	-0.0001239132	3.922555e-06	-0.05491519	-0.03762782	-8.953703e-05	7.79505e-06	-0.02733689	0.05826048
	-0.02853009	0.05521623	-8.953703e-05	7.79505e-06	-0.05468101	-0.037088	-7.786699e-05	-2.502967e-06
	-0.0001061299	-1.534413e-05	-0.02733689	0.05826048	-7.786699e-05	-2.502967e-06	-0.05548187	-0.0361755
4.6e+08	-0.05915938	-0.03228474	-0.0001275263	1.946557e-05	-0.02170833	0.06194449	-0.0001101825	-1.239092e-06
	-0.0001275263	1.946557e-05	-0.05973773	-0.03107288	-9.410671e-05	1.943497e-05	-0.02037311	0.06491335
	-0.02170833	0.06194449	-9.410671e-05	1.943497e-05	-0.05957448	-0.03055267	-8.179199e-05	7.205086e-06
	-0.0001101825	-1.239092e-06	-0.02037311	0.06491335	-8.179199e-05	7.205086e-06	-0.06024006	-0.02950561
4.7e+08	-0.06328177	-0.02491708	-0.000129344	3.586919e-05	-0.01401564	0.0677625	-0.0001126123	1.365297e-05
	-0.000129344	3.586919e-05	-0.06369585	-0.02360522	-9.741755e-05	3.202466e-05	-0.01255337	0.070635
	-0.01401564	0.0677625	-9.741755e-05	3.202466e-05	-0.0636126	-0.02309476	-8.466337e-05	1.772082e-05
	-0.0001126123	1.365297e-05	-0.01255337	0.070635	-8.466337e-05	1.772082e-05	-0.06411531	-0.02192929
4.8e+08	-0.06639179	-0.01673239	-0.0001292109	5.291898e-05	-0.005580093	0.07255945	-0.0001132829	2.913756e-05
