!$
! Info: Touchstone file created by Circ.  Input file=Intel_C2M_200G_5p0in_202208016_staggered.circ
!$
# Hz S RI R 50
0	0.01818864	3.213432e-24	0.9816111	-5.608214e-24	0.0001007504	2.668958e-22	-0.0002318216	2.838995e-20
	0.9816111	-5.606036e-24	0.01874353	6.083383e-24	-0.0002318771	2.839675e-20	0.0003249762	5.598788e-22
	0.0001008081	2.670223e-22	-0.000232014	2.841352e-20	0.01818658	3.045891e-24	0.9816114	-5.684286e-24
	-0.0002319585	2.840672e-20	0.0003250445	5.602727e-22	0.9816114	-5.686472e-24	0.01874495	6.200003e-24
1e+07	0.0219846	0.003377704	0.9740904	-0.08901007	0.001430782	0.005519244	-0.0009563	-0.0006734089
	0.9740904	-0.08901007	0.02214695	0.003353512	-0.0009572537	-0.0006736559	0.00133704	0.005544808
	0.001430782	0.005519244	-0.0009572537	-0.0006736559	0.02204128	0.003012817	0.9740484	-0.08862372
	-0.0009563	-0.0006734089	0.00133704	0.005544808	0.9740484	-0.08862372	0.02217845	0.002978997
2e+07	0.02595864	0.003257043	0.9585965	-0.1736856	0.003127771	0.01034918	-0.001246044	-0.0008813346
	0.9585965	-0.1736856	0.02672451	0.003173148	-0.001248735	-0.000879467	0.002717194	0.01052417
	0.003127782	0.01034917	-0.001248734	-0.0008795777	0.02561863	0.002660181	0.9589915	-0.1730765
	-0.001246043	-0.0008814389	0.002717282	0.01052406	0.9589915	-0.1730765	0.02629103	0.002619368
3e+07	0.02880956	0.001279222	0.9369854	-0.2549638	0.005627331	0.01487043	-0.001516228	-0.001040973
	0.9369854	-0.2549638	0.03001657	0.0006853913	-0.001519487	-0.001035416	0.004846198	0.01516784
	0.005627304	0.01487046	-0.00151953	-0.001035414	0.02816525	0.0006868189	0.9377129	-0.2543834
	-0.001516241	-0.001040979	0.004846175	0.01516781	0.9377129	-0.2543834	0.02924586	0.0002192991
4e+07	0.03064488	-0.001503171	0.9091155	-0.3333664	0.00892568	0.01881687	-0.001772245	-0.001153257
	0.9091155	-0.3333664	0.03252687	-0.002631559	-0.001774155	-0.001143293	0.007591229	0.01943057
	0.008925677	0.0188169	-0.00177416	-0.001143289	0.02976187	-0.002013586	0.9101074	-0.3329103
	-0.001772247	-0.001153244	0.007591228	0.01943057	0.9101074	-0.3329103	0.03150335	-0.002903116
5e+07	0.03163896	-0.004629241	0.8751103	-0.4086331	0.01289398	0.02210123	-0.002014598	-0.001229018
	0.8751103	-0.4086331	0.03431166	-0.006540429	-0.002013068	-0.001214926	0.01091208	0.02320474
	0.01289398	0.02210124	-0.002013065	-0.001214926	0.03056452	-0.005009941	0.8763083	-0.4083632
	-0.002014595	-0.00122902	0.01091208	0.02320475	0.8763083	-0.4083632	0.03311722	-0.006552616
6e+07	0.03189452	-0.007874982	0.8351993	-0.4803857	0.01741686	0.02462309	-0.002244142	-0.001282689
	0.8351993	-0.4803857	0.03536674	-0.01080173	-0.002237206	-0.001265521	0.01472126	0.02641475
	0.01741688	0.02462307	-0.002237204	-0.001265522	0.03067002	-0.008091288	0.8365475	-0.4803467
	-0.00224414	-0.001282689	0.01472126	0.02641475	0.8365475	-0.4803467	0.03408277	-0.010515
7e+07	0.03149001	-0.01106308	0.7896707	-0.5482233	0.02235911	0.02630054	-0.002467079	-0.001325941
	0.7896707	-0.5482233	0.03572836	-0.01522729	-0.002453054	-0.001307632	0.01892318	0.02900229
	0.02235911	0.02630053	-0.002453008	-0.001307686	0.03015455	-0.01108783	0.7911113	-0.548449
	-0.002467076	-0.001325943	0.01892318	0.02900229	0.7911113	-0.548449	0.0344359	-0.01462147
8e+07	0.03052155	-0.01404887	0.738856	-0.6117492	0.02757448	0.02707452	-0.002692301	-0.001365965
	0.738856	-0.6117492	0.03544211	-0.01967545	-0.002670245	-0.001349144	0.02341458	0.03092488
	0.02757448	0.02707452	-0.002670246	-0.001349141	0.0291144	-0.01385821	0.7403304	-0.6122665
	-0.002692302	-0.001365963	0.02341458	0.03092488	0.7403304	-0.6122665	0.03422276	-0.01874644
9e+07	0.02910386	-0.01672599	0.6831235	-0.6705846	0.03291032	0.02690971	-0.002930434	-0.001405401
	0.6831235	-0.6705846	0.03455554	-0.02402723	-0.002900283	-0.001393289	0.02808854	0.03215777
	0.03291032	0.02690971	-0.002900282	-0.00139328	0.02766739	-0.01629421	0.6845622	-0.6714161
	-0.002930435	-0.001405391	0.02808854	0.03215777	0.6845622	-0.6714161	0.03349515	-0.02278328
1e+08	0.0273781	-0.0190192	0.6228548	-0.7243922	0.03821273	0.02579421	-0.003194546	-0.001442014
	0.6228548	-0.7243922	0.033133	-0.02815848	-0.003157619	-0.00143898	0.03284008	0.03269332
	0.03821273	0.02579421	-0.003157619	-0.001438981	0.02597822	-0.01828857	0.6241532	-0.7255799
	-0.003194546	-0.001442014	0.03284008	0.03269332	0.6241532	-0.7255799	0.03235365	-0.02661011
1.1e+08	0.02541081	-0.02102341	0.5584678	-0.7727198	0.04333429	0.02372594	-0.003485779	-0.001458136
	0.5584678	-0.7727198	0.03132668	-0.03205673	-0.003447486	-0.001464067	0.03755236	0.03252959
	0.04333429	0.02372594	-0.003447486	-0.001464068	0.02426189	-0.02013046	0.5594797	-0.7741021
	-0.003485779	-0.001458138	0.03755236	0.03252959	0.5594797	-0.7741021	0.03091706	-0.03040143
1.2e+08	0.02324259	-0.02257404	0.4905382	-0.8153288	0.04807814	0.02076839	-0.003805906	-0.001466494
	0.4905382	-0.8153288	0.02907998	-0.03566336	-0.003767959	-0.001481443	0.04211542	0.03170645
	0.04807813	0.02076839	-0.003767959	-0.001481445	0.02225203	-0.02159909	0.491304	-0.8168283
	-0.003805906	-0.001466496	0.04211542	0.03170645	0.491304	-0.8168283	0.02897637	-0.03398864
1.3e+08	0.02102204	-0.0236716	0.4195352	-0.852	0.0523167	0.01698708	-0.004166948	-0.001454902
	0.4195352	-0.852	0.02648743	-0.03888957	-0.004131803	-0.001478917	0.04643721	0.03026998
	0.0523167	0.01698708	-0.004131804	-0.001478918	0.02016088	-0.0226284	0.4200673	-0.853576
	-0.004166948	-0.001454903	0.04643721	0.03026998	0.4200673	-0.853576	0.02665377	-0.03724854
1.4e+08	0.01885722	-0.02434522	0.3459591	-0.8825359	0.05592522	0.01246874	-0.004573717	-0.001409847
	0.3459591	-0.8825359	0.02364012	-0.0416881	-0.004543713	-0.001441614	0.05043299	0.02827946
	0.05592522	0.01246874	-0.004543714	-0.001441616	0.01812081	-0.02324564	0.3462654	-0.8841529
	-0.004573717	-0.001409848	0.05043299	0.02827946	0.3462654	-0.8841529	0.02404275	-0.04011859
1.5e+08	0.01683945	-0.02464052	0.2703229	-0.9067767	0.05879071	0.007318614	-0.00502644	-0.001316131
	0.2703229	-0.9067767	0.02062939	-0.04403399	-0.005003205	-0.001354162	0.05403015	0.02580572
	0.0587907	0.007318613	-0.005003206	-0.001354162	0.01622787	-0.02350129	0.2704124	-0.9084055
	-0.005026441	-0.001316131	0.05403015	0.02580572	0.2704124	-0.9084055	0.0212361	-0.04256356
1.6e+08	0.0150448	-0.02461765	0.1931498	-0.9246001	0.06081647	0.001658452	-0.005520823	-0.001158373
	0.1931498	-0.9246001	0.01754438	-0.04592072	-0.005505438	-0.001200811	0.05716959	0.02292951
	0.06081647	0.001658451	-0.005505439	-0.001200812	0.01455665	-0.02345847	0.1930303	-0.9262156
	-0.005520824	-0.001158374	0.05716959	0.02292951	0.1930303	-0.9262156	0.01832403	-0.04456917
1.7e+08	0.01353358	-0.02434955	0.1149675	-0.9359279	0.06192491	-0.00437638	-0.006048313	-0.0009220666
	0.1149675	-0.9359279	0.01446976	-0.04735813	-0.006041329	-0.0009668849	0.05980695	0.0197382
	0.06192491	-0.00437638	-0.00604133	-0.0009668853	0.01316366	-0.0231902	0.1146485	-0.9375068
	-0.006048313	-0.0009220669	0.05980695	0.0197382	0.1146485	-0.9375068	0.01539284	-0.04613907
1.8e+08	0.01234804	-0.02391897	0.03630623	-0.9407226	0.06205968	-0.01063982	-0.006596541	-0.0005945603
	0.03630623	-0.9407226	0.01148434	-0.04836988	-0.006598029	-0.0006399081	0.06191377	0.0163238
	0.06205968	-0.01063982	-0.00659803	-0.0006399084	0.0120875	-0.02277771	0.03579831	-0.9422428
	-0.006596542	-0.0005945606	0.06191377	0.0163238	0.03579831	-0.9422428	0.0125223	-0.04729186
1.9e+08	0.01151148	-0.02341566	-0.04230239	-0.9389857	0.06118755	-0.01697845	-0.007149809	-0.0001655984
	-0.04230239	-0.9389857	0.00865851	-0.04899216	-0.007159461	-0.0002097618	0.06347762	0.01278057
	0.06118755	-0.01697845	-0.007159462	-0.0002097619	0.01134833	-0.022308	-0.0429865	-0.9404294
	-0.00714981	-0.0001655986	0.06347762	0.01278057	-0.0429865	-0.9404294	0.009784907	-0.04805935
2e+08	0.01102657	-0.0229322	-0.1203314	-0.9307607	0.05929887	-0.02323518	-0.007689894	0.0003715384
	-0.1203314	-0.9307607	0.006054265	-0.04927156	-0.007707129	0.0003299149	0.06450154	0.009201355
	0.05929887	-0.02323518	-0.007707129	0.0003299148	0.01094735	-0.02187063	-0.1211797	-0.9321083
	-0.007689894	0.0003715382	0.06450154	0.009201356	-0.1211797	-0.9321083	0.00724368	-0.04848391
2.1e+08	0.01087567	-0.02255927	-0.1972605	-0.9161318	0.0564079	-0.02925258	-0.008197141	0.001019465
	-0.1972605	-0.9161318	0.00372226	-0.04926325	-0.00822105	0.0009818632	0.06500487	0.005676092
	0.0564079	-0.02925258	-0.00822105	0.0009818631	0.01086527	-0.02155334	-0.198258	-0.9173674
	-0.008197141	0.001019465	0.06500487	0.005676092	-0.198258	-0.9173674	0.004952234	-0.04861753
2.2e+08	0.01102092	-0.02238281	-0.272578	-0.8952211	0.05255256	-0.03487661	-0.008650864	0.001777119
	-0.272578	-0.8952211	0.001702894	-0.04902915	-0.008680442	0.001744432	0.06502079	0.002288596
	0.05255256	-0.03487661	-0.008680442	0.001744432	0.01106394	-0.02143862	-0.2737091	-0.8963303
	-0.008650864	0.001777119	0.06502079	0.002288596	-0.2737091	-0.8963303	0.002952564	-0.04851886
2.3e+08	0.01140628	-0.02247909	-0.3457809	-0.8681897	0.04779385	-0.03996025	-0.009030969	0.002638626
	-0.3457809	-0.8681897	2.426784e-05	-0.04863582	-0.009065013	0.002611852	0.0645959	-0.0008854901
	0.04779385	-0.03996025	-0.009065013	0.002611852	0.01148756	-0.02160033	-0.3470304	-0.8691599
	-0.009030969	0.002638626	0.0645959	-0.0008854901	-0.3470304	-0.8691599	0.001275582	-0.04825192
2.4e+08	0.01195946	-0.02291142	-0.4163846	-0.8352381	0.04221451	-0.04436634	-0.009318344	0.003595041
	-0.4163846	-0.8352381	-0.001297727	-0.04815254	-0.009355664	0.003574471	0.06378865	-0.003780496
	0.0422145	-0.04436634	-0.009355664	0.003574471	0.01206369	-0.02209916	-0.4177345	-0.8360599
	-0.009318344	0.003595041	0.06378865	-0.003780496	-0.4177345	-0.8360599	-5.996064e-05	-0.04788399
2.5e+08	0.01259436	-0.02372704	-0.483918	-0.7966051	0.03591712	-0.04797096	-0.009495961	0.004633398
	-0.483918	-0.7966051	-0.002259051	-0.0476494	-0.009535238	0.004619193	0.06266695	-0.006342767
	0.03591712	-0.04797096	-0.009535238	0.004619193	0.01270733	-0.02298027	-0.4853506	-0.7972679
	-0.009495961	0.004633398	0.06266695	-0.006342767	-0.4853506	-0.7972679	-0.001046998	-0.04748342
2.6e+08	0.01321494	-0.02495477	-0.5479307	-0.752563	0.02902245	-0.05066665	-0.009549701	0.005737805
	-0.5479307	-0.752563	-0.002868171	-0.04719478	-0.009589573	0.005730087	0.06130624	-0.008532032
	0.02902245	-0.05066665	-0.009589573	0.005730087	0.01332273	-0.02427041	-0.5494259	-0.7530611
	-0.009549701	0.005737805	0.06130624	-0.008532032	-0.5494259	-0.7530611	-0.0016909	-0.04711809
2.7e+08	0.0137185	-0.02660316	-0.6079929	-0.70342	0.02166651	-0.05236389	-0.009468297	0.006890407
	-0.6079929	-0.70342	-0.003144397	-0.04685431	-0.009507806	0.006888646	0.05978705	-0.01032187
	0.02166651	-0.05236389	-0.009507807	0.006888646	0.01380823	-0.02597626	-0.6095335	-0.7037496
	-0.009468297	0.006890407	0.05978705	-0.01032187	-0.6095335	-0.7037496	-0.002007946	-0.04685287
2.8e+08	0.01399974	-0.02865866	-0.6637014	-0.6495202	0.01399787	-0.05299426	-0.009244074	0.008071695
	-0.6637014	-0.6495202	-0.003117782	-0.04668858	-0.00928211	0.008075546	0.0581928	-0.01170117
	0.01399787	-0.05299426	-0.00928211	0.008075546	0.01405991	-0.02808267	-0.6652684	-0.6496787
	-0.009244074	0.008071695	0.0581928	-0.01170117	-0.6652684	-0.6496787	-0.002025226	-0.04674836
2.9e+08	0.01395532	-0.03108597	-0.7146795	-0.5912399	0.006174629	-0.05251185	-0.008872381	0.009262008
	-0.7146795	-0.5912399	-0.002828314	-0.04675126	-0.008908447	0.009270718	0.05660676	-0.01267357
	0.006174629	-0.05251185	-0.008908447	0.009270718	0.01397518	-0.03055271	-0.7162546	-0.591227
	-0.008872381	0.009262008	0.05660676	-0.01267357	-0.7162546	-0.591227	-0.001779711	-0.04685918
3e+08	0.01348787	-0.03382791	-0.7605808	-0.5289848	-0.001639091	-0.050894	-0.008352599	0.01044134
	-0.7605808	-0.5289848	-0.002323467	-0.04708837	-0.008386229	0.01045421	0.05510968	-0.01325791
	-0.001639091	-0.050894	-0.008386229	0.01045421	0.01345812	-0.03332795	-0.7621455	-0.5288012
	-0.008352599	0.01044134	0.05510968	-0.01325791	-0.7621455	-0.5288012	-0.001316365	-0.0472323
3.1e+08	0.01251037	-0.0368068	-0.8010946	-0.4631895	-0.009276814	-0.04814283	-0.00768689	0.01159074
	-0.8010946	-0.4631895	-0.001657521	-0.04773665	-0.007717517	0.011607	0.05377778	-0.01348664
	-0.009276814	-0.04814283	-0.007717517	0.011607	0.01242275	-0.03632914	-0.8026289	-0.4628392
	-0.00768689	0.01159074	0.05377778	-0.01348664	-0.8026289	-0.4628392	-0.0006874812	-0.04790618
3.2e+08	0.0109496	-0.03992597	-0.8359423	-0.3943169	-0.01657326	-0.04428505	-0.006879923	0.01269257
	-0.8359423	-0.3943169	-0.0008898106	-0.04872301	-0.006907466	0.01271157	0.0526797	-0.01340592
	-0.01657326	-0.04428505	-0.006907466	0.01271157	0.01079837	-0.03945852	-0.837432	-0.3938035
	-0.006879923	0.01269257	0.0526797	-0.01340592	-0.837432	-0.3938035	4.955402e-05	-0.0489095
3.3e+08	0.008750578	-0.04307283	-0.8648872	-0.3228495	-0.02336769	-0.03937132	-0.005938125	0.01373091
	-0.8648872	-0.3228495	-8.261964e-05	-0.05006374	-0.005963249	0.01375198	0.05187439	-0.01307335
	-0.02336769	-0.03937132	-0.005963249	0.01375198	0.008531346	-0.04260229	-0.8663149	-0.3221809
	-0.005938125	0.01373091	0.05187439	-0.01307335	-0.8663149	-0.3221809	0.0008339978	-0.05026067
3.4e+08	0.005879454	-0.04612159	-0.8877323	-0.2492946	-0.02950836	-0.03347591	-0.004870256	0.01469154
	-0.8877323	-0.2492946	0.0007005735	-0.05176437	-0.004892644	0.01471433	0.05140996	-0.01255629
	-0.02950836	-0.03347591	-0.004892645	0.01471433	0.005590222	-0.04563436	-0.8890851	-0.2484769
	-0.004870256	0.01469154	0.05140996	-0.01255629	-0.8890851	-0.2484769	0.001603003	-0.05196745
3.5e+08	0.00232604	-0.04893781	-0.904327	-0.1741713	-0.03485482	-0.02669468	-0.003685178	0.01556241
	-0.904327	-0.1741713	0.001396701	-0.05381963	-0.003705095	0.01558665	0.05132127	-0.01193039
	-0.03485482	-0.02669468	-0.003705095	0.01558665	0.001966564	-0.04841937	-0.905587	-0.173216
	-0.003685178	0.01556241	0.05132127	-0.01193039	-0.905587	-0.173216	0.002294095	-0.05402743
3.6e+08	-0.001894547	-0.05138226	-0.9145628	-0.09801534	-0.03928195	-0.0191436	-0.002392339	0.01633307
	-0.9145628	-0.09801534	0.001945175	-0.05621449	-0.002410355	0.01635881	0.05162904	-0.01127635
	-0.03928195	-0.0191436	-0.002410355	0.01635881	-0.002321667	-0.05081826	-0.9157177	-0.0969325
	-0.002392339	0.01633307	0.05162904	-0.01127635	-0.9157177	-0.0969325	0.002846648	-0.05642724
3.7e+08	-0.006740274	-0.05331634	-0.918379	-0.021368	-0.04268263	-0.01095575	-0.0010015	0.01699459
	-0.918379	-0.021368	0.002289517	-0.0589238	-0.001017497	0.01702192	0.05233926	-0.01067785
	-0.04268263	-0.01095575	-0.001017497	0.01702192	-0.007230162	-0.05269268	-0.9194179	-0.02016836
	-0.0010015	0.01699459	0.05233926	-0.01067785	-0.9194179	-0.02016836	0.00320349	-0.0591445
3.8e+08	-0.01214278	-0.05460635	-0.9157636	0.0552258	-0.04496941	-0.002278657	0.0004789687	0.01753901
	-0.9157636	0.0552258	0.002378835	-0.06191393	0.0004642499	0.01756826	0.05344254	-0.01021907
	-0.04496941	-0.002278657	0.0004642499	0.01756826	-0.01268829	-0.05390918	-0.9166734	0.05652826
	0.0004789687	0.01753901	0.05344254	-0.01021907	-0.9166734	0.05652826	0.003312894	-0.0621479
3.9e+08	-0.018007	-0.05512814	-0.9067513	0.1312183	-0.04607754	0.006728449	0.002039466	0.01795921
	-0.9067513	0.1312183	0.002168641	-0.06514449	0.002027065	0.01799047	0.05491452	-0.00998186
	-0.04607754	0.006728449	0.002027065	0.01799047	-0.01859837	-0.05434562	-0.9075259	0.1326104
	0.002039466	0.01795921	0.05491452	-0.00998186	-0.9075259	0.1326104	0.003128808	-0.06539798
4e+08	-0.02421398	-0.05477328	-0.8914276	0.2060686	-0.04596528	0.01589897	0.003672402	0.01824777
	-0.8914276	0.2060686	0.001622486	-0.0685684	0.003662142	0.01828164	0.05671624	-0.01004311
	-0.04596528	0.01589897	0.003662142	0.01828164	-0.02483984	-0.05389441	-0.8920562	0.2075368
	0.003672402	0.01824777	0.05671624	-0.01004311	-0.8920562	0.2075368	0.002613352	-0.06884995
4.1e+08	-0.03062331	-0.05345311	-0.869921	0.2792507	-0.04461511	0.0250616	0.005369759	0.01839714
	-0.869921	0.2792507	0.0007127651	-0.07213453	0.005362043	0.018434	0.05879555	-0.01047176
	-0.04461511	0.0250616	0.005362043	0.018434	-0.03127015	-0.05246859	-0.8703975	0.2807806
	0.005369759	0.01839714	0.05879555	-0.01047176	-0.8703975	0.2807806	0.001736556	-0.07245344
4.2e+08	-0.03707531	-0.05110182	-0.842411	0.3502469	-0.04203447	0.03404455	0.007122859	0.01839962
	-0.842411	0.3502469	-0.0005798166	-0.07578874	0.007118706	0.01843944	0.06108795	-0.01132822
	-0.04203447	0.03404455	0.007118706	0.01843944	-0.03772786	-0.05000463	-0.8427302	0.3518215
	0.007122859	0.01839962	0.06108795	-0.01132822	-0.8427302	0.3518215	0.0004773617	-0.0761549
4.3e+08	-0.04339705	-0.04768112	-0.8091175	0.4185633	-0.03825443	0.04267899	0.0089234	0.01824598
	-0.8091175	0.4185633	-0.002264963	-0.0794755	0.00892357	0.0182891	0.06351911	-0.01266015
	-0.03825443	0.04267899	0.00892357	0.0182891	-0.04403889	-0.04646666	-0.8092754	0.4201675
	0.0089234	0.01824598	0.06351911	-0.01266015	-0.8092754	0.4201675	-0.001176616	-0.07989924
4.4e+08	-0.04940622	-0.04318221	-0.770303	0.4837284	-0.03332964	0.05080203	0.01076114	0.01792677
	-0.770303	0.4837284	-0.004343636	-0.08313963	0.01076679	0.01797261	0.06600642	-0.01450275
	-0.03332964	0.05080203	0.01076679	0.01797261	-0.05001957	-0.04184843	-0.7702978	0.4853454
	0.01076114	0.01792677	0.06600642	-0.01450275	-0.7702978	0.4853454	-0.003228015	-0.08363098
4.5e+08	-0.05491519	-0.03762782	-0.7262709	0.545295	-0.02733689	0.05826048	0.01262434	0.01743172
	-0.7262709	0.545295	-0.00680816	-0.0867277	0.01263663	0.01747975	0.06846195	-0.01687663
	-0.02733689	0.05826048	0.01263663	0.01747975	-0.05548187	-0.0361755	-0.7261019	0.5469082
	0.01262434	0.01743172	0.06846195	-0.01687663	-0.7261019	0.5469082	-0.005671462	-0.08729605
4.6e+08	-0.05973773	-0.03107288	-0.6773593	0.6028478	-0.02037311	0.06491335	0.0144993	0.01674991
	-0.6773593	0.6028478	-0.009642854	-0.09018966	0.01451908	0.0167996	0.07079449	-0.01978759
	-0.02037311	0.06491335	0.01451908	0.0167996	-0.06024006	-0.02950561	-0.6770263	0.6044416
	0.0144993	0.01674991	0.07079449	-0.01978759	-0.6770263	0.6044416	-0.008493388	-0.09084328
4.7e+08	-0.06369585	-0.02360522	-0.6239388	0.65601	-0.01255337	0.070635	0.01636887	0.01587166
	-0.6239388	0.65601	-0.01282491	-0.09347903	0.01639729	0.01592152	0.07291245	-0.02322547
	-0.01255337	0.070635	0.01639729	0.01592152	-0.06411531	-0.02192929	-0.6234442	0.6575656
	0.01636887	0.01587166	0.07291245	-0.02322547	-0.6234442	0.6575656	-0.01167252	-0.09422496
4.8e+08	-0.06662218	-0.0153425	-0.5664057	0.7044315	-0.004008784	0.07531647	0.01821404	0.01478705
	-0.5664057	0.7044315	-0.01632507	-0.09655545	0.01825151	0.01483595	0.07472635	-0.02716545
	-0.004008784	0.07531647	0.01825151	0.01483595	-0.06694199	-0.01356785	-0.5657559	0.7059353
	0.01821404	0.01478705	0.07472635	-0.02716545	-0.5657559	0.7059353	-0.01518121	-0.09739873
4.9e+08	-0.06836712	-0.00643302	-0.5051887	0.7478039	0.005116537	0.07886862	0.02001173	0.01348911
	-0.5051887	0.7478039	-0.02010946	-0.09938401	0.02005899	0.0135349	0.07615117	-0.03156793
	0.005116537	0.07886862	0.02005899	0.0135349	-0.06857162	-0.004571627	-0.5043872	0.7492408
	0.02001173	0.01348911	0.07615117	-0.03156793	-0.5043872	0.7492408	-0.01898668	-0.1003279
5e+08	-0.06880522	0.002949443	-0.4407297	0.7858626	0.01466828	0.08122212	0.02173656	0.011972
	-0.4407297	0.7858626	-0.02414017	-0.101937	0.02179366	0.01201319	0.07710911	-0.0363795
	0.01466828	0.08122212	0.02179366	0.01201319	-0.06887979	0.004882695	-0.439786	0.7872148
	0.02173656	0.011972	0.07710911	-0.0363795	-0.439786	0.7872148	-0.02305168	-0.1029826
5.1e+08	-0.06783572	0.01260857	-0.3734922	0.8183738	0.02448405	0.08232929	0.02336029	0.01023487
	-0.3734922	0.8183738	-0.02837664	-0.1041935	0.02342688	0.01026932	0.0775312	-0.04153486
	0.02448405	0.08232929	0.02342688	0.01026932	-0.06776885	0.01459653	-0.3724153	0.8196297
	0.02336029	0.01023487	0.0775312	-0.04153486	-0.3724153	0.8196297	-0.02733586	-0.1053393
5.2e+08	-0.06539001	0.02232928	-0.3039541	0.8451504	0.03439792	0.08216525	0.02485264	0.008279608
	-0.3039541	0.8451504	-0.03277699	-0.1061397	0.02492818	0.008304836	0.07735967	-0.04695795
