!$
! Info: Touchstone file created by Circ.  Input file=Intel_C2M_200G_5p0in_202208016_staggered.circ
!$
# Hz S RI R 50
0	0.01874353	6.082892e-24	-7.968087e-05	9.758092e-21	0.000324978	5.598736e-22	-7.536017e-05	9.22896e-21
	-7.968096e-05	9.758104e-21	0.01818864	3.213432e-24	-8.684758e-05	1.063576e-20	0.0001007504	2.668958e-22
	0.0003250463	5.602662e-22	-8.684767e-05	1.063577e-20	0.01874476	6.201659e-24	-7.970632e-05	9.761209e-21
	-7.536016e-05	9.228958e-21	0.0001008081	2.670223e-22	-7.970622e-05	9.761197e-21	0.01818658	3.045891e-24
1e+07	0.02286814	0.002950707	-0.0005123125	-0.000102665	0.001095732	0.005491308	-5.073194e-05	-0.0001015258
	-0.0005123125	-0.000102665	0.0219846	0.003377704	-0.0004105936	7.752389e-05	0.001430782	0.005519244
	0.001095732	0.005491308	-0.0004105936	7.752389e-05	0.02270426	0.003239329	-0.0004066984	-7.465062e-05
	-5.073194e-05	-0.0001015258	0.001430782	0.005519244	-0.0004066984	-7.465062e-05	0.02204128	0.003012817
2e+07	0.02683004	0.002316574	-0.0004852256	-0.0002549898	0.002464579	0.01053209	-7.64431e-05	-0.0001596076
	-0.0004852255	-0.0002549897	0.02595864	0.003257043	-0.0004844742	-2.539226e-05	0.003127771	0.01034918
	0.002464667	0.01053198	-0.0004844742	-2.539224e-05	0.02698068	0.002837581	-0.0003827373	-0.0002940309
	-7.64431e-05	-0.0001596076	0.003127782	0.01034917	-0.0003827374	-0.0002940309	0.02561863	0.002660181
3e+07	0.02964515	-0.0001890153	-0.0004981537	-0.0003695896	0.004589569	0.01521561	-0.0001156718	-0.0002230152
	-0.0004981537	-0.0003695897	0.02880956	0.001279222	-0.0005564856	-8.108155e-05	0.005627331	0.01487043
	0.004589545	0.01521558	-0.0005564856	-8.108155e-05	0.03005554	0.00036427	-0.0003943556	-0.00041372
	-0.0001156717	-0.0002230152	0.005627304	0.01487046	-0.0003943556	-0.00041372	0.02816525	0.0006868189
4e+07	0.03177631	-0.00336646	-0.0005360937	-0.0004528305	0.007337857	0.01951636	-0.0001699876	-0.0002788056
	-0.0005360937	-0.0004528305	0.03064488	-0.001503171	-0.0006331979	-0.0001228613	0.00892568	0.01881687
	0.007337857	0.01951636	-0.000633198	-0.0001228613	0.03239956	-0.002858582	-0.000431884	-0.000502732
	-0.0001699876	-0.0002788056	0.008925677	0.0188169	-0.000431884	-0.000502732	0.02976187	-0.002013586
5e+07	0.03327412	-0.007038391	-0.0005927022	-0.0005141323	0.01066902	0.02332737	-0.0002339045	-0.0003244673
	-0.0005927022	-0.0005141323	0.03163896	-0.004629241	-0.0007154633	-0.0001535995	0.01289398	0.02210123
	0.01066903	0.02332738	-0.0007154633	-0.0001535995	0.03406929	-0.006627085	-0.0004885482	-0.0005696337
	-0.0002339045	-0.0003244672	0.01289398	0.02210124	-0.0004885483	-0.0005696337	0.03056452	-0.005009941
6e+07	0.03413488	-0.01099833	-0.0006632113	-0.0005558198	0.01449533	0.02657231	-0.0003058356	-0.0003593766
	-0.0006632113	-0.0005558198	0.03189452	-0.007874982	-0.0008035494	-0.0001742299	0.01741686	0.02462309
	0.01449533	0.02657231	-0.0008035494	-0.0001742299	0.03506092	-0.01072044	-0.0005591764	-0.0006165305
	-0.0003058356	-0.0003593766	0.01741688	0.02462307	-0.0005591763	-0.0006165305	0.03067002	-0.008091288
7e+07	0.03439694	-0.01508228	-0.000753756	-0.0005714123	0.01872085	0.02919183	-0.000384269	-0.0003827954
	-0.000753756	-0.0005714123	0.03149001	-0.01106308	-0.0008975	-0.0001850247	0.02235911	0.02630054
	0.01872086	0.02919183	-0.0008975	-0.0001850247	0.0354105	-0.01496452	-0.0006392269	-0.0006439416
	-0.000384269	-0.0003827954	0.02235911	0.02630053	-0.0006392269	-0.0006439416	0.03015455	-0.01108783
8e+07	0.03410903	-0.01916869	-0.0008598216	-0.0005573703	0.02324198	0.03114243	-0.0004672368	-0.0003938747
	-0.0008598216	-0.0005573703	0.03052155	-0.01404887	-0.00099687	-0.0001860876	0.02757448	0.02707452
	0.02324198	0.03114243	-0.00099687	-0.0001860876	0.03516381	-0.01922924	-0.0007513745	-0.0006298216
	-0.0004672368	-0.0003938747	0.02757448	0.02707452	-0.0007513745	-0.0006298216	0.0291144	-0.01385821
9e+07	0.03332572	-0.02315565	-0.0009629699	-0.0005217481	0.02795162	0.03239842	-0.0005530386	-0.0003923583
	-0.00096297	-0.0005217481	0.02910386	-0.01672599	-0.001104057	-0.0001790639	0.03291032	0.02690971
	0.02795161	0.03239842	-0.001104057	-0.0001790639	0.03437076	-0.02340488	-0.000877506	-0.0005745682
	-0.0005530386	-0.0003923583	0.03291032	0.02690971	-0.000877506	-0.0005745682	0.02766739	-0.01629421
1e+08	0.03215628	-0.02692502	-0.001054524	-0.0004609098	0.03274671	0.03295153	-0.0006396841	-0.000378259
	-0.001054524	-0.0004609098	0.0273781	-0.0190192	-0.001229629	-0.0001713797	0.03821273	0.02579421
	0.03274671	0.03295153	-0.001229629	-0.0001713797	0.03311762	-0.02737416	-0.0009906051	-0.0004833155
	-0.0006396841	-0.000378259	0.03821273	0.02579421	-0.0009906051	-0.0004833155	0.02597822	-0.01828857
1.1e+08	0.03070735	-0.03070529	-0.001142446	-0.0003842183	0.03750518	0.03278654	-0.0007260751	-0.0003526764
	-0.001142446	-0.0003842183	0.02541081	-0.02102341	-0.001331349	-0.0001820325	0.04333429	0.02372594
	0.03750518	0.03278654	-0.001331349	-0.0001820325	0.03151792	-0.03122603	-0.001072752	-0.000402601
	-0.0007260751	-0.0003526764	0.04333429	0.02372594	-0.001072752	-0.000402601	0.02426189	-0.02013046
1.2e+08	0.02874104	-0.03427132	-0.001232261	-0.0003015303	0.04210728	0.0319548	-0.0008124979	-0.0003150112
	-0.001232261	-0.0003015303	0.02324259	-0.02257404	-0.001425316	-0.0001649666	0.04807814	0.02076839
	0.04210728	0.0319548	-0.001425316	-0.0001649666	0.02944043	-0.03483655	-0.001157042	-0.0003193136
	-0.0008124979	-0.0003150112	0.04807813	0.02076839	-0.001157042	-0.0003193136	0.02225203	-0.02159909
1.3e+08	0.02639487	-0.03750252	-0.001317153	-0.0002078763	0.04646327	0.03050444	-0.0008979708	-0.0002656422
	-0.001317153	-0.0002078763	0.02102204	-0.0236716	-0.001519493	-0.0001292429	0.0523167	0.01698708
	0.04646327	0.03050444	-0.001519493	-0.0001292429	0.02699381	-0.0380986	-0.001235934	-0.0002272067
	-0.0008979708	-0.0002656422	0.0523167	0.01698708	-0.001235934	-0.0002272068	0.02016088	-0.0226284
1.4e+08	0.02376618	-0.04034066	-0.00139467	-0.0001031005	0.05048858	0.02849583	-0.0009798145	-0.0002039694
	-0.00139467	-0.0001031005	0.01885722	-0.02434522	-0.00161421	-7.624096e-05	0.05592522	0.01246874
	0.05048858	0.02849583	-0.00161421	-7.624096e-05	0.02426956	-0.04095462	-0.001307104	-0.0001261405
	-0.0009798145	-0.0002039694	0.05592522	0.01246874	-0.001307104	-0.0001261405	0.01812081	-0.02324564
1.5e+08	0.0209481	-0.04275344	-0.001463147	1.220809e-05	0.05411047	0.02600078	-0.001056695	-0.000130378
	-0.001463147	1.220809e-05	0.01683945	-0.02464052	-0.001708604	-6.029307e-06	0.05879071	0.007318614
	0.05411047	0.02600078	-0.001708604	-6.029307e-06	0.02135994	-0.04337255	-0.001369153	-1.682494e-05
	-0.001056695	-0.000130378	0.0587907	0.007318613	-0.001369153	-1.682496e-05	0.01622787	-0.02350129
1.6e+08	0.0180304	-0.0447285	-0.0015213	0.0001370968	0.05726983	0.02310092	-0.00112732	-4.543867e-05
	-0.0015213	0.0001370968	0.0150448	-0.02461765	-0.001801136	8.163307e-05	0.06081647	0.001658452
	0.05726983	0.02310092	-0.001801136	8.163307e-05	0.01835495	-0.04534042	-0.001421223	9.969571e-05
	-0.00112732	-4.543867e-05	0.06081647	0.001658451	-0.001421223	9.969571e-05	0.01455665	-0.02345847
1.7e+08	0.01509813	-0.04627066	-0.001568135	0.0002705417	0.05992228	0.01988446	-0.001190473	5.024347e-05
	-0.001568135	0.0002705417	0.01353358	-0.02434955	-0.001889845	0.0001869693	0.06192491	-0.00437638
	0.05992228	0.01988446	-0.001889845	0.0001869693	0.01534089	-0.04686382	-0.001462782	0.0002223278
	-0.001190473	5.024347e-05	0.06192491	-0.00437638	-0.001462782	0.0002223278	0.01316366	-0.0231902
1.8e+08	0.01223055	-0.04739915	-0.00160289	0.0004114221	0.06203945	0.01644419	-0.001244989	0.0001559684
	-0.00160289	0.0004114221	0.01234804	-0.02391897	-0.001972443	0.000310182	0.06205968	-0.01063982
	0.06203945	0.01644419	-0.001972443	0.000310182	0.01239743	-0.047963	-0.001493668	0.0003499791
	-0.001244989	0.0001559684	0.06205968	-0.01063982	-0.001493668	0.0003499791	0.0120875	-0.02277771
1.9e+08	0.009498706	-0.04814609	-0.00162494	0.0005586849	0.06360908	0.01287512	-0.001289783	0.0002709795
	-0.00162494	0.0005586849	0.01151148	-0.02341566	-0.002046391	0.0004511006	0.06118755	-0.01697845
	0.06360908	0.01287512	-0.002046391	0.0004511006	0.009597011	-0.04867126	-0.001513801	0.0004817224
	-0.001289783	0.0002709795	0.06118755	-0.01697845	-0.001513801	0.0004817224	0.01134833	-0.022308
2e+08	0.006965633	-0.04855448	-0.001633613	0.0007107701	0.06463451	0.009270834	-0.001323792	0.0003943898
	-0.001633613	0.0007107701	0.01102657	-0.0229322	-0.002108271	0.0006178541	0.05929887	-0.02323518
	0.06463451	0.009270834	-0.002108271	0.0006178541	0.007002449	-0.04903223	-0.001523132	0.0006167829
	-0.001323792	0.0003943898	0.05929887	-0.02323518	-0.001523132	0.0006167829	0.01094735	-0.02187063
2.1e+08	0.004683103	-0.04867621	-0.001628752	0.0008671762	0.06513535	0.005721811	-0.001346032	0.0005252881
	-0.001628752	0.0008671762	0.01087567	-0.02255927	-0.002154704	0.0008002219	0.0564079	-0.02925258
	0.06513535	0.005721812	-0.002154704	0.0008002219	0.004667271	-0.04909915	-0.001521929	0.00075458
	-0.001346032	0.0005252881	0.0564079	-0.02925258	-0.001521929	0.00075458	0.01086527	-0.02155334
2.2e+08	0.002692998	-0.04857026	-0.001609909	0.001026996	0.06514528	0.002312436	-0.001355548	0.0006626699
	-0.001609909	0.001026996	0.01102092	-0.02238281	-0.002183114	0.0009966565	0.05255256	-0.03487661
	0.06514528	0.002312436	-0.002183114	0.0009966565	0.00263325	-0.04893176	-0.001510251	0.0008947274
	-0.001355548	0.0006626699	0.05255256	-0.03487661	-0.001510251	0.0008947274	0.01106394	-0.02143862
2.3e+08	0.001025134	-0.0483007	-0.001576642	0.001189267	0.06471135	-0.0008811826	-0.001351464	0.0008054273
	-0.001576642	0.001189267	0.01140628	-0.02247909	-0.002191158	0.001205039	0.04779385	-0.03996025
	0.06471135	-0.0008811826	-0.002191158	0.001205039	0.0009310314	-0.04859513	-0.001488089	0.001036952
	-0.001351464	0.0008054273	0.04779385	-0.03996025	-0.001488089	0.001036952	0.01148756	-0.02160033
2.4e+08	-0.0003027138	-0.04793465	-0.001528417	0.001353129	0.06389256	-0.00379302	-0.001332958	0.0009523538
	-0.001528417	0.001353129	0.01195946	-0.02291142	-0.002176752	0.001422928	0.04221451	-0.04436634
	0.06389256	-0.00379302	-0.002176752	0.001422928	-0.0004209471	-0.04815751	-0.001455234	0.001181095
	-0.001332958	0.0009523538	0.0422145	-0.04436634	-0.001455234	0.001181095	0.01206369	-0.02209916
2.5e+08	-0.001284456	-0.04754042	-0.001464728	0.001517546	0.06275736	-0.006369173	-0.001299222	0.001102178
	-0.001464728	0.001517546	0.01259436	-0.02372704	-0.00213814	0.001647521	0.03591712	-0.04797096
	0.06275736	-0.006369173	-0.00213814	0.001647521	-0.001415995	-0.04768811	-0.001411342	0.001327031
	-0.001299222	0.001102178	0.03591712	-0.04797096	-0.001411342	0.001327031	0.01270733	-0.02298027
2.6e+08	-0.001926447	-0.04718504	-0.001384974	0.001681419	0.06138176	-0.008569185	-0.001249616	0.001253467
	-0.001384974	0.001681419	0.01321494	-0.02495477	-0.002074039	0.001875759	0.02902245	-0.05066665
	0.06138176	-0.008569185	-0.002074039	0.001875759	-0.002059881	-0.04725563	-0.001355812	0.001474609
	-0.001249616	0.001253467	0.02902245	-0.05066665	-0.001355812	0.001474609	0.01332273	-0.02427041
2.7e+08	-0.002245807	-0.04693308	-0.001288552	0.001843517	0.05984693	-0.01036659	-0.001183473	0.001404737
	-0.001288552	0.001843517	0.0137185	-0.02660316	-0.001983693	0.002104329	0.02166651	-0.05236389
	0.05984693	-0.01036659	-0.001983693	0.002104329	-0.002369349	-0.04692574	-0.001287832	0.001623579
	-0.001183473	0.001404737	0.02166651	-0.05236389	-0.001287832	0.001623579	0.01380823	-0.02597626
2.8e+08	-0.002270439	-0.04684453	-0.001174876	0.002002441	0.0582368	-0.01175032	-0.001100337	0.001554302
	-0.001174876	0.002002441	0.01399974	-0.02865866	-0.001866735	0.002329929	0.01399787	-0.05299426
	0.0582368	-0.01175032	-0.001866735	0.002329929	-0.002372013	-0.04675975	-0.001206432	0.001773491
	-0.001100337	0.001554302	0.01399787	-0.05299426	-0.001206432	0.001773491	0.01405991	-0.02808267
2.9e+08	-0.002038188	-0.04697271	-0.001043443	0.002156548	0.05663521	-0.01272412	-0.0009998584	0.001700405
	-0.001043443	0.002156548	0.01395532	-0.03108597	-0.001723342	0.002549239	0.006174629	-0.05251185
	0.05663521	-0.01272412	-0.001723342	0.002549239	-0.002105391	-0.04681294	-0.001110409	0.001923688
	-0.0009998584	0.001700405	0.006174629	-0.05251185	-0.001110409	0.001923688	0.01397518	-0.03055271
3e+08	-0.001594518	-0.04736368	-0.0008938309	0.002304008	0.05512341	-0.01330705	-0.0008818503	0.001841178
	-0.0008938309	0.002304008	0.01348787	-0.03382791	-0.001554195	0.002759013	-0.001639091	-0.050894
	0.05512341	-0.01330705	-0.001554195	0.002759013	-0.001615039	-0.04713289	-0.0009985024	0.00207316
	-0.0008818503	0.001841178	-0.001639091	-0.050894	-0.0009985024	0.00207316	0.01345812	-0.03332795
3.1e+08	-0.0009918405	-0.04805445	-0.0007258207	0.002442803	0.05377804	-0.01353183	-0.0007462547	0.00197464
	-0.0007258207	0.002442803	0.01251037	-0.0368068	-0.001360301	0.002956206	-0.009276814	-0.04814283
	0.05377804	-0.01353183	-0.001360301	0.002956206	-0.0009539283	-0.04775858	-0.0008694973	0.002220535
	-0.0007462547	0.00197464	-0.009276814	-0.04814283	-0.0008694973	0.002220535	0.01242275	-0.03632914
3.2e+08	-0.0002877304	-0.0490725	-0.0005393849	0.002570685	0.05266813	-0.01344502	-0.0005933518	0.002098692
	-0.0005393849	0.002570685	0.0109496	-0.03992597	-0.001143211	0.003137984	-0.01657326	-0.04428505
	0.05266813	-0.01344502	-0.001143211	0.003137984	-0.0001801462	-0.04871915	-0.000722142	0.002364058
	-0.0005933518	0.002098692	-0.01657326	-0.04428505	-0.000722142	0.002364058	0.01079837	-0.03945852
3.3e+08	0.0004570425	-0.05043484	-0.0003348017	0.002685248	0.05185291	-0.01310457	-0.0004235684	0.002211196
	-0.0003348017	0.002685248	0.008750578	-0.04307283	-0.0009045534	0.003301854	-0.02336769	-0.03937132
	0.05185291	-0.01310457	-0.0009045534	0.003301854	0.000644822	-0.05003342	-0.0005553677	0.00250158
	-0.0004235684	0.002211196	-0.02336769	-0.03937132	-0.0005553677	0.00250158	0.008531346	-0.04260229
3.4e+08	0.001180332	-0.052148	-0.0001127184	0.002783969	0.05138074	-0.0125783	-0.0002376264	0.002310004
	-0.0001127184	0.002783969	0.005879454	-0.04612159	-0.0006464	0.003445582	-0.02950836	-0.03347591
	0.05138074	-0.0125783	-0.0006464	0.003445582	0.001457329	-0.05170942	-0.0003683636	0.002630571
	-0.0002376264	0.002310004	-0.02950836	-0.03347591	-0.0003683636	0.002630571	0.005590222	-0.04563436
3.5e+08	0.00182013	-0.05420773	0.000125809	0.002864232	0.05128658	-0.01194231	-3.656605e-05	0.002392914
	0.000125809	0.002864232	0.00232604	-0.04893781	-0.0003708929	0.003567322	-0.03485482	-0.02669468
	0.05128658	-0.01194231	-0.0003708929	0.003567322	0.002194124	-0.05374498	-0.0001607401	0.002748113
	-3.656605e-05	0.002392914	-0.03485482	-0.02669468	-0.0001607401	0.002748113	0.001966564	-0.04841937
3.6e+08	0.002316739	-0.05660021	0.0003793312	0.002923488	0.0515912	-0.01127777	0.0001782749	0.002457829
	0.0003793312	0.002923488	-0.001894547	-0.05138226	-8.013674e-05	0.003665472	-0.03928195	-0.0191436
	0.0515912	-0.01127777	-8.013674e-05	0.003665472	0.002793715	-0.05612682	6.746843e-05	0.002851041
	0.0001782749	0.002457829	-0.03928195	-0.0191436	6.746843e-05	0.002851041	-0.002321667	-0.05081826
3.7e+08	0.002614249	-0.05930149	0.0006460011	0.002959219	0.05230055	-0.01066881	0.0004053487	0.002502709
	0.0006460011	0.002959219	-0.006740274	-0.05331634	0.000223647	0.003738732	-0.04268263	-0.01095575
	0.05230055	-0.01066881	0.000223647	0.003738732	0.003198123	-0.05883257	0.0003157864	0.002935949
	0.0004053487	0.002502709	-0.04268263	-0.01095575	0.0003157864	0.002935949	-0.007230162	-0.05269268
3.8e+08	0.002662156	-0.06227918	0.0009234444	0.00296913	0.05340512	-0.01020004	0.0006426556	0.002525677
	0.0009234444	0.00296913	-0.01214278	-0.05460635	0.0005381759	0.003786033	-0.04496941	-0.002278657
	0.05340512	-0.01020004	0.0005381759	0.003786033	0.003354789	-0.06183085	0.0005829971	0.002999335
	0.0006426556	0.002525677	-0.04496941	-0.002278657	0.0005829971	0.002999335	-0.01268829	-0.05390918
3.9e+08	0.002416114	-0.06549405	0.001208915	0.002951178	0.05488034	-0.009953681	0.0008880065	0.002525025
	0.001208915	0.002951178	-0.018007	-0.05512814	0.0008612976	0.003806505	-0.04607754	0.006728449
	0.05488034	-0.009953681	0.0008612976	0.003806505	0.003216845	-0.065082	0.0008673171	0.003037727
	0.0008880065	0.002525025	-0.04607754	0.006728449	0.0008673171	0.003037727	-0.01859837	-0.05434562
4e+08	0.001839623	-0.06890022	0.001499278	0.002903669	0.05668701	-0.01000696	0.001138887	0.002499292
	0.001499278	0.002903669	-0.02421398	-0.05477328	0.001190964	0.00379933	-0.04596528	0.01589897
	0.05668701	-0.01000696	0.001190964	0.00379933	0.002745635	-0.06854092	0.001166345	0.003047735
	0.001138887	0.002499292	-0.04596528	0.01589897	0.001166345	0.003047735	-0.02483984	-0.05389441
4.1e+08	0.0009046988	-0.07244742	0.001790494	0.002824972	0.05877268	-0.01042912	0.001392603	0.002447294
	0.001790494	0.002824972	-0.03062331	-0.05345311	0.001541776	0.00375896	-0.04461511	0.0250616
	0.05877268	-0.01042912	0.001541776	0.00375896	0.001910624	-0.07215691	0.001476476	0.003027009
	0.001392603	0.002447294	-0.04461511	0.0250616	0.001476476	0.003027009	-0.03127015	-0.05246859
4.2e+08	-0.000408229	-0.07608252	0.002079105	0.002714621	0.06107245	-0.01128076	0.001646142	0.002368238
	0.002079105	0.002714621	-0.03707531	-0.05110182	0.001901577	0.003683976	-0.04203447	0.03404455
	0.06107245	-0.01128076	0.001901577	0.003683976	0.0006899419	-0.075876	0.00179452	0.002972515
	0.001646142	0.002368238	-0.04203447	0.03404455	0.00179452	0.002972515	-0.03772786	-0.05000463
4.3e+08	-0.002109317	-0.07975078	0.002361551	0.002572533	0.06351164	-0.01260969	0.001896434	0.002261579
	0.002361551	0.002572533	-0.04339705	-0.04768112	0.00225943	0.003575823	-0.03825443	0.04267899
	0.06351164	-0.01260969	0.00225943	0.003575823	-0.0009294547	-0.07964243	0.002116517	0.00288168
	0.001896434	0.002261579	-0.03825443	0.04267899	0.002116517	0.00288168	-0.04403889	-0.04646666
4.4e+08	-0.004200132	-0.08339763	0.00263389	0.002399014	0.06600725	-0.0144511	0.002140214	0.002127303
	0.00263389	0.002399014	-0.04940622	-0.04318221	0.002612788	0.003434138	-0.03332964	0.05080203
	0.06600725	-0.0144511	0.002612788	0.003434138	-0.002950745	-0.08340007	0.00243764	0.002753009
	0.002140214	0.002127303	-0.03332964	0.05080203	0.00243764	0.002753009	-0.05001957	-0.04184843
4.5e+08	-0.006673655	-0.08697019	0.002892249	0.002194943	0.06847096	-0.01682566	0.002374193	0.001965813
	0.002892249	0.002194943	-0.05491519	-0.03762782	0.002958981	0.003258641	-0.02733689	0.05826048
	0.06847096	-0.01682566	0.002958981	0.003258641	-0.005368972	-0.08709412	0.002752858	0.002585675
	0.002374193	0.001965813	-0.02733689	0.05826048	0.002752858	0.002585675	-0.05548187	-0.0361755
4.6e+08	-0.009514973	-0.09041863	0.003132789	0.00196182	0.07081119	-0.01973902	0.002595154	0.00177786
	0.003132789	0.00196182	-0.05973773	-0.03107288	0.003295013	0.003049307	-0.02037311	0.06491335
	0.07081119	-0.01973902	0.003295013	0.003049307	-0.00817086	-0.09067261	0.003056968	0.002379498
	0.002595154	0.00177786	-0.02037311	0.06491335	0.003056968	0.002379498	-0.06024006	-0.02950561
4.7e+08	-0.01270193	-0.09369668	0.003352009	0.001701556	0.072936	-0.02318086	0.002799909	0.001564716
	0.003352009	0.001701556	-0.06369585	-0.02360522	0.003617806	0.002806169	-0.01255337	0.070635
	0.072936	-0.02318086	0.003617806	0.002806169	-0.01133537	-0.09408709	0.003344584	0.002135393
	0.002799909	0.001564716	-0.01255337	0.070635	0.003344584	0.002135393	-0.06411531	-0.02192929
4.8e+08	-0.01620597	-0.09676398	0.003546667	0.001416626	0.07475565	-0.02712614	0.00298547	0.001327973
	0.003546667	0.001416626	-0.06662218	-0.0153425	0.003924199	0.002529352	-0.004008784	0.07531647
	0.07475565	-0.02712614	0.003924199	0.002529352	-0.01483485	-0.09729428	0.003610499	0.001854901
	0.00298547	0.001327973	-0.004008784	0.07531647	0.003610499	0.001854901	-0.06694199	-0.01356785
4.9e+08	-0.01999384	-0.09958547	0.003713857	0.001109991	0.07618483	-0.03153499	0.003149056	0.001069656
	0.003713857	0.001109991	-0.06836712	-0.00643302	0.00421061	0.002219527	0.005116537	0.07886862
