# GHz S RI R 45
0.000     0.027514204081    0.001874889163    0.000000048707    -0.000000036549    0.000894681983    0.001603029502    0.000000076189    -0.000000005046
            0.000000048707    -0.000000036549    0.026823221955    0.001531856418    0.000000098330    0.000000036285    0.000829433715    0.001360376261
            0.000894681823    0.001603029478    0.000000098330    0.000000036285    0.027466476421    0.001862751288    0.000000137694    0.000000083391
            0.000000076189    -0.000000005046    0.000829434175    0.001360376214    0.000000137694    0.000000083391    0.026706719196    0.001522369467
0.025     0.035573286763    0.007313900536    0.000000024999    -0.000000102035    0.005051881879    0.011528268034    0.000000094245    -0.000000055472
            0.000000024998    -0.000000102035    0.034153424441    0.006225743103    0.000000167059    0.000000010757    0.004552419616    0.010432442117
            0.005050248835    0.011531561065    0.000000167059    0.000000010757    0.035501036820    0.007283259991    0.000000269309    0.000000080380
            0.000000094244    -0.000000055472    0.004553796610    0.010431933874    0.000000269309    0.000000080380    0.034080030426    0.006202740549
0.050     0.045553461728    0.004310224534    -0.000000089773    -0.000000179673    0.015658756685    0.017710194821    0.000000049460    -0.000000155871
            -0.000000089773    -0.000000179673    0.043278596034    0.003154118955    0.000000215753    -0.000000101639    0.014240342025    0.016197879838
            0.015658744410    0.017710236375    0.000000215753    -0.000000101639    0.045461914414    0.004258912599    0.000000421026    -0.000000061452
            0.000000049460    -0.000000155871    0.014240339585    0.016197903288    0.000000421026    -0.000000061452    0.043201108989    0.003147695092
0.075     0.053115757277    -0.006449625078    -0.000000260218    -0.000000159547    0.027996953483    0.015594347980    -0.000000074996    -0.000000212108
            -0.000000260218    -0.000000159547    0.050510731184    -0.006896232344    0.000000167829    -0.000000245141    0.025821273331    0.014535773202
            0.027996949071    0.015594353846    0.000000167829    -0.000000245141    0.053029453852    -0.006488398483    0.000000444668    -0.000000315251
            -0.000000074996    -0.000000212108    0.025821268907    0.014535779021    0.000000444668    -0.000000315251    0.050448611449    -0.006877453665
0.100     0.053644307559    -0.022983910778    -0.000000414199    -0.000000016415    0.036666844036    0.005505609298    -0.000000235615    -0.000000178639
            -0.000000414199    -0.000000016415    0.051759979015    -0.022421204316    0.000000022688    -0.000000355312    0.034546417432    0.005494467033
            0.036666844017    0.005505609426    0.000000022688    -0.000000355312    0.053605636217    -0.023007990417    0.000000296509    -0.000000587473
            -0.000000235615    -0.000000178639    0.034546417413    0.005494467154    0.000000296509    -0.000000587473    0.051751460985    -0.022378991868
0.125     0.043876861041    -0.040638090819    -0.000000476151    0.000000229657    0.037257432211    -0.009216339930    -0.000000373587    -0.000000040003
            -0.000000476151    0.000000229657    0.043951039703    -0.039567789691    -0.000000192231    -0.000000371693    0.036378998435    -0.008263180016
            0.037257432211    -0.009216339930    -0.000000192231    -0.000000371693    0.043930302734    -0.040691459519    -0.000000023675    -0.000000766689
            -0.000000373587    -0.000000040003    0.036378995077    -0.008263181256    -0.000000023675    -0.000000766689    0.044034825610    -0.039542973183
0.150     0.023709742895    -0.053203730498    -0.000000387033    0.000000517997    0.027881869032    -0.023193989562    -0.000000423905    0.000000185937
            -0.000000387033    0.000000517997    0.026584093677    -0.052992574849    -0.000000412518    -0.000000255023    0.029295430047    -0.022220026214
            0.027881869032    -0.023193989562    -0.000000412518    -0.000000255023    0.023882259090    -0.053341892907    -0.000000444944    -0.000000751943
            -0.000000423905    0.000000185937    0.029295430047    -0.022220026214    -0.000000444944    -0.000000751943    0.026784059332    -0.053035239841
0.175     -0.003506846478    -0.054888164551    -0.000000128009    0.000000758441    0.009950091118    -0.030567338124    -0.000000338280    0.000000443742
            -0.000000128009    0.000000758441    0.002079085866    -0.057465879172    -0.000000556923    -0.000000008531    0.014010894209    -0.031215607807
            0.009950091118    -0.030567338124    -0.000000556923    -0.000000008531    -0.003234893662    -0.055196915487    -0.000000845533    -0.000000493132
            -0.000000338280    0.000000443742    0.014010894209    -0.031215607807    -0.000000845533    -0.000000493132    0.002378889976    -0.057651825750
0.200     -0.031323628677    -0.042308007455    0.000000269212    0.000000854432    -0.011905421557    -0.026942551572    -0.000000100056    0.000000652547
            0.000000269212    0.000000854432    -0.024376821264    -0.049517573013    -0.000000549502    0.000000315847    -0.005963409488    -0.031039516343
            -0.011905421557    -0.026942551572    -0.000000549502    0.000000315847    -0.031029888472    -0.042863999108    -0.000001081673    -0.000000016869
            -0.000000100056    0.000000652547    -0.005963409488    -0.031039516343    -0.000001081673    -0.000000016869    -0.024042789735    -0.049915640742
0.225     -0.051907238027    -0.016004677653    0.000000719913    0.000000731950    -0.031047270476    -0.011064650314    0.000000258872    0.000000724539
            0.000000719913    0.000000731950    -0.046087097236    -0.028777168473    -0.000000351872    0.000000622642    -0.025150121245    -0.019856453935
            -0.031047270476    -0.011064650314    -0.000000351872    0.000000622642    -0.051716673007    -0.016835674943    -0.000001037460    0.000000566333
            0.000000258872    0.000000724539    -0.025150121245    -0.019856453935    -0.000001037460    0.000000566333    -0.045826262701    -0.029416956085
0.250     -0.058447022188    0.019150152197    0.000001100570    0.000000366718    -0.040901837201    0.014419266707    0.000000655886    0.000000592066
            0.000001100570    0.000000366718    -0.056701502802    0.001467619229    0.000000013830    0.000000799294    -0.037646643646    0.000976383449
            -0.040901837201    0.014419266707    0.000000013830    0.000000799294    -0.058497106167    0.018090975549    -0.000000673387    0.000001086636
            0.000000655886    0.000000592066    -0.037646643646    0.000976383449    -0.000000673387    0.000001086636    -0.056636617414    0.000619188563
0.275     -0.047482611414    0.055072258876    0.000001280636    -0.000000194115    -0.037159641639    0.043554539155    0.000000972182    0.000000241058
            0.000001280636    -0.000000194115    -0.052176137729    0.034860688733    0.000000458861    0.000000758027    -0.038919390101    0.027077917548
            -0.037159641639    0.043554539155    0.000000458861    0.000000758027    -0.047877291716    0.053908509088    -0.000000053586    0.000001370227
            0.000000972182    0.000000241058    -0.038919390101    0.027077917548    -0.000000053586    0.000001370227    -0.052407280345    0.033904828129
0.300     -0.020234976426    0.082747756012    0.000001162862    -0.000000833371    -0.019247354005    0.068842375980    0.000001087658    -0.000000272537
            0.000001162862    -0.000000833371    -0.032162189824    0.063564807880    0.000000852642    0.000000471372    -0.027244491997    0.052183807485
            -0.019247354005    0.068842375980    0.000000852642    0.000000471372    -0.021002720323    0.081653511165    0.000000667415    0.000001300125
            0.000001087658    -0.000000272537    -0.027244491997    0.052183807485    0.000000667415    0.000001300125    -0.032729152197    0.062653799030
0.325     0.017608887718    0.094840095342    0.000000722035    -0.000001390178    0.009483479444    0.083438350265    0.000000925539    -0.000000828919
            0.000000722035    -0.000001390178    -0.000295470022    0.080369104867    0.000001064996    -0.000000010526    -0.004276850603    0.069858957435
            0.009483479444    0.083438350265    0.000001064996    -0.000000010526    0.016535500021    0.093992269032    0.000001291979    0.000000858547
            0.000000925539    -0.000000828919    -0.004276850603    0.069858957435    0.000001291979    0.000000858547    -0.001154512482    0.079668509157
0.350     0.057395199002    0.087678390792    0.000000018900    -0.000001702956    0.042704007083    0.082979326257    0.000000480456    -0.000001277548
            0.000000018900    -0.000001702956    0.036625211308    0.080600127480    0.000001006762    -0.000000574549    0.025337229765    0.075194013930
            0.042704007083    0.082979326257    0.000001006762    -0.000000574549    0.056172711920    0.087205615693    0.000001637710    0.000000131435
            0.000000480456    -0.000001277548    0.025337229765    0.075194013930    0.000001637710    0.000000131435    0.035602642548    0.080243205264
0.375     0.089653336750    0.062127521992    -0.000000809608    -0.000001655149    0.072671173712    0.066587280337    -0.000000173931    -0.000001480418
            -0.000000809608    -0.000001655149    0.070256144696    0.063301173187    0.000000656978    -0.000001073939    0.055071096243    0.066003244902
            0.072671173712    0.066587280337    0.000000656979    -0.000001073939    0.088494761301    0.062067564621    0.000001586020    -0.000000714632
            -0.000000173931    -0.000001480418    0.055071096243    0.066003244902    0.000001586020    -0.000000714632    0.069260972757    0.063347405366
0.400     0.106229747624    0.023419772915    -0.000001579886    -0.000001203891    0.091915129361    0.037107479561    -0.000000902500    -0.000001346185
            -0.000001579886    -0.000001203891    0.092594014370    0.031521827968    0.000000067699    -0.000001363593    0.077963843762    0.043373548293
            0.091915129361    0.037107479561    0.000000067699    -0.000001363593    0.105355176875    0.023696274614    0.000001108971    -0.000001471227
            -0.000000902500    -0.000001346185    0.077963843762    0.043373548293    0.000001108971    -0.000001471227    0.091837332301    0.031928539675
0.425     0.102081711814    -0.019816642308    -0.000002099107    -0.000000395763    0.094828668654    0.000723289825    -0.000001535245    -0.000000854532
            -0.000002099107    -0.000000395763    0.097733264111    -0.008230605958    -0.000000640044    -0.000001333160    0.088103608592    0.011565308591
            0.094828668654    0.000723289825    -0.000000640044    -0.000001333160    0.101658558317    -0.019393578486    0.000000282152    -0.000001931112
            -0.000001535245    -0.000000854532    0.088103608592    0.011565308591    0.000000282152    -0.000001931112    0.097394167568    -0.007614145189
0.450     0.076633364683    -0.057139741560    -0.000002201412    0.000000634660    0.079138616265    -0.034005544754    -0.000001897128    -0.000000064492
            -0.000002201412    0.000000634660    0.083262647234    -0.047190815570    -0.000001293740    -0.000000934534    0.082000650281    -0.022654675651
            0.079138616265    -0.034005544754    -0.000001293740    -0.000000934534    0.076716243615    -0.056843665258    -0.000000719151    -0.000001932977
            -0.000001897128    -0.000000064492    0.082000650281    -0.022654675651    -0.000000719151    -0.000001932977    0.083431256260    -0.046604366224
0.475     0.034488294062    -0.078481281813    -0.000001792026    0.000001678366    0.047022235843    -0.057834958380    -0.000001847770    0.000000883664
            -0.000001792026    0.000001678366    0.051094697642    -0.076073233122    -0.000001702610    -0.000000208318    0.059647602007    -0.051262234285
            0.047022235843    -0.057834958380    -0.000001702610    -0.000000208318    0.034969227130    -0.078608386840    -0.000001646103    -0.000001409668
            -0.000001847770    0.000000883664    0.059647602007    -0.051262234285    -0.000001646103    -0.000001409668    0.051723861363    -0.075801059329
0.500     -0.014921977343    -0.076814444669    -0.000000887555    0.000002475334    0.005353369090    -0.063272904971    -0.000001324305    0.000001772040
            -0.000000887555    0.000002475334    0.007503085342    -0.087184216331    -0.000001709064    0.000000695849    0.024994923971    -0.066771342481
            0.005353369090    -0.063272904971    -0.000001709064    0.000000695849    -0.014350887486    -0.077597108387    -0.000002232761    -0.000000439371
            -0.000001324305    0.000001772040    0.024994923971    -0.066771342481    -0.000002232761    -0.000000439371    0.008363170126    -0.087493021899
0.525     -0.059269269835    -0.050642497071    0.000000365755    0.000002777528    -0.035687207722    -0.047174487104    -0.000000371482    0.000002351061
            0.000000365755    0.000002777528    -0.037930091819    -0.076525473206    -0.000001236663    0.000001543880    -0.014644559533    -0.064307903345
            -0.035687207722    -0.047174487104    -0.000001236663    0.000001543880    -0.059301556340    -0.052206810685    -0.000002262481    0.000000755599
            -0.000000371482    0.000002351061    -0.014644559533    -0.064307903345    -0.000002262481    0.000000755599    -0.037422512579    -0.077690907494
0.550     -0.086749856925    -0.005192363753    0.000001692287    0.000002433518    -0.064182995046    -0.013116645319    0.000000788675    0.000002411296
            0.000001692287    0.000002433518    -0.074487415617    -0.045269082086    -0.000000387819    0.000002081166    -0.048841862967    -0.043618444027
            -0.064182995046    -0.013116645319    -0.000000387819    0.000002081166    -0.086001448454    -0.008728399123    -0.000001715255    0.000001829901
            0.000000788675    0.000002411296    -0.048841862967    -0.043618444027    -0.000001715255    0.000001829901    -0.072752234893    -0.047964282916
0.575     -0.089728595506    0.048887391606    0.000002752964    0.000001452909    -0.073809105237    0.032879652680    0.000001930136    0.000001850288
            0.000002752964    0.000001452909    -0.093122722070    0.000253092045    0.000000697453    0.000002104616    -0.071028426608    -0.007347591462
            -0.073809105237    0.032879652680    0.000000697453    0.000002104616    -0.090216574685    0.045844205137    -0.000000616282    0.000002499329
            0.000001930136    0.000001850288    -0.071028426608    -0.007347591462    -0.000000616282    0.000002499329    -0.092622669767    -0.002319810983
0.600     -0.067105827559    0.098399655056    0.000003243004    0.000000030846    -0.061162670670    0.078104493695    0.000002695150    0.000000774740
            0.000003243004    0.000000030846    -0.088874425508    0.049815704748    0.000001689678    0.000001586676    -0.074413553068    0.035276538624
            -0.061162670670    0.078104493695    0.000001689678    0.000001586676    -0.069015796974    0.095653838639    0.000000684411    0.000002560668
            0.000002695150    0.000000774740    -0.074413553068    0.035276538624    0.000000684411    0.000002560668    -0.089724433509    0.047121184175
0.625     -0.025257348394    0.131858563679    0.000003014211    -0.000001488476    -0.029805216449    0.112705145743    0.000002864925    -0.000000572254
            0.000003014211    -0.000001488476    -0.063206726786    0.091965292182    0.000002328274    0.000000637588    -0.058541167170    0.075078609004
            -0.029805216449    0.112705145743    0.000002328274    0.000000637588    -0.027747732658    0.130158063925    0.000001872612    0.000001982372
            0.000002864925    -0.000000572254    -0.058541167170    0.075078609004    0.000001872612    0.000001982372    -0.064884679649    0.090073036047
0.650     0.026758565983    0.143361950632    0.000002102290    -0.000002780378    0.013579255314    0.130013822818    0.000002386728    -0.000001882995
            0.000002102290    -0.000002780378    -0.021544204755    0.118709677035    0.000002459801    -0.000000532944    -0.026586185599    0.104152129610
            0.013579255314    0.130013822818    0.000002459801    -0.000000532944    0.023977605928    0.142338070030    0.000002662129    0.000000896252
            0.000002386728    -0.000001882995    -0.026586185599    0.104152129610    0.000002662129    0.000000896252    -0.023663878158    0.117383019792
0.675     0.077843449480    0.130576663097    0.000000670620    -0.000003549633    0.059932442436    0.126530266676    0.000001339727    -0.000002864882
            0.000000670620    -0.000003549633    0.027474861028    0.124135982395    0.000002028762    -0.000001670153    0.014921625563    0.116283872402
            0.059932442436    0.126530266676    0.000002028762    -0.000001670153    0.074970877767    0.130407682372    0.000002867414    -0.000000459851
            0.000001339727    -0.000002864882    0.014921625563    0.116283872402    0.000002867414    -0.000000459851    0.025050478810    0.123592071035
0.700     0.117400951260    0.096756479057    -0.000001001527    -0.000003614468    0.099944520508    0.103170942564    -0.000000077159    -0.000003295467
            -0.000001001527    -0.000003614468    0.073535138604    0.107407408924    0.000001097918    -0.000002524179    0.057553319219    0.109106357717
            0.099944520508    0.103170942564    0.000001097918    -0.000002524179    0.114836063018    0.097448624798    0.000002420326    -0.000001801086
            -0.000000077159    -0.000003295467    0.057553319219    0.109106357717    0.000002420326    -0.000001801086    0.071174989366    0.107766009328
0.725     0.137434470064    0.049070392170    -0.000002593867    -0.000002923514    0.125551249588    0.064433303754    -0.000001598233    -0.000003055891
            -0.000002593867    -0.000002923514    0.107272447419    0.072135789308    -0.000000175122    -0.000002890815    0.092833579381    0.083966372254
            0.125551249588    0.064433303754    -0.000000175122    -0.000002890815    0.135558987127    0.050418020998    0.000001372356    -0.000002835612
            -0.000001598233    -0.000003055891    0.092833579381    0.083966372254    0.000001372356    -0.000002835612    0.105389826401    0.073315158194
0.750     0.133547509507    -0.002618100112    -0.000003783383    -0.000001549917    0.130998773253    0.017877103858    -0.000002927038    -0.000002134187
            -0.000003783383    -0.000001549917    0.121768528696    0.025486162624    -0.000001554493    -0.000002634072    0.113555834801    0.045610003957
            0.130998773253    0.017877103858    -0.000001554493    -0.000002634072    0.132624408385    -0.000993563249    -0.000000104890    -0.000003300488
            -0.000002927038    -0.000002134187    0.113555834801    0.045610003957    -0.000000104890    -0.000003300488    0.120713028114    0.027213709759
0.775     0.105847452627    -0.047101726872    -0.000004280130    0.000000303585    0.114079539615    -0.026651845683    -0.000003764441    -0.000000637836
            -0.000004280130    0.000000303585    0.113713961173    -0.023020328894    -0.000002741369    -0.000001722145    0.115005292639    0.001552421908
            0.114079539615    -0.026651845683    -0.000002741369    -0.000001722145    0.105945106448    -0.045688186658    -0.000001718479    -0.000003012199
