# GHz S RI R 45
0.000     0.027514204081    0.001874889163    0.000000427120    0.000000935162    0.000894681983    0.001603029502    0.000000449434    0.000001010523
            0.000000427116    0.000000935162    0.026496041716    0.001868964959    0.000000474616    0.000001018614    0.000831707060    0.001600113121
            0.000894681823    0.001603029478    0.000000474624    0.000001018615    0.027466476421    0.001862751288    0.000000487862    0.000001104566
            0.000000449474    0.000001010523    0.000831706902    0.001600113090    0.000000487849    0.000001104566    0.026458605974    0.001877486804
0.025     0.035573286763    0.007313900536    0.000001536340    0.000001646143    0.005051881879    0.011528268034    0.000001644084    0.000001754606
            0.000001536339    0.000001646136    0.034160655601    0.006653775875    0.000001683585    0.000001840256    0.004766680298    0.010626489704
            0.005050248835    0.011531561065    0.000001683584    0.000001840261    0.035501036820    0.007283259991    0.000001787887    0.000001902284
            0.000001644085    0.000001754604    0.004765452685    0.010626530670    0.000001787890    0.000001902286    0.034101879685    0.006631242960
0.050     0.045553461728    0.004310224534    0.000003787905    0.000001649961    0.015658756685    0.017710194821    0.000004069133    0.000001742152
            0.000003787905    0.000001649961    0.043960212641    0.003564969344    0.000004131778    0.000001892172    0.014933055045    0.016315938075
            0.015658744410    0.017710236375    0.000004131778    0.000001892172    0.045461914414    0.004258912599    0.000004430102    0.000001883305
            0.000004069133    0.000001742152    0.014933052408    0.016315943199    0.000004430102    0.000001883305    0.043946462415    0.003537958075
0.075     0.053115757277    -0.006449625078    0.000005895091    -0.000000233882    0.027996953483    0.015594347980    0.000006346858    -0.000000300063
            0.000005895091    -0.000000233882    0.051901776586    -0.006969388335    0.000006425472    -0.000000100552    0.027073907238    0.014213987672
            0.027996949071    0.015594353846    0.000006425472    -0.000000100552    0.053029453852    -0.006488398483    0.000006917453    -0.000000343634
            0.000006346858    -0.000000300063    0.027073856338    0.014213985663    0.000006917453    -0.000000343634    0.051960598710    -0.007037533297
0.100     0.053644307559    -0.022983910778    0.000006648606    -0.000003662384    0.036666844036    0.005505609298    0.000007178594    -0.000004011599
            0.000006648606    -0.000003662384    0.053673339659    -0.023427821460    0.000007261025    -0.000003767920    0.036231289766    0.004350308571
            0.036666844017    0.005505609426    0.000007261025    -0.000003767920    0.053605636217    -0.023007990417    0.000007841970    -0.000004390855
            0.000007178594    -0.000004011599    0.036231289744    0.004350308760    0.000007841970    -0.000004390855    0.053820996997    -0.023580844246
0.125     0.043876861041    -0.040638090819    0.000005163709    -0.000007633704    0.037257432211    -0.009216339930    0.000005607685    -0.000008324465
            0.000005163709    -0.000007633704    0.045948956065    -0.041882940590    0.000005681616    -0.000008035172    0.038158031548    -0.010528314839
            0.037257432211    -0.009216339930    0.000005681616    -0.000008035172    0.043930302734    -0.040691459519    0.000006162108    -0.000009108408
            0.000005607685    -0.000008324465    0.038158031548    -0.010528314839    0.000006162108    -0.000009108408    0.046177940430    -0.042189060171
0.150     0.023709742895    -0.053203730498    0.000001263189    -0.000010722281    0.027881869032    -0.023193989562    0.000001432399    -0.000011710790
            0.000001263189    -0.000010722281    0.028098389967    -0.056654422321    0.000001487265    -0.000011367666    0.030679981020    -0.025721073446
            0.027881869032    -0.023193989562    0.000001487265    -0.000011367666    0.023882259090    -0.053341892907    0.000001647649    -0.000012843872
            0.000001432399    -0.000011710790    0.030679981020    -0.025721073446    0.000001647649    -0.000012843872    0.028373077394    -0.057156124235
0.175     -0.003506846478    -0.054888164551    -0.000004393018    -0.000011531714    0.009950091118    -0.030567338124    -0.000004652646    -0.000012667853
            -0.000004393018    -0.000011531714    0.002513130973    -0.062302764028    -0.000004624267    -0.000012257355    0.014453319453    -0.035814985241
            0.009950091118    -0.030567338124    -0.000004624267    -0.000012257355    -0.003234893662    -0.055196915487    -0.000004965359    -0.000013966081
            -0.000004652646    -0.000012667853    0.014453319453    -0.035814985241    -0.000004965359    -0.000013966081    0.002764675688    -0.063037125697
0.200     -0.031323628677    -0.042308007455    -0.000010375224    -0.000009167750    -0.011905421557    -0.026942551572    -0.000011126297    -0.000010224032
            -0.000010375224    -0.000009167750    -0.025560674699    -0.055059368334    -0.000011125855    -0.000009726012    -0.006943612109    -0.036323049108
            -0.011905421557    -0.026942551572    -0.000011125855    -0.000009726012    -0.031029888472    -0.042863999108    -0.000012045857    -0.000011406495
            -0.000011126297    -0.000010224032    -0.006943612109    -0.036323049108    -0.000012045857    -0.000011406495    -0.025425832960    -0.056029283623
0.225     -0.051907238027    -0.016004677653    -0.000014853022    -0.000003647826    -0.031047270476    -0.011064650314    -0.000016031683    -0.000004375609
            -0.000014853022    -0.000003647826    -0.049195840136    -0.034271876489    -0.000016048595    -0.000003765724    -0.027828861777    -0.025167176979
            -0.031047270476    -0.011064650314    -0.000016048595    -0.000003765724    -0.051716673007    -0.016835674943    -0.000017480604    -0.000005130841
            -0.000016031683    -0.000004375609    -0.027828861777    -0.025167176979    -0.000017480604    -0.000005130841    -0.049275465087    -0.035429639894
0.250     -0.058447022188    0.019150152197    -0.000016189297    0.000003950279    -0.040901837201    0.014419266707    -0.000017605584    0.000003750395
            -0.000016189297    0.000003950279    -0.061660837451    -0.003073186183    -0.000017612589    0.000004491913    -0.041972952987    -0.003566149351
            -0.040901837201    0.014419266707    -0.000017612589    0.000004491913    -0.058497106167    0.018090975549    -0.000019344774    0.000003675956
            -0.000017605584    0.000003750395    -0.041972952987    -0.003566149351    -0.000019344774    0.000003675956    -0.062026808742    -0.004317668814
0.275     -0.047482611414    0.055072258876    -0.000013542681    0.000011752606    -0.037159641639    0.043554539155    -0.000014917962    0.000012170001
            -0.000013542681    0.000011752606    -0.058457079867    0.032134819557    -0.000014874134    0.000013045699    -0.044445757929    0.024068877672
            -0.037159641639    0.043554539155    -0.000014874134    0.000013045699    -0.047877291716    0.053908509088    -0.000016590484    0.000012889944
            -0.000014917962    0.000012170001    -0.044445757929    0.024068877672    -0.000016590484    0.000012889944    -0.059125898961    0.030941605048
0.300     -0.020234976426    0.082747756012    -0.000007196962    0.000017676098    -0.019247354005    0.068842375980    -0.000008227799    0.000018656400
            -0.000007196962    0.000017676098    -0.038818765548    0.063235404897    -0.000008092791    0.000019642630    -0.033152523692    0.051239763257
            -0.019247354005    0.068842375980    -0.000008092791    0.000019642630    -0.021002720323    0.081653511165    -0.000009443807    0.000020095014
            -0.000008227799    0.000018656400    -0.033152523692    0.051239763257    -0.000009443807    0.000020095014    -0.039733136707    0.062237020140
0.325     0.017608887718    0.094840095342    0.000001540286    0.000020071141    0.009483479444    0.083438350265    0.000001110516    0.000021417804
            0.000001540286    0.000020071141    -0.006123044427    0.082538176454    0.000001358495    0.000022468819    -0.009510219768    0.071097905494
            0.009483479444    0.083438350265    0.000001358495    0.000022468819    0.016535500021    0.093992269032    0.000000674884    0.000023312217
            0.000001110516    0.000021417804    -0.009510219768    0.071097905494    0.000000674884    0.000023312217    -0.007153149555    0.081843149518
0.350     0.057395199002    0.087678390792    0.000010749230    0.000018143837    0.042704007083    0.082979326257    0.000011068263    0.000019552127
            0.000010749230    0.000018143837    0.032838838763    0.084788654648    0.000011420847    0.000020616091    0.021855447306    0.078227136833
            0.042704007083    0.082979326257    0.000011420847    0.000020616091    0.056172711920    0.087205615693    0.000011585895    0.000021503635
            0.000011068263    0.000019552127    0.021855447306    0.078227136833    0.000011585895    0.000021503635    0.031873512048    0.084434588116
0.375     0.089653336750    0.062127521992    0.000018389573    0.000012059957    0.072671173712    0.066587280337    0.000019455100    0.000013174232
            0.000018389573    0.000012059957    0.069453628014    0.068480134605    0.000019876542    0.000014213652    0.054198192469    0.069956918996
            0.072671173712    0.066587280337    0.000019876542    0.000014213652    0.088494761301    0.062067564621    0.000020899348    0.000014732194
            0.000019455100    0.000013174232    0.054198192469    0.069956918996    0.000020899348    0.000014732194    0.068745911657    0.068411977554
0.400     0.106229747624    0.023419772915    0.000022692576    0.000002846937    0.091915129361    0.037107479561    0.000024337678    0.000003330901
            0.000022692576    0.000002846937    0.095214339958    0.036269035233    0.000024780625    0.000004335796    0.080135797405    0.047019108164
            0.091915129361    0.037107479561    0.000024780625    0.000004335796    0.105355176875    0.023696274614    0.000026476667    0.000004088122
            0.000024337678    0.000003330901    0.080135797405    0.047019108164    0.000026476667    0.000004088122    0.094923016166    0.036336582012
0.425     0.102081711814    -0.019816642308    0.000022438806    -0.000007781661    0.094828668654    0.000723289825    0.000024346993    -0.000008171491
            0.000022438806    -0.000007781661    0.103566059946    -0.005490768046    0.000024773466    -0.000007183544    0.093205633492    0.013514371176
            0.094828668654    0.000723289825    0.000024773466    -0.000007183544    0.101658558317    -0.019393578486    0.000026778776    -0.000008490824
            0.000024346993    -0.000008171491    0.093205633492    0.013514371176    0.000026778776    -0.000008490824    0.103770496400    -0.005514180126
0.450     0.076633364683    -0.057139741560    0.000017211554    -0.000017624032    0.079138616265    -0.034005544754    0.000018963848    -0.000018972849
            0.000017211554    -0.000017624032    0.091405256002    -0.047907055268    0.000019361801    -0.000017965037    0.089316993458    -0.023720832836
            0.079138616265    -0.034005544754    0.000019361801    -0.000017965037    0.076716243615    -0.056843665258    0.000021186543    -0.000020443818
            0.000018963848    -0.000018972849    0.089316993458    -0.023720832836    0.000021186543    -0.000020443818    0.092067290396    -0.048286592818
0.475     0.034488294062    -0.078481281813    0.000007631839    -0.000024299285    0.047022235843    -0.057834958380    0.000008790649    -0.000026495008
            0.000007631839    -0.000024299285    0.060010185466    -0.081276036365    0.000009160115    -0.000025414708    0.067885446128    -0.056345824465
            0.047022235843    -0.057834958380    0.000009160115    -0.000025414708    0.034969227130    -0.078608386840    0.000010290474    -0.000028950303
            0.000008790649    -0.000026495008    0.067885446128    -0.056345824465    0.000010290474    -0.000028950303    0.060951390996    -0.082260768011
0.500     -0.014921977343    -0.076814444669    -0.000004506704    -0.000025841629    0.005353369090    -0.063272904971    -0.000004293172    -0.000028563868
            -0.000004506704    -0.000025841629    0.015195086345    -0.097200204462    -0.000003967415    -0.000027389449    0.032403609758    -0.076298471737
            0.005353369090    -0.063272904971    -0.000003967415    -0.000027389449    -0.014350887486    -0.077597108387    -0.000003944514    -0.000031617275
            -0.000004293172    -0.000028563868    0.032403609758    -0.076298471737    -0.000003944514    -0.000031617275    0.016079812408    -0.098968634435
0.525     -0.059269269835    -0.050642497071    -0.000016387302    -0.000021372524    -0.035687207722    -0.047174487104    -0.000017330774    -0.000024158697
            -0.000016387302    -0.000021372524    -0.033598032692    -0.090742972941    -0.000017041751    -0.000022891433    -0.010020440714    -0.077902432782
            -0.035687207722    -0.047174487104    -0.000017041751    -0.000022891433    -0.059301556340    -0.052206810685    -0.000018387577    -0.000027276064
            -0.000017330774    -0.000024158697    -0.010020440714    -0.077902432782    -0.000018387577    -0.000027276064    -0.033410521381    -0.093474685949
0.550     -0.086749856925    -0.005192363753    -0.000024962630    -0.000011622311    -0.064182995046    -0.013116645319    -0.000026744246    -0.000014124159
            -0.000024962630    -0.000011622311    -0.075318905435    -0.062051141737    -0.000026477153    -0.000012747113    -0.048626146140    -0.059860433420
            -0.064182995046    -0.013116645319    -0.000026477153    -0.000012747113    -0.086001448454    -0.008728399123    -0.000028825175    -0.000016864251
            -0.000026744246    -0.000014124159    -0.048626146140    -0.059860433420    -0.000028825175    -0.000016864251    -0.074019517228    -0.066099466585
0.575     -0.089728595506    0.048887391606    -0.000027966376    0.000001148146    -0.073809105237    0.032879652680    -0.000030537122    -0.000000374502
            -0.000027966376    0.000001148146    -0.100060504686    -0.016620912652    -0.000030269331    0.000001140414    -0.076409159845    -0.024135663871
            -0.073809105237    0.032879652680    -0.000030269331    0.000001140414    -0.090216574685    0.045844205137    -0.000033602044    -0.000001905497
            -0.000030537122    -0.000000374502    -0.076409159845    -0.024135663871    -0.000033602044    -0.000001905497    -0.100337408208    -0.020343399842
0.600     -0.067105827559    0.098399655056    -0.000024676138    0.000013778279    -0.061162670670    0.078104493695    -0.000027582273    0.000013388866
            -0.000024676138    0.000013778279    -0.101555568926    0.035670129007    -0.000027267744    0.000015061869    -0.085223249747    0.020488862774
            -0.061162670670    0.078104493695    -0.000027267744    0.000015061869    -0.069015796974    0.095653838639    -0.000031059588    0.000013284978
            -0.000027582273    0.000013388866    -0.085223249747    0.020488862774    -0.000031059588    0.000013284978    -0.103312995173    0.032072598541
0.625     -0.025257348394    0.131858563679    -0.000016307372    0.000023374913    -0.029805216449    0.112705145743    -0.000018943666    0.000024169977
            -0.000016307372    0.000023374913    -0.079926241316    0.082877912773    -0.000018519972    0.000025991822    -0.073440817276    0.064543275356
            -0.029805216449    0.112705145743    -0.000018519972    0.000025991822    -0.027747732658    0.130158063925    -0.000022063015    0.000025576606
            -0.000018943666    0.000024169977    -0.073440817276    0.064543275356    -0.000022063015    0.000025576606    -0.082508985972    0.080432678935
0.650     0.026758565983    0.143361950632    -0.000004693989    0.000028402258    0.013579255314    0.130013822818    -0.000006603661    0.000030086046
            -0.000004693989    0.000028402258    -0.039718308455    0.116117453774    -0.000006017854    0.000032004133    -0.043333487476    0.099367153563
            0.013579255314    0.130013822818    -0.000006017854    0.000032004133    0.023977605928    0.142338070030    -0.000008754863    0.000032617432
            -0.000006603661    0.000030086046    -0.043333487476    0.099367153563    -0.000008754863    0.000032617432    -0.042502954662    0.114505266914
0.675     0.077843449480    0.130576663097    0.000007846643    0.000027978982    0.059932442436    0.126530266676    0.000006968269    0.000030181388
            0.000007846643    0.000027978982    0.010922415260    0.128127875484    0.000007728427    0.000032114871    -0.000926341458    0.117571230743
            0.059932442436    0.126530266676    0.000007728427    0.000032114871    0.074970877767    0.130407682372    0.000006171976    0.000033325209
            0.000006968269    0.000030181388    -0.000926341458    0.117571230743    0.000006171976    0.000033325209    0.008169911911    0.127408445875
0.700     0.117400951260    0.096756479057    0.000019046067    0.000022376068    0.099944520508    0.103170942564    0.000019350620    0.000024623345
            0.000019046067    0.000022376068    0.061415535388    0.116689396671    0.000020244057    0.000026495815    0.045228570109    0.115561366577
            0.099944520508    0.103170942564    0.000020244057    0.000026495815    0.114836063018    0.097448624798    0.000020061378    0.000027741312
            0.000019350620    0.000024623345    0.045228570109    0.115561366577    0.000020061378    0.000027741312    0.059092792201    0.116812044407
0.725     0.137434470064    0.049070392170    0.000027024909    0.000012552415    0.125551249588    0.064433303754    0.000028463704    0.000014330348
            0.000027024909    0.000012552415    0.101593766612    0.084327261032    0.000029408737    0.000016104682    0.086060339899    0.093662596514
            0.125551249588    0.064433303754    0.000029408737    0.000016104682    0.135558987127    0.050418020998    0.000030551046    0.000016769798
            0.000028463704    0.000014330348    0.086060339899    0.093662596514    0.000030551046    0.000016769798    0.100067854594    0.085042107564
0.750     0.133547509507    -0.002618100112    0.000030301984    0.000000007900    0.130998773253    0.017877103858    0.000032611746    0.000000842022
            0.000030301984    0.000000007900    0.123397302395    0.037548471726    0.000033520084    0.000002539615    0.113444082434    0.055920654374
            0.130998773253    0.017877103858    0.000033520084    0.000002539615    0.132624408385    -0.000993563249    0.000035678744    0.000002054883
            0.000032611746    0.000000842022    0.113444082434    0.055920654374    0.000035678744    0.000002054883    0.122901874976    0.038448697134
0.775     0.105847452627    -0.047101726872    0.000027900274    -0.000013207398    0.114079539615    -0.026651845683    0.000030617014    -0.000013660892
            0.000027900274    -0.000013207398    0.122210993793    -0.014310352560    0.000031434372    -0.000011968647    0.121541876439    0.009514460454
            0.114079539615    -0.026651845683    0.000031434372    -0.000011968647    0.105945106448    -0.045688186658    0.000034060025    -0.000014015720
            0.000030617014    -0.000013660892    0.121541876439    0.009514460454    0.000034060025    -0.000014015720    0.122782215370    -0.013717196221
