# GHz S RI R 45
0.000     0.027514204081    0.001874889163    -0.000001711641    -0.000003733113    0.000894681983    0.001603029502    -0.000001900751    -0.000004073228
            -0.000001711641    -0.000003733113    0.028224785775    0.001475315483    -0.000001545712    -0.000003416552    0.000910498294    0.001471327155
            0.000894681823    0.001603029478    -0.000001545712    -0.000003416552    0.027466476421    0.001862751288    -0.000001697697    -0.000003691375
            -0.000001900751    -0.000004073228    0.000910498450    0.001471327177    -0.000001697697    -0.000003691375    0.028172683933    0.001464349974
0.025     0.035573286763    0.007313900536    -0.000004899326    -0.000007428548    0.005051881879    0.011528268034    -0.000005373589    -0.000008109025
            -0.000004899331    -0.000007428556    0.034666395977    0.008072739780    -0.000004460457    -0.000006806608    0.003856628837    0.012518463080
            0.005050248835    0.011531561065    -0.000004460450    -0.000006806591    0.035501036820    0.007283259991    -0.000004842790    -0.000007356073
            -0.000005373584    -0.000008109011    0.003855255216    0.012518467638    -0.000004842784    -0.000007356064    0.034578600970    0.008032749053
0.050     0.045553461728    0.004310224534    -0.000011528354    -0.000011062650    0.015658756685    0.017710194821    -0.000012604905    -0.000012093275
            -0.000011528354    -0.000011062650    0.040784261375    0.008315264666    -0.000010533209    -0.000010146951    0.011589771912    0.021558293901
            0.015658744410    0.017710236375    -0.000010533209    -0.000010146951    0.045461914414    0.004258912599    -0.000011404240    -0.000010980355
            -0.000012604906    -0.000012093275    0.011589777204    0.021558199093    -0.000011404240    -0.000010980355    0.040625671472    0.008285771108
0.075     0.053115757277    -0.006449625078    -0.000019530092    -0.000011166786    0.027996953483    0.015594347980    -0.000021359215    -0.000012234285
            -0.000019530093    -0.000011166787    0.044341297299    0.004537257576    -0.000017874672    -0.000010250917    0.021010893668    0.025268743318
            0.027996949071    0.015594353846    -0.000017874672    -0.000010250917    0.053029453852    -0.006488398483    -0.000019357522    -0.000011111692
            -0.000021359215    -0.000012234285    0.021010897681    0.025268737380    -0.000019357522    -0.000011111692    0.044133481788    0.004586635189
0.100     0.053644307559    -0.022983910778    -0.000027763914    -0.000007726789    0.036666844036    0.005505609298    -0.000030399101    -0.000008480061
            -0.000027763914    -0.000007726789    0.043240934530    -0.001281202837    -0.000025434285    -0.000007097298    0.028753834772    0.023946202709
            0.036666844017    0.005505609426    -0.000025434285    -0.000007097298    0.053605636217    -0.023007990417    -0.000027571379    -0.000007697886
            -0.000030399101    -0.000008480061    0.028753857718    0.023946195471    -0.000027571379    -0.000007697886    0.043049928967    -0.001108030597
0.125     0.043876861041    -0.040638090819    -0.000035229537    -0.000000755399    0.037257432211    -0.009216339930    -0.000038591144    -0.000000817183
            -0.000035229537    -0.000000755399    0.036438602855    -0.005883426609    -0.000032289021    -0.000000692512    0.032286830574    0.019704318820
            0.037257432211    -0.009216339930    -0.000032289021    -0.000000692512    0.043930302734    -0.040691459519    -0.000035012190    -0.000000725246
            -0.000038591144    -0.000000817183    0.032286829720    0.019704318299    -0.000035012190    -0.000000725246    0.036359093535    -0.005598188175
0.150     0.023709742895    -0.053203730498    -0.000040859278    0.000009731913    0.027881869032    -0.023193989562    -0.000044717261    0.000010714362
            -0.000040859278    0.000009731913    0.025339317050    -0.005834346992    -0.000037445417    0.000008945153    0.030656688023    0.015771746551
            0.027881869032    -0.023193989562    -0.000037445417    0.000008945153    0.023882259090    -0.053341892907    -0.000040562703    0.000009767255
            -0.000044717261    0.000010714362    0.030656688023    0.015771746551    -0.000040562703    0.000009767255    0.025448308829    -0.005514495587
0.175     -0.003506846478    -0.054888164551    -0.000043202123    0.000023582643    0.009950091118    -0.030567338124    -0.000047177531    0.000025874211
            -0.000043202123    0.000023582643    0.012838491538    0.001308317797    -0.000039566665    0.000021665348    0.025021870887    0.015447666468
            0.009950091118    -0.030567338124    -0.000039566665    0.000021665348    -0.003234893662    -0.055196915487    -0.000042764363    0.000023554170
            -0.000047177531    0.000025874211    0.025021871157    0.015447666031    -0.000042764363    0.000023554170    0.013165309121    0.001544296378
0.200     -0.031323628677    -0.042308007455    -0.000040379953    0.000039879361    -0.011905421557    -0.026942551572    -0.000043984056    0.000043592939
            -0.000040379953    0.000039879361    0.003165796462    0.016119658193    -0.000036930108    0.000036610227    0.018362620305    0.020834177331
            -0.011905421557    -0.026942551572    -0.000036930108    0.000036610227    -0.031029888472    -0.042863999108    -0.000039807256    0.000039649744
            -0.000043984056    0.000043592939    0.018362620305    0.020834177331    -0.000039807256    0.000039649744    0.003661350604    0.016139474791
0.225     -0.051907238027    -0.016004677653    -0.000030714734    0.000056388911    -0.031047270476    -0.011064650314    -0.000033418152    0.000061440416
            -0.000030714734    0.000056388911    0.000562075465    0.036599069177    -0.000028009246    0.000051715107    0.014487145534    0.031904614898
            -0.031047270476    -0.011064650314    -0.000028009246    0.000051715107    -0.051716673007    -0.016835674943    -0.000030136013    0.000055827020
            -0.000033418152    0.000061440416    0.014487145534    0.031904614898    -0.000030136013    0.000055827020    0.001097758851    0.036308607904
0.250     -0.058447022188    0.019150152197    -0.000013864967    0.000069720047    -0.040901837201    0.014419266707    -0.000015183746    0.000075824737
            -0.000013864967    0.000069720047    0.007682154688    0.058480053185    -0.000012518562    0.000063862806    0.016611172892    0.046355094109
            -0.040901837201    0.014419266707    -0.000012518562    0.000063862806    -0.058497106167    0.018090975549    -0.000013506944    0.000068805928
            -0.000015183746    0.000075824737    0.016611172892    0.046355094109    -0.000013506944    0.000068805928    0.008082713415    0.057868603847
0.275     -0.047482611414    0.055072258876    0.000008437132    0.000076435075    -0.037159641639    0.043554539155    0.000008863169    0.000083144208
            0.000008437132    0.000076435075    0.024446448994    0.076470380002    0.000007924865    0.000069917027    0.026101471832    0.060355342486
            -0.037159641639    0.043554539155    0.000007924865    0.000069917027    -0.047877291716    0.053908509088    0.000008357492    0.000075319664
            0.000008863169    0.000083144208    0.026101471832    0.060355342486    0.000008357492    0.000075319664    0.024546394046    0.075629114266
0.300     -0.020234976426    0.082747756012    0.000032695007    0.000074524086    -0.019247354005    0.068842375980    0.000035054982    0.000081292174
            0.000032695007    0.000074524086    0.047876745170    0.086015506030    0.000030101110    0.000068070153    0.041957419728    0.069909418747
            -0.019247354005    0.068842375980    0.000030101110    0.000068070153    -0.021002720323    0.081653511165    0.000032096951    0.000073487278
            0.000035054982    0.000081292174    0.041957419728    0.069909418747    0.000032096951    0.000073487278    0.047578896236    0.085118125186
0.325     0.017608887718    0.094840095342    0.000054970089    0.000064209606    0.009483479444    0.083438350265    0.000059280716    0.000070462087
            0.000054970089    0.000064209606    0.072988970533    0.084754251963    0.000050417089    0.000058564127    0.061175717192    0.072166912013
            0.009483479444    0.083438350265    0.000050417089    0.000058564127    0.016535500021    0.093992269032    0.000053977667    0.000063532031
            0.000059280716    0.000070462087    0.061175717192    0.072166912013    0.000053977667    0.000063532031    0.072300395641    0.084008334445
0.350     0.057395199002    0.087678390792    0.000072364823    0.000047629121    0.042704007083    0.082979326257    0.000078483390    0.000052813417
            0.000072364823    0.000047629121    0.094281243987    0.073202322115    0.000066256091    0.000043372418    0.079710282089    0.066237954652
            0.042704007083    0.082979326257    0.000066256091    0.000043372418    0.056172711920    0.087205615693    0.000071255554    0.000047449626
            0.000078483390    0.000052813417    0.079710282089    0.066237954652    0.000071255554    0.000047449626    0.093318414082    0.072789041796
0.375     0.089653336750    0.062127521992    0.000083818981    0.000027644881    0.072671173712    0.066587280337    0.000091469318    0.000031254742
            0.000083818981    0.000027644881    0.107219883121    0.054533526828    0.000076682565    0.000025100604    0.093566263363    0.053372252032
            0.072671173712    0.066587280337    0.000076682565    0.000025100604    0.088494761301    0.062067564621    0.000082892048    0.000027881512
            0.000091469318    0.000031254742    0.093566263363    0.053372252032    0.000082892048    0.000027881512    0.106181879204    0.054554146437
0.400     0.106229747624    0.023419772915    0.000089955178    0.000006524342    0.091915129361    0.037107479561    0.000098736960    0.000008112026
            0.000089955178    0.000006524342    0.109357504251    0.033780318394    0.000082277843    0.000005784171    0.099790332310    0.036693059224
            0.091915129361    0.037107479561    0.000082277843    0.000005784171    0.105355176875    0.023696274614    0.000089365152    0.000006915806
            0.000098736960    0.000008112026    0.099790332310    0.036693059224    0.000089365152    0.000006915806    0.108477623121    0.034220991931
0.425     0.102081711814    -0.019816642308    0.000092102215    -0.000014948575    0.094828668654    0.000723289825    0.000101482448    -0.000015747000
            0.000092102215    -0.000014948575    0.100976505093    0.016678697297    0.000084232177    -0.000013888334    0.097269850480    0.020569150534
            0.094828668654    0.000723289825    0.000084232177    -0.000013888334    0.101658558317    -0.019393578486    0.000091760944    -0.000014699463
            0.000101482448    -0.000015747000    0.097269850480    0.020569150534    0.000091760944    -0.000014699463    0.100459357323    0.017402400569
0.450     0.076633364683    -0.057139741560    0.000090923329    -0.000037495544    0.079138616265    -0.034005544754    0.000100233739    -0.000040920354
            0.000090923329    -0.000037495544    0.085262169248    0.008331040852    0.000083109036    -0.000034585482    0.087311784637    0.009646816868
            0.079138616265    -0.034005544754    0.000083109036    -0.000034585482    0.076716243615    -0.056843665258    0.000090527606    -0.000037521279
            0.000100233739    -0.000040920354    0.087311784637    0.009646816868    0.000090527606    -0.000037521279    0.085220239914    0.009101106360
0.475     0.034488294062    -0.078481281813    0.000085236553    -0.000062279221    0.047022235843    -0.057834958380    0.000093691165    -0.000068370585
            0.000085236553    -0.000062279221    0.067853525260    0.011730042182    0.000077789565    -0.000057339564    0.073724008550    0.007483630124
            0.047022235843    -0.057834958380    0.000077789565    -0.000057339564    0.034969227130    -0.078608386840    0.000084452788    -0.000062416825
            0.000093691165    -0.000068370585    0.073724008550    0.007483630124    0.000084452788    -0.000062416825    0.068261024884    0.012267282757
0.500     -0.014921977343    -0.076814444669    0.000071983169    -0.000088966549    0.005353369090    -0.063272904971    0.000078751459    -0.000097494860
            0.000071983169    -0.000088966549    0.055552362549    0.026480895372    0.000065457220    -0.000081811333    0.062040089817    0.015096143768
            0.005353369090    -0.063272904971    0.000065457220    -0.000081811333    -0.014350887486    -0.077597108387    0.000070688781    -0.000088820766
            0.000078751459    -0.000097494860    0.062040089817    0.015096143768    0.000070688781    -0.000088820766    0.056242541607    0.026538631859
0.525     -0.059269269835    -0.050642497071    0.000047986891    -0.000114123795    -0.035687207722    -0.047174487104    0.000052301647    -0.000124550642
            0.000047986891    -0.000114123795    0.054125444026    0.048402332465    0.000043220943    -0.000104968967    0.057699058538    0.030126308067
            -0.035687207722    -0.047174487104    0.000043220943    -0.000104968967    -0.059301556340    -0.052206810685    0.000046406343    -0.000113460396
            0.000052301647    -0.000124550642    0.057699058538    0.030126308067    0.000046406343    -0.000113460396    0.054909098823    0.047783996580
0.550     -0.086749856925    -0.005192363753    0.000012890096    -0.000131386844    -0.064182995046    -0.013116645319    0.000014182385    -0.000143051335
            0.000012890096    -0.000131386844    0.066268551476    0.069406169673    0.000012096585    -0.000119963319    0.063967963096    0.046700420807
            -0.064182995046    -0.013116645319    0.000012096585    -0.000119963319    -0.086001448454    -0.008728399123    0.000012909053    -0.000129313005
            0.000014182385    -0.000143051335    0.063967963096    0.046700420807    0.000012909053    -0.000129313005    0.066842879141    0.069120786653
0.575     -0.089728595506    0.048887391606    -0.000029430160    -0.000135028380    -0.073809105237    0.032879652680    -0.000031356329    -0.000146857866
            -0.000029430160    -0.000135028380    0.090590871095    0.084071337601    -0.000027160552    -0.000122965117    0.080811715449    0.059685217759
            -0.073809105237    0.032879652680    -0.000027160552    -0.000122965117    -0.090216574685    0.045844205137    -0.000028983506    -0.000132330257
            -0.000031356329    -0.000146857866    0.080811715449    0.059685217759    -0.000028983506    -0.000132330257    0.090452552573    0.083215106716
0.600     -0.067105827559    0.098399655056    -0.000071283868    -0.000122201392    -0.061162670670    0.078104493695    -0.000076379525    -0.000133262491
            -0.000071283868    -0.000122201392    0.121023019206    0.085866486874    -0.000065328191    -0.000111154612    0.104165149906    0.063376864225
            -0.061162670670    0.078104493695    -0.000065328191    -0.000111154612    -0.069015796974    0.095653838639    -0.000069655510    -0.000119807767
            -0.000076379525    -0.000133262491    0.104165149906    0.063376864225    -0.000069655510    -0.000119807767    0.120329614076    0.084866388864
0.625     -0.025257348394    0.131858563679    -0.000105236109    -0.000095621366    -0.029805216449    0.112705145743    -0.000113145816    -0.000105160645
            -0.000105236109    -0.000095621366    0.150687838954    0.073539677521    -0.000096259747    -0.000086602236    0.128613839559    0.055948295633
            -0.029805216449    0.112705145743    -0.000096259747    -0.000086602236    -0.027747732658    0.130158063925    -0.000102774206    -0.000093949908
            -0.000113145816    -0.000105160645    0.128613839559    0.055948295633    -0.000102774206    -0.000093949908    0.149265355289    0.072907193959
0.650     0.026758565983    0.143361950632    -0.000127291270    -0.000060342397    0.013579255314    0.130013822818    -0.000137584088    -0.000067665019
            -0.000127291270    -0.000060342397    0.172993907241    0.049286725962    -0.000115947594    -0.000054341833    0.149015123914    0.038109069586
            0.013579255314    0.130013822818    -0.000115947594    -0.000054341833    0.023977605928    0.142338070030    -0.000124265501    -0.000059860464
            -0.000137584088    -0.000067665019    0.149015123914    0.038109069586    -0.000124265501    -0.000059860464    0.171369856397    0.049347770036
0.675     0.077843449480    0.130576663097    -0.000136170955    -0.000022536997    0.059932442436    0.126530266676    -0.000148220191    -0.000027103364
            -0.000136170955    -0.000022536997    0.183379194810    0.017949642675    -0.000123735510    -0.000020076507    0.160901025130    0.012798549512
            0.059932442436    0.126530266676    -0.000123735510    -0.000020076507    0.074970877767    0.130407682372    -0.000133349661    -0.000023378852
            -0.000148220191    -0.000027103364    0.160901025130    0.012798549512    -0.000133349661    -0.000023378852    0.181894506700    0.018647377346
0.700     0.117400951260    0.096756479057    -0.000134046085    0.000012720846    0.099944520508    0.103170942564    -0.000147156172    0.000011290291
            -0.000134046085    0.000012720846    0.179973157650    -0.014299415441    -0.000121701138    0.000011774206    0.161701943996    -0.015410510493
            0.099944520508    0.103170942564    -0.000121701138    0.000011774206    0.114836063018    0.097448624798    -0.000132064839    0.000010959260
            -0.000147156172    0.000011290291    0.161701943996    -0.015410510493    -0.000132064839    0.000010959260    0.178906105056    -0.013113508155
0.725     0.137434470064    0.049070392170    -0.000124725997    0.000042906432    0.125551249588    0.064433303754    -0.000138137477    0.000044867861
            -0.000124725997    0.000042906432    0.163740855883    -0.041064688805    -0.000113286888    0.000039061046    0.150984902843    -0.041182407090
            0.125551249588    0.064433303754    -0.000113286888    0.000039061046    0.135558987127    0.050418020998    -0.000123807901    0.000040916784
            -0.000138137477    0.000044867861    0.150984902843    -0.041182407090    -0.000123807901    0.000040916784    0.163282088603    -0.039657887867
0.750     0.133547509507    -0.002618100112    -0.000111971221    0.000068339532    0.130998773253    0.017877103858    -0.000124839211    0.000073801092
            -0.000111971221    0.000068339532    0.138463319350    -0.056779315723    -0.000101812746    0.000062159156    0.130799120120    -0.059163479197
            0.130998773253    0.017877103858    -0.000101812746    0.000062159156    0.132624408385    -0.000993563249    -0.000111829112    0.000066759726
            -0.000124839211    0.000073801092    0.130799120120    -0.059163479197    -0.000111829112    0.000066759726    0.138654061365    -0.055495584325
0.775     0.105847452627    -0.047101726872    -0.000097659281    0.000091646316    0.114079539615    -0.026651845683    -0.000109049332    0.000100526526
            -0.000097659281    0.000091646316    0.110469368764    -0.057923434346    -0.000088867922    0.000083448914    0.105869011529    -0.065153660640
            0.114079539615    -0.026651845683    -0.000088867922    0.000083448914    0.105945106448    -0.045688186658    -0.000097638083    0.000090717823
            -0.000109049332    0.000100526526    0.105869011529    -0.065153660640    -0.000097638083    0.000090717823    0.111162466979    -0.057105290431
