# GHz S RI R 45
0.000     0.027514204081    0.001874889163    0.972124513435    -0.008313401126    0.000894681983    0.001603029502    -0.000882459447    -0.000548546740
            0.972124513435    -0.008313401126    0.027568370699    0.001607272338    -0.000882263020    -0.000548508328    0.000893561967    0.001642948101
            0.000894681823    0.001603029478    -0.000882263201    -0.000548508227    0.027466476421    0.001862751288    0.972164783214    -0.008317106669
            -0.000882459617    -0.000548546846    0.000893561747    0.001642948107    0.972164783214    -0.008317106669    0.027527385188    0.001595044043
0.025     0.035573286763    0.007313900536    0.931268041925    -0.263613354532    0.005051881879    0.011528268034    -0.001557776903    -0.001772743391
            0.931267971651    -0.263613492644    0.033475836036    0.007960902403    -0.001554681290    -0.001772277500    0.003489129787    0.012238460909
            0.005050248835    0.011531561065    -0.001554524458    -0.001773136596    0.035501036820    0.007283259991    0.931421069341    -0.263294098830
            -0.001559008151    -0.001771831321    0.003481208110    0.012236275108    0.931421162545    -0.263293879401    0.033403007299    0.007910889311
0.050     0.045553461728    0.004310224534    0.823526842602    -0.501424450885    0.015658756685    0.017710194821    -0.003286115577    -0.002690788617
            0.823526842602    -0.501424450885    0.038876016747    0.008854997035    -0.003283809938    -0.002691009566    0.010366203922    0.021603173831
            0.015658744410    0.017710236375    -0.003283793410    -0.002691044881    0.045461914414    0.004258912599    0.823935401807    -0.500874388843
            -0.003286123735    -0.002690802961    0.010366263812    0.021603106272    0.823935401807    -0.500874388843    0.038753384158    0.008826157244
0.075     0.053115757277    -0.006449625078    0.657635229991    -0.700726156369    0.027996953483    0.015594347980    -0.005258201267    -0.002549370074
            0.657635229991    -0.700726156369    0.042032023546    0.006464117256    -0.005253033130    -0.002551501789    0.019060803104    0.026502092697
            0.027996949071    0.015594353846    -0.005253032608    -0.002551506068    0.053029453852    -0.006488398483    0.658418270586    -0.700076863975
            -0.005258196783    -0.002549371300    0.019060801725    0.026502145424    0.658418263735    -0.700076856690    0.041879505602    0.006483318895
0.100     0.053644307559    -0.022983910778    0.445845069504    -0.847998899753    0.036666844036    0.005505609298    -0.007073574961    -0.001647560057
            0.445845069504    -0.847998899753    0.041380752537    0.002506261113    -0.007065625934    -0.001655336023    0.026841137334    0.027046249956
            0.036666844017    0.005505609426    -0.007065624577    -0.001655338307    0.053605636217    -0.023007990417    0.447066784922    -0.847424413683
            -0.007073575267    -0.001647564033    0.026841136862    0.027046250425    0.447066784922    -0.847424413683    0.041243720514    0.002602349332
0.125     0.043876861041    -0.040638090819    0.203368376219    -0.933307188782    0.037257432211    -0.009216339930    -0.008746132952    -0.000214415305
            0.203368376219    -0.933307188782    0.036239512309    -0.000335145500    -0.008747874717    -0.000244331930    0.031597201687    0.024758557536
            0.037257432211    -0.009216339930    -0.008747875874    -0.000244333490    0.043930302734    -0.040691459519    0.205026441266    -0.933004431947
            -0.008746132815    -0.000214416829    0.031597201687    0.024758557536    0.205026441266    -0.933004431947    0.036185993271    -0.000181610109
0.150     0.023709742895    -0.053203730498    -0.052209435946    -0.950945690286    0.027881869032    -0.023193989562    -0.010378019145    0.001901343600
            -0.052209435946    -0.950945690286    0.027752592278    0.000513096658    -0.010402713687    0.001855112986    0.032360627316    0.022083034876
            0.027881869032    -0.023193989562    -0.010402713687    0.001855112986    0.023882259090    -0.053341892907    -0.050194030999    -0.951111308836
            -0.010378019145    0.001901343600    0.032360627316    0.022083034876    -0.050194030999    -0.951111308836    0.027828926586    0.000680317257
0.175     -0.003506846478    -0.054888164551    -0.302500663092    -0.899881767285    0.009950091118    -0.030567338124    -0.011746805481    0.005108755884
            -0.302500663092    -0.899881767285    0.018245084684    0.006969532622    -0.011805578342    0.005058574985    0.029762657591    0.021623409501
            0.009950091118    -0.030567338124    -0.011805578342    0.005058574985    -0.003234893662    -0.055196915487    -0.300281590860    -0.900686460679
            -0.011746805481    0.005108755884    0.029762657591    0.021623409501    -0.300281590860    -0.900686460679    0.018472886981    0.007069085395
0.200     -0.031323628677    -0.042308007455    -0.529214842029    -0.784014020575    -0.011905421557    -0.026942551572    -0.012090893292    0.009670386322
            -0.529214842029    -0.784014020575    0.011012711292    0.019480952652    -0.012188517813    0.009634909084    0.025868073238    0.025202939562
            -0.011905421557    -0.026942551572    -0.012188517813    0.009634909084    -0.031029888472    -0.042863999108    -0.527014921470    -0.785577515525
            -0.012090893292    0.009670386322    0.025868073238    0.025202939562    -0.527014921470    -0.785577515525    0.011360565728    0.019417231748
0.225     -0.051907238027    -0.016004677653    -0.715595735418    -0.612309438508    -0.031047270476    -0.011064650314    -0.010324199591    0.015183969870
            -0.715595735418    -0.612309438508    0.009364366184    0.036530524608    -0.010454907862    0.015184416586    0.023499772627    0.033130736959
            -0.031047270476    -0.011064650314    -0.010454907862    0.015184416586    -0.051716673007    -0.016835674943    -0.713687609868    -0.614663327465
            -0.010324199591    0.015183969870    0.023499772627    0.033130736959    -0.713687609868    -0.614663327465    0.009743998401    0.036230556764
0.250     -0.058447022188    0.019150152197    -0.848136341786    -0.398303435764    -0.040901837201    0.014419266707    -0.005675827075    0.020378929721
            -0.848136341786    -0.398303435764    0.015440866387    0.054863730593    -0.005823048248    0.020432062014    0.025229328909    0.044008884676
            -0.040901837201    0.014419266707    -0.005823048248    0.020432062014    -0.058497106167    0.018090975549    -0.846808575270    -0.401379630378
            -0.005675827075    0.020378929721    0.025229328909    0.044008884676    -0.846808575270    -0.401379630378    0.015725843845    0.054310615007
0.275     -0.047482611414    0.055072258876    -0.918041541976    -0.158775287362    -0.037159641639    0.043554539155    0.001648231463    0.023502069557
            -0.918041541976    -0.158775287362    0.029338923537    0.070369429826    0.001507946569    0.023614568795    0.032420345135    0.055167182267
            -0.037159641639    0.043554539155    0.001507946569    0.023614568795    -0.047877291716    0.053908509088    -0.917552788476    -0.162399839213
            0.001648231463    0.023502069557    0.032420345135    0.055167182267    -0.917552788476    -0.162399839213    0.029403010722    0.069618599895
0.300     -0.020234976426    0.082747756012    -0.921951652280    0.088178352568    -0.019247354005    0.068842375980    0.010273007208    0.023151219960
            -0.921951652280    0.088178352568    0.048918384928    0.079390760189    0.010161542460    0.023318328509    0.044738814095    0.063590081774
            -0.019247354005    0.068842375980    0.010161542460    0.023318328509    -0.021002720323    0.081653511165    -0.922490504046    0.084271405842
            0.010273007208    0.023151219960    0.044738814095    0.063590081774    -0.922490504046    0.084271405842    0.048677614087    0.078561399062
0.325     0.017608887718    0.094840095342    -0.861658513029    0.325047560615    0.009483479444    0.083438350265    0.018147587832    0.019038042345
            -0.861658513029    0.325047560615    0.070397624717    0.079862206578    0.018080255716    0.019248141128    0.060278107822    0.066892249500
            0.009483479444    0.083438350265    0.018080255716    0.019248141128    0.016535500021    0.093992269032    -0.863320020904    0.321169953040
            0.018147587832    0.019038042345    0.060278107822    0.066892249500    -0.863320020904    0.321169953040    0.069838381351    0.079105971143
0.350     0.057395199002    0.087678390792    -0.743143136606    0.536263993663    0.042704007083    0.082979326257    0.023466614856    0.012195924970
            -0.743143136606    0.536263993663    0.089456186547    0.071927247792    0.023450421835    0.012438698396    0.076176471505    0.064018788952
            0.042704007083    0.082979326257    0.023450421835    0.012438698396    0.056172711920    0.087205615693    -0.745922258413    0.532745427980
            0.023466614856    0.012195924970    0.076176471505    0.064018788952    -0.745922258413    0.532745427980    0.088645541148    0.071386702349
0.375     0.089653336750    0.062127521992    -0.575430931874    0.708785641037    0.072671173712    0.066587280337    0.025486008047    0.004485670001
            -0.575430931874    0.708785641037    0.102413977601    0.057848150585    0.025526766974    0.004758321999    0.089409322405    0.055487161380
            0.072671173712    0.066587280337    0.025526766974    0.004758321999    0.088494761301    0.062067564621    -0.579236088262    0.705938385621
            0.025486008047    0.004485670001    0.089409322405    0.055487161380    -0.579236088262    0.705938385621    0.101484830285    0.057616640044
0.400     0.106229747624    0.023419772915    -0.369767728128    0.832164793791    0.091915129361    0.037107479561    0.024794508360    -0.002326891945
            -0.369767728128    0.832164793791    0.107162716736    0.041413421889    0.024907236897    -0.002018198225    0.097562680713    0.043267636233
            0.091915129361    0.037107479561    0.024907236897    -0.002018198225    0.105355176875    0.023696274614    -0.374429716565    0.830275028435
            0.024794508360    -0.002326891945    0.097562680713    0.043267636233    -0.374429716565    0.830275028435    0.106282383812    0.041505703315
0.425     0.102081711814    -0.019816642308    -0.139244341359    0.898503506672    0.094828668654    0.000723289825    0.022880002467    -0.007446692745
            -0.139244341359    0.898503506672    0.103693850826    0.027011572025    0.023102138710    -0.007095069141    0.099456257240    0.030350660391
            0.094828668654    0.000723289825    0.023102138710    -0.007095069141    0.101658558317    -0.019393578486    -0.144526397142    0.897820955450
            0.022880002467    -0.007446692745    0.099456257240    0.030350660391    -0.144526397142    0.897820955450    0.103020871425    0.027353723948
0.450     0.076633364683    -0.057139741560    0.101274522880    0.902698386159    0.079138616265    -0.034005544754    0.021186305971    -0.011418283484
            0.101274522880    0.902698386159    0.094204900967    0.018585057353    0.021590540776    -0.011029325744    0.095586796113    0.020074003851
            0.079138616265    -0.034005544754    0.021590540776    -0.011029325744    0.076716243615    -0.056843665258    0.095678973677    0.903426663573
            0.021186305971    -0.011418283484    0.095586796113    0.020074003851    0.095678973677    0.903426663573    0.093843634488    0.019025861919
0.475     0.034488294062    -0.078481281813    0.335295778762    0.843167626841    0.047022235843    -0.057834958380    0.020109037499    -0.015713179289
            0.335295778762    0.843167626841    0.082718356762    0.018554092390    0.020828178266    -0.015322907828    0.088217674106    0.015197178751
            0.047022235843    -0.057834958380    0.020828178266    -0.015322907828    0.034969227130    -0.078608386840    0.329768697966    0.845442311124
            0.020109037499    -0.015713179289    0.088217674106    0.015197178751    0.329768697966    0.845442311124    0.082683552313    0.018899452150
0.500     -0.014921977343    -0.076814444669    0.545458945378    0.722933400102    0.005353369090    -0.063272904971    0.018536905704    -0.021637310416
            0.545458945378    0.722933400102    0.074160654915    0.026949698322    0.019880726507    -0.021334431350    0.080946192332    0.016928010503
            0.005353369090    -0.063272904971    0.019880726507    -0.021334431350    -0.014350887486    -0.077597108387    0.540448445278    0.726781840993
            0.018536905704    -0.021637310416    0.080946192332    0.016928010503    0.540448445278    0.726781840993    0.074368346016    0.027010519289
0.525     -0.059269269835    -0.050642497071    0.715222626254    0.550463089695    -0.035687207722    -0.047174487104    0.014377905932    -0.029128850134
            0.715222626254    0.550463089695    0.072887010313    0.041118282597    0.017868940282    -0.028920028858    0.077603057302    0.024276523593
            -0.035687207722    -0.047174487104    0.017868940282    -0.028920028858    -0.059301556340    -0.052206810685    0.711203577840    0.555736234921
            0.014377905932    -0.029128850134    0.077603057302    0.024276523593    0.711203577840    0.555736234921    0.073226970177    0.040727403604
0.550     -0.086749856925    -0.005192363753    0.831279601013    0.339689697778    -0.064182995046    -0.013116645319    0.005920250605    -0.036240528934
            0.831279601013    0.339689697778    0.081347622047    0.055533119097    0.003864163660    -0.029634917319    0.080970437792    0.033698985186
            -0.064182995046    -0.013116645319    0.003864163660    -0.029634917319    -0.086001448454    -0.008728399123    0.828918131858    0.346161253820
            0.005920250605    -0.036240528934    0.080970437792    0.033698985186    0.828918131858    0.346161253820    0.081566276423    0.055328239264
0.575     -0.089728595506    0.048887391606    0.885463105973    0.107664940791    -0.073809105237    0.032879652680    -0.006905164221    -0.040123743495
            0.885463105973    0.107664940791    0.099064083590    0.066096212015    -0.007561569024    -0.037562983983    0.091733972825    0.041841126241
            -0.073809105237    0.032879652680    -0.007561569024    -0.037562983983    -0.090216574685    0.045844205137    0.884841417530    0.114868612306
            -0.006905164221    -0.040123743495    0.091733972825    0.041841126241    0.884841417530    0.114868612306    0.098831991033    0.065422728894
0.600     -0.067105827559    0.098399655056    0.876205344251    -0.127069916844    -0.061162670670    0.078104493695    -0.022599385060    -0.037734795182
            0.876205344251    -0.127069916844    0.122189202478    0.067603839007    -0.021321260590    -0.035758786359    0.107802485793    0.044322533757
            -0.061162670670    0.078104493695    -0.021321260590    -0.035758786359    -0.069015796974    0.095653838639    0.877559884961    -0.119743503418
            -0.022599385060    -0.037734795182    0.107802485793    0.044322533757    0.877559884961    -0.119743503418    0.121557735773    0.066750228531
0.625     -0.025257348394    0.131858563679    0.807181058900    -0.347964928700    -0.029805216449    0.112705145743    -0.034826599564    -0.026707970356
            0.807181058900    -0.347964928700    0.145738348188    0.058432159803    -0.033555486331    -0.027164649522    0.125700570285    0.039198017385
            -0.029805216449    0.112705145743    -0.033555486331    -0.027164649522    -0.027747732658    0.130158063925    0.810485684790    -0.341035358413
            -0.034826599564    -0.026707970356    0.125700570285    0.039198017385    0.810485684790    -0.341035358413    0.144529965098    0.057753244984
0.650     0.026758565983    0.143361950632    0.685643821326    -0.541124556376    0.013579255314    0.130013822818    -0.041142445982    -0.013310228343
            0.685643821326    -0.541124556376    0.164512529386    0.039617251954    -0.040845644250    -0.013868479676    0.141729561295    0.026302551596
            0.013579255314    0.130013822818    -0.040845644250    -0.013868479676    0.023977605928    0.142338070030    0.690784241157    -0.535132456053
            -0.041142445982    -0.013310228343    0.141729561295    0.026302551596    0.690784241157    -0.535132456053    0.163049668664    0.039390444058
0.675     0.077843449480    0.130576663097    0.521255781016    -0.695902631986    0.059932442436    0.126530266676    -0.041638630241    0.001055221487
            0.521255781016    -0.695902631986    0.174580555821    0.014494943411    -0.041627421429    0.000666013848    0.152344438242    0.007233304536
            0.059932442436    0.126530266676    -0.041627421429    0.000666013848    0.074970877767    0.130407682372    0.527931998947    -0.691314593306
            -0.041638630241    0.001055221487    0.152344438242    0.007233304536    0.527931998947    -0.691314593306    0.173093264212    0.014734421578
0.700     0.117400951260    0.096756479057    0.324605041142    -0.804356770806    0.099944520508    0.103170942564    -0.036599554120    0.013179478937
            0.324605041142    -0.804356770806    0.174050964017    -0.012276900663    -0.036683506361    0.012908004588    0.155244004535    -0.014975371374
            0.099944520508    0.103170942564    -0.036683506361    0.012908004588    0.114836063018    0.097448624798    0.332431761288    -0.801530488387
            -0.036599554120    0.013179478937    0.155244004535    -0.014975371374    0.332431761288    -0.801530488387    0.172747065951    -0.011625806745
0.725     0.137434470064    0.049070392170    0.107054666608    -0.860550560286    0.125551249588    0.064433303754    -0.028516264358    0.020848746676
            0.107054666608    -0.860550560286    0.163318734462    -0.035709574880    -0.028631296635    0.020645030461    0.149660602924    -0.036555374085
            0.125551249588    0.064433303754    -0.028631296635    0.020645030461    0.135558987127    0.050418020998    0.115592339844    -0.859751965435
            -0.028516264358    0.020848746676    0.149660602286    -0.036555376697    0.115592339844    -0.859751965435    0.162363428504    -0.034792675777
0.750     0.133547509507    -0.002618100112    -0.118996416205    -0.860334393127    0.130998773253    0.017877103858    -0.020578690276    0.023984753066
            -0.118996416205    -0.860334393127    0.145011596552    -0.051429903505    -0.020711087091    0.023809152538    0.136613627247    -0.053610460530
            0.130998773253    0.017877103858    -0.020711087091    0.023809152538    0.132624408385    -0.000993563249    -0.110236937507    -0.861749200577
            -0.020578690276    0.023984753066    0.136613627247    -0.053610460530    -0.110236937507    -0.861749200577    0.144482761594    -0.050462551009
0.775     0.105847452627    -0.047101726872    -0.339683097460    -0.801742598255    0.114079539615    -0.026651845683    -0.015099074134    0.024576206217
            -0.339683097460    -0.801742598255    0.123651845721    -0.056606807877    -0.015265061446    0.024407852267    0.118990422320    -0.062920750734
            0.114079539615    -0.026651845683    -0.015265061446    0.024407852267    0.105945106448    -0.045688186658    -0.331256087019    -0.805468950821
            -0.015099074134    0.024576206217    0.118990422320    -0.062920750734    -0.331256087019    -0.805468950821    0.123506561640    -0.055826784631
