# GHz S RI R 45
0.000     0.027514204081    0.001874889163    -0.000005077529    -0.000010581332    0.000894681983    0.001603029502    -0.000005923628    -0.000012777320
            -0.000005077299    -0.000010581330    0.028270480436    0.001591373313    -0.000003829434    -0.000008979376    0.001004304673    0.001636900220
            0.000894681823    0.001603029478    -0.000003829705    -0.000008979377    0.027466476421    0.001862751288    -0.000004815443    -0.000010649052
            -0.000005923655    -0.000012777320    0.001004303949    0.001636900194    -0.000004815427    -0.000010649052    0.028211344527    0.001577843632
0.025     0.035573286763    0.007313900536    -0.000013959737    -0.000021622232    0.005051881879    0.011528268034    -0.000016513514    -0.000025669893
            -0.000013959744    -0.000021622225    0.034417450019    0.007954712442    -0.000011339219    -0.000018151879    0.003815284516    0.012629160176
            0.005050248835    0.011531561065    -0.000011339226    -0.000018151884    0.035501036820    0.007283259991    -0.000013248609    -0.000020129099
            -0.000016513517    -0.000025669888    0.003815851261    0.012628166806    -0.000013248596    -0.000020129094    0.034356540501    0.007938859172
0.050     0.045553461728    0.004310224534    -0.000033265969    -0.000033018281    0.015658756685    0.017710194821    -0.000039287148    -0.000039125439
            -0.000033265969    -0.000033018281    0.040158105259    0.008522043452    -0.000027515461    -0.000027645933    0.011339953000    0.022015224881
            0.015658744410    0.017710236375    -0.000027515467    -0.000027645929    0.045461914414    0.004258912599    -0.000031338761    -0.000030455188
            -0.000039287149    -0.000039125440    0.011340017320    0.022015246868    -0.000031338761    -0.000030455187    0.040045681561    0.008520395486
0.075     0.053115757277    -0.006449625078    -0.000057191305    -0.000033929650    0.027996953483    0.015594347980    -0.000067546897    -0.000040335026
            -0.000057191306    -0.000033929650    0.043467961706    0.005386624672    -0.000047540514    -0.000028340959    0.020649208251    0.026304825666
            0.027996949071    0.015594353846    -0.000047540514    -0.000028340959    0.053029453852    -0.006488398483    -0.000053551769    -0.000030956174
            -0.000067546897    -0.000040335027    0.020649214394    0.026304825929    -0.000053551769    -0.000030956174    0.043344144829    0.005447387643
0.100     0.053644307559    -0.022983910778    -0.000082071722    -0.000024103806    0.036666844036    0.005505609298    -0.000097090686    -0.000028875844
            -0.000082071721    -0.000024103805    0.042448061296    0.000439452803    -0.000068309406    -0.000020026328    0.028535894819    0.025734589519
            0.036666844017    0.005505609426    -0.000068309406    -0.000020026328    0.053605636217    -0.023007990417    -0.000076518748    -0.000021476996
            -0.000097090686    -0.000028875844    0.028535893628    0.025734589347    -0.000076518748    -0.000021476996    0.042372219936    0.000582745592
0.125     0.043876861041    -0.040638090819    -0.000104777762    -0.000003545149    0.037257432211    -0.009216339930    -0.000124172575    -0.000004604873
            -0.000104777762    -0.000003545149    0.036245913309    -0.003237427054    -0.000087182210    -0.000002731023    0.032577212889    0.022261258619
            0.037257432211    -0.009216339930    -0.000087182210    -0.000002731023    0.043930302734    -0.040691459519    -0.000097351008    -0.000002022130
            -0.000124172575    -0.000004604873    0.032577212889    0.022261258619    -0.000097351008    -0.000002022130    0.036288661809    -0.003035783848
0.150     0.023709742895    -0.053203730498    -0.000122061145    0.000027629001    0.027881869032    -0.023193989562    -0.000144784913    0.000032393272
            -0.000122061145    0.000027629001    0.026113644207    -0.002555912776    -0.000101438844    0.000023402537    0.031831035187    0.018912491314
            0.027881869032    -0.023193989562    -0.000101438844    0.000023402537    0.023882259090    -0.053341892907    -0.000112982629    0.000027300835
            -0.000144784913    0.000032393272    0.031831035187    0.018912491314    -0.000112982629    0.000027300835    0.026340145107    -0.002377435904
0.175     -0.003506846478    -0.054888164551    -0.000129617988    0.000068989986    0.009950091118    -0.030567338124    -0.000153719247    0.000081462027
            -0.000129617988    0.000068989986    0.014866627009    0.004762300931    -0.000107476205    0.000057988640    0.027341521580    0.018786745488
            0.009950091118    -0.030567338124    -0.000107476205    0.000057988640    -0.003234893662    -0.055196915487    -0.000119328929    0.000066046854
            -0.000153719247    0.000081462027    0.027341521580    0.018786745488    -0.000119328929    0.000066046854    0.015278054126    0.004794033330
0.200     -0.031323628677    -0.042308007455    -0.000121816241    0.000117906329    -0.011905421557    -0.026942551572    -0.000144394679    0.000139292776
            -0.000121816241    0.000117906329    0.006476268857    0.019162733240    -0.000100585272    0.000098768532    0.021866090683    0.023870403921
            -0.011905421557    -0.026942551572    -0.000100585272    0.000098768532    -0.031029888472    -0.042863999108    -0.000111076810    0.000111614029
            -0.000144394679    0.000139292776    0.021866090683    0.023870403921    -0.000111076810    0.000111614029    0.006992373857    0.018928579482
0.225     -0.051907238027    -0.016004677653    -0.000093501700    0.000167815115    -0.031047270476    -0.011064650314    -0.000110954142    0.000198086464
            -0.000093501700    0.000167815115    0.004857863378    0.038682560287    -0.000076493305    0.000140173409    0.018943554448    0.034163173882
            -0.031047270476    -0.011064650314    -0.000076493305    0.000140173409    -0.051716673007    -0.016835674943    -0.000083467762    0.000157644766
            -0.000110954142    0.000198086464    0.018943554448    0.034163173882    -0.000083467762    0.000157644766    0.005328422482    0.038119458214
0.250     -0.058447022188    0.019150152197    -0.000043389223    0.000208578364    -0.040901837201    0.014419266707    -0.000052085487    0.000246059132
            -0.000043389223    0.000208578364    0.012397920392    0.059282315988    -0.000034247961    0.000173649039    0.021567227232    0.047541580835
            -0.040901837201    0.014419266707    -0.000034247961    0.000173649039    -0.058497106167    0.018090975549    -0.000035555030    0.000194454595
            -0.000052085487    0.000246059132    0.021567227232    0.047541580835    -0.000035555030    0.000194454595    0.012645925697    0.058420781660
0.275     -0.047482611414    0.055072258876    0.000023599580    0.000229691698    -0.037159641639    0.043554539155    0.000026430308    0.000271124721
            0.000023599580    0.000229691698    0.028915867620    0.076019986272    0.000021847798    0.000190430143    0.031013705883    0.060457130099
            -0.037159641639    0.043554539155    0.000021847798    0.000190430143    -0.047877291716    0.053908509088    0.000027641601    0.000212197628
            0.000026430308    0.000271124721    0.031013705883    0.060457130099    0.000027641601    0.000212197628    0.028796513327    0.074989944060
0.300     -0.020234976426    0.082747756012    0.000097070663    0.000224736382    -0.019247354005    0.068842375980    0.000112607931    0.000265916199
            0.000097070663    0.000224736382    0.051540820989    0.084699213266    0.000082942713    0.000185311268    0.046359458369    0.069203959400
            -0.019247354005    0.068842375980    0.000082942713    0.000185311268    -0.021002720323    0.081653511165    0.000095987103    0.000205136149
            0.000112607931    0.000265916199    0.046359458369    0.069203959400    0.000095987103    0.000205136149    0.050995334119    0.083697912379
0.325     0.017608887718    0.094840095342    0.000165009148    0.000193961775    0.009483479444    0.083438350265    0.000192634615    0.000230681801
            0.000165009148    0.000193961775    0.075571396111    0.083211122519    0.000138967712    0.000158748280    0.064817159450    0.071139787733
            0.009483479444    0.083438350265    0.000138967712    0.000158748280    0.016535500021    0.093992269032    0.000158024994    0.000174022389
            0.000192634615    0.000230681801    0.064817159450    0.071139787733    0.000158024994    0.000174022389    0.074653595186    0.082447862584
0.350     0.057395199002    0.087678390792    0.000218245365    0.000143566621    0.042704007083    0.082979326257    0.000255962442    0.000172449048
            0.000218245365    0.000143566621    0.095884804324    0.072149729760    0.000182396214    0.000116119055    0.082634495643    0.065450609161
            0.042704007083    0.082979326257    0.000182396214    0.000116119055    0.056172711920    0.087205615693    0.000205316452    0.000125238197
            0.000255962442    0.000172449048    0.082634495643    0.065450609161    0.000205316452    0.000125238197    0.094753452781    0.071783497402
0.375     0.089653336750    0.062127521992    0.000253035526    0.000082276764    0.072671173712    0.066587280337    0.000298225138    0.000101104909
            0.000253035526    0.000082276764    0.108328434320    0.054571609006    0.000210299088    0.000064774035    0.096119968894    0.053313828632
            0.072671173712    0.066587280337    0.000210299088    0.000064774035    0.088494761301    0.062067564621    0.000234814403    0.000067337566
            0.000298225138    0.000101104909    0.096119968894    0.053313828632    0.000234814403    0.000067337566    0.107210608626    0.054662628334
0.400     0.106229747624    0.023419772915    0.000270843033    0.000017392214    0.091915129361    0.037107479561    0.000320948690    0.000024866064
            0.000270843033    0.000017392214    0.110756472120    0.035210224315    0.000224043292    0.000010745700    0.102575258525    0.037636460617
            0.091915129361    0.037107479561    0.000224043292    0.000010745700    0.105355176875    0.023696274614    0.000248459818    0.000007211756
            0.000320948690    0.000024866064    0.102575258525    0.037636460617    0.000248459818    0.000007211756    0.109890030944    0.035693374882
0.425     0.102081711814    -0.019816642308    0.000275616161    -0.000048000373    0.094828668654    0.000723289825    0.000328356864    -0.000052871637
            0.000275616161    -0.000048000373    0.103590800597    0.019358469702    0.000226964462    -0.000043478682    0.101028952056    0.022443201737
            0.094828668654    0.000723289825    0.000226964462    -0.000043478682    0.101658558317    -0.019393578486    0.000250385132    -0.000052545485
            0.000328356864    -0.000052871637    0.101028952056    0.022443201737    0.000250385132    -0.000052545485    0.103158229179    0.020046737894
0.450     0.076633364683    -0.057139741560    0.000269828423    -0.000115377837    0.079138616265    -0.034005544754    0.000322814029    -0.000133745337
            0.000269828423    -0.000115377837    0.089915654881    0.011607993313    0.000221094519    -0.000099168779    0.092741908964    0.011958670349
            0.079138616265    -0.034005544754    0.000221094519    -0.000099168779    0.076716243615    -0.056843665258    0.000243013347    -0.000113738441
            0.000322814029    -0.000133745337    0.092741908964    0.011958670349    0.000243013347    -0.000113738441    0.089982836220    0.012229710090
0.475     0.034488294062    -0.078481281813    0.000250865989    -0.000187937138    0.047022235843    -0.057834958380    0.000300872115    -0.000221046434
            0.000250865989    -0.000187937138    0.074983945013    0.014508551103    0.000204205303    -0.000158969360    0.081229909106    0.009349693218
            0.047022235843    -0.057834958380    0.000204205303    -0.000158969360    0.034969227130    -0.078608386840    0.000223686182    -0.000179650223
            0.000300872115    -0.000221046434    0.081229909106    0.009349693218    0.000223686182    -0.000179650223    0.075459636768    0.014778233950
0.500     -0.014921977343    -0.076814444669    0.000210579166    -0.000265135424    0.005353369090    -0.063272904971    0.000253016761    -0.000313523338
            0.000210579166    -0.000265135424    0.064978002938    0.027465043502    0.000169473610    -0.000222370747    0.071516051312    0.015433334478
            0.005353369090    -0.063272904971    0.000169473610    -0.000222370747    -0.014350887486    -0.077597108387    0.000184445298    -0.000249781175
            0.000253016761    -0.000313523338    0.071516051312    0.015433334478    0.000184445298    -0.000249781175    0.065618451344    0.027174454863
0.525     -0.059269269835    -0.050642497071    0.000139908651    -0.000337782001    -0.035687207722    -0.047174487104    0.000169112645    -0.000400041068
            0.000139908651    -0.000337782001    0.065060970964    0.046421349922    0.000109401009    -0.000282003866    0.068496753471    0.027947638284
            -0.035687207722    -0.047174487104    0.000109401009    -0.000282003866    -0.059301556340    -0.052206810685    0.000116674095    -0.000315726679
            0.000169112645    -0.000400041068    0.068496753471    0.027947638284    0.000116674095    -0.000315726679    0.065531070395    0.045522424268
0.550     -0.086749856925    -0.005192363753    0.000037203530    -0.000388677662    -0.064182995046    -0.013116645319    0.000047693318    -0.000460565613
            0.000037203530    -0.000388677662    0.077393755714    0.064897763159    0.000026598596    -0.000320526383    0.075024321939    0.042076035154
            -0.064182995046    -0.013116645319    0.000026598596    -0.000320526383    -0.086001448454    -0.008728399123    0.000023610890    -0.000357354368
            0.000047693318    -0.000460565613    0.075024321939    0.042076035154    0.000023610890    -0.000357354368    0.077372680584    0.063534807339
0.575     -0.089728595506    0.048887391606    -0.000086792039    -0.000400072602    -0.073809105237    0.032879652680    -0.000098550575    -0.000474728901
            -0.000086792039    -0.000400072602    0.100152191654    0.076195719960    -0.000077809999    -0.000327221391    0.090706389790    0.052182353674
            -0.073809105237    0.032879652680    -0.000077809999    -0.000327221391    -0.090216574685    0.045844205137    -0.000093942458    -0.000362969929
            -0.000098550575    -0.000474728901    0.090706389790    0.052182353674    -0.000093942458    -0.000362969929    0.099440724636    0.074668800412
0.600     -0.067105827559    0.098399655056    -0.000210874144    -0.000363597650    -0.061162670670    0.078104493695    -0.000245002206    -0.000432884437
            -0.000210874144    -0.000363597650    0.128203723514    0.075745277823    -0.000179568487    -0.000294752955    0.112168084511    0.053875127932
            -0.061162670670    0.078104493695    -0.000179568487    -0.000294752955    -0.069015796974    0.095653838639    -0.000207674098    -0.000324024153
            -0.000245002206    -0.000432884437    0.112168084511    0.053875127932    -0.000207674098    -0.000324024153    0.126786822255    0.074416378845
0.625     -0.025257348394    0.131858563679    -0.000313076084    -0.000285732490    -0.029805216449    0.112705145743    -0.000366155482    -0.000342566371
            -0.000313076084    -0.000285732490    0.154976141505    0.062414440295    -0.000262221717    -0.000227951726    0.134417503990    0.045285238646
            -0.029805216449    0.112705145743    -0.000262221717    -0.000227951726    -0.027747732658    0.130158063925    -0.000298712803    -0.000246323467
            -0.000366155482    -0.000342566371    0.134417503990    0.045285238646    -0.000298712803    -0.000246323467    0.153022034658    0.061601023199
0.650     0.026758565983    0.143361950632    -0.000380583219    -0.000180653640    0.013579255314    0.130013822818    -0.000447131127    -0.000220186324
            -0.000380583219    -0.000180653640    0.174485492321    0.038435281649    -0.000314634248    -0.000140015504    0.152447718492    0.027227513733
            0.013579255314    0.130013822818    -0.000314634248    -0.000140015504    0.023977605928    0.142338070030    -0.000354330930    -0.000145456460
            -0.000447131127    -0.000220186324    0.152447718492    0.027227513733    -0.000354330930    -0.000145456460    0.172292338642    0.038330364026
0.675     0.077843449480    0.130576663097    -0.000408560514    -0.000066409775    0.059932442436    0.126530266676    -0.000482283990    -0.000086653542
            -0.000408560514    -0.000066409775    0.182694756470    0.008427746461    -0.000334517019    -0.000046164830    0.162340672627    0.002622897978
            0.059932442436    0.126530266676    -0.000334517019    -0.000046164830    0.074970877767    0.130407682372    -0.000372311306    -0.000039457520
            -0.000482283990    -0.000086653542    0.162340672627    0.002622897978    -0.000372311306    -0.000039457520    0.180614403617    0.009057699848
0.700     0.117400951260    0.096756479057    -0.000402263854    0.000041456467    0.099944520508    0.103170942564    -0.000477775873    0.000040066301
            -0.000402263854    0.000041456467    0.178130848068    -0.021815277281    -0.000326828710    0.000041395922    0.161878852699    -0.024242093221
            0.099944520508    0.103170942564    -0.000326828710    0.000041395922    0.114836063018    0.097448624798    -0.000359224411    0.000057413169
            -0.000477775873    0.000040066301    0.161878852699    -0.024242093221    -0.000359224411    0.000057413169    0.176489012435    -0.020593329856
0.725     0.137434470064    0.049070392170    -0.000372301553    0.000134200000    0.125551249588    0.064433303754    -0.000445876545    0.000150220132
            -0.000372301553    0.000134200000    0.162000023092    -0.046425205834    -0.000300432520    0.000116040532    0.150873751665    -0.048416395596
            0.125551249588    0.064433303754    -0.000300432520    0.000116040532    0.135558987127    0.050418020998    -0.000326232489    0.000137938134
            -0.000445876545    0.000150220132    0.150873751665    -0.048416395596    -0.000326232489    0.000137938134    0.161022702957    -0.044899444200
0.750     0.133547509507    -0.002618100112    -0.000330025598    0.000211161718    0.130998773253    0.017877103858    -0.000399248605    0.000243469746
            -0.000330025598    0.000211161718    0.138091119004    -0.060481678890    -0.000264498812    0.000177579469    0.131463037698    -0.065065091143
            0.130998773253    0.017877103858    -0.000264498812    0.000177579469    0.132624408385    -0.000993563249    -0.000284400227    0.000202928496
            -0.000399248605    0.000243469746    0.131463037698    -0.065065091143    -0.000284400227    0.000202928496    0.137841596506    -0.059028551420
0.775     0.105847452627    -0.047101726872    -0.000282308467    0.000278740939    0.114079539615    -0.026651845683    -0.000344862813    0.000327234221
            -0.000282308467    0.000278740939    0.112402646040    -0.061134239947    -0.000224461177    0.000231374450    0.108176954724    -0.070582587719
            0.114079539615    -0.026651845683    -0.000224461177    0.000231374450    0.105945106448    -0.045688186658    -0.000239696880    0.000259606884
            -0.000344862813    0.000327234221    0.108176954724    -0.070582587719    -0.000239696880    0.000259606884    0.112741836705    -0.060134840957
