# GHz S RI R 45
0.000     0.027514204081    0.001874889163    -0.000000014261    -0.000000093937    0.000894681983    0.001603029502    -0.000000017274    -0.000000097849
            -0.000000014261    -0.000000093937    0.025972789829    0.001529349044    -0.000000000833    -0.000000072483    0.000754887938    0.001360200839
            0.000894681823    0.001603029478    -0.000000000833    -0.000000072483    0.027466476421    0.001862751288    -0.000000003805    -0.000000076544
            -0.000000017274    -0.000000097849    0.000754887723    0.001360200843    -0.000000003805    -0.000000076544    0.025941875528    0.001513580623
0.025     0.035573286763    0.007313900536    -0.000000122341    -0.000000181325    0.005051881879    0.011528268034    -0.000000131289    -0.000000189152
            -0.000000122342    -0.000000181326    0.033329537335    0.005773372340    -0.000000080998    -0.000000149494    0.004396161073    0.009874132838
            0.005050248835    0.011531561065    -0.000000080998    -0.000000149494    0.035501036820    0.007283259991    -0.000000089689    -0.000000156975
            -0.000000131289    -0.000000189152    0.004396303754    0.009873336994    -0.000000089690    -0.000000156977    0.033264346575    0.005734187744
0.050     0.045553461728    0.004310224534    -0.000000361162    -0.000000201764    0.015658756685    0.017710194821    -0.000000381053    -0.000000208821
            -0.000000361162    -0.000000201764    0.042381704996    0.002488602663    -0.000000274099    -0.000000182443    0.013880207987    0.015258060732
            0.015658744410    0.017710236375    -0.000000274099    -0.000000182443    0.045461914414    0.004258912599    -0.000000293478    -0.000000188830
            -0.000000381053    -0.000000208821    0.013880228899    0.015258043060    -0.000000293478    -0.000000188830    0.042304100690    0.002470617420
0.075     0.053115757277    -0.006449625078    -0.000000600084    -0.000000026547    0.027996953483    0.015594347980    -0.000000629534    -0.000000024005
            -0.000000600084    -0.000000026547    0.049799106509    -0.007610726624    -0.000000481173    -0.000000055484    0.025370794241    0.013465399519
            0.027996949071    0.015594353846    -0.000000481173    -0.000000055484    0.053029453852    -0.006488398483    -0.000000509700    -0.000000052199
            -0.000000629534    -0.000000024005    0.025370793422    0.013465405328    -0.000000509700    -0.000000052199    0.049741020390    -0.007599337324
0.100     0.053644307559    -0.022983910778    -0.000000714666    0.000000321731    0.036666844036    0.005505609298    -0.000000747311    0.000000340582
            -0.000000714666    0.000000321731    0.051653608757    -0.023236122432    -0.000000596616    0.000000222609    0.034340937064    0.004412627623
            0.036666844017    0.005505609426    -0.000000596616    0.000000222609    0.053605636217    -0.023007990417    -0.000000628055    0.000000241886
            -0.000000747311    0.000000340582    0.034340937041    0.004412627802    -0.000000628055    0.000000241886    0.051662434682    -0.023194708030
0.125     0.043876861041    -0.040638090819    -0.000000604262    0.000000749424    0.037257432211    -0.009216339930    -0.000000630147    0.000000786997
            -0.000000604262    0.000000749424    0.044861669710    -0.040883977151    -0.000000530351    0.000000579563    0.036849578988    -0.009522842854
            0.037257432211    -0.009216339930    -0.000000530351    0.000000579563    0.043930302734    -0.040691459519    -0.000000555192    0.000000617229
            -0.000000630147    0.000000786997    0.036849579154    -0.009522842211    -0.000000555192    0.000000617229    0.044992404633    -0.040832828954
0.150     0.023709742895    -0.053203730498    -0.000000235189    0.000001112343    0.027881869032    -0.023193989562    -0.000000243482    0.000001165280
            -0.000000235189    0.000001112343    0.028700729252    -0.055489988931    -0.000000246982    0.000000896779    0.030758156605    -0.024158491651
            0.027881869032    -0.023193989562    -0.000000246982    0.000000896779    0.023882259090    -0.053341892907    -0.000000254680    0.000000949531
            -0.000000243482    0.000001165280    0.030758156605    -0.024158491651    -0.000000254680    0.000000949531    0.028985352182    -0.055502682996
0.175     -0.003506846478    -0.054888164551    0.000000338310    0.000001261248    0.009950091118    -0.030567338124    0.000000356344    0.000001320111
            0.000000338310    0.000001261248    0.005125178554    -0.062008591539    0.000000215418    0.000001048258    0.016435480611    -0.034579668814
            0.009950091118    -0.030567338124    0.000000215418    0.000001048258    -0.003234893662    -0.055196915487    0.000000233375    0.000001106990
            0.000000356344    0.000001320111    0.016435480611    -0.034579668814    0.000000233375    0.000001106990    0.005560971370    -0.062174891543
0.200     -0.031323628677    -0.042308007455    0.000000981495    0.000001092498    -0.011905421557    -0.026942551572    0.000001029146    0.000001143125
            0.000000981495    0.000001092498    -0.021249737557    -0.056833855715    0.000000750558    0.000000943062    -0.003117172614    -0.036580673405
            -0.011905421557    -0.026942551572    0.000000750558    0.000000943062    -0.031029888472    -0.042863999108    0.000000797489    0.000000993981
            0.000001029146    0.000001143125    -0.003117172614    -0.036580673405    0.000000797489    0.000000993981    -0.020717358772    -0.057242746201
0.225     -0.051907238027    -0.016004677653    0.000001514924    0.000000588146    -0.031047270476    -0.011064650314    0.000001587488    0.000000614911
            0.000001514924    0.000000588146    -0.044206673422    -0.039083383533    0.000001213381    0.000000559253    -0.022925947615    -0.027984175950
            -0.031047270476    -0.011064650314    0.000001213381    0.000000559253    -0.051716673007    -0.016835674943    0.000001284726    0.000000586965
            0.000001587488    0.000000614911    -0.022925947615    -0.027984175950    0.000001284726    0.000000586965    -0.043684445178    -0.039791157696
0.250     -0.058447022188    0.019150152197    0.000001767279    -0.000000170490    -0.040901837201    0.014419266707    0.000001851556    -0.000000179972
            0.000001767279    -0.000000170490    -0.057532802188    -0.011230999269    0.000001462719    -0.000000045777    -0.037344182430    -0.009481993934
            -0.040901837201    0.014419266707    0.000001462719    -0.000000045777    -0.058497106167    0.018090975549    0.000001545372    -0.000000053493
            0.000001851556    -0.000000179972    -0.037344182430    -0.009481993934    0.000001545372    -0.000000053493    -0.057156565034    -0.012231698304
0.275     -0.047482611414    0.055072258876    0.000001627471    -0.000001021062    -0.037159641639    0.043554539155    0.000001704288    -0.000001071232
            0.000001627471    -0.000001021062    -0.056797705512    0.021234808930    0.000001401632    -0.000000749264    -0.041646057567    0.015336664502
            -0.037159641639    0.043554539155    0.000001401632    -0.000000749264    -0.047877291716    0.053908509088    0.000001476539    -0.000000796458
            0.000001704288    -0.000001071232    -0.041646057567    0.015336664502    0.000001476539    -0.000000796458    -0.056694952459    0.020022052261
0.300     -0.020234976426    0.082747756012    0.000001076563    -0.000001761203    -0.019247354005    0.068842375980    0.000001125963    -0.000001845927
            0.000001076563    -0.000001761203    -0.040756893068    0.051047146173    0.000001001181    -0.000001392951    -0.033437904617    0.040813023517
            -0.019247354005    0.068842375980    0.000001001181    -0.000001392951    -0.021002720323    0.081653511165    0.000001048813    -0.000001473012
            0.000001125963    -0.000001845927    -0.033437904617    0.040813023517    0.000001048813    -0.000001473012    -0.041005705339    0.049768634689
0.325     0.017608887718    0.094840095342    0.000000195371    -0.000002197887    0.009483479444    0.083438350265    0.000000202305    -0.000002301516
            0.000000195371    -0.000002197887    -0.011893081985    0.070987900360    0.000000308791    -0.000001817452    -0.013415478576    0.060660901358
            0.009483479444    0.083438350265    0.000000308791    -0.000001817452    0.016535500021    0.093992269032    0.000000315207    -0.000001914410
            0.000000202305    -0.000002301516    -0.013415478576    0.060660901358    0.000000315207    -0.000001914410    -0.012489926562    0.069823316000
0.350     0.057395199002    0.087678390792    -0.000000850612    -0.000002190613    0.042704007083    0.082979326257    -0.000000892022    -0.000002291795
            -0.000000850612    -0.000002190613    0.024027676390    0.075735293580    -0.000000557352    -0.000001893698    0.014709375916    0.069574183558
            0.042704007083    0.082979326257    -0.000000557352    -0.000001893698    0.056172711920    0.087205615693    -0.000000596647    -0.000001986776
            -0.000000892022    -0.000002291795    0.014709375916    0.069574183558    -0.000000596647    -0.000001986776    0.023178837307    0.074852963997
0.375     0.089653336750    0.062127521992    -0.000001840691    -0.000001684795    0.072671173712    0.066587280337    -0.000001926086    -0.000001761635
            -0.000001840691    -0.000001684795    0.059249823791    0.063214182651    -0.000001423528    -0.000001552971    0.045040108732    0.064537817734
            0.072671173712    0.066587280337    -0.000001423528    -0.000001552971    0.088494761301    0.062067564621    -0.000001503184    -0.000001621834
            -0.000001926086    -0.000001761635    0.045040108732    0.064537817734    -0.000001503184    -0.000001621834    0.058325834390    0.062724532228
0.400     0.106229747624    0.023419772915    -0.000002537998    -0.000000731310    0.091915129361    0.037107479561    -0.000002654060    -0.000000765668
            -0.000002537998    -0.000000731310    0.085759391561    0.035176259719    -0.000002086871    -0.000000810715    0.070798338352    0.045590650766
            0.091915129361    0.037107479561    -0.000002086871    -0.000000810715    0.105355176875    0.023696274614    -0.000002193575    -0.000000839456
            -0.000002654060    -0.000000765668    0.070798338352    0.045590650766    -0.000002193575    -0.000000839456    0.084983405883    0.035095076537
0.425     0.102081711814    -0.019816642308    -0.000002737391    0.000000507871    0.094828668654    0.000723289825    -0.000002864419    0.000000527419
            -0.000002737391    0.000000507871    0.097050486822    -0.003071095204    -0.000002355583    0.000000218060    0.085784586549    0.015925481368
            0.094828668654    0.000723289825    -0.000002355583    0.000000218060    0.101658558317    -0.019393578486    -0.000002470849    0.000000239054
            -0.000002864419    0.000000527419    0.085784586549    0.015925481368    -0.000002470849    0.000000239054    0.096642893588    -0.002840596871
0.450     0.076633364683    -0.057139741560    -0.000002317061    0.000001778660    0.079138616265    -0.034005544754    -0.000002431990    0.000001854525
            -0.000002317061    0.000001778660    0.089604338396    -0.043655083096    -0.000002098091    0.000001327727    0.085764605957    -0.018622130129
            0.079138616265    -0.034005544754    -0.000002098091    0.000001327727    0.076716243615    -0.056843665258    -0.000002200508    0.000001400498
            -0.000002431990    0.000001854525    0.085764605957    -0.018622130129    -0.000002200508    0.000001400498    0.089726363367    -0.043315087070
0.475     0.034488294062    -0.078481281813    -0.000001301494    0.000002787632    0.047022235843    -0.057834958380    -0.000001379875    0.000002909913
            -0.000001301494    0.000002787632    0.063821449470    -0.077689401046    -0.000001308992    0.000002266378    0.069541197252    -0.050651321126
            0.047022235843    -0.057834958380    -0.000001308992    0.000002266378    0.034969227130    -0.078608386840    -0.000001376330    0.000002383323
            -0.000001379875    0.000002909913    0.069541197252    -0.050651321126    -0.000001376330    0.000002383323    0.064525669935    -0.077513771520
0.500     -0.014921977343    -0.076814444669    0.000000109241    0.000003242370    0.005353369090    -0.063272904971    0.000000091067    0.000003390944
            0.000000109241    0.000003242370    0.024225653280    -0.097161938863    -0.000000142925    0.000002763835    0.039514231961    -0.072727873567
            0.005353369090    -0.063272904971    -0.000000142925    0.000002763835    -0.014350887486    -0.077597108387    -0.000000154609    0.000002906817
            0.000000091067    0.000003390944    0.039514231961    -0.072727873567    -0.000000154609    0.000002906817    0.025423947519    -0.097438523989
0.525     -0.059269269835    -0.050642497071    0.000001617391    0.000002968706    -0.035687207722    -0.047174487104    0.000001670999    0.000003114980
            0.000001617391    0.000002968706    -0.021235398157    -0.096829793259    0.000001163840    0.000002647311    0.001463968273    -0.079124460919
            -0.035687207722    -0.047174487104    0.000001163840    0.000002647311    -0.059301556340    -0.052206810685    0.000001219330    0.000002788771
            0.000001670999    0.000003114980    0.001463968273    -0.079124460919    0.000001219330    0.000002788771    -0.019770295823    -0.097788539572
0.550     -0.086749856925    -0.005192363753    0.000002864034    0.000001995513    -0.064182995046    -0.013116645319    0.000002984191    0.000002105276
            0.000002864034    0.000001995513    -0.062795653556    -0.075682469393    0.000002267271    0.000001933937    -0.036548027966    -0.067384033559
            -0.064182995046    -0.013116645319    0.000002267271    0.000001933937    -0.086001448454    -0.008728399123    0.000002383984    0.000002041551
            0.000002984191    0.000002105276    -0.036548027966    -0.067384033559    0.000002383984    0.000002041551    -0.061390519411    -0.077428016133
0.575     -0.089728595506    0.048887391606    0.000003543713    0.000000526678    -0.073809105237    0.032879652680    0.000003707022    0.000000570328
            0.000003543713    0.000000526678    -0.091116998896    -0.037467747144    0.000002967039    0.000000733770    -0.066022174999    -0.039162550285
            -0.073809105237    0.032879652680    0.000002967039    0.000000733770    -0.090216574685    0.045844205137    0.000003124699    0.000000777942
            0.000003707022    0.000000570328    -0.066022174999    -0.039162550285    0.000003124699    0.000000777942    -0.090124080718    -0.039937269510
0.600     -0.067105827559    0.098399655056    0.000003489974    -0.000001115172    -0.061162670670    0.078104493695    0.000003659813    -0.000001152039
            0.000003489974    -0.000001115172    -0.099602139085    0.010007528606    0.000003066886    -0.000000656975    -0.080131012179    -0.000011468110
            -0.061162670670    0.078104493695    0.000003066886    -0.000000656975    -0.069015796974    0.095653838639    0.000003230216    -0.000000689349
            0.000003659813    -0.000001152039    -0.080131012179    -0.000011468110    0.000003230216    -0.000000689349    -0.099311354867    0.007044686170
0.625     -0.025257348394    0.131858563679    0.000002718368    -0.000002581122    -0.029805216449    0.112705145743    0.000002856031    -0.000002692582
            0.000002718368    -0.000002581122    -0.086047317900    0.056696669895    0.000002548872    -0.000001971861    -0.075410820620    0.041926659862
            -0.029805216449    0.112705145743    0.000002548872    -0.000001971861    -0.027747732658    0.130158063925    0.000002680388    -0.000002074743
            0.000002856031    -0.000002692582    -0.075410820620    0.041926659862    0.000002680388    -0.000002074743    -0.086612140365    0.053594312943
0.650     0.026758565983    0.143361950632    0.000001368004    -0.000003595726    0.013579255314    0.130013822818    0.000001442618    -0.000003758900
            0.000001368004    -0.000003595726    -0.053139595627    0.092707594064    0.000001502047    -0.000002962065    -0.052543519464    0.077868830579
            0.013579255314    0.130013822818    0.000001502047    -0.000002962065    0.023977605928    0.142338070030    0.000001572903    -0.000003112083
            0.000001442618    -0.000003758900    -0.052543519464    0.077868830579    0.000001572903    -0.000003112083    -0.054534770365    0.089862174150
0.675     0.077843449480    0.130576663097    -0.000000325338    -0.000003946900    0.059932442436    0.126530266676    -0.000000329707    -0.000004127846
            -0.000000325338    -0.000003946900    -0.007711539302    0.110534705776    0.000000097609    -0.000003436229    -0.016057243158    0.100362720452
            0.059932442436    0.126530266676    0.000000097609    -0.000003436229    0.074970877767    0.130407682372    0.000000094533    -0.000003600578
            -0.000000329707    -0.000004127846    -0.016057243158    0.100362720452    0.000000094533    -0.000003600578    -0.009733309359    0.108297003931
0.700     0.117400951260    0.096756479057    -0.000002061008    -0.000003535869    0.099944520508    0.103170942564    -0.000002143409    -0.000003698874
            -0.000002061008    -0.000003535869    0.040891680543    0.106573818608    -0.000001434196    -0.000003273190    0.026780205605    0.104784412146
            0.099944520508    0.103170942564    -0.000001434196    -0.000003273190    0.114836063018    0.097448624798    -0.000001508538    -0.000003418895
            -0.000002143409    -0.000003698874    0.026780205605    0.104784412146    -0.000001508538    -0.000003418895    0.038587332755    0.105172105548
0.725     0.137434470064    0.049070392170    -0.000003514568    -0.000002382127    0.125551249588    0.064433303754    -0.000003660121    -0.000002496564
            -0.000003514568    -0.000002382127    0.082811166833    0.081679630191    -0.000002818992    -0.000002439942    0.067487959782    0.090110885460
            0.125551249588    0.064433303754    -0.000002818992    -0.000002439942    0.135558987127    0.050418020998    -0.000002949569    -0.000002540006
            -0.000003660121    -0.000002496564    0.067487959782    0.090110885460    -0.000002949569    -0.000002540006    0.080642187246    0.081168754482
0.750     0.133547509507    -0.002618100112    -0.000004370134    -0.000000635655    0.130998773253    0.017877103858    -0.000004554082    -0.000000679661
            -0.000004370134    -0.000000635655    0.109593482137    0.040848404420    -0.000003761533    -0.000001016736    0.097971885745    0.059029323213
            0.130998773253    0.017877103858    -0.000003761533    -0.000001016736    0.132624408385    -0.000993563249    -0.000003925542    -0.000001052784
            -0.000004554082    -0.000000679661    0.097971885745    0.059029323213    -0.000003925542    -0.000001052784    0.107970628433    0.041091848319
0.775     0.105847452627    -0.047101726872    -0.000004374640    0.000001410664    0.114079539615    -0.026651845683    -0.000004565902    0.000001448797
            -0.000004374640    0.000001410664    0.115745840994    -0.007783317097    -0.000003995863    0.000000775841    0.111984346763    0.017449425240
            0.114079539615    -0.026651845683    -0.000003995863    0.000000775841    0.105945106448    -0.045688186658    -0.000004165976    0.000000813365
