# GHz S RI R 45
0.000     0.027514204081    0.001874889163    -0.000000010980    0.000000493911    0.000894681983    0.001603029502    -0.000000216147    0.000000110416
            -0.000000010978    0.000000493911    0.028069504416    0.001148896933    0.000000140289    0.000000777976    0.000935544538    0.001223058444
            0.000894681823    0.001603029478    0.000000140271    0.000000777976    0.027466476421    0.001862751288    -0.000000010919    0.000000503365
            -0.000000216147    0.000000110416    0.000935544538    0.001223058444    -0.000000010919    0.000000503365    0.028083942141    0.001160976522
0.025     0.035573286763    0.007313900536    0.000000324579    0.000001077044    0.005051881879    0.011528268034    -0.000000215045    0.000000311276
            0.000000324580    0.000001077046    0.033958447194    0.007090989314    0.000000729382    0.000001641092    0.003568521546    0.011631880442
            0.005050248835    0.011531561065    0.000000729379    0.000001641081    0.035501036820    0.007283259991    0.000000337380    0.000001094055
            -0.000000215046    0.000000311276    0.003568443315    0.011630222465    0.000000337380    0.000001094054    0.033861462664    0.007042186905
0.050     0.045553461728    0.004310224534    0.000001195311    0.000001806963    0.015658756685    0.017710194821    -0.000000017896    0.000000682113
            0.000001195311    0.000001806963    0.039419684607    0.007089455656    0.000002100480    0.000002621345    0.010670948340    0.020233624287
            0.015658744410    0.017710236375    0.000002100480    0.000002621345    0.045461914414    0.004258912599    0.000001222189    0.000001816592
            -0.000000017896    0.000000682113    0.010671004163    0.020233588063    0.000001222189    0.000001816592    0.039225277005    0.007074445026
0.075     0.053115757277    -0.006449625078    0.000002413443    0.000002080601    0.027996953483    0.015594347980    0.000000377223    0.000000934215
            0.000002413443    0.000002080601    0.042614360588    0.003475064529    0.000003894655    0.000002889412    0.019506516615    0.023965904579
            0.027996949071    0.015594353846    0.000003894655    0.000002889412    0.053029453852    -0.006488398483    0.000002422534    0.000002074956
            0.000000377223    0.000000934215    0.019506523756    0.023965909081    0.000002422534    0.000002074956    0.042328511838    0.003562346559
0.100     0.053644307559    -0.022983910778    0.000003794516    0.000001793958    0.036666844036    0.005505609298    0.000000884946    0.000001008111
            0.000003794516    0.000001793958    0.041638503681    -0.002075862397    0.000005858723    0.000002356089    0.027012959961    0.022969987413
            0.036666844017    0.005505609426    0.000005858723    0.000002356089    0.053605636217    -0.023007990417    0.000003756940    0.000001810161
            0.000000884946    0.000001008111    0.027012959961    0.022969987413    0.000003756940    0.000001810161    0.041315501098    -0.001818697094
0.125     0.043876861041    -0.040638090819    0.000005135433    0.000000900301    0.037257432211    -0.009216339930    0.000001445267    0.000000889028
            0.000005135433    0.000000900301    0.035514032810    -0.006703225589    0.000007729610    0.000000979682    0.030805817587    0.019023511691
            0.037257432211    -0.009216339930    0.000007729610    0.000000979682    0.043930302734    -0.040691459519    0.000005070652    0.000001003870
            0.000001445267    0.000000889028    0.030805816736    0.019023511165    0.000005070652    0.000001003870    0.035249479890    -0.006257891748
0.150     0.023709742895    -0.053203730498    0.000006218388    -0.000000593123    0.027881869032    -0.023193989562    0.000002012056    0.000000549040
            0.000006218388    -0.000000593123    0.025227037479    -0.007372397599    0.000009233830    -0.000001230954    0.029831171977    0.014966141636
            0.027881869032    -0.023193989562    0.000009233830    -0.000001230954    0.023882259090    -0.053341892907    0.000006212958    -0.000000361353
            0.000002012056    0.000000549040    0.029831171977    0.014966141636    0.000006212958    -0.000000361353    0.025116152741    -0.006767331277
0.175     -0.003506846478    -0.054888164551    0.000006817110    -0.000002616368    0.009950091118    -0.030567338124    0.000002518214    -0.000000043996
            0.000006817110    -0.000002616368    0.013256826037    -0.001735455426    0.000010056153    -0.000004213595    0.024882225940    0.013826026549
            0.009950091118    -0.030567338124    0.000010056153    -0.000004213594    -0.003234893662    -0.055196915487    0.000006988799    -0.000002299124
            0.000002518214    -0.000000043996    0.024882225940    0.013826026549    0.000006988799    -0.000002299124    0.013365528706    -0.001066703920
0.200     -0.031323628677    -0.042308007455    0.000006706050    -0.000005013720    -0.011905421557    -0.026942551572    0.000002850176    -0.000000910228
            0.000006706050    -0.000005013720    0.003295459921    0.010966299922    0.000009839361    -0.000007775453    0.018425429850    0.017719247469
            -0.011905421557    -0.026942551572    0.000009839361    -0.000007775453    -0.031029888472    -0.042863999108    0.000007124789    -0.000004749824
            0.000002850176    -0.000000910228    0.018425429850    0.017719247469    0.000007124789    -0.000004749824    0.003619015446    0.011572538129
0.225     -0.051907238027    -0.016004677653    0.000005704841    -0.000007522208    -0.031047270476    -0.011064650314    0.000002857855    -0.000002001823
            0.000005704842    -0.000007522208    -0.000803277036    0.029276250981    0.000008264155    -0.000011525934    0.013822984279    0.026987679440
            -0.031047270476    -0.011064650314    0.000008264155    -0.000011525934    -0.051716673007    -0.016835674943    0.000006321101    -0.000007488311
            0.000002857855    -0.000002001823    0.013822983807    0.026987679681    0.000006321101    -0.000007488311    -0.000347454211    0.029714808685
0.250     -0.058447022188    0.019150152197    0.000003744326    -0.000009784000    -0.040901837201    0.014419266707    0.000002405290    -0.000003171718
            0.000003744326    -0.000009784000    0.003624900206    0.049679737466    0.000005194069    -0.000014880985    0.014148930441    0.039950186034
            -0.040901837201    0.014419266707    0.000005194069    -0.000014880985    -0.058497106167    0.018090975549    0.000004383593    -0.000010090196
            0.000002405290    -0.000003171718    0.014148930441    0.039950186034    0.000004383593    -0.000010090196    0.004077067295    0.049912763534
0.275     -0.047482611414    0.055072258876    0.000000924368    -0.000011412209    -0.037159641639    0.043554539155    0.000001451598    -0.000004190471
            0.000000924368    -0.000011412209    0.016993732385    0.067542664689    0.000000800879    -0.000017189836    0.021051251310    0.053402389928
            -0.037159641639    0.043554539155    0.000000800879    -0.000017189836    -0.047877291716    0.053908509088    0.000001367773    -0.000012019999
            0.000001451598    -0.000004190471    0.021051251310    0.053402389928    0.000001367773    -0.000012019999    0.017302492847    0.067622044781
0.300     -0.020234976426    0.082747756012    -0.000002481955    -0.000012088088    -0.019247354005    0.068842375980    0.000000093842    -0.000004822874
            -0.000002481955    -0.000012088088    0.037151723732    0.078576223353    -0.000004421806    -0.000017937069    0.034148356564    0.063704673277
            -0.019247354005    0.068842375980    -0.000004421806    -0.000017937069    -0.021002720323    0.081653511165    -0.000002373686    -0.000012813764
            0.000000093842    -0.000004822874    0.034148356564    0.063704673277    -0.000002373686    -0.000012813764    0.037228711002    0.078631979990
0.325     0.017608887718    0.094840095342    -0.000006091785    -0.000011649301    0.009483479444    0.083438350265    -0.000001452856    -0.000004925689
            -0.000006091785    -0.000011649301    0.059972800971    0.080169753887    -0.000009795185    -0.000016913959    0.051160154722    0.067952765323
            0.009483479444    0.083438350265    -0.000009795185    -0.000016913959    0.016535500021    0.093992269032    -0.000006290557    -0.000012261237
            -0.000001452856    -0.000004925689    0.051160154722    0.067952765323    -0.000006290557    -0.000012261237    0.059818045267    0.080368801519
0.350     0.057395199002    0.087678390792    -0.000009515784    -0.000010110929    0.042704007083    0.082979326257    -0.000002944119    -0.000004496961
            -0.000009515784    -0.000010110929    0.080550813749    0.072161346888    -0.000014669455    -0.000014254646    0.068625847694    0.064826492973
            0.042704007083    0.082979326257    -0.000014669455    -0.000014254646    0.056172711920    0.087205615693    -0.000009834705    -0.000010467019
            -0.000002944119    -0.000004496961    0.068625847694    0.064826492973    -0.000009834705    -0.000010467019    0.080261274180    0.072652902491
0.375     0.089653336750    0.062127521992    -0.000012447763    -0.000007620485    0.072671173712    0.066587280337    -0.000004202512    -0.000003656676
            -0.000012447763    -0.000007620485    0.094522963409    0.056831666587    -0.000018605230    -0.000010325514    0.082848267273    0.054905548024
            0.072671173712    0.066587280337    -0.000018605230    -0.000010325514    0.088494761301    0.062067564621    -0.000012648411    -0.000007765114
            -0.000004202512    -0.000003656676    0.082848267273    0.054905548024    -0.000012648411    -0.000007765114    0.094270158824    0.057696041479
0.400     0.106229747624    0.023419772915    -0.000014690736    -0.000004370600    0.091915129361    0.037107479561    -0.000005168449    -0.000002561225
            -0.000014690736    -0.000004370600    0.099152407510    0.038326292003    -0.000021424846    -0.000005531456    0.090817678434    0.040553099397
            0.091915129361    0.037107479561    -0.000021424846    -0.000005531456    0.105355176875    0.023696274614    -0.000014637671    -0.000004531167
            -0.000005168449    -0.000002561225    0.090817678434    0.040553099397    -0.000014637671    -0.000004531167    0.099137987971    0.039543530756
0.425     0.102081711814    -0.019816642308    -0.000016122231    -0.000000530542    0.094828668654    0.000723289825    -0.000005882235    -0.000001314914
            -0.000016122231    -0.000000530542    0.094010884550    0.021696048610    -0.000023126067    -0.000000148791    0.090985185741    0.025436353678
            0.094828668654    0.000723289825    -0.000023126067    -0.000000148791    0.101658558317    -0.019393578486    -0.000015906003    -0.000001000370
            -0.000005882235    -0.000001314914    0.090985185741    0.025436353678    -0.000015906003    -0.000001000370    0.094409922606    0.023139091766
0.450     0.076633364683    -0.057139741560    -0.000016620327    0.000003769619    0.079138616265    -0.034005544754    -0.000006402792    0.000000087113
            -0.000016620327    0.000003769619    0.081235424482    0.011749450375    -0.000023698875    0.000005730980    0.083841455607    0.013744433639
            0.079138616265    -0.034005544754    -0.000023698875    0.000005730980    0.076716243615    -0.056843665258    -0.000016570411    0.000002822783
            -0.000006402792    0.000000087113    0.083841455607    0.013744433639    -0.000016570411    0.000002822783    0.082141846731    0.013208260956
0.475     0.034488294062    -0.078481281813    -0.000016017058    0.000008386416    0.047022235843    -0.057834958380    -0.000006718218    0.000001735629
            -0.000016017058    0.000008386416    0.065269033957    0.011782930763    -0.000022959415    0.000012099084    0.072114479692    0.009069720817
            0.047022235843    -0.057834958380    -0.000022959415    0.000012099084    0.034969227130    -0.078608386840    -0.000016565623    0.000007092634
            -0.000006718218    0.000001735629    0.072114479692    0.009069720817    -0.000016565623    0.000007092634    0.066658895806    0.013016284008
0.500     -0.014921977343    -0.076814444669    -0.000014096606    0.000013058665    0.005353369090    -0.063272904971    -0.000006670019    0.000003696421
            -0.000014096606    0.000013058665    0.051945774460    0.022421096791    -0.000020491747    0.000018786177    0.060324478286    0.013148538876
            0.005353369090    -0.063272904971    -0.000020491747    0.000018786177    -0.014350887486    -0.077597108387    -0.000015525923    0.000011878200
            -0.000006670019    0.000003696421    0.060324478286    0.013148538876    -0.000015525923    0.000011878200    0.053674450289    0.023221557939
0.525     -0.059269269835    -0.050642497071    -0.000010678797    0.000017359378    -0.035687207722    -0.047174487104    -0.000005974541    0.000005901065
            -0.000010678797    0.000017359378    0.046862536259    0.040995240770    -0.000015808779    0.000025278037    0.053499265402    0.024910686267
            -0.035687207722    -0.047174487104    -0.000015808779    0.000025278037    -0.059301556340    -0.052206810685    -0.000012890951    0.000016922080
            -0.000005974541    0.000005901065    0.053499265402    0.024910686267    -0.000012890951    0.000016922080    0.048694184430    0.041236780067
0.550     -0.086749856925    -0.005192363753    -0.000005786513    0.000020707126    -0.064182995046    -0.013116645319    -0.000004384694    0.000008054107
            -0.000005786513    0.000020707126    0.053460921647    0.062025863245    -0.000008893310    0.000030409398    0.055366864094    0.040530511422
            -0.064182995046    -0.013116645319    -0.000008893310    0.000030409398    -0.086001448454    -0.008728399123    -0.000008309602    0.000021379262
            -0.000004384694    0.000008054107    0.055366864094    0.040530511422    -0.000008309602    0.000021379262    0.055080137336    0.061703044172
0.575     -0.089728595506    0.048887391606    0.000000262092    0.000022481320    -0.073809105237    0.032879652680    -0.000001863839    0.000009672130
            0.000000262092    0.000022481320    0.071667296961    0.078895620282    0.000000288359    0.000033336605    0.066928905276    0.054712171063
            -0.073809105237    0.032879652680    0.000000288359    0.000033336605    -0.090216574685    0.045844205137    -0.000001747738    0.000024371175
            -0.000001863839    0.000009672130    0.066928905276    0.054712171063    -0.000001747738    0.000024371175    0.072764739214    0.078232814135
0.600     -0.067105827559    0.098399655056    0.000006800356    0.000022228872    -0.061162670670    0.078104493695    0.000001280693    0.000010264618
            0.000006800356    0.000022228872    0.097870693265    0.086064197077    0.000010323702    0.000033076650    0.086210971426    0.062490584677
            -0.061162670670    0.078104493695    0.000010323702    0.000033076650    -0.069015796974    0.095653838639    0.000005887543    0.000024905707
            0.000001280693    0.000010264618    0.086210971426    0.062490584677    0.000005887543    0.000024905707    0.098361138815    0.085439609342
0.625     -0.025257348394    0.131858563679    0.000012985544    0.000019997327    -0.029805216449    0.112705145743    0.000004466453    0.000009693962
            0.000012985544    0.000019997327    0.126215043314    0.080764325619    0.000019899010    0.000029435597    0.109012906738    0.060740054501
            -0.029805216449    0.112705145743    0.000019899010    0.000029435597    -0.027747732658    0.130158063925    0.000013427782    0.000022648540
            0.000004466453    0.000009693962    0.109012906738    0.060740054501    0.000013427782    0.000022648540    0.126236569896    0.080506572057
0.650     0.026758565983    0.143361950632    0.000018293066    0.000016019836    0.013579255314    0.130013822818    0.000007268899    0.000008039532
            0.000018293066    0.000016019836    0.150478818706    0.063527713446    0.000027746825    0.000022945198    0.130338420982    0.048888285530
            0.013579255314    0.130013822818    0.000027746825    0.000022945198    0.023977605928    0.142338070030    0.000019690538    0.000017960784
            0.000007268899    0.000008039532    0.130338420982    0.048888285530    0.000019690538    0.000017960784    0.150301102213    0.063841423048
0.675     0.077843449480    0.130576663097    0.000022198311    0.000010763558    0.059932442436    0.126530266676    0.000009257519    0.000005635655
            0.000022198311    0.000010763558    0.165642458519    0.037665435254    0.000033098868    0.000014615206    0.145678224095    0.028702177845
            0.059932442436    0.126530266676    0.000033098868    0.000014615206    0.074970877767    0.130407682372    0.000023922741    0.000011719511
            0.000009257519    0.000005635655    0.145678224095    0.028702177845    0.000023922741    0.000011719511    0.165596855027    0.038601501704
0.700     0.117400951260    0.096756479057    0.000024549008    0.000004793309    0.099944520508    0.103170942564    0.000010340089    0.000002950654
            0.000024549008    0.000004793309    0.168824392606    0.008259824111    0.000035795262    0.000005532951    0.151835639072    0.003690381104
            0.099944520508    0.103170942564    0.000035795262    0.000005532951    0.114836063018    0.097448624798    0.000025963113    0.000004938227
            0.000010340089    0.000002950654    0.151835639072    0.003690381104    0.000025963113    0.000004938227    0.169232855987    0.009708423029
0.725     0.137434470064    0.049070392170    0.000025407846    -0.000001467299    0.125551249588    0.064433303754    0.000010678346    0.000000337822
            0.000025407846    -0.000001467299    0.159653729868    -0.018890130000    0.000036157200    -0.000003467804    0.147393167761    -0.021552735514
            0.125551249588    0.064433303754    0.000036157200    -0.000003467804    0.135558987127    0.050418020998    0.000026163909    -0.000001585967
            0.000010678346    0.000000337822    0.147393167761    -0.021552735514    0.000026163909    -0.000001585967    0.160759851606    -0.017185202467
0.750     0.133547509507    -0.002618100112    0.000024890147    -0.000007775100    0.130998773253    0.017877103858    0.000010545711    -0.000002069735
            0.000024890147    -0.000007775100    0.140359462837    -0.038265760568    0.000034703021    -0.000011993298    0.133087147086    -0.042029841181
            0.130998773253    0.017877103858    0.000034703021    -0.000011993298    0.132624408385    -0.000993563249    0.000025130452    -0.000007506850
            0.000010545711    -0.000002069735    0.133087147086    -0.042029841181    0.000025130452    -0.000007506850    0.142266014951    -0.036662229575
0.775     0.105847452627    -0.047101726872    0.000023029951    -0.000014013718    0.114079539615    -0.026651845683    0.000010160851    -0.000004373015
            0.000023029951    -0.000014013718    0.115632313824    -0.045678578724    0.000031814557    -0.000020078316    0.112055628508    -0.053271115127
            0.114079539615    -0.026651845683    0.000031814557    -0.000020078316    0.105945106448    -0.045688186658    0.000023373410    -0.000012978337
            0.000010160851    -0.000004373015    0.112055628508    -0.053271115127    0.000023373410    -0.000012978337    0.118255365601    -0.044565334287
