# GHz S RI R 45
0.000     0.027514204081    0.001874889163    0.000000578441    0.000001133502    0.000894681983    0.001603029502    0.000000651384    0.000001262076
            0.000000578441    0.000001133502    0.026871299232    0.001705433699    0.000000659596    0.000001265948    0.000835516643    0.001437933897
            0.000894681823    0.001603029478    0.000000659594    0.000001265948    0.027466476421    0.001862751288    0.000000748468    0.000001421813
            0.000000651385    0.000001262076    0.000835517271    0.001437933880    0.000000748479    0.000001421813    0.026787363940    0.001719715837
0.025     0.035573286763    0.007313900536    0.000001954100    0.000001902654    0.005051881879    0.011528268034    0.000002183518    0.000002118494
            0.000001954100    0.000001902654    0.034345997332    0.006419595250    0.000002196559    0.000002122243    0.004636953997    0.010551322856
            0.005050248835    0.011531561065    0.000002196559    0.000002122244    0.035501036820    0.007283259991    0.000002475331    0.000002382766
            0.000002183518    0.000002118494    0.004634342291    0.010550351351    0.000002475335    0.000002382769    0.034294790535    0.006453060352
0.050     0.045553461728    0.004310224534    0.000004626852    0.000001719869    0.015658756685    0.017710194821    0.000005157507    0.000001915666
            0.000004626852    0.000001719869    0.043661108334    0.003296438655    0.000005176018    0.000001915680    0.014440633502    0.016349618287
            0.015658744410    0.017710236375    0.000005176018    0.000001915680    0.045461914414    0.004258912599    0.000005819133    0.000002150855
            0.000005157507    0.000001915666    0.014440612341    0.016349619633    0.000005819133    0.000002150855    0.043693738484    0.003353639808
0.075     0.053115757277    -0.006449625078    0.000006978961    -0.000000688624    0.027996953483    0.015594347980    0.000007776280    -0.000000758648
            0.000006978961    -0.000000688624    0.050997116279    -0.006916408516    0.000007796035    -0.000000766333    0.026147774950    0.014629808917
            0.027996949071    0.015594353846    0.000007796035    -0.000000766333    0.053029453852    -0.006488398483    0.000008761564    -0.000000852860
            0.000007776280    -0.000000758648    0.026147769374    0.014629814786    0.000008761564    -0.000000852860    0.051142470651    -0.006884733879
0.100     0.053644307559    -0.022983910778    0.000007621257    -0.000004820516    0.036666844036    0.005505609298    0.000008501929    -0.000005349736
            0.000007621257    -0.000004820516    0.052233075780    -0.022668024403    0.000008517831    -0.000005365226    0.034958803647    0.005452033052
            0.036666844017    0.005505609426    0.000008517831    -0.000005365226    0.053605636217    -0.023007990417    0.000009585314    -0.000006006953
            0.000008501929    -0.000005349736    0.034958803618    0.005452033235    0.000009585314    -0.000006006953    0.052503575418    -0.022729659068
0.125     0.043876861041    -0.040638090819    0.000005580036    -0.000009431058    0.037257432211    -0.009216339930    0.000006251909    -0.000010482114
            0.000005580036    -0.000009431058    0.044267177137    -0.040058277463    0.000006259759    -0.000010503149    0.036797036243    -0.008498583300
            0.037257432211    -0.009216339930    0.000006259759    -0.000010503149    0.043930302734    -0.040691459519    0.000007077402    -0.000011776838
            0.000006251909    -0.000010482114    0.036797036243    -0.008498583300    0.000007077402    -0.000011776838    0.044638596653    -0.040275648848
0.150     0.023709742895    -0.053203730498    0.000000749997    -0.000012819876    0.027881869032    -0.023193989562    0.000000902656    -0.000014273104
            0.000000749997    -0.000012819876    0.026599045794    -0.053640260526    0.000000900548    -0.000014295653    0.029610840578    -0.022661463006
            0.027881869032    -0.023193989562    0.000000900548    -0.000014295653    0.023882259090    -0.053341892907    0.000001093976    -0.000016059070
            0.000000902656    -0.000014273104    0.029610840578    -0.022661463006    0.000001093976    -0.000016059070    0.027011596449    -0.054082033274
0.175     -0.003506846478    -0.054888164551    -0.000005983419    -0.000013383237    0.009950091118    -0.030567338124    -0.000006574422    -0.000014943344
            -0.000005983419    -0.000013383237    0.001688089995    -0.058124329785    -0.000006586677    -0.000014963992    0.014107044884    -0.031820938657
            0.009950091118    -0.030567338124    -0.000006586677    -0.000014963992    -0.003234893662    -0.055196915487    -0.000007289852    -0.000016863599
            -0.000006574422    -0.000014943344    0.014107044884    -0.031820938657    -0.000007289852    -0.000016863599    0.002048248555    -0.058821765496
0.200     -0.031323628677    -0.042308007455    -0.000012857074    -0.000010172329    -0.011905421557    -0.026942551572    -0.000014235943    -0.000011431571
            -0.000012857074    -0.000010172329    -0.025207697823    -0.049993244809    -0.000014258759    -0.000011447583    -0.006182940522    -0.031705646397
            -0.011905421557    -0.026942551572    -0.000014258759    -0.000011447583    -0.031029888472    -0.042863999108    -0.000015916059    -0.000012993954
            -0.000014235943    -0.000011431571    -0.006182940522    -0.031705646397    -0.000015916059    -0.000012993954    -0.025009938818    -0.050926669599
0.225     -0.051907238027    -0.016004677653    -0.000017704010    -0.000003354275    -0.031047270476    -0.011064650314    -0.000019685676    -0.000003903825
            -0.000017704010    -0.000003354275    -0.047298375372    -0.028861772425    -0.000019720114    -0.000003910765    -0.025728893613    -0.020430260665
            -0.031047270476    -0.011064650314    -0.000019720114    -0.000003910765    -0.051716673007    -0.016835674943    -0.000022115283    -0.000004610102
            -0.000019685676    -0.000003903825    -0.025728893613    -0.020430260665    -0.000022115283    -0.000004610102    -0.047363175844    -0.029952205659
0.250     -0.058447022188    0.019150152197    -0.000018675676    0.000005659705    -0.040901837201    0.014419266707    -0.000020866228    0.000006100973
            -0.000018675676    0.000005659705    -0.058135823509    0.001951195723    -0.000020910797    0.000006111081    -0.038550998332    0.000667633504
            -0.040901837201    0.014419266707    -0.000020910797    0.000006111081    -0.058497106167    0.018090975549    -0.000023575785    0.000006604190
            -0.000020866228    0.000006100973    -0.038550998332    0.000667633504    -0.000023575785    0.000006604190    -0.058519628329    0.000835335307
0.275     -0.047482611414    0.055072258876    -0.000014935168    0.000014584160    -0.037159641639    0.043554539155    -0.000016822379    0.000016069451
            -0.000014935168    0.000014584160    -0.053597160690    0.036012701513    -0.000016868375    0.000016105266    -0.040032928539    0.027186855883
            -0.037159641639    0.043554539155    -0.000016868375    0.000016105266    -0.047877291716    0.053908509088    -0.000019187795    0.000017866692
            -0.000016822379    0.000016069451    -0.040032928539    0.027186855883    -0.000019187795    0.000017866692    -0.054285707903    0.035030066558
0.300     -0.020234976426    0.082747756012    -0.000006992549    0.000020983651    -0.019247354005    0.068842375980    -0.000008078602    0.000023300948
            -0.000006992549    0.000020983651    -0.033295335985    0.065376463441    -0.000008109957    0.000023364700    -0.028383713443    0.052805228250
            -0.019247354005    0.068842375980    -0.000008109957    0.000023364700    -0.021002720323    0.081653511165    -0.000009477080    0.000026152033
            -0.000008078602    0.000023300948    -0.028383713443    0.052805228250    -0.000009477080    0.000026152033    -0.034191780141    0.064673519530
0.325     0.017608887718    0.094840095342    0.000003472917    0.000023019616    0.009483479444    0.083438350265    0.000003540517    0.000025729236
            0.000003472917    0.000023019616    -0.000878710100    0.082712148550    0.000003540820    0.000025810359    -0.005220727916    0.071004848145
            0.009483479444    0.083438350265    0.000003540820    0.000025810359    0.016535500021    0.093992269032    0.000003565759    0.000029101066
            0.000003540517    0.000025729236    -0.005220727916    0.071004848145    0.000003565759    0.000029101066    -0.001814345648    0.082380274821
0.350     0.057395199002    0.087678390792    0.000014128671    0.000019906273    0.042704007083    0.082979326257    0.000015463945    0.000022434909
            0.000014128671    0.000019906273    0.036793108540    0.083240074348    0.000015502997    0.000022512090    0.024813629257    0.076782030752
            0.042704007083    0.082979326257    0.000015502997    0.000022512090    0.056172711920    0.087205615693    0.000017075531    0.000025611999
            0.000015463945    0.000022434909    0.024813629257    0.076782030752    0.000017075531    0.000025611999    0.036026957850    0.083282178945
0.375     0.089653336750    0.062127521992    0.000022565545    0.000011997337    0.072671173712    0.066587280337    0.000025005906    0.000013759490
            0.000022565545    0.000011997337    0.071277058849    0.065924704415    0.000025074481    0.000013810618    0.055160446431    0.067854760367
            0.072671173712    0.066587280337    0.000025074481    0.000013810618    0.088494761301    0.062067564621    0.000028012246    0.000016000810
            0.000025005906    0.000013759490    0.055160446431    0.067854760367    0.000028012246    0.000016000810    0.070883475696    0.066240074983
0.400     0.106229747624    0.023419772915    0.000026744605    0.000000654305    0.091915129361    0.037107479561    0.000029865614    0.000001176847
            0.000026744605    0.000000654305    0.094441080329    0.033774065439    0.000029942916    0.000001191932    0.078786869493    0.045221522474
            0.091915129361    0.037107479561    0.000029942916    0.000001191932    0.105355176875    0.023696274614    0.000033738578    0.000001883784
            0.000029865614    0.000001176847    0.078786869493    0.045221522474    0.000033738578    0.000001883784    0.094567561625    0.034165491352
0.425     0.102081711814    -0.019816642308    0.000025323874    -0.000011959036    0.094828668654    0.000723289825    0.000028502838    -0.000012925407
            0.000025323874    -0.000011959036    0.100230952830    -0.006697359829    0.000028569577    -0.000012940098    0.089664656551    0.013078855943
            0.094828668654    0.000723289825    0.000028569577    -0.000012940098    0.101658558317    -0.019393578486    0.000032467554    -0.000014064199
            0.000028502838    -0.000012925407    0.089664656551    0.013078855943    0.000032467554    -0.000014064199    0.100924907377    -0.006494632852
0.450     0.076633364683    -0.057139741560    0.000017974760    -0.000023125740    0.079138616265    -0.034005544754    0.000020501102    -0.000025521955
            0.000017974760    -0.000023125740    0.086080899864    -0.046653749041    0.000020551845    -0.000025552160    0.084148277960    -0.021817245156
            0.079138616265    -0.034005544754    0.000020551845    -0.000025552160    0.076716243615    -0.056843665258    0.000023684636    -0.000028433763
            0.000020501102    -0.000025521955    0.084148277960    -0.021817245156    0.000023684636    -0.000028433763    0.087258787448    -0.046922033288
0.475     0.034488294062    -0.078481281813    0.000005694799    -0.000029999699    0.047022235843    -0.057834958380    0.000006923119    -0.000033424593
            0.000005694799    -0.000029999699    0.053773454903    -0.076663051192    0.000006962742    -0.000033461832    0.062064416243    -0.051369701330
            0.047022235843    -0.057834958380    0.000006962742    -0.000033461832    0.034969227130    -0.078608386840    0.000008538425    -0.000037626390
            0.000006923119    -0.000033424593    0.062064416243    -0.051369701330    0.000008538425    -0.000037626390    0.055213198710    -0.077637387047
0.500     -0.014921977343    -0.076814444669    -0.000009052785    -0.000030338568    0.005353369090    -0.063272904971    -0.000009528021    -0.000034094175
            -0.000009052785    -0.000030338568    0.009521559679    -0.088813695389    -0.000009507006    -0.000034148135    0.027251250240    -0.067921256433
            0.005353369090    -0.063272904971    -0.000009507006    -0.000034148135    -0.014350887486    -0.077597108387    -0.000009995711    -0.000038760120
            -0.000009528021    -0.000034094175    0.027251250240    -0.067921256433    -0.000009995711    -0.000038760120    0.010889279803    -0.090612358472
0.525     -0.059269269835    -0.050642497071    -0.000022692131    -0.000023389280    -0.035687207722    -0.047174487104    -0.000024895098    -0.000026625288
            -0.000022692131    -0.000023389280    -0.037036698252    -0.078859270990    -0.000024961877    -0.000026717797    -0.012882672919    -0.066315153858
            -0.035687207722    -0.047174487104    -0.000024961877    -0.000026717797    -0.059301556340    -0.052206810685    -0.000027574432    -0.000030752944
            -0.000024895098    -0.000026625288    -0.012882672919    -0.066315153858    -0.000027574432    -0.000030752944    -0.036122175790    -0.081429895260
0.550     -0.086749856925    -0.005192363753    -0.000031570122    -0.000010481601    -0.064182995046    -0.013116645319    -0.000035096655    -0.000012416963
            -0.000031570122    -0.000010481601    -0.075003638779    -0.047748125068    -0.000035015921    -0.000012768878    -0.048982011128    -0.045633217321
            -0.064182995046    -0.013116645319    -0.000035015921    -0.000012768878    -0.086001448454    -0.008728399123    -0.000039255999    -0.000015291037
            -0.000035096655    -0.000012416963    -0.048982011128    -0.045633217321    -0.000039255999    -0.000015291037    -0.074876847659    -0.050851739196
0.575     -0.089728595506    0.048887391606    -0.000033253054    0.000005245149    -0.073809105237    0.032879652680    -0.000037357689    0.000005108207
            -0.000033253054    0.000005245149    -0.095099264339    -0.001774527065    -0.000037416940    0.000004895489    -0.072242294017    -0.009780830217
            -0.073809105237    0.032879652680    -0.000037416940    0.000004895489    -0.090216574685    0.045844205137    -0.000042443491    0.000004557660
            -0.000037357689    0.000005108207    -0.072242294017    -0.009780830217    -0.000042443491    0.000004557660    -0.095950238522    -0.005023215725
0.600     -0.067105827559    0.098399655056    -0.000027383679    0.000019851708    -0.061162670670    0.078104493695    -0.000031171740    0.000021589786
            -0.000027383679    0.000019851708    -0.092267139041    0.048948066983    -0.000031390864    0.000021485904    -0.076898608513    0.033469219161
            -0.061162670670    0.078104493695    -0.000031390864    0.000021485904    -0.069015796974    0.095653838639    -0.000036123796    0.000023460833
            -0.000031171740    0.000021589786    -0.076898608513    0.033469219161    -0.000036123796    0.000023460833    -0.094076424715    0.046005725279
0.625     -0.025257348394    0.131858563679    -0.000015754531    0.000030031351    -0.029805216449    0.112705145743    -0.000018428157    0.000033299848
            -0.000015754531    0.000030031351    -0.066972073326    0.093212659182    -0.000018605481    0.000033400395    -0.061681634029    0.074649906971
            -0.029805216449    0.112705145743    -0.000018605481    0.000033400395    -0.027747732658    0.130158063925    -0.000022029425    0.000037324454
            -0.000018428157    0.000033299848    -0.061681634029    0.074649906971    -0.000022029425    0.000037324454    -0.069503455207    0.090981987920
0.650     0.026758565983    0.143361950632    -0.000000978652    0.000034054941    0.013579255314    0.130013822818    -0.000001970812    0.000038223506
            -0.000000978652    0.000034054941    -0.024806870336    0.121579990133    -0.000002054757    0.000038380166    -0.029831929367    0.105049654095
            0.013579255314    0.130013822818    -0.000002054757    0.000038380166    0.023977605928    0.142338070030    -0.000003430163    0.000043486846
            -0.000001970812    0.000038223506    -0.029831929367    0.105049654095    -0.000003430163    0.000043486846    -0.027656410443    0.120321249982
0.675     0.077843449480    0.130576663097    0.000013984464    0.000031352630    0.059932442436    0.126530266676    0.000014913453    0.000035608149
            0.000013984464    0.000031352630    0.025199175475    0.128398009627    0.000014919519    0.000035777819    0.012051887410    0.118553661209
            0.059932442436    0.126530266676    0.000014919519    0.000035777819    0.074970877767    0.130407682372    0.000015928662    0.000041065675
            0.000014913453    0.000035608149    0.012051887410    0.118553661209    0.000015928662    0.000041065675    0.022517100072    0.128165259898
0.700     0.117400951260    0.096756479057    0.000026459019    0.000022594654    0.099944520508    0.103170942564    0.000029190216    0.000026101855
            0.000026459019    0.000022594654    0.072757651956    0.112628056569    0.000029270321    0.000026233272    0.055621536272    0.112573861082
            0.099944520508    0.103170942564    0.000029270321    0.000026233272    0.114836063018    0.097448624798    0.000032550845    0.000030649290
            0.000029190216    0.000026101855    0.055621536272    0.112573861082    0.000032550845    0.000030649290    0.070711024872    0.113253407724
0.725     0.137434470064    0.049070392170    0.000034285644    0.000009219969    0.125551249588    0.064433303754    0.000038365392    0.000011251136
            0.000034285644    0.000009219969    0.108329080089    0.077659752594    0.000038471955    0.000011316549    0.092332294030    0.088207316329
            0.125551249588    0.064433303754    0.000038471955    0.000011316549    0.135558987127    0.050418020998    0.000043476370    0.000013929828
            0.000038365392    0.000011251136    0.092332294030    0.088207316329    0.000043476370    0.000013929828    0.107277041824    0.078778949926
0.750     0.133547509507    -0.002618100112    0.000035832079    -0.000006689791    0.130998773253    0.017877103858    0.000040522617    -0.000006634326
            0.000035832079    -0.000006689791    0.124715475539    0.030517048278    0.000040606698    -0.000006619079    0.114794044896    0.049976045636
            0.130998773253    0.017877103858    0.000040606698    -0.000006619079    0.132624408385    -0.000993563249    0.000046419060    -0.000006451772
            0.000040522617    -0.000006634326    0.114794044896    0.049976045636    0.000046419060    -0.000006451772    0.124831930907    0.031627987902
0.775     0.105847452627    -0.047101726872    0.000030178038    -0.000022375655    0.114079539615    -0.026651845683    0.000034549301    -0.000024450233
            0.000030178038    -0.000022375655    0.118255546537    -0.019303146979    0.000034596344    -0.000024440112    0.117991544936    0.005244917592
            0.114079539615    -0.026651845683    0.000034596344    -0.000024440112    0.105945106448    -0.045688186658    0.000040057439    -0.000026924534
            0.000034549301    -0.000024450233    0.117991544936    0.005244917592    0.000040057439    -0.000026924534    0.119477415444    -0.018755110182
