# GHz S RI R 45
0.000     0.027514204081    0.001874889163    -0.000009138983    -0.000020659158    0.000894681983    0.001603029502    -0.000035898796    -0.000021384278
            -0.000009138776    -0.000020659159    0.027351233937    0.001159045934    -0.000007793060    -0.000018634075    0.000823957689    0.001228736802
            0.000894681823    0.001603029478    -0.000007791083    -0.000018634089    0.027466476421    0.001862751288    -0.000009451377    -0.000021161688
            -0.000035898665    -0.000021384277    0.000823957547    0.001228736777    -0.000009451351    -0.000021161688    0.027357729366    0.001171673116
0.025     0.035573286763    0.007313900536    -0.000029100895    -0.000047216149    0.005051881879    0.011528268034    -0.000058889041    -0.000043756553
            -0.000029100612    -0.000047216372    0.032963366396    0.006939525081    -0.000025134900    -0.000042755937    0.003239779997    0.011242950438
            0.005050248835    0.011531561065    -0.000025134944    -0.000042755944    0.035501036820    0.007283259991    -0.000030660099    -0.000048064158
            -0.000058889135    -0.000043756591    0.003236541999    0.011243187873    -0.000030659408    -0.000048063962    0.032904404444    0.006998300462
0.050     0.045553461728    0.004310224534    -0.000072371635    -0.000070761365    0.015658756685    0.017710194821    -0.000111106692    -0.000058985294
            -0.000072371645    -0.000070761399    0.037999607622    0.007143348953    -0.000062932296    -0.000065532128    0.009710696830    0.019815956011
            0.015658744410    0.017710236375    -0.000062932310    -0.000065532120    0.045461914414    0.004258912599    -0.000075788491    -0.000069769616
            -0.000111106692    -0.000058985294    0.009710741982    0.019815911612    -0.000075788483    -0.000069769609    0.037931092646    0.007290581395
0.075     0.053115757277    -0.006449625078    -0.000124233928    -0.000069616476    0.027996953483    0.015594347980    -0.000161865188    -0.000038267545
            -0.000124233928    -0.000069616476    0.040873283302    0.004194287355    -0.000109853482    -0.000067802272    0.017923320821    0.024132269003
            0.027996949071    0.015594353846    -0.000109853482    -0.000067802272    0.053029453852    -0.006488398483    -0.000126962644    -0.000064669821
            -0.000161865188    -0.000038267545    0.017923325104    0.024132263330    -0.000126962635    -0.000064669817    0.040832867086    0.004448183944
0.100     0.053644307559    -0.022983910778    -0.000175109701    -0.000044717617    0.036666844036    0.005505609298    -0.000196696318    0.000004066073
            -0.000175109701    -0.000044717617    0.040056266976    -0.000362476489    -0.000158628201    -0.000048948400    0.025280767300    0.024230529218
            0.036666844017    0.005505609426    -0.000158628201    -0.000048948400    0.053605636217    -0.023007990417    -0.000173085011    -0.000036742839
            -0.000196696328    0.000004066073    0.025280767300    0.024230529218    -0.000173085011    -0.000036742839    0.040089082947    -0.000002061548
0.125     0.043876861041    -0.040638090819    -0.000217813937    0.000000670789    0.037257432211    -0.009216339930    -0.000215259598    0.000054701569
            -0.000217813937    0.000000670789    0.034780980893    -0.004056220793    -0.000202845525    -0.000009230851    0.029716896022    0.021488158167
            0.037257432211    -0.009216339930    -0.000202844420    -0.000009230942    0.043930302734    -0.040691459519    -0.000208382343    0.000007168287
            -0.000215259608    0.000054701572    0.029716896022    0.021488158167    -0.000208382323    0.000007168287    0.034937234862    -0.003620424787
0.150     0.023709742895    -0.053203730498    -0.000247372325    0.000064248701    0.027881869032    -0.023193989562    -0.000221832634    0.000108640601
            -0.000247372325    0.000064248701    0.025977096028    -0.004328380043    -0.000236203516    0.000050653773    0.030184843815    0.018188424641
            0.027881869032    -0.023193989562    -0.000236202878    0.000050653507    0.023882259090    -0.053341892907    -0.000232180632    0.000063037829
            -0.000221832634    0.000108640601    0.030184843815    0.018188424641    -0.000232180613    0.000063037824    0.026292959813    -0.003869766912
0.175     -0.003506846478    -0.054888164551    -0.000258110362    0.000143861945    0.009950091118    -0.030567338124    -0.000220492470    0.000168053035
            -0.000258110362    0.000143861945    0.015717044035    0.000764186067    -0.000250997818    0.000129225039    0.027120043049    0.016863384617
            0.009950091118    -0.030567338124    -0.000250998323    0.000129224800    -0.003234893662    -0.055196915487    -0.000243672032    0.000130886028
            -0.000220492470    0.000168053035    0.027120042755    0.016863385091    -0.000243672055    0.000130885985    0.016195315727    0.001161783861
0.200     -0.031323628677    -0.042308007455    -0.000242316595    0.000235588700    -0.011905421557    -0.026942551572    -0.000207631548    0.000239210401
            -0.000242316595    0.000235588700    0.007064160814    0.011892051453    -0.000237671515    0.000221611878    0.022347932165    0.019419196114
            -0.011905421557    -0.026942551572    -0.000237670445    0.000221612043    -0.031029888472    -0.042863999108    -0.000237342190    0.000212430342
            -0.000207631548    0.000239210401    0.022347932165    0.019419196114    -0.000237342146    0.000212430376    0.007654581109    0.012146234368
0.225     -0.051907238027    -0.016004677653    -0.000191511269    0.000330360056    -0.031047270476    -0.011064650314    -0.000170431686    0.000323453855
            -0.000191511269    0.000330360056    0.003251301587    0.027931048547    -0.000187179638    0.000316779008    0.018527680845    0.026422321298
            -0.031047270476    -0.011064650314    -0.000187179833    0.000316778707    -0.051716673007    -0.016835674943    -0.000202145016    0.000304810207
            -0.000170431686    0.000323453855    0.018527680384    0.026422321621    -0.000202145022    0.000304810216    0.003858299968    0.027995059817
0.250     -0.058447022188    0.019150152197    -0.000101308364    0.000412640931    -0.040901837201    0.014419266707    -0.000093800394    0.000409623673
            -0.000101308366    0.000412640941    0.006606574795    0.046057797807    -0.000096211314    0.000397401894    0.018257406094    0.036829435976
            -0.040901837201    0.014419266707    -0.000096211240    0.000397401285    -0.058497106167    0.018090975549    -0.000127075487    0.000395477423
            -0.000093800394    0.000409623673    0.018257406094    0.036829435976    -0.000127075487    0.000395477423    0.007114703359    0.045944545777
0.275     -0.047482611414    0.055072258876    0.000023529995    0.000463768228    -0.037159641639    0.043554539155    0.000028485983    0.000474382549
            0.000023529995    0.000463768228    0.017679681187    0.062448094828    0.000028428401    0.000444321712    0.023161022626    0.048276635347
            -0.037159641639    0.043554539155    0.000028428401    0.000444321712    -0.047877291716    0.053908509088    -0.000009575511    0.000463320721
            0.000028485983    0.000474382549    0.023161022626    0.048276635347    -0.000009575511    0.000463320721    0.017990297206    0.062235546579
0.300     -0.020234976426    0.082747756012    0.000167843589    0.000468977165    -0.019247354005    0.068842375980    0.000185913038    0.000491457743
            0.000167843597    0.000468977162    0.034916716440    0.073426222634    0.000169702691    0.000443837360    0.033324683323    0.057857527889
            -0.019247354005    0.068842375980    0.000169702691    0.000443837360    -0.021002720323    0.081653511165    0.000139041421    0.000486576330
            0.000185913034    0.000491457734    0.033324683323    0.057857527889    0.000139041421    0.000486576330    0.034983759216    0.073240823012
0.325     0.017608887718    0.094840095342    0.000310506036    0.000423440796    0.009483479444    0.083438350265    0.000352538564    0.000443986445
            0.000310506036    0.000423440796    0.055046996272    0.076567019662    0.000305820985    0.000393179090    0.047273292884    0.063037226478
            0.009483479444    0.083438350265    0.000305820985    0.000393179090    0.016535500021    0.093992269032    0.000295738513    0.000452537782
            0.000352538564    0.000443986445    0.047273292884    0.063037226478    0.000295738513    0.000452537782    0.054896522040    0.076550249202
0.350     0.057395199002    0.087678390792    0.000431728324    0.000333694238    0.042704007083    0.082979326257    0.000496429050    0.000332587990
            0.000431728324    0.000333694238    0.073995047810    0.071411263600    0.000417919822    0.000300832788    0.062435380613    0.062393395402
            0.042704007083    0.082979326257    0.000417919822    0.000300832788    0.056172711920    0.087205615693    0.000434003147    0.000363154143
            0.000496429050    0.000332587990    0.062435380613    0.062393395402    0.000434003147    0.000363154143    0.073726815821    0.071679122688
0.375     0.089653336750    0.062127521992    0.000518897078    0.000213829540    0.072671173712    0.066587280337    0.000591631911    0.000174886007
            0.000518897069    0.000213829536    0.087972421227    0.059559569970    0.000495622258    0.000181639794    0.075850868635    0.055969057404
            0.072671173712    0.066587280337    0.000495621997    0.000181639924    0.088494761301    0.062067564621    0.000533141930    0.000233655341
            0.000591631911    0.000174886007    0.075850868635    0.055969057404    0.000533141925    0.000233655328    0.087739490546    0.060167488212
0.400     0.106229747624    0.023419772915    0.000568012447    0.000079650839    0.091915129361    0.037107479561    0.000626615781    -0.000001945163
            0.000568012447    0.000079650837    0.094426719307    0.044264617518    0.000537880103    0.000050167381    0.084919825185    0.045272762050
            0.091915129361    0.037107479561    0.000537880445    0.000050167266    0.105355176875    0.023696274614    0.000583861815    0.000086294246
            0.000626615781    -0.000001945163    0.084919825185    0.045272762050    0.000583861824    0.000086294256    0.094399271051    0.045185497900
0.425     0.102081711814    -0.019816642308    0.000579903110    -0.000056251668    0.094828668654    0.000723289825    0.000606062265    -0.000171899562
            0.000579903110    -0.000056251668    0.092664082660    0.029654527163    0.000549456699    -0.000084547402    0.088050575058    0.032958318789
            0.094828668654    0.000723289825    0.000549456629    -0.000084547329    0.101658558317    -0.019393578486    0.000587297435    -0.000057506139
            0.000606062265    -0.000171899562    0.088050575058    0.032958318789    0.000587297425    -0.000057506138    0.092986890002    0.030776115127
0.450     0.076633364683    -0.057139741560    0.000550853944    -0.000189375417    0.079138616265    -0.034005544754    0.000545672994    -0.000319271215
            0.000550853944    -0.000189375417    0.084096281837    0.019787162289    0.000534992270    -0.000220377681    0.085157053284    0.022261597876
            0.079138616265    -0.034005544754    0.000534992270    -0.000220377681    0.076716243615    -0.056843665258    0.000544773070    -0.000186436591
            0.000545672994    -0.000319271215    0.085157053284    0.022261597876    0.000544773070    -0.000186436591    0.084846445095    0.020930960069
0.475     0.034488294062    -0.078481281813    0.000475821999    -0.000339683188    0.047022235843    -0.057834958380    0.000461505045    -0.000442598908
            0.000475821991    -0.000339683183    0.072052809250    0.017625383107    0.000492700366    -0.000359102205    0.077874577875    0.016180067040
            0.047022235843    -0.057834958380    0.000492700665    -0.000359102304    0.034969227130    -0.078608386840    0.000459525191    -0.000324888186
            0.000461505045    -0.000442598908    0.077874577875    0.016180067040    0.000459525204    -0.000324888184    0.073209667483    0.018586511993
0.500     -0.014921977343    -0.076814444669    0.000382601702    -0.000506998262    0.005353369090    -0.063272904971    0.000360362351    -0.000550941523
            0.000382601702    -0.000506998262    0.061105409783    0.024122212082    0.000412598439    -0.000500621293    0.069335547596    0.016537841941
            0.005353369090    -0.063272904971    0.000412598470    -0.000500621331    -0.014350887486    -0.077597108387    0.000375167619    -0.000477594948
            0.000360362366    -0.000550941525    0.069335547596    0.016537841941    0.000375167619    -0.000477594948    0.062543140479    0.024723713354
0.525     -0.059269269835    -0.050642497071    0.000254134281    -0.000650334148    -0.035687207722    -0.047174487104    0.000236216151    -0.000650437505
            0.000254134281    -0.000650334148    0.055880620565    0.037681623459    0.000282383519    -0.000636218633    0.063358920345    0.023202303003
            -0.035687207722    -0.047174487104    0.000282383519    -0.000636218633    -0.059301556340    -0.052206810685    0.000269767490    -0.000611312929
            0.000236216151    -0.000650437505    0.063358920345    0.023202303003    0.000269767490    -0.000611312929    0.057392432021    0.037830253405
0.550     -0.086749856925    -0.005192363753    0.000072259406    -0.000751057892    -0.064182995046    -0.013116645319    0.000075974767    -0.000733547406
            0.000072259420    -0.000751057901    0.059620576472    0.054370011893    0.000106180997    -0.000733813572    0.063217103181    0.033902743855
            -0.064182995046    -0.013116645319    0.000106180997    -0.000733813572    -0.086001448454    -0.008728399123    0.000123502152    -0.000714394876
            0.000075974767    -0.000733547406    0.063217103181    0.033902743855    0.000123502152    -0.000714394876    0.060974072351    0.054092337530
0.575     -0.089728595506    0.048887391606    -0.000152599392    -0.000786065844    -0.073809105237    0.032879652680    -0.000126166899    -0.000777518585
            -0.000152599392    -0.000786065844    0.073013556389    0.068995742235    -0.000122727681    -0.000771189187    0.070445542227    0.044864945187
            -0.073809105237    0.032879652680    -0.000122727705    -0.000771189163    -0.090216574685    0.045844205137    -0.000081303755    -0.000774409444
            -0.000126166899    -0.000777518585    0.070445542227    0.044864945187    -0.000081303755    -0.000774409444    0.074018202065    0.068438312252
0.600     -0.067105827559    0.098399655056    -0.000389725057    -0.000737388719    -0.061162670670    0.078104493695    -0.000356269409    -0.000755040221
            -0.000389725057    -0.000737388719    0.093891643567    0.076741679911    -0.000360787824    -0.000725869452    0.084307383371    0.052078680637
            -0.061162670670    0.078104493695    -0.000360787824    -0.000725869452    -0.069015796974    0.095653838639    -0.000313449719    -0.000764121612
            -0.000356269409    -0.000755040221    0.084307383371    0.052078680637    -0.000313449719    -0.000764121612    0.094457030900    0.076131221145
0.625     -0.025257348394    0.131858563679    -0.000600823390    -0.000608256815    -0.029805216449    0.112705145743    -0.000582740492    -0.000652743180
            -0.000600823390    -0.000608256815    0.117936872473    0.074636046530    -0.000572575063    -0.000597371629    0.102114135364    0.052562243412
            -0.029805216449    0.112705145743    -0.000572575126    -0.000597371486    -0.027747732658    0.130158063925    -0.000542639622    -0.000670298577
            -0.000582740492    -0.000652743180    0.102114135364    0.052562243412    -0.000542639622    -0.000670298577    0.118099303635    0.074215321317
0.650     0.026758565983    0.143361950632    -0.000758376920    -0.000415756116    0.013579255314    0.130013822818    -0.000773059951    -0.000472028017
            -0.000758376920    -0.000415756116    0.140038178745    0.062289613527    -0.000726372707    -0.000405881285    0.120158749906    0.045121776032
            0.013579255314    0.130013822818    -0.000726372846    -0.000405881364    0.023977605928    0.142338070030    -0.000733113747    -0.000499377208
            -0.000773059951    -0.000472028017    0.120158749906    0.045121776032    -0.000733113747    -0.000499377208    0.139948906849    0.062252795731
0.675     0.077843449480    0.130576663097    -0.000844061891    -0.000188748454    0.059932442436    0.126530266676    -0.000894949060    -0.000233054055
            -0.000844061891    -0.000188748454    0.155653622713    0.041777302986    -0.000806527482    -0.000182777339    0.134717613085    0.030446415963
            0.059932442436    0.126530266676    -0.000806527528    -0.000182777497    0.074970877767    0.130407682372    -0.000857837641    -0.000274096930
            -0.000894949060    -0.000233054055    0.134717613085    0.030446415963    -0.000857837641    -0.000274096930    0.155540867593    0.042221624542
0.700     0.117400951260    0.096756479057    -0.000858114718    0.000042657473    0.099944520508    0.103170942564    -0.000932605231    0.000031632536
            -0.000858114718    0.000042657473    0.161797271353    0.016954550543    -0.000814811319    0.000040990558    0.142837276467    0.010795338819
            0.099944520508    0.103170942564    -0.000814811309    0.000040990557    0.114836063018    0.097448624798    -0.000904547795    -0.000024994714
            -0.000932605231    0.000031632536    0.142837276467    0.010795338819    -0.000904547795    -0.000024994714    0.161911660832    0.017858407493
0.725     0.137434470064    0.049070392170    -0.000812554635    0.000256652685    0.125551249588    0.064433303754    -0.000887028949    0.000288372022
            -0.000812554625    0.000256652681    0.157536797618    -0.007435453073    -0.000765440222    0.000243204296    0.142829451566    -0.010491794948
            0.125551249588    0.064433303754    -0.000765440222    0.000243204296    0.135558987127    0.050418020998    -0.000875937523    0.000218175249
            -0.000887028949    0.000288372022    0.142829451566    -0.010491794948    -0.000875937523    0.000218175249    0.158096379139    -0.006212903183
0.750     0.133547509507    -0.002618100112    -0.000724085851    0.000442776660    0.130998773253    0.017877103858    -0.000773506393    0.000510417685
            -0.000724085851    0.000442776660    0.144148395048    -0.026673268153    -0.000677609890    0.000414315456    0.134628620321    -0.029539181730
            0.130998773253    0.017877103858    -0.000677609890    0.000414315456    0.132624408385    -0.000993563249    -0.000786255097    0.000433238826
            -0.000773506393    0.000510417685    0.134628620321    -0.029539181730    -0.000786255097    0.000433238826    0.145286600345    -0.025365134734
0.775     0.105847452627    -0.047101726872    -0.000606821900    0.000601413295    0.114079539615    -0.026651845683    -0.000615173787    0.000684169093
            -0.000606821900    0.000601413295    0.124992077896    -0.036966478750    -0.000567336843    0.000557015494    0.120008773777    -0.042633234524
            0.114079539615    -0.026651845683    -0.000567336857    0.000557015508    0.105945106448    -0.045688186658    -0.000655002395    0.000609968091
            -0.000615173787    0.000684169093    0.120008773777    -0.042633234524    -0.000655002402    0.000609968097    0.126717796473    -0.035854808470
