# GHz S RI R 45
0.000     0.027514204081    0.001874889163    -0.000000016146    -0.000000109931    0.000894681983    0.001603029502    -0.000000012621    -0.000000108979
            -0.000000016146    -0.000000109931    0.026308338239    0.001390152653    0.000000003218    -0.000000080492    0.000770402068    0.001196910447
            0.000894681823    0.001603029478    0.000000003218    -0.000000080492    0.027466476421    0.001862751288    0.000000009242    -0.000000076605
            -0.000000012621    -0.000000108979    0.000770402068    0.001196910447    0.000000009242    -0.000000076605    0.026242631515    0.001382056295
0.025     0.035573286763    0.007313900536    -0.000000140850    -0.000000210846    0.005051881879    0.011528268034    -0.000000134918    -0.000000210721
            -0.000000140851    -0.000000210846    0.033460980422    0.005960254790    -0.000000083207    -0.000000165829    0.004258528606    0.009845617694
            0.005050248835    0.011531561065    -0.000000083207    -0.000000165829    0.035501036820    0.007283259991    -0.000000070456    -0.000000161428
            -0.000000134918    -0.000000210721    0.004258378252    0.009845696889    -0.000000070457    -0.000000161428    0.033373595463    0.005846989821
0.050     0.045553461728    0.004310224534    -0.000000418244    -0.000000236525    0.015658756685    0.017710194821    -0.000000410835    -0.000000240181
            -0.000000418244    -0.000000236525    0.042282715993    0.002975443577    -0.000000296963    -0.000000205711    0.013375465550    0.015390489551
            0.015658744410    0.017710236375    -0.000000296963    -0.000000205711    0.045461914414    0.004258912599    -0.000000275266    -0.000000207397
            -0.000000410835    -0.000000240181    0.013375443793    0.015390508460    -0.000000275266    -0.000000207397    0.042143645009    0.002788848584
0.075     0.053115757277    -0.006449625078    -0.000000697470    -0.000000033952    0.027996953483    0.015594347980    -0.000000691626    -0.000000042466
            -0.000000697470    -0.000000033952    0.049386304285    -0.006645207581    -0.000000528857    -0.000000067951    0.024412338768    0.014042633364
            0.027996949071    0.015594353846    -0.000000528857    -0.000000067951    0.053029453852    -0.006488398483    -0.000000502535    -0.000000082727
            -0.000000691626    -0.000000042466    0.024412333358    0.014042638758    -0.000000502535    -0.000000082727    0.049199007784    -0.006871047357
0.100     0.053644307559    -0.022983910778    -0.000000833011    0.000000370388    0.036666844036    0.005505609298    -0.000000832009    0.000000357879
            -0.000000833011    0.000000370388    0.050968193823    -0.021560873599    -0.000000662008    0.000000237629    0.033020722799    0.005748858698
            0.036666844017    0.005505609426    -0.000000662008    0.000000237629    0.053605636217    -0.023007990417    -0.000000639082    0.000000206122
            -0.000000832009    0.000000357879    0.033020722779    0.005748858813    -0.000000639082    0.000000206122    0.050757228495    -0.021800223396
0.125     0.043876861041    -0.040638090819    -0.000000708315    0.000000868957    0.037257432211    -0.009216339930    -0.000000714947    0.000000855497
            -0.000000708315    0.000000868957    0.044071771618    -0.038343803510    -0.000000597730    0.000000634396    0.035436458087    -0.007180804917
            0.037257432211    -0.009216339930    -0.000000597730    0.000000634396    0.043930302734    -0.040691459519    -0.000000588189    0.000000587853
            -0.000000714947    0.000000855497    0.035436459067    -0.007180805116    -0.000000588189    0.000000587853    0.043866926306    -0.038594184877
0.150     0.023709742895    -0.053203730498    -0.000000282393    0.000001296446    0.027881869032    -0.023193989562    -0.000000297230    0.000001286768
            -0.000000282393    0.000001296446    0.028078716790    -0.051915523442    -0.000000292972    0.000000995321    0.029643151725    -0.020724690922
            0.027881869032    -0.023193989562    -0.000000292972    0.000000995321    0.023882259090    -0.053341892907    -0.000000304851    0.000000941743
            -0.000000297230    0.000001286768    0.029643151725    -0.020724690922    -0.000000304851    0.000000941743    0.027919175323    -0.052194437205
0.175     -0.003506846478    -0.054888164551    0.000000386876    0.000001478822    0.009950091118    -0.030567338124    0.000000366176    0.000001477955
            0.000000386876    0.000001478822    0.005037060826    -0.057452486308    0.000000218132    0.000001180337    0.016042098300    -0.030170201782
            0.009950091118    -0.030567338124    0.000000218132    0.000001180337    -0.003234893662    -0.055196915487    0.000000182133    0.000001131859
            0.000000366176    0.000001477955    0.016042098300    -0.030170201782    0.000000182133    0.000001131859    0.004933866847    -0.057807318774
0.200     -0.031323628677    -0.042308007455    0.000001146348    0.000001289233    -0.011905421557    -0.026942551572    0.000001125316    0.000001300490
            0.000001146348    0.000001289233    -0.020489213183    -0.051531619806    0.000000823892    0.000001080135    -0.002430234368    -0.031518342749
            -0.011905421557    -0.026942551572    0.000000823892    0.000001080135    -0.031029888472    -0.042863999108    0.000000768294    0.000001049379
            0.000001125316    0.000001300490    -0.002430234368    -0.031518342749    0.000000768294    0.000001049379    -0.020562469102    -0.052013811323
0.225     -0.051907238027    -0.016004677653    0.000001783611    0.000000697989    -0.031047270476    -0.011064650314    0.000001769447    0.000000721074
            0.000001783611    0.000000697989    -0.042397002523    -0.033412412560    0.000001360046    0.000000658126    -0.020958969762    -0.022763283406
            -0.031047270476    -0.011064650314    0.000001360046    0.000000658126    -0.051716673007    -0.016835674943    0.000001295908    0.000000654032
            0.000001769447    0.000000721074    -0.020958969762    -0.022763283406    0.000001295908    0.000000654032    -0.042502342833    -0.034051613482
0.250     -0.058447022188    0.019150152197    0.000002087906    -0.000000203496    -0.040901837201    0.014419266707    0.000002087027    -0.000000173223
            0.000002087906    -0.000000203496    -0.054647133845    -0.005669066476    0.000001656514    -0.000000027830    -0.034136877034    -0.004693173153
            -0.040901837201    0.014419266707    0.000001656514    -0.000000027830    -0.058497106167    0.018090975549    0.000001598460    -0.000000003124
            0.000002087027    -0.000000173223    -0.034136877034    -0.004693173153    0.000001598460    -0.000000003124    -0.054863965201    -0.006451529208
0.275     -0.047482611414    0.055072258876    0.000001918628    -0.000001218049    -0.037159641639    0.043554539155    0.000001934164    -0.000001188444
            0.000001918628    -0.000001218049    -0.053044272612    0.026187274154    0.000001591573    -0.000000833818    -0.037528569403    0.019122932772
            -0.037159641639    0.043554539155    0.000001591573    -0.000000833818    -0.047877291716    0.053908509088    0.000001553774    -0.000000785719
            0.000001934164    -0.000001188444    -0.037528569403    0.019122932772    0.000001553774    -0.000000785719    -0.053440678816    0.025326356465
0.300     -0.020234976426    0.082747756012    0.000001252901    -0.000002094683    -0.019247354005    0.068842375980    0.000001283305    -0.000002074516
            0.000001252901    -0.000002094683    -0.036599071676    0.054992820025    0.000001130324    -0.000001567604    -0.029020722037    0.043196607586
            -0.019247354005    0.068842375980    0.000001130324    -0.000001567604    -0.021002720323    0.081653511165    0.000001122953    -0.000001507814
            0.000001283305    -0.000002074516    -0.029020722037    0.043196607586    0.000001122953    -0.000001507814    -0.037201440563    0.054159186239
0.325     0.017608887718    0.094840095342    0.000000196624    -0.000002597603    0.009483479444    0.083438350265    0.000000236190    -0.000002593898
            0.000000196624    -0.000002597603    -0.007989645571    0.073773135094    0.000000336802    -0.000002039991    -0.009493045200    0.061557501489
            0.009483479444    0.083438350265    0.000000336802    -0.000002039991    0.016535500021    0.093992269032    0.000000363889    -0.000001983964
            0.000000236190    -0.000002593898    -0.009493045200    0.061557501489    0.000000363889    -0.000001983964    -0.008761010824    0.073085827005
0.350     0.057395199002    0.087678390792    -0.000001041314    -0.000002565205    0.042704007083    0.082979326257    -0.000001001295    -0.000002581700
            -0.000001041314    -0.000002565205    0.026967512379    0.077542681092    -0.000000641996    -0.000002109457    0.017336744032    0.069294897217
            0.042704007083    0.082979326257    -0.000000641996    -0.000002109457    0.056172711920    0.087205615693    -0.000000583723    -0.000002073634
            -0.000001001295    -0.000002581700    0.017336744032    0.069294897217    -0.000000583723    -0.000002073634    0.026131144338    0.077097859522
0.375     0.089653336750    0.062127521992    -0.000002195722    -0.000001947188    0.072671173712    0.066587280337    -0.000002165224    -0.000001983415
            -0.000002195722    -0.000001947188    0.060646082720    0.064557004552    -0.000001606337    -0.000001712659    0.045769737385    0.063757444793
            0.072671173712    0.066587280337    -0.000001606337    -0.000001712659    0.088494761301    0.062067564621    -0.000001527764    -0.000001711460
            -0.000002165224    -0.000001983415    0.045769737385    0.063757444793    -0.000001527764    -0.000001711460    0.059900227124    0.064393387223
0.400     0.106229747624    0.023419772915    -0.000002996616    -0.000000816125    0.091915129361    0.037107479561    -0.000002985217    -0.000000867196
            -0.000002996616    -0.000000816125    0.085304347786    0.036794992100    -0.000002338546    -0.000000878333    0.069378359733    0.045209627469
            0.091915129361    0.037107479561    -0.000002338546    -0.000000878333    0.105355176875    0.023696274614    -0.000002257439    -0.000000920591
            -0.000002985217    -0.000000867196    0.069378359733    0.045209627469    -0.000002257439    -0.000000920591    0.084824907160    0.036868648856
0.425     0.102081711814    -0.019816642308    -0.000003219532    0.000000636470    0.094828668654    0.000723289825    -0.000003234861    0.000000579956
            -0.000003219532    0.000000636470    0.094767348105    -0.000357123766    -0.000002640583    0.000000266883    0.082367252490    0.016885211524
            0.094828668654    0.000723289825    -0.000002640583    0.000000266883    0.101658558317    -0.019393578486    -0.000002579027    0.000000181369
            -0.000003234861    0.000000579956    0.082367252490    0.016885211524    -0.000002579027    0.000000181369    0.094709336571    -0.000181769671
0.450     0.076633364683    -0.057139741560    -0.000002734703    0.000002121052    0.079138616265    -0.034005544754    -0.000002780220    0.000002072207
            -0.000002734703    0.000002121052    0.085831436211    -0.039076828231    -0.000002375547    0.000001505746    0.080867402568    -0.015501621427
            0.079138616265    -0.034005544754    -0.000002375547    0.000001505746    0.076716243615    -0.056843665258    -0.000002355212    0.000001388470
            -0.000002780220    0.000002072207    0.080867402568    -0.015501621427    -0.000002355212    0.000001388470    0.086282387067    -0.039017457995
0.475     0.034488294062    -0.078481281813    -0.000001560370    0.000003294587    0.047022235843    -0.057834958380    -0.000001631757    0.000003268076
            -0.000001560370    0.000003294587    0.059172009891    -0.070610340894    -0.000001522035    0.000002560096    0.063970128880    -0.044773761682
            0.047022235843    -0.057834958380    -0.000001522035    0.000002560096    0.034969227130    -0.078608386840    -0.000001556134    0.000002432574
            -0.000001631757    0.000003268076    0.063970128880    -0.044773761682    -0.000001556134    0.000002432574    0.060110245147    -0.070936191364
0.500     -0.014921977343    -0.076814444669    0.000000103818    0.000003826483    0.005353369090    -0.063272904971    0.000000020791    0.000003836485
            0.000000103818    0.000003826483    0.019576149826    -0.087146969800    -0.000000213097    0.000003137142    0.034303328115    -0.063792337646
            0.005353369090    -0.063272904971    -0.000000213097    0.000003137142    -0.014350887486    -0.077597108387    -0.000000299420    0.000003028940
            0.000000020791    0.000003836485    0.034303328115    -0.063792337646    -0.000000299420    0.000003028940    0.020832275202    -0.088127295982
0.525     -0.059269269835    -0.050642497071    0.000001903301    0.000003508276    -0.035687207722    -0.047174487104    0.000001830252    0.000003561165
            0.000001903301    0.000003508276    -0.024740042509    -0.083788992046    0.000001286341    0.000003032889    -0.002175032027    -0.067238162037
            -0.035687207722    -0.047174487104    0.000001286341    0.000003032889    -0.059301556340    -0.052206810685    0.000001164666    0.000002970821
            0.000001830252    0.000003561165    -0.002175032027    -0.067238162037    0.000001164666    0.000002970821    -0.023509980225    -0.085594377192
0.550     -0.086749856925    -0.005192363753    0.000003401086    0.000002348412    -0.064182995046    -0.013116645319    0.000003361101    0.000002434849
            0.000003401086    0.000002348412    -0.063900091545    -0.060144658500    0.000002571714    0.000002234549    -0.037400222310    -0.053246892657
            -0.064182995046    -0.013116645319    0.000002571714    0.000002234549    -0.086001448454    -0.008728399123    0.000002442472    0.000002229067
            0.000003361101    0.000002434849    -0.037400222310    -0.053246892657    0.000002442472    0.000002229067    -0.063126488310    -0.062669350505
0.575     -0.089728595506    0.048887391606    0.000004214430    0.000000579732    -0.073809105237    0.032879652680    0.000004220064    0.000000678229
            0.000004214430    0.000000579732    -0.088942222744    -0.020608863033    0.000003393843    0.000000850820    -0.063263789812    -0.024069167099
            -0.073809105237    0.032879652680    0.000003393843    0.000000850820    -0.090216574685    0.045844205137    0.000003285344    0.000000896943
            0.000004220064    0.000000678229    -0.063263789812    -0.024069167099    0.000003285344    0.000000896943    -0.088841432953    -0.023514510459
0.600     -0.067105827559    0.098399655056    0.000004124800    -0.000001400139    -0.061162670670    0.078104493695    0.000004176314    -0.000001312798
            0.000004124800    -0.000001400139    -0.093875491373    0.026721298748    0.000003502154    -0.000000764692    -0.073581301319    0.014423901371
            -0.061162670670    0.078104493695    0.000003502154    -0.000000764692    -0.069015796974    0.095653838639    0.000003434297    -0.000000682971
            0.000004176314    -0.000001312798    -0.073581301319    0.014423901371    0.000003434297    -0.000000682971    -0.094485736119    0.023719888194
0.625     -0.025257348394    0.131858563679    0.000003151410    -0.000003144672    -0.029805216449    0.112705145743    0.000003238723    -0.000003088607
            0.000003151410    -0.000003144672    -0.077173633389    0.071732591507    0.000002873103    -0.000002275806    -0.065667591839    0.054057174126
            -0.029805216449    0.112705145743    0.000002873103    -0.000002275806    -0.027747732658    0.130158063925    0.000002857162    -0.000002180984
            0.000003238723    -0.000003088607    -0.065667591839    0.054057174126    0.000002857162    -0.000002180984    -0.078488307389    0.068913576473
0.650     0.026758565983    0.143361950632    0.000001489642    -0.000004304348    0.013579255314    0.130013822818    0.000001595174    -0.000004292901
            0.000001489642    -0.000004304348    -0.042253138938    0.104829583119    0.000001635182    -0.000003375639    -0.040983366251    0.086447640132
            0.013579255314    0.130013822818    0.000001635182    -0.000003375639    0.023977605928    0.142338070030    0.000001671560    -0.000003292104
            0.000001595174    -0.000004292901    -0.040983366251    0.086447640132    0.000001671560    -0.000003292104    -0.044151662761    0.102484891290
0.675     0.077843449480    0.130576663097    -0.000000541352    -0.000004636675    0.059932442436    0.126530266676    -0.000000439201    -0.000004673885
            -0.000000541352    -0.000004636675    0.003568103682    0.119181630360    0.000000019712    -0.000003852936    -0.004528938315    0.104930638139
            0.059932442436    0.126530266676    0.000000019712    -0.000003852936    0.074970877767    0.130407682372    0.000000099070    -0.000003802478
            -0.000000439201    -0.000004673885    -0.004528938315    0.104930638139    0.000000099070    -0.000003802478    0.001344211302    0.117541364004
0.700     0.117400951260    0.096756479057    -0.000002563435    -0.000004060116    0.099944520508    0.103170942564    -0.000002485421    -0.000004140430
            -0.000002563435    -0.000004060116    0.050888803582    0.111995338864    -0.000001692292    -0.000003601954    0.036435428617    0.105787995026
            0.099944520508    0.103170942564    -0.000001692292    -0.000003601954    0.114836063018    0.097448624798    -0.000001586934    -0.000003601085
            -0.000002485421    -0.000004140430    0.036435428617    0.105787995026    -0.000001586934    -0.000003601085    0.048694637381    0.111158503793
0.725     0.137434470064    0.049070392170    -0.000004201345    -0.000002638631    0.125551249588    0.064433303754    -0.000004164251    -0.000002748817
            -0.000004201345    -0.000002638631    0.090177044202    0.084800261779    -0.000003199296    -0.000002620712    0.073856395641    0.088731788958
            0.125551249588    0.064433303754    -0.000003199296    -0.000002620712    0.135558987127    0.050418020998    -0.000003090830    -0.000002678761
            -0.000004164251    -0.000002748817    0.073856395641    0.088731788958    -0.000003090830    -0.000002678761    0.088396696491    0.084699310697
0.750     0.133547509507    -0.002618100112    -0.000005114883    -0.000000573043    0.130998773253    0.017877103858    -0.000005129477    -0.000000694277
            -0.000005114883    -0.000000573043    0.113503462227    0.042993680702    -0.000004197895    -0.000001016946    0.100283163346    0.056859867467
            0.130998773253    0.017877103858    -0.000004197895    -0.000001016946    0.132624408385    -0.000993563249    -0.000004113322    -0.000001133348
            -0.000005129477    -0.000000694277    0.100283163346    0.056859867467    -0.000004113322    -0.000001133348    0.112472615925    0.043391426841
0.775     0.105847452627    -0.047101726872    -0.000005042940    0.000001796289    0.114079539615    -0.026651845683    -0.000005112648    0.000001686854
            -0.000005042940    0.000001796289    0.115914632232    -0.005133048948    -0.000004418464    0.000000970600    0.110122252138    0.016192928807
            0.114079539615    -0.026651845683    -0.000004418464    0.000000970600    0.105945106448    -0.045688186658    -0.000004384725    0.000000809029
