# GHz S RI R 45
0.000     0.027514204081    0.001874889163    0.000000390016    0.000000507852    0.000894681983    0.001603029502    0.000000558052    0.000000776408
            0.000000390021    0.000000507852    0.026910962716    0.001388975743    0.000000579847    0.000000801440    0.000798530677    0.001197857009
            0.000894681823    0.001603029478    0.000000580111    0.000000801440    0.027466476421    0.001862751288    0.000000805048    0.000001168284
            0.000000558050    0.000000776408    0.000798530677    0.001197857009    0.000000805070    0.000001168284    0.026731168414    0.001384375649
0.025     0.035573286763    0.007313900536    0.000001068290    0.000000768466    0.005051881879    0.011528268034    0.000001576564    0.000001192857
            0.000001068288    0.000000768463    0.034169315905    0.006198489197    0.000001634308    0.000001248802    0.004391719621    0.010380453155
            0.005050248835    0.011531561065    0.000001634307    0.000001248805    0.035501036820    0.007283259991    0.000002318485    0.000001818568
            0.000001576569    0.000001192859    0.004391558026    0.010380774513    0.000002318485    0.000001818568    0.034111377698    0.006180583829
0.050     0.045553461728    0.004310224534    0.000002217166    0.000000451588    0.015658756685    0.017710194821    0.000003333145    0.000000767212
            0.000002217166    0.000000451588    0.042993330801    0.003204610227    0.000003449903    0.000000829882    0.013731228811    0.016259994935
            0.015658744410    0.017710236375    0.000003449903    0.000000829882    0.045461914414    0.004258912599    0.000004959862    0.000001248949
            0.000003333145    0.000000767212    0.013731220736    0.016260004372    0.000004959862    0.000001248949    0.042952550765    0.003194596404
0.075     0.053115757277    -0.006449625078    0.000003010980    -0.000000804876    0.027996953483    0.015594347980    0.000004602731    -0.000001087107
            0.000003010980    -0.000000804876    0.049779166574    -0.006509930719    0.000004770311    -0.000001064412    0.024883448069    0.015005053184
            0.027996949071    0.015594353846    0.000004770311    -0.000001064412    0.053029453852    -0.006488398483    0.000006933211    -0.000001458754
            0.000004602731    -0.000001087107    0.024883443547    0.015005058748    0.000006933211    -0.000001458754    0.049786994022    -0.006519022903
0.100     0.053644307559    -0.022983910778    0.000002909234    -0.000002645191    0.036666844036    0.005505609298    0.000004562185    -0.000003870093
            0.000002909234    -0.000002645191    0.050631697049    -0.021374349348    0.000004744025    -0.000003923237    0.033292676549    0.006690110522
            0.036666844017    0.005505609426    0.000004744025    -0.000003923237    0.053605636217    -0.023007990417    0.000007005361    -0.000005603696
            0.000004562185    -0.000003870093    0.033292676432    0.006690111103    0.000007005361    -0.000005603696    0.050722044342    -0.021406109830
0.125     0.043876861041    -0.040638090819    0.000001600595    -0.000004436251    0.037257432211    -0.009216339930    0.000002711019    -0.000006657603
            0.000001600595    -0.000004436251    0.042651582855    -0.037621313186    0.000002850829    -0.000006795655    0.035109308465    -0.006104175218
            0.037257432211    -0.009216339930    0.000002850829    -0.000006795655    0.043930302734    -0.040691459519    0.000004395686    -0.000009849297
            0.000002711019    -0.000006657603    0.035109310542    -0.006104174948    0.000004395686    -0.000009849297    0.042845539612    -0.037713517739
0.150     0.023709742895    -0.053203730498    -0.000000795542    -0.000005419428    0.027881869032    -0.023193989562    -0.000000821511    -0.000008316186
            -0.000000795542    -0.000005419428    0.025505999735    -0.049956648156    -0.000000780637    -0.000008513254    0.028430061571    -0.019040692327
            0.027881869032    -0.023193989562    -0.000000780637    -0.000008513254    0.023882259090    -0.053341892907    -0.000000761064    -0.000012518086
            -0.000000821511    -0.000008316186    0.028430064729    -0.019040693004    -0.000000761064    -0.000012518086    0.025806343285    -0.050177895240
0.175     -0.003506846478    -0.054888164551    -0.000003723580    -0.000004974911    0.009950091118    -0.030567338124    -0.000005258186    -0.000007891701
            -0.000003723580    -0.000004974911    0.001685519243    -0.053414709051    -0.000005354404    -0.000008090683    0.013987966372    -0.027182442397
            0.009950091118    -0.030567338124    -0.000005354404    -0.000008090683    -0.003234893662    -0.055196915487    -0.000007377826    -0.000012175054
            -0.000005258186    -0.000007891701    0.013987982351    -0.027182444296    -0.000007377826    -0.000012175054    0.002054401743    -0.053836415195
0.200     -0.031323628677    -0.042308007455    -0.000006293760    -0.000002872954    -0.011905421557    -0.026942551572    -0.000009310344    -0.000004976543
            -0.000006293760    -0.000002872954    -0.023690498731    -0.044757524575    -0.000009548311    -0.000005102648    -0.004801176163    -0.026539582843
            -0.011905421557    -0.026942551572    -0.000009548311    -0.000005102648    -0.031029888472    -0.042863999108    -0.000013607479    -0.000008147831
            -0.000009310344    -0.000004976543    -0.004801176163    -0.026539582843    -0.000013607479    -0.000008147831    -0.023334036598    -0.045429762711
0.225     -0.051907238027    -0.016004677653    -0.000007557019    0.000000556230    -0.031047270476    -0.011064650314    -0.000011561495    0.000000033396
            -0.000007557019    0.000000556230    -0.044087176805    -0.023797022428    -0.000011906214    0.000000054366    -0.022662794081    -0.015441334730
            -0.031047270476    -0.011064650314    -0.000011906214    0.000000054366    -0.051716673007    -0.016835674943    -0.000017371416    -0.000000901478
            -0.000011561495    0.000000033396    -0.022662794081    -0.015441334730    -0.000017371416    -0.000000901478    -0.043853883454    -0.024722707519
0.250     -0.058447022188    0.019150152197    -0.000006866614    0.000004445478    -0.040901837201    0.014419266707    -0.000010978279    0.000005945445
            -0.000006866614    0.000004445478    -0.053398195969    0.006076601728    -0.000011356938    0.000006167500    -0.033973427881    0.004697795248
            -0.040901837201    0.014419266707    -0.000011356938    0.000006167500    -0.058497106167    0.018090975549    -0.000017069830    0.000007939592
            -0.000010978279    0.000005945445    -0.033973427881    0.004697795248    -0.000017069830    0.000007939592    -0.053398471539    0.004957442856
0.275     -0.047482611414    0.055072258876    -0.000004164682    0.000007661654    -0.037159641639    0.043554539155    -0.000007335632    0.000011121623
            -0.000004164682    0.000007661654    -0.047872844108    0.038529082333    -0.000007648065    0.000011559335    -0.034500718367    0.029583113425
            -0.037159641639    0.043554539155    -0.000007648065    0.000011559335    -0.047877291716    0.053908509088    -0.000012195635    0.000016038573
            -0.000007335632    0.000011121623    -0.034500718367    0.029583113425    -0.000012195635    0.000016038573    -0.048180079623    0.037335585468
0.300     -0.020234976426    0.082747756012    -0.000000036778    0.000009204467    -0.019247354005    0.068842375980    -0.000001340423    0.000014023880
            -0.000000036778    0.000009204467    -0.027434956448    0.065897357188    -0.000001480963    0.000014637137    -0.022766164745    0.053188701041
            -0.019247354005    0.068842375980    -0.000001480963    0.000014637137    -0.021002720323    0.081653511165    -0.000003570950    0.000021076103
            -0.000001340423    0.000014023880    -0.022766164745    0.053188701041    -0.000003570950    0.000021076103    -0.028054457340    0.064783488267
0.325     0.017608887718    0.094840095342    0.000004496505    0.000008536273    0.009483479444    0.083438350265    0.000005605242    0.000013700690
            0.000004496505    0.000008536273    0.004111977701    0.081277083697    0.000005715690    0.000014392656    -0.000535404737    0.069432319731
            0.009483479444    0.083438350265    0.000005715690    0.000014392656    0.016535500021    0.093992269032    0.000006898313    0.000021454488
            0.000005605242    0.000013700690    -0.000535404737    0.069432319731    0.000006898313    0.000021454488    0.003257206615    0.080391041883
0.350     0.057395199002    0.087678390792    0.000008305718    0.000005703375    0.042704007083    0.082979326257    0.000011830265    0.000010017018
            0.000008305718    0.000005703375    0.039970426115    0.080362703050    0.000012212194    0.000010653712    0.027621471524    0.073788001205
            0.042704007083    0.082979326257    0.000012212194    0.000010653712    0.056172711920    0.087205615693    0.000016763131    0.000016705551
            0.000011830265    0.000010017018    0.027621471524    0.073788001205    0.000016763131    0.000016705551    0.039031003020    0.079804756250
0.375     0.089653336750    0.062127521992    0.000010435390    0.000001261176    0.072671173712    0.066587280337    0.000015805683    0.000003618582
            0.000010435390    0.000001261176    0.071976570820    0.062531486641    0.000016404914    0.000004066701    0.055434393765    0.064384464256
            0.072671173712    0.066587280337    0.000016404914    0.000004066701    0.088494761301    0.062067564621    0.000023624840    0.000007548870
            0.000015805683    0.000003618582    0.055434393765    0.064384464256    0.000023624840    0.000007548870    0.071147001008    0.062319383503
0.400     0.106229747624    0.023419772915    0.000010268916    -0.000003876689    0.091915129361    0.037107479561    0.000016428835    -0.000004234025
            0.000010268916    -0.000003876689    0.092441575781    0.031050868547    0.000017126796    -0.000004064523    0.076320631273    0.042473272582
            0.091915129361    0.037107479561    0.000017126796    -0.000004064523    0.105355176875    0.023696274614    0.000025616359    -0.000004271129
            0.000016428835    -0.000004234025    0.076320631273    0.042473272582    0.000025616359    -0.000004271129    0.091917587511    0.031102136255
0.425     0.102081711814    -0.019816642308    0.000007619375    -0.000008584738    0.094828668654    0.000723289825    0.000013214285    -0.000011865120
            0.000007619375    -0.000008584738    0.095838107622    -0.007508130496    0.000013861892    -0.000011993198    0.084782614257    0.012299997796
            0.094828668654    0.000723289825    0.000013861892    -0.000011993198    0.101658558317    -0.019393578486    0.000021771529    -0.000016265714
            0.000013214285    -0.000011865120    0.084782614257    0.012299997796    0.000021771528    -0.000016265713    0.095766261460    -0.007372973366
0.450     0.076633364683    -0.057139741560    0.000002818404    -0.000011673723    0.079138616265    -0.034005544754    0.000006469009    -0.000017416419
            0.000002818404    -0.000011673723    0.080130134753    -0.044470571680    0.000006928159    -0.000017787594    0.077704128116    -0.019548684955
            0.079138616265    -0.034005544754    0.000006928159    -0.000017787594    0.076716243615    -0.056843665258    0.000012337307    -0.000025583275
            0.000006469009    -0.000017416419    0.077704128116    -0.019548684955    0.000012337307    -0.000025583275    0.080560130128    -0.044501020354
0.475     0.034488294062    -0.078481281813    -0.000003206269    -0.000012122707    0.047022235843    -0.057834958380    -0.000002571430    -0.000019209645
            -0.000003206269    -0.000012122707    0.047560017894    -0.070779521795    -0.000002397556    -0.000019715537    0.055369167320    -0.045358342445
            0.047022235843    -0.057834958380    -0.000002397556    -0.000019715537    0.034969227130    -0.078608386840    -0.000001023691    -0.000029580375
            -0.000002571430    -0.000019209645    0.055369167320    -0.045358342445    -0.000001023691    -0.000029580375    0.048410811126    -0.071242962843
0.500     -0.014921977343    -0.076814444669    -0.000008980145    -0.000009441182    0.005353369090    -0.063272904971    -0.000011796554    -0.000016287267
            -0.000008980145    -0.000009441182    0.004650214656    -0.079100672187    -0.000011954435    -0.000016791293    0.021918298542    -0.058055347530
            0.005353369090    -0.063272904971    -0.000011954435    -0.000016791293    -0.014350887486    -0.077597108387    -0.000015321863    -0.000026608254
            -0.000011796554    -0.000016287267    0.021918298542    -0.058055347530    -0.000015321863    -0.000026608254    0.005703291273    -0.080214041004
0.525     -0.059269269835    -0.050642497071    -0.000012817446    -0.000004028090    -0.035687207722    -0.047174487104    -0.000018675792    -0.000008953191
            -0.000012817446    -0.000004028090    -0.038907145794    -0.065926869127    -0.000019173761    -0.000009301992    -0.015194982721    -0.053224588033
            -0.035687207722    -0.047174487104    -0.000019173761    -0.000009301992    -0.059301556340    -0.052206810685    -0.000026881341    -0.000016771504
            -0.000018675792    -0.000008953191    -0.015194982721    -0.053224588033    -0.000026881341    -0.000016771504    -0.037974221448    -0.067784705567
0.550     -0.086749856925    -0.005192363753    -0.000013443158    0.000002749172    -0.064182995046    -0.013116645319    -0.000021118103    0.000001051443
            -0.000013443158    0.000002749172    -0.072528887439    -0.032988199396    -0.000021833211    0.000000865691    -0.046939238659    -0.030726275672
            -0.064182995046    -0.013116645319    -0.000021833211    0.000000865691    -0.086001448454    -0.008728399123    -0.000032300743    -0.000002439409
            -0.000021118103    0.000001051443    -0.046939238659    -0.030726275672    -0.000032300743    -0.000002439409    -0.072067691647    -0.035514117472
0.575     -0.089728595506    0.048887391606    -0.000010563076    0.000008984368    -0.073809105237    0.032879652680    -0.000018308457    0.000011062994
            -0.000010563076    0.000008984368    -0.087657626312    0.012812693435    -0.000019125291    0.000011329321    -0.065238578044    0.004933185106
            -0.073809105237    0.032879652680    -0.000019125291    0.000011329321    -0.090216574685    0.045844205137    -0.000030115061    0.000013213639
            -0.000018308457    0.000011062994    -0.065238578044    0.004933185106    -0.000030115061    0.000013213639    -0.087951793008    0.009867006345
0.600     -0.067105827559    0.098399655056    -0.000005020519    0.000012938212    -0.061162670670    0.078104493695    -0.000011035570    0.000018413055
            -0.000005020519    0.000012938212    -0.080248612763    0.061171339354    -0.000011794260    0.000019157951    -0.065340113516    0.045798154662
            -0.061162670670    0.078104493695    -0.000011794260    0.000019157951    -0.069015796974    0.095653838639    -0.000020832189    0.000025931364
            -0.000011035570    0.000018413055    -0.065340113516    0.045798154662    -0.000020832189    0.000025931364    -0.081428844727    0.058174004258
0.625     -0.025257348394    0.131858563679    0.000001543958    0.000013746715    -0.029805216449    0.112705145743    -0.000001390393    0.000021446868
            0.000001543958    0.000013746715    -0.051791392734    0.101236180465    -0.000001756756    0.000022595620    -0.046994585309    0.082762927729
            -0.029805216449    0.112705145743    -0.000001756756    0.000022595620    -0.027747732658    0.130158063925    -0.000006775507    0.000032868605
            -0.000001390393    0.000021446868    -0.046994585309    0.082762927729    -0.000006775507    0.000032868605    -0.053794694270    0.098586149956
0.650     0.026758565983    0.143361950632    0.000007637956    0.000011509201    0.013579255314    0.130013822818    0.000008489759    0.000019834786
            0.000007637956    0.000011509201    -0.008606740886    0.124395431471    0.000008613382    0.000021092225    -0.014164624400    0.107943336003
            0.013579255314    0.130013822818    0.000008613382    0.000021092225    0.023977605928    0.142338070030    0.000008825317    0.000032697199
            0.000008489759    0.000019834786    -0.014164624400    0.107943336003    0.000008825317    0.000032697199    -0.011188556970    0.122424272780
0.675     0.077843449480    0.130576663097    0.000012010199    0.000006857752    0.059932442436    0.126530266676    0.000016569605    0.000014052337
            0.000012010199    0.000006857752    0.040032338762    0.126056877481    0.000017168933    0.000015184220    0.026308891083    0.116280881906
            0.059932442436    0.126530266676    0.000017168933    0.000015184220    0.074970877767    0.130407682372    0.000022742436    0.000025640148
            0.000016569605    0.000014052337    0.026308891083    0.116280881906    0.000022742436    0.000025640148    0.037244100636    0.124953816958
0.700     0.117400951260    0.096756479057    0.000013916209    0.000000807702    0.099944520508    0.103170942564    0.000021359741    0.000005321734
            0.000013916209    0.000000807702    0.084087025817    0.106202447183    0.000022309669    0.000006115948    0.066324398563    0.106205048220
            0.099944520508    0.103170942564    0.000022309669    0.000006115948    0.114836063018    0.097448624798    0.000032280609    0.000013106183
            0.000021359741    0.000005321734    0.066324398563    0.106205048220    0.000032280609    0.000013106183    0.081515620680    0.105973097001
0.725     0.137434470064    0.049070392170    0.000013041840    -0.000005548208    0.125551249588    0.064433303754    0.000021949282    -0.000004794890
            0.000013041840    -0.000005548208    0.114641843154    0.069014633037    0.000023035258    -0.000004455109    0.097954949810    0.079607926202
            0.125551249588    0.064433303754    0.000023035258    -0.000004455109    0.135558987127    0.050418020998    0.000035496299    -0.000002648932
            0.000021949282    -0.000004794890    0.097954949810    0.079607926202    0.000035496299    -0.000002648932    0.112681251166    0.069474711186
0.750     0.133547509507    -0.002618100112    0.000009409818    -0.000011079398    0.130998773253    0.017877103858    0.000017972888    -0.000014484975
            0.000009409818    -0.000011079398    0.125350763445    0.022001597719    0.000018963115    -0.000014591011    0.114657732601    0.041503684179
            0.130998773253    0.017877103858    0.000018963115    -0.000014591011    0.132624408385    -0.000993563249    0.000031363262    -0.000018723892
            0.000017972888    -0.000014484975    0.114657732601    0.041503684179    0.000031363262    -0.000018723892    0.124286734272    0.022800648446
0.775     0.105847452627    -0.047101726872    0.000003436713    -0.000014606332    0.114079539615    -0.026651845683    0.000009751445    -0.000021727712
            0.000003436713    -0.000014606332    0.113523869534    -0.025178011182    0.000010464687    -0.000022168950    0.112391562035    -0.000568535211
            0.114079539615    -0.026651845683    0.000010464687    -0.000022168950    0.105945106448    -0.045688186658    0.000020055745    -0.000031779392
            0.000009751445    -0.000021727712    0.112391562035    -0.000568535211    0.000020055745    -0.000031779392    0.113466366125    -0.024504114527
