# GHz S RI R 45
0.000     0.027514204081    0.001874889163    -0.000014583854    -0.000038453512    0.000894681983    0.001603029502    -0.000020675226    -0.000053168976
            -0.000014583801    -0.000038453514    0.027786589656    0.001478223375    -0.000010970772    -0.000028730815    0.000941778710    0.001469124825
            0.000894681823    0.001603029478    -0.000010970777    -0.000028730815    0.027466476421    0.001862751288    -0.000014706004    -0.000038423739
            -0.000020675174    -0.000053168978    0.000941778969    0.001469124777    -0.000014706095    -0.000038423736    0.027754485272    0.001469208477
0.025     0.035573286763    0.007313900536    -0.000046498819    -0.000078185248    0.005051881879    0.011528268034    -0.000064700269    -0.000108816067
            -0.000046498809    -0.000078185200    0.033784646241    0.007760804832    -0.000034824750    -0.000058307781    0.003554307139    0.012020559587
            0.005050248835    0.011531561065    -0.000034824734    -0.000058307754    0.035501036820    0.007283259991    -0.000046344268    -0.000078286489
            -0.000064700803    -0.000108816145    0.003554321720    0.012019785688    -0.000046344284    -0.000078286423    0.033672696440    0.007661036861
0.050     0.045553461728    0.004310224534    -0.000115767710    -0.000118973738    0.015658756685    0.017710194821    -0.000160141409    -0.000166767881
            -0.000115767710    -0.000118973738    0.039302428004    0.008375958046    -0.000086709318    -0.000088706103    0.010582229171    0.021067722160
            0.015658744410    0.017710236375    -0.000086709318    -0.000088706103    0.045461914414    0.004258912599    -0.000115470463    -0.000120022629
            -0.000160141409    -0.000166767881    0.010582252250    0.021067719520    -0.000115470456    -0.000120022621    0.039082000253    0.008249092992
0.075     0.053115757277    -0.006449625078    -0.000200956456    -0.000122134734    0.027996953483    0.015594347980    -0.000279176393    -0.000173716435
            -0.000200956456    -0.000122134734    0.042570583763    0.005508276976    -0.000150707612    -0.000090794942    0.019379167274    0.025429414565
            0.027996949071    0.015594353846    -0.000150707612    -0.000090794942    0.053029453852    -0.006488398483    -0.000201919445    -0.000124448750
            -0.000279176401    -0.000173716440    0.019379182818    0.025429416549    -0.000201919445    -0.000124448750    0.042236408196    0.005441847032
0.100     0.053644307559    -0.022983910778    -0.000288831199    -0.000087399633    0.036666844036    0.005505609298    -0.000404328246    -0.000127211008
            -0.000288831199    -0.000087399633    0.041844844089    0.000871958851    -0.000216759607    -0.000064094300    0.027039191949    0.025235418015
            0.036666844017    0.005505609426    -0.000216759607    -0.000064094300    0.053605636217    -0.023007990417    -0.000292587908    -0.000089573169
            -0.000404328246    -0.000127211008    0.027039191949    0.025235418015    -0.000292587908    -0.000089573169    0.041453709000    0.000941969648
0.125     0.043876861041    -0.040638090819    -0.000368543209    -0.000015620646    0.037257432211    -0.009216339930    -0.000518997025    -0.000026438558
            -0.000368543209    -0.000015620646    0.036255285940    -0.002777830379    -0.000276363075    -0.000009081570    0.031309217877    0.022156672662
            0.037257432211    -0.009216339930    -0.000276363075    -0.000009081570    0.043930302734    -0.040691459519    -0.000374993855    -0.000014842297
            -0.000518997025    -0.000026438558    0.031309200264    0.022156626574    -0.000374993855    -0.000014842297    0.035910324098    -0.002544201110
0.150     0.023709742895    -0.053203730498    -0.000429732193    0.000092523551    0.027881869032    -0.023193989562    -0.000605959054    0.000127439364
            -0.000429732193    0.000092523551    0.026970955589    -0.002541340271    -0.000321177410    0.000073576733    0.031182377655    0.018853709897
            0.027881869032    -0.023193989562    -0.000321177410    0.000073576733    0.023882259090    -0.053341892907    -0.000436134764    0.000098586085
            -0.000605959054    0.000127439364    0.031182378511    0.018853710414    -0.000436134764    0.000098586085    0.026774697792    -0.002186519312
0.175     -0.003506846478    -0.054888164551    -0.000458306431    0.000235960945    0.009950091118    -0.030567338124    -0.000644021926    0.000330098144
            -0.000458306431    0.000235960945    0.016369683709    0.003658762347    -0.000340195875    0.000182433903    0.027396345458    0.018159060117
            0.009950091118    -0.030567338124    -0.000340195875    0.000182433903    -0.003234893662    -0.055196915487    -0.000460275441    0.000246895586
            -0.000644021926    0.000330098144    0.027396345458    0.018159060117    -0.000460275441    0.000246895586    0.016386927622    0.004025954383
0.200     -0.031323628677    -0.042308007455    -0.000435138081    0.000406899386    -0.011905421557    -0.026942551572    -0.000608268700    0.000567264200
            -0.000435138081    0.000406899386    0.007955044242    0.016409359237    -0.000319120622    0.000310648054    0.022250261143    0.022036443291
            -0.011905421557    -0.026942551572    -0.000319120622    0.000310648054    -0.031029888472    -0.042863999108    -0.000429353204    0.000418712413
            -0.000608268700    0.000567264200    0.022250261854    0.022036443995    -0.000429353204    0.000418712413    0.008172238180    0.016650315215
0.225     -0.051907238027    -0.016004677653    -0.000341362950    0.000584317116    -0.031047270476    -0.011064650314    -0.000476988197    0.000808911123
            -0.000341362950    0.000584317116    0.005317734202    0.034196403983    -0.000244615742    0.000441481817    0.018862178107    0.030781706166
            -0.031047270476    -0.011064650314    -0.000244615742    0.000441481817    -0.051716673007    -0.016835674943    -0.000328332060    0.000591105946
            -0.000476988197    0.000808911123    0.018862178107    0.030781706166    -0.000328332060    0.000591105946    0.005633936696    0.034197956889
0.250     -0.058447022188    0.019150152197    -0.000170022410    0.000733748142    -0.040901837201    0.014419266707    -0.000244543098    0.001010778332
            -0.000170022410    0.000733748142    0.010848014929    0.053599424514    -0.000112959911    0.000548765908    0.020055926235    0.042810550315
            -0.040901837201    0.014419266707    -0.000112959911    0.000548765908    -0.058497106167    0.018090975549    -0.000154728522    0.000731255276
            -0.000244543098    0.001010778332    0.020055926235    0.042810550315    -0.000154728522    0.000731255276    0.011104516090    0.053325201853
0.275     -0.047482611414    0.055072258876    0.000064721580    0.000817235379    -0.037159641639    0.043554539155    0.000069518822    0.001126512682
            0.000064721580    0.000817235379    0.024760277961    0.070221088891    0.000063625549    0.000604845564    0.027308356304    0.055146299806
            -0.037159641639    0.043554539155    0.000063625549    0.000604845564    -0.047877291716    0.053908509088    0.000075235025    0.000806002880
            0.000069518822    0.001126512682    0.027308356304    0.055146299806    0.000075235025    0.000806002880    0.024796090859    0.069736251742
0.300     -0.020234976426    0.082747756012    0.000328059236    0.000808858008    -0.019247354005    0.068842375980    0.000422282740    0.001125003574
            0.000328059236    0.000808858008    0.044854390503    0.080094566000    0.000258267735    0.000592131550    0.040210724680    0.064445946888
            -0.019247354005    0.068842375980    0.000258267735    0.000592131550    -0.021002720323    0.081653511165    0.000328940058    0.000794602375
            0.000422282740    0.001125003574    0.040210724680    0.064445946888    0.000328940058    0.000794602375    0.044567268773    0.079550629533
0.325     0.017608887718    0.094840095342    0.000576548071    0.000705579639    0.009483479444    0.083438350265    0.000761631844    0.001001640223
            0.000576548071    0.000705579639    0.067131749166    0.080921754412    0.000439129215    0.000510314671    0.056617401473    0.068082586029
            0.009483479444    0.083438350265    0.000439129215    0.000510314671    0.016535500021    0.093992269032    0.000568572342    0.000696182635
            0.000761631844    0.001001640223    0.056617401473    0.068082586029    0.000568572342    0.000696182635    0.066518937159    0.080510703194
0.350     0.057395199002    0.087678390792    0.000774253070    0.000527076152    0.042704007083    0.082979326257    0.001044004263    0.000777402463
            0.000774253070    0.000527076152    0.086963987955    0.072755010121    0.000581120780    0.000375075752    0.073331784228    0.064913612663
            0.042704007083    0.082979326257    0.000581120780    0.000375075752    0.056172711920    0.087205615693    0.000764062044    0.000527726631
            0.001044004263    0.000777402463    0.073331784228    0.064913612663    0.000764062044    0.000527726631    0.086130745485    0.072648262383
0.375     0.089653336750    0.062127521992    0.000903780660    0.000305043548    0.072671173712    0.066587280337    0.001245942021    0.000486629902
            0.000903780660    0.000305043548    0.100349663031    0.057927844577    0.000673101297    0.000209429182    0.086986032246    0.055546227442
            0.072671173712    0.066587280337    0.000673101297    0.000209429182    0.088494761301    0.062067564621    0.000900437286    0.000314381875
            0.001245942021    0.000486629902    0.086986032246    0.055546227442    0.000900437286    0.000314381875    0.099484796177    0.058220272384
0.400     0.106229747624    0.023419772915    0.000967848887    0.000068788351    0.091915129361    0.037107479561    0.001365147237    0.000161575299
            0.000967848887    0.000068788351    0.104916749069    0.040452898528    0.000717691931    0.000033552031    0.094891922018    0.042204970502
            0.091915129361    0.037107479561    0.000717691931    0.000033552031    0.105355176875    0.023696274614    0.000977279600    0.000078447557
            0.001365147237    0.000161575299    0.094891922018    0.042204970502    0.000977279600    0.000078447559    0.104242164105    0.041127645664
0.425     0.102081711814    -0.019816642308    0.000981036271    -0.000166408295    0.094828668654    0.000723289825    0.001411096242    -0.000179267093
            0.000981036281    -0.000166408298    0.100516814066    0.025067118220    0.000724724677    -0.000142670873    0.095737798068    0.028261784526
            0.094828668654    0.000723289825    0.000724724677    -0.000142670873    0.101658558317    -0.019393578486    0.001001222521    -0.000167944680
            0.001411096242    -0.000179267093    0.095737799520    0.028261783138    0.001001222521    -0.000167944680    0.100225587071    0.025988230911
0.450     0.076633364683    -0.057139741560    0.000955819634    -0.000402766016    0.079138616265    -0.034005544754    0.001390494297    -0.000533620085
            0.000955819634    -0.000402766016    0.089395072796    0.016127990412    0.000701423097    -0.000321009151    0.090093724320    0.017494922245
            0.079138616265    -0.034005544754    0.000701423097    -0.000321009151    0.076716243615    -0.056843665258    0.000975777388    -0.000423466956
            0.001390494297    -0.000533620085    0.090093724320    0.017494922245    0.000975777388    -0.000423466956    0.089590154776    0.017066692307
0.475     0.034488294062    -0.078481281813    0.000888389750    -0.000652061994    0.047022235843    -0.057834958380    0.001293706289    -0.000905999117
            0.000888389750    -0.000652061994    0.075854714137    0.016432866868    0.000643164721    -0.000508486020    0.080541974643    0.013050089522
            0.047022235843    -0.057834958380    0.000643164721    -0.000508486020    0.034969227130    -0.078608386840    0.000892560842    -0.000690069312
            0.001293706289    -0.000905999117    0.080541974643    0.013050089522    0.000892560842    -0.000690069312    0.076506802567    0.017124787348
0.500     -0.014921977343    -0.076814444669    0.000754127960    -0.000917419044    0.005353369090    -0.063272904971    0.001092220262    -0.001288519547
            0.000754127960    -0.000917419044    0.065315892520    0.026203143369    0.000531430474    -0.000704468635    0.071211534454    0.016312204702
            0.005353369090    -0.063272904971    0.000531430474    -0.000704468635    -0.014350887486    -0.077597108387    0.000730793889    -0.000959490157
            0.001092220262    -0.001288519547    0.071211534454    0.016312204702    0.000730793889    -0.000959490157    0.066258541910    0.026422269323
0.525     -0.059269269835    -0.050642497071    0.000520093495    -0.001174228746    -0.035687207722    -0.047174487104    0.000753982393    -0.001642864862
            0.000520093495    -0.001174228746    0.062755574728    0.042627131619    0.000343946274    -0.000889280103    0.066557465614    0.026105940225
            -0.035687207722    -0.047174487104    0.000343946274    -0.000889280103    -0.059301556340    -0.052206810685    0.000469417493    -0.001203256247
            0.000753982393    -0.001642864862    0.066557465614    0.026105940225    0.000469417493    -0.001203256247    0.063717782615    0.042245285054
0.550     -0.086749856925    -0.005192363753    0.000172823451    -0.001367269100    -0.064182995046    -0.013116645319    0.000272983011    -0.001900451405
            0.000172823451    -0.001367269100    0.070971012256    0.060447345802    0.000088453178    -0.001009988806    0.069729997063    0.038840072576
            -0.064182995046    -0.013116645319    0.000088453178    -0.001009988806    -0.086001448454    -0.008728399123    0.000127099371    -0.001355033423
            0.000272983011    -0.001900451405    0.069729997063    0.038840072576    0.000127099371    -0.001355033423    0.071605945627    0.059482787789
0.575     -0.089728595506    0.048887391606    -0.000260479623    -0.001431710295    -0.073809105237    0.032879652680    -0.000310863744    -0.001987121537
            -0.000260479623    -0.001431710295    0.089445268409    0.073597276560    -0.000239297428    -0.001035832192    0.081357730076    0.049741487067
            -0.073809105237    0.032879652680    -0.000239297428    -0.001035832192    -0.090216574685    0.045844205137    -0.000302009083    -0.001385049299
            -0.000310863744    -0.001987121537    0.081357730076    0.049741487067    -0.000302009083    -0.001385049299    0.089435106274    0.072308071117
0.600     -0.067105827559    0.098399655056    -0.000711338240    -0.001327641000    -0.061162670670    0.078104493695    -0.000913560677    -0.001860066516
            -0.000711338240    -0.001327641000    0.114479393588    0.077240232948    -0.000563034026    -0.000939292280    0.099421271969    0.054485261663
            -0.061162670670    0.078104493695    -0.000563034026    -0.000939292280    -0.069015796974    0.095653838639    -0.000721708139    -0.001263126462
            -0.000913560677    -0.001860066516    0.099421271969    0.054485261663    -0.000721708139    -0.001263126462    0.113740700134    0.076031505998
0.625     -0.025257348394    0.131858563679    -0.001098717060    -0.001065183532    -0.029805216449    0.112705145743    -0.001439795647    -0.001533894965
            -0.001098717060    -0.001065183532    0.140491232878    0.069245246149    -0.000830806778    -0.000731154292    0.120001096623    0.050508593364
            -0.029805216449    0.112705145743    -0.000830806778    -0.000731154292    -0.027747732658    0.130158063925    -0.001072976261    -0.001003899215
            -0.001439795647    -0.001533894965    0.120001096623    0.050508593364    -0.001072976261    -0.001003899215    0.139170673606    0.068471862628
0.650     0.026758565983    0.143361950632    -0.001365777357    -0.000688578860    0.013579255314    0.130013822818    -0.001823972623    -0.001059381188
            -0.001365777357    -0.000688578860    0.161784025819    0.050553740335    -0.001003980288    -0.000450808831    0.138597065191    0.037578463644
            0.013579255314    0.130013822818    -0.001003980288    -0.000450808831    0.023977605928    0.142338070030    -0.001311627787    -0.000653243646
            -0.001823972623    -0.001059381188    0.138597065191    0.037578463644    -0.001311627787    -0.000653243646    0.160169337263    0.050442155243
0.675     0.077843449480    0.130576663097    -0.001483839372    -0.000264411714    0.059932442436    0.126530266676    -0.002030435168    -0.000511244806
            -0.001483839372    -0.000264411714    0.173966730763    0.024602499278    -0.001071574948    -0.000146995769    0.151267311809    0.017539391213
            0.059932442436    0.126530266676    -0.001071574948    -0.000146995769    0.074970877767    0.130407682372    -0.001424414306    -0.000266459704
            -0.002030435168    -0.000511244806    0.151267311809    0.017539391213    -0.001424414306    -0.000266459704    0.172414634792    0.025215897684
0.700     0.117400951260    0.096756479057    -0.001464404792    0.000143052013    0.099944520508    0.103170942564    -0.002067542105    0.000038342263
            -0.001464404792    0.000143052013    0.174771542472    -0.003673756249    -0.001046864297    0.000139113808    0.155350581636    -0.006261817376
            0.099944520508    0.103170942564    -0.001046864297    0.000139113808    0.114836063018    0.097448624798    -0.001424346675    0.000110428764
            -0.002067542105    0.000038342263    0.155350581636    -0.006261817376    -0.001424346675    0.000110428764    0.173630508661    -0.002446235736
0.725     0.137434470064    0.049070392170    -0.001345219064    0.000491612414    0.125551249588    0.064433303754    -0.001970928930    0.000541134513
            -0.001345219064    0.000491612414    0.164339074087    -0.028870227114    -0.000957223437    0.000383354965    0.149863229253    -0.029596019532
            0.125551249588    0.064433303754    -0.000957223437    0.000383354965    0.135558987127    0.050418020998    -0.001338614577    0.000449991915
            -0.001970928930    0.000541134513    0.149863229253    -0.029596019532    -0.001338614577    0.000449991915    0.163874373396    -0.027298241292
0.750     0.133547509507    -0.002618100112    -0.001173360057    0.000769938786    0.130998773253    0.017877103858    -0.001784769706    0.000980177253
            -0.001173360057    0.000769938786    0.145224439258    -0.046077304411    -0.000832608563    0.000581719597    0.135813450290    -0.048010442859
            0.130998773253    0.017877103858    -0.000832608563    0.000581719597    0.132624408385    -0.000993563249    -0.001195876340    0.000745528049
            -0.001784769706    0.000980177253    0.135813450290    -0.048010442859    -0.001195876340    0.000745528049    0.145549312535    -0.044540613046
0.775     0.105847452627    -0.047101726872    -0.000984627096    0.000997448757    0.114079539615    -0.026651845683    -0.001540804597    0.001367735959
            -0.000984627096    0.000997448757    0.122149850125    -0.051872238960    -0.000693334913    0.000748133840    0.116353958730    -0.057714067375
            0.114079539615    -0.026651845683    -0.000693334913    0.000748133840    0.105945106448    -0.045688186658    -0.001013800203    0.001007102140
            -0.001540804597    0.001367735959    0.116353958730    -0.057714067375    -0.001013800203    0.001007102140    0.123175229761    -0.050784973812
