# GHz S RI R 45
0.000     0.027514204081    0.001874889163    0.000001832566    0.000003665414    0.000894681983    0.001603029502    0.000001993766    0.000004286858
            0.000001832501    0.000003665413    0.026987365674    0.001868960776    0.000002207122    0.000004308464    0.000860331489    0.001601703374
            0.000894681823    0.001603029478    0.000002207061    0.000004308465    0.027466476421    0.001862751288    0.000002410140    0.000005108876
            0.000001993692    0.000004286857    0.000860331649    0.001601703402    0.000002409850    0.000005108875    0.026962183400    0.001879502808
0.025     0.035573286763    0.007313900536    0.000006282004    0.000006814782    0.005051881879    0.011528268034    0.000007137080    0.000007456023
            0.000006282002    0.000006814775    0.034916384910    0.006998478585    0.000007490672    0.000008571779    0.004909163547    0.011150231988
            0.005050248835    0.011531561065    0.000007490680    0.000008571777    0.035501036820    0.007283259991    0.000008537795    0.000009108664
            0.000007137085    0.000007456013    0.004908408734    0.011150430985    0.000008537803    0.000009108663    0.034852131896    0.006933993456
0.050     0.045553461728    0.004310224534    0.000015245562    0.000006995782    0.015658756685    0.017710194821    0.000017507675    0.000007230502
            0.000015245562    0.000006995782    0.044807345751    0.003954605959    0.000018009424    0.000009295632    0.015301815284    0.017140016306
            0.015658744410    0.017710236375    0.000018009425    0.000009295633    0.045461914414    0.004258912599    0.000020868424    0.000009087668
            0.000017507675    0.000007230503    0.015301803144    0.017140017761    0.000020868424    0.000009087668    0.044742094836    0.003823276899
0.075     0.053115757277    -0.006449625078    0.000023463125    -0.000000375852    0.027996953483    0.015594347980    0.000027038893    -0.000001730033
            0.000023463125    -0.000000375852    0.052541062269    -0.006686085759    0.000027648327    0.000001219231    0.027534909347    0.015077941470
            0.027996949071    0.015594353846    0.000027648328    0.000001219231    0.053029453852    -0.006488398483    0.000032229959    -0.000001265412
            0.000027038893    -0.000001730033    0.027534903908    0.015077947237    0.000032229958    -0.000001265412    0.052480594787    -0.006883206246
0.100     0.053644307559    -0.022983910778    0.000026080249    -0.000013783342    0.036666844036    0.005505609298    0.000030132529    -0.000017712508
            0.000026080249    -0.000013783342    0.053662267500    -0.023162112601    0.000030789592    -0.000013906085    0.036419670311    0.005145653493
            0.036666844017    0.005505609426    0.000030789592    -0.000013906085    0.053605636217    -0.023007990417    0.000036039724    -0.000019955424
            0.000030132529    -0.000017712508    0.036419670284    0.005145653683    0.000036039724    -0.000019955424    0.053609306695    -0.023440026367
0.125     0.043876861041    -0.040638090819    0.000019635450    -0.000029050831    0.037257432211    -0.009216339930    0.000022763695    -0.000035944945
            0.000019635450    -0.000029050831    0.044867925059    -0.041207482436    0.000023400381    -0.000031257441    0.037623143382    -0.009597615286
            0.037257432211    -0.009216339930    0.000023400381    -0.000031257441    0.043930302734    -0.040691459519    0.000027527689    -0.000041400615
            0.000022763695    -0.000035944945    0.037623143382    -0.009597615286    0.000027527689    -0.000041400615    0.044806880581    -0.041587745291
0.150     0.023709742895    -0.053203730498    0.000003618957    -0.000040351275    0.027881869032    -0.023193989562    0.000004274458    -0.000049735092
            0.000003618957    -0.000040351275    0.025825657027    -0.054796834354    0.000004849436    -0.000044087072    0.029115088894    -0.024093678992
            0.027881869032    -0.023193989562    0.000004849436    -0.000044087072    0.023882259090    -0.053341892907    0.000005856454    -0.000057742400
            0.000004274458    -0.000049735092    0.029115088894    -0.024093678992    0.000005856454    -0.000057742400    0.025735758587    -0.055294865843
0.175     -0.003506846478    -0.054888164551    -0.000019006922    -0.000042096958    0.009950091118    -0.030567338124    -0.000022023085    -0.000052623447
            -0.000019006922    -0.000042096958    -0.000574927832    -0.058358605078    -0.000021489347    -0.000045902912    0.011947285606    -0.032684357404
            0.009950091118    -0.030567338124    -0.000021489347    -0.000045902912    -0.003234893662    -0.055196915487    -0.000025166893    -0.000061362616
            -0.000022023085    -0.000052623447    0.011947286177    -0.032684357195    -0.000025166893    -0.000061362616    -0.000740385316    -0.058982809317
0.200     -0.031323628677    -0.042308007455    -0.000042175616    -0.000030956031    -0.011905421557    -0.026942551572    -0.000049243542    -0.000040673811
            -0.000042175616    -0.000030956031    -0.028483781859    -0.048325156263    -0.000048653152    -0.000032781840    -0.009743451268    -0.030917519448
            -0.011905421557    -0.026942551572    -0.000048653152    -0.000032781840    -0.031029888472    -0.042863999108    -0.000057542480    -0.000047546958
            -0.000049243542    -0.000040673811    -0.009743451268    -0.030917519448    -0.000057542480    -0.000047546958    -0.028784538079    -0.049055760238
0.225     -0.051907238027    -0.016004677653    -0.000058390779    -0.000007512289    -0.031047270476    -0.011064650314    -0.000068796148    -0.000014370460
            -0.000058390779    -0.000007512289    -0.050501026008    -0.024646589592    -0.000067991504    -0.000005270195    -0.029754872644    -0.017132449506
            -0.031047270476    -0.011064650314    -0.000067991504    -0.000005270195    -0.051716673007    -0.016835674943    -0.000081223750    -0.000016687172
            -0.000068796148    -0.000014370460    -0.029754872644    -0.017132449506    -0.000081223750    -0.000016687172    -0.050991296085    -0.025425422596
0.250     -0.058447022188    0.019150152197    -0.000061319934    0.000023292033    -0.040901837201    0.014419266707    -0.000073292507    0.000020826717
            -0.000061319934    0.000023292033    -0.059829902653    0.008645978184    -0.000072103184    0.000031081199    -0.041641774697    0.006703368490
            -0.040901837201    0.014419266707    -0.000072103184    0.000031081199    -0.058497106167    0.018090975549    -0.000087443794    0.000025039076
            -0.000073292507    0.000020826717    -0.041641774697    0.006703368490    -0.000087443794    0.000025039076    -0.060533484065    0.007913092031
0.275     -0.047482611414    0.055072258876    -0.000048244124    0.000053535658    -0.037159641639    0.043554539155    -0.000059336886    0.000055956408
            -0.000048244124    0.000053535658    -0.052485503718    0.044253712946    -0.000057633683    0.000067225084    -0.040761551245    0.035340828239
            -0.037159641639    0.043554539155    -0.000057633683    0.000067225084    -0.047877291716    0.053908509088    -0.000071939431    0.000067282175
            -0.000059336886    0.000055956408    -0.040761551245    0.035340828239    -0.000071939431    0.000067282175    -0.053372864101    0.043678961077
0.300     -0.020234976426    0.082747756012    -0.000021150013    0.000074951878    -0.019247354005    0.068842375980    -0.000028856060    0.000081464947
            -0.000021150013    0.000074951878    -0.028731203591    0.073547219793    -0.000026591740    0.000093555256    -0.025801489282    0.061699349477
            -0.019247354005    0.068842375980    -0.000026591740    0.000093555256    -0.021002720323    0.081653511165    -0.000036578716    0.000098784803
            -0.000028856060    0.000081464947    -0.025801489282    0.061699349477    -0.000036578716    0.000098784803    -0.029710157154    0.073230058121
0.325     0.017608887718    0.094840095342    0.000014063514    0.000081523366    0.009483479444    0.083438350265    0.000011657645    0.000090156567
            0.000014063514    0.000081523366    0.006819557123    0.088973895376    0.000014431583    0.000102869053    0.000780880649    0.078868307318
            0.009483479444    0.083438350265    0.000014431583    0.000102869053    0.016535500021    0.093992269032    0.000011345299    0.000110784989
            0.000011657645    0.000090156567    0.000780880649    0.078868307318    0.000011345299    0.000110784989    0.005896233942    0.088966037306
0.350     0.057395199002    0.087678390792    0.000049500774    0.000070916975    0.042704007083    0.082979326257    0.000053210161    0.000078931610
            0.000049500774    0.000070916975    0.046342533684    0.086085993586    0.000056346756    0.000092106745    0.033403687064    0.081943583971
            0.042704007083    0.082979326257    0.000056346756    0.000092106745    0.056172711920    0.087205615693    0.000061353314    0.000099159477
            0.000053210161    0.000078931610    0.033403687064    0.081943583971    0.000061353314    0.000099159477    0.045650098257    0.086362773029
0.375     0.089653336750    0.062127521992    0.000077232083    0.000044569021    0.072671173712    0.066587280337    0.000086528044    0.000049041113
            0.000077232083    0.000044569021    0.080711199610    0.064634399110    0.000089803505    0.000062600417    0.064722267070    0.069194277294
            0.072671173712    0.066587280337    0.000089803505    0.000062600417    0.088494761301    0.062067564621    0.000102332417    0.000064919395
            0.000086528044    0.000049041113    0.064722267070    0.069194277294    0.000102332417    0.000064919395    0.080414096571    0.065083122407
0.400     0.106229747624    0.023419772915    0.000090666415    0.000007123520    0.091915129361    0.037107479561    0.000103701562    0.000005559322
            0.000090666415    0.000007123520    0.101555013782    0.028670566554    0.000106853246    0.000019548552    0.087243027677    0.042493529520
            0.091915129361    0.037107479561    0.000106853246    0.000019548552    0.105355176875    0.023696274614    0.000124561440    0.000013774272
            0.000103701562    0.000005559322    0.087243027677    0.042493529520    0.000124561440    0.000013774272    0.101764409207    0.029096275611
0.425     0.102081711814    -0.019816642308    0.000085482293    -0.000034229548    0.094828668654    0.000723289825    0.000099358465    -0.000043334499
            0.000085482293    -0.000034229548    0.103084353177    -0.014200139158    0.000102152331    -0.000028719554    0.094902886270    0.007086369003
            0.094828668654    0.000723289825    0.000102152331    -0.000028719554    0.101658558317    -0.019393578486    0.000121263613    -0.000044662087
            0.000099358465    -0.000043334499    0.094902886270    0.007086369003    0.000121263613    -0.000044662087    0.103818886436    -0.014050231263
0.450     0.076633364683    -0.057139741560    0.000060659340    -0.000070450614    0.079138616265    -0.034005544754    0.000071921471    -0.000087176590
            0.000060659340    -0.000070450614    0.083506244052    -0.054203908729    0.000074239267    -0.000071603068    0.084525282156    -0.029217478920
            0.079138616265    -0.034005544754    0.000074239267    -0.000071603068    0.076716243615    -0.056843665258    0.000090208491    -0.000097907922
            0.000071921471    -0.000087176590    0.084525282156    -0.029217478920    0.000090208491    -0.000097907922    0.084662489325    -0.054597574333
0.475     0.034488294062    -0.078481281813    0.000019654796    -0.000091999943    0.047022235843    -0.057834958380    0.000024975548    -0.000114782761
            0.000019654796    -0.000091999943    0.045845261505    -0.081348610293    0.000026897153    -0.000097856676    0.056953171239    -0.057497459139
            0.047022235843    -0.057834958380    0.000026897153    -0.000097856676    0.034969227130    -0.078608386840    0.000035326120    -0.000132547863
            0.000024975548    -0.000114782761    0.056953171239    -0.057497459139    0.000035326120    -0.000132547863    0.047185934018    -0.082512676719
0.500     -0.014921977343    -0.076814444669    -0.000028970254    -0.000091404627    0.005353369090    -0.063272904971    -0.000031982100    -0.000117154993
            -0.000028970254    -0.000091404627    -0.002120665663    -0.087821398363    -0.000030164142    -0.000098553315    0.017506407712    -0.069834519705
            0.005353369090    -0.063272904971    -0.000030164142    -0.000098553315    -0.014350887486    -0.077597108387    -0.000032471226    -0.000137657177
            -0.000031982100    -0.000117154993    0.017506407712    -0.069834519705    -0.000032471226    -0.000137657177    -0.000961497327    -0.089873556937
0.525     -0.059269269835    -0.050642497071    -0.000072872953    -0.000066524963    -0.035687207722    -0.047174487104    -0.000084944241    -0.000091169356
            -0.000072872953    -0.000066524963    -0.049233156469    -0.070396378067    -0.000082903437    -0.000070813457    -0.024794371336    -0.061700277018
            -0.035687207722    -0.047174487104    -0.000082903437    -0.000070813457    -0.059301556340    -0.052206810685    -0.000097032113    -0.000109066514
            -0.000084944241    -0.000091169356    -0.024794371336    -0.061700277018    -0.000097032113    -0.000109066514    -0.048716796555    -0.073245132295
0.550     -0.086749856925    -0.005192363753    -0.000099860519    -0.000022676023    -0.064182995046    -0.013116645319    -0.000119592495    -0.000042054035
            -0.000099860519    -0.000022676023    -0.083806746547    -0.031978100116    -0.000116034298    -0.000020978947    -0.059501316636    -0.033769083420
            -0.064182995046    -0.013116645319    -0.000116034298    -0.000020978947    -0.086001448454    -0.008728399123    -0.000140126389    -0.000053015012
            -0.000119592495    -0.000042054035    -0.059501316636    -0.033769083420    -0.000140126389    -0.000053015012    -0.084310817138    -0.035190856435
0.575     -0.089728595506    0.048887391606    -0.000102573637    0.000028958697    -0.073809105237    0.032879652680    -0.000126617715    0.000017846050
            -0.000102573637    0.000028958697    -0.097132509798    0.019015359529    -0.000122202386    0.000040434475    -0.077842274281    0.008065115878
            -0.073809105237    0.032879652680    -0.000122202386    0.000040434475    -0.090216574685    0.045844205137    -0.000152254714    0.000018834647
            -0.000126617715    0.000017846050    -0.077842274281    0.008065115878    -0.000152254714    0.000018834647    -0.098630914427    0.016013024395
0.600     -0.067105827559    0.098399655056    -0.000080976233    0.000075247048    -0.061162670670    0.078104493695    -0.000104945487    0.000073342967
            -0.000080976233    0.000075247048    -0.085682144703    0.071049848796    -0.000099815132    0.000096876373    -0.075100522389    0.054389924505
            -0.061162670670    0.078104493695    -0.000099815132    0.000096876373    -0.069015796974    0.095653838639    -0.000130145401    0.000087153143
            -0.000104945487    0.000073342967    -0.075100522389    0.054389924505    -0.000130145401    0.000087153143    -0.087915153083    0.068621090683
0.625     -0.025257348394    0.131858563679    -0.000041989336    0.000105940899    -0.029805216449    0.112705145743    -0.000061767140    0.000112057566
            -0.000041989336    0.000105940899    -0.051963517073    0.112386144355    -0.000055438441    0.000136478257    -0.051752203036    0.094840170374
            -0.029805216449    0.112705145743    -0.000055438441    0.000136478257    -0.027747732658    0.130158063925    -0.000080411691    0.000137413970
            -0.000061767140    0.000112057566    -0.051752203036    0.094840170374    -0.000080411691    0.000137413970    -0.054626565624    0.110762311272
0.650     0.026758565983    0.143361950632    0.000005434620    0.000116545508    0.013579255314    0.130013822818    -0.000006981727    0.000127975136
            0.000005434620    0.000116545508    -0.003634337759    0.134186212301    0.000000357039    0.000152506832    -0.012963809583    0.120839030047
            0.013579255314    0.130013822818    0.000000357039    0.000152506832    0.023977605928    0.142338070030    -0.000014790161    0.000160556930
            -0.000006981727    0.000127975136    -0.012963809583    0.120839030047    -0.000014790161    0.000160556930    -0.006349106529    0.133484619806
0.675     0.077843449480    0.130576663097    0.000052036947    0.000106315534    0.059932442436    0.126530266676    0.000048667559    0.000119238372
            0.000052036947    0.000106315534    0.048841876059    0.132317232624    0.000056590847    0.000143685061    0.033144859657    0.127276138349
            0.059932442436    0.126530266676    0.000056590847    0.000143685061    0.074970877767    0.130407682372    0.000053758362    0.000153747470
            0.000048667559    0.000119238372    0.033144859657    0.127276138349    0.000053758362    0.000153747470    0.046493342090    0.132487746856
0.700     0.117400951260    0.096756479057    0.000090056789    0.000078009118    0.099944520508    0.103170942564    0.000095672074    0.000088283482
            0.000090056789    0.000078009118    0.094656469993    0.107650658050    0.000103763284    0.000112577259    0.077371957681    0.113035146780
            0.099944520508    0.103170942564    0.000103763284    0.000112577259    0.114836063018    0.097448624798    0.000113349537    0.000118958235
            0.000095672074    0.000088283482    0.077371957681    0.113035146780    0.000113349537    0.000118958235    0.093051681753    0.108460701264
0.725     0.137434470064    0.049070392170    0.000113448236    0.000036170409    0.125551249588    0.064433303754    0.000126297261    0.000039994567
            0.000113448236    0.000036170409    0.124601937860    0.065424973032    0.000134095795    0.000064249215    0.110976995498    0.080818613985
            0.125551249588    0.064433303754    0.000134095795    0.000064249215    0.135558987127    0.050418020998    0.000153792084    0.000061645843
            0.000126297261    0.000039994567    0.110976995498    0.080818613985    0.000153792084    0.000061645843    0.123999367172    0.066485469874
0.750     0.133547509507    -0.002618100112    0.000117493884    -0.000013026138    0.130998773253    0.017877103858    0.000134340957    -0.000018516008
            0.000117493884    -0.000013026138    0.132479690640    0.014195968591    0.000141437504    0.000006064743    0.126962914113    0.036715808598
            0.130998773253    0.017877103858    0.000141437504    0.000006064743    0.132624408385    -0.000993563249    0.000166814088    -0.000009505631
            0.000134340957    -0.000018516008    0.126962914113    0.036715808598    0.000166814088    -0.000009505631    0.132954537727    0.015018666183
0.775     0.105847452627    -0.047101726872    0.000099289589    -0.000061248324    0.114079539615    -0.026651845683    0.000115788176    -0.000077396169
            0.000099289589    -0.000061248324    0.116152326988    -0.035456049992    0.000121996557    -0.000051893686    0.121295380339    -0.010494070980
            0.114079539615    -0.026651845683    0.000121996557    -0.000051893686    0.105945106448    -0.045688186658    0.000147102042    -0.000082252787
            0.000115788176    -0.000077396169    0.121295380339    -0.010494070980    0.000147102042    -0.000082252787    0.117555261021    -0.035376754732
