# GHz S RI R 45
0.000     0.027514204081    0.001874889163    0.000000319538    0.000001107026    0.000894681983    0.001603029502    0.000000311002    0.000001099592
            0.000000319538    0.000001107026    0.028259624411    0.001278896439    0.000000345223    0.000001142208    0.000894301142    0.001385613160
            0.000894681823    0.001603029478    0.000000345223    0.000001142208    0.027466476421    0.001862751288    0.000000346963    0.000001151179
            0.000000311002    0.000001099592    0.000894300520    0.001385613204    0.000000346963    0.000001151179    0.028200814650    0.001283182698
0.025     0.035573286763    0.007313900536    0.000001232665    0.000002275060    0.005051881879    0.011528268034    0.000001209940    0.000002265357
            0.000001232662    0.000002275061    0.034332600949    0.007502635302    0.000001292803    0.000002345099    0.003770703994    0.012286441569
            0.005050248835    0.011531561065    0.000001292802    0.000002345100    0.035501036820    0.007283259991    0.000001295375    0.000002367224
            0.000001209939    0.000002265357    0.003773100480    0.012286113810    0.000001295375    0.000002367223    0.034300573791    0.007600529071
0.050     0.045553461728    0.004310224534    0.000003203182    0.000003469469    0.015658756685    0.017710194821    0.000003167883    0.000003472810
            0.000003203182    0.000003469469    0.040102104333    0.007466734092    0.000003325530    0.000003566521    0.011360611374    0.021201694400
            0.015658744410    0.017710236375    0.000003325530    0.000003566521    0.045461914414    0.004258912599    0.000003343846    0.000003615003
            0.000003167884    0.000003472810    0.011360645549    0.021201702181    0.000003343846    0.000003615003    0.040142810681    0.007640796572
0.075     0.053115757277    -0.006449625078    0.000005632067    0.000003637692    0.027996953483    0.015594347980    0.000005596653    0.000003658997
            0.000005632067    0.000003637692    0.043365544409    0.003604744427    0.000005821756    0.000003731940    0.020650667439    0.024880101448
            0.027996949071    0.015594353846    0.000005821756    0.000003731940    0.053029453852    -0.006488398483    0.000005872548    0.000003797734
            0.000005596653    0.000003658997    0.020650682919    0.024880104194    0.000005872548    0.000003797734    0.043512962878    0.003805934781
0.100     0.053644307559    -0.022983910778    0.000008192137    0.000002741300    0.036666844036    0.005505609298    0.000008167315    0.000002778516
            0.000008192137    0.000002741300    0.042111752751    -0.002198739584    0.000008449178    0.000002806540    0.028334162727    0.023577947364
            0.036666844017    0.005505609426    0.000008449178    0.000002806540    0.053605636217    -0.023007990417    0.000008544143    0.000002873229
            0.000008167315    0.000002778516    0.028334162727    0.023577947364    0.000008544143    0.000002873229    0.042363777787    -0.002036758697
0.125     0.043876861041    -0.040638090819    0.000010577602    0.000000762478    0.037257432211    -0.009216339930    0.000010571012    0.000000807542
            0.000010577602    0.000000762478    0.035320269423    -0.006828630565    0.000010896274    0.000000773237    0.031898708612    0.019332065190
            0.037257432211    -0.009216339930    0.000010896274    0.000000773237    0.043930302734    -0.040691459519    0.000011039205    0.000000818015
            0.000010571012    0.000000807542    0.031898708612    0.019332065190    0.000011039205    0.000000818015    0.035632798388    -0.006758965645
0.150     0.023709742895    -0.053203730498    0.000012460487    -0.000002309636    0.027881869032    -0.023193989562    0.000012472957    -0.000002267484
            0.000012460487    -0.000002309636    0.024319254456    -0.006989171298    0.000012831435    -0.000002380389    0.030352570098    0.015291142294
            0.027881869032    -0.023193989562    0.000012831435    -0.000002380389    0.023882259090    -0.053341892907    0.000013014018    -0.000002382093
            0.000012472957    -0.000002267484    0.030352600595    0.015291128433    0.000013014018    -0.000002382093    0.024631641326    -0.007043129374
0.175     -0.003506846478    -0.054888164551    0.000013405169    -0.000006439696    0.009950091118    -0.030567338124    0.000013430847    -0.000006408896
            0.000013405169    -0.000006439696    0.011857689044    -0.000292900273    0.000013807672    -0.000006621380    0.024758178106    0.014712472074
            0.009950091118    -0.030567338124    0.000013807672    -0.000006621380    -0.003234893662    -0.055196915487    0.000014009780    -0.000006688907
            0.000013430847    -0.000006408896    0.024758195177    0.014712462923    0.000014009780    -0.000006688907    0.012089866261    -0.000462224271
0.200     -0.031323628677    -0.042308007455    0.000012850682    -0.000011378344    -0.011905421557    -0.026942551572    0.000012880661    -0.000011361316
            0.000012850682    -0.000011378344    0.001974231373    0.013880364582    0.000013248471    -0.000011696965    0.017976979211    0.019732314117
            -0.011905421557    -0.026942551572    0.000013248471    -0.000011696965    -0.031029888472    -0.042863999108    0.000013442451    -0.000011838798
            0.000012880661    -0.000011361316    0.017976979211    0.019732314117    0.000013442451    -0.000011838798    0.002055346274    0.013651773371
0.225     -0.051907238027    -0.016004677653    0.000010279518    -0.000016502313    -0.031047270476    -0.011064650314    0.000010306939    -0.000016495546
            0.000010279518    -0.000016502313    -0.001232005881    0.033704976982    0.000010619540    -0.000016970204    0.013735685103    0.030443588247
            -0.031047270476    -0.011064650314    0.000010619540    -0.000016970204    -0.051716673007    -0.016835674943    0.000010776742    -0.000017181930
            0.000010306939    -0.000016495546    0.013735685103    0.030443588247    0.000010776742    -0.000017181930    -0.001335017752    0.033511456556
0.250     -0.058447022188    0.019150152197    0.000005530934    -0.000020840848    -0.040901837201    0.014419266707    0.000005554168    -0.000020838174
            0.000005530934    -0.000020840848    0.004887592496    0.055166629437    0.000005751169    -0.000021445181    0.015262572819    0.044706349402
            -0.040901837201    0.014419266707    0.000005751169    -0.000021445181    -0.058497106167    0.018090975549    0.000005848196    -0.000021711477
            0.000005554168    -0.000020838174    0.015262572819    0.044706349402    0.000005848196    -0.000021711478    0.004624326556    0.055114950084
0.275     -0.047482611414    0.055072258876    -0.000000973239    -0.000023370177    -0.037159641639    0.043554539155    -0.000000950853    -0.000023367589
            -0.000000973239    -0.000023370177    0.020414801760    0.073199920116    -0.000000928178    -0.000024067838    0.024046947517    0.058824446861
            -0.037159641639    0.043554539155    -0.000000928178    -0.000024067838    -0.047877291716    0.053908509088    -0.000000906283    -0.000024367834
            -0.000000950853    -0.000023367589    0.024046947517    0.058824446861    -0.000000906283    -0.000024367834    0.020073643961    0.073375359505
0.300     -0.020234976426    0.082747756012    -0.000008282776    -0.000023425303    -0.019247354005    0.068842375980    -0.000008256427    -0.000023423627
            -0.000008282776    -0.000023425303    0.042650354478    0.083344712455    -0.000008444670    -0.000024150522    0.039277824688    0.068837776924
            -0.019247354005    0.068842375980    -0.000008444670    -0.000024150522    -0.021002720323    0.081653511165    -0.000008504919    -0.000024461807
            -0.000008256427    -0.000023423627    0.039277824688    0.068837776924    -0.000008504919    -0.000024461807    0.042354564820    0.083780438272
0.325     0.017608887718    0.094840095342    -0.000015267278    -0.000020958416    0.009483479444    0.083438350265    -0.000015234450    -0.000020962719
            -0.000015267278    -0.000020958416    0.066904471763    0.083160735145    -0.000015635691    -0.000021639266    0.058132635822    0.071814004307
            0.009483479444    0.083438350265    -0.000015635691    -0.000021639266    0.016535500021    0.093992269032    -0.000015779471    -0.000021940647
            -0.000015234450    -0.000020962719    0.058132635822    0.071814004307    -0.000015779471    -0.000021940647    0.066785397231    0.083820832611
0.350     0.057395199002    0.087678390792    -0.000021035032    -0.000016485825    0.042704007083    0.082979326257    -0.000020998014    -0.000016502490
            -0.000021035032    -0.000016485825    0.087884597534    0.072935480613    -0.000021581670    -0.000017062764    0.076674206346    0.066694908218
            0.042704007083    0.082979326257    -0.000021581670    -0.000017062764    0.056172711920    0.087205615693    -0.000021806615    -0.000017334092
            -0.000020998014    -0.000016502490    0.076674206346    0.066694908218    -0.000021806615    -0.000017334092    0.088044456629    0.073717440425
0.375     0.089653336750    0.062127521992    -0.000025191211    -0.000010777019    0.072671173712    0.066587280337    -0.000025156591    -0.000010810278
            -0.000025191211    -0.000010777019    0.101123178478    0.055535481396    -0.000025873957    -0.000011212953    0.090918134257    0.054527857463
            0.072671173712    0.066587280337    -0.000025873957    -0.000011212953    0.088494761301    0.062067564621    -0.000026174946    -0.000011434590
            -0.000025156591    -0.000010810278    0.090918134257    0.054527857463    -0.000026174946    -0.000011434590    0.101604041950    0.056290095107
0.400     0.106229747624    0.023419772915    -0.000027821672    -0.000004475969    0.091915129361    0.037107479561    -0.000027798415    -0.000004525860
            -0.000027821672    -0.000004475969    0.104079416910    0.035680109618    -0.000028601422    -0.000004755077    0.097821146676    0.038243698011
            0.091915129361    0.037107479561    -0.000028601422    -0.000004755077    0.105355176875    0.023696274614    -0.000028969930    -0.000004906778
            -0.000027798415    -0.000004525860    0.097821146676    0.038243698011    -0.000028969930    -0.000004906778    0.104842197572    0.036245404862
0.425     0.102081711814    -0.019816642308    -0.000029237092    0.000002169166    0.094828668654    0.000723289825    -0.000029234203    0.000002107904
            -0.000029237092    0.000002169166    0.096788756757    0.018858056196    -0.000030088319    0.000002054102    0.096087865065    0.022068073472
            0.094828668654    0.000723289825    -0.000030088319    0.000002054102    0.101658558317    -0.019393578486    -0.000030510920    0.000001993550
            -0.000029234203    0.000002107904    0.096087865065    0.022068073472    -0.000030510920    0.000001993550    0.097710628351    0.019101797761
0.450     0.076633364683    -0.057139741560    -0.000029581729    0.000009335587    0.079138616265    -0.034005544754    -0.000029604952    0.000009273181
            -0.000029581729    0.000009335587    0.082062585752    0.010063559539    -0.000030490795    0.000009400830    0.086760510515    0.010600984442
            0.079138616265    -0.034005544754    -0.000030490795    0.000009400830    0.076716243615    -0.056843665258    -0.000030946689    0.000009452470
            -0.000029604952    0.000009273181    0.086760510515    0.010600984442    -0.000030946689    0.000009452470    0.082955752837    0.009927187347
0.475     0.034488294062    -0.078481281813    -0.000028490727    0.000017340769    0.047022235843    -0.057834958380    -0.000028540278    0.000017290401
            -0.000028490727    0.000017340769    0.065113585230    0.012399673090    -0.000029440108    0.000017625055    0.073350194716    0.007511902965
            0.047022235843    -0.057834958380    -0.000029440108    0.000017625055    0.034969227130    -0.078608386840    -0.000029899000    0.000017806637
            -0.000028540278    0.000017290401    0.073350194716    0.007511902965    -0.000029899000    0.000017806637    0.065768868668    0.011932006509
0.500     -0.014921977343    -0.076814444669    -0.000025045576    0.000026090273    0.005353369090    -0.063272904971    -0.000025114342    0.000026064200
            -0.000025045576    0.000026090273    0.052411029186    0.025835009914    -0.000025987884    0.000026654943    0.061173153536    0.014117938883
            0.005353369090    -0.063272904971    -0.000025987884    0.000026654943    -0.014350887486    -0.077597108387    -0.000026409404    0.000026975261
            -0.000025114342    0.000026064200    0.061173153536    0.014117938883    -0.000026409404    0.000026975261    0.052661461649    0.025198812377
0.525     -0.059269269835    -0.050642497071    -0.000018238576    0.000034600017    -0.035687207722    -0.047174487104    -0.000018312921    0.000034605591
            -0.000018238576    0.000034600017    0.049730099914    0.046675372297    -0.000019077578    0.000035553513    0.055712100747    0.028454814265
            -0.035687207722    -0.047174487104    -0.000019077578    0.000035553513    -0.059301556340    -0.052206810685    -0.000019414296    0.000036006443
            -0.000018312921    0.000034605591    0.055712100747    0.028454814265    -0.000019414296    0.000036006443    0.049515287366    0.046114262367
0.550     -0.086749856925    -0.005192363753    -0.000007816148    0.000041044707    -0.064182995046    -0.013116645319    -0.000007879683    0.000041081116
            -0.000007816148    0.000041044707    0.060005443139    0.068405125534    -0.000008784534    0.000042098009    0.060531534737    0.045623725579
            -0.064182995046    -0.013116645319    -0.000008784534    0.000042098009    -0.086001448454    -0.008728399123    -0.000008989288    0.000042656785
            -0.000007879683    0.000041081116    0.060531534737    0.045623725579    -0.000008989288    0.000042656785    0.059407264437    0.068172322203
0.575     -0.089728595506    0.048887391606    0.000005196544    0.000043494597    -0.073809105237    0.032879652680    0.000005157644    0.000043551886
            0.000005196544    0.000043494597    0.082069921075    0.083848414365    0.000004740129    0.000044804141    0.075812820229    0.059503751692
            -0.073809105237    0.032879652680    0.000004740129    0.000044804141    -0.090216574685    0.045844205137    0.000004704062    0.000045424692
            0.000005157644    0.000043551886    0.075812820229    0.059503751692    0.000004704062    0.000045424692    0.081299335285    0.084125552596
0.600     -0.067105827559    0.098399655056    0.000018638271    0.000040923426    -0.061162670670    0.078104493695    0.000018629753    0.000040985265
            0.000018638271    0.000040923426    0.111089254414    0.087674022123    0.000018634750    0.000042422978    0.098399663227    0.064985289502
            -0.061162670670    0.078104493695    0.000018634750    0.000042422978    -0.069015796974    0.095653838639    0.000018784098    0.000043046808
            0.000018629753    0.000040985265    0.098399663227    0.064985289502    0.000018784098    0.000043046808    0.110426510688    0.088511170456
0.625     -0.025257348394    0.131858563679    0.000030166719    0.000033886712    -0.029805216449    0.112705145743    0.000030183727    0.000033937874
            0.000030166719    0.000033886712    0.140358963908    0.077962959034    0.000030706155    0.000035295507    0.123126909375    0.059496737228
            -0.029805216449    0.112705145743    0.000030706156    0.000035295508    -0.027747732658    0.130158063925    0.000031034531    0.000035861747
            0.000030183727    0.000033937874    0.123126920455    0.059496737281    0.000031034531    0.000035861747    0.140075757256    0.079262569177
0.650     0.026758565983    0.143361950632    0.000038426177    0.000023744930    0.013579255314    0.130013822818    0.000038458157    0.000023774622
            0.000038426176    0.000023744931    0.163420337524    0.056347985259    0.000039317303    0.000024908206    0.144526881275    0.043345102953
            0.013579255314    0.130013822818    0.000039317303    0.000024908206    0.023977605928    0.142338070030    0.000039796140    0.000025364117
            0.000038458157    0.000023774622    0.144526881275    0.043345102953    0.000039796140    0.000025364117    0.163709675227    0.057891353035
0.675     0.077843449480    0.130576663097    0.000042800359    0.000012286471    0.059932442436    0.126530266676    0.000042830635    0.000012291864
            0.000042800359    0.000012286471    0.175570339839    0.027133173733    0.000043940252    0.000013156574    0.158078938397    0.019200669147
            0.059932442436    0.126530266676    0.000043940252    0.000013156574    0.074970877767    0.130407682372    0.000044525920    0.000013465338
            0.000042830635    0.000012291864    0.158078938397    0.019200669147    0.000044525920    0.000013465338    0.176501579695    0.028630227352
0.700     0.117400951260    0.096756479057    0.000043752866    0.000001089763    0.099944520508    0.103170942564    0.000043766160    0.000001079276
            0.000043752866    0.000001089763    0.174605986276    -0.003899281057    0.000045038874    0.000001644569    0.160919096887    -0.008646384473
            0.099944520508    0.103170942564    0.000045038874    0.000001644569    0.114836063018    0.097448624798    0.000045682165    0.000001788931
            0.000043766160    0.000001079276    0.160919096887    -0.008646384473    0.000045682165    0.000001788931    0.176104958179    -0.002748818691
0.725     0.137434470064    0.049070392170    0.000042311810    -0.000008994050    0.125551249588    0.064433303754    0.000042300832    -0.000009002916
            0.000042311810    -0.000008994050    0.161034677008    -0.030589980988    0.000043661813    -0.000008738271    0.152231251186    -0.034987523122
            0.125551249588    0.064433303754    0.000043661813    -0.000008738271    0.135558987127    0.050418020998    0.000044316519    -0.000008757514
            0.000042300832    -0.000009002916    0.152231251186    -0.034987523122    0.000044316519    -0.000008757514    0.162887027000    -0.030032064997
0.750     0.133547509507    -0.002618100112    0.000039538655    -0.000017967368    0.130998773253    0.017877103858    0.000039509755    -0.000017953914
            0.000039538655    -0.000017967368    0.138078526281    -0.047416980762    0.000040909823    -0.000017979332    0.133620449673    -0.054445591699
            0.130998773253    0.017877103858    0.000040909823    -0.000017979332    0.132624408385    -0.000993563249    0.000041540494    -0.000018149508
            0.000039509755    -0.000017953914    0.133620449673    -0.054445591699    0.000041540494    -0.000018149508    0.139958657542    -0.047576040085
0.775     0.105847452627    -0.047101726872    0.000035962345    -0.000026542605    0.114079539615    -0.026651845683    0.000035937331    -0.000026493231
            0.000035962345    -0.000026542605    0.111459365090    -0.050630903303    0.000037347623    -0.000026810645    0.109338636557    -0.062577450329
            0.114079539615    -0.026651845683    0.000037347623    -0.000026810645    0.105945106448    -0.045688186658    0.000037931957    -0.000027116612
            0.000035937331    -0.000026493231    0.109338636557    -0.062577450329    0.000037931957    -0.000027116612    0.112992299636    -0.051455863011
