# GHz S RI R 45
0.000     0.027514204081    0.001874889163    -0.000002102218    -0.000004625949    0.000894681983    0.001603029502    -0.000003020309    -0.000006715489
            -0.000002102219    -0.000004625949    0.027761359177    0.001290311688    -0.000001432332    -0.000003047519    0.000925888048    0.001387355818
            0.000894681823    0.001603029478    -0.000001432332    -0.000003047519    0.027466476421    0.001862751288    -0.000002151639    -0.000004698895
            -0.000003020304    -0.000006715489    0.000925887744    0.001387355781    -0.000002151638    -0.000004698895    0.027705082133    0.001300316097
0.025     0.035573286763    0.007313900536    -0.000006130621    -0.000009279988    0.005051881879    0.011528268034    -0.000008787871    -0.000013524046
            -0.000006130538    -0.000009280025    0.033469064350    0.007237383145    -0.000004122707    -0.000006093461    0.003474718918    0.011799623443
            0.005050248835    0.011531561065    -0.000004122765    -0.000006093436    0.035501036820    0.007283259991    -0.000006219843    -0.000009450884
            -0.000008787868    -0.000013524041    0.003477076976    0.011798023884    -0.000006219841    -0.000009450887    0.033416247447    0.007304237965
0.050     0.045553461728    0.004310224534    -0.000014502752    -0.000013669895    0.015658756685    0.017710194821    -0.000020847965    -0.000020142887
            -0.000014502752    -0.000013669895    0.038687381107    0.007605386162    -0.000009697766    -0.000008901216    0.010365306072    0.020722871723
            0.015658744410    0.017710236375    -0.000009697766    -0.000008901217    0.045461914414    0.004258912599    -0.000014726895    -0.000014020547
            -0.000020847965    -0.000020142887    0.010365438638    0.020722930644    -0.000014726895    -0.000014020547    0.038659408653    0.007738294652
0.075     0.053115757277    -0.006449625078    -0.000024424984    -0.000013566126    0.027996953483    0.015594347980    -0.000035387103    -0.000020372936
            -0.000024424984    -0.000013566126    0.041698014300    0.004642494777    -0.000016260955    -0.000008677998    0.019032232197    0.025045796993
            0.027996949071    0.015594353846    -0.000016260955    -0.000008677998    0.053029453852    -0.006488398483    -0.000024965430    -0.000014041796
            -0.000035387104    -0.000020372936    0.019032230683    0.025045803167    -0.000024965430    -0.000014041796    0.041716795941    0.004831230029
0.100     0.053644307559    -0.022983910778    -0.000034457538    -0.000009060563    0.036666844036    0.005505609298    -0.000050380162    -0.000014089135
            -0.000034457538    -0.000009060563    0.040822372143    -0.000008365665    -0.000022825482    -0.000005507582    0.026619844085    0.024866982890
            0.036666844017    0.005505609426    -0.000022825482    -0.000005507582    0.053605636217    -0.023007990417    -0.000035471053    -0.000009420062
            -0.000050380162    -0.000014089135    0.026619822593    0.024866989783    -0.000035471054    -0.000009420062    0.040901710152    0.000215147971
0.125     0.043876861041    -0.040638090819    -0.000043335137    -0.000000291937    0.037257432211    -0.009216339930    -0.000063797437    -0.000001286127
            -0.000043335137    -0.000000291937    0.035180945918    -0.003681007958    -0.000028535113    0.000000493215    0.030896913368    0.021795129304
            0.037257432211    -0.009216339930    -0.000028535113    0.000000493215    0.043930302734    -0.040691459519    -0.000044766175    -0.000000159827
            -0.000063797437    -0.000001286127    0.030896913368    0.021795129304    -0.000044766175    -0.000000159827    0.035330716255    -0.003456479461
0.150     0.023709742895    -0.053203730498    -0.000049853946    0.000012567753    0.027881869032    -0.023193989562    -0.000073579082    0.000017741057
            -0.000049853946    0.000012567753    0.025952443890    -0.003615493826    -0.000032576458    0.000009183424    0.030832202764    0.018420113135
            0.027881869032    -0.023193989562    -0.000032576458    0.000009183424    0.023882259090    -0.053341892907    -0.000051342811    0.000013491422
            -0.000073579082    0.000017741057    0.030832202764    0.018420113135    -0.000051342811    0.000013491422    0.026148285428    -0.003415144789
0.175     -0.003506846478    -0.054888164551    -0.000052408752    0.000029279471    0.009950091118    -0.030567338124    -0.000077257001    0.000042320618
            -0.000052408752    0.000029279471    0.015366757149    0.002221313061    -0.000033857399    0.000020368341    0.027088398014    0.017531649978
            0.009950091118    -0.030567338124    -0.000033857399    0.000020368341    -0.003234893662    -0.055196915487    -0.000053413029    0.000030972714
            -0.000077257001    0.000042320618    0.027088398014    0.017531649978    -0.000053413029    0.000030972714    0.015582197412    0.002384689653
0.200     -0.031323628677    -0.042308007455    -0.000048902608    0.000048821183    -0.011905421557    -0.026942551572    -0.000072019954    0.000070629831
            -0.000048902608    0.000048821183    0.006767615599    0.014453947768    -0.000030966360    0.000033286844    0.021865993320    0.021110148654
            -0.011905421557    -0.026942551572    -0.000030966360    0.000033286844    -0.031029888472    -0.042863999108    -0.000048996603    0.000050860787
            -0.000072019954    0.000070629831    0.021865993320    0.021110148654    -0.000048996604    0.000050860788    0.006972557324    0.014581794428
0.225     -0.051907238027    -0.016004677653    -0.000037356883    0.000068719765    -0.031047270476    -0.011064650314    -0.000055493359    0.000099083463
            -0.000037356883    0.000068719765    0.003630759874    0.031706421606    -0.000022628222    0.000046168673    0.018206208657    0.029537634407
            -0.031047270476    -0.011064650314    -0.000022628222    0.000046168673    -0.051716673007    -0.016835674943    -0.000036525019    0.000070466826
            -0.000055493359    0.000099083463    0.018206208657    0.029537634407    -0.000036525019    0.000070466825    0.003797731608    0.031817654327
0.250     -0.058447022188    0.019150152197    -0.000017179844    0.000085093606    -0.040901837201    0.014419266707    -0.000027187490    0.000122537978
            -0.000017179829    0.000085093609    0.008336936145    0.050757469886    -0.000008601062    0.000056318355    0.018924717114    0.041360727041
            -0.040901837201    0.014419266707    -0.000008601063    0.000056318355    -0.058497106167    0.018090975549    -0.000015877870    0.000086074373
            -0.000027187490    0.000122537978    0.018924717114    0.041360727041    -0.000015877870    0.000086074372    0.008451201536    0.050886362340
0.275     -0.047482611414    0.055072258876    0.000009878073    0.000093779642    -0.037159641639    0.043554539155    0.000010520411    0.000135685440
            0.000009878073    0.000093779642    0.021222406573    0.067394441850    0.000009703545    0.000060967350    0.025578264355    0.053722589601
            -0.037159641639    0.043554539155    0.000009703545    0.000060967350    -0.047877291716    0.053908509088    0.000010979162    0.000094012287
            0.000010520411    0.000135685440    0.025578264355    0.053722589601    0.000010979162    0.000094012287    0.021290591693    0.067582504906
0.300     -0.020234976426    0.082747756012    0.000039846685    0.000092035942    -0.019247354005    0.068842375980    0.000052626490    0.000135005588
            0.000039846685    0.000092035942    0.040306467297    0.077735990992    0.000029417283    0.000058473852    0.037902268955    0.063333139446
            -0.019247354005    0.068842375980    0.000029417283    0.000058473852    -0.021002720323    0.081653511165    0.000040318162    0.000092060294
            0.000052626490    0.000135005588    0.037902268955    0.063333139446    0.000040318162    0.000092060294    0.040359840838    0.078018520031
0.325     0.017608887718    0.094840095342    0.000067908800    0.000079663914    0.009483479444    0.083438350265    0.000093132888    0.000119994822
            0.000067908800    0.000079663914    0.061831004528    0.079431660254    0.000047267837    0.000049011369    0.053905206388    0.067526028352
            0.009483479444    0.083438350265    0.000047267837    0.000049011369    0.016535500021    0.093992269032    0.000067913472    0.000080206122
            0.000093132888    0.000119994822    0.053905206388    0.067526028352    0.000067913472    0.000080206122    0.061918882254    0.079824185535
0.350     0.057395199002    0.087678390792    0.000090151129    0.000058914663    0.042704007083    0.082979326257    0.000127022534    0.000093013909
            0.000090151129    0.000058914663    0.081345823224    0.072356402796    0.000060785494    0.000034358750    0.070500631661    0.065040087256
            0.042704007083    0.082979326257    0.000060785494    0.000034358750    0.056172711920    0.087205615693    0.000090441378    0.000060367776
            0.000127022534    0.000093013909    0.070500631661    0.065040087256    0.000090441378    0.000060367776    0.081524545625    0.072845457144
0.375     0.089653336750    0.062127521992    0.000104706381    0.000033268007    0.072671173712    0.066587280337    0.000151522259    0.000057894071
            0.000104706381    0.000033268007    0.094913787469    0.058595441204    0.000068982497    0.000016950918    0.084356490056    0.056321691851
            0.072671173712    0.066587280337    0.000068982497    0.000016950918    0.088494761301    0.062067564621    0.000106229879    0.000035288262
            0.000151522259    0.000057894071    0.084356490056    0.056321691851    0.000106229879    0.000035288262    0.095228909383    0.059136892455
0.400     0.106229747624    0.023419772915    0.000111837768    0.000005889424    0.091915129361    0.037107479561    0.000166139005    0.000018262537
            0.000111837768    0.000005889424    0.100093140493    0.041904916770    0.000072258387    -0.000001160733    0.092736103362    0.043430770685
            0.091915129361    0.037107479561    0.000072258387    -0.000001160733    0.105355176875    0.023696274614    0.000115120044    0.000007382560
            0.000166139005    0.000018262537    0.092736103362    0.043430770685    0.000115120044    0.000007382561    0.100563725815    0.042431786813
0.425     0.102081711814    -0.019816642308    0.000113005152    -0.000021556900    0.094828668654    0.000723289825    0.000171627132    -0.000023686092
            0.000113005152    -0.000021556900    0.096539770409    0.026820051329    0.000071675882    -0.000019011599    0.094198371033    0.029606722611
            0.094828668654    0.000723289825    0.000071675882    -0.000019011599    0.101658558317    -0.019393578486    0.000117631101    -0.000021984123
            0.000171627132    -0.000023686092    0.094198371033    0.029606722611    0.000117631101    -0.000021984123    0.097146860101    0.027258339504
0.450     0.076633364683    -0.057139741560    0.000109386298    -0.000049179906    0.079138616265    -0.034005544754    0.000168442672    -0.000067365166
            0.000109386298    -0.000049179906    0.086203133798    0.017609860799    0.000067973074    -0.000036776815    0.089112168517    0.018566687240
            0.079138616265    -0.034005544754    0.000067973074    -0.000036776815    0.076716243615    -0.056843665258    0.000113917065    -0.000052448128
            0.000168442672    -0.000067365166    0.089112168517    0.018566687240    0.000113917065    -0.000052448128    0.086887874983    0.017900604136
0.475     0.034488294062    -0.078481281813    0.000100430274    -0.000077971568    0.047022235843    -0.057834958380    0.000155337364    -0.000112756257
            0.000100430274    -0.000077971568    0.073048474149    0.017155343567    0.000060662529    -0.000055092394    0.079821195000    0.013514647913
            0.047022235843    -0.057834958380    0.000060662529    -0.000055092394    0.034969227130    -0.078608386840    0.000102914634    -0.000083825535
            0.000155337364    -0.000112756257    0.079821195000    0.013514647913    0.000102914635    -0.000083825533    0.073725491162    0.017276556361
0.500     -0.014921977343    -0.076814444669    0.000083525260    -0.000107937894    0.005353369090    -0.063272904971    0.000129263238    -0.000158455175
            0.000083525260    -0.000107937894    0.062212683921    0.025967798653    0.000047937708    -0.000073801040    0.070249550027    0.016050521615
            0.005353369090    -0.063272904971    0.000047937708    -0.000073801040    -0.014350887486    -0.077597108387    0.000082461536    -0.000114805275
            0.000129263238    -0.000158455175    0.070249550027    0.016050521615    0.000082461538    -0.000114805273    0.062802241453    0.025942711855
0.525     -0.059269269835    -0.050642497071    0.000055443955    -0.000136113657    -0.035687207722    -0.047174487104    0.000087123577    -0.000199754936
            0.000055443955    -0.000136113657    0.058520426384    0.041722677217    0.000027778751    -0.000090827178    0.064763342167    0.025369972359
            -0.035687207722    -0.047174487104    0.000027778751    -0.000090827178    -0.059301556340    -0.052206810685    0.000050681290    -0.000141949334
            0.000087123577    -0.000199754936    0.064763342167    0.025369972359    0.000050681290    -0.000141949334    0.059048968229    0.041576943911
0.550     -0.086749856925    -0.005192363753    0.000015159461    -0.000156163739    -0.064182995046    -0.013116645319    0.000028816463    -0.000228753807
            0.000015159461    -0.000156163739    0.065163171342    0.058812867999    0.000001505290    -0.000100570865    0.066812216244    0.037746383534
            -0.064182995046    -0.013116645319    0.000001505290    -0.000100570865    -0.086001448454    -0.008728399123    0.000010392758    -0.000157732429
            0.000028816463    -0.000228753807    0.066812216244    0.037746383534    0.000010392758    -0.000157732429    0.065498360215    0.059387878412
0.575     -0.089728595506    0.048887391606    -0.000034026545    -0.000161636697    -0.073809105237    0.032879652680    -0.000040730504    -0.000237388619
            -0.000034026545    -0.000161636697    0.082077795378    0.073040585173    -0.000031485019    -0.000100507976    0.077456661471    0.049459904835
            -0.073809105237    0.032879652680    -0.000031485019    -0.000100507976    -0.090216574685    0.045844205137    -0.000039134657    -0.000159335107
            -0.000040730504    -0.000237388619    0.077456661471    0.049459904835    -0.000039134657    -0.000159335107    0.082216815715    0.073528595320
0.600     -0.067105827559    0.098399655056    -0.000084249993    -0.000148299877    -0.061162670670    0.078104493695    -0.000111669617    -0.000221116595
            -0.000084249993    -0.000148299877    0.105796823005    0.078407372096    -0.000062836404    -0.000088155829    0.094796389331    0.055376567750
            -0.061162670670    0.078104493695    -0.000062836404    -0.000088155829    -0.069015796974    0.095653838639    -0.000086644624    -0.000143834761
            -0.000111669617    -0.000221116595    0.094796389331    0.055376567750    -0.000086644624    -0.000143834761    0.106015338139    0.078993633934
0.625     -0.025257348394    0.131858563679    -0.000126828708    -0.000117760142    -0.029805216449    0.112705145743    -0.000173309904    -0.000182138150
            -0.000126828708    -0.000117760142    0.131307072722    0.072672638982    -0.000087519994    -0.000065196028    0.115117875865    0.052944512113
            -0.029805216449    0.112705145743    -0.000087519994    -0.000065196028    -0.027747732658    0.130158063925    -0.000125860888    -0.000113374785
            -0.000173309904    -0.000182138150    0.115117875865    0.052944512113    -0.000125860888    -0.000113374785    0.131499196434    0.073478134751
0.650     0.026758565983    0.143361950632    -0.000155828139    -0.000075055054    0.013579255314    0.130013822818    -0.000218632925    -0.000126196083
            -0.000155828139    -0.000075055054    0.153077734848    0.056318955449    -0.000102101591    -0.000035964640    0.134271636842    0.041602877480
            0.013579255314    0.130013822818    -0.000102101591    -0.000035964640    0.023977605928    0.142338070030    -0.000152378974    -0.000073130436
            -0.000218632925    -0.000126196083    0.134271636842    0.041602877480    -0.000152378974    -0.000073130436    0.153582263569    0.057408197299
0.675     0.077843449480    0.130576663097    -0.000168441684    -0.000027455195    0.059932442436    0.126530266676    -0.000243691470    -0.000061578801
            -0.000168441684    -0.000027455195    0.166644996188    0.032340477773    -0.000105991620    -0.000005450096    0.148132355287    0.022770981956
            0.059932442436    0.126530266676    -0.000105991620    -0.000005450096    0.074970877767    0.130407682372    -0.000165022608    -0.000029052771
            -0.000243691470    -0.000061578801    0.148132355287    0.022770981956    -0.000165022608    -0.000029052771    0.167593337814    0.033490509744
0.700     0.117400951260    0.096756479057    -0.000166108659    0.000018274744    0.099944520508    0.103170942564    -0.000249373897    0.000003856182
            -0.000166108659    0.000018274744    0.169490940990    0.005305547338    -0.000100962159    0.000022421543    0.153812909945    -0.000418764897
            0.099944520508    0.103170942564    -0.000100962159    0.000022421543    0.114836063018    0.097448624798    -0.000165322419    0.000014131625
            -0.000249373897    0.000003856182    0.153812909945    -0.000418764897    -0.000165322419    0.000014131625    0.170888026230    0.006298222578
0.725     0.137434470064    0.049070392170    -0.000152834360    0.000057828032    0.125551249588    0.064433303754    -0.000239294964    0.000064912492
            -0.000152834360    0.000057828032    0.161375819253    -0.019616109812    -0.000089936003    0.000045579208    0.150045859713    -0.023877113033
            0.125551249588    0.064433303754    -0.000089936003    0.000045579208    0.135558987127    0.050418020998    -0.000156010957    0.000053746903
            -0.000239294964    0.000064912492    0.150045859713    -0.023877113033    -0.000156010957    0.000053746903    0.163127409740    -0.018984354200
0.750     0.133547509507    -0.002618100112    -0.000133380120    0.000090101911    0.130998773253    0.017877103858    -0.000217770362    0.000119591119
            -0.000133380120    0.000090101911    0.144384831256    -0.037582681749    -0.000075839056    0.000063920372    0.137493579747    -0.043181745738
            0.130998773253    0.017877103858    -0.000075839056    0.000063920372    0.132624408385    -0.000993563249    -0.000139695351    0.000089123145
            -0.000217770362    0.000119591119    0.137493579747    -0.043181745738    -0.000139695351    0.000089123145    0.146302203366    -0.037458760693
0.775     0.105847452627    -0.047101726872    -0.000111186983    0.000116971980    0.114079539615    -0.026651845683    -0.000187725907    0.000168668149
            -0.000111186983    0.000116971980    0.122731293416    -0.045020319215    -0.000060484046    0.000078920270    0.118926414816    -0.054412467708
            0.114079539615    -0.026651845683    -0.000060484046    0.000078920270    0.105945106448    -0.045688186658    -0.000117738841    0.000120960549
            -0.000187725907    0.000168668149    0.118926414816    -0.054412467708    -0.000117738841    0.000120960549    0.124556891487    -0.045449383430
