!$
! Info: Touchstone file created by Circ.  Input file=Intel_C2M_200G_13p5in_202208016_staggered.circ
!$
# Hz S RI R 50
0	0.03208111	6.543159e-24	0.9677215	-1.105145e-23	0.0001667949	3.839927e-22	-0.0002959967	3.624915e-20
	0.9677215	-1.104695e-23	0.03263032	1.15279e-23	-0.0002960532	3.625606e-20	0.0003872838	1.229482e-21
	0.0001668509	3.841169e-22	-0.0002961874	3.627249e-20	0.03207912	6.182997e-24	0.9677217	-1.132413e-23
	-0.0002961309	3.626558e-20	0.0003873482	1.23035e-21	0.9677217	-1.132865e-23	0.03263174	1.183583e-23
1e+07	0.03858324	-0.009402241	0.9432157	-0.1789863	0.003392707	0.009241697	-0.001398308	4.258565e-05
	0.9432157	-0.1789863	0.03811162	-0.008757738	-0.001398352	4.277369e-05	0.003042124	0.009361559
	0.003392707	0.009241697	-0.001398352	4.277369e-05	0.03832859	-0.009361293	0.9434789	-0.1790031
	-0.001398308	4.258565e-05	0.003042124	0.009361559	0.9434789	-0.1790031	0.03785516	-0.008714085
2e+07	0.03980129	-0.02567683	0.8885923	-0.3437067	0.00870413	0.01619312	-0.001121998	0.0007000171
	0.8885923	-0.3437067	0.03819195	-0.02379185	-0.001121861	0.0007002924	0.007410944	0.0168973
	0.008704134	0.01619311	-0.001121881	0.0007001857	0.03962532	-0.02551292	0.8887986	-0.3438357
	-0.001122016	0.0006999163	0.007411027	0.01689719	0.8887986	-0.3438357	0.03800514	-0.02361643
3e+07	0.03406894	-0.04328924	0.808206	-0.4929498	0.0162198	0.02071618	-0.0004350754	0.0009502866
	0.808206	-0.4929498	0.03046227	-0.03935453	-0.0004349215	0.0009508554	0.01373915	0.02251215
	0.0162198	0.02071623	-0.0004349592	0.0009508698	0.03396623	-0.04306953	0.8083588	-0.4931315
	-0.0004350873	0.0009502863	0.01373913	0.02251212	0.8083588	-0.4931315	0.03035253	-0.03912206
4e+07	0.02257576	-0.0586943	0.7043631	-0.6241022	0.02486556	0.0220171	0.0003510022	0.0006523157
	0.7043631	-0.6241022	0.01714701	-0.05128102	0.0003513723	0.0006533537	0.02115737	0.02575723
	0.02486557	0.02201712	0.0003513705	0.0006533589	0.02254718	-0.05845655	0.7044603	-0.6243189
	0.000351007	0.000652328	0.02115737	0.02575724	0.7044603	-0.6243189	0.01710767	-0.05102192
5e+07	0.006918656	-0.07003726	0.5805544	-0.7338511	0.03338158	0.01996223	0.0008935367	-0.0001747291
	0.5805544	-0.7338511	0.0003560643	-0.05788863	0.0008943604	-0.0001732046	0.02880551	0.02645466
	0.03338159	0.01996223	0.0008943628	-0.0001732069	0.006953834	-0.06980864	0.5805926	-0.7340901
	0.000893539	-0.0001747318	0.02880552	0.02645467	0.5805926	-0.7340901	0.0003777836	-0.05762489
6e+07	-0.01116866	-0.07630507	0.4409263	-0.8194607	0.04056011	0.01483877	0.0009092459	-0.001341316
	0.4409263	-0.8194607	-0.01764324	-0.0583739	0.0009108697	-0.001339298	0.03581715	0.02477046
	0.0405601	0.01483875	0.0009108695	-0.0013393	-0.01108599	-0.07610551	0.440902	-0.8197088
	0.0009092463	-0.001341318	0.03581715	0.02477046	0.440902	-0.8197088	-0.01757389	-0.05812053
7e+07	-0.02987724	-0.07712123	0.29	-0.8789837	0.04538639	0.007342638	0.0002500653	-0.002534042
	0.29	-0.8789837	-0.03458258	-0.05280912	0.0002529046	-0.002531887	0.04146915	0.02115117
	0.04538639	0.007342636	0.0002529091	-0.002531954	-0.02976769	-0.07696367	0.2899105	-0.8792248
	0.0002500659	-0.002534045	0.04146915	0.02115117	0.2899105	-0.8792248	-0.0344816	-0.05257393
8e+07	-0.04747068	-0.07271198	0.1324531	-0.9112975	0.04716801	-0.001530196	-0.001054639	-0.003401964
	0.1324531	-0.9112975	-0.04846767	-0.04203384	-0.001050346	-0.003400263	0.04525837	0.01623956
	0.04716802	-0.001530194	-0.001050345	-0.003400261	-0.0473572	-0.0726019	0.1323009	-0.9115161
	-0.001054639	-0.003401962	0.04525837	0.01623956	0.1323009	-0.9115161	-0.04835144	-0.04181785
9e+07	-0.06245118	-0.06381727	-0.02705681	-0.9160675	0.0456053	-0.01062127	-0.002806807	-0.003648461
	-0.02705681	-0.9160675	-0.05777791	-0.02747173	-0.002801002	-0.003647932	0.04694048	0.01077982
	0.04560531	-0.01062127	-0.002800995	-0.003647928	-0.06235735	-0.06375159	-0.02726508	-0.9162454
	-0.002806801	-0.003648455	0.04694048	0.01077982	-0.02726508	-0.9162454	-0.05766003	-0.02726859
1e+08	-0.07362565	-0.05155164	-0.1841192	-0.8936547	0.04080671	-0.01875457	-0.004692196	-0.003100298
	-0.1841192	-0.8936547	-0.06153547	-0.01092627	-0.00468511	-0.00310161	0.04653198	0.005519828
	0.04080671	-0.01875457	-0.004685111	-0.003101611	-0.07357339	-0.05151931	-0.1843689	-0.8937788
	-0.004692196	-0.003100299	0.04653198	0.005519828	-0.1843689	-0.8937788	-0.0614261	-0.01072482
1.1e+08	-0.0804857	-0.03755276	-0.3339074	-0.8445645	0.0332451	-0.02484162	-0.006326121	-0.00174927
	-0.3339074	-0.8445645	-0.05972269	0.005386721	-0.006318	-0.001755119	0.04425496	0.001166108
	0.0332451	-0.02484162	-0.006318001	-0.001755119	-0.08053621	-0.037563	-0.3341868	-0.8446282
	-0.006326121	-0.001749271	0.04425496	0.001166109	-0.3341868	-0.8446282	-0.05962346	0.005618915
1.2e+08	-0.08291648	-0.02290154	-0.4720857	-0.7712769	0.02381994	-0.02801193	-0.007405746	0.0002150471
	-0.4720857	-0.7712769	-0.05284978	0.02004454	-0.00739952	0.0002056797	0.04060711	-0.001709796
	0.02381993	-0.02801193	-0.007399521	0.0002056792	-0.08305196	-0.0228717	-0.4723782	-0.7712744
	-0.007405747	0.0002150467	0.04060711	-0.001709796	-0.4723782	-0.7712744	-0.05274841	0.02030824
1.3e+08	-0.08100964	-0.008962142	-0.5951252	-0.6761552	0.01359912	-0.02778132	-0.007727693	0.002523746
	-0.5951252	-0.6761552	-0.04173133	0.03148709	-0.007724581	0.002512109	0.03619664	-0.002755983
	0.01359912	-0.02778132	-0.007724582	0.002512109	-0.08119471	-0.008868775	-0.5954163	-0.676088
	-0.007727693	0.002523745	0.03619664	-0.002755982	-0.5954163	-0.676088	-0.04161925	0.03178567
1.4e+08	-0.0753228	0.003060309	-0.6997702	-0.5620621	0.003761927	-0.0240257	-0.007228737	0.004846697
	-0.6997702	-0.5620621	-0.027715	0.03856247	-0.007229138	0.004833974	0.03170458	-0.001828385
	0.003761928	-0.0240257	-0.007229139	0.004833974	-0.07553807	0.003219826	-0.7000445	-0.5619319
	-0.007228737	0.004846697	0.03170458	-0.001828384	-0.7000445	-0.5619319	-0.02758146	0.03889919
1.5e+08	-0.06673428	0.01223107	-0.7832087	-0.4323279	-0.004519527	-0.01700838	-0.005994362	0.006869762
	-0.7832087	-0.4323279	-0.01244591	0.04065412	-0.005998867	0.006857017	0.02782145	0.0009907682
	-0.004519526	-0.01700838	-0.005998867	0.006857018	-0.06696977	0.01246045	-0.783453	-0.4321413
	-0.005994363	0.006869762	0.02782145	0.0009907687	-0.783453	-0.4321413	-0.0122777	0.04102971
1.6e+08	-0.05633046	0.01796025	-0.8431552	-0.2907114	-0.01020266	-0.007367283	-0.004230731	0.00836055
	-0.8431552	-0.2907114	0.002337952	0.03774225	-0.004239529	0.008349319	0.02517725	0.005397607
	-0.01020266	-0.007367282	-0.004239529	0.008349319	-0.05657598	0.0182677	-0.8433599	-0.2904762
	-0.004230732	0.00836055	0.02517725	0.005397607	-0.8433599	-0.2904762	0.002555571	0.03815297
1.7e+08	-0.04528033	0.02003964	-0.8779448	-0.1413358	-0.01249165	0.003936812	-0.002209098	0.00921173
	-0.8779448	-0.1413358	0.0150158	0.03039673	-0.002221541	0.0092038	0.02427076	0.01089117
	-0.01249165	0.003936813	-0.002221542	0.0092038	-0.0455194	0.02043417	-0.8781019	-0.1410617
	-0.002209099	0.00921173	0.02427076	0.01089117	-0.8781019	-0.1410617	0.01529696	0.03083305
1.8e+08	-0.03470519	0.01863589	-0.8866157	0.01140471	-0.01093734	0.01570968	-0.0001972454	0.009451575
	-0.8866157	0.01140471	0.024279	0.01969821	-0.0002118903	0.009448481	0.0254075	0.01682417
	-0.01093734	0.01570968	-0.0002118905	0.009448481	-0.0349144	0.0191218	-0.8867201	0.01170705
	-0.0001972456	0.009451576	0.0254075	0.01682417	-0.8867201	0.01170705	0.02463421	0.02014507
1.9e+08	-0.02556208	0.01423943	-0.8689797	0.1629678	-0.005506449	0.02664639	0.001604536	0.009219524
	-0.8689797	0.1629678	0.02928584	0.00709549	0.001589907	0.009222043	0.02865468	0.02247606
	-0.005506449	0.02664639	0.001589907	0.009222044	-0.02571366	0.01481172	-0.8690308	0.163288
	0.001604536	0.009219524	0.02865468	0.02247607	-0.8690308	0.163288	0.02972072	0.007534067
2e+08	-0.01855453	0.007575655	-0.8256648	0.3088196	0.003394169	0.03547619	0.003105186	0.008713807
	-0.8256648	0.3088196	0.02975963	-0.005782587	0.003093003	0.008721794	0.03382521	0.02714119
	0.00339417	0.03547619	0.003093003	0.008721794	-0.01862205	0.008218634	-0.8256597	0.3091506
	0.003105186	0.008713807	0.03382521	0.02714119	-0.8256597	0.3091506	0.03027192	-0.005373018
2.1e+08	-0.01408783	-0.0005047822	-0.7581118	0.4446041	0.01494479	0.0411121	0.004332506	0.008126803
	-0.7581118	0.4446041	0.02600698	-0.01733699	0.004325207	0.008138599	0.04049811	0.03022106
	0.01494479	0.0411121	0.004325206	0.008138599	-0.01404935	0.0001823246	-0.7580502	0.444938
	0.004332506	0.008126803	0.04049811	0.03022106	-0.7580502	0.444938	0.02658835	-0.01697612
2.2e+08	-0.01226505	-0.009138708	-0.668524	0.5663058	0.02799282	0.04278456	0.005408653	0.007584136
	-0.668524	0.5663058	0.01886602	-0.02620054	0.005407466	0.007597248	0.04807179	0.03130185
	0.02799282	0.04278456	0.005407466	0.007597248	-0.01210883	-0.008442366	-0.6684043	0.5666358
	0.005408653	0.007584136	0.04807179	0.03130185	-0.6684043	0.5666358	0.01950073	-0.02590421
2.3e+08	-0.01292698	-0.01754855	-0.5597773	0.6703953	0.04117629	0.04014055	0.006497801	0.007107946
	-0.5597773	0.6703953	0.009582313	-0.03140344	0.006502918	0.007119237	0.05584487	0.03020534
	0.04117629	0.04014055	0.006502918	0.007119237	-0.01265369	-0.01688133	-0.5595968	0.6707144
	0.006497801	0.007107946	0.05584487	0.03020534	-0.5595968	0.6707144	0.01024978	-0.03118126
2.4e+08	-0.0157184	-0.0251112	-0.4352978	0.7539474	0.05307433	0.03329306	0.007744536	0.006610299
	-0.4352978	0.7539474	-0.0003600422	-0.03248193	0.007754354	0.006617083	0.06310847	0.02700509
	0.05307433	0.03329306	0.007754354	0.006617083	-0.01534189	-0.02451102	-0.4350554	0.7542458
	0.007744536	0.006610299	0.06310847	0.02700509	-0.4350554	0.7542458	0.0003171466	-0.03233556
2.5e+08	-0.02016696	-0.03139319	-0.2989264	0.8147103	0.06236535	0.02281636	0.009216662	0.005921105
	-0.2989264	0.8147103	-0.009430155	-0.0295189	0.009228413	0.005921504	0.06923354	0.02200558
	0.06236535	0.02281636	0.009228413	0.005921504	-0.01971338	-0.03089209	-0.2986189	0.8149746
	0.009216661	0.005921106	0.06923354	0.02200558	-0.2986189	0.8149746	-0.008765472	-0.02944133
2.6e+08	-0.02575969	-0.03615298	-0.1547747	0.8511459	0.06797303	0.00968917	0.01087161	0.004839696
	-0.1547747	0.8511459	-0.01623913	-0.02311577	0.01088191	0.004833098	0.07374162	0.01569391
	0.06797303	0.00968917	0.01088191	0.004833098	-0.02526499	-0.03577417	-0.1544063	0.8513604
	0.01087161	0.004839696	0.07374162	0.01569391	-0.1544063	0.8513604	-0.01560527	-0.02309268
2.7e+08	-0.03200649	-0.03931903	-0.007102328	0.8624395	0.06918286	-0.004806084	0.01255259	0.003195805
	-0.007102328	0.8624395	-0.01970157	-0.01430613	0.01255802	0.003183767	0.07635048	0.008673661
	0.06918286	-0.004806084	0.01255802	0.003183767	-0.03151317	-0.0390737	-0.006679031	0.862589
	0.01255259	0.003195805	0.07635048	0.008673661	-0.006679031	0.862589	-0.0191103	-0.01431686
2.8e+08	-0.0384857	-0.04095148	0.1398031	0.8484934	0.06572107	-0.01921376	0.01401571	0.0009055374
	0.1398031	0.8484934	-0.01915753	-0.004422482	0.01401378	0.0008907303	0.07699338	0.00159142
	0.06572107	-0.01921377	0.01401378	0.0008907304	-0.03803865	-0.04083712	0.1402692	0.8485622
	0.01401571	0.0009055375	0.07699338	0.00159142	0.1402692	0.8485622	-0.0186122	-0.004443092
2.9e+08	-0.04486855	-0.04119641	0.2817287	0.809905	0.05778764	-0.03205207	0.0149807	-0.001994223
	0.2817287	0.809905	-0.01444215	0.00506537	0.01497063	-0.002007701	0.07581415	-0.004932882
	0.05778764	-0.03205207	0.01497063	-0.002007701	-0.04451126	-0.04119714	0.2822205	0.8098801
	0.0149807	-0.001994223	0.07581415	-0.004932882	0.2822205	0.8098801	-0.01393684	0.005058579
3e+08	-0.0509262	-0.04024035	0.4146341	0.7479383	0.04604261	-0.04196226	0.01519278	-0.005337816
	0.4146341	0.7479383	-0.005897629	0.01272216	0.01517573	-0.005345915	0.07314332	-0.01036884
	0.04604261	-0.04196226	0.01517573	-0.005345915	-0.05069641	-0.04032734	0.4151302	0.7478106
	0.01519278	-0.005337816	0.07314332	-0.01036884	0.4151302	0.7478106	-0.005417594	0.0127497
3.1e+08	-0.05652025	-0.03826938	0.5347448	0.664496	0.03154876	-0.04784758	0.01448014	-0.0088552
	0.5347448	0.664496	0.005668865	0.01731428	0.01445888	-0.008854734	0.06946	-0.0143255
	0.03154876	-0.04784758	0.01445888	-0.008854734	-0.05644693	-0.03840291	0.5352187	0.6642629
	0.01448014	-0.0088552	0.06946	-0.0143255	0.5352187	0.6642629	0.006144975	0.01739018
3.2e+08	-0.06158098	-0.03543715	0.6386403	0.5620777	0.0156733	-0.04898849	0.01279399	-0.0122194
	0.6386403	0.5620777	0.01907915	0.01795239	0.01277297	-0.01220878	0.06534064	-0.01659063
	0.0156733	-0.04898849	0.01277297	-0.01220878	-0.06168008	-0.03556871	0.6390698	0.561744
	0.01279399	-0.0122194	0.06534064	-0.01659063	0.6390698	0.561744	0.01957817	0.0180828
3.3e+08	-0.06607445	-0.03184468	0.7233577	0.4437259	-4.218774e-05	-0.04512356	0.01022146	-0.01510753
	0.7233577	0.4437259	0.03292258	0.01419683	0.01020612	-0.0150872	0.06139883	-0.01715293
	-4.218782e-05	-0.04512356	0.01020612	-0.0150872	-0.06634745	-0.0319215	0.7237187	0.4433039
	0.01022146	-0.01510753	0.06139883	-0.01715293	0.7237187	0.4433039	0.03347257	0.01437794
3.4e+08	-0.06996525	-0.02753608	0.7864796	0.3129606	-0.01403344	-0.03648767	0.00696977	-0.01726025
	0.7864796	0.3129606	0.04572041	0.006111657	0.00696398	-0.01723341	0.05821998	-0.01620684
	-0.01403344	-0.03648767	0.00696398	-0.01723341	-0.07039702	-0.02750571	0.7867557	0.3124661
	0.00696977	-0.01726025	0.05821998	-0.01620684	0.7867557	0.3124661	0.04634824	0.006329685
3.5e+08	-0.07317928	-0.02251267	0.8262292	0.1736775	-0.0248714	-0.02379916	0.0033221	-0.01852696
	0.8262292	0.1736775	0.05610344	-0.005741764	0.003328456	-0.01849849	0.05629234	-0.01413627
	-0.0248714	-0.02379916	0.003328456	-0.01849849	-0.07373909	-0.02232755	0.8264037	0.1731334
	0.0033221	-0.01852696	0.05629234	-0.01413627	0.8264037	0.1731334	0.05682984	-0.005510362
3.6e+08	-0.07557577	-0.016764	0.8415345	0.03003716	-0.03141113	-0.008197477	-0.0004193979	-0.01888385
	0.8415345	0.03003716	0.06297527	-0.02037199	-0.0004005279	-0.01885973	0.05594612	-0.01147322
	-0.03141113	-0.008197477	-0.0004005279	-0.01885973	-0.07621801	-0.01638696	0.8416011	0.02946606
	-0.0004193979	-0.01888385	0.05594612	-0.01147322	0.8416011	0.02946606	0.06381364	-0.02015714
3.7e+08	-0.07693537	-0.0103137	0.8320793	-0.1136796	-0.03291341	0.00886638	-0.003991858	-0.01842299
	0.8320793	-0.1136796	0.06564528	-0.03647833	-0.003963473	-0.01840871	0.05730802	-0.008836179
	-0.03291341	0.00886638	-0.003963473	-0.01840871	-0.07760364	-0.009722352	0.8320381	-0.1142557
	-0.003991858	-0.01842299	0.05730802	-0.008836179	0.8320381	-0.1142557	0.06659852	-0.03631462
3.8e+08	-0.07697286	-0.003269603	0.7983137	-0.2532185	-0.02912402	0.02577265	-0.007217215	-0.01731494
	0.7983137	-0.2532185	0.06390859	-0.05261144	-0.007183908	-0.01731461	0.06028045	-0.006853172
	-0.02912402	0.02577265	-0.007183908	-0.01731461	-0.07760467	-0.002459277	0.7981671	-0.2537776
	-0.007217215	-0.01731494	0.06028045	-0.006853172	0.7981671	-0.2537776	0.06496753	-0.05253405
3.9e+08	-0.07537388	0.004131282	0.7414276	-0.3844983	-0.02030399	0.04089388	-0.01001972	-0.01575736
	0.7414276	-0.3844983	0.05806311	-0.06735146	-0.009988886	-0.01577177	0.06455169	-0.006080562
	-0.02030399	0.04089388	-0.009988886	-0.01577177	-0.07590671	0.005144842	0.7411861	-0.3850237
	-0.01001972	-0.01575736	0.06455169	-0.006080562	0.7411861	-0.3850237	0.05920782	-0.06739111
4e+08	-0.07185664	0.01149547	0.6632931	-0.5037494	-0.007204555	0.05275593	-0.01242008	-0.01392056
	0.6632931	-0.5037494	0.04886493	-0.0794776	-0.01239814	-0.01394809	0.06963551	-0.006931156
	-0.007204555	0.05275593	-0.01239814	-0.01394809	-0.07223432	0.01267813	0.6629638	-0.504227
	-0.01242008	-0.01392056	0.06963551	-0.006931156	0.6629638	-0.504227	0.05006519	-0.07965853
4.1e+08	-0.06624514	0.01827579	0.566369	-0.607625	0.009004552	0.06018036	-0.01450102	-0.01190837
	0.566369	-0.607625	0.03742576	-0.08811059	-0.01449321	-0.01194413	0.07493535	-0.009622699
	0.009004552	0.06018036	-0.01449321	-0.01194413	-0.0664231	0.01957654	0.5659625	-0.6080445
	-0.01450102	-0.01190837	0.07493535	-0.009622699	0.5659625	-0.6080445	0.03864468	-0.08844606
4.2e+08	-0.05854033	0.02380558	0.4536122	-0.6932761	0.02684624	0.06239669	-0.01636059	-0.009740862
	0.4536122	-0.6932761	0.02507244	-0.09280564	-0.01636973	-0.009777506	0.07982029	-0.01415609
	0.02684624	0.06239669	-0.01636973	-0.009777506	-0.05849107	0.0251609	0.453139	-0.6936272
	-0.01636059	-0.009740862	0.07982029	-0.01415609	0.453139	-0.6936272	0.02627045	-0.09329612
4.3e+08	-0.04897991	0.02736609	0.3283621	-0.758409	0.04467315	0.05911396	-0.01806493	-0.007361222
	0.3283621	-0.758409	0.013186	-0.09359325	-0.01809036	-0.007391325	0.08370295	-0.02032014
	0.04467315	0.05911396	-0.01809036	-0.007391325	-0.04869609	0.02870587	0.3278311	-0.7586841
	-0.01806493	-0.007361222	0.08370295	-0.02032014	0.3278311	-0.7586841	0.01432453	-0.09422654
4.4e+08	-0.03806681	0.02827694	0.194249	-0.8013141	0.06081715	0.05055014	-0.01961106	-0.004668411
	0.194249	-0.8013141	0.003040748	-0.0909627	-0.0196485	-0.004684826	0.08610548	-0.02772538
	0.06081715	0.05055014	-0.0196485	-0.004684826	-0.03756259	0.02953026	0.1936703	-0.8015049
	-0.01961106	-0.004668411	0.08610548	-0.02772538	0.1936703	-0.8015049	0.004087857	-0.09171456
4.5e+08	-0.02656303	0.02599663	0.05510824	-0.8208843	0.07374099	0.0374178	-0.02091112	-0.001560776
	0.05510824	-0.8208843	-0.004338706	-0.08579584	-0.02095364	-0.001559072	0.08670919	-0.03585375
	0.07374099	0.0374178	-0.02095364	-0.001559072	-0.02587378	0.02709877	0.05449191	-0.8209825
	-0.02091112	-0.001560776	0.08670919	-0.03585375	0.05449191	-0.8209825	-0.003405343	-0.0866328
4.6e+08	-0.01544418	0.02022224	-0.08510445	-0.8166314	0.08218003	0.02086725	-0.02180024	0.002017041
	-0.08510445	-0.8166314	-0.008290003	-0.07926049	-0.02183955	0.002037462	0.08538217	-0.04411998
	0.08218003	0.02086725	-0.02183955	0.002037462	-0.01462389	0.02112114	-0.08574762	-0.8166275
	-0.02180024	0.002017041	0.08538217	-0.04411998	-0.08574762	-0.8166275	-0.007480256	-0.08014357
4.7e+08	-0.00581744	0.01097127	-0.2223954	-0.7887024	0.08526483	0.002390819	-0.02206732	0.006034893
	-0.2223954	-0.7887024	-0.008584488	-0.07267338	-0.02209519	0.006071361	0.0821867	-0.05193405
	0.08526483	0.002390819	-0.02209519	0.006071361	-0.004934856	0.01163151	-0.2230487	-0.7885866
	-0.02206732	0.006034893	0.0821867	-0.05193405	-0.2230487	-0.7885866	-0.007894211	-0.07356308
4.8e+08	0.001190072	-0.001371032	-0.3528092	-0.7378852	0.08261261	-0.01630686	-0.02150003	0.01036044
	-0.3528092	-0.7378852	-0.005451916	-0.06735078	-0.02151057	0.01040618	0.0773678	-0.05876207
	0.08261261	-0.01630686	-0.02151057	0.01040618	0.002056792	-0.0009622531	-0.353455	-0.7376533
	-0.02150003	0.01036044	0.0773678	-0.05876207	-0.353455	-0.7376533	-0.004863621	-0.06821101
4.9e+08	0.004557125	-0.01603868	-0.4725324	-0.6656344	0.07437909	-0.03346611	-0.0199364	0.01476131
	-0.4725324	-0.6656344	0.0004438027	-0.06445405	-0.01992677	0.01480821	0.07132576	-0.06417917
	0.07437909	-0.03346611	-0.01992677	0.01480821	0.005328059	-0.01587054	-0.4731503	-0.6652803
	-0.0199364	0.01476131	0.07132576	-0.06417917	-0.4731503	-0.6652803	0.0009591917	-0.06525781
5e+08	0.003502073	-0.0319194	-0.5780171	-0.5740535	0.06125801	-0.04744197	-0.01730684	0.01893618
	-0.5780171	-0.5740535	0.008080205	-0.06485384	-0.01727891	0.01897516	0.06457427	-0.06791268
	0.06125801	-0.04744197	-0.01727891	0.01897516	0.004101644	-0.03195691	-0.5785786	-0.5735787
	-0.01730684	0.01893618	0.06457427	-0.06791268	-0.5785786	-0.5735787	0.008559349	-0.06558579
5.1e+08	-0.002402244	-0.04763599	-0.6660909	-0.4658706	0.04442699	-0.05687138	-0.01366229	0.02255946
	-0.6660909	-0.4658706	0.01619214	-0.06902198	-0.01362136	0.02258326	0.05768726	-0.06987206
	0.04442699	-0.05687138	-0.01362136	0.02258326	-0.002036331	-0.04782132	-0.6665718	-0.465283
	-0.01366229	0.02255946	0.05768726	-0.06987206	-0.6665718	-0.465283	0.01667573	-0.06968084
5.2e+08	-0.01313627	-0.06166321	-0.7341048	-0.3443779	0.02543663	-0.06081821	-0.009172968	0.02533682
	-0.7341048	-0.3443779	0.023423	-0.07696886	-0.009126852	0.02534159	0.05123692	-0.07016143
