!$
! Info: Touchstone file created by Circ.  Input file=Intel_C2M_200G_13p5in_202208016_staggered.circ
!$
# Hz S RI R 50
0	0.03263032	1.152697e-23	-0.0001462886	1.791519e-20	0.0003872856	1.229476e-21	-0.0001420906	1.740108e-20
	-0.0001462887	1.79152e-20	0.03208111	6.543159e-24	-0.0001532543	1.876824e-20	0.0001667949	3.839927e-22
	0.00038735	1.230346e-21	-0.0001532544	1.876825e-20	0.03263156	1.183891e-23	-0.0001463138	1.791827e-20
	-0.0001420905	1.740107e-20	0.0001668509	3.841169e-22	-0.0001463137	1.791826e-20	0.03207912	6.182997e-24
1e+07	0.0391408	-0.008532661	-0.0009120737	4.278814e-05	0.002596577	0.00936292	-7.889013e-05	-0.0001136833
	-0.0009120737	4.278814e-05	0.03858324	-0.009402241	-0.001269516	0.0003642416	0.003392707	0.009241697
	0.002596577	0.00936292	-0.001269516	0.0003642416	0.03863435	-0.008328423	-0.0006664894	-2.979598e-06
	-7.889013e-05	-0.0001136833	0.003392707	0.009241697	-0.0006664894	-2.979598e-06	0.03832859	-0.009361293
2e+07	0.0392928	-0.02383757	-0.0008503844	-0.0003244134	0.007053493	0.01705442	-0.000113377	-0.0001681804
	-0.0008503843	-0.0003244133	0.03980129	-0.02567683	-0.001141657	0.0001029058	0.00870413	0.01619312
	0.007053576	0.01705431	-0.001141657	0.0001029058	0.03909387	-0.02335498	-0.0006508596	-0.0002063211
	-0.000113377	-0.0001681803	0.008704134	0.01619311	-0.0006508596	-0.0002063211	0.03962532	-0.02551292
3e+07	0.03157807	-0.03960653	-0.0008609309	-0.0004388635	0.0134585	0.02272541	-0.0001707924	-0.0002105838
	-0.0008609309	-0.0004388635	0.03406894	-0.04328924	-0.001018181	6.170233e-05	0.0162198	0.02071618
	0.01345848	0.02272538	-0.001018181	6.170233e-05	0.03163125	-0.03908346	-0.0006920747	-0.0002794868
	-0.0001707924	-0.0002105838	0.0162198	0.02071623	-0.0006920748	-0.0002794868	0.03396623	-0.04306953
4e+07	0.01822148	-0.05173078	-0.0009173401	-0.0004812002	0.02094537	0.02599462	-0.0002653731	-0.0002184151
	-0.0009173401	-0.0004812002	0.02257576	-0.0586943	-0.0009204523	1.460625e-05	0.02486556	0.0220171
	0.02094537	0.02599462	-0.0009204523	1.460625e-05	0.0184696	-0.05125674	-0.0007616901	-0.0002928952
	-0.0002653731	-0.0002184151	0.02486557	0.02201712	-0.0007616901	-0.0002928951	0.02254718	-0.05845655
5e+07	0.001338311	-0.05851904	-0.0009974739	-0.0004736895	0.02865181	0.02669705	-0.0003657804	-0.0001984981
	-0.0009974739	-0.0004736895	0.006918656	-0.07003726	-0.0008711869	-5.947795e-05	0.03338158	0.01996223
	0.02865182	0.02669706	-0.0008711869	-5.947794e-05	0.001722797	-0.05814618	-0.0008417603	-0.0002625571
	-0.0003657804	-0.0001984981	0.03338159	0.01996223	-0.0008417603	-0.000262557	0.006953834	-0.06980864
6e+07	-0.01679677	-0.05915706	-0.001085743	-0.0004252593	0.03571017	0.02500663	-0.0004650175	-0.0001500257
	-0.001085743	-0.0004252593	-0.01116866	-0.07630507	-0.0008913798	-0.0001465987	0.04056011	0.01483877
	0.03571016	0.02500663	-0.0008913798	-0.0001465987	-0.0163362	-0.05891136	-0.0009194181	-0.0001971366
	-0.0004650175	-0.0001500257	0.0405601	0.01483875	-0.000919418	-0.0001971366	-0.01108599	-0.07610551
7e+07	-0.03390629	-0.05370788	-0.001207903	-0.0002534785	0.04139759	0.02137619	-0.0005541158	-7.369901e-05
	-0.001207903	-0.0002534785	-0.02987724	-0.07712123	-0.0009876912	-0.0002165316	0.04538639	0.007342638
	0.04139759	0.02137619	-0.0009876912	-0.0002165316	-0.03342804	-0.0535935	-0.000986016	-0.0001040864
	-0.0005541158	-7.3699e-05	0.04538639	0.007342636	-0.000986016	-0.0001040865	-0.02976769	-0.07696367
8e+07	-0.04798579	-0.04300411	-0.001311027	6.753807e-05	0.0452132	0.01645332	-0.0006261434	2.712696e-05
	-0.001311027	6.753807e-05	-0.04747068	-0.07271198	-0.001151054	-0.0002350507	0.04716801	-0.001530196
	0.0452132	0.01645332	-0.001151054	-0.0002350507	-0.0475423	-0.04300708	-0.001035787	1.010116e-05
	-0.0006261434	2.712696e-05	0.04716802	-0.001530194	-0.001035787	1.010118e-05	-0.0473572	-0.0726019
9e+07	-0.0575042	-0.02846497	-0.001316332	0.0004098528	0.04691689	0.01098528	-0.000676983	0.0001505397
	-0.001316332	0.0004098528	-0.06245118	-0.06381727	-0.001357841	-0.0001720179	0.0456053	-0.01062127
	0.04691689	0.01098528	-0.001357841	-0.0001720179	-0.05713853	-0.02855534	-0.001065309	0.000171063
	-0.000676983	0.0001505397	0.04560531	-0.01062127	-0.001065309	0.000171063	-0.06235735	-0.06375159
1e+08	-0.06148148	-0.01189039	-0.001196277	0.0007432953	0.04652972	0.005721415	-0.0006983279	0.0002904897
	-0.001196277	0.0007432953	-0.07362565	-0.05155164	-0.001565621	-1.232126e-05	0.04080671	-0.01875457
	0.04652972	0.005721415	-0.001565621	-1.232126e-05	-0.06123323	-0.01202602	-0.001037906	0.000415874
	-0.0006983279	0.0002904897	0.04080671	-0.01875457	-0.001037906	0.000415874	-0.07357339	-0.05151931
1.1e+08	-0.05985324	0.004540312	-0.001028259	0.000948575	0.04428252	0.001361295	-0.0006928592	0.0004378534
	-0.001028259	0.000948575	-0.0804857	-0.03755276	-0.001737773	0.0002665677	0.0332451	-0.02484162
	0.04428252	0.001361295	-0.001737773	0.0002665677	-0.05971338	0.00446178	-0.0009747591	0.0006020018
	-0.0006928592	0.0004378534	0.0332451	-0.02484162	-0.0009747591	0.0006020018	-0.08053621	-0.037563
1.2e+08	-0.05310667	0.01933773	-0.0008627193	0.001136142	0.04066452	-0.001529478	-0.0006581447	0.0005956274
	-0.0008627193	0.001136142	-0.08291648	-0.02290154	-0.001841337	0.0006302659	0.02381994	-0.02801193
	0.04066452	-0.001529478	-0.001841337	0.0006302659	-0.05303089	0.01932976	-0.0009007041	0.0007889224
	-0.0006581447	0.0005956274	0.02381993	-0.02801193	-0.0009007041	0.0007889225	-0.08305196	-0.0228717
1.3e+08	-0.04206923	0.03093122	-0.0006732328	0.001303054	0.03628107	-0.002598175	-0.0005941623	0.0007604398
	-0.0006732328	0.001303054	-0.08100964	-0.008962142	-0.00184081	0.001047711	0.01359912	-0.02778132
	0.03628107	-0.002598174	-0.00184081	0.001047711	-0.04202907	0.03100455	-0.0007980188	0.0009746401
	-0.0005941623	0.0007604398	0.01359912	-0.02778132	-0.0007980188	0.0009746401	-0.08119471	-0.008868775
1.4e+08	-0.0280918	0.03815977	-0.0004561588	0.001444037	0.03181043	-0.001699983	-0.0004879397	0.0009177566
	-0.0004561588	0.001444037	-0.0753228	0.003060309	-0.001720254	0.001478974	0.003761927	-0.0240257
	0.03181043	-0.001699983	-0.001720254	0.001478974	-0.02805943	0.03832087	-0.0006605336	0.001154224
	-0.0004879397	0.0009177566	0.003761928	-0.0240257	-0.0006605337	0.001154224	-0.07553807	0.003219826
1.5e+08	-0.01282251	0.04039786	-0.000211853	0.001552635	0.02794058	0.001084679	-0.0003414829	0.001056827
	-0.000211853	0.001552635	-0.06673428	0.01223107	-0.001481162	0.001882706	-0.004519527	-0.01700838
	0.02794058	0.00108468	-0.001481162	0.001882706	-0.0127695	0.04064716	-0.0004840211	0.001320218
	-0.0003414829	0.001056827	-0.004519526	-0.01700838	-0.0004840211	0.001320218	-0.06696977	0.01246045
1.6e+08	0.001996397	0.0376173	5.640433e-05	0.001621998	0.0252998	0.005454731	-0.0001596045	0.001167778
	5.640433e-05	0.001621998	-0.05633046	0.01796025	-0.001140344	0.002223236	-0.01020266	-0.007367283
	0.0252998	0.005454732	-0.001140344	0.002223236	0.002098084	0.03794755	-0.0002666863	0.001462817
	-0.0001596045	0.001167778	-0.01020266	-0.007367282	-0.0002666863	0.001462817	-0.05657598	0.0182677
1.7e+08	0.0147382	0.03038032	0.0003429361	0.001645673	0.0243863	0.01091258	5.061505e-05	0.001242487
	0.0003429361	0.001645673	-0.04528033	0.02003964	-0.000725124	0.002475994	-0.01249165	0.003936812
	0.0243863	0.01091258	-0.000725124	0.002475994	0.01491365	0.03077591	-9.912997e-06	0.001570492
	5.061505e-05	0.001242487	-0.01249165	0.003936813	-9.912997e-06	0.001570492	-0.0455194	0.02043417
1.8e+08	0.02408639	0.01976151	0.0006398445	0.001618315	0.02550637	0.0168144	0.0002805085	0.001275088
	0.0006398445	0.001618315	-0.03470519	0.01863589	-0.0002667324	0.002629905	-0.01093734	0.01570968
	0.02550637	0.0168144	-0.0002667324	0.002629905	0.02435443	0.02019922	0.0002809047	0.001631251
	0.0002805085	0.001275088	-0.01093734	0.01570968	0.0002809047	0.001631251	-0.0349144	0.0191218
1.9e+08	0.02918999	0.007205779	0.0009375043	0.001536302	0.02872929	0.02244253	0.0005207088	0.001262176
	0.0009375043	0.001536302	-0.02556208	0.01423943	0.0002067627	0.002686285	-0.005506449	0.02664639
	0.02872929	0.02244253	0.0002067627	0.002686285	0.02956149	0.007657516	0.0005961043	0.001634006
	0.0005207088	0.001262176	-0.005506449	0.02664639	0.0005961043	0.001634006	-0.02571366	0.01481172
2e+08	0.02976173	-0.005658852	0.001223072	0.001397916	0.03387092	0.02709328	0.0007618953	0.001202496
	0.001223072	0.001397916	-0.01855453	0.007575655	0.0007395741	0.002633061	0.003394169	0.03547619
	0.03387092	0.02709328	0.0007395741	0.002633061	0.03023746	-0.00522382	0.0009205948	0.001571165
	0.0007618953	0.001202496	0.00339417	0.03547619	0.0009205948	0.001571165	-0.01862205	0.008218634
2.1e+08	0.02609875	-0.01723124	0.001487455	0.001205596	0.04051366	0.03016879	0.0009951899	0.001096726
	0.001487455	0.001205596	-0.01408783	-0.0005047822	0.001240304	0.002484628	0.01494479	0.0411121
	0.04051366	0.03016879	0.001240304	0.002484628	0.0266694	-0.01684226	0.001240098	0.001438181
	0.0009951899	0.001096726	0.01494479	0.0411121	0.001240098	0.001438181	-0.01404935	0.0001823246
2.2e+08	0.01903035	-0.02613923	0.001720097	0.0009631476	0.04805918	0.03125469	0.00121261	0.000946787
	0.001720097	0.0009631476	-0.01226505	-0.009138708	0.001700193	0.002256924	0.02799282	0.04278456
	0.04805918	0.03125469	0.001700193	0.002256924	0.01967662	-0.02582046	0.001537132	0.001235775
	0.00121261	0.000946787	0.02799282	0.04278456	0.001537132	0.001235775	-0.01210883	-0.008442366
2.3e+08	0.009795303	-0.03140563	0.001911568	0.0006766367	0.05580879	0.03017121	0.001406889	0.0007554428
	0.001911568	0.0006766367	-0.01292698	-0.01754855	0.002116354	0.001961161	0.04117629	0.04014055
	0.05580879	0.03017121	0.002116354	0.001961161	0.01049102	-0.03117308	0.001795087	0.0009699671
	0.001406889	0.0007554428	0.04117629	0.04014055	0.001795087	0.0009699671	-0.01265369	-0.01688133
2.4e+08	-0.0001262895	-0.03255758	0.002054159	0.0003536104	0.06305548	0.02698965	0.001571203	0.0005260305
	0.002054159	0.0003536104	-0.0157184	-0.0251112	0.002487405	0.001602217	0.05307433	0.03329306
	0.06305548	0.02698965	0.002487405	0.001602217	0.0005889016	-0.03241705	0.002000061	0.0006511327
	0.001571203	0.0005260305	0.05307433	0.03329306	0.002000061	0.0006511327	-0.01534189	-0.02451102
2.5e+08	-0.009204429	-0.02966825	0.002141789	2.623697e-06	0.06917117	0.02201199	0.001698864	0.0002624426
	0.002141789	2.623697e-06	-0.02016696	-0.03139319	0.002808928	0.001179976	0.06236535	0.02281636
	0.06917117	0.02201199	0.002808928	0.001179976	-0.008499574	-0.02961444	0.002142073	0.0002925822
	0.001698864	0.0002624426	0.06236535	0.02281636	0.002142073	0.0002925822	-0.01971338	-0.03089209
2.6e+08	-0.01604798	-0.02332975	0.00216981	-0.0003674001	0.07367751	0.01572283	0.001783133	-3.043945e-05
	0.00216981	-0.0003674001	-0.02575969	-0.03615298	0.003070714	0.0006928251	0.06797303	0.00968917
	0.07367751	0.01572283	0.003070714	0.0006928251	-0.01537931	-0.02334749	0.00221536	-9.126567e-05
	0.001783133	-3.043945e-05	0.06797303	0.00968917	0.00221536	-9.126567e-05	-0.02526499	-0.03577417
2.7e+08	-0.01956652	-0.01456773	0.002134615	-0.000747213	0.0762918	0.008723516	0.001817199	-0.0003465273
	0.002134615	-0.000747213	-0.03200649	-0.03931903	0.003256287	0.0001421119	0.06918286	-0.004806084
	0.0762918	0.008723516	0.003256287	0.0001421119	-0.01895255	-0.01463309	0.002217943	-0.0004863672
	0.001817199	-0.0003465273	0.06918286	-0.004806084	0.002217943	-0.0004863672	-0.03151317	-0.0390737
2.8e+08	-0.01909297	-0.004708897	0.002033378	-0.00112701	0.07694618	0.001658702	0.001794541	-0.0006778094
	0.002033378	-0.00112701	-0.0384857	-0.04095148	0.003344932	-0.000464087	0.06572107	-0.01921376
	0.07694618	0.001658702	0.003344932	-0.000464087	-0.01854226	-0.004792567	0.002150695	-0.0008800072
	0.001794541	-0.0006778094	0.06572107	-0.01921377	0.002150695	-0.0008800072	-0.03803865	-0.04083712
2.9e+08	-0.01445392	0.004780178	0.001864143	-0.001495982	0.075783	-0.004853172	0.001709566	-0.001014179
	0.001864143	-0.001495982	-0.04486855	-0.04119641	0.003315611	-0.001108342	0.05778764	-0.03205207
	0.075783	-0.004853172	0.003315611	-0.001108342	-0.01396358	0.004708616	0.002016174	-0.001261275
	0.001709566	-0.001014179	0.05778764	-0.03205207	0.002016174	-0.001261275	-0.04451126	-0.04119714
3e+08	-0.005982544	0.01246447	0.001626316	-0.00184206	0.07313102	-0.01028273	0.001558459	-0.001343325
	0.001626316	-0.00184206	-0.0509262	-0.04024035	0.003151732	-0.001763731	0.04604261	-0.04196226
	0.07313102	-0.01028273	0.003151732	-0.001763731	-0.005538378	0.01243297	0.001817677	-0.001620728
	0.001558459	-0.001343325	0.04604261	-0.04196226	0.001817677	-0.001620728	-0.05069641	-0.04032734
3.1e+08	0.005522513	0.0171077	0.001321472	-0.002151897	0.06946724	-0.01423949	0.001340103	-0.001651083
	0.001321472	-0.002151897	-0.05652025	-0.03826938	0.002845432	-0.002396179	0.03154876	-0.04784758
	0.06946724	-0.01423949	0.002845432	-0.002396179	0.005944009	0.01713753	0.001558696	-0.001949837
	0.001340103	-0.001651083	0.03154876	-0.04784758	0.001558696	-0.001949837	-0.05644693	-0.03840291
3.2e+08	0.0188903	0.01781531	0.000954111	-0.0024113	0.06536602	-0.0165111	0.001057089	-0.00192214
	0.000954111	-0.0024113	-0.06158098	-0.03543715	0.00240067	-0.002968447	0.0156733	-0.04898849
	0.06536602	-0.0165111	0.00240067	-0.002968447	0.01932045	0.01791855	0.001242609	-0.002240294
	0.001057089	-0.00192214	0.0156733	-0.04898849	0.001242609	-0.002240294	-0.06168008	-0.03556871
3.3e+08	0.03271527	0.0141403	0.0005323722	-0.002606124	0.0614389	-0.01708535	0.0007161024	-0.002141381
	0.0005323722	-0.002606124	-0.06607445	-0.03184468	0.001833541	-0.003445433	-4.218774e-05	-0.04512356
	0.0614389	-0.01708535	0.001833541	-0.003445433	0.03318841	0.01431716	0.0008731053	-0.002483244
	0.0007161024	-0.002141381	-4.218782e-05	-0.04512356	0.0008731053	-0.002483244	-0.06634745	-0.0319215
3.4e+08	0.04552112	0.006138059	6.831368e-05	-0.002723503	0.05826965	-0.01615519	0.0003280417	-0.002295265
	6.831368e-05	-0.002723503	-0.06996525	-0.02753608	0.001170839	-0.003798795	-0.01403344	-0.03648767
	0.05826965	-0.01615519	0.001170839	-0.003798795	0.04607127	0.006376333	0.000454907	-0.002668866
	0.0003280417	-0.002295265	-0.01403344	-0.03648767	0.000454907	-0.002668866	-0.07039702	-0.02750571
3.5e+08	0.05593803	-0.005639025	-0.0004223271	-0.002753158	0.05634552	-0.01410247	-9.257517e-05	-0.002373177
	-0.0004223271	-0.002753158	-0.07317928	-0.02251267	0.0004460211	-0.004010555	-0.0248714	-0.02379916
	0.05634552	-0.01410247	0.0004460211	-0.004010555	0.05659305	-0.005363862	-5.168448e-06	-0.002786358
	-9.257517e-05	-0.002373177	-0.0248714	-0.02379916	-5.168448e-06	-0.002786358	-0.07373909	-0.02232755
3.6e+08	0.06286602	-0.02020785	-0.0009209487	-0.002688755	0.0559965	-0.01145693	-0.0005287432	-0.002368631
	-0.0009209487	-0.002688755	-0.07557577	-0.016764	-0.0003056614	-0.004074184	-0.03141113	-0.008197477
	0.0559965	-0.01145693	-0.0003056614	-0.004074184	0.0636454	-0.01992894	-0.0004972606	-0.002824671
	-0.0005287432	-0.002368631	-0.03141113	-0.008197477	-0.0004972606	-0.002824671	-0.07621801	-0.01638696
3.7e+08	0.06560816	-0.03627442	-0.001407364	-0.002528709	0.05734996	-0.008834893	-0.000962554	-0.002279713
	-0.001407364	-0.002528709	-0.07693537	-0.0103137	-0.001051553	-0.003993489	-0.03291341	0.00886638
	0.05734996	-0.008834893	-0.001051553	-0.003993489	0.06651935	-0.03603118	-0.001007837	-0.002773642
	-0.000962554	-0.002279713	-0.03291341	0.00886638	-0.001007837	-0.002773642	-0.07760364	-0.009722352
3.8e+08	0.06395143	-0.05239354	-0.001861281	-0.002276729	0.06030967	-0.006862693	-0.001376504	-0.002109068
	-0.001861281	-0.002276729	-0.07697286	-0.003269603	-0.001764836	-0.003779593	-0.02912402	0.02577265
	0.06030967	-0.006862693	-0.001764836	-0.003779593	0.06498785	-0.05222691	-0.001519379	-0.002625657
	-0.001376504	-0.002109068	-0.02912402	0.02577265	-0.001519379	-0.002625657	-0.07760467	-0.002459277
3.9e+08	0.05818452	-0.06714635	-0.002264134	-0.001941528	0.06456575	-0.006095618	-0.001755026	-0.001863165
	-0.002264134	-0.001941528	-0.07537388	0.004131282	-0.002425858	-0.003447011	-0.02030399	0.04089388
	0.06456575	-0.006095618	-0.002425858	-0.003447011	0.05932686	-0.06709307	-0.002011314	-0.002377313
	-0.001755026	-0.001863165	-0.02030399	0.04089388	-0.002011314	-0.002377313	-0.07590671	0.005144842
4e+08	0.04905459	-0.07931009	-0.002600533	-0.001535935	0.06963395	-0.006946265	-0.002085198	-0.001551272
	-0.002600533	-0.001535935	-0.07185664	0.01149547	-0.003021106	-0.003009955	-0.007204555	0.05275593
	0.06963395	-0.006946265	-0.003021106	-0.003009955	0.05027143	-0.07939986	-0.002461407	-0.002030612
	-0.002085198	-0.001551272	-0.007204555	0.05275593	-0.002461407	-0.002030612	-0.07223432	0.01267813
4.1e+08	0.03766568	-0.08800029	-0.00285928	-0.001075435	0.07491947	-0.009632788	-0.002357107	-0.001184259
	-0.00285928	-0.001075435	-0.06624514	0.01827579	-0.003540502	-0.0024804	0.009004552	0.06018036
	0.07491947	-0.009632788	-0.003540502	-0.0024804	0.03891742	-0.08825112	-0.002847616	-0.001593724
	-0.002357107	-0.001184259	0.009004552	0.06018036	-0.002847616	-0.001593724	-0.0664231	0.01957654
4.2e+08	0.02533916	-0.09276495	-0.003033645	-0.0005765516	0.07979283	-0.01415701	-0.002563613	-0.0007735651
	-0.003033645	-0.0005765516	-0.05854033	0.02380558	-0.003974616	-0.001867313	0.02684624	0.06239669
	0.07979283	-0.01415701	-0.003974616	-0.001867313	0.02658237	-0.09318074	-0.003150305	-0.001080458
	-0.002563613	-0.0007735651	0.02684624	0.06239669	-0.003150305	-0.001080458	-0.05849107	0.0251609
4.3e+08	0.01345341	-0.09362581	-0.003120903	-5.521015e-05	0.08366757	-0.020309	-0.002699758	-0.0003302696
	-0.003120903	-5.521015e-05	-0.04897991	0.02736609	-0.004311796	-0.001178688	0.04467315	0.05911396
	0.08366757	-0.020309	-0.004311796	-0.001178688	0.01464502	-0.09419642	-0.003353847	-0.0005092658
	-0.002699758	-0.0003302696	0.04467315	0.05911396	-0.003353847	-0.0005092658	-0.04869609	0.02870587
4.4e+08	0.00328323	-0.09106307	-0.003121238	0.000474269	0.08606627	-0.02770053	-0.002761978	0.0001348839
	-0.003121238	0.000474269	-0.03806681	0.02827694	-0.004537232	-0.0004238458	0.06081715	0.05055014
	0.08606627	-0.02770053	-0.004537232	-0.0004238458	0.004386409	-0.09176478	-0.003447716	9.811285e-05
	-0.002761978	0.0001348839	0.06081715	0.05055014	-0.003447716	9.811285e-05	-0.03756259	0.02953026
4.5e+08	-0.004143279	-0.08595033	-0.003036442	0.00099958	0.08667038	-0.03581485	-0.002747467	0.000611499
	-0.003036442	0.00099958	-0.02656303	0.02599663	-0.004633528	0.00038323	0.07374099	0.0374178
	0.08667038	-0.03581485	-0.004633528	0.00038323	-0.00315556	-0.08674858	-0.003427024	0.0007187183
	-0.002747467	0.000611499	0.07374099	0.0374178	-0.003427024	0.0007187183	-0.02587378	0.02709877
4.6e+08	-0.008157772	-0.07944875	-0.002868655	0.001509922	0.08534774	-0.04406775	-0.002653706	0.001089067
	-0.002868655	0.001509922	-0.01544418	0.02022224	-0.004583212	0.001221258	0.08218003	0.02086725
	0.08534774	-0.04406775	-0.004583212	0.001221258	-0.007299366	-0.08030195	-0.003292107	0.001330003
	-0.002653706	0.001089067	0.08218003	0.02086725	-0.003292107	0.001330003	-0.01462389	0.02112114
4.7e+08	-0.008523613	-0.07287085	-0.002619631	0.001995272	0.08216022	-0.05187028	-0.002478525	0.001556052
	-0.002619631	0.001995272	-0.00581744	0.01097127	-0.004372476	0.002061114	0.08526483	0.002390819
	0.08216022	-0.05187028	-0.004372476	0.002061114	-0.007793309	-0.07373569	-0.003048003	0.001910775
	-0.002478525	0.001556052	0.08526483	0.002390819	-0.003048003	0.001910775	-0.004934856	0.01163151
4.8e+08	-0.005461726	-0.06753163	-0.002290775	0.002444958	0.0773522	-0.0586894	-0.002220571	0.001999389
	-0.002290775	0.002444958	0.001190072	-0.001371032	-0.003995148	0.002866956	0.08261261	-0.01630686
	0.0773522	-0.0586894	-0.003995148	0.002866956	-0.004843299	-0.06836732	-0.002703233	0.002442453
	-0.002220571	0.001999389	0.08261261	-0.01630686	-0.002703233	0.002442453	0.002056792	-0.0009622531
4.9e+08	0.0003727088	-0.06459425	-0.001883908	0.002846637	0.07132308	-0.06410098	-0.001880372	0.002404016
