!$
! Info: Touchstone file created by Circ.  Input file=Intel_C2M_200G_13p5in_202208016_staggered.circ
!$
# Hz S RI R 50
0	0.03206841	6.064363e-24	0.0001248798	1.966927e-22	0.0001671921	3.871128e-22	0.0001248736	1.964095e-22
	0.0001248798	1.966927e-22	0.03208111	6.543159e-24	0.0001248839	1.968503e-22	0.0001667949	3.839927e-22
	0.0001672482	3.872362e-22	0.0001248838	1.968524e-22	0.03206339	6.37566e-24	0.0001248756	1.965524e-22
	0.0001248736	1.964116e-22	0.0001668509	3.841169e-22	0.0001248756	1.965524e-22	0.03207912	6.182997e-24
1e+07	0.03830953	-0.009342314	9.268922e-06	3.817862e-05	0.003385315	0.009183188	2.196266e-05	3.650979e-05
	9.268924e-06	3.817862e-05	0.03858324	-0.009402241	4.569696e-06	1.015678e-05	0.003392707	0.009241697
	0.003385315	0.009183188	4.569696e-06	1.015678e-05	0.0385758	-0.009325263	8.959474e-06	3.641879e-05
	2.196266e-05	3.650979e-05	0.003392707	0.009241697	8.959474e-06	3.641879e-05	0.03832859	-0.009361293
2e+07	0.0396225	-0.0254669	1.025053e-05	1.986073e-05	0.008684029	0.01608253	1.551352e-05	2.40285e-05
	1.025053e-05	1.986073e-05	0.03980129	-0.02567683	2.5567e-05	1.863423e-05	0.00870413	0.01619312
	0.008684034	0.01608251	2.5567e-05	1.863423e-05	0.03984469	-0.02553429	7.866468e-06	1.755007e-05
	1.551352e-05	2.40285e-05	0.008704134	0.01619311	7.866468e-06	1.755007e-05	0.03962532	-0.02551292
3e+07	0.03400618	-0.04301035	1.449626e-05	1.254983e-05	0.01618591	0.02056314	1.226043e-05	2.18811e-05
	1.449626e-05	1.254983e-05	0.03406894	-0.04328924	4.476518e-05	1.534136e-05	0.0162198	0.02071618
	0.0161859	0.02056318	4.476519e-05	1.534136e-05	0.03418823	-0.04309825	1.073103e-05	1.087656e-05
	1.226043e-05	2.188109e-05	0.0162198	0.02071623	1.073103e-05	1.087656e-05	0.03396623	-0.04306953
4e+07	0.0226429	-0.05839549	1.657606e-05	6.239258e-06	0.02482161	0.0218307	1.769287e-05	1.54153e-05
	1.657606e-05	6.239258e-06	0.02257576	-0.0586943	5.624679e-05	3.838117e-06	0.02486556	0.0220171
	0.02482162	0.02183072	5.624679e-05	3.838116e-06	0.02279214	-0.0584953	1.198587e-05	5.627149e-06
	1.769287e-05	1.54153e-05	0.02486557	0.02201712	1.198587e-05	5.627148e-06	0.02254718	-0.05845655
5e+07	0.007115707	-0.06976501	1.666207e-05	5.70627e-07	0.03333587	0.01974917	2.073959e-05	8.474364e-06
	1.666207e-05	5.706267e-07	0.006918656	-0.07003726	6.070735e-05	-1.06802e-05	0.03338158	0.01996223
	0.03333588	0.01974918	6.070735e-05	-1.06802e-05	0.007232498	-0.06987262	1.175021e-05	1.164513e-06
	2.073959e-05	8.474364e-06	0.03338159	0.01996223	1.175021e-05	1.164513e-06	0.006953834	-0.06980864
6e+07	-0.01085565	-0.0761013	1.506551e-05	-4.160204e-06	0.04052411	0.01460144	2.139575e-05	1.775412e-06
	1.506551e-05	-4.160203e-06	-0.01116866	-0.07630507	5.912773e-05	-2.527648e-05	0.04056011	0.01483877
	0.04052411	0.01460142	5.912773e-05	-2.527648e-05	-0.01077328	-0.07621436	1.028347e-05	-2.382122e-06
	2.139575e-05	1.775412e-06	0.0405601	0.01483875	1.028347e-05	-2.382121e-06	-0.01108599	-0.07610551
7e+07	-0.02947404	-0.07701981	1.225116e-05	-7.612785e-06	0.0453726	0.007077859	2.006105e-05	-4.141652e-06
	1.225116e-05	-7.612785e-06	-0.02987724	-0.07712123	5.266841e-05	-3.804089e-05	0.04538639	0.007342638
	0.04537259	0.007077858	5.266841e-05	-3.804089e-05	-0.02943093	-0.07713617	7.961474e-06	-4.796168e-06
	2.006105e-05	-4.141652e-06	0.04538639	0.007342636	7.961474e-06	-4.796169e-06	-0.02976769	-0.07696367
8e+07	-0.04701191	-0.07273591	8.783195e-06	-9.580733e-06	0.0471874	-0.001831267	1.721253e-05	-8.888107e-06
	8.783195e-06	-9.580733e-06	-0.04747068	-0.07271198	4.265436e-05	-4.778234e-05	0.04716801	-0.001530196
	0.0471874	-0.001831265	4.265436e-05	-4.778234e-05	-0.04701483	-0.07285154	5.257863e-06	-5.949567e-06
	1.721253e-05	-8.888107e-06	0.04716802	-0.001530194	5.257863e-06	-5.949567e-06	-0.0473572	-0.0726019
9e+07	-0.06197675	-0.06397653	5.244131e-06	-1.005977e-05	0.04566501	-0.01097226	1.331705e-05	-1.225562e-05
	5.244131e-06	-1.005977e-05	-0.06245118	-0.06381727	3.034365e-05	-5.394162e-05	0.0456053	-0.01062127
	0.04566501	-0.01097226	3.034365e-05	-5.394162e-05	-0.06203301	-0.06408399	2.674298e-06	-5.880668e-06
	1.331705e-05	-1.225562e-05	0.04560531	-0.01062127	2.674298e-06	-5.880668e-06	-0.06235735	-0.06375159
1e+08	-0.07317705	-0.05184247	2.003327e-06	-9.231111e-06	0.04090844	-0.01917216	8.425631e-06	-1.421805e-05
	2.003328e-06	-9.231111e-06	-0.07362565	-0.05155164	1.578974e-05	-5.648405e-05	0.04080671	-0.01875457
	0.04090844	-0.01917216	1.578974e-05	-5.648405e-05	-0.07329202	-0.05193012	5.904709e-07	-4.77753e-06
	8.425631e-06	-1.421805e-05	0.04080671	-0.01875457	5.90471e-07	-4.77753e-06	-0.07357339	-0.05151931
1.1e+08	-0.08009615	-0.0379556	2.027721e-07	-6.924954e-06	0.03338359	-0.02534421	4.101279e-06	-1.2952e-05
	2.027723e-07	-6.924954e-06	-0.0804857	-0.03755276	3.148841e-06	-5.03721e-05	0.0332451	-0.02484162
	0.03338359	-0.02534421	3.148841e-06	-5.03721e-05	-0.08031999	-0.0380427	-1.685084e-07	-2.891928e-06
	4.101279e-06	-1.2952e-05	0.0332451	-0.02484162	-1.685082e-07	-2.891928e-06	-0.08053621	-0.037563
1.2e+08	-0.08261138	-0.02339124	-2.949032e-07	-4.95482e-06	0.02398257	-0.02861491	1.571289e-06	-1.123402e-05
	-2.949031e-07	-4.95482e-06	-0.08291648	-0.02290154	-2.643462e-06	-4.328965e-05	0.02381994	-0.02801193
	0.02398256	-0.02861491	-2.643462e-06	-4.328965e-05	-0.08292234	-0.02339784	-2.470574e-08	-1.452956e-06
	1.571289e-06	-1.123402e-05	0.02381993	-0.02801193	-2.470562e-08	-1.452956e-06	-0.08305196	-0.0228717
1.3e+08	-0.08080577	-0.009506136	-2.603472e-07	-3.426484e-06	0.01376761	-0.02849571	8.387593e-08	-9.486654e-06
	-2.603472e-07	-3.426484e-06	-0.08100964	-0.008962142	-3.032921e-06	-3.694626e-05	0.01359912	-0.02778132
	0.01376761	-0.02849571	-3.032921e-06	-3.694626e-05	-0.0811627	-0.009411732	4.069112e-07	-4.728948e-07
	8.387597e-08	-9.486654e-06	0.01359912	-0.02778132	4.069113e-07	-4.72895e-07	-0.08119471	-0.008868775
1.4e+08	-0.07522541	0.002498599	4.046455e-07	-2.407037e-06	0.003913671	-0.02485603	-6.906082e-07	-7.923079e-06
	4.046455e-07	-2.407038e-06	-0.0753228	0.003060309	-2.96677e-06	-3.144272e-05	0.003761927	-0.0240257
	0.003913672	-0.02485602	-2.96677e-06	-3.144272e-05	-0.07560346	0.002692564	1.227836e-06	4.279974e-08
	-6.906082e-07	-7.923079e-06	0.003761928	-0.0240257	1.227836e-06	4.279958e-08	-0.07553807	0.003219826
1.5e+08	-0.06673605	0.01168802	1.862615e-06	-2.141906e-06	-0.004409257	-0.01795105	-1.036508e-06	-6.594739e-06
	1.862615e-06	-2.141906e-06	-0.06673428	0.01223107	-2.488389e-06	-2.671282e-05	-0.004519527	-0.01700838
	-0.004409256	-0.01795105	-2.488389e-06	-2.671282e-05	-0.06712085	0.01198014	2.191112e-06	2.614867e-08
	-1.036508e-06	-6.594739e-06	-0.004519526	-0.01700838	2.191112e-06	2.614855e-08	-0.06696977	0.01246045
1.6e+08	-0.0564121	0.01746771	3.07198e-06	-2.400944e-06	-0.01015782	-0.008409637	-9.202435e-07	-5.584781e-06
	3.07198e-06	-2.400945e-06	-0.05633046	0.01796025	-1.651249e-06	-2.273824e-05	-0.01020266	-0.007367283
	-0.01015782	-0.008409637	-1.651249e-06	-2.273824e-05	-0.05679068	0.01786026	3.355322e-06	-5.785236e-07
	-9.202435e-07	-5.584781e-06	-0.01020266	-0.007367282	3.355322e-06	-5.785237e-07	-0.05657598	0.0182677
1.7e+08	-0.04541287	0.01962093	3.919226e-06	-3.017432e-06	-0.01253211	0.002816443	-3.458508e-07	-4.98919e-06
	3.919226e-06	-3.017432e-06	-0.04528033	0.02003964	-5.467247e-07	-1.95328e-05	-0.01249165	0.003936812
	-0.01253211	0.002816444	-5.467248e-07	-1.95328e-05	-0.0457678	0.02011684	4.131853e-06	-1.485723e-06
	-3.458508e-07	-4.98919e-06	-0.01249165	0.003936813	4.131853e-06	-1.485723e-06	-0.0455194	0.02043417
1.8e+08	-0.03485363	0.0183029	4.360269e-06	-3.917076e-06	-0.01107543	0.01454062	1.407422e-07	-4.614481e-06
	4.360269e-06	-3.917076e-06	-0.03470519	0.01863589	6.664294e-07	-1.706879e-05	-0.01093734	0.01570968
	-0.01107543	0.01454062	6.664294e-07	-1.706879e-05	-0.03516237	0.01890089	4.481914e-06	-2.624723e-06
	1.407422e-07	-4.614481e-06	-0.01093734	0.01570968	4.481914e-06	-2.624723e-06	-0.0349144	0.0191218
1.9e+08	-0.02568998	0.01399139	4.340914e-06	-4.949716e-06	-0.00574396	0.02546288	5.056101e-07	-4.41502e-06
	4.340914e-06	-4.949716e-06	-0.02556208	0.01423943	1.831028e-06	-1.527856e-05	-0.005506449	0.02664639
	-0.00574396	0.02546288	1.831028e-06	-1.527856e-05	-0.02592701	0.01468193	4.358401e-06	-3.847802e-06
	5.056101e-07	-4.41502e-06	-0.005506449	0.02664639	4.358401e-06	-3.847802e-06	-0.02571366	0.01481172
2e+08	-0.01862886	0.007400069	3.852727e-06	-5.955832e-06	0.00306787	0.03431353	7.227572e-07	-4.337262e-06
	3.852727e-06	-5.955832e-06	-0.01855453	0.007575655	2.815068e-06	-1.40565e-05	0.003394169	0.03547619
	0.00306787	0.03431353	2.815068e-06	-1.40565e-05	-0.01877031	0.008163696	3.765788e-06	-4.997256e-06
	7.227572e-07	-4.337262e-06	0.00339417	0.03547619	3.765788e-06	-4.997255e-06	-0.01862205	0.008218634
2.1e+08	-0.01408195	-0.0006303264	2.938852e-06	-6.781234e-06	0.01455315	0.0400019	7.821669e-07	-4.321016e-06
	2.938852e-06	-6.781234e-06	-0.01408783	-0.0005047822	3.513933e-06	-1.326313e-05	0.01494479	0.0411121
	0.01455315	0.0400019	3.513933e-06	-1.326313e-05	-0.01410991	0.0001779093	2.754757e-06	-5.923577e-06
	7.821669e-07	-4.321016e-06	0.01494479	0.0411121	2.754757e-06	-5.923577e-06	-0.01404935	0.0001823246
2.2e+08	-0.01216179	-0.009243064	1.686841e-06	-7.293923e-06	0.02757065	0.04175006	6.911215e-07	-4.306e-06
	1.686841e-06	-7.293923e-06	-0.01226505	-0.009138708	3.870639e-06	-1.274347e-05	0.02799282	0.04278456
	0.02757065	0.04175006	3.870639e-06	-1.274347e-05	-0.01206833	-0.008425387	1.42099e-06	-6.50201e-06
	6.911215e-07	-4.306e-06	0.02799282	0.04278456	1.42099e-06	-6.50201e-06	-0.01210883	-0.008442366
2.3e+08	-0.01271958	-0.01766313	2.197105e-07	-7.396537e-06	0.04076653	0.03919263	4.746581e-07	-4.237944e-06
	2.197105e-07	-7.396537e-06	-0.01292698	-0.01754855	3.876576e-06	-1.233901e-05	0.04117629	0.04014055
	0.04076654	0.03919263	3.876576e-06	-1.233901e-05	-0.01250848	-0.01687338	-1.066227e-07	-6.644516e-06
	4.746581e-07	-4.237944e-06	0.04117629	0.04014055	-1.066227e-07	-6.644516e-06	-0.01265369	-0.01688133
2.4e+08	-0.01540996	-0.02526634	-1.316369e-06	-7.035046e-06	0.05272347	0.03242757	1.732163e-07	-4.074711e-06
	-1.316369e-06	-7.035046e-06	-0.0157184	-0.0251112	3.571204e-06	-1.190318e-05	0.05307433	0.03329306
	0.05272347	0.03242757	3.571204e-06	-1.190318e-05	-0.01509718	-0.02454064	-1.679194e-06	-6.307647e-06
	1.732162e-07	-4.074711e-06	0.05307433	0.03329306	-1.679194e-06	-6.307647e-06	-0.01534189	-0.02451102
2.5e+08	-0.01976876	-0.0316154	-2.76623e-06	-6.203328e-06	0.06211818	0.02201323	-1.623061e-07	-3.791152e-06
	-2.76623e-06	-6.203328e-06	-0.02016696	-0.03139319	3.035908e-06	-1.13161e-05	0.06236535	0.02281636
	0.06211818	0.02201323	3.035908e-06	-1.13161e-05	-0.01938154	-0.03098356	-3.142531e-06	-5.495864e-06
	-1.623061e-07	-3.791152e-06	0.06236535	0.02281636	-3.142531e-06	-5.495864e-06	-0.01971338	-0.03089209
2.6e+08	-0.02528895	-0.03646313	-3.980405e-06	-4.943503e-06	0.06786722	0.008913338	-4.771376e-07	-3.381657e-06
	-3.980405e-06	-4.943503e-06	-0.02575969	-0.03615298	2.382965e-06	-1.049638e-05	0.06797303	0.00968917
	0.06786722	0.008913338	2.382965e-06	-1.049638e-05	-0.02486331	-0.03594609	-4.351686e-06	-4.260389e-06
	-4.771376e-07	-3.381657e-06	0.06797303	0.00968917	-4.351686e-06	-4.260389e-06	-0.02526499	-0.03577417
2.7e+08	-0.03148402	-0.03973162	-4.829148e-06	-3.341837e-06	0.06924417	-0.005602102	-7.196699e-07	-2.859831e-06
	-4.829148e-06	-3.341837e-06	-0.03200649	-0.03931903	1.741117e-06	-9.408333e-06	0.06918286	-0.004806084
	0.06924417	-0.005602102	1.741117e-06	-9.408333e-06	-0.03106153	-0.03933851	-5.184155e-06	-2.693779e-06
	-7.196699e-07	-2.859831e-06	0.06918286	-0.004806084	-5.184155e-06	-2.693779e-06	-0.03151317	-0.0390737
2.8e+08	-0.03793383	-0.04147458	-5.214807e-06	-1.520902e-06	0.06595945	-0.02008569	-8.475716e-07	-2.255546e-06
	-5.214807e-06	-1.520902e-06	-0.0384857	-0.04095148	1.240079e-06	-8.063673e-06	0.06572107	-0.01921376
	0.06595945	-0.02008569	1.240079e-06	-8.063673e-06	-0.03755753	-0.04120138	-5.550852e-06	-9.212372e-07
	-8.475716e-07	-2.255546e-06	0.06572107	-0.01921377	-5.550852e-06	-9.212372e-07	-0.03803865	-0.04083712
2.9e+08	-0.04430936	-0.04183227	-5.081267e-06	3.717373e-07	0.05819467	-0.03305878	-8.320643e-07	-1.610109e-06
	-5.081267e-06	3.717373e-07	-0.04486855	-0.04119641	9.95619e-07	-6.518216e-06	0.05778764	-0.03205207
	0.05819467	-0.03305878	9.95619e-07	-6.518216e-06	-0.04402013	-0.04166246	-5.403919e-06	9.107907e-07
	-8.320643e-07	-1.610109e-06	0.05778764	-0.03205207	-5.403919e-06	9.107908e-07	-0.04451126	-0.04119714
3e+08	-0.05038022	-0.04098622	-4.419524e-06	2.177124e-06	0.04659064	-0.0431598	-6.597731e-07	-9.707288e-07
	-4.419524e-06	2.177124e-06	-0.0509262	-0.04024035	1.097243e-06	-4.864455e-06	0.04604261	-0.04196226
	0.04659064	-0.0431598	1.097243e-06	-4.864455e-06	-0.05021274	-0.04089164	-4.74087e-06	2.647568e-06
	-6.597731e-07	-9.707288e-07	0.04604261	-0.04196226	-4.74087e-06	2.647568e-06	-0.05069641	-0.04032734
3.1e+08	-0.05600558	-0.03911864	-3.269075e-06	3.73956e-06	0.03219177	-0.04928287	-3.325109e-07	-3.854068e-07
	-3.269075e-06	3.73956e-06	-0.05652025	-0.03826938	1.598963e-06	-3.221373e-06	0.03154876	-0.04784758
	0.03219177	-0.04928287	1.598963e-06	-3.221373e-06	-0.05598593	-0.03906179	-3.605027e-06	4.139546e-06
	-3.325109e-07	-3.854068e-07	0.03154876	-0.04784758	-3.605027e-06	4.139546e-06	-0.05644693	-0.03840291
3.2e+08	-0.06111285	-0.03638042	-1.714682e-06	4.920912e-06	0.01634986	-0.05069334	1.343752e-07	1.01008e-07
	-1.714682e-06	4.920912e-06	-0.06158098	-0.03543715	2.513424e-06	-1.722749e-06	0.0156733	-0.04898849
	0.01634986	-0.05069334	2.513424e-06	-1.722749e-06	-0.06125498	-0.03631662	-2.082078e-06	5.255311e-06
	1.343752e-07	1.01008e-07	0.0156733	-0.04898849	-2.082078e-06	5.255311e-06	-0.06168008	-0.03556871
3.3e+08	-0.06566533	-0.032871	1.20841e-07	5.613173e-06	0.0005960881	-0.04710939	7.141116e-07	4.494376e-07
	1.20841e-07	5.613173e-06	-0.06607445	-0.03184468	3.809188e-06	-5.045825e-07	-4.218774e-05	-0.04512356
	0.000596088	-0.04710939	3.809188e-06	-5.045825e-07	-0.06597038	-0.03275245	-2.931976e-07	5.893006e-06
	7.141116e-07	4.494376e-07	-4.218782e-05	-0.04512356	-2.931976e-07	5.893006e-06	-0.06634745	-0.0319215
3.4e+08	-0.06962525	-0.02863362	2.087104e-06	5.748406e-06	-0.01350881	-0.03874209	1.370298e-06	6.282601e-07
	2.087104e-06	5.748406e-06	-0.06996525	-0.02753608	5.410894e-06	3.076766e-07	-0.01403344	-0.03648767
	-0.01350881	-0.03874209	5.410894e-06	3.076766e-07	-0.0700801	-0.02841334	1.614667e-06	5.989563e-06
	1.370299e-06	6.282602e-07	-0.01403344	-0.03648767	1.614667e-06	5.989563e-06	-0.07039702	-0.02750571
3.5e+08	-0.07291701	-0.02366917	4.018991e-06	5.304918e-06	-0.02453115	-0.02628481	2.058242e-06	6.148123e-07
	4.018991e-06	5.304918e-06	-0.07317928	-0.02251267	7.202861e-06	6.1201e-07	-0.0248714	-0.02379916
	-0.02453115	-0.02628481	7.202861e-06	6.1201e-07	-0.07349542	-0.02330437	3.480862e-06	5.526717e-06
	2.058242e-06	6.148123e-07	-0.0248714	-0.02379916	3.480862e-06	5.526717e-06	-0.07373909	-0.02232755
3.6e+08	-0.07539897	-0.01796645	5.750529e-06	4.309681e-06	-0.03131282	-0.01085386	2.726076e-06	3.974229e-07
	5.750529e-06	4.309681e-06	-0.07557577	-0.016764	9.035915e-06	3.420665e-07	-0.03141113	-0.008197477
	-0.03131282	-0.01085386	9.035915e-06	3.420665e-07	-0.07606215	-0.01742293	5.144413e-06	4.533635e-06
	2.726076e-06	3.974229e-07	-0.03141113	-0.008197477	5.144413e-06	4.533635e-06	-0.07621801	-0.01638696
3.7e+08	-0.07685138	-0.01154746	7.128781e-06	2.836653e-06	-0.03309369	0.006117986	3.31658e-06	-2.184762e-08
	7.128781e-06	2.836653e-06	-0.07693537	-0.0103137	1.073816e-05	-5.221046e-07	-0.03291341	0.00886638
	-0.03309369	0.006117986	1.073816e-05	-5.221046e-07	-0.07755107	-0.01080302	6.457823e-06	3.085449e-06
	3.31658e-06	-2.184762e-08	-0.03291341	0.00886638	6.457823e-06	3.085449e-06	-0.07760364	-0.009722352
3.8e+08	-0.0769882	-0.004517237	8.02656e-06	1.001479e-06	-0.02959286	0.02302167	3.770491e-06	-6.241868e-07
	8.02656e-06	1.001479e-06	-0.07697286	-0.003269603	1.212947e-05	-1.946531e-06	-0.02912402	0.02577265
	-0.02959286	0.02302167	1.212947e-05	-1.946531e-06	-0.07767025	-0.003564105	7.29993e-06	1.29796e-06
	3.770491e-06	-6.241868e-07	-0.02912402	0.02577265	7.29993e-06	1.29796e-06	-0.07760467	-0.002459277
3.9e+08	-0.07549301	0.002890972	8.353388e-06	-1.046896e-06	-0.0210418	0.03823102	4.0318e-06	-1.3717e-06
	8.353388e-06	-1.046896e-06	-0.07537388	0.004131282	1.303863e-05	-3.840015e-06	-0.02030399	0.04089388
	-0.0210418	0.03823102	1.303863e-05	-3.840015e-06	-0.07610209	0.004043495	7.587034e-06	-6.811674e-07
	4.0318e-06	-1.3717e-06	-0.02030399	0.04089388	7.587034e-06	-6.811674e-07	-0.07590671	0.005144842
4e+08	-0.07207984	0.01028795	8.06389e-06	-3.137388e-06	-0.008162737	0.05026331	4.054798e-06	-2.207253e-06
	8.06389e-06	-3.137388e-06	-0.07185664	0.01149547	1.33222e-05	-6.056816e-06	-0.007204555	0.05275593
	-0.008162737	0.05026331	1.33222e-05	-6.056816e-06	-0.07256464	0.01161477	7.281036e-06	-2.684321e-06
	4.054798e-06	-2.207253e-06	-0.007204555	0.05275593	7.281036e-06	-2.684321e-06	-0.07223432	0.01267813
4.1e+08	-0.06656618	0.01712997	7.163277e-06	-5.089904e-06	0.007899706	0.05792223	3.811691e-06	-3.057375e-06
	7.163277e-06	-5.089904e-06	-0.06624514	0.01827579	1.288235e-05	-8.405615e-06	0.009004552	0.06018036
	0.007899706	0.05792223	1.288235e-05	-8.405615e-06	-0.06688374	0.01859091	6.394067e-06	-4.537726e-06
	3.811691e-06	-3.057375e-06	0.009004552	0.06018036	6.394067e-06	-4.537726e-06	-0.0664231	0.01957654
4.2e+08	-0.05894412	0.02275195	5.709197e-06	-6.730082e-06	0.02568669	0.06041207	3.299101e-06	-3.838649e-06
	5.709197e-06	-6.730082e-06	-0.05854033	0.02380558	1.168146e-05	-1.066458e-05	0.02684624	0.06239669
	0.02568669	0.06041207	1.168146e-05	-1.066458e-05	-0.05906485	0.02429483	4.989005e-06	-6.076437e-06
	3.299101e-06	-3.838649e-06	0.02684624	0.06239669	4.989005e-06	-6.076437e-06	-0.05849107	0.0251609
4.3e+08	-0.04944108	0.02643376	3.809379e-06	-7.904678e-06	0.04356056	0.05741182	2.541875e-06	-4.466983e-06
	3.809379e-06	-7.904678e-06	-0.04897991	0.02736609	9.751758e-06	-1.260145e-05	0.04467315	0.05911396
	0.04356056	0.05741182	9.751758e-06	-1.260145e-05	-0.04935178	0.02799925	3.17553e-06	-7.159199e-06
	2.541875e-06	-4.466983e-06	0.04467315	0.05911396	3.17553e-06	-7.159199e-06	-0.04869609	0.02870587
4.4e+08	-0.03854926	0.02748993	1.614652e-06	-8.496484e-06	0.05985304	0.04910765	1.592774e-06	-4.868193e-06
	1.614652e-06	-8.496484e-06	-0.03806681	0.02827694	7.197656e-06	-1.399628e-05	0.06081715	0.05055014
	0.05985304	0.04910765	7.197656e-06	-1.399628e-05	-0.03825473	0.02901616	1.101841e-06	-7.68192e-06
	1.592774e-06	-4.868193e-06	0.06081715	0.05055014	1.101841e-06	-7.68192e-06	-0.03756259	0.02953026
4.5e+08	-0.02702083	0.02537004	-6.930131e-07	-8.437145e-06	0.07301706	0.03618149	5.277449e-07	-4.987977e-06
	-6.930131e-07	-8.437145e-06	-0.02656303	0.02599663	4.190402e-06	-1.466435e-05	0.07374099	0.0374178
	0.07301706	0.03618149	4.190402e-06	-1.466435e-05	-0.02654403	0.02679855	-1.057835e-06	-7.588462e-06
	5.277449e-07	-4.987977e-06	0.07374099	0.0374178	-1.057835e-06	-7.588462e-06	-0.02587378	0.02709877
4.6e+08	-0.0158238	0.0197586	-2.916724e-06	-7.715934e-06	0.08176928	0.01975709	-5.625521e-07	-4.79933e-06
	-2.916724e-06	-7.715934e-06	-0.01544418	0.02022224	9.553327e-07	-1.447694e-05	0.08218003	0.02086725
	0.08176928	0.01975709	9.553327e-07	-1.447694e-05	-0.01520394	0.02103986	-3.118909e-06	-6.877153e-06
	-5.625521e-07	-4.79933e-06	0.08218003	0.02086725	-3.118909e-06	-6.877153e-06	-0.01462389	0.02112114
4.7e+08	-0.006061074	0.01065733	-4.863721e-06	-6.382793e-06	0.0852142	0.001306526	-1.583474e-06	-4.305861e-06
	-4.863721e-06	-6.382793e-06	-0.00581744	0.01097127	-2.247165e-06	-1.337674e-05	0.08526483	0.002390819
	0.0852142	0.001306526	-2.247165e-06	-1.337674e-05	-0.005350811	0.01175379	-4.9039e-06	-5.601987e-06
	-1.583474e-06	-4.305861e-06	0.08526483	0.002390819	-4.9039e-06	-5.601987e-06	-0.004934856	0.01163151
4.8e+08	0.001139996	-0.001566712	-6.36488e-06	-4.544404e-06	0.08293768	-0.01747752	-2.447277e-06	-3.540513e-06
