!$
! Info: Touchstone file created by Circ.  Input file=Intel_C2M_200G_13p5in_202208016_staggered.circ
!$
# Hz S RI R 50
0	0.03206835	6.393847e-24	0.0001251508	1.970094e-22	0.0001671704	3.869436e-22	0.0001250875	1.967185e-22
	0.0001251508	1.970094e-22	0.03208111	6.543159e-24	0.0001251352	1.96865e-22	0.0001667949	3.839927e-22
	0.0001672265	3.870671e-22	0.0001251352	1.968671e-22	0.03206333	6.068795e-24	0.0001251013	1.965786e-22
	0.0001250875	1.967206e-22	0.0001668509	3.841169e-22	0.0001251013	1.965786e-22	0.03207912	6.182997e-24
1e+07	0.03906661	-0.009033545	2.441551e-05	9.324812e-06	0.002941069	0.009186384	6.458014e-06	3.108423e-05
	2.441551e-05	9.324812e-06	0.03858324	-0.009402241	7.694501e-05	5.418786e-06	0.003392707	0.009241697
	0.002941069	0.009186384	7.694501e-05	5.418786e-06	0.03959679	-0.009109876	3.416824e-05	3.529818e-05
	6.458014e-06	3.108423e-05	0.003392707	0.009241697	3.416824e-05	3.529818e-05	0.03832859	-0.009361293
2e+07	0.04063942	-0.02533826	1.430104e-05	3.092737e-05	0.00832804	0.01624236	6.796055e-06	7.534761e-06
	1.430104e-05	3.092737e-05	0.03980129	-0.02567683	5.556677e-05	2.661647e-05	0.00870413	0.01619312
	0.008328044	0.01624234	5.556677e-05	2.661647e-05	0.04092889	-0.0255944	2.68435e-05	2.689716e-05
	6.796055e-06	7.53476e-06	0.008704134	0.01619311	2.68435e-05	2.689716e-05	0.03962532	-0.02551292
3e+07	0.03514606	-0.04313381	4.06232e-05	3.002117e-05	0.0159049	0.02077927	8.229798e-06	6.785429e-07
	4.06232e-05	3.002117e-05	0.03406894	-0.04328924	4.612997e-05	4.223444e-05	0.0162198	0.02071618
	0.0159049	0.02077931	4.612997e-05	4.223444e-05	0.03527529	-0.04336279	2.365221e-05	2.573278e-05
	8.229801e-06	6.785419e-07	0.0162198	0.02071623	2.365221e-05	2.573278e-05	0.03396623	-0.04306953
4e+07	0.02379388	-0.0587912	5.863167e-05	1.809622e-05	0.02460536	0.02207269	9.826244e-06	-2.662946e-06
	5.863167e-05	1.809622e-05	0.02257576	-0.0586943	4.071628e-05	4.94306e-05	0.02486556	0.0220171
	0.02460537	0.02207271	4.071628e-05	4.94306e-05	0.02382721	-0.0589479	2.206794e-05	2.472022e-05
	9.826245e-06	-2.662947e-06	0.02486557	0.02201712	2.206794e-05	2.472022e-05	0.02254718	-0.05845655
5e+07	0.008184647	-0.07041649	6.794984e-05	7.832505e-07	0.03317305	0.0200006	1.149706e-05	-4.735081e-06
	6.794984e-05	7.8325e-07	0.006918656	-0.07003726	5.801333e-05	3.16779e-05	0.03338158	0.01996223
	0.03317306	0.0200006	5.801333e-05	3.16779e-05	0.008169973	-0.07048931	2.774287e-05	1.575029e-05
	1.149706e-05	-4.735082e-06	0.03338159	0.01996223	2.774287e-05	1.575029e-05	0.006953834	-0.06980864
6e+07	-0.009941164	-0.07696718	6.959801e-05	-1.787794e-05	0.0404037	0.01485448	1.173671e-05	-7.508462e-06
	6.959801e-05	-1.787794e-05	-0.01116866	-0.07630507	6.589607e-05	1.110594e-05	0.04056011	0.01483877
	0.04040369	0.01485446	6.589607e-05	1.110594e-05	-0.009968371	-0.07696289	3.014969e-05	5.945438e-06
	1.173671e-05	-7.50846e-06	0.0405601	0.01483875	3.014969e-05	5.945439e-06	-0.01108599	-0.07610551
7e+07	-0.02876436	-0.07804366	6.460388e-05	-3.532535e-05	0.04528569	0.007330835	1.069303e-05	-1.031605e-05
	6.460388e-05	-3.532535e-05	-0.02987724	-0.07712123	6.524299e-05	-9.148391e-06	0.04538639	0.007342638
	0.04528568	0.007330833	6.524299e-05	-9.148392e-06	-0.02878221	-0.07797887	2.918988e-05	-3.332767e-06
	1.069303e-05	-1.031605e-05	0.04538639	0.007342636	2.918988e-05	-3.332767e-06	-0.02976769	-0.07696367
8e+07	-0.0465361	-0.07385468	5.429617e-05	-4.981674e-05	0.04712916	-0.001576236	8.586877e-06	-1.270768e-05
	5.429617e-05	-4.981674e-05	-0.04747068	-0.07271198	5.737015e-05	-2.675595e-05	0.04716801	-0.001530196
	0.04712916	-0.001576235	5.737015e-05	-2.675595e-05	-0.04653503	-0.07374872	2.540418e-05	-1.126024e-05
	8.586877e-06	-1.270768e-05	0.04716802	-0.001530194	2.540418e-05	-1.126024e-05	-0.0473572	-0.0726019
9e+07	-0.06174643	-0.06512738	4.008947e-05	-6.027333e-05	0.04563631	-0.01071194	5.758652e-06	-1.434858e-05
	4.008947e-05	-6.027333e-05	-0.06245118	-0.06381727	4.428618e-05	-3.990757e-05	0.0456053	-0.01062127
	0.04563632	-0.01071194	4.428618e-05	-3.990757e-05	-0.0617258	-0.06499677	1.948673e-05	-1.717814e-05
	5.758651e-06	-1.434858e-05	0.04560531	-0.01062127	1.948673e-05	-1.717814e-05	-0.06235735	-0.06375159
1e+08	-0.07320539	-0.05296858	2.225927e-05	-6.620843e-05	0.04091575	-0.01890481	2.545973e-06	-1.505909e-05
	2.225927e-05	-6.620843e-05	-0.07362565	-0.05155164	2.640822e-05	-4.786509e-05	0.04080671	-0.01875457
	0.04091575	-0.01890481	2.640822e-05	-4.786509e-05	-0.07316189	-0.05282315	1.176587e-05	-2.073522e-05
	2.545973e-06	-1.505909e-05	0.04080671	-0.01875457	1.176587e-05	-2.073522e-05	-0.07357339	-0.05151931
1.1e+08	-0.08034015	-0.03892872	5.659581e-06	-6.232942e-05	0.03343847	-0.02507988	-2.424095e-07	-1.505033e-05
	5.659582e-06	-6.232942e-05	-0.0804857	-0.03755276	9.978629e-06	-4.420536e-05	0.0332451	-0.02484162
	0.03343847	-0.02507988	9.97863e-06	-4.420536e-05	-0.08034097	-0.0388436	4.496655e-06	-2.001667e-05
	-2.424092e-07	-1.505033e-05	0.0332451	-0.02484162	4.496655e-06	-2.001667e-05	-0.08053621	-0.037563
1.2e+08	-0.08297762	-0.02419602	-6.559473e-06	-5.648098e-05	0.02408507	-0.02836799	-2.608731e-06	-1.486627e-05
	-6.559473e-06	-5.648098e-05	-0.08291648	-0.02290154	-9.383648e-07	-3.836171e-05	0.02381994	-0.02801193
	0.02408507	-0.02836799	-9.383646e-07	-3.836171e-05	-0.08304219	-0.02409375	-1.110325e-06	-1.821082e-05
	-2.608731e-06	-1.486627e-05	0.02381993	-0.02801193	-1.110325e-06	-1.821082e-05	-0.08305196	-0.0228717
1.3e+08	-0.08123342	-0.01014815	-1.449681e-05	-4.959175e-05	0.01391312	-0.02827985	-5.67128e-06	-1.425188e-05
	-1.449681e-05	-4.959175e-05	-0.08100964	-0.008962142	-8.945527e-06	-3.146739e-05	0.01359912	-0.02778132
	0.01391312	-0.02827985	-8.945527e-06	-3.146739e-05	-0.08134555	-0.01000065	-5.743384e-06	-1.558544e-05
	-5.67128e-06	-1.425188e-05	0.01359912	-0.02778132	-5.743384e-06	-1.558544e-05	-0.08119471	-0.008868775
1.4e+08	-0.07566845	0.002002079	-1.919397e-05	-4.226138e-05	0.004092672	-0.02468319	-9.22138e-06	-1.278397e-05
	-1.919397e-05	-4.226138e-05	-0.0753228	0.003060309	-1.470954e-05	-2.394857e-05	0.003761927	-0.0240257
	0.004092673	-0.02468319	-1.470954e-05	-2.394857e-05	-0.07582012	0.002206114	-9.496082e-06	-1.22907e-05
	-9.221381e-06	-1.278397e-05	0.003761928	-0.0240257	-9.496082e-06	-1.22907e-05	-0.07553807	0.003219826
1.5e+08	-0.06716125	0.01131248	-2.329111e-05	-3.411759e-05	-0.004210401	-0.01782969	-1.270332e-05	-1.029278e-05
	-2.329111e-05	-3.411759e-05	-0.06673428	0.01223107	-1.834676e-05	-1.622102e-05	-0.004519527	-0.01700838
	-0.0042104	-0.01782969	-1.834676e-05	-1.622102e-05	-0.06734762	0.01158696	-1.240706e-05	-8.453122e-06
	-1.270332e-05	-1.029278e-05	-0.004519526	-0.01700838	-1.240706e-05	-8.453122e-06	-0.06696977	0.01246045
1.6e+08	-0.05679799	0.01718495	-2.635192e-05	-2.513055e-05	-0.009955377	-0.008343294	-1.578693e-05	-6.713462e-06
	-2.635192e-05	-2.513055e-05	-0.05633046	0.01796025	-2.016371e-05	-8.606481e-06	-0.01020266	-0.007367283
	-0.009955376	-0.008343294	-2.016371e-05	-8.606481e-06	-0.05700905	0.01754787	-1.445761e-05	-4.178265e-06
	-1.578693e-05	-6.713462e-06	-0.01020266	-0.007367282	-1.445761e-05	-4.178265e-06	-0.05657598	0.0182677
1.7e+08	-0.04574883	0.0194023	-2.796407e-05	-1.528376e-05	-0.01234296	0.002829884	-1.810039e-05	-2.058965e-06
	-2.796407e-05	-1.528376e-05	-0.04528033	0.02003964	-1.969822e-05	-1.554453e-06	-0.01249165	0.003936812
	-0.01234296	0.002829885	-1.969822e-05	-1.554453e-06	-0.04596433	0.01987061	-1.539412e-05	4.859889e-07
	-1.810039e-05	-2.058965e-06	-0.01249165	0.003936813	-1.539412e-05	4.859889e-07	-0.0455194	0.02043417
1.8e+08	-0.03513851	0.018122	-2.76107e-05	-4.944286e-06	-0.01091498	0.01450887	-1.923276e-05	3.503085e-06
	-2.76107e-05	-4.944286e-06	-0.03470519	0.01863589	-1.772126e-05	5.024867e-06	-0.01093734	0.01570968
	-0.01091498	0.01450887	-1.772126e-05	5.024867e-06	-0.03532858	0.01870526	-1.508142e-05	5.36685e-06
	-1.923276e-05	3.503085e-06	-0.01093734	0.01570968	-1.508142e-05	5.36685e-06	-0.0349144	0.0191218
1.9e+08	-0.0259301	0.01382625	-2.498763e-05	5.287283e-06	-0.00562421	0.02539832	-1.884062e-05	9.591857e-06
	-2.498763e-05	5.287283e-06	-0.02556208	0.01423943	-1.47861e-05	1.113617e-05	-0.005506449	0.02664639
	-0.00562421	0.02539832	-1.47861e-05	1.113617e-05	-0.02605919	0.01452155	-1.37191e-05	1.028113e-05
	-1.884062e-05	9.591857e-06	-0.005506449	0.02664639	-1.37191e-05	1.028113e-05	-0.02571366	0.01481172
2e+08	-0.01883546	0.007234473	-1.99944e-05	1.479896e-05	0.003139721	0.03423172	-1.669838e-05	1.576799e-05
	-1.99944e-05	1.479896e-05	-0.01855453	0.007575655	-1.088418e-05	1.659214e-05	0.003394169	0.03547619
	0.003139721	0.03423172	-1.088418e-05	1.659214e-05	-0.01886929	0.008024918	-1.122591e-05	1.496613e-05
	-1.669838e-05	1.576799e-05	0.00339417	0.03547619	-1.122591e-05	1.496613e-05	-0.01862205	0.008218634
2.1e+08	-0.01426945	-0.0008057409	-1.272455e-05	2.293223e-05	0.01457544	0.0399197	-1.270854e-05	2.150422e-05
	-1.272455e-05	2.293223e-05	-0.01408783	-0.0005047822	-6.053102e-06	2.118226e-05	0.01494479	0.0411121
	0.01457544	0.0399197	-6.053102e-06	2.118226e-05	-0.01417935	4.927596e-05	-7.581634e-06	1.911391e-05
	-1.270854e-05	2.150422e-05	0.01494479	0.0411121	-7.581634e-06	1.911391e-05	-0.01404935	0.0001823246
2.2e+08	-0.01234474	-0.009430955	-3.472025e-06	2.903152e-05	0.02754725	0.04168369	-6.934675e-06	2.622433e-05
	-3.472025e-06	2.903152e-05	-0.01226505	-0.009138708	-3.843015e-07	2.465562e-05	0.02799282	0.04278456
	0.02754725	0.04168369	-3.843015e-07	2.465562e-05	-0.0121142	-0.008552409	-2.853038e-06	2.238205e-05
	-6.934675e-06	2.622433e-05	0.02799282	0.04278456	-2.853038e-06	2.238205e-05	-0.01210883	-0.008442366
2.3e+08	-0.01291042	-0.01786047	7.266823e-06	3.250699e-05	0.04070622	0.03915593	3.803708e-07	2.934981e-05
	7.266823e-06	3.250699e-05	-0.01292698	-0.01754855	5.946217e-06	2.674234e-05	0.04117629	0.04014055
	0.04070622	0.03915593	5.946217e-06	2.674234e-05	-0.01253793	-0.01700412	2.78195e-06	2.441574e-05
	3.803708e-07	2.934981e-05	0.04117629	0.04014055	2.78195e-06	2.441574e-05	-0.01265369	-0.01688133
2.4e+08	-0.01561746	-0.02546604	1.880889e-05	3.289225e-05	0.05263883	0.03243062	8.802166e-06	3.035489e-05
	1.880889e-05	3.289225e-05	-0.0157184	-0.0251112	1.265084e-05	2.718519e-05	0.05307433	0.03329306
	0.05263883	0.03243062	1.265084e-05	2.718519e-05	-0.01511734	-0.02467729	9.018149e-06	2.488776e-05
	8.802166e-06	3.035489e-05	0.05307433	0.03329306	9.018149e-06	2.488776e-05	-0.01534189	-0.02451102
2.5e+08	-0.01999719	-0.03180818	3.031307e-05	2.990027e-05	0.06202414	0.02206139	1.771504e-05	2.882933e-05
	3.031307e-05	2.990027e-05	-0.02016696	-0.03139319	1.932574e-05	2.578694e-05	0.06236535	0.02281636
	0.06202414	0.02206139	1.932574e-05	2.578694e-05	-0.01939859	-0.03112574	1.542009e-05	2.354877e-05
	1.771504e-05	2.882933e-05	0.06236535	0.02281636	1.542009e-05	2.354877e-05	-0.01971338	-0.03089209
2.6e+08	-0.02553801	-0.03663949	4.082325e-05	2.347564e-05	0.06777941	0.009006853	2.634899e-05	2.454271e-05
	4.082325e-05	2.347564e-05	-0.02575969	-0.03615298	2.546348e-05	2.246436e-05	0.06797303	0.00968917
	0.06777941	0.009006853	2.546348e-05	2.246436e-05	-0.02488179	-0.03609157	2.144644e-05	2.02814e-05
	2.634899e-05	2.454271e-05	0.06797303	0.00968917	2.144644e-05	2.02814e-05	-0.02526499	-0.03577417
2.7e+08	-0.0317494	-0.03988335	4.933028e-05	1.384097e-05	0.06917731	-0.005467987	3.383246e-05	1.75038e-05
	4.933028e-05	1.384097e-05	-0.03200649	-0.03931903	3.04931e-05	1.729532e-05	0.06918286	-0.004806084
	0.06917731	-0.005467987	3.04931e-05	1.729532e-05	-0.03108406	-0.0394841	2.649529e-05	1.514454e-05
	3.383246e-05	1.75038e-05	0.06918286	-0.004806084	2.649529e-05	1.514454e-05	-0.03151317	-0.0390737
2.8e+08	-0.0382082	-0.04159618	5.485227e-05	1.532416e-06	0.06592581	-0.01992023	3.926776e-05	8.006806e-06
	5.485227e-05	1.532416e-06	-0.0384857	-0.04095148	3.384033e-05	1.054953e-05	0.06572107	-0.01921376
	0.06592581	-0.01992023	3.384033e-05	1.054953e-05	-0.03758485	-0.0413437	2.996774e-05	8.401325e-06
	3.926776e-05	8.006806e-06	0.06572107	-0.01921377	2.996774e-05	8.401325e-06	-0.03803865	-0.04083712
2.9e+08	-0.04458364	-0.04192168	5.653889e-05	-1.25928e-05	0.05820278	-0.03287459	4.183045e-05	-3.34939e-06
	5.653889e-05	-1.25928e-05	-0.04486855	-0.04119641	3.499896e-05	2.695507e-06	0.05778764	-0.03205207
	0.05820278	-0.03287459	3.499896e-05	2.695508e-06	-0.04405134	-0.04179867	3.134323e-05	5.164113e-07
	4.183045e-05	-3.34939e-06	0.05778764	-0.03205207	3.134323e-05	5.164113e-07	-0.04451126	-0.04119714
3e+08	-0.05064502	-0.04104512	5.378489e-05	-2.738544e-05	0.04664438	-0.04297152	4.08775e-05	-1.567998e-05
	5.378489e-05	-2.738544e-05	-0.0509262	-0.04024035	3.360412e-05	-5.624718e-06	0.04604261	-0.04196226
	0.04664438	-0.04297152	3.360412e-05	-5.624718e-06	-0.05024582	-0.04101987	3.024953e-05	-7.872644e-06
	4.08775e-05	-1.567998e-05	0.04604261	-0.04196226	3.024953e-05	-7.872644e-06	-0.05069641	-0.04032734
3.1e+08	-0.05625262	-0.03915235	4.634257e-05	-4.147195e-05	0.03229	-0.04910557	3.605264e-05	-2.787247e-05
	4.634257e-05	-4.147195e-05	-0.05652025	-0.03826938	2.948881e-05	-1.364867e-05	0.03154876	-0.04784758
	0.03229	-0.04910557	2.948881e-05	-1.364867e-05	-0.05601818	-0.0391814	2.651975e-05	-1.600885e-05
	3.605264e-05	-2.787247e-05	0.03154876	-0.04784758	2.651975e-05	-1.600885e-05	-0.05644693	-0.03840291
3.2e+08	-0.06133624	-0.03639723	3.44054e-05	-5.338189e-05	0.01648661	-0.05054071	2.736869e-05	-3.868653e-05
	3.44054e-05	-5.338189e-05	-0.06158098	-0.03543715	2.27245e-05	-2.055553e-05	0.0156733	-0.04898849
	0.01648661	-0.05054071	2.27245e-05	-2.055553e-05	-0.06128359	-0.03642829	2.022436e-05	-2.308852e-05
	2.736869e-05	-3.868653e-05	0.0156733	-0.04898849	2.022436e-05	-2.308852e-05	-0.06168008	-0.03556871
3.3e+08	-0.06586254	-0.03288118	1.865101e-05	-6.169755e-05	0.0007612893	-0.04699242	1.524996e-05	-4.688649e-05
	1.865101e-05	-6.169755e-05	-0.06607445	-0.03184468	1.362991e-05	-2.554783e-05	-4.218774e-05	-0.04512356
	0.0007612893	-0.04699242	1.362991e-05	-2.554783e-05	-0.0659929	-0.03285818	1.168196e-05	-2.833503e-05
	1.524996e-05	-4.688649e-05	-4.218782e-05	-0.04512356	1.168196e-05	-2.833503e-05	-0.06634745	-0.0319215
3.4e+08	-0.0697978	-0.028648	2.182024e-07	-6.522619e-05	-0.01332816	-0.03866772	5.286527e-07	-5.138311e-05
	2.182024e-07	-6.522619e-05	-0.06996525	-0.02753608	2.763031e-06	-2.792164e-05	-0.01403344	-0.03648767
	-0.01332816	-0.03866772	2.763031e-06	-2.792164e-05	-0.07009493	-0.02851622	1.440528e-06	-3.107493e-05
	5.286527e-07	-5.138311e-05	-0.01403344	-0.03648767	1.440528e-06	-3.107493e-05	-0.07039702	-0.02750571
3.5e+08	-0.07307046	-0.02369762	-1.937485e-05	-6.315772e-05	-0.02434948	-0.02625539	-1.562291e-05	-5.137116e-05
	-1.937485e-05	-6.315772e-05	-0.07317928	-0.02251267	-9.108418e-06	-2.713732e-05	-0.0248714	-0.02379916
	-0.02434948	-0.02625539	-9.108418e-06	-2.713732e-05	-0.07350223	-0.02340826	-9.755731e-06	-3.080125e-05
	-1.562291e-05	-5.137116e-05	-0.0248714	-0.02379916	-9.755731e-06	-3.080125e-05	-0.07373909	-0.02232755
3.6e+08	-0.07554249	-0.01801632	-3.837834e-05	-5.517977e-05	-0.03114431	-0.01086693	-3.178883e-05	-4.643416e-05
	-3.837834e-05	-5.517977e-05	-0.07557577	-0.016764	-2.106028e-05	-2.287571e-05	-0.03141113	-0.008197477
	-0.03114431	-0.01086693	-2.106028e-05	-2.287571e-05	-0.0760622	-0.01753196	-2.101633e-05	-2.722665e-05
	-3.178883e-05	-4.643416e-05	-0.03141113	-0.008197477	-2.101633e-05	-2.722664e-05	-0.07621801	-0.01638696
3.7e+08	-0.07699658	-0.01162238	-5.497639e-05	-4.154459e-05	-0.03295084	0.00606923	-4.64506e-05	-3.660944e-05
	-5.497639e-05	-4.154459e-05	-0.07693537	-0.0103137	-3.206382e-05	-1.50872e-05	-0.03291341	0.00886638
	-0.03295084	0.00606923	-3.206382e-05	-1.50872e-05	-0.07754741	-0.01092094	-3.137032e-05	-2.032031e-05
	-4.64506e-05	-3.660944e-05	-0.03291341	0.00886638	-3.137032e-05	-2.032031e-05	-0.07760364	-0.009722352
3.8e+08	-0.07714767	-0.004616246	-6.747768e-05	-2.305464e-05	-0.0294852	0.0229475	-5.813338e-05	-2.240113e-05
	-6.747768e-05	-2.305464e-05	-0.07697286	-0.003269603	-4.106929e-05	-4.019418e-06	-0.02912402	0.02577265
	-0.0294852	0.0229475	-4.106929e-05	-4.019418e-06	-0.0776676	-0.003693519	-3.983075e-05	-1.033608e-05
	-5.813338e-05	-2.240113e-05	-0.02912402	0.02577265	-3.983075e-05	-1.033608e-05	-0.07760467	-0.002459277
3.9e+08	-0.07567851	0.002773578	-7.447575e-05	-1.0076e-06	-0.02097499	0.03814403	-6.554438e-05	-4.74313e-06
	-7.447575e-05	-1.0076e-06	-0.07537388	0.004131282	-4.708579e-05	9.767638e-06	-0.02030399	0.04089388
	-0.02097499	0.03814403	-4.708579e-05	9.767638e-06	-0.07610637	0.003901809	-4.547987e-05	2.187486e-06
	-6.554438e-05	-4.74313e-06	-0.02030399	0.04089388	-4.547987e-05	2.187486e-06	-0.07590671	0.005144842
4e+08	-0.07230067	0.01016206	-7.498186e-05	2.291366e-05	-0.008138186	0.05017703	-6.768794e-05	1.505972e-05
	-7.498186e-05	2.291366e-05	-0.07185664	0.01149547	-4.927509e-05	2.541067e-05	-0.007204555	0.05275593
	-0.008138186	0.05017703	-4.927509e-05	2.541067e-05	-0.07258222	0.01146248	-4.754858e-05	1.643239e-05
	-6.768794e-05	1.505972e-05	-0.007204555	0.05275593	-4.754858e-05	1.643239e-05	-0.07223432	0.01267813
4.1e+08	-0.06682763	0.01700863	-6.85147e-05	4.677951e-05	0.007884868	0.05784976	-6.395733e-05	3.543725e-05
	-6.85147e-05	4.677951e-05	-0.06624514	0.01827579	-4.704704e-05	4.178493e-05	0.009004552	0.06018036
	0.007884868	0.05784976	-4.704704e-05	4.178493e-05	-0.06692047	0.01843229	-4.550156e-05	3.13506e-05
	-6.395733e-05	3.543725e-05	0.009004552	0.06018036	-4.550156e-05	3.13506e-05	-0.0664231	0.01957654
4.2e+08	-0.05924667	0.0226498	-5.514794e-05	6.854985e-05	0.02563929	0.06036486	-5.420364e-05	5.465074e-05
	-5.514794e-05	6.854985e-05	-0.05854033	0.02380558	-4.014556e-05	5.757636e-05	0.02684624	0.06239669
	0.02563929	0.06036486	-4.014556e-05	5.757636e-05	-0.05912498	0.02413656	-3.910974e-05	4.57199e-05
	-5.420364e-05	5.465074e-05	0.02684624	0.06239669	-3.910974e-05	4.57199e-05	-0.05849107	0.0251609
4.3e+08	-0.04977988	0.0263652	-3.552944e-05	8.622212e-05	0.04349054	0.05739848	-3.877396e-05	7.092007e-05
	-3.552944e-05	8.622212e-05	-0.04897991	0.02736609	-2.870658e-05	7.137488e-05	0.04467315	0.05911396
	0.04349054	0.05739848	-2.870658e-05	7.137488e-05	-0.04943694	0.02784968	-2.850835e-05	5.823786e-05
	-3.877396e-05	7.092007e-05	0.04467315	0.05911396	-2.850835e-05	5.823786e-05	-0.04869609	0.02870587
4.4e+08	-0.0389145	0.02746738	-1.08735e-05	9.797734e-05	0.05977248	0.04913314	-1.852915e-05	8.255452e-05
	-1.08735e-05	9.797734e-05	-0.03806681	0.02827694	-1.329799e-05	8.180112e-05	0.06081715	0.05055014
	0.05977248	0.04913314	-1.329799e-05	8.180112e-05	-0.0383634	0.02888429	-1.422668e-05	6.76278e-05
	-1.852915e-05	8.255452e-05	0.06081715	0.05055014	-1.422668e-05	6.76278e-05	-0.03756259	0.02953026
4.5e+08	-0.02739858	0.02540226	1.708099e-05	0.0001023277	0.07293889	0.03624662	5.156977e-06	8.809223e-05
	1.708099e-05	0.0001023277	-0.02656303	0.02599663	5.086596e-06	8.76359e-05	0.07374099	0.0374178
	0.07293889	0.03624662	5.086596e-06	8.76359e-05	-0.02667134	0.02669283	2.817137e-06	7.276102e-05
	5.156977e-06	8.809223e-05	0.07374099	0.0374178	2.817137e-06	7.276102e-05	-0.02587378	0.02709877
4.6e+08	-0.01619733	0.01984934	4.61359e-05	9.827268e-05	0.08170589	0.01985845	3.045106e-05	8.646212e-05
	4.61359e-05	9.827268e-05	-0.01544418	0.02022224	2.507805e-05	8.794966e-05	0.08218003	0.02086725
	0.08170589	0.01985845	2.507805e-05	8.794966e-05	-0.01534197	0.02096685	2.134675e-05	7.277674e-05
	3.045106e-05	8.646212e-05	0.08218003	0.02086725	2.134675e-05	7.277674e-05	-0.01462389	0.02112114
4.7e+08	-0.006412681	0.01080453	7.375846e-05	8.545382e-05	0.08517606	0.001436921	5.516359e-05	7.714082e-05
	7.375846e-05	8.545382e-05	-0.00581744	0.01097127	4.500239e-05	8.222301e-05	0.08526483	0.002390819
	0.08517606	0.001436921	4.500239e-05	8.222301e-05	-0.005489443	0.01171715	3.980794e-05	6.719662e-05
	5.516359e-05	7.714082e-05	0.08526483	0.002390819	3.980794e-05	6.719662e-05	-0.004934856	0.01163151
4.8e+08	0.0008269829	-0.001371092	9.72597e-05	6.429052e-05	0.08293221	-0.01732822	7.690012e-05	6.029146e-05
	9.72597e-05	6.429052e-05	0.001190072	-0.001371032	6.301371e-05	7.044725e-05	0.08261261	-0.01630686
