!$
! Info: Touchstone file created by Circ.  Input file=Intel_C2M_200G_2p5in_202208016_staggered.circ
!$
# Hz S RI R 50
0	0.01352348	1.974163e-24	3.764895e-05	3.88684e-23	8.128346e-05	2.321246e-22	3.758193e-05	3.877527e-23
	3.764895e-05	3.88684e-23	0.01353674	2.167723e-24	3.763117e-05	3.885168e-23	8.089592e-05	2.310008e-22
	8.13417e-05	2.322528e-22	3.763116e-05	3.885255e-23	0.01351827	1.908067e-24	3.759473e-05	3.876045e-23
	3.758192e-05	3.877614e-23	8.095416e-05	2.311295e-22	3.759473e-05	3.876045e-23	0.01353466	2.059279e-24
1e+07	0.01635528	0.004120445	2.641713e-05	6.972626e-06	0.0007875633	0.004264619	2.601203e-06	2.255477e-05
	2.641713e-05	6.972626e-06	0.01628376	0.004110454	2.953899e-05	1.945097e-05	0.0009512716	0.004345243
	0.0007875633	0.004264619	2.953899e-05	1.945097e-05	0.01660829	0.004103472	1.554023e-05	1.596531e-05
	2.601203e-06	2.255477e-05	0.0009512716	0.004345243	1.554023e-05	1.596531e-05	0.01618024	0.004074861
2e+07	0.01888118	0.005946168	1.895278e-05	1.532028e-05	0.001729546	0.008170578	1.325413e-05	2.392378e-05
	1.895278e-05	1.532028e-05	0.01882086	0.005965079	3.240012e-05	2.092318e-05	0.001887309	0.008264028
	0.001729557	0.008170567	3.240012e-05	2.092318e-05	0.01902865	0.005840123	1.588265e-05	1.123529e-05
	1.325413e-05	2.392378e-05	0.001887321	0.008264016	1.588265e-05	1.123529e-05	0.01868136	0.005955913
3e+07	0.02094783	0.006768915	1.853392e-05	2.134983e-05	0.003068599	0.01198622	2.172415e-05	2.48172e-05
	1.853392e-05	2.134983e-05	0.02089802	0.006800184	3.541677e-05	2.353805e-05	0.003225185	0.01211676
	0.003068566	0.01198625	3.541677e-05	2.353805e-05	0.02100947	0.006672932	1.645915e-05	1.076144e-05
	2.172415e-05	2.48172e-05	0.003225153	0.01211679	1.645915e-05	1.076144e-05	0.02072751	0.006832358
4e+07	0.02254735	0.007059396	1.828893e-05	2.418403e-05	0.004875053	0.01556815	2.895929e-05	2.476638e-05
	1.828893e-05	2.418403e-05	0.02250893	0.007100632	3.833503e-05	2.47727e-05	0.005033476	0.01573885
	0.004875044	0.01556817	3.833503e-05	2.47727e-05	0.02254558	0.006998706	1.707183e-05	1.06901e-05
	2.895929e-05	2.476638e-05	0.005033467	0.01573887	1.707183e-05	1.06901e-05	0.02232144	0.007177989
5e+07	0.02378926	0.007096573	1.796553e-05	2.53472e-05	0.007094731	0.01890416	3.540288e-05	2.394171e-05
	1.796553e-05	2.53472e-05	0.02376452	0.007147033	4.525124e-05	2.294457e-05	0.007257337	0.01911509
	0.007094731	0.01890417	4.525124e-05	2.294457e-05	0.02373795	0.007085292	1.908625e-05	9.891987e-06
	3.540288e-05	2.394171e-05	0.007257338	0.0191151	1.908625e-05	9.891987e-06	0.02356729	0.007271958
6e+07	0.02473174	0.006985873	1.740861e-05	2.544466e-05	0.009703741	0.02195625	4.109016e-05	2.21521e-05
	1.740861e-05	2.544466e-05	0.02472397	0.007044901	5.112493e-05	1.994724e-05	0.009872346	0.02220624
	0.009703762	0.02195624	5.112493e-05	1.994724e-05	0.02464293	0.007034029	2.081258e-05	8.837845e-06
	4.109016e-05	2.21521e-05	0.009872367	0.02220624	2.081258e-05	8.837845e-06	0.02452311	0.007219562
7e+07	0.02540033	0.00681229	2.09319e-05	2.384075e-05	0.01266933	0.02468619	4.605092e-05	1.943235e-05
	2.09319e-05	2.384075e-05	0.02541362	0.006878786	5.589437e-05	1.584319e-05	0.01284523	0.02497335
	0.01266933	0.02468619	5.589437e-05	1.584319e-05	0.02528557	0.006927244	2.215631e-05	7.568231e-06
	4.605092e-05	1.943235e-05	0.01284523	0.02497335	2.215631e-05	7.568231e-06	0.02521509	0.007104774
8e+07	0.02582694	0.006654068	2.478992e-05	2.120067e-05	0.01595527	0.02705942	5.03369e-05	1.586596e-05
	2.478992e-05	2.120067e-05	0.02586619	0.006726073	5.956155e-05	1.083196e-05	0.01613919	0.02738134
	0.01595527	0.02705942	5.956155e-05	1.083196e-05	0.02569771	0.006842024	2.311e-05	6.121496e-06
	5.03369e-05	1.586596e-05	0.01613919	0.02738134	2.311e-05	6.121496e-06	0.02567591	0.007005081
9e+07	0.02605598	0.006578633	2.760906e-05	1.781097e-05	0.01952301	0.0290449	5.390574e-05	1.134205e-05
	2.760906e-05	1.781097e-05	0.02612711	0.006652857	6.200383e-05	4.928985e-06	0.01971503	0.02939891
	0.01952301	0.02904491	6.200383e-05	4.928985e-06	0.02592404	0.006845781	2.361893e-05	4.511712e-06
	5.390574e-05	1.134205e-05	0.01971503	0.02939892	2.361893e-05	4.511712e-06	0.02595085	0.006986985
1e+08	0.02615646	0.006669421	2.877796e-05	1.30809e-05	0.02333367	0.03061489	5.633931e-05	4.714536e-06
	2.877796e-05	1.30809e-05	0.0262686	0.006738484	6.253278e-05	-2.734891e-06	0.02353314	0.03099838
	0.02333367	0.03061489	6.253278e-05	-2.734891e-06	0.02603798	0.007029905	2.390594e-05	4.239692e-06
	5.633931e-05	4.714536e-06	0.02353315	0.03099838	2.390594e-05	4.239692e-06	0.02611358	0.007135409
1.1e+08	0.02626631	0.006769596	2.663828e-05	1.078648e-05	0.02735588	0.03173995	5.401101e-05	-8.296123e-08
	2.663828e-05	1.078648e-05	0.02641096	0.006818944	6.0494e-05	-1.66259e-06	0.02756267	0.03215067
	0.02735588	0.03173995	6.0494e-05	-1.662589e-06	0.02626723	0.007201964	2.347738e-05	5.498448e-06
	5.401101e-05	-8.296115e-08	0.02756267	0.03215067	2.347738e-05	5.498448e-06	0.02636621	0.007269653
1.2e+08	0.02621523	0.006982483	2.548985e-05	1.009387e-05	0.03149632	0.03240037	5.300598e-05	-1.267608e-06
	2.548985e-05	1.009387e-05	0.02638887	0.007013115	5.930802e-05	1.878856e-07	0.0317091	0.03283498
	0.03149632	0.03240036	5.930802e-05	1.878857e-07	0.02627866	0.007434827	2.337446e-05	6.559176e-06
	5.300598e-05	-1.267608e-06	0.0317091	0.03283497	2.337446e-05	6.559176e-06	0.02640125	0.007473675
1.3e+08	0.0260859	0.007368334	2.542441e-05	1.012349e-05	0.03572016	0.03259016	5.365474e-05	1.566688e-06
	2.542441e-05	1.012349e-05	0.02628766	0.007378922	5.837966e-05	1.837219e-06	0.03593691	0.03304564
	0.03572016	0.03259016	5.837966e-05	1.837219e-06	0.02618458	0.007839154	2.353237e-05	7.469295e-06
	5.365474e-05	1.566688e-06	0.03593691	0.03304563	2.353237e-05	7.469295e-06	0.02633155	0.007851374
1.4e+08	0.02593284	0.007943227	2.631255e-05	1.063699e-05	0.03998296	0.03230519	5.445159e-05	3.923848e-06
	2.631255e-05	1.063699e-05	0.02616238	0.007932051	5.768394e-05	3.389439e-06	0.04020106	0.03277872
	0.03998296	0.03230518	5.768394e-05	3.389439e-06	0.02606085	0.008437933	2.382255e-05	8.374974e-06
	5.445159e-05	3.923848e-06	0.04020106	0.03277872	2.382255e-05	8.374974e-06	0.02623318	0.008424213
1.5e+08	0.02580395	0.008713663	2.737293e-05	1.12151e-05	0.04423723	0.03154438	5.542031e-05	5.940378e-06
	2.737293e-05	1.12151e-05	0.02606111	0.008678823	5.72137e-05	4.890324e-06	0.04445351	0.03203345
	0.04423723	0.03154438	5.72137e-05	4.890324e-06	0.02596359	0.009233707	2.424954e-05	9.273408e-06
	5.542031e-05	5.940378e-06	0.04445351	0.03203345	2.424954e-05	9.273408e-06	0.02616251	0.009193918
1.6e+08	0.02574407	0.009679192	2.862131e-05	1.181793e-05	0.04843447	0.03031092	5.657585e-05	7.679324e-06
	2.862131e-05	1.181793e-05	0.02602892	0.009618627	5.696754e-05	6.350835e-06	0.0486453	0.03081335
	0.04843447	0.03031092	5.696754e-05	6.350835e-06	0.02594011	0.01022197	2.481656e-05	1.0157e-05
	5.657585e-05	7.679324e-06	0.0486453	0.03081335	2.481656e-05	1.0157e-05	0.02616702	0.01015539
1.7e+08	0.02579675	0.01083312	3.00682e-05	1.240541e-05	0.05252631	0.0286124	5.79273e-05	9.171003e-06
	3.00682e-05	1.240541e-05	0.02610929	0.01074459	5.737132e-05	7.747548e-06	0.05272756	0.0291264
	0.05252631	0.0286124	5.737132e-05	7.747548e-06	0.026033	0.01139311	2.564792e-05	1.100039e-05
	5.79273e-05	9.171003e-06	0.05272756	0.0291264	2.564792e-05	1.100039e-05	0.02628951	0.01129853
1.8e+08	0.02600364	0.01216217	3.172244e-05	1.294524e-05	0.05646519	0.02646102	5.947921e-05	1.042724e-05
	3.172244e-05	1.294524e-05	0.02634399	0.01204323	5.822194e-05	8.984008e-06	0.05665234	0.0269853
	0.05646519	0.02646101	5.822194e-05	8.984008e-06	0.02628216	0.01273233	2.678007e-05	1.175972e-05
	5.947921e-05	1.042724e-05	0.05665234	0.0269853	2.678007e-05	1.175972e-05	0.02656995	0.01260801
1.9e+08	0.0264046	0.01364668	3.359005e-05	1.341166e-05	0.06020512	0.02387396	6.123385e-05	1.145324e-05
	3.359005e-05	1.341166e-05	0.0267728	0.01349465	5.920528e-05	1.005734e-05	0.06037331	0.0244078
	0.06020512	0.02387396	5.920528e-05	1.005734e-05	0.02672527	0.01421933	2.802187e-05	1.242645e-05
	6.123385e-05	1.145324e-05	0.06037331	0.02440779	2.802187e-05	1.242645e-05	0.02704604	0.01406301
2e+08	0.02703616	0.01526038	3.567486e-05	1.377245e-05	0.06370225	0.02087282	6.319016e-05	1.224319e-05
	3.567486e-05	1.377245e-05	0.02743218	0.01507237	6.032729e-05	1.097369e-05	0.06384627	0.02141605
	0.06370225	0.02087282	6.032729e-05	1.097369e-05	0.02739755	0.01582853	2.937721e-05	1.299435e-05
	6.319016e-05	1.224319e-05	0.06384627	0.02141605	2.937721e-05	1.299435e-05	0.02775297	0.0156374
2.1e+08	0.02793053	0.01697176	3.797661e-05	1.399477e-05	0.06691499	0.01748347	6.534367e-05	1.278568e-05
	3.797661e-05	1.399477e-05	0.02835422	0.01674458	6.159179e-05	1.172784e-05	0.06702949	0.01803656
	0.06691499	0.01748347	6.159179e-05	1.172784e-05	0.02832969	0.01752854	3.084886e-05	1.345446e-05
	6.534367e-05	1.278568e-05	0.06702949	0.01803656	3.084886e-05	1.345446e-05	0.02872129	0.01729925
2.2e+08	0.02911554	0.0187434	4.049175e-05	1.404565e-05	0.06980472	0.01373574	6.768698e-05	1.3066e-05
	4.049175e-05	1.404565e-05	0.02956652	0.01847357	6.299996e-05	1.231388e-05	0.06988419	0.01429981
	0.06980472	0.01373574	6.299996e-05	1.231388e-05	0.02954825	0.01928323	3.243823e-05	1.37955e-05
	6.768698e-05	1.3066e-05	0.06988419	0.01429981	3.243823e-05	1.37955e-05	0.02997739	0.01901182
2.3e+08	0.03061344	0.02053385	4.351126e-05	1.426926e-05	0.07233644	0.009663004	7.02074e-05	1.303042e-05
	4.351126e-05	1.426926e-05	0.03109108	0.02021764	6.454912e-05	1.268497e-05	0.07237531	0.01023988
	0.07233644	0.009663004	6.454912e-05	1.268497e-05	0.0310752	0.02105216	3.414327e-05	1.40071e-05
	7.02074e-05	1.303042e-05	0.07237531	0.01023988	3.414327e-05	1.40071e-05	0.0315429	0.02073415
2.4e+08	0.03244041	0.02229807	4.674408e-05	1.422747e-05	0.07447852	0.005302042	7.288869e-05	1.269361e-05
	4.674408e-05	1.422747e-05	0.03294377	0.02193146	6.623372e-05	1.286213e-05	0.07447121	0.005894265
	0.07447852	0.005302042	6.623372e-05	1.286213e-05	0.03292597	0.02279085	3.596402e-05	1.407297e-05
	7.288869e-05	1.269361e-05	0.07447121	0.005894265	3.596402e-05	1.407297e-05	0.03343282	0.0224212
2.5e+08	0.03460606	0.02398805	5.015274e-05	1.386158e-05	0.0762032	0.0006922843	7.571421e-05	1.203791e-05
	5.015274e-05	1.386158e-05	0.03513372	0.0235668	6.804876e-05	1.283254e-05	0.07614428	0.0013031
	0.0762032	0.0006922842	6.804876e-05	1.283254e-05	0.03511021	0.02445257	3.789624e-05	1.397837e-05
	7.571421e-05	1.203791e-05	0.07614428	0.0013031	3.789624e-05	1.397837e-05	0.03565631	0.02402575
2.6e+08	0.03711337	0.02555413	5.371797e-05	1.314311e-05	0.07748738	-0.004124383	7.866399e-05	1.104276e-05
	5.371797e-05	1.314311e-05	0.03766352	0.02507379	6.99867e-05	1.258006e-05	0.0773716	-0.00349103
	0.07748738	-0.004124383	6.99867e-05	1.258006e-05	0.03763069	0.02598803	3.993432e-05	1.370695e-05
	7.866399e-05	1.104276e-05	0.0773716	-0.00349103	3.993432e-05	1.370695e-05	0.03821547	0.02549807
2.7e+08	0.03995864	0.02694559	5.741699e-05	1.204284e-05	0.07831164	-0.009104142	8.171527e-05	9.686862e-06
	5.741699e-05	1.204284e-05	0.04052887	0.02640158	7.203719e-05	1.208645e-05	0.078134	-0.008443564
	0.07831164	-0.009104142	7.203719e-05	1.208645e-05	0.04048365	0.0273473	4.207088e-05	1.324078e-05
	8.171527e-05	9.686862e-06	0.078134	-0.008443564	4.207088e-05	1.324078e-05	0.04110587	0.02678779
2.8e+08	0.04313057	0.02811168	6.122176e-05	1.053425e-05	0.07866139	-0.01420176	8.484148e-05	7.950436e-06
	6.122176e-05	1.053425e-05	0.04371793	0.02749926	7.418765e-05	1.133197e-05	0.07841728	-0.01350864
	0.07866139	-0.01420176	7.418765e-05	1.133197e-05	0.04365807	0.02848057	4.429568e-05	1.256315e-05
	8.484148e-05	7.950436e-06	0.07841728	-0.01350864	4.429568e-05	1.256315e-05	0.04431563	0.02784484
2.9e+08	0.04661139	0.02900262	6.510035e-05	8.591295e-06	0.0785267	-0.019371	8.80131e-05	5.81534e-06
	6.510035e-05	8.591295e-06	0.04721226	0.02831708	7.642188e-05	1.029818e-05	0.07821195	-0.01863933
	0.0785267	-0.019371	7.642188e-05	1.029818e-05	0.04713608	0.02933819	4.659655e-05	1.165606e-05
	8.80131e-05	5.81534e-06	0.07821195	-0.01863933	4.659655e-05	1.165606e-05	0.04782601	0.02861933
3e+08	0.0503763	0.02957046	6.90175e-05	6.187604e-06	0.07790184	-0.02456499	9.119718e-05	3.263805e-06
	6.90175e-05	6.187604e-06	0.05098639	0.02880709	7.872088e-05	8.967383e-06	0.07751277	-0.02378814
	0.07790184	-0.02456499	7.872088e-05	8.967383e-06	0.05089327	0.02987273	4.895891e-05	1.050169e-05
	9.119718e-05	3.263805e-06	0.07751277	-0.02378814	4.895891e-05	1.050169e-05	0.05161164	0.02906375
3.1e+08	0.05439418	0.0297699	7.293285e-05	3.304201e-06	0.07678598	-0.02973692	9.435832e-05	2.806425e-07
	7.293285e-05	3.304201e-06	0.05500847	0.02892415	8.10631e-05	7.318989e-06	0.07631956	-0.02890773
	0.07678598	-0.02973692	8.10631e-05	7.318989e-06	0.05489837	0.03003892	5.136561e-05	9.083621e-06
	9.435832e-05	2.806425e-07	0.07631956	-0.02890773	5.136561e-05	9.083621e-06	0.05564021	0.02913282
3.2e+08	0.05862741	0.02955874	7.680308e-05	-7.994281e-08	0.07518283	-0.03484035	9.745771e-05	-3.146036e-06
	7.680308e-05	-7.994281e-08	0.05924014	0.02862624	8.342351e-05	5.337994e-06	0.07463666	-0.03395112
	0.07518283	-0.03484035	8.342351e-05	5.337994e-06	0.05911394	0.02979573	5.379714e-05	7.383774e-06
	9.745771e-05	-3.146036e-06	0.07463666	-0.03395112	5.379714e-05	7.383774e-06	0.05987323	0.02878569
3.3e+08	0.0630329	0.02889919	8.058094e-05	-3.979561e-06	0.07310021	-0.03982938	0.0001004543	-7.026967e-06
	8.058094e-05	-3.979561e-06	0.06363751	0.02787592	8.57747e-05	3.006507e-06	0.07247266	-0.03887199
	0.07310021	-0.03982938	8.57747e-05	3.006507e-06	0.0634968	0.02910523	5.623133e-05	5.387645e-06
	0.0001004543	-7.026967e-06	0.07247266	-0.03887199	5.623133e-05	5.387645e-06	0.06426638	0.02798474
3.4e+08	0.06756187	0.02775846	8.421604e-05	-8.406809e-06	0.07055052	-0.04465978	0.0001033045	-1.136597e-05
	8.421604e-05	-8.406809e-06	0.06815104	0.02664083	8.808441e-05	3.121827e-07	0.06984076	-0.0436257
	0.07055052	-0.04465978	8.808441e-05	3.121827e-07	0.0679987	0.02793537	5.864358e-05	3.079527e-06
	0.0001033045	-1.136597e-05	0.06984076	-0.0436257	5.864358e-05	3.079527e-06	0.06877031	0.02669833
3.5e+08	0.07216116	0.02610928	8.765584e-05	-1.33663e-05	0.06755	-0.04928846	0.0001059627	-1.616942e-05
	8.765584e-05	-1.33663e-05	0.07272683	0.02489424	9.032155e-05	-2.757614e-06	0.06675806	-0.04816894
	0.06755	-0.04928846	9.032155e-05	-2.757614e-06	0.07256621	0.02625866	6.100654e-05	4.466608e-07
	0.0001059627	-1.616942e-05	0.06675806	-0.04816894	6.100654e-05	4.466608e-07	0.07333052	0.02489964
3.6e+08	0.07677339	0.02393024	9.084311e-05	-1.886369e-05	0.06411908	-0.0536745	0.0001083812	-2.14345e-05
	9.084311e-05	-1.886369e-05	0.07730674	0.02261539	9.244996e-05	-6.216392e-06	0.06324586	-0.05246056
	0.06411908	-0.0536745	9.244996e-05	-6.216392e-06	0.0771423	0.02405468	6.329052e-05	-2.520638e-06
	0.0001083812	-2.14345e-05	0.06324586	-0.05246056	6.329052e-05	-2.520638e-06	0.07788886	0.02256894
3.7e+08	0.08133829	0.02120693	9.372255e-05	-2.489211e-05	0.06028153	-0.05777957	0.0001105113	-2.715502e-05
	9.372255e-05	-2.489211e-05	0.08182978	0.01979067	9.443181e-05	-1.006785e-05	0.05932891	-0.05646215
	0.06028153	-0.05777957	9.443181e-05	-1.006785e-05	0.08166685	0.02130925	6.5463e-05	-5.834236e-06
	0.0001105113	-2.715502e-05	0.05932891	-0.05646215	6.5463e-05	-5.834236e-06	0.08238421	0.01969307
3.8e+08	0.08579284	0.01793159	9.623289e-05	-3.14459e-05	0.05606441	-0.06156752	0.0001123036	-3.33204e-05
	9.623289e-05	-3.14459e-05	0.08623231	0.01641319	9.622624e-05	-1.431835e-05	0.05503516	-0.0601376
	0.05606441	-0.06156752	9.622624e-05	-1.431835e-05	0.08607682	0.01801465	6.749041e-05	-9.497817e-06
	0.0001123036	-3.33204e-05	0.05503516	-0.0601376	6.749041e-05	-9.497817e-06	0.0867526	0.01626539
3.9e+08	0.09007159	0.01410413	9.831473e-05	-3.850991e-05	0.0514983	-0.06500556	0.000113706	-3.991951e-05
	9.831473e-05	-3.850991e-05	0.09044828	0.01248392	9.779055e-05	-1.896959e-05	0.05039623	-0.06345417
	0.0514983	-0.06500556	9.779055e-05	-1.896959e-05	0.09030773	0.01417187	6.93351e-05	-1.351828e-05
	0.000113706	-3.991951e-05	0.05039623	-0.06345417	6.93351e-05	-1.351828e-05	0.09092863	0.01228814
4e+08	0.09410895	0.009731978	9.990779e-05	-4.606131e-05	0.04661592	-0.06806379	0.0001146697	-4.692873e-05
	9.990779e-05	-4.606131e-05	0.09441164	0.008011398	9.908011e-05	-2.401736e-05	0.04544574	-0.06638226
	0.04661592	-0.06806379	9.908011e-05	-2.401736e-05	0.09429402	0.009787832	7.09598e-05	-1.789287e-05
	0.0001146697	-4.692873e-05	0.04544574	-0.06638226	7.09598e-05	-1.789287e-05	0.09484606	0.00776968
4.1e+08	0.0978399	0.004829879	0.0001009511	-5.407594e-05	0.04145266	-0.07071562	0.0001151414	-5.432657e-05
	0.0001009511	-5.407594e-05	0.09805697	0.003011647	0.0001000483	-2.945471e-05	0.04022006	-0.06889556
	0.04145266	-0.07071562	0.0001000483	-2.945471e-05	0.09797078	0.00487793	7.232317e-05	-2.262188e-05
	0.0001151414	-5.432657e-05	0.04022006	-0.06889556	7.232317e-05	-2.262188e-05	0.09843936	0.002726963
4.2e+08	0.1011989	-0.0005788626	0.0001013843	-6.25196e-05	0.03604597	-0.0729384	0.0001150737	-6.208065e-05
	0.0001013843	-6.25196e-05	0.1013185	-0.002490701	0.00010065	-3.527274e-05	0.03475753	-0.0709719
	0.03604597	-0.0729384	0.00010065	-3.527274e-05	0.101273	-0.0005342138	7.338325e-05	-2.769762e-05
	0.0001150737	-6.208065e-05	0.03475753	-0.0709719	7.338325e-05	-2.769762e-05	0.1016431	-0.002814696
4.3e+08	0.1041233	-0.006463802	0.0001011488	-7.135258e-05	0.0304346	-0.07471278	0.0001144177	-7.015537e-05
	0.0001011488	-7.135258e-05	0.1041335	-0.008463795	0.0001008342	-4.145359e-05	0.02909773	-0.07259246
	0.0304346	-0.07471278	0.0001008342	-4.145359e-05	0.1041387	-0.006418311	7.40977e-05	-3.310987e-05
	0.0001144177	-7.015537e-05	0.02909773	-0.07259246	7.40977e-05	-3.310987e-05	0.104395	-0.008823196
4.4e+08	0.1065531	-0.01278735	0.000100191	-8.052828e-05	0.02465888	-0.07602322	0.0001131245	-7.851396e-05
	0.000100191	-8.052828e-05	0.1064421	-0.01486848	0.000100553	-4.797761e-05	0.02328183	-0.07374233
	0.02465888	-0.07602322	0.000100553	-4.797761e-05	0.1065077	-0.01273622	7.44228e-05	-3.884224e-05
	0.0001131245	-7.851396e-05	0.02328183	-0.07374233	7.44228e-05	-3.884224e-05	0.1066351	-0.0152585
4.5e+08	0.1084313	-0.01950363	9.845547e-05	-8.999468e-05	0.01875997	-0.07685814	0.0001111512	-8.710765e-05
	9.845547e-05	-8.999468e-05	0.1081874	-0.02165735	9.975952e-05	-5.481863e-05	0.01735176	-0.07441068
	0.01875997	-0.07685814	9.975952e-05	-5.481863e-05	0.1083237	-0.01944214	7.431176e-05	-4.487808e-05
	0.0001111512	-8.710765e-05	0.01735176	-0.07441068	7.431176e-05	-4.487808e-05	0.108307	-0.02207283
4.6e+08	0.1097053	-0.02656031	9.589171e-05	-9.969237e-05	0.01277959	-0.07720961	0.000108456	-9.588414e-05
	9.589171e-05	-9.969237e-05	0.1093173	-0.02877647	9.840182e-05	-6.194907e-05	0.01134983	-0.0745904
	0.01277959	-0.07720961	9.840182e-05	-6.194907e-05	0.1095347	-0.02648418	7.372169e-05	-5.119191e-05
	0.000108456	-9.588414e-05	0.01134983	-0.0745904	7.372169e-05	-5.119191e-05	0.1093594	-0.02921225
4.7e+08	0.110329	-0.0338991	9.245246e-05	-0.0001095581	0.006759258	-0.07707371	0.0001049982	-0.0001047917
	9.245246e-05	-0.0001095581	0.1097865	-0.03616594	9.64327e-05	-6.932867e-05	0.005318151	-0.07427842
	0.006759258	-0.07707371	9.64327e-05	-6.932867e-05	0.1100942	-0.03380336	7.26082e-05	-5.775157e-05
	0.0001049982	-0.0001047917	0.005318151	-0.07427842	7.26082e-05	-5.775157e-05	0.1097463	-0.03661576
4.8e+08	0.1102605	-0.04145565	8.809793e-05	-0.000119519	0.0007408365	-0.07644996	0.0001007463	-0.000113765
	8.809793e-05	-0.000119519	0.1095537	-0.04375985	9.380426e-05	-7.691733e-05	-0.0007009598	-0.07347519
	0.0007408365	-0.07644996	9.380426e-05	-7.691733e-05	0.1099616	-0.04133534	7.092659e-05	-6.452549e-05
	0.0001007463	-0.000113765	-0.0007009598	-0.07347519	7.092659e-05	-6.452549e-05	0.1094282	-0.04421705
4.9e+08	0.1094654	-0.04915936	8.279317e-05	-0.0001294973	-0.005234955	-0.07534199	9.566726e-05	-0.000122741
	8.279317e-05	-0.0001294973	0.1085858	-0.05148602	9.047416e-05	-8.466613e-05	-0.006666448	-0.07218538
	-0.005234955	-0.07534199	9.047416e-05	-8.466613e-05	0.1091024	-0.04901008	6.863462e-05	-7.147304e-05
