!$
! Info: Touchstone file created by Circ.  Input file=Intel_C2M_200G_2p5in_202208016_staggered.circ
!$
# Hz S RI R 50
0	0.01352354	1.908473e-24	3.736638e-05	3.876929e-23	8.130597e-05	2.321986e-22	3.735869e-05	3.867963e-23
	3.736638e-05	3.876929e-23	0.01353674	2.167723e-24	3.737118e-05	3.880853e-23	8.089592e-05	2.310008e-22
	8.136421e-05	2.323268e-22	3.737117e-05	3.88094e-23	0.01351833	1.969913e-24	3.736138e-05	3.871267e-23
	3.735868e-05	3.86805e-23	8.095416e-05	2.311295e-22	3.736138e-05	3.871267e-23	0.01353466	2.059279e-24
1e+07	0.01615148	0.004039509	2.556677e-06	1.493449e-05	0.000945899	0.004285847	5.294492e-06	1.242461e-05
	2.556679e-06	1.49345e-05	0.01628376	0.004110454	1.976957e-06	2.015956e-05	0.0009512716	0.004345243
	0.000945899	0.004285847	1.976957e-06	2.015956e-05	0.01625904	0.004155741	2.547203e-06	1.518712e-05
	5.294492e-06	1.242461e-05	0.0009512716	0.004345243	2.547203e-06	1.518712e-05	0.01618024	0.004074861
2e+07	0.01864012	0.005891208	4.319304e-06	1.215074e-05	0.001875968	0.008146454	2.613695e-06	9.390222e-06
	4.319307e-06	1.215074e-05	0.01882086	0.005965079	1.672624e-05	2.633502e-05	0.001887309	0.008264028
	0.001875979	0.008146442	1.672624e-05	2.633502e-05	0.01879986	0.006056932	4.515314e-06	1.259877e-05
	2.613695e-06	9.390222e-06	0.001887321	0.008264016	4.515314e-06	1.259877e-05	0.01868136	0.005955913
3e+07	0.02068029	0.006736418	8.167411e-06	1.110713e-05	0.003204776	0.01194281	2.869839e-06	8.862725e-06
	8.167413e-06	1.110713e-05	0.02089802	0.006800184	2.879418e-05	2.736102e-05	0.003225185	0.01211676
	0.003204744	0.01194284	2.879418e-05	2.736102e-05	0.02087495	0.006945018	8.522244e-06	1.164097e-05
	2.86984e-06	8.862725e-06	0.003225153	0.01211679	8.522245e-06	1.164097e-05	0.02072751	0.006832358
4e+07	0.0222617	0.007053966	1.131429e-05	9.76015e-06	0.005001325	0.0155107	5.145428e-06	7.85218e-06
	1.13143e-05	9.76015e-06	0.02250893	0.007100632	3.872738e-05	2.537818e-05	0.005033476	0.01573885
	0.005001316	0.01551072	3.872738e-05	2.537818e-05	0.02249262	0.007297449	1.181031e-05	1.035123e-05
	5.145428e-06	7.85218e-06	0.005033467	0.01573887	1.181031e-05	1.035123e-05	0.02232144	0.007177989
5e+07	0.02349324	0.007121846	1.390663e-05	8.041539e-06	0.00721106	0.01883532	7.054362e-06	6.589037e-06
	1.390663e-05	8.041539e-06	0.02376452	0.007147033	4.702511e-05	2.145573e-05	0.007257337	0.01911509
	0.007211061	0.01883532	4.702511e-05	2.145573e-05	0.02375868	0.007394309	1.4539e-05	8.671277e-06
	7.054362e-06	6.589036e-06	0.007257338	0.0191151	1.4539e-05	8.671277e-06	0.02356729	0.007271958
6e+07	0.0244329	0.007044295	1.600338e-05	5.984173e-06	0.009809933	0.02187785	8.585454e-06	5.090097e-06
	1.600338e-05	5.984173e-06	0.02472397	0.007044901	5.390197e-05	1.607854e-05	0.009872346	0.02220624
	0.009809954	0.02187784	5.390197e-05	1.607854e-05	0.02473173	0.00734122	1.677586e-05	6.637629e-06
	8.585453e-06	5.090097e-06	0.009872367	0.02220624	1.677585e-05	6.637629e-06	0.02452311	0.007219562
7e+07	0.02510629	0.006905253	1.762477e-05	3.623609e-06	0.01276515	0.02459976	9.746462e-06	3.382473e-06
	1.762477e-05	3.623609e-06	0.02541362	0.006878786	5.943232e-05	9.483569e-06	0.01284523	0.02497335
	0.01276515	0.02459976	5.943232e-05	9.483569e-06	0.02543805	0.007222079	1.854674e-05	4.285164e-06
	9.746462e-06	3.382473e-06	0.01284523	0.02497335	1.854674e-05	4.285164e-06	0.02521509	0.007104774
8e+07	0.02554548	0.00678202	1.876869e-05	9.815049e-07	0.01604044	0.02696633	1.052829e-05	1.488598e-06
	1.876869e-05	9.815049e-07	0.02586619	0.006726073	6.361251e-05	1.770887e-06	0.01613919	0.02738134
	0.01604043	0.02696633	6.361251e-05	1.770887e-06	0.02591001	0.007113985	1.985037e-05	1.626514e-06
	1.052829e-05	1.488598e-06	0.01613919	0.02738134	1.985037e-05	1.626513e-06	0.02567591	0.007005081
9e+07	0.02579564	0.006741521	1.939437e-05	-1.971856e-06	0.01959722	0.02894653	1.089379e-05	-5.95061e-07
	1.939437e-05	-1.971856e-06	0.02612711	0.006652857	6.632652e-05	-7.16388e-06	0.01971503	0.02939891
	0.01959722	0.02894654	6.632652e-05	-7.16388e-06	0.02619217	0.007082388	2.064939e-05	-1.377516e-06
	1.089379e-05	-5.950613e-07	0.01971503	0.02939892	2.064939e-05	-1.377516e-06	0.02595085	0.006986985
1e+08	0.02593011	0.006868892	1.923146e-05	-5.62172e-06	0.02339656	0.03051287	1.062934e-05	-3.079918e-06
	1.923146e-05	-5.62172e-06	0.0262686	0.006738484	6.676746e-05	-1.867791e-05	0.02353314	0.03099838
	0.02339656	0.03051287	6.676746e-05	-1.867791e-05	0.02635553	0.00720629	2.067855e-05	-5.15536e-06
	1.062934e-05	-3.079918e-06	0.02353315	0.03099838	2.067855e-05	-5.15536e-06	0.02611358	0.007135409
1.1e+08	0.02609	0.006982879	1.710822e-05	-8.071869e-06	0.02740853	0.03163603	9.134828e-06	-4.605128e-06
	1.710822e-05	-8.071869e-06	0.02641096	0.006818944	6.060186e-05	-2.685684e-05	0.02756267	0.03215067
	0.02740854	0.03163603	6.060186e-05	-2.685684e-05	0.02658432	0.007323555	1.860798e-05	-7.773873e-06
	9.134827e-06	-4.605128e-06	0.02756267	0.03215067	1.860798e-05	-7.773873e-06	0.02636621	0.007269653
1.2e+08	0.02608243	0.007198172	1.536817e-05	-9.611676e-06	0.03153909	0.03229516	7.919382e-06	-5.519013e-06
	1.536817e-05	-9.611676e-06	0.02638887	0.007013115	5.619338e-05	-3.076301e-05	0.0317091	0.03283498
	0.03153909	0.03229516	5.619338e-05	-3.076301e-05	0.02659713	0.007520488	1.691171e-05	-9.432856e-06
	7.919382e-06	-5.519013e-06	0.0317091	0.03283497	1.691171e-05	-9.432856e-06	0.02640125	0.007473675
1.3e+08	0.02599352	0.007579425	1.420792e-05	-1.008635e-05	0.03575333	0.0324845	6.851339e-06	-6.234366e-06
	1.420792e-05	-1.008635e-05	0.02628766	0.007378922	5.477909e-05	-2.892661e-05	0.03593691	0.03304564
	0.03575333	0.0324845	5.477909e-05	-2.892661e-05	0.02650449	0.007894463	1.588537e-05	-9.774557e-06
	6.851339e-06	-6.234366e-06	0.03593691	0.03304563	1.588537e-05	-9.774557e-06	0.02633155	0.007851374
1.4e+08	0.02587812	0.008143997	1.340985e-05	-9.694148e-06	0.04000684	0.03219994	5.876453e-06	-6.811826e-06
	1.340985e-05	-9.694148e-06	0.02616238	0.007932051	5.331671e-05	-2.767502e-05	0.04020106	0.03277872
	0.04000684	0.03219994	5.331671e-05	-2.767502e-05	0.02638169	0.008465731	1.517596e-05	-9.336399e-06
	5.876453e-06	-6.811826e-06	0.04020106	0.03277872	1.517596e-05	-9.336399e-06	0.02623318	0.008424213
1.5e+08	0.02578407	0.008899162	1.287735e-05	-9.32645e-06	0.0442522	0.03144038	5.16445e-06	-6.743262e-06
	1.287735e-05	-9.32645e-06	0.02606111	0.008678823	5.180007e-05	-2.675878e-05	0.04445351	0.03203345
	0.0442522	0.03144038	5.180007e-05	-2.675878e-05	0.02628457	0.009235673	1.448809e-05	-8.98369e-06
	5.16445e-06	-6.743262e-06	0.04445351	0.03203345	1.448809e-05	-8.98369e-06	0.02616251	0.009193918
1.6e+08	0.02575604	0.009845086	1.233536e-05	-9.024707e-06	0.04844097	0.03020894	4.601137e-06	-6.547932e-06
	1.233536e-05	-9.024707e-06	0.02602892	0.009618627	5.025183e-05	-2.606829e-05	0.0486453	0.03081335
	0.04844097	0.03020893	5.025183e-05	-2.606829e-05	0.02626017	0.01019916	1.397255e-05	-8.663243e-06
	4.601137e-06	-6.547932e-06	0.0486453	0.03081335	1.397255e-05	-8.663243e-06	0.02616702	0.01015539
1.7e+08	0.0258374	0.01097567	1.178636e-05	-8.764513e-06	0.05252485	0.02851315	4.255254e-06	-6.340845e-06
	1.178636e-05	-8.764513e-06	0.02610929	0.01074459	4.868482e-05	-2.553217e-05	0.05272756	0.0291264
	0.05252485	0.02851315	4.868482e-05	-2.553217e-05	0.0263509	0.01134631	1.34525e-05	-8.394472e-06
	4.255254e-06	-6.340845e-06	0.05272756	0.0291264	1.34525e-05	-8.394472e-06	0.02628951	0.01129853
1.8e+08	0.02606949	0.01227805	1.123548e-05	-8.528096e-06	0.05645631	0.02636518	3.907402e-06	-6.145499e-06
	1.123548e-05	-8.528096e-06	0.02634399	0.01204323	4.710834e-05	-2.510195e-05	0.05665234	0.0269853
	0.05645631	0.02636518	4.710834e-05	-2.510195e-05	0.02659658	0.01266214	1.293076e-05	-8.157706e-06
	3.907402e-06	-6.145499e-06	0.05665234	0.0269853	1.293076e-05	-8.157706e-06	0.02656995	0.01260801
1.9e+08	0.02649196	0.01373306	1.068604e-05	-8.304968e-06	0.06018945	0.02378216	3.560679e-06	-5.955433e-06
	1.068604e-05	-8.304968e-06	0.0267728	0.01349465	4.552889e-05	-2.474326e-05	0.06037331	0.0244078
	0.06018945	0.02378216	4.552889e-05	-2.474326e-05	0.02703479	0.01412634	1.241028e-05	-7.941394e-06
	3.560679e-06	-5.955433e-06	0.06037331	0.02440779	1.241028e-05	-7.941394e-06	0.02704604	0.01406301
2e+08	0.0271412	0.01531496	1.014106e-05	-8.086689e-06	0.06368042	0.02078559	3.217736e-06	-5.765742e-06
	1.014106e-05	-8.086689e-06	0.02743218	0.01507237	4.395138e-05	-2.443055e-05	0.06384627	0.02141605
	0.06368042	0.02078559	4.395138e-05	-2.443055e-05	0.02770066	0.01571336	1.189346e-05	-7.73683e-06
	3.217736e-06	-5.765742e-06	0.06384627	0.02141605	1.189346e-05	-7.73683e-06	0.02775297	0.0156374
2.1e+08	0.02804924	0.01699267	9.603216e-06	-7.868018e-06	0.0668877	0.01740129	2.880826e-06	-5.573112e-06
	9.603216e-06	-7.868018e-06	0.02835422	0.01674458	4.237995e-05	-2.414509e-05	0.06702949	0.01803656
	0.0668877	0.01740129	4.237995e-05	-2.414509e-05	0.02862488	0.01739187	1.138245e-05	-7.538219e-06
	2.880826e-06	-5.573112e-06	0.06702949	0.01803656	1.138245e-05	-7.538219e-06	0.02872129	0.01729925
2.2e+08	0.02924381	0.01872929	9.074883e-06	-7.644752e-06	0.06977269	0.01365898	2.551942e-06	-5.375216e-06
	9.074883e-06	-7.644752e-06	0.02956652	0.01847357	4.081817e-05	-2.387211e-05	0.06988419	0.01429981
	0.06977269	0.01365898	4.081817e-05	-2.387211e-05	0.02983399	0.01912582	1.087912e-05	-7.340902e-06
	2.551942e-06	-5.375216e-06	0.06988419	0.01429981	1.087912e-05	-7.340902e-06	0.02997739	0.01901182
2.3e+08	0.03074711	0.02048383	8.558001e-06	-7.41508e-06	0.07230043	0.009592001	2.232829e-06	-5.170416e-06
	8.558001e-06	-7.41508e-06	0.03109108	0.02021764	3.926887e-05	-2.360358e-05	0.07237531	0.01023988
	0.07230043	0.009592001	3.926887e-05	-2.360358e-05	0.03135	0.02087489	1.038512e-05	-7.141196e-06
	2.232829e-06	-5.170416e-06	0.07237531	0.01023988	1.038512e-05	-7.141196e-06	0.0315429	0.02073415
2.4e+08	0.03257534	0.02221172	8.054752e-06	-7.175705e-06	0.07443926	0.005237038	1.925173e-06	-4.957816e-06
	8.054752e-06	-7.175705e-06	0.03294377	0.02193146	3.773511e-05	-2.332714e-05	0.07447121	0.005894265
	0.07443926	0.005237038	3.773511e-05	-2.332714e-05	0.03318834	0.0225947	9.902249e-06	-6.936692e-06
	1.925173e-06	-4.957816e-06	0.07447121	0.005894265	9.902249e-06	-6.936692e-06	0.03343282	0.0224212
2.5e+08	0.03473806	0.02386544	7.56711e-06	-6.924968e-06	0.07616149	0.000633432	1.630436e-06	-4.736871e-06
	7.56711e-06	-6.924968e-06	0.03513372	0.0235668	3.621934e-05	-2.303776e-05	0.07614428	0.0013031
	0.07616149	0.0006334319	3.621934e-05	-2.303776e-05	0.03535876	0.02423867	9.431815e-06	-6.726431e-06
	1.630436e-06	-4.736871e-06	0.07614428	0.0013031	9.431815e-06	-6.726431e-06	0.03565631	0.02402575
2.6e+08	0.03723843	0.02539579	7.096981e-06	-6.662214e-06	0.07744399	-0.004176995	1.349963e-06	-4.507524e-06
	7.096981e-06	-6.662214e-06	0.03766352	0.02507379	3.472475e-05	-2.272768e-05	0.0773716	-0.00349103
	0.07744399	-0.004176995	3.472475e-05	-2.272768e-05	0.0378641	0.02575761	8.975379e-06	-6.508419e-06
	1.349963e-06	-4.507524e-06	0.0773716	-0.00349103	8.975379e-06	-6.508419e-06	0.03821547	0.02549807
2.7e+08	0.0400728	0.02675248	6.646115e-06	-6.387197e-06	0.07826734	-0.009150499	1.084927e-06	-4.269988e-06
	6.646115e-06	-6.387197e-06	0.04052887	0.02640158	3.32543e-05	-2.239207e-05	0.078134	-0.008443564
	0.07826734	-0.009150499	3.32543e-05	-2.239207e-05	0.0407007	0.0271017	8.53437e-06	-6.281729e-06
	1.084927e-06	-4.269988e-06	0.078134	-0.008443564	8.53437e-06	-6.281729e-06	0.04110587	0.02678779
2.8e+08	0.04323006	0.02788514	6.216114e-06	-6.100083e-06	0.07861695	-0.01424196	8.363749e-07	-4.024738e-06
	6.216114e-06	-6.100083e-06	0.04371793	0.02749926	3.181106e-05	-2.202757e-05	0.07841728	-0.01350864
	0.07861695	-0.01424196	3.181106e-05	-2.202757e-05	0.04385767	0.02822125	8.110077e-06	-6.046021e-06
	8.363749e-07	-4.024738e-06	0.07841728	-0.01350864	8.110077e-06	-6.046021e-06	0.04431563	0.02784484
2.9e+08	0.04669262	0.02874445	5.808407e-06	-5.801403e-06	0.07848284	-0.01940519	6.051959e-07	-3.772458e-06
	5.808407e-06	-5.801403e-06	0.04721226	0.02831708	3.039797e-05	-2.163176e-05	0.07821195	-0.01863933
	0.07848284	-0.01940519	3.039797e-05	-2.163176e-05	0.04731726	0.02906669	7.7037e-06	-5.801294e-06
	6.051959e-07	-3.772458e-06	0.07821195	-0.01863933	7.7037e-06	-5.801294e-06	0.04782601	0.02861933
3e+08	0.05043595	0.02928277	5.42427e-06	-5.491988e-06	0.07785929	-0.02459338	3.921382e-07	-3.513988e-06
	5.42427e-06	-5.491988e-06	0.05098639	0.02880709	2.901789e-05	-2.120296e-05	0.07751277	-0.02378814
	0.07785929	-0.02459338	2.901789e-05	-2.120296e-05	0.05105522	0.02959066	7.316283e-06	-5.547849e-06
	3.921382e-07	-3.513988e-06	0.07751277	-0.02378814	7.316283e-06	-5.547849e-06	0.05161164	0.02906375
3.1e+08	0.05442917	0.02945519	5.064781e-06	-5.172941e-06	0.07674542	-0.02975979	1.977946e-07	-3.250324e-06
	5.064781e-06	-5.172941e-06	0.05500847	0.02892415	2.767367e-05	-2.07402e-05	0.07631956	-0.02890773
	0.07674542	-0.02975979	2.767367e-05	-2.07402e-05	0.05504044	0.02974795	6.948733e-06	-5.286236e-06
	1.977946e-07	-3.250324e-06	0.07631956	-0.02890773	6.948733e-06	-5.286236e-06	0.05564021	0.02913282
3.2e+08	0.05863499	0.02921977	4.730824e-06	-4.845567e-06	0.0751449	-0.03485808	2.261155e-08	-2.982562e-06
	4.730824e-06	-4.845567e-06	0.05924014	0.02862624	2.63681e-05	-2.024312e-05	0.07463666	-0.03395112
	0.0751449	-0.03485808	2.63681e-05	-2.024312e-05	0.05923563	0.0294976	6.60185e-06	-5.017219e-06
	2.261155e-08	-2.982562e-06	0.07463666	-0.03395112	6.60185e-06	-5.017219e-06	0.05987323	0.02878569
3.3e+08	0.06301063	0.02853901	4.423089e-06	-4.511336e-06	0.0730655	-0.03984237	-1.331022e-07	-2.711871e-06
	4.423089e-06	-4.511336e-06	0.06363751	0.02787592	2.510389e-05	-1.971182e-05	0.07247266	-0.03887199
	0.0730655	-0.03984237	2.510389e-05	-1.971182e-05	0.06359776	0.0288017	6.276276e-06	-4.74172e-06
	-1.331022e-07	-2.711871e-06	0.07247266	-0.03887199	6.276276e-06	-4.74172e-06	0.06426638	0.02798474
3.4e+08	0.06750766	0.02738036	4.142048e-06	-4.171872e-06	0.07051957	-0.04466848	-2.692051e-07	-2.439491e-06
	4.142048e-06	-4.171872e-06	0.06815104	0.02664083	2.388361e-05	-1.914699e-05	0.06984076	-0.0436257
	0.07051957	-0.04466848	2.388361e-05	-1.914699e-05	0.06807876	0.02762817	5.972498e-06	-4.46081e-06
	-2.692052e-07	-2.439491e-06	0.06984076	-0.0436257	5.972498e-06	-4.46081e-06	0.06877031	0.02669833
3.5e+08	0.07207331	0.02571672	3.887968e-06	-3.828873e-06	0.06752331	-0.0492934	-3.856796e-07	-2.16668e-06
	3.887968e-06	-3.828873e-06	0.07272683	0.02489424	2.270974e-05	-1.854967e-05	0.06675806	-0.04816894
	0.06752331	-0.0492934	2.270974e-05	-1.854967e-05	0.07262539	0.02594958	5.690864e-06	-4.175651e-06
	-3.856796e-07	-2.16668e-06	0.06675806	-0.04816894	5.690864e-06	-4.175651e-06	0.07333052	0.02489964
3.6e+08	0.0766506	0.02352683	3.660891e-06	-3.484117e-06	0.06409706	-0.05367625	-4.826667e-07	-1.894726e-06
	3.660891e-06	-3.484117e-06	0.07730674	0.02261539	2.158459e-05	-1.792139e-05	0.06324586	-0.05246056
	0.06409706	-0.05367625	2.158459e-05	-1.792139e-05	0.07718078	0.0237454	5.431511e-06	-3.887494e-06
	-4.826667e-07	-1.894726e-06	0.06324586	-0.05246056	5.431511e-06	-3.887494e-06	0.07788886	0.02256894
3.7e+08	0.08117961	0.02079642	3.460646e-06	-3.13938e-06	0.06026458	-0.05777872	-5.604381e-07	-1.624885e-06
	3.460646e-06	-3.13938e-06	0.08182978	0.01979067	2.051026e-05	-1.726397e-05	0.05932891	-0.05646215
	0.06026458	-0.05777872	2.051026e-05	-1.726397e-05	0.08168497	0.02100145	5.19444e-06	-3.597613e-06
	-5.604381e-07	-1.624885e-06	0.05932891	-0.05646215	5.19444e-06	-3.597613e-06	0.08238421	0.01969307
3.8e+08	0.08559775	0.01751773	3.286872e-06	-2.796437e-06	0.05605281	-0.06156471	-6.1939e-07	-1.358399e-06
	3.286872e-06	-2.796437e-06	0.08623231	0.01641319	1.948867e-05	-1.657952e-05	0.05503516	-0.0601376
	0.05605281	-0.06156471	1.948867e-05	-1.657952e-05	0.08607506	0.01770997	4.979522e-06	-3.307303e-06
	-6.193901e-07	-1.358399e-06	0.05503516	-0.0601376	4.979522e-06	-3.307303e-06	0.0867526	0.01626539
3.9e+08	0.08983999	0.01369078	3.138992e-06	-2.457036e-06	0.05149229	-0.06500143	-6.600525e-07	-1.096484e-06
	3.138992e-06	-2.457036e-06	0.09044828	0.01248392	1.852153e-05	-1.587054e-05	0.05039623	-0.06345417
	0.05149229	-0.06500143	1.852153e-05	-1.587054e-05	0.0902867	0.01387181	4.786436e-06	-3.017876e-06
	-6.600525e-07	-1.096484e-06	0.05039623	-0.06345417	4.786436e-06	-3.017876e-06	0.09092863	0.01228814
4e+08	0.09384113	0.009322922	3.016252e-06	-2.12285e-06	0.04661566	-0.06805901	-6.830571e-07	-8.402773e-07
	3.016252e-06	-2.12285e-06	0.09441164	0.008011398	1.761032e-05	-1.513967e-05	0.04544574	-0.06638226
	0.04661566	-0.06805901	1.761032e-05	-1.513967e-05	0.09425451	0.00949383	4.614753e-06	-2.730573e-06
	-6.830571e-07	-8.402773e-07	0.04544574	-0.06638226	4.614753e-06	-2.730573e-06	0.09484606	0.00776968
4.1e+08	0.09753656	0.00442888	2.917724e-06	-1.795459e-06	0.04145827	-0.07071086	-6.891437e-07	-5.908465e-07
	2.917724e-06	-1.795459e-06	0.09805697	0.003011647	1.675621e-05	-1.438978e-05	0.04022006	-0.06889556
	0.04145827	-0.07071086	1.675621e-05	-1.438978e-05	0.09791365	0.004591322	4.463893e-06	-2.446607e-06
	-6.891437e-07	-5.908465e-07	0.04022006	-0.06889556	4.463893e-06	-2.446607e-06	0.09843936	0.002726963
4.2e+08	0.1008611	-0.0009681751	2.842321e-06	-1.476328e-06	0.03605747	-0.07293436	-6.791522e-07	-3.491984e-07
	2.842321e-06	-1.476328e-06	0.1013185	-0.002490701	1.596018e-05	-1.362396e-05	0.03475753	-0.0709719
	0.03605747	-0.07293436	1.596018e-05	-1.362396e-05	0.1011993	-0.0008122225	4.333168e-06	-2.167126e-06
	-6.791522e-07	-3.491984e-07	0.03475753	-0.0709719	4.333168e-06	-2.167126e-06	0.1016431	-0.002814696
4.3e+08	0.1037525	-0.006837964	2.788847e-06	-1.166789e-06	0.03045193	-0.07471013	-6.539902e-07	-1.16216e-07
	2.788847e-06	-1.166789e-06	0.1041335	-0.008463795	1.52229e-05	-1.28454e-05	0.02909773	-0.07259246
	0.03045193	-0.07471013	1.52229e-05	-1.28454e-05	0.1040493	-0.006686635	4.221796e-06	-1.893171e-06
	-6.539902e-07	-1.16216e-07	0.02909773	-0.07259246	4.221796e-06	-1.893171e-06	0.104395	-0.008823196
4.4e+08	0.1061512	-0.013143	2.755962e-06	-8.680234e-07	0.02468194	-0.07602261	-6.146366e-07	1.072951e-07
	2.755962e-06	-8.680234e-07	0.1064421	-0.01486848	1.454472e-05	-1.205735e-05	0.02328183	-0.07374233
	0.02468194	-0.07602261	1.454472e-05	-1.205735e-05	0.106404	-0.0129939	4.128898e-06	-1.625705e-06
	-6.146366e-07	1.072951e-07	0.02328183	-0.07374233	4.128898e-06	-1.625705e-06	0.1066351	-0.0152585
4.5e+08	0.1080003	-0.01983769	2.742261e-06	-5.8106e-07	0.0187886	-0.07686024	-5.621245e-07	3.206357e-07
	2.742261e-06	-5.8106e-07	0.1081874	-0.02165735	1.392577e-05	-1.12632e-05	0.01735176	-0.07441068
	0.0187886	-0.07686024	1.392577e-05	-1.12632e-05	0.1082068	-0.01968837	4.053534e-06	-1.365579e-06
	-5.621245e-07	3.206357e-07	0.01735176	-0.07441068	4.053534e-06	-1.365579e-06	0.108307	-0.02207283
4.6e+08	0.1092477	-0.02686993	2.746275e-06	-3.06758e-07	0.01281352	-0.07721505	-4.975242e-07	5.232241e-07
	2.746275e-06	-3.06758e-07	0.1093173	-0.02877647	1.336591e-05	-1.046633e-05	0.01134983	-0.0745904
	0.01281352	-0.07721505	1.336591e-05	-1.046633e-05	0.1094059	-0.02671828	3.994706e-06	-1.113528e-06
	-4.975242e-07	5.232241e-07	0.01134983	-0.0745904	3.994706e-06	-1.113528e-06	0.1093594	-0.02921225
4.7e+08	0.1098476	-0.03418167	2.766474e-06	-4.577239e-08	0.006798226	-0.07708306	-4.219324e-07	7.146066e-07
	2.766474e-06	-4.577239e-08	0.1097865	-0.03616594	1.286456e-05	-9.670069e-06	0.005318151	-0.07427842
	0.006798226	-0.07708306	1.286456e-05	-9.670069e-06	0.1099547	-0.03402477	3.951393e-06	-8.701591e-07
	-4.219324e-07	7.146066e-07	0.005318151	-0.07427842	3.951393e-06	-8.701591e-07	0.1097463	-0.03661576
4.8e+08	0.1097583	-0.04170893	2.801358e-06	2.013867e-07	0.0007844558	-0.07646382	-3.364467e-07	8.944218e-07
	2.801358e-06	2.013867e-07	0.1095537	-0.04375985	1.242109e-05	-8.877767e-06	-0.0007009598	-0.07347519
	0.0007844558	-0.07646382	1.242109e-05	-8.877767e-06	0.1098128	-0.0415437	3.922553e-06	-6.359836e-07
	-3.364467e-07	8.944218e-07	-0.0007009598	-0.07347519	3.922553e-06	-6.359836e-07	0.1094282	-0.04421705
4.9e+08	0.1089455	-0.04938141	2.849404e-06	4.344073e-07	-0.005187082	-0.07536088	-2.421642e-07	1.062426e-06
