!$
! Info: Touchstone file created by Circ.  Input file=Intel_C2M_200G_4p0in_202208016_staggered.circ
!$
# Hz S RI R 50
0	0.01602284	2.617394e-24	4.99287e-05	6.14434e-23	9.334385e-05	2.542358e-22	4.986219e-05	6.13224e-23
	4.99287e-05	6.14434e-23	0.01603603	2.804745e-24	4.991123e-05	6.140825e-23	9.295792e-05	2.528656e-22
	9.340179e-05	2.543634e-22	4.991122e-05	6.140929e-23	0.01601765	2.514376e-24	4.987514e-05	6.12895e-23
	4.986218e-05	6.132345e-23	9.301586e-05	2.529909e-22	4.987514e-05	6.12895e-23	0.01603396	2.660385e-24
1e+07	0.01979933	0.00295437	3.819738e-05	4.426755e-06	0.001009474	0.004946005	1.755853e-06	9.613436e-06
	3.819738e-05	4.426755e-06	0.01935058	0.003042315	4.467803e-05	1.697413e-05	0.001219756	0.005060568
	0.001009474	0.004946005	4.467803e-05	1.697413e-05	0.01996513	0.002813925	1.788309e-05	1.013209e-05
	1.755853e-06	9.613436e-06	0.001219756	0.005060568	1.788309e-05	1.013209e-05	0.01939335	0.002756189
2e+07	0.02299172	0.002791131	2.546657e-05	2.495447e-05	0.002369976	0.009421196	1.526509e-05	2.11464e-05
	2.546657e-05	2.495447e-05	0.02273327	0.003104337	3.978493e-05	7.094411e-06	0.002598495	0.009552126
	0.002369987	0.009421183	3.978493e-05	7.094411e-06	0.02295013	0.002518867	1.091964e-05	1.450327e-05
	1.526509e-05	2.11464e-05	0.002598506	0.009552114	1.091964e-05	1.450327e-05	0.02246717	0.002633329
3e+07	0.02533773	0.001251224	2.129682e-05	3.360762e-05	0.00436978	0.01368283	2.59744e-05	2.374682e-05
	2.129682e-05	3.360762e-05	0.02522631	0.001626474	3.73861e-05	8.087359e-06	0.004615736	0.01384642
	0.004369751	0.01368287	3.73861e-05	8.087362e-06	0.02513492	0.0009924463	6.498596e-06	1.955786e-05
	2.59744e-05	2.374682e-05	0.004615707	0.01384646	6.498595e-06	1.955785e-05	0.02472111	0.001155772
4e+07	0.02688525	-0.0009433515	1.809195e-05	3.754e-05	0.007041429	0.01752998	3.508398e-05	2.362962e-05
	1.809195e-05	3.754e-05	0.02689797	-0.0005502871	3.64579e-05	1.197251e-05	0.007303977	0.01772446
	0.007041423	0.01753001	3.64579e-05	1.197251e-05	0.02655989	-0.001145284	1.029818e-05	2.144597e-05
	3.508399e-05	2.362962e-05	0.007303971	0.01772449	1.029818e-05	2.144597e-05	0.02620466	-0.0009615163
5e+07	0.02777725	-0.003423153	2.377384e-05	3.712479e-05	0.01029468	0.02090925	4.301098e-05	2.171861e-05
	2.377384e-05	3.712479e-05	0.02789907	-0.003037566	3.973018e-05	1.181906e-05	0.01057261	0.02113106
	0.01029468	0.02090926	3.973018e-05	1.181906e-05	0.02735627	-0.003542628	1.630491e-05	2.07814e-05
	4.301099e-05	2.171861e-05	0.01057262	0.02113107	1.630491e-05	2.07814e-05	0.02705249	-0.003352895
6e+07	0.0280942	-0.006020236	3.332378e-05	3.342533e-05	0.01406105	0.02374581	4.972713e-05	1.820737e-05
	3.332378e-05	3.342533e-05	0.02831389	-0.005660689	4.219371e-05	1.041568e-05	0.01435252	0.02399082
	0.01406107	0.0237458	4.21937e-05	1.041568e-05	0.0276014	-0.006039286	2.147593e-05	1.892196e-05
	4.972712e-05	1.820737e-05	0.01435254	0.02399081	2.147593e-05	1.892196e-05	0.02734369	-0.005853026
7e+07	0.02788873	-0.008598272	4.113832e-05	2.804541e-05	0.01825729	0.02597295	5.53464e-05	1.34898e-05
	4.113832e-05	2.804541e-05	0.02819708	-0.008280835	4.380809e-05	8.258253e-06	0.01855963	0.02623685
	0.01825729	0.02597295	4.380809e-05	8.258252e-06	0.02734668	-0.008503789	2.577182e-05	1.617255e-05
	5.53464e-05	1.34898e-05	0.01855963	0.02623685	2.577182e-05	1.617255e-05	0.02713089	-0.008328169
8e+07	0.02722669	-0.01103976	4.720661e-05	2.130061e-05	0.02279228	0.02753616	5.98586e-05	7.706473e-06
	4.720661e-05	2.130061e-05	0.02761538	-0.01078052	4.450054e-05	5.654232e-06	0.02310178	0.02781459
	0.02279228	0.02753617	4.450054e-05	5.654232e-06	0.02665783	-0.010821	2.917548e-05	1.268223e-05
	5.98586e-05	7.706473e-06	0.02310178	0.0278146	2.917548e-05	1.268223e-05	0.02648066	-0.01066239
9e+07	0.02619106	-0.0132509	5.138373e-05	1.327588e-05	0.02756956	0.02839378	6.315386e-05	8.074861e-07
	5.138373e-05	1.327588e-05	0.02665136	-0.01306909	4.417824e-05	2.883681e-06	0.02788133	0.02868242
	0.02756957	0.02839379	4.417824e-05	2.88368e-06	0.02561877	-0.01289694	3.160199e-05	8.494534e-06
	6.315386e-05	8.074857e-07	0.02788133	0.02868243	3.160199e-05	8.494534e-06	0.02547747	-0.01276229
1e+08	0.02489505	-0.01513994	5.268541e-05	2.874724e-06	0.03249161	0.02851821	6.450621e-05	-8.299005e-06
	5.268541e-05	2.874724e-06	0.02541258	-0.01507437	4.235731e-05	2.041817e-07	0.03279821	0.02881173
	0.03249161	0.02851821	4.235731e-05	2.041818e-07	0.02435333	-0.01462427	3.251428e-05	3.08468e-06
	6.450621e-05	-8.299005e-06	0.03279821	0.02881173	3.251428e-05	3.08468e-06	0.02424483	-0.01452646
1.1e+08	0.02346428	-0.01685684	4.816262e-05	-3.047357e-06	0.03747051	0.02787266	6.066289e-05	-1.438979e-05
	4.816262e-05	-3.047357e-06	0.0239572	-0.01689176	4.000295e-05	-1.012502e-07	0.03776047	0.02817653
	0.03747051	0.02787266	4.000295e-05	-1.0125e-07	0.02309435	-0.01625339	3.034231e-05	-4.194833e-08
	6.066289e-05	-1.438979e-05	0.03776047	0.02817652	3.034231e-05	-4.194846e-08	0.02299209	-0.01619149
1.2e+08	0.02180592	-0.01825851	4.528164e-05	-6.300034e-06	0.04234189	0.02647322	5.891534e-05	-1.660191e-05
	4.528164e-05	-6.300034e-06	0.0222776	-0.01836219	3.85659e-05	-2.80683e-09	0.04261365	0.0267896
	0.04234189	0.02647321	3.85659e-05	-2.806666e-09	0.02153277	-0.01762327	2.903251e-05	-1.842501e-06
	5.891534e-05	-1.660191e-05	0.04261365	0.0267896	2.903251e-05	-1.842501e-06	0.02143598	-0.01758762
1.3e+08	0.0200453	-0.01930357	4.372599e-05	-8.751648e-06	0.04701773	0.02434179	5.967877e-05	-1.484866e-05
	4.372599e-05	-8.751648e-06	0.02049535	-0.01946505	3.756362e-05	2.87471e-07	0.04726751	0.02467117
	0.04701773	0.02434179	3.756362e-05	2.874711e-07	0.01984085	-0.01863948	2.812568e-05	-3.310498e-06
	5.967877e-05	-1.484866e-05	0.04726751	0.02467117	2.812568e-05	-3.310498e-06	0.019749	-0.01862685
1.4e+08	0.01827146	-0.01999369	4.32338e-05	-1.083002e-05	0.05140322	0.02151068	6.054972e-05	-1.375415e-05
	4.32338e-05	-1.083002e-05	0.01869883	-0.02020632	3.692035e-05	6.821613e-07	0.05162639	0.02185375
	0.05140322	0.02151068	3.692035e-05	6.821614e-07	0.01813087	-0.01930131	2.743973e-05	-4.473996e-06
	6.054972e-05	-1.375415e-05	0.05162639	0.02185374	2.743973e-05	-4.473996e-06	0.01804364	-0.01931002
1.5e+08	0.01656248	-0.02034533	4.291883e-05	-1.273105e-05	0.05540536	0.01802375	6.155911e-05	-1.325369e-05
	4.291883e-05	-1.273105e-05	0.01696588	-0.02060445	3.661266e-05	1.045473e-06	0.05559677	0.01838174
	0.05540536	0.01802375	3.661266e-05	1.045473e-06	0.01648712	-0.01963081	2.774517e-05	-4.355903e-06
	6.155911e-05	-1.325369e-05	0.05559677	0.01838174	2.774517e-05	-4.355903e-06	0.01640446	-0.01966
1.6e+08	0.01498817	-0.02038744	4.276761e-05	-1.456347e-05	0.05893655	0.01393659	6.268463e-05	-1.323931e-05
	4.276761e-05	-1.456347e-05	0.01536618	-0.02068953	3.659932e-05	1.367651e-06	0.05909068	0.01431151
	0.05893655	0.01393659	3.659932e-05	1.367651e-06	0.01497954	-0.01966102	2.841829e-05	-4.071051e-06
	6.268463e-05	-1.323931e-05	0.05909068	0.01431151	2.841829e-05	-4.071051e-06	0.01490153	-0.01971051
1.7e+08	0.01361054	-0.02016038	4.351793e-05	-1.554171e-05	0.06191665	0.009315617	6.390106e-05	-1.373734e-05
	4.351793e-05	-1.554171e-05	0.01396169	-0.02050267	3.721681e-05	1.303651e-06	0.06202784	0.009710356
	0.06191665	0.009315616	3.721681e-05	1.303651e-06	0.01366744	-0.01943404	2.930244e-05	-4.073602e-06
	6.390106e-05	-1.373734e-05	0.06202784	0.009710355	2.930244e-05	-4.073602e-06	0.01359421	-0.0195042
1.8e+08	0.01248194	-0.01971497	4.507367e-05	-1.602552e-05	0.06427459	0.004237198	6.516444e-05	-1.473476e-05
	4.507367e-05	-1.602552e-05	0.01280465	-0.02009522	3.816207e-05	8.16284e-07	0.06433721	0.004655634
	0.06427459	0.004237197	3.816207e-05	8.16284e-07	0.01260017	-0.01900065	3.037187e-05	-4.42282e-06
	6.516444e-05	-1.473476e-05	0.06433721	0.004655634	3.037187e-05	-4.42282e-06	0.01253184	-0.01909246
1.9e+08	0.0116444	-0.01911113	4.665941e-05	-1.695572e-05	0.06595016	-0.001213453	6.644461e-05	-1.615896e-05
	4.665941e-05	-1.695572e-05	0.01193698	-0.01952755	3.913691e-05	1.013077e-07	0.06595878	-0.0007664416
	0.06595016	-0.001213454	3.913691e-05	1.013077e-07	0.01181692	-0.01841961	3.1443e-05	-5.030959e-06
	6.644461e-05	-1.615896e-05	0.06595878	-0.0007664418	3.1443e-05	-5.030959e-06	0.01175338	-0.01853457
2e+08	0.01112744	-0.01841608	4.824137e-05	-1.833958e-05	0.06689476	-0.006944076	6.770356e-05	-1.801424e-05
	4.824137e-05	-1.833958e-05	0.01138798	-0.0188671	4.0124e-05	-8.55012e-07	0.06684428	-0.006462585
	0.06689476	-0.006944077	4.0124e-05	-8.55012e-07	0.01134578	-0.01775611	3.249747e-05	-5.899717e-06
	6.770356e-05	-1.801424e-05	0.06684428	-0.006462585	3.249747e-05	-5.899717e-06	0.0112866	-0.01789624
2.1e+08	0.01094721	-0.01770122	4.977428e-05	-2.018917e-05	0.06707202	-0.01285665	6.889613e-05	-2.030569e-05
	4.977428e-05	-2.018917e-05	0.01117365	-0.01818558	4.109765e-05	-2.071007e-06	0.06695798	-0.01233379
	0.06707202	-0.01285665	4.109765e-05	-2.071007e-06	0.01120131	-0.01707982	3.351315e-05	-7.032552e-06
	6.889613e-05	-2.030569e-05	0.06695798	-0.01233379	3.351315e-05	-7.032552e-06	0.01114554	-0.0172476
2.2e+08	0.01110592	-0.01704114	5.120613e-05	-2.251308e-05	0.06645862	-0.01884923	6.997173e-05	-2.303621e-05
	5.120613e-05	-2.251308e-05	0.01129587	-0.01755769	4.202869e-05	-3.559952e-06	0.06627728	-0.0182772
	0.06645862	-0.01884923	4.202869e-05	-3.559952e-06	0.01138504	-0.01646276	3.446418e-05	-8.433185e-06
	6.997173e-05	-2.303621e-05	0.06627728	-0.0182772	3.446418e-05	-8.433185e-06	0.01133118	-0.01666098
2.3e+08	0.01159174	-0.01651003	5.247783e-05	-2.531646e-05	0.06504479	-0.02481783	7.087407e-05	-2.620683e-05
	5.247783e-05	-2.531646e-05	0.01174249	-0.01705765	4.288248e-05	-5.335477e-06	0.06479329	-0.02418794
	0.06504479	-0.02481783	4.288248e-05	-5.335477e-06	0.01188532	-0.01597729	3.532103e-05	-1.010345e-05
	7.087407e-05	-2.620683e-05	0.06479329	-0.02418794	3.532103e-05	-1.010345e-05	0.01183109	-0.01620896
2.4e+08	0.01237889	-0.01617945	5.352427e-05	-2.859866e-05	0.06283409	-0.03065762	7.154298e-05	-2.981078e-05
	5.352427e-05	-2.859866e-05	0.01248735	-0.01675698	4.362061e-05	-7.405207e-06	0.06251066	-0.02996044
	0.06283409	-0.03065762	4.362061e-05	-7.405207e-06	0.01267603	-0.01569323	3.60517e-05	-1.204435e-05
	7.154298e-05	-2.981078e-05	0.06251066	-0.02996044	3.60517e-05	-1.204435e-05	0.01261831	-0.01596146
2.5e+08	0.01342798	-0.01611608	5.427532e-05	-3.23517e-05	0.05984339	-0.03626499	7.191455e-05	-3.383561e-05
	5.427532e-05	-3.23517e-05	0.01349063	-0.01672217	4.420033e-05	-9.77378e-06	0.05944746	-0.0354905
	0.05984339	-0.03626499	4.420033e-05	-9.77378e-06	0.01371866	-0.0156756	3.662148e-05	-1.425245e-05
	7.191455e-05	-3.383561e-05	0.05944746	-0.0354905	3.662148e-05	-1.425245e-05	0.01365343	-0.01598339
2.6e+08	0.01468753	-0.01637951	5.465695e-05	-3.65585e-05	0.05610306	-0.04153942	7.192261e-05	-3.826082e-05
	5.465695e-05	-3.65585e-05	0.01470051	-0.01701253	4.457616e-05	-1.24401e-05	0.05563538	-0.04067713
	0.05610306	-0.04153942	4.457616e-05	-1.24401e-05	0.01496189	-0.01598278	3.699338e-05	-1.672194e-05
	7.192261e-05	-3.826082e-05	0.05563538	-0.04067713	3.699338e-05	-1.672194e-05	0.01488412	-0.01633276
2.7e+08	0.01609502	-0.01702031	5.459266e-05	-4.119293e-05	0.05165568	-0.04638433	7.149956e-05	-4.305807e-05
	5.459266e-05	-4.119293e-05	0.01605401	-0.01767819	4.469929e-05	-1.539784e-05	0.05111845	-0.04542348
	0.05165568	-0.04638433	4.469929e-05	-1.539784e-05	0.01634388	-0.01666404	3.712807e-05	-1.944375e-05
	7.149956e-05	-4.305807e-05	0.05111845	-0.04542348	3.712807e-05	-1.944375e-05	0.01624761	-0.01705838
2.8e+08	0.01757808	-0.01807769	5.400601e-05	-4.621577e-05	0.04655601	-0.05070942	7.057829e-05	-4.818846e-05
	5.400601e-05	-4.621577e-05	0.01747842	-0.01875784	4.451865e-05	-1.86351e-05	0.04595297	-0.04963916
	0.04655601	-0.05070942	4.451865e-05	-1.86351e-05	0.01779336	-0.01775748	3.698561e-05	-2.24026e-05
	7.057829e-05	-4.818846e-05	0.04595297	-0.04963916	3.698561e-05	-2.24026e-05	0.01767163	-0.01819759
2.9e+08	0.01905708	-0.01957862	5.28213e-05	-5.157685e-05	0.04087011	-0.05443184	6.909397e-05	-5.360299e-05
	5.28213e-05	-5.157685e-05	0.01889381	-0.02027772	4.398265e-05	-2.213141e-05	0.04020651	-0.05324147
	0.04087011	-0.05443184	4.398265e-05	-2.213141e-05	0.01923102	-0.01928929	3.652477e-05	-2.557911e-05
	6.909397e-05	-5.360299e-05	0.04020651	-0.05324147	3.652477e-05	-2.557911e-05	0.01907606	-0.01977558
3e+08	0.02044683	-0.0215361	5.096462e-05	-5.72157e-05	0.03467396	-0.05747712	6.698398e-05	-5.924302e-05
	5.096462e-05	-5.72157e-05	0.02021472	-0.02225003	4.304016e-05	-2.585869e-05	0.03395673	-0.05615628
	0.03467396	-0.05747712	4.304016e-05	-2.585869e-05	0.02057263	-0.02127186	3.570409e-05	-2.894825e-05
	6.698398e-05	-5.924302e-05	0.03395673	-0.05615628	3.570409e-05	-2.894825e-05	0.02037589	-0.0218035
3.1e+08	0.02165895	-0.0239486	4.837028e-05	-6.30559e-05	0.02805266	-0.05978113	6.419143e-05	-6.503973e-05
	4.837028e-05	-6.30559e-05	0.02135273	-0.02467229	4.163818e-05	-2.978331e-05	0.02729028	-0.05832009
	0.02805266	-0.05978113	4.163818e-05	-2.978331e-05	0.02173013	-0.02370295	3.448343e-05	-3.247836e-05
	6.419143e-05	-6.503973e-05	0.02729028	-0.05832009	3.448343e-05	-3.247836e-05	0.02148249	-0.02427771
3.2e+08	0.02260378	-0.02679934	4.497619e-05	-6.901263e-05	0.02109899	-0.06129073	6.066637e-05	-7.091348e-05
	4.497619e-05	-6.901263e-05	0.02221818	-0.02752664	3.972886e-05	-3.386046e-05	0.02030148	-0.05968059
	0.02109899	-0.06129073	3.972886e-05	-3.386046e-05	0.02261538	-0.02656471	3.282219e-05	-3.613299e-05
	6.066637e-05	-7.091348e-05	0.02030148	-0.05968059	3.282219e-05	-3.613299e-05	0.02230737	-0.02717875
3.3e+08	0.0231936	-0.03005616	4.073143e-05	-7.498776e-05	0.01391206	-0.06196433	5.6366e-05	-7.677663e-05
	4.073143e-05	-7.498776e-05	0.0227236	-0.03077973	3.726406e-05	-3.803997e-05	0.0130909	-0.06019729
	0.01391206	-0.06196433	3.726406e-05	-3.803997e-05	0.02314097	-0.02982452	3.068393e-05	-3.986758e-05
	5.6366e-05	-7.677663e-05	0.0130909	-0.06019729	3.068393e-05	-3.986758e-05	0.02276303	-0.03047217
3.4e+08	0.02334463	-0.03367119	3.559485e-05	-8.087356e-05	0.006595461	-0.06177347	5.126049e-05	-8.253102e-05
	3.559485e-05	-8.087356e-05	0.02278566	-0.0343825	3.420069e-05	-4.226171e-05	0.005763479	-0.05984306
	0.006595461	-0.06177347	3.420069e-05	-4.226171e-05	0.0232246	-0.0334342	2.803344e-05	-4.363212e-05
	5.126049e-05	-8.253102e-05	0.005763479	-0.05984306	2.803344e-05	-4.363212e-05	0.02276738	-0.03410788
3.5e+08	0.02297983	-0.03758216	2.954175e-05	-8.655243e-05	-0.0007438816	-0.06070242	4.532622e-05	-8.807422e-05
	2.954175e-05	-8.655243e-05	0.02232801	-0.0382714	3.050282e-05	-4.645697e-05	-0.001572703	-0.05860365
	-0.0007438816	-0.06070242	3.050282e-05	-4.645697e-05	0.02278952	-0.03733092	2.484052e-05	-4.736949e-05
	4.532622e-05	-8.807422e-05	-0.001572703	-0.05860365	2.484052e-05	-4.736949e-05	0.02224428	-0.03802108
3.6e+08	0.02203085	-0.04171293	2.255569e-05	-9.190006e-05	-0.007997628	-0.05874918	3.855677e-05	-9.329509e-05
	2.255569e-05	-9.190006e-05	0.02128325	-0.04236904	2.613624e-05	-5.055097e-05	-0.00880836	-0.05647887
	-0.007997628	-0.05874918	2.613624e-05	-5.055097e-05	0.02176905	-0.04143812	2.108135e-05	-5.10153e-05
	3.855677e-05	-9.329509e-05	-0.00880836	-0.05647887	2.108135e-05	-5.10153e-05	0.02112794	-0.04213322
3.7e+08	0.02044117	-0.04597507	1.464451e-05	-9.678676e-05	-0.0150582	-0.05592528	3.095921e-05	-9.807887e-05
	1.464451e-05	-9.678676e-05	0.01959607	-0.04658581	2.108112e-05	-5.445889e-05	-0.01583513	-0.0534821
	-0.0150582	-0.05592528	2.108112e-05	-5.445889e-05	0.02010763	-0.04566719	1.673443e-05	-5.450043e-05
	3.095921e-05	-9.807887e-05	-0.01583513	-0.0534821	1.673443e-05	-5.450043e-05	0.01936417	-0.04635373
3.8e+08	0.01816712	-0.05026942	5.825472e-06	-0.0001010783	-0.02181968	-0.05225525	2.255557e-05	-0.0001023087
	5.825472e-06	-0.0001010783	0.01722432	-0.05082145	1.532157e-05	-5.809079e-05	-0.02254666	-0.04963991
	-0.02181968	-0.05225525	1.532157e-05	-5.809079e-05	0.01776242	-0.04991874	1.179132e-05	-5.774848e-05
	2.255557e-05	-0.0001023087	-0.02254666	-0.04963991	1.179132e-05	-5.774848e-05	0.01691188	-0.05058142
3.9e+08	0.01518037	-0.05448726	-3.861594e-06	-0.0001046403	-0.02818014	-0.04777728	1.337914e-05	-0.0001058671
	-3.861594e-06	-0.0001046403	0.01414145	-0.05496633	8.853487e-06	-6.135006e-05	-0.02884075	-0.0449926
	-0.02818014	-0.04777728	8.853487e-06	-6.135006e-05	0.01470713	-0.05408448	6.246195e-06	-6.06785e-05
	1.337914e-05	-0.0001058671	-0.02884075	-0.0449926	6.246195e-06	-6.06785e-05	0.01374688	-0.05470641
4e+08	0.01146945	-0.05851414	-1.435677e-05	-0.0001073392	-0.03404301	-0.04254133	3.487281e-06	-0.0001086384
	-1.435677e-05	-0.0001073392	0.01033803	-0.05890538	1.686846e-06	-6.413424e-05	-0.03462101	-0.0395923
	-0.03404301	-0.04254133	1.686846e-06	-6.413424e-05	0.01093066	-0.05805028	1.099603e-07	-6.320498e-05
	3.487281e-06	-0.0001086384	-0.03462101	-0.0395923	1.099603e-07	-6.320498e-05	0.009860592	-0.05861322
4.1e+08	0.007040766	-0.0622324	-2.55857e-05	-0.0001090441	-0.03931846	-0.03660914	-7.054752e-06	-0.000110509
	-2.55857e-05	-0.0001090441	0.005822749	-0.06252049	-6.15718e-06	-6.633804e-05	-0.03979798	-0.03350291
	-0.03931846	-0.03660914	-6.15718e-06	-6.633804e-05	0.006440654	-0.06169848	-6.602128e-06	-6.523928e-05
	-7.054752e-06	-0.000110509	-0.03979798	-0.03350291	-6.602128e-06	-6.523928e-05	0.005263481	-0.06218328
4.2e+08	0.001919467	-0.06552187	-3.745244e-05	-0.0001096327	-0.04392539	-0.03005313	-1.815866e-05	-0.0001113742
	-3.745244e-05	-0.0001096327	0.0006231885	-0.06569153	-1.464346e-05	-6.785583e-05	-0.04429125	-0.02679899
	-0.04392539	-0.03005313	-1.464346e-05	-6.785583e-05	0.001263562	-0.06490956	-1.38585e-05	-6.669031e-05
	-1.815866e-05	-0.0001113742	-0.04429125	-0.02679899	-1.38585e-05	-6.669031e-05	-1.490866e-05	-0.06529656
4.3e+08	-0.003850545	-0.06826548	-4.984389e-05	-0.0001089926	-0.04779206	-0.02295469	-2.972352e-05	-0.0001111358
	-4.984389e-05	-0.0001089926	-0.005214191	-0.06830177	-2.371809e-05	-6.857608e-05	-0.04803003	-0.01956393
	-0.04779206	-0.02295469	-2.371809e-05	-6.857608e-05	-0.004555893	-0.06756724	-2.161587e-05	-6.746797e-05
	-2.972352e-05	-0.0001111358	-0.04803003	-0.01956393	-2.161587e-05	-6.746797e-05	-0.005926516	-0.06783672
4.4e+08	-0.01020687	-0.07035094	-6.262879e-05	-0.000107025	-0.05085713	-0.01540349	-4.163822e-05	-0.0001097054
	-6.262879e-05	-0.000107025	-0.0116243	-0.07023971	-3.331301e-05	-6.839416e-05	-0.0509543	-0.01188933
	-0.05085713	-0.01540349	-3.331301e-05	-6.839416e-05	-0.01095401	-0.06955956	-2.981569e-05	-6.748292e-05
	-4.163822e-05	-0.0001097054	-0.0509543	-0.01188933	-2.981569e-05	-6.748292e-05	-0.01240426	-0.06969243
4.5e+08	-0.01706803	-0.07167298	-7.566228e-05	-0.0001036412	-0.05307112	-0.007495714	-5.377109e-05	-0.0001070092
	-7.566228e-05	-0.0001036412	-0.01852306	-0.07140135	-4.334202e-05	-6.721079e-05	-0.05301601	-0.003873116
	-0.05307112	-0.007495714	-4.334202e-05	-6.721079e-05	-0.01784863	-0.07078235	-3.839015e-05	-6.664786e-05
	-5.377109e-05	-0.0001070092	-0.05301601	-0.003873116	-3.839015e-05	-6.664786e-05	-0.01936246	-0.07076052
4.6e+08	-0.02433578	-0.07213708	-8.878406e-05	-9.877054e-05	-0.05439627	0.0006674889	-6.598059e-05	-0.0001029862
	-8.878406e-05	-9.877054e-05	-0.02580967	-0.0716939	-5.370685e-05	-6.492911e-05	-0.05417921	0.004382024
	-0.05439627	0.0006674889	-5.370685e-05	-6.492911e-05	-0.02514112	-0.07114246	-4.725273e-05	-6.48843e-05
	-6.598059e-05	-0.0001029862	-0.05417921	0.004382024	-4.725273e-05	-6.48843e-05	-0.02669915	-0.07094961
4.7e+08	-0.03189646	-0.07166365	-0.0001018243	-9.236029e-05	-0.05480765	0.008981829	-7.812069e-05	-9.759061e-05
	-0.0001018243	-9.236029e-05	-0.03336818	-0.07103997	-6.428515e-05	-6.146504e-05	-0.05442086	0.01277048
	-0.05480765	0.008981829	-6.428515e-05	-6.146504e-05	-0.03271673	-0.07056029	-5.6302e-05	-6.212e-05
	-7.812069e-05	-9.759061e-05	-0.05442086	0.01277048	-5.6302e-05	-6.212e-05	-0.03429632	-0.07018245
4.8e+08	-0.03962296	-0.07018687	-0.0001145995	-8.43804e-05	-0.05429275	0.01734075	-9.002825e-05	-9.079779e-05
	-0.0001145995	-8.43804e-05	-0.04106931	-0.06937636	-7.494497e-05	-5.674602e-05	-0.05373049	0.02118459
