!$
! Info: Touchstone file created by Circ.  Input file=Intel_C2M_200G_4p0in_202208016_staggered.circ
!$
# Hz S RI R 50
0	0.01603603	2.804745e-24	0.9837633	-4.956615e-24	9.295792e-05	2.528656e-22	-0.0002243182	2.747105e-20
	0.9837633	-4.954716e-24	0.0165918	5.443287e-24	-0.0002243736	2.747784e-20	0.0003177618	4.56277e-22
	9.301586e-05	2.529909e-22	-0.0002245109	2.749466e-20	0.01603396	2.660385e-24	0.9837636	-5.009417e-24
	-0.0002244555	2.748787e-20	0.0003178306	4.565931e-22	0.9837636	-5.011324e-24	0.01659321	5.537222e-24
1e+07	0.01935058	0.003042315	0.9775963	-0.07831221	0.001219756	0.005060568	-0.0008473206	-0.000677228
	0.9775963	-0.07831221	0.01949393	0.003010345	-0.0008480722	-0.0006774575	0.001155309	0.005077922
	0.001219756	0.005060568	-0.0008480722	-0.0006774575	0.01939335	0.002756189	0.9775655	-0.07800395
	-0.0008473206	-0.000677228	0.001155309	0.005077922	0.9775655	-0.07800395	0.01951692	0.002715988
2e+07	0.02273327	0.003104337	0.9652615	-0.1530559	0.002598495	0.009552126	-0.00111378	-0.0009508533
	0.9652615	-0.1530559	0.02343781	0.003047175	-0.001115991	-0.0009495058	0.002297953	0.009687122
	0.002598506	0.009552114	-0.001115988	-0.0009496167	0.02246717	0.002633329	0.9655733	-0.1525651
	-0.001113777	-0.0009509578	0.002298041	0.009687017	0.9655733	-0.1525651	0.02309525	0.002609151
3e+07	0.02522631	0.001626474	0.9482182	-0.2251585	0.004615736	0.01384642	-0.001374066	-0.001181619
	0.9482182	-0.2251585	0.02634062	0.001117446	-0.001376973	-0.001177402	0.004071967	0.01403568
	0.004615707	0.01384646	-0.001377015	-0.001177401	0.02472111	0.001155772	0.9487917	-0.2246815
	-0.001374078	-0.001181625	0.004071944	0.01403565	0.9487917	-0.2246815	0.02573292	0.000743713
4e+07	0.02689797	-0.0005502871	0.9263044	-0.2951464	0.007303977	0.01772446	-0.001634872	-0.001368636
	0.9263044	-0.2951464	0.02866986	-0.001503904	-0.001637114	-0.001360861	0.006365334	0.01810883
	0.007303971	0.01772449	-0.001637119	-0.001360857	0.02620466	-0.0009615163	0.9270883	-0.2947569
	-0.001634874	-0.001368623	0.006365334	0.01810883	0.9270883	-0.2947569	0.02785942	-0.001730247
5e+07	0.02789907	-0.003037566	0.8995698	-0.3628845	0.01057261	0.02113106	-0.00189606	-0.001517721
	0.8995698	-0.3628845	0.03047307	-0.004656304	-0.001896097	-0.001506403	0.00916405	0.02182046
	0.01057262	0.02113107	-0.001896095	-0.001506404	0.02705249	-0.003352895	0.9005221	-0.3626302
	-0.001896057	-0.001517722	0.009164054	0.02182047	0.9005221	-0.3626302	0.0295203	-0.004683713
6e+07	0.02831389	-0.005660689	0.868146	-0.4281302	0.01435252	0.02399082	-0.002156263	-0.00163878
	0.868146	-0.4281302	0.03173756	-0.00815539	-0.002152576	-0.001624442	0.012411	0.02511056
	0.01435254	0.02399081	-0.002152573	-0.001624443	0.02734369	-0.005853026	0.8692262	-0.4280464
	-0.00215626	-0.00163878	0.012411	0.02511056	0.8692262	-0.4280464	0.03070248	-0.007950596
7e+07	0.02819708	-0.008280835	0.8322043	-0.490614	0.01855963	0.02623685	-0.00241804	-0.001740307
	0.8322043	-0.490614	0.03248674	-0.01185839	-0.002409167	-0.001724123	0.01604386	0.02792984
	0.01855963	0.02623685	-0.002409117	-0.001724173	0.02713089	-0.008328169	0.8333711	-0.4907285
	-0.002418037	-0.001740309	0.01604386	0.02792984	0.8333711	-0.4907285	0.03142947	-0.01140178
8e+07	0.02761538	-0.01078052	0.7919446	-0.5500608	0.02310178	0.02781459	-0.00268587	-0.001828002
	0.7919446	-0.5500608	0.03274809	-0.01566228	-0.002670764	-0.001811703	0.01999419	0.0302378
	0.02310178	0.0278146	-0.002670765	-0.001811701	0.02648066	-0.01066239	0.7931567	-0.5503973
	-0.002685872	-0.001827999	0.01999419	0.0302378	0.7931567	-0.5503973	0.03172998	-0.01494515
9e+07	0.02665136	-0.01306909	0.7475906	-0.6062011	0.02788133	0.02868242	-0.002965741	-0.001904846
	0.7475906	-0.6062011	0.03254567	-0.01948051	-0.002943834	-0.001890711	0.02418992	0.03200438
	0.02788133	0.02868243	-0.002943833	-0.001890702	0.02547747	-0.01276229	0.7487979	-0.6067813
	-0.002965743	-0.001904836	0.02418992	0.03200438	0.7487979	-0.6067813	0.03163279	-0.0185018
1e+08	0.02541258	-0.01507437	0.6993714	-0.6587924	0.03279821	0.02881173	-0.0032664	-0.001971141
	0.6993714	-0.6587924	0.03191432	-0.02321472	-0.003237867	-0.001962552	0.02855933	0.03321
	0.03279821	0.02881173	-0.003237867	-0.001962553	0.02424483	-0.01452646	0.7004984	-0.6596587
	-0.0032664	-0.001971142	0.02855933	0.03321	0.7004984	-0.6596587	0.03120323	-0.0219701
1.1e+08	0.0239572	-0.01689176	0.6475293	-0.7074726	0.03776047	0.02817653	-0.003588783	-0.002011655
	0.6475293	-0.7074726	0.03097929	-0.02686383	-0.003557717	-0.002009209	0.03301923	0.03383362
	0.03776047	0.02817652	-0.003557716	-0.00200921	0.02299209	-0.01619149	0.6484501	-0.7085096
	-0.003588783	-0.002011656	0.03301923	0.03383362	0.6484501	-0.7085096	0.03055866	-0.02549921
1.2e+08	0.0222776	-0.01836219	0.5924605	-0.7520486	0.04261365	0.0267896	-0.003928883	-0.002041341
	0.5924605	-0.7520486	0.02965453	-0.0303919	-0.003896214	-0.00204541	0.03748506	0.0338863
	0.04261365	0.0267896	-0.003896214	-0.002045412	0.02143598	-0.01758762	0.5932032	-0.7531946
	-0.003928883	-0.002041343	0.03748506	0.0338863	0.5932032	-0.7531946	0.02948121	-0.02898293
1.3e+08	0.02049535	-0.01946505	0.5344601	-0.792342	0.04726751	0.02467117	-0.004297431	-0.002054232
	0.5344601	-0.792342	0.02799715	-0.03371662	-0.004264842	-0.002065512	0.04188503	0.03338321
	0.04726751	0.02467117	-0.004264842	-0.002065513	0.019749	-0.01862685	0.5350323	-0.7935669
	-0.004297431	-0.002054233	0.04188503	0.03338321	0.5350323	-0.7935669	0.02804765	-0.03230838
1.4e+08	0.01869883	-0.02020632	0.4738484	-0.8281789	0.05162639	0.02185375	-0.00469985	-0.002042908
	0.4738484	-0.8281789	0.02606269	-0.03679014	-0.004669288	-0.002060932	0.04614873	0.03234839
	0.05162639	0.02185374	-0.004669288	-0.002060933	0.01804364	-0.01931002	0.4742539	-0.8294562
	-0.004699851	-0.002042909	0.04614873	0.03234839	0.4742539	-0.8294562	0.02631461	-0.03541507
1.5e+08	0.01696588	-0.02060445	0.4109564	-0.859405	0.05559677	0.01838174	-0.005138949	-0.001998057
	0.4109564	-0.859405	0.0239084	-0.03958017	-0.005111883	-0.002022177	0.05021091	0.03081456
	0.05559677	0.01838174	-0.005111883	-0.002022178	0.01640446	-0.01966	0.4111999	-0.8607133
	-0.00513895	-0.001998057	0.05021091	0.03081456	0.4111999	-0.8607133	0.02434022	-0.03826275
1.6e+08	0.01536618	-0.02068953	0.3461251	-0.8858866	0.05909068	0.01431151	-0.005614839	-0.001909447
	0.3461251	-0.8858866	0.02159177	-0.0420667	-0.005592438	-0.001938611	0.05401237	0.02882297
	0.05909068	0.01431151	-0.005592439	-0.001938611	0.01490153	-0.01971051	0.34621	-0.887208
	-0.005614839	-0.001909447	0.05401237	0.02882297	0.34621	-0.887208	0.02218248	-0.04082571
1.7e+08	0.01396169	-0.02050267	0.2797017	-0.9075166	0.06202784	0.009710356	-0.00612496	-0.001766502
	0.2797017	-0.9075166	0.01916936	-0.04424052	-0.006108065	-0.001799391	0.05750093	0.02642141
	0.06202784	0.009710355	-0.006108065	-0.001799392	0.01359421	-0.0195042	0.2796325	-0.9088342
	-0.00612496	-0.001766502	0.05750093	0.02642141	0.2796325	-0.9088342	0.0198988	-0.0430904
1.8e+08	0.01280465	-0.02009522	0.2120388	-0.9242118	0.06433721	0.004655634	-0.006664156	-0.001558866
	0.2120388	-0.9242118	0.01669598	-0.04610148	-0.006653251	-0.001594224	0.06063279	0.0236638
	0.06433721	0.004655634	-0.006653252	-0.001594224	0.01253184	-0.01909246	0.2118208	-0.9255093
	-0.006664156	-0.001558866	0.06063279	0.0236638	0.2118208	-0.9255093	0.01754411	-0.04505329
1.9e+08	0.01193698	-0.01952755	0.1434942	-0.9359113	0.06595878	-0.0007664416	-0.007224762	-0.001276619
	0.1434942	-0.9359113	0.01422303	-0.04765806	-0.007220055	-0.001313195	0.06337276	0.0206091
	0.06595878	-0.0007664418	-0.007220055	-0.001313196	0.01175338	-0.01853457	0.1431347	-0.9371757
	-0.007224762	-0.001276619	0.06337276	0.0206091	0.1431347	-0.9371757	0.01517078	-0.04671983
2e+08	0.01138798	-0.0188671	0.07442683	-0.9425801	0.06684428	-0.006462585	-0.007796775	-0.0009112636
	0.07442683	-0.9425801	0.01179902	-0.04892623	-0.007798247	-0.0009480221	0.06569449	0.01731907
	0.06684428	-0.006462585	-0.007798247	-0.0009480222	0.0112866	-0.01789624	0.07393086	-0.9437963
	-0.007796776	-0.0009112636	0.06569449	0.01731907	0.07393086	-0.9437963	0.01282707	-0.04810301
2.1e+08	0.01117365	-0.01818558	0.005194976	-0.9442082	0.06695798	-0.01233379	-0.008368378	-0.0004563123
	0.005194976	-0.9442082	0.009466937	-0.04992872	-0.008375781	-0.0004919335	0.06758197	0.0138579
	0.06695798	-0.01233379	-0.008375781	-0.0004919335	0.01114554	-0.0172476	0.004571126	-0.9453635
	-0.008368378	-0.0004563123	0.06758197	0.0138579	0.004571126	-0.9453635	0.01055756	-0.04922312
2.2e+08	0.01129587	-0.01755769	-0.06384357	-0.9408086	0.06627728	-0.0182772	-0.008925917	9.309664e-05
	-0.06384357	-0.9408086	0.007265618	-0.05069408	-0.008938848	5.948557e-05	0.06902814	0.01029011
	0.06627728	-0.0182772	-0.008938848	5.948541e-05	0.01133118	-0.01666098	-0.06458695	-0.9418912
	-0.008925917	9.309649e-05	0.06902814	0.01029011	-0.06458695	-0.9418912	0.008401187	-0.05010616
2.3e+08	0.01174249	-0.01705765	-0.1323317	-0.9324173	0.06479329	-0.02418794	-0.009454805	0.0007386769
	-0.1323317	-0.9324173	0.005227658	-0.05125586	-0.00947271	0.0007082072	0.07003551	0.006679323
	0.06479329	-0.02418794	-0.00947271	0.0007082072	0.01183109	-0.01620896	-0.1331865	-0.9334164
	-0.009454805	0.0007386769	0.07003551	0.006679323	-0.1331865	-0.9334164	0.006391844	-0.05078334
2.4e+08	0.01248735	-0.01675698	-0.1999198	-0.9190965	0.06251066	-0.02996044	-0.009939867	0.001480408
	-0.1999198	-0.9190965	0.003379364	-0.05165164	-0.009962034	0.001453631	0.07061612	0.003087193
	0.06251066	-0.02996044	-0.009962034	0.001453631	0.01261831	-0.01596146	-0.2008753	-0.9200034
	-0.009939867	0.001480408	0.07061612	0.003087193	-0.2008753	-0.9200034	0.004557227	-0.05129029
2.5e+08	0.01349063	-0.01672217	-0.2662604	-0.9009322	0.05944746	-0.0354905	-0.01036584	0.002315075
	-0.2662604	-0.9009322	0.001740859	-0.05192222	-0.01039136	0.002292552	0.07079037	-0.0004282935
	0.05944746	-0.0354905	-0.01039136	0.002292552	0.01365343	-0.01598339	-0.2673068	-0.901736
	-0.01036584	0.002315074	0.07079037	-0.0004282935	-0.2673068	-0.901736	0.00291897	-0.05166571
2.6e+08	0.01470051	-0.01701253	-0.3310154	-0.8780305	0.05563538	-0.04067713	-0.01071819	0.003236769
	-0.3310154	-0.8780305	0.0003247512	-0.05210999	-0.01074604	0.003219119	0.07058668	-0.003813913
	0.05563538	-0.04067713	-0.01074604	0.003219118	0.01488412	-0.01633276	-0.3321397	-0.8787241
	-0.01071819	0.003236769	0.07058668	-0.003813913	-0.3321397	-0.8787241	0.00149153	-0.05195092
2.7e+08	0.01605401	-0.01767819	-0.3938527	-0.8505209	0.05111845	-0.04542348	-0.01098312	0.004237431
	-0.3938527	-0.8505209	-0.0008626871	-0.05225878	-0.01101242	0.004224594	0.07004058	-0.007021839
	0.05111845	-0.04542348	-0.01101242	0.004224594	0.01624761	-0.01705838	-0.3950444	-0.8510987
	-0.01098312	0.004237431	0.07004058	-0.007021839	-0.3950444	-0.8510987	0.0002829686	-0.05218824
2.8e+08	0.01747842	-0.01875784	-0.4544509	-0.8185568	0.04595297	-0.04963916	-0.01114837	0.005306531
	-0.4544509	-0.8185568	-0.001822367	-0.05241236	-0.01117804	0.005298702	0.06919392	-0.01001131
	0.04595297	-0.04963916	-0.01117804	0.005298702	0.01767163	-0.01819759	-0.4556978	-0.8190135
	-0.01114837	0.00530653	0.06919392	-0.01001131	-0.4556978	-0.8190135	-0.0007056046	-0.05242038
2.9e+08	0.01889381	-0.02027772	-0.5124987	-0.7823136	0.04020651	-0.05324147	-0.01120313	0.006432286
	-0.5124987	-0.7823136	-0.002562416	-0.05261313	-0.01123247	0.006429085	0.06809344	-0.01274867
	0.04020651	-0.05324147	-0.01123247	0.006429085	0.01907606	-0.01977558	-0.5137884	-0.7826452
	-0.01120313	0.006432286	0.06809344	-0.01274867	-0.5137884	-0.7826452	-0.001480082	-0.05268949
3e+08	0.02021472	-0.02225003	-0.5676968	-0.7419858	0.03395673	-0.05615628	-0.01113916	0.007600816
	-0.5676968	-0.7419858	-0.003096864	-0.05290175	-0.01116742	0.007601868	0.06678962	-0.0152088
	0.03395673	-0.05615628	-0.01116742	0.007601868	0.02037589	-0.0218035	-0.5690169	-0.7421887
	-0.01113916	0.007600815	0.06678962	-0.0152088	-0.5690169	-0.7421887	-0.002052435	-0.05303587
3.1e+08	0.02135273	-0.02467229	-0.6197619	-0.6977901	0.02729028	-0.05832009	-0.01095025	0.008797564
	-0.6197619	-0.6977901	-0.003446029	-0.05331581	-0.01097647	0.008802382	0.06533595	-0.01737444
	0.02729028	-0.05832009	-0.01097647	0.008802382	0.02148249	-0.02427771	-0.6210975	-0.6978625
	-0.01095025	0.008797564	0.06533595	-0.01737444	-0.6210975	-0.6978625	-0.002441181	-0.05349745
3.2e+08	0.02221818	-0.02752664	-0.6684212	-0.6499636	0.02030148	-0.05968059	-0.01063238	0.01000743
	-0.6684212	-0.6499636	-0.003635829	-0.0538893	-0.01065608	0.01001543	0.06378704	-0.01923769
	0.02030148	-0.05968059	-0.01065608	0.01001543	0.02230737	-0.02717875	-0.6697628	-0.6499049
	-0.01063238	0.01000743	0.06378704	-0.01923769	-0.6697628	-0.6499049	-0.002670289	-0.05410856
3.3e+08	0.0227236	-0.03077973	-0.7134225	-0.5987602	0.0130909	-0.06019729	-0.01018349	0.01121537
	-0.7134225	-0.5987602	-0.003696973	-0.05465157	-0.01020486	0.01122552	0.06219708	-0.02079916
	0.0130909	-0.06019729	-0.01020486	0.01122552	0.02276303	-0.03047217	-0.7147562	-0.598572
	-0.01018349	0.01121537	0.06219708	-0.02079916	-0.7147562	-0.598572	-0.002768499	-0.05489931
3.4e+08	0.02278566	-0.0343825	-0.7545283	-0.544456	0.005763479	-0.05984306	-0.00960441	0.01240611
	-0.7545283	-0.544456	-0.003664194	-0.05562684	-0.009622846	0.01241798	0.06061956	-0.02206803
	0.005763479	-0.05984306	-0.009622846	0.01241798	0.02276738	-0.03410788	-0.7558452	-0.5441393
	-0.00960441	0.01240611	0.06061956	-0.02206803	-0.7558452	-0.5441393	-0.002769272	-0.05589486
3.5e+08	0.02232801	-0.0382714	-0.7915257	-0.487341	-0.001572703	-0.05860365	-0.008897243	0.01356563
	-0.7915257	-0.487341	-0.0035757	-0.05683351	-0.008912775	0.01357847	0.05910488	-0.02306231
	-0.001572703	-0.05860365	-0.008912775	0.01357847	0.02224428	-0.03802108	-0.7928097	-0.4868993
	-0.008897243	0.01356563	0.05910488	-0.02306231	-0.7928097	-0.4868993	-0.002709234	-0.05711536
3.6e+08	0.02128325	-0.04236904	-0.8242176	-0.427724	-0.00880836	-0.05647887	-0.008065892	0.01468059
	-0.8242176	-0.427724	-0.00347189	-0.05828447	-0.008079066	0.01469379	0.05769958	-0.02380742
	-0.00880836	-0.05647887	-0.008079066	0.01469379	0.02112794	-0.04213322	-0.8254584	-0.4271607
	-0.008065892	0.01468059	0.05769958	-0.02380742	-0.8254584	-0.4271607	-0.002627747	-0.05857437
3.7e+08	0.01959607	-0.04658581	-0.8524316	-0.3659254	-0.01583513	-0.0534821	-0.007115962	0.01573874
	-0.8524316	-0.3659254	-0.003394559	-0.05998566	-0.007126841	0.01575191	0.05644522	-0.02433603
	-0.01583513	-0.0534821	-0.007126841	0.01575191	0.01936417	-0.04635373	-0.8536199	-0.3652451
	-0.007115962	0.01573874	0.05644522	-0.02433603	-0.8536199	-0.3652451	-0.002565922	-0.06027996
3.8e+08	0.01722432	-0.05082145	-0.87602	-0.3022799	-0.02254666	-0.04963991	-0.006053041	0.01672942
	-0.87602	-0.3022799	-0.003385818	-0.06193677	-0.006062752	0.01674202	0.05537714	-0.02468717
	-0.02254666	-0.04963991	-0.006062752	0.01674202	0.01691188	-0.05058142	-0.877143	-0.3014884
	-0.006053041	0.01672942	0.05537714	-0.02468717	-0.877143	-0.3014884	-0.002565207	-0.06223374
3.9e+08	0.01414145	-0.05496633	-0.8948577	-0.2371353	-0.02884075	-0.0449926	-0.004885059	0.01764283
	-0.8948577	-0.2371353	-0.003487632	-0.06413179	-0.004893149	0.01765483	0.05452384	-0.02490531
	-0.02884075	-0.0449926	-0.004893149	0.01765483	0.01374688	-0.05470641	-0.8959086	-0.2362401
	-0.004885059	0.01764283	0.05452384	-0.02490531	-0.8959086	-0.2362401	-0.002667639	-0.06443055
4e+08	0.01033803	-0.05890538	-0.9088486	-0.1708494	-0.03462101	-0.0395923	-0.00361861	0.01847061
	-0.9088486	-0.1708494	-0.003740296	-0.06655789	-0.003626159	0.01848203	0.05390593	-0.02503892
	-0.03462101	-0.0395923	-0.003626159	0.01848203	0.009860592	-0.05861322	-0.9098164	-0.1698558
	-0.00361861	0.01847061	0.05390593	-0.02503892	-0.9098164	-0.1698558	-0.002913277	-0.06686007
4.1e+08	0.005822749	-0.06252049	-0.9179216	-0.1037808	-0.03979798	-0.03350291	-0.002260977	0.01920539
	-0.9179216	-0.1037808	-0.004181357	-0.06919671	-0.002268627	0.01921639	0.05353579	-0.02513881
	-0.03979798	-0.03350291	-0.002268627	0.01921639	0.005263481	-0.06218328	-0.9187989	-0.1026961
	-0.002260977	0.01920539	0.05353579	-0.02513881	-0.9187989	-0.1026961	-0.003340544	-0.06950533
4.2e+08	0.0006231885	-0.06569153	-0.9220358	-0.03630096	-0.04429125	-0.02679899	-0.0008199341	0.01984083
	-0.9220358	-0.03630096	-0.004845908	-0.07202471	-0.0008277557	0.01985168	0.05341695	-0.02525857
	-0.04429125	-0.02679899	-0.0008277557	0.01985168	-1.490866e-05	-0.06529656	-0.9228141	-0.03513517
	-0.0008199341	0.01984083	0.05341695	-0.02525857	-0.9228141	-0.03513517	-0.003984942	-0.07234424
4.3e+08	-0.005214191	-0.06830177	-0.9211766	0.03122115	-0.04803003	-0.01956393	0.0006982829	0.02037094
	-0.9211766	0.03122115	-0.005764667	-0.07501344	0.0006897336	0.02038235	0.05354418	-0.02545066
	-0.04803003	-0.01956393	0.0006897336	0.02038235	-0.005926516	-0.06783672	-0.9218495	0.03245999
	0.0006982829	0.02037094	0.05354418	-0.02545066	-0.9218495	0.03245999	-0.004878579	-0.07534991
4.4e+08	-0.0116243	-0.07023971	-0.9153594	0.09841566	-0.0509543	-0.01188933	0.002286834	0.02079027
	-0.9153594	0.09841566	-0.0069641	-0.07813051	0.002277698	0.02080255	0.05390326	-0.02576707
	-0.0509543	-0.01188933	0.002277698	0.02080255	-0.01240426	-0.06969243	-0.9159205	0.09971732
	0.002286834	0.02079027	0.05390326	-0.02576707	-0.9159205	0.09971732	-0.006048634	-0.07849105
4.5e+08	-0.01852306	-0.07140135	-0.904628	0.1649113	-0.05301601	-0.003873116	0.00393949	0.02109334
	-0.904628	0.1649113	-0.008465728	-0.08134028	0.003929893	0.02110717	0.05447176	-0.02625698
	-0.05301601	-0.003873116	0.003929893	0.02110717	-0.01936246	-0.07076052	-0.905072	0.166266
	0.00393949	0.02109334	0.05447176	-0.02625698	-0.905072	0.166266	-0.007518177	-0.08173297
4.6e+08	-0.02580967	-0.0716939	-0.8890549	0.2303437	-0.05417921	0.004382024	0.005650615	0.02127423
	-0.8890549	0.2303437	-0.01028568	-0.08460487	0.005640497	0.02129042	0.05521904	-0.02696594
	-0.05417921	0.004382024	0.005640497	0.02129042	-0.02669915	-0.07094961	-0.8893764	0.2317421
	0.005650615	0.02127423	0.05521904	-0.02696594	-0.8893764	0.2317421	-0.009305	-0.08503848
4.7e+08	-0.03336818	-0.07103997	-0.8687427	0.2943601	-0.05442086	0.01277048	0.00741343	0.02132709
	-0.8687427	0.2943601	-0.0124345	-0.08788407	0.007403552	0.02134605	0.056107	-0.0279337
	-0.05442086	0.01277048	0.007403552	0.02134605	-0.03429632	-0.07018245	-0.868937	0.2957895
	0.00741343	0.02132709	0.056107	-0.0279337	-0.868937	0.2957895	-0.0114212	-0.08836804
4.8e+08	-0.04106931	-0.06937636	-0.843815	0.3566111	-0.05373049	0.02118459	0.009222323	0.02124497
	-0.843815	0.3566111	-0.0149169	-0.09113787	0.009212864	0.02126734	0.05709128	-0.02919443
	-0.05373049	0.02118459	0.009212864	0.02126734	-0.04202331	-0.06839836	-0.8438819	0.3580613
	0.009222323	0.02124497	0.05709128	-0.02919443	-0.8438819	0.3580613	-0.01387329	-0.09168138
4.9e+08	-0.04877167	-0.06665922	-0.8144298	0.4167588	-0.05211098	0.02951733	0.01106959	0.02102095
	-0.8144298	0.4167588	-0.01773237	-0.09432552	0.01106182	0.02104684	0.05812181	-0.03077501
	-0.05211098	0.02951733	0.01106182	0.02104684	-0.04973809	-0.06555461	-0.8143654	0.4182205
	0.01106959	0.02102095	0.05812181	-0.03077501	-0.8143654	0.4182205	-0.0166626	-0.09493794
5e+08	-0.05632721	-0.06286577	-0.7807651	0.4744885	-0.04957704	0.03766298	0.01294782	0.02064647
	-0.7807651	0.4744885	-0.02087476	-0.09740775	0.01294239	0.02067643	0.05914435	-0.03269397
	-0.04957704	0.03766298	0.01294239	0.02067643	-0.05729094	-0.06162978	-0.7805689	0.4759462
	0.01294782	0.02064647	0.05914435	-0.03269397	-0.7805689	0.4759462	-0.01978462	-0.09809786
5.1e+08	-0.06358135	-0.05799284	-0.7430224	0.5294905	-0.04615603	0.04551835	0.01484723	0.02011392
	-0.7430224	0.5294905	-0.02433282	-0.1003467	0.01484519	0.0201478	0.06010154	-0.03496181
	-0.04615603	0.04551835	0.01484519	0.0201478	-0.06452721	-0.05662341	-0.7426957	0.5309349
	0.01484723	0.02011392	0.06010154	-0.03496181	-0.7426957	0.5309349	-0.02322964	-0.1011224
5.2e+08	-0.07037783	-0.05206111	-0.7014284	0.5814785	-0.04188679	0.05298582	0.01675719	0.01941419
