!$
! Info: Touchstone file created by Circ.  Input file=Intel_C2M_200G_4p0in_202208016_staggered.circ
!$
# Hz S RI R 50
0	0.01602289	2.514078e-24	4.964771e-05	6.131398e-23	9.336625e-05	2.543226e-22	4.964023e-05	6.119701e-23
	4.964771e-05	6.131398e-23	0.01603603	2.804745e-24	4.965241e-05	6.136993e-23	9.295792e-05	2.528656e-22
	9.342419e-05	2.544501e-22	4.96524e-05	6.137098e-23	0.01601772	2.611166e-24	4.964283e-05	6.124562e-23
	4.964022e-05	6.119805e-23	9.301586e-05	2.529909e-22	4.964283e-05	6.124562e-23	0.01603396	2.660385e-24
1e+07	0.01936513	0.00273054	3.280046e-06	1.989388e-05	0.001214067	0.005000488	6.800144e-06	1.499675e-05
	3.280047e-06	1.989388e-05	0.01935058	0.003042315	2.221197e-06	2.1007e-05	0.001219756	0.005060568
	0.001214067	0.005000488	2.221197e-06	2.1007e-05	0.01932756	0.003092033	3.289694e-06	2.051571e-05
	6.800144e-06	1.499675e-05	0.001219756	0.005060568	3.289694e-06	2.051571e-05	0.01939335	0.002756189
2e+07	0.02242495	0.002590487	6.48664e-06	1.59589e-05	0.002586688	0.009433234	4.47434e-06	9.68881e-06
	6.486639e-06	1.595891e-05	0.02273327	0.003104337	1.422297e-05	2.342501e-05	0.002598495	0.009552126
	0.002586699	0.009433221	1.422297e-05	2.342501e-05	0.02271986	0.003204455	7.064417e-06	1.699321e-05
	4.47434e-06	9.688809e-06	0.002598506	0.009552114	7.064417e-06	1.699321e-05	0.02246717	0.002633329
3e+07	0.02467411	0.001095682	1.166803e-05	1.430384e-05	0.004594056	0.01367077	3.007311e-06	8.73789e-06
	1.166803e-05	1.430384e-05	0.02522631	0.001626474	2.505568e-05	2.280924e-05	0.004615736	0.01384642
	0.004594027	0.0136708	2.505568e-05	2.280924e-05	0.02522076	0.001782443	1.268641e-05	1.545111e-05
	3.007312e-06	8.73789e-06	0.004615707	0.01384646	1.268641e-05	1.545111e-05	0.02472111	0.001155772
4e+07	0.02614921	-0.001034658	1.585274e-05	1.221409e-05	0.007269464	0.01749504	4.086989e-06	7.412958e-06
	1.585274e-05	1.221409e-05	0.02689797	-0.0005502871	3.373214e-05	1.95766e-05	0.007303977	0.01772446
	0.007269458	0.01749506	3.373214e-05	1.95766e-05	0.02691256	-0.0003417395	1.72452e-05	1.337429e-05
	4.086989e-06	7.412957e-06	0.007303971	0.01772449	1.72452e-05	1.337429e-05	0.02620466	-0.0009615163
5e+07	0.02698945	-0.003436857	1.92118e-05	9.596131e-06	0.01052298	0.02085148	5.7516e-06	5.768e-06
	1.92118e-05	9.596131e-06	0.02789907	-0.003037566	4.059489e-05	1.459336e-05	0.01057261	0.02113106
	0.01052298	0.02085149	4.059489e-05	1.459336e-05	0.02794061	-0.002780533	2.094103e-05	1.070442e-05
	5.7516e-06	5.768e-06	0.01057262	0.02113107	2.094103e-05	1.070442e-05	0.02705249	-0.003352895
6e+07	0.0272737	-0.005946928	2.182311e-05	6.528094e-06	0.01428624	0.02366528	6.940384e-06	3.954155e-06
	2.182311e-05	6.528094e-06	0.02831389	-0.005660689	4.578333e-05	8.344107e-06	0.01435252	0.02399082
	0.01428626	0.02366527	4.578333e-05	8.344107e-06	0.02838832	-0.005359736	2.386561e-05	7.53147e-06
	6.940383e-06	3.954154e-06	0.01435254	0.02399081	2.386561e-05	7.53147e-06	0.02734369	-0.005853026
7e+07	0.02705385	-0.008431296	2.371759e-05	3.086862e-06	0.01847612	0.02586993	7.653139e-06	2.015741e-06
	2.371759e-05	3.086862e-06	0.02819708	-0.008280835	4.935606e-05	1.15935e-06	0.01855963	0.02623685
	0.01847612	0.02586993	4.935606e-05	1.15935e-06	0.02830962	-0.007941706	2.605525e-05	3.933079e-06
	7.653139e-06	2.015741e-06	0.01855963	0.02623685	2.605525e-05	3.933079e-06	0.02713089	-0.008328169
8e+07	0.02639578	-0.01077419	2.489002e-05	-6.782417e-07	0.02300146	0.02741113	7.878291e-06	8.727398e-09
	2.489002e-05	-6.782418e-07	0.02761538	-0.01078052	5.12949e-05	-6.758234e-06	0.02310178	0.02781459
	0.02300145	0.02741114	5.12949e-05	-6.758234e-06	0.02777032	-0.01040974	2.750576e-05	-4.705333e-08
	7.878292e-06	8.727313e-09	0.02310178	0.0278146	2.750576e-05	-4.705339e-08	0.02648066	-0.01066239
9e+07	0.02538382	-0.01288186	2.528425e-05	-4.778245e-06	0.02776561	0.02824728	7.586284e-06	-2.017448e-06
	2.528425e-05	-4.778245e-06	0.02665136	-0.01306909	5.14733e-05	-1.535528e-05	0.02788133	0.02868242
	0.02776561	0.02824729	5.14733e-05	-1.535529e-05	0.02685125	-0.01267398	2.815773e-05	-4.435912e-06
	7.586284e-06	-2.017448e-06	0.02788133	0.02868243	2.815773e-05	-4.435912e-06	0.02547747	-0.01276229
1e+08	0.02414129	-0.01465223	2.451086e-05	-9.653147e-06	0.03266959	0.02834952	6.563333e-06	-4.118467e-06
	2.451086e-05	-9.653147e-06	0.02541258	-0.01507437	4.902031e-05	-2.542653e-05	0.03279821	0.02881173
	0.03266959	0.02834952	4.902031e-05	-2.542653e-05	0.02565803	-0.0146627	2.759974e-05	-9.751307e-06
	6.563333e-06	-4.118467e-06	0.03279821	0.02881173	2.759974e-05	-9.751307e-06	0.02424483	-0.01452646
1.1e+08	0.02282202	-0.01630268	2.129922e-05	-1.268594e-05	0.03762239	0.02769145	4.765606e-06	-5.015345e-06
	2.129922e-05	-1.268594e-05	0.0239572	-0.01689176	4.166794e-05	-3.13396e-05	0.03776047	0.02817653
	0.03762239	0.02769145	4.166794e-05	-3.13396e-05	0.02430734	-0.01649058	2.429757e-05	-1.318883e-05
	4.765606e-06	-5.015345e-06	0.03776047	0.02817652	2.429757e-05	-1.318883e-05	0.02299209	-0.01619149
1.2e+08	0.02125886	-0.01767215	1.864503e-05	-1.447629e-05	0.04247068	0.02628541	3.34423e-06	-5.404411e-06
	1.864503e-05	-1.447629e-05	0.0222776	-0.01836219	3.601782e-05	-3.465285e-05	0.04261365	0.0267896
	0.04247068	0.0262854	3.601782e-05	-3.465285e-05	0.02267156	-0.01799114	2.156425e-05	-1.526896e-05
	3.34423e-06	-5.404411e-06	0.04261365	0.0267896	2.156425e-05	-1.526896e-05	0.02143598	-0.01758762
1.3e+08	0.01958556	-0.01870257	1.694475e-05	-1.481835e-05	0.04712504	0.02415078	2.125378e-06	-5.658744e-06
	1.694475e-05	-1.481835e-05	0.02049535	-0.01946505	3.415317e-05	-3.314558e-05	0.04726751	0.02467117
	0.04712504	0.02415078	3.415317e-05	-3.314558e-05	0.020909	-0.01911277	2.000752e-05	-1.549463e-05
	2.125378e-06	-5.658744e-06	0.04726751	0.02467117	2.000752e-05	-1.549463e-05	0.019749	-0.01862685
1.4e+08	0.01789221	-0.01939116	1.591044e-05	-1.414616e-05	0.05149049	0.02131916	1.037145e-06	-5.798164e-06
	1.591044e-05	-1.414616e-05	0.01869883	-0.02020632	3.224106e-05	-3.199484e-05	0.05162639	0.02185375
	0.05149049	0.02131916	3.224106e-05	-3.199484e-05	0.01912906	-0.01986388	1.90358e-05	-1.48202e-05
	1.037145e-06	-5.798164e-06	0.05162639	0.02185374	1.90358e-05	-1.48202e-05	0.01804364	-0.01931002
1.5e+08	0.01625702	-0.0197518	1.513615e-05	-1.360254e-05	0.05547406	0.01783397	3.430313e-08	-5.768197e-06
	1.513615e-05	-1.360254e-05	0.01696588	-0.02060445	3.027418e-05	-3.101017e-05	0.05559677	0.01838174
	0.05547406	0.01783397	3.027418e-05	-3.101017e-05	0.01741487	-0.02027053	1.808276e-05	-1.423574e-05
	3.430318e-08	-5.768197e-06	0.05559677	0.01838174	1.808276e-05	-1.423574e-05	0.01640446	-0.01966
1.6e+08	0.01474966	-0.01981154	1.435747e-05	-1.31238e-05	0.05898818	0.01375044	-8.1068e-07	-5.631293e-06
	1.435747e-05	-1.31238e-05	0.01536618	-0.02068953	2.829154e-05	-3.010685e-05	0.05909068	0.01431151
	0.05898818	0.01375044	2.829154e-05	-3.010685e-05	0.01583582	-0.02036793	1.730017e-05	-1.377201e-05
	-8.106799e-07	-5.631293e-06	0.05909068	0.01431151	1.730017e-05	-1.377201e-05	0.01490153	-0.01971051
1.7e+08	0.01343198	-0.01960918	1.358294e-05	-1.268697e-05	0.06195275	0.009134693	-1.422395e-06	-5.489976e-06
	1.358294e-05	-1.268697e-05	0.01396169	-0.02050267	2.631892e-05	-2.924501e-05	0.06202784	0.009710356
	0.06195275	0.009134692	2.631892e-05	-2.924501e-05	0.01445092	-0.02019938	1.651819e-05	-1.336558e-05
	-1.422395e-06	-5.489976e-06	0.06202784	0.009710355	1.651819e-05	-1.336558e-05	0.01359421	-0.0195042
1.8e+08	0.01235615	-0.01919417	1.281759e-05	-1.228982e-05	0.06429678	0.004062825	-1.805352e-06	-5.070134e-06
	1.281759e-05	-1.228982e-05	0.01280465	-0.02009522	2.43735e-05	-2.839096e-05	0.06433721	0.004655634
	0.06429678	0.004062825	2.43735e-05	-2.839096e-05	0.0133095	-0.01981643	1.57399e-05	-1.301142e-05
	-1.805352e-06	-5.070134e-06	0.06433721	0.004655634	1.57399e-05	-1.301142e-05	0.01253184	-0.01909246
1.9e+08	0.01156412	-0.0186252	1.20675e-05	-1.190182e-05	0.06596007	-0.001380201	-2.134493e-06	-4.60507e-06
	1.20675e-05	-1.190182e-05	0.01193698	-0.01952755	2.247351e-05	-2.750755e-05	0.06595878	-0.0007664416
	0.06596007	-0.001380201	2.247351e-05	-2.750755e-05	0.01245085	-0.01927821	1.49709e-05	-1.267619e-05
	-2.134493e-06	-4.60507e-06	0.06595878	-0.0007664418	1.49709e-05	-1.267619e-05	0.01175338	-0.01853457
2e+08	0.01108539	-0.01796834	1.133865e-05	-1.151204e-05	0.06689402	-0.007102346	-2.430363e-06	-4.124271e-06
	1.133865e-05	-1.151204e-05	0.01138798	-0.0188671	2.063398e-05	-2.658106e-05	0.06684428	-0.006462585
	0.06689402	-0.007102346	2.063398e-05	-2.658106e-05	0.01190323	-0.01865017	1.421629e-05	-1.234728e-05
	-2.430363e-06	-4.124271e-06	0.06684428	-0.006462585	1.421629e-05	-1.234728e-05	0.0112866	-0.01789624
2.1e+08	0.0109362	-0.01729386	1.063543e-05	-1.111564e-05	0.0670623	-0.01300583	-2.688487e-06	-3.62891e-06
	1.063543e-05	-1.111564e-05	0.01117365	-0.01818558	1.886709e-05	-2.560437e-05	0.06695798	-0.01233379
	0.0670623	-0.01300584	1.886709e-05	-2.560437e-05	0.01168152	-0.01800214	1.347985e-05	-1.201815e-05
	-2.688487e-06	-3.62891e-06	0.06695798	-0.01233379	1.347985e-05	-1.201815e-05	0.01114554	-0.0172476
2.2e+08	0.0111189	-0.01667538	9.961777e-06	-1.070946e-05	0.06644158	-0.01898894	-2.905194e-06	-3.121242e-06
	9.961777e-06	-1.070946e-05	0.01129587	-0.01755769	1.718384e-05	-2.457403e-05	0.06627728	-0.0182772
	0.06644158	-0.01898894	1.718384e-05	-2.457403e-05	0.01178766	-0.01740624	1.276506e-05	-1.168402e-05
	-2.905194e-06	-3.121242e-06	0.06627728	-0.0182772	1.276506e-05	-1.168402e-05	0.01133118	-0.01666098
2.3e+08	0.01162188	-0.01618609	9.321089e-06	-1.029189e-05	0.06502203	-0.02494784	-3.077586e-06	-2.604329e-06
	9.321089e-06	-1.029189e-05	0.01174249	-0.01705765	1.559374e-05	-2.34899e-05	0.06479329	-0.02418794
	0.06502203	-0.02494784	1.559374e-05	-2.34899e-05	0.01221044	-0.01693488	1.20749e-05	-1.134176e-05
	-3.077586e-06	-2.604329e-06	0.06479329	-0.02418794	1.20749e-05	-1.134176e-05	0.01183109	-0.01620896
2.4e+08	0.01241971	-0.01589667	8.716308e-06	-9.862503e-06	0.0628072	-0.03077793	-3.203478e-06	-2.081867e-06
	8.716308e-06	-9.862503e-06	0.01248735	-0.01675698	1.410508e-05	-2.235439e-05	0.06251066	-0.02996044
	0.0628072	-0.03077793	1.410508e-05	-2.235439e-05	0.0129242	-0.01665801	1.141212e-05	-1.098945e-05
	-3.203478e-06	-2.081867e-06	0.06251066	-0.02996044	1.141212e-05	-1.098945e-05	0.01261831	-0.01596146
2.5e+08	0.01347339	-0.015873	8.149879e-06	-9.421862e-06	0.05981387	-0.03637579	-3.281415e-06	-1.557986e-06
	8.149879e-06	-9.421862e-06	0.01349063	-0.01672217	1.272489e-05	-2.117187e-05	0.05944746	-0.0354905
	0.05981387	-0.03637579	1.272489e-05	-2.117187e-05	0.013891	-0.01664078	1.077907e-05	-1.062618e-05
	-3.281415e-06	-1.557986e-06	0.05944746	-0.0354905	1.077907e-05	-1.062618e-05	0.01365343	-0.01598339
2.6e+08	0.01473198	-0.01617392	7.623782e-06	-8.971191e-06	0.05607233	-0.04164106	-3.31066e-06	-1.037108e-06
	7.623783e-06	-8.971191e-06	0.01470051	-0.01701253	1.145899e-05	-1.994829e-05	0.05563538	-0.04067713
	0.05607233	-0.04164106	1.145899e-05	-1.994829e-05	0.01506007	-0.01694171	1.017782e-05	-1.025177e-05
	-3.31066e-06	-1.037108e-06	0.05563538	-0.04067713	1.017782e-05	-1.025177e-05	0.01488412	-0.01633276
2.7e+08	0.01613345	-0.01684933	7.139561e-06	-8.512309e-06	0.05162509	-0.04647734	-3.291147e-06	-5.238214e-07
	7.139561e-06	-8.512309e-06	0.01605401	-0.01767819	1.031199e-05	-1.86908e-05	0.05111845	-0.04542348
	0.05162509	-0.04647734	1.031199e-05	-1.86908e-05	0.01637014	-0.01761035	9.61011e-06	-9.866694e-06
	-3.291147e-06	-5.238214e-07	0.05111845	-0.04542348	9.61011e-06	-9.866694e-06	0.01624761	-0.01705838
2.8e+08	0.01760606	-0.01793788	6.698299e-06	-8.047457e-06	0.04652678	-0.05079447	-3.22348e-06	-2.277107e-08
	6.698299e-06	-8.047457e-06	0.01747842	-0.01875784	9.287378e-06	-1.740756e-05	0.04595297	-0.04963916
	0.04652678	-0.05079447	9.287378e-06	-1.740756e-05	0.01775049	-0.01868509	9.077431e-06	-9.471911e-06
	-3.22348e-06	-2.277107e-08	0.04595297	-0.04963916	9.077431e-06	-9.471911e-06	0.01767163	-0.01819759
2.9e+08	0.01907089	-0.01946607	6.300664e-06	-7.579167e-06	0.0408433	-0.05450974	-3.108904e-06	4.614584e-07
	6.300664e-06	-7.579167e-06	0.01889381	-0.02027772	8.387402e-06	-1.61074e-05	0.04020651	-0.05324147
	0.0408433	-0.05450974	8.387402e-06	-1.61074e-05	0.01912236	-0.02019245	8.581002e-06	-9.068733e-06
	-3.108904e-06	4.614584e-07	0.04020651	-0.05324147	8.581002e-06	-9.068733e-06	0.01907606	-0.01977558
3e+08	0.0204434	-0.02144649	5.946903e-06	-7.110169e-06	0.03465055	-0.05754881	-2.94923e-06	9.244255e-07
	5.946903e-06	-7.110169e-06	0.02021472	-0.02225003	7.613204e-06	-1.479968e-05	0.03395673	-0.05615628
	0.03465055	-0.05754881	7.613204e-06	-1.479968e-05	0.02040204	-0.02214525	8.121728e-06	-8.658803e-06
	-2.94923e-06	9.244256e-07	0.03395673	-0.05615628	8.121728e-06	-8.658803e-06	0.02037589	-0.0218035
3.1e+08	0.021636	-0.02387735	5.63687e-06	-6.643309e-06	0.02803346	-0.05984763	-2.74683e-06	1.361927e-06
	5.63687e-06	-6.643309e-06	0.02135273	-0.02467229	6.964761e-06	-1.349407e-05	0.02729028	-0.05832009
	0.02803346	-0.05984763	6.964761e-06	-1.349407e-05	0.02150193	-0.02454177	7.700308e-06	-8.243993e-06
	-2.74683e-06	1.361927e-06	0.02729028	-0.05832009	7.700308e-06	-8.243993e-06	0.02148249	-0.02427771
3.2e+08	0.02255979	-0.02674168	5.370068e-06	-6.181468e-06	0.02108463	-0.06135317	-2.504559e-06	1.770063e-06
	5.370068e-06	-6.181468e-06	0.02221818	-0.02752664	6.44093e-06	-1.22004e-05	0.02030148	-0.05968059
	0.02108463	-0.06135317	6.44093e-06	-1.22004e-05	0.02233431	-0.02736468	7.317157e-06	-7.826346e-06
	-2.504559e-06	1.770063e-06	0.02030148	-0.05968059	7.317157e-06	-7.826346e-06	0.02230737	-0.02717875
3.3e+08	0.02312779	-0.03000726	5.145671e-06	-5.727517e-06	0.013903	-0.06202388	-2.225674e-06	2.145266e-06
	5.145671e-06	-5.727517e-06	0.0227236	-0.03077973	6.039533e-06	-1.092848e-05	0.0130909	-0.06019729
	0.013903	-0.06202388	6.039532e-06	-1.092848e-05	0.02281213	-0.03058194	6.972486e-06	-7.408056e-06
	-2.225674e-06	2.145266e-06	0.0130909	-0.06019729	6.972486e-06	-7.408056e-06	0.02276303	-0.03047217
3.4e+08	0.02325699	-0.03362626	4.962552e-06	-5.284274e-06	0.006592017	-0.06183135	-1.913817e-06	2.484398e-06
	4.962552e-06	-5.284274e-06	0.02278566	-0.0343825	5.757295e-06	-9.687999e-06	0.005763479	-0.05984306
	0.006592017	-0.06183135	5.757295e-06	-9.687999e-06	0.02285333	-0.03414599	6.666247e-06	-6.991406e-06
	-1.913817e-06	2.484398e-06	0.005763479	-0.05984306	6.666247e-06	-6.991406e-06	0.02276738	-0.03410788
3.5e+08	0.02287111	-0.03753656	4.819337e-06	-4.854446e-06	-0.0007416156	-0.06075983	-1.572902e-06	2.784729e-06
	4.819337e-06	-4.854446e-06	0.02232801	-0.0382714	5.589979e-06	-8.488395e-06	-0.001572703	-0.05860365
	-0.0007416157	-0.06075983	5.589979e-06	-8.488395e-06	0.02238141	-0.03799469	6.39824e-06	-6.578761e-06
	-1.572902e-06	2.784729e-06	-0.001572703	-0.05860365	6.39824e-06	-6.578761e-06	0.02224428	-0.03802108
3.6e+08	0.0219025	-0.04166226	4.714421e-06	-4.440645e-06	-0.007989747	-0.05880737	-1.207086e-06	3.043999e-06
	4.714421e-06	-4.440645e-06	0.02128325	-0.04236904	5.532397e-06	-7.338725e-06	-0.00880836	-0.05647887
	-0.007989747	-0.05880737	5.532397e-06	-7.338725e-06	0.02132976	-0.04205211	6.168018e-06	-6.172535e-06
	-1.207086e-06	3.043999e-06	-0.00880836	-0.05647887	6.168018e-06	-6.172535e-06	0.02112794	-0.04213322
3.7e+08	0.0202953	-0.04591527	4.646012e-06	-4.045327e-06	-0.01504495	-0.05598544	-8.206639e-07	3.260419e-06
	4.646012e-06	-4.045327e-06	0.01959607	-0.04658581	5.578475e-06	-6.24752e-06	-0.01583513	-0.0534821
	-0.01504495	-0.05598544	5.578475e-06	-6.24752e-06	0.01964288	-0.04623036	5.974955e-06	-5.775192e-06
	-8.206639e-07	3.260419e-06	-0.01583513	-0.0534821	5.974955e-06	-5.775192e-06	0.01936417	-0.04635373
3.8e+08	0.01800642	-0.05019688	4.612163e-06	-3.670834e-06	-0.0218015	-0.0523185	-4.180308e-07	3.432633e-06
	4.612163e-06	-3.670834e-06	0.01722432	-0.05082145	5.721388e-06	-5.222802e-06	-0.02254666	-0.04963991
	-0.0218015	-0.0523185	5.721388e-06	-5.222802e-06	0.01727788	-0.05043068	5.818247e-06	-5.38921e-06
	-4.180308e-07	3.432633e-06	-0.02254666	-0.04963991	5.818247e-06	-5.38921e-06	0.01691188	-0.05058142
3.9e+08	0.01500808	-0.05439886	4.610771e-06	-3.319368e-06	-0.02815761	-0.04784468	-3.651459e-09	3.559765e-06
	4.610771e-06	-3.319368e-06	0.01414145	-0.05496633	5.953469e-06	-4.271926e-06	-0.02884075	-0.0449926
	-0.02815761	-0.04784468	5.953469e-06	-4.271926e-06	0.0142083	-0.05454543	5.696848e-06	-5.017125e-06
	-3.651459e-09	3.559765e-06	-0.02884075	-0.0449926	5.696848e-06	-5.017125e-06	0.01374688	-0.05470641
4e+08	0.01128922	-0.05840739	4.639608e-06	-2.993006e-06	-0.0340169	-0.04261382	4.180449e-07	3.641347e-06
	4.639608e-06	-2.993006e-06	0.01033803	-0.05890538	6.266486e-06	-3.401528e-06	-0.03462101	-0.0395923
	-0.0340169	-0.04261382	6.266486e-06	-3.401528e-06	0.01042287	-0.0584611	5.609562e-06	-4.661436e-06
	4.180449e-07	3.641347e-06	-0.03462101	-0.0395923	5.609562e-06	-4.661436e-06	0.009860592	-0.05861322
4.1e+08	0.006856456	-0.06210546	4.696299e-06	-2.69342e-06	-0.03928966	-0.03668753	8.425887e-07	3.677217e-06
	4.696299e-06	-2.69342e-06	0.005822749	-0.06252049	6.651954e-06	-2.615973e-06	-0.03979798	-0.03350291
	-0.03928966	-0.03668753	6.651954e-06	-2.615973e-06	0.005929049	-0.06206053	5.55517e-06	-4.323201e-06
	8.425887e-07	3.677217e-06	-0.03979798	-0.03350291	5.55517e-06	-4.323201e-06	0.005263481	-0.06218328
4.2e+08	0.001735189	-0.06537356	4.778377e-06	-2.422649e-06	-0.0438949	-0.03013812	1.265644e-06	3.667785e-06
	4.778377e-06	-2.422649e-06	0.0006231885	-0.06569153	7.10082e-06	-1.920545e-06	-0.04429125	-0.02679899
	-0.0438949	-0.03013812	7.10082e-06	-1.920545e-06	0.0007529293	-0.06522479	5.532344e-06	-4.005181e-06
	1.265644e-06	3.667785e-06	-0.04429125	-0.02679899	5.532344e-06	-4.005181e-06	-1.490866e-05	-0.06529656
4.3e+08	-0.004030445	-0.06809524	4.883292e-06	-2.182541e-06	-0.04776096	-0.02304679	1.683097e-06	3.613855e-06
	4.883292e-06	-2.182541e-06	-0.005214191	-0.06830177	7.603284e-06	-1.320657e-06	-0.04803003	-0.01956393
	-0.04776096	-0.02304679	7.603284e-06	-1.320657e-06	-0.005061301	-0.0678381	5.539127e-06	-3.711172e-06
	1.683097e-06	3.613855e-06	-0.04803003	-0.01956393	5.539127e-06	-3.711172e-06	-0.005926516	-0.06783672
4.4e+08	-0.010378	-0.07015891	5.008307e-06	-1.974696e-06	-0.05082663	-0.01550305	2.090877e-06	3.516467e-06
	5.008307e-06	-1.974696e-06	-0.0116243	-0.07023971	8.149315e-06	-8.196383e-07	-0.0509543	-0.01188933
	-0.05082663	-0.01550305	8.149315e-06	-8.196383e-07	-0.01145041	-0.06978898	5.573339e-06	-3.443686e-06
	2.090877e-06	3.516467e-06	-0.0509543	-0.01188933	5.573339e-06	-3.443686e-06	-0.01240426	-0.06969243
4.5e+08	-0.01722608	-0.07145999	5.150523e-06	-1.800645e-06	-0.05304243	-0.007602916	2.485059e-06	3.376974e-06
	5.150523e-06	-1.800645e-06	-0.01852306	-0.07140135	8.72861e-06	-4.199402e-07	-0.05301601	-0.003873116
	-0.05304243	-0.007602916	8.72861e-06	-4.199402e-07	-0.01833272	-0.07097349	5.632519e-06	-3.205179e-06
	2.485059e-06	3.376974e-06	-0.05301601	-0.003873116	5.632519e-06	-3.205179e-06	-0.01936246	-0.07076052
4.6e+08	-0.02447663	-0.07190464	5.306869e-06	-1.661783e-06	-0.05437064	0.0005526667	2.861874e-06	3.197022e-06
	5.306869e-06	-1.661783e-06	-0.02580967	-0.0716939	9.330736e-06	-1.231017e-07	-0.05417921	0.004382024
	-0.05437064	0.0005526667	9.330736e-06	-1.231017e-07	-0.02561017	-0.07129876	5.713901e-06	-2.997972e-06
	2.861874e-06	3.197022e-06	-0.05417921	0.004382024	5.713901e-06	-2.997972e-06	-0.02669915	-0.07094961
4.7e+08	-0.03201628	-0.07141394	5.474074e-06	-1.559299e-06	-0.05478634	0.008859586	3.217721e-06	2.978536e-06
	5.474074e-06	-1.559299e-06	-0.03336818	-0.07103997	9.945169e-06	7.03868e-08	-0.05442086	0.01277048
	-0.05478634	0.008859586	9.945169e-06	7.03868e-08	-0.03316853	-0.07068534	5.814381e-06	-2.824236e-06
	3.217721e-06	2.978536e-06	-0.05442086	0.01277048	5.814381e-06	-2.824236e-06	-0.03429632	-0.07018245
4.8e+08	-0.03971827	-0.06992259	5.648664e-06	-1.494262e-06	-0.05427698	0.01721148	3.549146e-06	2.723701e-06
	5.648664e-06	-1.494262e-06	-0.04106931	-0.06937636	1.056136e-05	1.608209e-07	-0.05373049	0.02118459
	-0.05427698	0.01721148	1.056136e-05	1.608209e-07	-0.04088057	-0.0690698	5.930529e-06	-2.685924e-06
