!$
! Info: Touchstone file created by Circ.  Input file=Intel_C2M_200G_4p0in_202208016_staggered.circ
!$
# Hz S RI R 50
0	0.0165918	5.442839e-24	-7.17994e-05	8.79289e-21	0.0003177635	4.562719e-22	-6.745956e-05	8.261413e-21
	-7.179949e-05	8.792902e-21	0.01603603	2.804745e-24	-7.899752e-05	9.674406e-21	9.295792e-05	2.528656e-22
	0.0003178324	4.565905e-22	-7.899761e-05	9.674417e-21	0.01659302	5.53871e-24	-7.18249e-05	8.796014e-21
	-6.745955e-05	8.261412e-21	9.301586e-05	2.529909e-22	-7.182481e-05	8.796002e-21	0.01603396	2.660385e-24
1e+07	0.02010492	0.002702792	-0.0004420233	-0.0001076455	0.0009499716	0.005031876	-4.69609e-05	-0.0001009928
	-0.0004420233	-0.0001076455	0.01935058	0.003042315	-0.0003745936	3.964858e-05	0.001219756	0.005060568
	0.0009499716	0.005031876	-0.0003745936	3.964858e-05	0.01995739	0.002943337	-0.0003506231	-8.486062e-05
	-4.69609e-05	-0.0001009928	0.001219756	0.005060568	-0.0003506231	-8.486062e-05	0.01939335	0.002756189
2e+07	0.02356859	0.002365365	-0.0004190605	-0.000262083	0.002084271	0.009691926	-7.084546e-05	-0.0001636092
	-0.0004190604	-0.0002620829	0.02273327	0.003104337	-0.0004376919	-7.892326e-05	0.002598495	0.009552126
	0.002084359	0.009691821	-0.0004376919	-7.892323e-05	0.02367487	0.002811573	-0.000330982	-0.0002878891
	-7.084546e-05	-0.0001636092	0.002598506	0.009552114	-0.000330982	-0.0002878891	0.02246717	0.002633329
3e+07	0.02609713	0.000406739	-0.0004305796	-0.0003788597	0.003855039	0.0140718	-0.0001067209	-0.0002302124
	-0.0004305796	-0.0003788597	0.02522631	0.001626474	-0.000502762	-0.0001518302	0.004615736	0.01384642
	0.003855016	0.01407177	-0.000502762	-0.0001518302	0.02641673	0.0008954558	-0.0003422662	-0.0004069778
	-0.0001067209	-0.0002302124	0.004615707	0.01384646	-0.0003422662	-0.0004069778	0.02472111	0.001155772
4e+07	0.0281243	-0.002121261	-0.0004648351	-0.0004685912	0.006150244	0.01817447	-0.0001567893	-0.0002903164
	-0.0004648351	-0.0004685912	0.02689797	-0.0005502871	-0.0005749255	-0.00021158	0.007303977	0.01772446
	0.006150244	0.01817448	-0.0005749255	-0.00021158	0.02862188	-0.001651936	-0.0003765977	-0.0005001207
	-0.0001567893	-0.0002903164	0.007303971	0.01772449	-0.0003765978	-0.0005001207	0.02620466	-0.0009615163
5e+07	0.02969209	-0.00510379	-0.0005166626	-0.0005396208	0.00895575	0.02191483	-0.0002160287	-0.0003419298
	-0.0005166626	-0.0005396208	0.02789907	-0.003037566	-0.0006545886	-0.000260963	0.01057261	0.02113106
	0.008955753	0.02191484	-0.0006545886	-0.000260963	0.03033856	-0.004695076	-0.0004286681	-0.0005747347
	-0.0002160287	-0.0003419298	0.01057262	0.02113107	-0.0004286681	-0.0005747347	0.02705249	-0.003352895
6e+07	0.03078781	-0.008380467	-0.000582283	-0.0005939841	0.01221433	0.02523253	-0.0002832073	-0.0003845111
	-0.000582283	-0.0005939841	0.02831389	-0.005660689	-0.0007416971	-0.0003007648	0.01435252	0.02399082
	0.01221433	0.02523253	-0.0007416971	-0.0003007648	0.03155449	-0.008063171	-0.0004945118	-0.0006325681
	-0.0002832073	-0.0003845111	0.01435254	0.02399081	-0.0004945118	-0.0006325681	0.02734369	-0.005853026
7e+07	0.03143676	-0.01182535	-0.0006693012	-0.0006256956	0.01586353	0.02807768	-0.0003571785	-0.000417365
	-0.0006693012	-0.0006256955	0.02819708	-0.008280835	-0.0008359725	-0.0003311014	0.01855963	0.02623685
	0.01586353	0.02807768	-0.0008359725	-0.0003311014	0.03229318	-0.01162347	-0.0005706728	-0.0006738521
	-0.0003571785	-0.000417365	0.01855963	0.02623685	-0.0005706728	-0.0006738521	0.02713089	-0.008328169
8e+07	0.03166965	-0.0153489	-0.0007745276	-0.0006311944	0.01983479	0.03040916	-0.0004364704	-0.0004396713
	-0.0007745276	-0.0006311944	0.02761538	-0.01078052	-0.0009367634	-0.0003519244	0.02310178	0.02781459
	0.01983479	0.03040916	-0.0009367634	-0.0003519244	0.0325827	-0.01528105	-0.0006770313	-0.0006822752
	-0.0004364704	-0.0004396713	0.02310178	0.0278146	-0.0006770313	-0.0006822752	0.02648066	-0.01066239
9e+07	0.03151752	-0.01887532	-0.0008798453	-0.0006172129	0.02405613	0.03219638	-0.0005197447	-0.0004510352
	-0.0008798453	-0.0006172129	0.02665136	-0.01306909	-0.001045516	-0.0003647558	0.02788133	0.02868242
	0.02405613	0.03219638	-0.001045516	-0.0003647558	0.03244981	-0.01895544	-0.0008001812	-0.0006567838
	-0.0005197447	-0.0004510352	0.02788133	0.02868243	-0.0008001812	-0.0006567838	0.02547747	-0.01276229
1e+08	0.03105261	-0.02230497	-0.0009782399	-0.0005795281	0.02845757	0.03341962	-0.0006052742	-0.0004511622
	-0.0009782399	-0.0005795281	0.02541258	-0.01507437	-0.001169553	-0.0003765051	0.03279821	0.02881173
	0.02845757	0.03341962	-0.001169553	-0.0003765051	0.03194757	-0.02255154	-0.0009190446	-0.000598278
	-0.0006052742	-0.0004511622	0.03279821	0.02881173	-0.0009190446	-0.000598278	0.02424483	-0.01452646
1.1e+08	0.03038536	-0.02583255	-0.001074441	-0.0005285997	0.03295352	0.03404684	-0.0006920246	-0.0004410902
	-0.001074441	-0.0005285997	0.0239572	-0.01689176	-0.001273318	-0.0003989277	0.03776047	0.02817653
	0.03295352	0.03404685	-0.001273318	-0.0003989277	0.03117896	-0.02614604	-0.001013162	-0.0005446409
	-0.0006920246	-0.0004410902	0.03776047	0.02817652	-0.001013162	-0.0005446409	0.02299209	-0.01619149
1.2e+08	0.02927297	-0.02930306	-0.001174605	-0.0004717893	0.03745064	0.03409709	-0.0007805621	-0.0004202813
	-0.001174605	-0.0004717893	0.0222776	-0.01836219	-0.001373014	-0.0003965915	0.04261365	0.0267896
	0.03745064	0.03409709	-0.001373014	-0.0003965915	0.02999656	-0.02966339	-0.001111108	-0.0004870829
	-0.0007805621	-0.0004202813	0.04261365	0.0267896	-0.001111108	-0.0004870829	0.02143598	-0.01758762
1.3e+08	0.02780575	-0.03260622	-0.001273016	-0.0004038454	0.04187892	0.03358728	-0.0008701076	-0.0003889627
	-0.001273016	-0.0004038454	0.02049535	-0.01946505	-0.001474212	-0.0003775474	0.04726751	0.02467117
	0.04187892	0.03358728	-0.001474212	-0.0003775474	0.02846641	-0.03300551	-0.00120679	-0.0004194272
	-0.0008701076	-0.0003889627	0.04726751	0.02467117	-0.00120679	-0.0004194272	0.019749	-0.01862685
1.4e+08	0.02604401	-0.03568566	-0.001367376	-0.0003241755	0.04616806	0.03254219	-0.0009582833	-0.0003461675
	-0.001367376	-0.0003241755	0.01869883	-0.02020632	-0.001577061	-0.0003431793	0.05162639	0.02185375
	0.04616806	0.03254219	-0.001577061	-0.0003431793	0.02664349	-0.03611603	-0.001297921	-0.0003410887
	-0.0009582833	-0.0003461675	0.05162639	0.02185374	-0.001297921	-0.0003410887	0.01804364	-0.01931002
1.5e+08	0.02404628	-0.03850383	-0.001455983	-0.0002329432	0.05025263	0.0309952	-0.001043932	-0.0002920513
	-0.001455983	-0.0002329432	0.01696588	-0.02060445	-0.001680945	-0.0002937171	0.05559677	0.01838174
	0.05025263	0.0309952	-0.001680945	-0.0002937171	0.02458543	-0.03895715	-0.001382853	-0.0002523277
	-0.001043932	-0.0002920513	0.05559677	0.01838174	-0.001382853	-0.0002523277	0.01640446	-0.01966
1.6e+08	0.02187032	-0.04103671	-0.001537397	-0.0001307283	0.05407337	0.02898806	-0.001125896	-0.0002269438
	-0.001537397	-0.0001307283	0.01536618	-0.02068953	-0.001784798	-0.0002290639	0.05909068	0.01431151
	0.05407337	0.02898806	-0.001784798	-0.0002290639	0.02235012	-0.04150479	-0.001460317	-0.0001538305
	-0.001125896	-0.0002269438	0.05909068	0.01431151	-0.001460317	-0.0001538305	0.01490153	-0.01971051
1.7e+08	0.01957265	-0.04327171	-0.001610418	-1.825941e-05	0.05757801	0.02656915	-0.00120309	-0.00015121
	-0.001610418	-1.825941e-05	0.01396169	-0.02050267	-0.001887286	-0.0001490503	0.06202784	0.009710356
	0.05757801	0.02656915	-0.001887286	-0.0001490503	0.01999494	-0.04374679	-0.001529278	-4.645932e-05
	-0.00120309	-0.00015121	0.06202784	0.009710355	-0.001529278	-4.645934e-05	0.01359421	-0.0195042
1.8e+08	0.01720807	-0.04520574	-0.001674044	0.0001035507	0.06072265	0.02379288	-0.001274457	-6.530542e-05
	-0.001674044	0.0001035507	0.01280465	-0.02009522	-0.001986883	-5.338027e-05	0.06433721	0.004655634
	0.06072265	0.02379288	-0.001986883	-5.338027e-05	0.01757478	-0.04568067	-0.001589026	6.875355e-05
	-0.001274457	-6.530542e-05	0.06433721	0.004655634	-0.001589026	6.875352e-05	0.01253184	-0.01909246
1.9e+08	0.01482799	-0.04684455	-0.001727429	0.0002337774	0.06347213	0.02071874	-0.00133902	3.025549e-05
	-0.001727429	0.0002337774	0.01193698	-0.01952755	-0.002081848	5.805497e-05	0.06595878	-0.0007664416
	0.06347213	0.02071874	-0.002081848	5.8055e-05	0.0151421	-0.0473129	-0.001638963	0.0001907968
	-0.00133902	3.025549e-05	0.06595878	-0.0007664418	-0.001638963	0.0001907968	0.01175338	-0.01853457
2e+08	0.01248116	-0.04820167	-0.001769549	0.0003709846	0.06580015	0.01740895	-0.001395814	0.0001348415
	-0.001769549	0.0003709846	0.01138798	-0.0188671	-0.002171347	0.0001938532	0.06684428	-0.006462585
	0.06580015	0.01740895	-0.002171347	0.0001938532	0.01274501	-0.04865723	-0.001678588	0.0003186775
	-0.001395814	0.0001348415	0.06684428	-0.006462585	-0.001678588	0.0003186775	0.0112866	-0.01789624
2.1e+08	0.01021086	-0.04929751	-0.001800271	0.0005145597	0.06769077	0.01392817	-0.001443962	0.0002478069
	-0.001800271	0.0005145597	0.01117365	-0.01818558	-0.002251058	0.0003447725	0.06695798	-0.01233379
	0.06769077	0.01392817	-0.002251058	0.0003447725	0.0104282	-0.04973477	-0.001707836	0.0004514181
	-0.001443962	0.0002478069	0.06695798	-0.01233379	-0.001707836	0.0004514181	0.01114554	-0.0172476
2.2e+08	0.008056447	-0.05015852	-0.001819131	0.0006635772	0.06913713	0.01034133	-0.001482623	0.0003684381
	-0.001819131	0.0006635772	0.01129587	-0.01755769	-0.002318999	0.0005101727	0.06627728	-0.0182772
	0.06913713	0.01034133	-0.002318999	0.0005101727	0.008230551	-0.05057217	-0.001726589	0.0005881737
	-0.001482623	0.0003684381	0.06627728	-0.0182772	-0.001726589	0.0005881737	0.01133118	-0.01666098
2.3e+08	0.006051198	-0.05081633	-0.001825748	0.0008170664	0.07014194	0.006712463	-0.00151103	0.0004959438
	-0.001825748	0.0008170664	0.01174249	-0.01705765	-0.002373221	0.0006889906	0.06479329	-0.02418794
	0.07014194	0.006712463	-0.002373221	0.0006889906	0.0061859	-0.05120132	-0.001734842	0.0007281577
	-0.00151103	0.0004959438	0.06479329	-0.02418794	-0.001734842	0.0007281577	0.01183109	-0.01620896
2.4e+08	0.004222291	-0.05130681	-0.001819769	0.0009742232	0.0707175	0.003103576	-0.001528467	0.000629477
	-0.001819769	0.0009742232	0.01248735	-0.01675698	-0.00241185	0.0008799558	0.06251066	-0.02996044
	0.0707175	0.003103576	-0.00241185	0.0008799558	0.004321878	-0.05165843	-0.001732589	0.0008707154
	-0.001528467	0.000629477	0.06251066	-0.02996044	-0.001732589	0.0008707154	0.01261831	-0.01596146
2.5e+08	0.002590818	-0.05166915	-0.001800912	0.001134135	0.07088449	-0.0004270577	-0.001534233	0.0007681872
	-0.001800912	0.001134135	0.01349063	-0.01672217	-0.002433102	0.00108151	0.05944746	-0.0354905
	0.07088449	-0.0004270577	-0.002433102	0.00108151	0.00266003	-0.05198275	-0.00171989	0.001015274
	-0.001534233	0.0007681872	0.05944746	-0.0354905	-0.00171989	0.001015274	0.01365343	-0.01598339
2.6e+08	0.001170483	-0.0519445	-0.001768868	0.001295954	0.07067165	-0.003825937	-0.001527758	0.0009111024
	-0.001768868	0.001295954	0.01470051	-0.01701253	-0.002435429	0.001291837	0.05563538	-0.04067713
	0.07067165	-0.003825937	-0.002435429	0.001291837	0.001214696	-0.05221612	-0.00169674	0.00116137
	-0.001527758	0.0009111024	0.05563538	-0.04067713	-0.00169674	0.00116137	0.01488412	-0.01633276
2.7e+08	-3.121361e-05	-0.05217546	-0.001723343	0.001458841	0.07011489	-0.007045038	-0.001508429	0.001057292
	-0.001723343	0.001458841	0.01605401	-0.01767819	-0.002417549	0.001508804	0.05111845	-0.04542348
	0.07011489	-0.007045038	-0.002417549	0.001508804	-6.170738e-06	-0.05240136	-0.001663083	0.001308617
	-0.001508429	0.001057292	0.05111845	-0.04542348	-0.001663083	0.001308617	0.01624761	-0.01705838
2.8e+08	-0.001013964	-0.05240493	-0.001664047	0.00162194	0.0692564	-0.01004348	-0.001475764	0.001205671
	-0.001664047	0.00162194	0.01747842	-0.01875784	-0.002378378	0.001730215	0.04595297	-0.04963916
	0.0692564	-0.01004348	-0.002378378	0.001730215	-0.001001627	-0.05258168	-0.001618821	0.001456652
	-0.001475764	0.001205671	0.04595297	-0.04963916	-0.001618821	0.001456652	0.01767163	-0.01819759
2.9e+08	-0.001784562	-0.05267455	-0.001590688	0.001784315	0.06814331	-0.0127875	-0.001429321	0.001355149
	-0.001590688	0.001784315	0.01889381	-0.02027772	-0.002317179	0.001953695	0.04020651	-0.05324147
	0.06814331	-0.0127875	-0.002317179	0.001953695	-0.001777703	-0.05279968	-0.0015637	0.001605193
	-0.001429321	0.001355149	0.04020651	-0.05324147	-0.0015637	0.001605193	0.01907606	-0.01977558
3e+08	-0.002355714	-0.0530245	-0.001502957	0.001945006	0.06682646	-0.01525195	-0.00136873	0.001504588
	-0.001502957	0.001945006	0.02021472	-0.02225003	-0.002233569	0.002176751	0.03395673	-0.05615628
	0.06682646	-0.01525195	-0.002233569	0.002176751	-0.002346578	-0.0530961	-0.001497393	0.001753893
	-0.00136873	0.001504588	0.03395673	-0.05615628	-0.001497393	0.001753893	0.02037589	-0.0218035
3.1e+08	-0.002746418	-0.05349202	-0.001400588	0.002102995	0.06535973	-0.0174196	-0.001293632	0.001652801
	-0.001400588	0.002102995	0.02135273	-0.02467229	-0.002127403	0.002396914	0.02729028	-0.05832009
	0.06535973	-0.0174196	-0.002127403	0.002396914	-0.002726959	-0.05350931	-0.001419535	0.001902338
	-0.001293632	0.001652801	0.02729028	-0.05832009	-0.001419535	0.001902338	0.02148249	-0.02427771
3.2e+08	-0.002981327	-0.05411098	-0.001283294	0.00225716	0.06379807	-0.01928265	-0.001203854	0.001798472
	-0.001283294	0.00225716	0.02221818	-0.02752664	-0.001999023	0.002611659	0.02030148	-0.05968059
	0.06379807	-0.01928265	-0.001999023	0.002611659	-0.002943075	-0.05407405	-0.001329571	0.002050061
	-0.001203854	0.001798472	0.02030148	-0.05968059	-0.001329571	0.002050061	0.02230737	-0.02717875
3.3e+08	-0.003089896	-0.05491072	-0.001150851	0.002406283	0.06219602	-0.02084179	-0.001099227	0.001940282
	-0.001150851	0.002406283	0.0227236	-0.03077973	-0.001848889	0.002818667	0.0130909	-0.06019729
	0.06219602	-0.02084179	-0.001848889	0.002818667	-0.003023906	-0.05482083	-0.001226889	0.002196479
	-0.001099227	0.001940282	0.0130909	-0.06019729	-0.001226889	0.002196479	0.02276303	-0.03047217
3.4e+08	-0.003105679	-0.0559157	-0.001003127	0.002549035	0.06060736	-0.02210642	-0.0009797215	0.002076868
	-0.001003127	0.002549035	0.02278566	-0.0343825	-0.001677942	0.003015626	0.005763479	-0.05984306
	0.06060736	-0.02210642	-0.001677942	0.003015626	-0.003003252	-0.05577518	-0.00111082	0.002340864
	-0.0009797215	0.002076868	0.005763479	-0.05984306	-0.00111082	0.002340864	0.02276738	-0.03410788
3.5e+08	-0.00306582	-0.05714464	-0.0008400968	0.002683945	0.05908277	-0.02309476	-0.0008454309	0.002206751
	-0.0008400968	0.002683945	0.02232801	-0.0382714	-0.001487318	0.003200488	-0.001572703	-0.05860365
	0.05908277	-0.02309476	-0.001487318	0.003200488	-0.002918024	-0.0569576	-0.0009807165	0.002482253
	-0.0008454309	0.002206751	-0.001572703	-0.05860365	-0.0009807165	0.002482253	0.02224428	-0.03802108
3.6e+08	-0.003009735	-0.0586109	-0.0006618522	0.002809495	0.057669	-0.02383251	-0.0006965954	0.002328464
	-0.0006618522	0.002809495	0.02128325	-0.04236904	-0.001278233	0.003371397	-0.00880836	-0.05647887
	0.057669	-0.02383251	-0.001278233	0.003371397	-0.002807977	-0.058382	-0.0008359251	0.002619535
	-0.0006965954	0.002328464	-0.00880836	-0.05647887	-0.0008359251	0.002619535	0.02112794	-0.04213322
3.7e+08	-0.002978368	-0.06032101	-0.0004685798	0.002924037	0.05640779	-0.02435256	-0.0005334934	0.002440506
	-0.0004685798	0.002924037	0.01959607	-0.04658581	-0.001052157	0.003526719	-0.01583513	-0.0534821
	0.05640779	-0.02435256	-0.001052157	0.003526719	-0.002714609	-0.06005673	-0.0006757523	0.002751384
	-0.0005334934	0.002440506	-0.01583513	-0.0534821	-0.0006757523	0.002751384	0.01936417	-0.04635373
3.8e+08	-0.003013096	-0.06227532	-0.0002607524	0.003025855	0.05533464	-0.02469431	-0.0003567021	0.002541326
	-0.0002607524	0.003025855	0.01722432	-0.05082145	-0.0008107518	0.003665037	-0.02254666	-0.04963991
	0.05533464	-0.02469431	-0.0008107518	0.003665037	-0.002679792	-0.06198364	-0.0004997467	0.002876219
	-0.0003567021	0.002541326	-0.02254666	-0.04963991	-0.0004997467	0.002876219	0.01691188	-0.05058142
3.9e+08	-0.003155313	-0.06446853	-3.900387e-05	0.003113191	0.0544781	-0.02490248	-0.0001668564	0.002629383
	-3.900387e-05	0.003113191	0.01414145	-0.05496633	-0.0005556597	0.003785215	-0.02884075	-0.0449926
	0.0544781	-0.02490248	-0.0005556597	0.003785215	-0.002746007	-0.06415783	-0.0003075467	0.002992285
	-0.0001668564	0.002629383	-0.02884075	-0.0449926	-0.0003075467	0.002992285	0.01374688	-0.05470641
4e+08	-0.003444846	-0.06688862	0.0001957925	0.003184261	0.05385882	-0.02502588	3.518665e-05	0.002703137
	0.0001957925	0.003184261	0.01033803	-0.05890538	-0.0002884539	0.003886303	-0.03462101	-0.0395923
	0.05385882	-0.02502588	-0.0002884539	0.003886303	-0.002953793	-0.0665691	-9.894121e-05	0.003097599
	3.518665e-05	0.002703137	-0.03462101	-0.0395923	-9.894121e-05	0.003097599	0.009860592	-0.05861322
4.1e+08	-0.003919052	-0.06951799	0.0004422258	0.003236774	0.05348917	-0.02511567	0.0002484494	0.002761126
	0.0004422258	0.003236774	0.005822749	-0.06252049	3.034785e-06	0.003969381	-0.03979798	-0.03350291
	0.05348917	-0.02511567	3.034785e-06	0.003969381	-0.003341912	-0.06920059	0.0001250384	0.003190415
	0.0002484494	0.002761126	-0.03979798	-0.03350291	0.0001250384	0.003190415	0.005263481	-0.06218328
4.2e+08	-0.004612761	-0.07233388	0.0006989674	0.003269366	0.05337257	-0.02522572	0.0004716672	0.002801915
	0.0006989674	0.003269366	0.0006231885	-0.06569153	0.000310068	0.00403043	-0.04429125	-0.02679899
	0.05337257	-0.02522572	0.000310068	0.00403043	-0.003946456	-0.07203039	0.0003646498	0.003268468
	0.0004716672	0.002801915	-0.04429125	-0.02679899	0.0003646498	0.003268468	-1.490866e-05	-0.06529656
4.3e+08	-0.005556573	-0.07530864	0.0009645489	0.003280694	0.05350371	-0.02540879	0.000703526	0.002824073
	0.0009645489	0.003280694	-0.005214191	-0.06830177	0.0006240576	0.004067784	-0.04803003	-0.01956393
	0.05350371	-0.02540879	0.0006240576	0.004067784	-0.004800133	-0.07503156	0.0006196881	0.003329207
	0.000703526	0.002824073	-0.04803003	-0.01956393	0.0006196881	0.003329207	-0.005926516	-0.06783672
4.4e+08	-0.006777007	-0.07841056	0.001237087	0.003269294	0.05386819	-0.02571707	0.0009423876	0.002826371
	0.001237087	0.003269294	-0.0116243	-0.07023971	0.0009434103	0.004081173	-0.0509543	-0.01188933
	0.05386819	-0.02571707	0.0009434103	0.004081173	-0.005930666	-0.07817281	0.0008889563	0.003370223
	0.0009423876	0.002826371	-0.0509543	-0.01188933	0.0008889563	0.003370223	-0.01240426	-0.06969243
4.5e+08	-0.008295741	-0.08160475	0.0015145	0.003233905	0.0544434	-0.02620004	0.001186459	0.00280772
	0.0015145	0.003233905	-0.01852306	-0.07140135	0.001266627	0.00407041	-0.05301601	-0.003873116
	0.0544434	-0.02620004	0.001266627	0.00407041	-0.007361632	-0.08141931	0.001171014	0.003389139
	0.001186459	0.00280772	-0.05301601	-0.003873116	0.001171014	0.003389139	-0.01936246	-0.07076052
4.6e+08	-0.01012922	-0.08485392	0.00179439	0.003173501	0.05519845	-0.02690339	0.001433869	0.00276714
	0.00179439	0.003173501	-0.02580967	-0.0716939	0.001592078	0.004035402	-0.05417921	0.004382024
	0.05519845	-0.02690339	0.001592078	0.004035402	-0.009111341	-0.08473369	0.00146412	0.003383559
	0.001433869	0.00276714	-0.05417921	0.004382024	0.00146412	0.003383559	-0.02669915	-0.07094961
4.7e+08	-0.01228829	-0.08811845	0.002074335	0.003087264	0.05609497	-0.02786704	0.001682502	0.002703892
	0.002074335	0.003087264	-0.03336818	-0.07103997	0.00191835	0.003975999	-0.05442086	0.01277048
	0.05609497	-0.02786704	0.00191835	0.003975999	-0.01119237	-0.08807621	0.001765911	0.003351438
	0.001682502	0.002703892	-0.05442086	0.01277048	0.001765911	0.003351438	-0.03429632	-0.07018245
4.8e+08	-0.01477811	-0.09135874	0.002351693	0.002974712	0.05708836	-0.02912521	0.001930209	0.002617384
	0.002351693	0.002974712	-0.04106931	-0.06937636	0.00224424	0.003891972	-0.05373049	0.02118459
	0.05708836	-0.02912521	0.00224424	0.003891972	-0.01361167	-0.09140625	0.002073824	0.003290812
	0.001930209	0.002617384	-0.05373049	0.02118459	0.002073824	0.003290812	-0.04202331	-0.06839836
4.9e+08	-0.01759864	-0.09453442	0.002623646	0.002835713	0.05812822	-0.03070488	0.002174708	0.002507292
