# GHz S RI R 45
0.000     0.059895502000    -0.000000000000    0.000002672796    0.000000000000    0.003926781400    -0.000000000000    0.000001555918    0.000000000000
            0.000002647103    0.000000000000    0.059678404000    -0.000000000000    -0.000000353922    -0.000000000000    0.003951811000    -0.000000000000
            0.004685608000    0.000000000000    -0.000000353285    -0.000000000000    0.058057602000    -0.000000000000    0.000000362933    -0.000000000000
            0.000001593271    -0.000000000000    0.004798105700    0.000000000000    0.000000355078    0.000000000000    0.058951384000    -0.000000000000
0.025     0.131987796881    0.023161714444    0.000006956208    0.000004120881    0.067347160486    0.037586069186    0.000003431268    0.000000381676
            0.000006960776    0.000004124039    0.132624307188    0.022732152805    0.000001767316    0.000003550116    0.067717368462    0.037339316823
            0.068067240275    0.037263502076    0.000001771146    0.000003547610    0.132524059784    0.024352333629    0.000000827923    0.000000323744
            0.000003442454    0.000000382273    0.068420440618    0.036963291150    0.000000831257    0.000000331194    0.133006384238    0.023332810717
0.050     0.122007151479    -0.075130589609    -0.000009369398    0.000009311983    0.074335914138    -0.032860136244    -0.000005089880    0.000002995627
            -0.000009353361    0.000009319767    0.120921011278    -0.075895378272    -0.000001687404    0.000005388279    0.073557232909    -0.033391788409
            0.074799090489    -0.033638062017    -0.000001696381    0.000005379958    0.122883593658    -0.076046225474    -0.000000875204    0.000001252753
            -0.000005098084    0.000002988050    0.073991274335    -0.034160690016    -0.000000855165    0.000001261852    0.121562145856    -0.076671169721
0.075     0.025566895589    -0.032699112754    -0.000000822281    0.000045975651    0.017686092591    0.008890851585    0.000001202381    0.000019697556
            -0.000000782613    0.000045955891    0.025595008416    -0.030973991257    -0.000000300940    0.000017324815    0.017753355235    0.010121400685
            0.017118944005    0.007348377223    -0.000000311329    0.000017348494    0.023225798425    -0.033114363767    0.000000619733    0.000005514248
            0.000001192771    0.000019722103    0.017168766619    0.008597061873    0.000000660069    0.000005489624    0.023366083397    -0.031377644290
0.100     0.108395993195    0.042346222622    0.000028613429    0.000026300450    0.087978298306    0.057051691115    0.000013734028    0.000005927574
            0.000028636406    0.000026285558    0.110789497953    0.040634204572    0.000008094174    0.000014466226    0.089960988080    0.055784666731
            0.087579064481    0.056324302574    0.000008124707    0.000014467907    0.108489037418    0.043668658892    0.000003226916    0.000002548522
            0.000013763559    0.000005927345    0.089548431339    0.055066131990    0.000003248471    0.000002534624    0.110846180990    0.041856666435
0.125     0.163767851570    -0.071318143823    -0.000013356444    0.000017841654    0.129683959170    -0.046977145350    -0.000008031932    0.000003282009
            -0.000013332066    0.000017808740    0.160970798981    -0.074805093983    0.000000465594    0.000015356939    0.127555671295    -0.049885790982
            0.128962865211    -0.047489548479    0.000000450669    0.000015319311    0.164936972628    -0.071554539892    0.000000660932    0.000003226545
            -0.000008046473    0.000003246726    0.126822688154    -0.050379656024    0.000000689049    0.000003198686    0.162177190188    -0.075101394794
0.150     0.045074975755    -0.113547219867    -0.000012106764    0.000083150883    0.025469500243    -0.075471197294    -0.000006721573    0.000033419809
            -0.000012108137    0.000083094398    0.041393250831    -0.110979744999    0.000002382771    0.000031450686    0.022377323265    -0.073338413946
            0.024499475496    -0.075504525883    0.000002348930    0.000031493963    0.044591135707    -0.114133665506    0.000000675062    0.000007824091
            -0.000006750337    0.000033460188    0.021405369927    -0.073339396995    0.000000677651    0.000007754299    0.040959658708    -0.111739592100
0.175     0.059896000718    -0.019496495270    0.000054251228    0.000059350587    0.054025010934    0.012595612127    0.000023250832    0.000017862486
            0.000054240014    0.000059322092    0.061787568466    -0.019850020002    0.000021670252    0.000025520849    0.055995100510    0.012152573477
            0.053567376945    0.012677213776    0.000021729153    0.000025524827    0.059933868467    -0.019799485015    0.000007151219    0.000005331085
            0.000023307244    0.000017860258    0.055543961129    0.012251583936    0.000007129404    0.000005310908    0.061720657159    -0.020364613228
0.200     0.170998976824    -0.064026501486    -0.000007021228    0.000023956735    0.147101777691    -0.044713696249    -0.000007880905    0.000002696759
            -0.000007064890    0.000023936631    0.167269771529    -0.070265085228    0.000005109253    0.000024369516    0.143983386334    -0.050163009529
            0.146739340471    -0.044089653950    0.000005078247    0.000024313067    0.173082575678    -0.064154800377    0.000002927690    0.000005304500
            -0.000007917534    0.000002641374    0.143645196188    -0.049527558081    0.000002892401    0.000005284278    0.169291572166    -0.070538900798
0.225     0.083421975138    -0.189924027197    -0.000021698491    0.000106047862    0.058863499470    -0.149594665019    -0.000015629055    0.000037486611
            -0.000021760690    0.000106026164    0.073391341288    -0.188787585155    0.000013152569    0.000040862701    0.050242629179    -0.148524315161
            0.058608517076    -0.148845389317    0.000013097226    0.000040924058    0.083973756289    -0.191355293258    0.000004346324    0.000005559099
            -0.000015680578    0.000037549711    0.050022463003    -0.147757104808    0.000004289230    0.000005528607    0.074010430661    -0.190421977152
0.250     -0.037083741058    -0.109549371742    0.000071426674    0.000102377774    -0.039858827453    -0.070520466734    0.000023003415    0.000040296006
            0.000071327074    0.000102407757    -0.039593068845    -0.103329558192    0.000035942032    0.000032030956    -0.041699387254    -0.064833186273
            -0.039639205947    -0.069441775327    0.000036040990    0.000032061883    -0.036784684251    -0.109142265081    0.000007966819    0.000007321371
            0.000023098192    0.000040319547    -0.041412127084    -0.063769449067    0.000007844697    0.000007344728    -0.039324477240    -0.103346441075
0.275     0.051438444940    -0.061074816058    0.000012533032    0.000017948580    0.049676836065    -0.036099442857    -0.000003407744    0.000003187316
            0.000012509218    0.000017992431    0.047355140492    -0.063093430896    0.000013273247    0.000011403177    0.046457369466    -0.038191713713
            0.050081076930    -0.035803873965    0.000013244804    0.000011321324    0.055341703600    -0.061124706378    0.000004568400    0.000001295646
            -0.000003443645    0.000003106343    0.046873798810    -0.037927006962    0.000004561354    0.000001358246    0.051051959486    -0.063498752550
0.300     0.088355284944    -0.184458382991    -0.000034714947    0.000124221459    0.055611972225    -0.133313036459    -0.000022483981    0.000044472253
            -0.000034689515    0.000124316927    0.074933776180    -0.183719476838    0.000017106734    0.000050391926    0.045015052830    -0.131780673572
            0.056534109705    -0.133475786508    0.000017080152    0.000050447862    0.089276684205    -0.188108558505    0.000006400168    0.000005313932
            -0.000022513933    0.000044539315    0.045923389250    -0.131998255067    0.000006418570    0.000005389727    0.075783908114    -0.187624521850
0.325     -0.078943054385    -0.205871674443    0.000073816493    0.000139749658    -0.070236401153    -0.126489394945    0.000010689737    0.000055456087
            0.000073846649    0.000139812996    -0.090071816359    -0.193928598094    0.000050010163    0.000032143514    -0.077482914367    -0.116250955113
            -0.069689158858    -0.126736704857    0.000050090516    0.000032153624    -0.080238134802    -0.207162300214    0.000003787703    0.000003670010
            0.000010778417    0.000055465414    -0.076948500898    -0.116538819688    0.000003805942    0.000003741125    -0.091517499788    -0.195700584878
0.350     -0.116365100488    -0.051262558180    0.000046745584    0.000027569161    -0.077223804337    -0.012376479402    0.000008875378    0.000023121264
            0.000046796679    0.000027663921    -0.118720981671    -0.040512061065    0.000024725067    -0.000006099669    -0.077803993608    -0.004781281678
            -0.076460220585    -0.012673400875    0.000024711703    -0.000006215770    -0.114361367419    -0.051452258198    0.000005662688    0.000003094403
            0.000008855563    0.000023005326    -0.077071744885    -0.005144027792    0.000005709630    0.000003206674    -0.117135595259    -0.041108937595
0.375     -0.010907380845    -0.064116012392    -0.000062128979    0.000125614811    -0.002320433805    -0.043514696017    -0.000027096023    0.000057059312
            -0.000062039034    0.000125643465    -0.018236427820    -0.055946584530    -0.000008283618    0.000040061626    -0.008677112330    -0.037119438560
            -0.002013881960    -0.044172835425    -0.000008360385    0.000040121497    -0.009385235116    -0.067618164251    0.000002332121    0.000006579095
            -0.000027172841    0.000057126332    -0.008429834072    -0.037792342782    0.000002440840    0.000006593994    -0.016899016023    -0.059667384608
0.400     -0.058322371350    -0.174695799068    0.000077230739    0.000185087081    -0.049918771896    -0.089873645155    0.000015950369    0.000069008107
            0.000077408608    0.000185009347    -0.069311236052    -0.161473655952    0.000056348702    0.000045185856    -0.055398499545    -0.078693225722
            -0.050355414856    -0.091168162474    0.000056389036    0.000045175195    -0.062393732128    -0.178265173958    0.000005383600    0.000002074993
            0.000016002870    0.000069001872    -0.055943342428    -0.079945224186    0.000005534273    0.000002012583    -0.073709728413    -0.165366906613
0.425     -0.194061073765    -0.079278751259    0.000073648465    0.000051566866    -0.105149097682    -0.013778753376    0.000009521733    0.000042922152
            0.000073710179    0.000051420451    -0.198392661564    -0.058053768091    0.000034577873    -0.000015666175    -0.105248163047    -0.001033782269
            -0.106071692797    -0.014275160556    0.000034532110    -0.000015697518    -0.195585548317    -0.077626371133    0.000000502215    0.000006576549
            0.000009476807    0.000042878225    -0.106216707557    -0.001443073961    0.000000596808    0.000006447790    -0.200287976810    -0.056680919511
0.450     -0.116975669270    0.063025312513    -0.000064285064    0.000112055730    -0.042840671945    0.044207325752    -0.000012642630    0.000066592238
            -0.000064278234    0.000111955305    -0.111996642110    0.081056201165    -0.000029665445    0.000017361567    -0.040908066229    0.054409097597
            -0.043442409973    0.044100047555    -0.000029730406    0.000017427440    -0.114009353946    0.060771340351    0.000004610815    0.000008162256
            -0.000012712652    0.000066665129    -0.041520069043    0.054369471834    0.000004624967    0.000008044427    -0.109406942672    0.078486148697
0.475     -0.032759600009    -0.017103757026    0.000060161378    0.000238554924    -0.023169329827    -0.010166076936    0.000032306651    0.000086932485
            0.000060148529    0.000238482786    -0.029700959483    -0.004118675232    0.000028488580    0.000069039253    -0.021242224908    0.000923410474
            -0.023622519436    -0.010152888947    0.000028579261    0.000069091343    -0.034961650028    -0.021438991179    0.000008996455    0.000003588722
            0.000032407289    0.000086985006    -0.021682032849    0.000984818041    0.000008971099    0.000003510654    -0.032283644227    -0.008898956629
0.500     -0.119884301130    -0.062293003077    0.000111175167    0.000073380161    -0.062998642313    -0.009468554980    0.000018895690    0.000035071316
            0.000111090475    0.000073166513    -0.122834602134    -0.046154025602    0.000043744177    -0.000005439022    -0.062123691111    0.000305851365
            -0.064243531376    -0.009113215482    0.000043736451    -0.000005478466    -0.124866856352    -0.060034542011    -0.000003552708    0.000001030960
            0.000018888000    0.000035022095    -0.063322653785    0.000792119074    -0.000003614592    0.000000842303    -0.128083900171    -0.043992179671
0.525     -0.145341627566    0.068065547837    -0.000059197086    0.000105730622    -0.042056581906    0.046244073783    -0.000014816882    0.000075403779
            -0.000059442215    0.000105636357    -0.138794359342    0.091714588816    -0.000034666659    0.000009431627    -0.039609449817    0.057959005625
            -0.042718101944    0.047482058755    -0.000034661759    0.000009476721    -0.142181162635    0.070299797152    0.000002099007    0.000013958669
            -0.000014823739    0.000075447652    -0.040121942449    0.059266590095    0.000001880314    0.000013812616    -0.135515689189    0.093158562179
0.550     -0.018987507666    0.093831609139    0.000032160500    0.000270595048    0.006458903162    0.022321703467    0.000041421544    0.000097293635
            0.000031949848    0.000270682552    -0.003776341936    0.105893355922    -0.000003043467    0.000083226960    0.011006074994    0.031422913600
            0.006758970209    0.023449329407    -0.000002964449    0.000083243279    -0.017631709912    0.088377599218    0.000012663739    0.000003705704
            0.000041503966    0.000097320930    0.011446088810    0.032504013686    0.000012408761    0.000003782118    -0.002522813232    0.100101724452
0.575     -0.020351452762    -0.000203383553    0.000149499967    0.000115274305    -0.028347053736    -0.004070460518    0.000038179921    0.000026200233
            0.000149278228    0.000115405398    -0.015363904484    0.004958136159    0.000044192738    0.000024250364    -0.025350490819    0.002594674665
            -0.027853741487    -0.002871687850    0.000044235336    0.000024134636    -0.025301083467    -0.001117265389    -0.000005283109    -0.000006578527
            0.000038227055    0.000026077487    -0.024711451281    0.003709718484    -0.000005502146    -0.000006437588    -0.021278765141    0.004289817355
0.600     -0.082212502640    0.025926156287    -0.000050761252    0.000091717959    -0.039574793890    0.030974838437    -0.000032143783    0.000068702423
            -0.000050886848    0.000091826568    -0.081091869177    0.042884792539    -0.000029960377    0.000019464876    -0.038511495302    0.042285995500
            -0.039102883184    0.031625483953    -0.000030040389    0.000019471877    -0.080288108825    0.029426171459    -0.000008222671    0.000018033637
            -0.000032234472    0.000068707280    -0.037965010989    0.042871561748    -0.000008331761    0.000018115764    -0.078923948682    0.046696802779
0.625     -0.027868288441    0.065877293930    0.000007532544    0.000299739557    0.001562816750    0.018382691653    0.000032915425    0.000118304130
            0.000007444305    0.000299988978    -0.015122736904    0.081407441167    -0.000003384291    0.000095045878    0.006116467513    0.029404033471
            0.002613067617    0.018900184660    -0.000003321248    0.000095078458    -0.023666127413    0.060723054919    0.000014992842    0.000009656540
            0.000032973427    0.000118354312    0.007232025299    0.029773460300    0.000014851006    0.000009882935    -0.011368918773    0.075333541704
0.650     -0.016752173636    0.005457023929    0.000177171960    0.000164941714    -0.037104121805    -0.019412114039    0.000049315191    0.000036750497
            0.000177286398    0.000165223103    -0.009988753863    0.011538203977    0.000052595684    0.000036534572    -0.035161192440    -0.009689231632
            -0.035839970544    -0.019697651771    0.000052604758    0.000036394195    -0.021413270993    0.000479054935    -0.000006716282    -0.000012043004
            0.000049349099    0.000036608137    -0.033955515958    -0.010162471570    -0.000006618956    -0.000011717335    -0.015833295464    0.006698584494
0.675     -0.071099579282    0.026492786323    -0.000024926465    0.000081676946    -0.071133303122    0.038736233126    -0.000036368869    0.000067630514
            -0.000024684092    0.000081809053    -0.069635154440    0.042867782662    -0.000029453484    0.000020668715    -0.067885981893    0.054873240094
            -0.070374152835    0.037813602094    -0.000029631172    0.000020689357    -0.071927194727    0.028846250966    -0.000019163617    0.000021978692
            -0.000036554949    0.000067635600    -0.067285409236    0.053857880959    -0.000018908886    0.000022120965    -0.070441632928    0.045552356681
0.700     -0.027691291575    0.059225997046    -0.000023476608    0.000316051306    -0.011311557503    0.058114502275    0.000023987611    0.000138795721
            -0.000023243843    0.000316064149    -0.015784461801    0.076612236241    -0.000009254405    0.000108260022    -0.000982993635    0.071734183197
            -0.011132166662    0.057117480168    -0.000009188225    0.000108381042    -0.022829898986    0.053842178216    0.000014479320    0.000020022914
            0.000024045718    0.000138924056    -0.000948577222    0.070729683458    0.000014696873    0.000020032573    -0.011481894002    0.070308758488
0.725     -0.032142843170    -0.018303229731    0.000196404073    0.000222490538    -0.036241969446    -0.002570728880    0.000059325976    0.000055755445
            0.000196610999    0.000222408123    -0.027701859018    -0.007754040594    0.000071491843    0.000044265648    -0.031132598039    0.008769995308
            -0.036491316972    -0.003380655589    0.000071483837    0.000044143134    -0.043021765089    -0.025222222093    -0.000005884173    -0.000013772165
            0.000059337090    0.000055635133    -0.031511435324    0.008001163861    -0.000005678434    -0.000013808390    -0.040006049069    -0.013485680258
0.750     -0.142471384963    0.045156847672    0.000016065698    0.000087379826    -0.101700568537    0.059105843348    -0.000025972556    0.000087040413
            0.000016243730    0.000087244193    -0.135462133791    0.074191594582    -0.000029871849    0.000001278498    -0.092803135001    0.081687318377
            -0.102033569038    0.058367180518    -0.000030032172    0.000001387048    -0.149197963779    0.048770253515    -0.000025333584    0.000030716986
            -0.000026146591    0.000087124995    -0.093261345355    0.081028051783    -0.000025127063    0.000030586421    -0.141796423136    0.079164089062
0.775     -0.068554394033    0.161657370384    -0.000045266573    0.000300877803    -0.025391593589    0.133916871383    0.000040138138    0.000148757603
            -0.000045110534    0.000300662830    -0.038587281549    0.184484588886    -0.000049303716    0.000096580482    -0.001311256789    0.148374256000
            -0.026106850029    0.133150141399    -0.000049158887    0.000096755408    -0.063740534310    0.161399025829    0.000015807124    0.000026674549
            0.000040275137    0.000148944131    -0.002127187985    0.147749007903    0.000015977940    0.000026470064    -0.033463432553    0.183261073490
