# GHz S RI R 45
0.000     0.059604488000    -0.000000000000    0.938506450000    0.000000000000    0.003839339800    -0.000000000000    -0.005285780600    0.000000000000
            0.938506530000    0.000000000000    0.059678404000    -0.000000000000    -0.005292268200    0.000000000000    0.003951811000    -0.000000000000
            0.004685953100    0.000000000000    -0.004685350300    -0.000000000000    0.059300401000    -0.000000000000    0.938729100000    0.000000000000
            -0.004678908300    -0.000000000000    0.004798105700    0.000000000000    0.938729020000    0.000000000000    0.058951384000    -0.000000000000
0.025     0.132620976695    0.022714522600    0.487440044366    -0.788677089061    0.067718611969    0.037341075218    -0.015806654825    0.004978981846
            0.487440039108    -0.788677080555    0.132624307188    0.022732152805    -0.015804724960    0.004978192025    0.067717368462    0.037339316823
            0.068421059588    0.036965172883    -0.015434060855    0.004481091136    0.133007157256    0.023337085024    0.486462002938    -0.789612261732
            -0.015435489405    0.004481719138    0.068420440618    0.036963291150    0.486462035745    -0.789612253265    0.133006384238    0.023332810717
0.050     0.120921353921    -0.075895246190    -0.399764552135    -0.833001041753    0.073557249374    -0.033391723109    -0.003814426558    0.015094594256
            -0.399764547808    -0.833001032737    0.120921011278    -0.075895378272    -0.003814886747    0.015095439260    0.073557232909    -0.033391788409
            0.073991339186    -0.034160525692    -0.004004448148    0.014456865722    0.121561408806    -0.076671532268    -0.402083837687    -0.832278560103
            -0.004003979320    0.014456026414    0.073991274335    -0.034160690016    -0.402083837687    -0.832278560103    0.121562145856    -0.076671169721
0.075     0.025594562335    -0.030973914916    -0.922844517994    -0.099451433764    0.017753527540    0.010121506308    0.001756566170    0.024578120204
            -0.922844517994    -0.099451433764    0.025595008416    -0.030973991257    0.001756483586    0.024578159190    0.017753355235    0.010121400685
            0.017168925982    0.008597176902    0.001020962994    0.024352094429    0.023361717466    -0.031376526527    -0.923912245228    -0.095828756897
            0.001021047084    0.024352058876    0.017168766619    0.008597061873    -0.923912245228    -0.095828756897    0.023366083397    -0.031377644290
0.100     0.110789807670    0.040634057110    -0.559460730011    0.720668657739    0.089961665937    0.055784047962    0.041497424806    0.012046014462
            -0.559460730011    0.720668657739    0.110789497953    0.040634204572    0.041497819295    0.012046022174    0.089960988080    0.055784666731
            0.089549107406    0.055065528920    0.040913820840    0.012577693066    0.110843510716    0.041862859866    -0.555703166099    0.724265616100
            0.040913429829    0.012577685406    0.089548431339    0.055066131990    -0.555703166099    0.724265616100    0.110846180990    0.041856666435
0.125     0.160942046791    -0.074817391937    0.292459132680    0.850084450985    0.127871965111    -0.049784652040    0.021917553414    -0.034816846092
            0.292459255022    0.850084324293    0.160970798981    -0.074805093983    0.021944396967    -0.034806366814    0.127555671295    -0.049885790982
            0.127138966069    -0.050278493040    0.022118741326    -0.033970604191    0.162143439377    -0.075127815401    0.298356976585    0.848239850595
            0.022091911403    -0.033981082252    0.126822688154    -0.050379656024    0.298356894647    0.848239996022    0.162177190188    -0.075101394794
0.150     0.041392287053    -0.110930079228    0.882731412029    0.217690018965    0.022386763082    -0.073450228015    -0.004113369202    -0.032384053567
            0.882731301429    0.217690008034    0.041393250831    -0.110979744999    -0.004068809569    -0.032418900959    0.022377323265    -0.073338413946
            0.021414835270    -0.073451181976    -0.003182353625    -0.032158096347    0.040926950772    -0.111720915704    0.884690727398    0.210772524491
            -0.003226915909    -0.032123261237    0.021405369927    -0.073339396995    0.884690884350    0.210772512933    0.040959658708    -0.111739592100
0.175     0.061809613774    -0.019822586079    0.643851030358    -0.640579877048    0.056019919613    0.012140682635    -0.043617019249    -0.032945774587
            0.643851026267    -0.640579895339    0.061787568466    -0.019850020002    -0.043630615827    -0.033030362940    0.055995100510    0.012152573477
            0.055567375591    0.012239809168    -0.042970112958    -0.033719935748    0.061708600792    -0.020325247943    0.638058216476    -0.646921309554
            -0.042956523728    -0.033635340216    0.055543961129    0.012251583936    0.638058206423    -0.646921389698    0.061720657159    -0.020364613228
0.200     0.167276315695    -0.070239224943    -0.192699227812    -0.860323323309    0.143994055231    -0.050232560930    -0.054367805494    0.043355560819
            -0.192699232184    -0.860323342826    0.167269771529    -0.070265085228    -0.054469714181    0.043316923542    0.143983386334    -0.050163009529
            0.143655872865    -0.049597117855    -0.054754164952    0.042426181309    0.169295624360    -0.070535519423    -0.202214878065    -0.858103879020
            -0.054652237889    0.042464839677    0.143645196188    -0.049527558081    -0.202215034714    -0.858103872927    0.169291572166    -0.070538900798
0.225     0.073415974909    -0.188754487478    -0.815172205284    -0.317608489646    0.050212681665    -0.148542232675    0.015836003440    0.053963312930
            -0.815172288670    -0.317608358263    0.073391341288    -0.188787585155    0.015725860100    0.054037852124    0.050242629179    -0.148524315161
            0.049992487421    -0.147775029848    0.014767824635    0.053824238494    0.073960040357    -0.190418715105    -0.818559655533    -0.307651237545
            0.014877991266    0.053749681760    0.050022463003    -0.147757104808    -0.818559737310    -0.307651105234    0.074010430661    -0.190421977152
0.250     -0.039555317160    -0.103317160904    -0.722409430070    0.523116130721    -0.041704271868    -0.064828992025    0.037024210645    0.028644016834
            -0.722409371167    0.523116280266    -0.039593068845    -0.103329558192    0.037028924043    0.028814088925    -0.041699387254    -0.064833186273
            -0.041416993436    -0.063765222549    0.036379244172    0.029625616142    -0.039360976479    -0.103264687975    -0.715323562692    0.532334038815
            0.036374502273    0.029455509026    -0.041412127084    -0.063769449067    -0.715323586759    0.532334056725    -0.039324477240    -0.103346441075
0.275     0.047376464080    -0.063082058070    0.074074441204    0.888234417218    0.046454848795    -0.038197157281    0.070569928895    -0.013943752026
            0.074074567718    0.888234436772    0.047355140492    -0.063093430896    0.070749602432    -0.013847359120    0.046457369466    -0.038191713713
            0.046871320096    -0.037932484840    0.071209224395    -0.012928925927    0.051086992076    -0.063462011151    0.086999309112    0.886733819343
            0.071029535166    -0.013025304347    0.046873798810    -0.037927006962    0.086999434876    0.886733827100    0.051051959486    -0.063498752550
0.300     0.074965234222    -0.183687039716    0.766262705396    0.399384953067    0.045009929906    -0.131778164820    0.009235346821    -0.084089024395
            0.766262778896    0.399384855320    0.074933776180    -0.183719476838    0.009437038407    -0.084200883783    0.045015052830    -0.131780673572
            0.045918219090    -0.131995776229    0.010337543290    -0.084162150211    0.075738548829    -0.187635525177    0.771815665274    0.386811684093
            0.010135881872    -0.084050261236    0.045923389250    -0.131998255067    0.771815737164    0.386811585289    0.075783908114    -0.187624521850
0.325     -0.090009292386    -0.193915688298    0.752091514510    -0.409087267017    -0.077476842715    -0.116250110677    -0.060364927455    -0.038053827493
            0.752091469464    -0.409087412617    -0.090071816359    -0.193928598094    -0.060332964167    -0.038326007003    -0.077482914367    -0.116250955113
            -0.076942443799    -0.116537917862    -0.059797784794    -0.039061879274    -0.091593243642    -0.195598796224    0.744415943477    -0.421070752618
            -0.059829716147    -0.038789708992    -0.076948500898    -0.116538819688    0.744415896099    -0.421070897313    -0.091517499788    -0.195700584878
0.350     -0.118673763382    -0.040536003838    0.069283149738    -0.868214443727    -0.077802883841    -0.004788151414    -0.061224427511    0.011411284281
            0.069282969490    -0.868214478174    -0.118720981671    -0.040512061065    -0.061484436857    0.011191907874    -0.077803993608    -0.004781281678
            -0.077070577875    -0.005150921761    -0.061911133499    0.010311034713    -0.117094971871    -0.040993687024    0.053801017001    -0.868673239731
            -0.061651123435    0.010530356759    -0.077071744885    -0.005144027792    0.053800836302    -0.868673270961    -0.117135595259    -0.041108937595
0.375     -0.018201979829    -0.055946630541    -0.709497727509    -0.514875089280    -0.008682982071    -0.037118914247    -0.043875743736    0.070339310499
            -0.709497891047    -0.514874829872    -0.018236427820    -0.055946584530    -0.044267343643    0.070468155744    -0.008677112330    -0.037119438560
            -0.008435748032    -0.037791879722    -0.045243281537    0.070525708805    -0.016903156214    -0.059659008074    -0.718550591592    -0.500566199320
            -0.044851723408    0.070396867086    -0.008429834072    -0.037792342782    -0.718550758117    -0.500565942782    -0.016899016023    -0.059667384608
0.400     -0.069236194596    -0.161463478068    -0.791897511354    0.322096521476    -0.055389772764    -0.078688823637    0.055353230779    0.080073160488
            -0.791897427348    0.322096648385    -0.069311236052    -0.161473655952    0.055223163933    0.080552586689    -0.055398499545    -0.078693225722
            -0.055934657867    -0.079940743725    0.054909479573    0.081309573780    -0.073801319362    -0.165269694866    -0.784004022721    0.337395370693
            0.055039567671    0.080830212453    -0.055943342428    -0.079945224186    -0.784003877391    0.337395632503    -0.073709728413    -0.165366906613
0.425     -0.198298215609    -0.058110379746    -0.167529213212    0.824419264042    -0.105242540751    -0.001047137206    0.089349974645    -0.010572528707
            -0.167528921453    0.824419302921    -0.198392661564    -0.058053768091    0.089756402069    -0.010088879755    -0.105248163047    -0.001033782269
            -0.106211015132    -0.001456401602    0.090140894981    -0.009458264847    -0.200277858697    -0.056501179234    -0.150303799940    0.826748496341
            0.089734515675    -0.009941934210    -0.106216707557    -0.001443073961    -0.150303652068    0.826748502896    -0.200287976810    -0.056680919511
0.450     -0.111966649318    0.080965608491    0.601809844776    0.600276829263    -0.040918559021    0.054404844377    0.046232461076    -0.069803863382
            0.601810113489    0.600276531543    -0.111996642110    0.081056201165    0.047095720858    -0.069888652646    -0.040908066229    0.054409097597
            -0.041530576313    0.054365150969    0.047879790793    -0.069847090438    -0.109347024125    0.078581824117    0.614716409129    0.586373322595
            0.047016528161    -0.069762336332    -0.041520069043    0.054369471834    0.614716678215    0.586373026014    -0.109406942672    0.078486148697
0.475     -0.029646604389    -0.004152750785    0.836374852745    -0.196535641333    -0.021236185584    0.000930259239    -0.028093720623    -0.094067700266
            0.836374643963    -0.196536223817    -0.029700959483    -0.004118675232    -0.027489732324    -0.095213654186    -0.021242224908    0.000923410474
            -0.021676055722    0.000991711633    -0.027103321187    -0.095942918234    -0.032344850722    -0.008801233083    0.830373070475    -0.216212678023
            -0.027707336380    -0.094796964581    -0.021682032849    0.000984818041    0.830372853918    -0.216213271599    -0.032283644227    -0.008898956629
0.500     -0.122621077974    -0.046245690253    0.269563265364    -0.800874789914    -0.062111639810    0.000286809840    -0.109443169632    -0.023141088272
            0.269562317766    -0.800874887286    -0.122834602134    -0.046154025602    -0.110482007200    -0.025120100242    -0.062123691111    0.000305851365
            -0.063310526755    0.000773113584    -0.110935690771    -0.025686256640    -0.128210977926    -0.043761372156    0.249627269093    -0.805764136983
            -0.109896856365    -0.023707221592    -0.063322653785    0.000792119074    0.249626312820    -0.805764234329    -0.128083900171    -0.043992179671
0.525     -0.138467784623    0.091182200776    -0.514455728895    -0.654492717721    -0.039638202218    0.057944636730    -0.074591436327    0.080659144052
            -0.514457423812    -0.654491347291    -0.138794359342    0.091714588816    -0.080378253522    0.079076250840    -0.039609449817    0.057959005625
            -0.040150679114    0.059252148733    -0.080989597573    0.079112214438    -0.135705824312    0.093722750591    -0.530300459715    -0.641039540550
            -0.075202879488    0.080695010032    -0.040121942449    0.059266590095    -0.530302137951    -0.641038152225    -0.135515689189    0.093158562179
0.550     -0.003308945719    0.106093771390    -0.835425574682    0.073238076161    0.010957015490    0.031419277000    0.019375377917    0.110178538753
            -0.835429748132    0.073235356487    -0.003776341936    0.105893355922    0.017367923265    0.097310988297    0.011006074994    0.031422913600
            0.011396969767    0.032500380828    0.016995627106    0.097823080559    -0.002970066195    0.099934314285    -0.833007991095    0.095925165206
            0.019002883528    0.110690111260    0.011446088810    0.032504013686    -0.833012127662    0.095922547919    -0.002522813232    0.100101724452
0.575     -0.015522021588    0.005149252154    -0.382366987813    0.748701903711    -0.025339050635    0.002610468564    0.114823011018    0.051571726318
            -0.382369201744    0.748702367505    -0.015363904484    0.004958136159    0.110628407310    0.048284699690    -0.025350490819    0.002594674665
            -0.024699975845    0.003725475761    0.110909011877    0.048909347532    -0.021063128737    0.004227820538    -0.360366086460    0.758481604886
            0.115103308062    0.052196237914    -0.024711451281    0.003709718484    -0.360368117692    0.758482123369    -0.021278765141    0.004289817355
0.600     -0.080877358203    0.043242771314    0.423265973953    0.715314910280    -0.038503663200    0.042252606269    0.108196152378    -0.079209683358
            0.423266549405    0.715316765863    -0.081091869177    0.042884792539    0.105209513527    -0.075716200330    -0.038511495302    0.042285995500
            -0.037957144061    0.042838117743    0.105904389211    -0.075698598593    -0.078993273089    0.046405996562    0.443305454494    0.702051225293
            0.108891014633    -0.079191956003    -0.037965010989    0.042871561748    0.443306008031    0.702053051888    -0.078923948682    0.046696802779
0.625     -0.015039124021    0.081340085857    0.827347334544    0.031584132178    0.006094366544    0.029410430756    -0.006120357254    -0.134047560793
            0.827348019200    0.031583498893    -0.015122736904    0.081407441167    -0.003946004493    -0.133458326364    0.006116467513    0.029404033471
            0.007209858210    0.029779832982    -0.003575311505    -0.134022079129    -0.011380431546    0.075395042285    0.827874017154    0.006295024690
            -0.005749632344    -0.134611324382    0.007232025299    0.029773460300    0.827874681881    0.006294405506    -0.011368918773    0.075333541704
0.650     -0.009932573427    0.011552550747    0.467180592592    -0.681259914788    -0.035148097404    -0.009684415234    -0.124452528328    -0.075987585748
            0.467180398294    -0.681260217786    -0.009988753863    0.011538203977    -0.124115803764    -0.076696965386    -0.035161192440    -0.009689231632
            -0.033942426367    -0.010157592271    -0.124425133716    -0.077352586383    -0.015869201480    0.006782973845    0.444470377274    -0.695684498475
            -0.124761783185    -0.076643184584    -0.033955515958    -0.010162471570    0.444470192284    -0.695684770932    -0.015833295464    0.006698584494
0.675     -0.069595279529    0.042829970663    -0.319776619188    -0.750346210194    -0.067881013753    0.054850715809    -0.134568168895    0.072750842727
            -0.319776765830    -0.750346191180    -0.069635154440    0.042867782662    -0.134764104330    0.072496987648    -0.067885981893    0.054873240094
            -0.067280384054    0.053835327024    -0.135549523246    0.072489173233    -0.070339593344    0.045713650117    -0.344092726858    -0.738692696022
            -0.135353545750    0.072742940966    -0.067285409236    0.053857880959    -0.344092868451    -0.738692663161    -0.070441632928    0.045552356681
0.700     -0.015786590615    0.076591590701    -0.801140781965    -0.137978603093    -0.001003210142    0.071724720418    -0.013736094752    0.153896575989
            -0.801140791820    -0.137978604790    -0.015784461801    0.076612236241    -0.013882540837    0.153912231101    -0.000982993635    0.071734183197
            -0.000968855121    0.070720169731    -0.014219541203    0.154643097649    -0.011346501194    0.070332237424    -0.805558022800    -0.110223970794
            -0.014073183162    0.154627395820    -0.000948577222    0.070729683458    -0.805558032707    -0.110223972150    -0.011481894002    0.070308758488
0.725     -0.027691023854    -0.007758893542    -0.538345713305    0.605789863424    -0.031133870128    0.008783258237    0.134729248044    0.106403615371
            -0.538345706662    0.605789855949    -0.027701859018    -0.007754040594    0.134706285804    0.106454571350    -0.031132598039    0.008769995308
            -0.031512741138    0.008014511497    0.135227382968    0.107059690300    -0.039998547389    -0.013421164776    -0.514731447711    0.624735683857
            0.135250282217    0.107008810250    -0.031511435324    0.008001163861    -0.514731447711    0.624735683857    -0.040006049069    -0.013485680258
0.750     -0.135458082381    0.074174009547    0.216626034118    0.755382957107    -0.092787134432    0.081672774465    0.163165938687    -0.076628532996
            0.216626060485    0.755382949545    -0.135462133791    0.074191594582    0.163160504315    -0.076613944581    -0.092803135001    0.081687318377
            -0.093245269873    0.081013513774    0.163933587797    -0.076798307464    -0.141682335000    0.079349883120    0.243921644755    0.745205754947
            0.163939070539    -0.076812792027    -0.093261345355    0.081028051783    0.243921657762    0.745205750689    -0.141796423136    0.079164089062
0.775     -0.038593202557    0.184478834650    0.737410215101    0.242395547374    -0.001330343981    0.148350595145    0.015464745046    -0.164498346780
            0.737410214063    0.242395518511    -0.038587281549    0.184484588886    0.015465202576    -0.164480786854    -0.001311256789    0.148374256000
            -0.002146313951    0.147725278828    0.015648213993    -0.165312092498    -0.033251155834    0.183315003759    0.745748934765    0.214883956268
