# GHz S RI R 45
0.000     0.061062344000    0.000000000000    -0.000018566707    0.000000000000    0.003355531300    -0.000000000000    -0.000025007762    -0.000000000000
            -0.000012833250    -0.000000000000    0.059678404000    -0.000000000000    -0.000005402308    0.000000000000    0.003951811000    -0.000000000000
            0.004329565400    -0.000000000000    -0.000001401279    0.000000000000    0.060831928000    -0.000000000000    -0.000017111855    0.000000000000
            -0.000001682262    0.000000000000    0.004798105700    0.000000000000    0.000015906518    0.000000000000    0.058951384000    -0.000000000000
0.025     0.133420596324    0.022091979525    -0.000023953861    0.000009773073    0.068412268239    0.038058005105    -0.000034042534    0.000013858336
            -0.000019331197    0.000005769964    0.132624307188    0.022732152805    -0.000014432328    0.000009078274    0.067717368462    0.037339316823
            0.068300100210    0.037182431582    -0.000006038036    0.000001712214    0.133346498958    0.021933831511    -0.000026099648    0.000011486197
            -0.000017654933    -0.000008174254    0.068420440618    0.036963291150    -0.000013164687    -0.000015681780    0.133006384238    0.023332810717
0.050     0.120532642384    -0.076137400179    -0.000027756878    0.000025843378    0.074193638079    -0.033862189120    -0.000027013138    0.000041936468
            -0.000027506206    0.000018156356    0.120921011278    -0.075895378272    -0.000010420173    0.000007795061    0.073557232909    -0.033391788409
            0.073256174913    -0.033682441683    -0.000022176649    -0.000002212605    0.119843488561    -0.076403758153    -0.000020827180    0.000026819885
            -0.000043269608    0.000015728062    0.073991274335    -0.034160690016    -0.000034452367    0.000001924745    0.121562145856    -0.076671169721
0.075     0.025706846892    -0.029345046851    0.000022872321    0.000078750676    0.016881893146    0.010011299222    0.000026394850    0.000080038433
            0.000015137060    0.000073637693    0.025595008416    -0.030973991257    0.000011807987    0.000057217357    0.017753355235    0.010121400685
            0.017589236749    0.011332979240    0.000007256596    0.000068099171    0.025375488571    -0.028490660780    0.000020742899    0.000069907575
            -0.000000113935    0.000085174813    0.017168766619    0.008597061873    -0.000012070987    0.000067870691    0.023366083397    -0.031377644290
0.100     0.113094964175    0.040902142148    0.000091808213    -0.000014042713    0.091160281004    0.056579778061    0.000101587341    0.000006986359
            0.000083068979    -0.000009787270    0.110789497953    0.040634204572    0.000069991743    -0.000038612491    0.089960988080    0.055784666731
            0.091925317833    0.056095874369    0.000072263632    -0.000039456082    0.114129689095    0.041149178798    0.000086528437    -0.000011632916
            0.000090589313    0.000026605805    0.089548431339    0.055066131990    0.000070944309    0.000020144538    0.110846180990    0.041856666435
0.125     0.161013471434    -0.076325620958    0.000028499572    -0.000043690022    0.128475775964    -0.050197986324    0.000062264958    -0.000069372637
            0.000026316331    -0.000033032212    0.160970798981    -0.074805093983    -0.000028900772    -0.000024893983    0.127555671295    -0.049885790982
            0.127819622317    -0.050947099388    -0.000029221193    -0.000016774087    0.161229389413    -0.077451867332    0.000025123811    -0.000043762774
            0.000072912436    -0.000042383618    0.126822688154    -0.050379656024    0.000046725343    -0.000018210031    0.162177190188    -0.075101394794
0.150     0.040013145297    -0.108997903663    0.000026997217    -0.000099847283    0.021863185691    -0.072083658261    0.000002203907    -0.000121760956
            0.000037145535    -0.000091415174    0.041393250831    -0.110979744999    0.000025757179    -0.000041671462    0.022377323265    -0.073338413946
            0.021019145724    -0.071272903827    0.000040166071    -0.000045638127    0.038954579653    -0.108882325424    0.000023290597    -0.000088154948
            0.000038623011    -0.000124569095    0.021405369927    -0.073339396995    0.000053383596    -0.000094300522    0.040959658708    -0.111739592100
0.175     0.065196634372    -0.017820861685    -0.000139984719    -0.000045360626    0.059149062232    0.014138198776    -0.000147004911    -0.000062447519
            -0.000127856364    -0.000052280355    0.061787568466    -0.019850020002    -0.000098266042    0.000007114032    0.055995100510    0.012152573477
            0.059370399766    0.014352613939    -0.000107069217    -0.000004392006    0.064983093055    -0.018458225281    -0.000122887946    -0.000042609188
            -0.000143131075    -0.000095120582    0.055543961129    0.012251583936    -0.000111574435    -0.000070791529    0.061720657159    -0.020364613228
0.200     0.169632996803    -0.073034648981    -0.000039127720    0.000093492492    0.145642534446    -0.051642171536    -0.000105623981    0.000102527946
            -0.000039323947    0.000081449367    0.167269771529    -0.070265085228    0.000076143419    0.000085540876    0.143983386334    -0.050163009529
            0.146205674102    -0.052439956986    0.000073088769    0.000092831530    0.171576269250    -0.074306519402    -0.000036272761    0.000080081937
            -0.000123629962    0.000088936774    0.143645196188    -0.049527558081    -0.000056893654    0.000054549389    0.169291572166    -0.070538900798
0.225     0.071368983196    -0.189093402604    -0.000033353254    0.000050991741    0.049422642097    -0.147895397852    -0.000008059328    0.000130185656
            -0.000042629064    0.000044075808    0.073391341288    -0.188787585155    -0.000020826986    -0.000073586254    0.050242629179    -0.148524315161
            0.048554433556    -0.148217775455    -0.000020763244    -0.000077962486    0.070860888812    -0.190997377857    -0.000037398279    0.000045113596
            -0.000033229473    0.000131490464    0.050022463003    -0.147757104808    -0.000071422242    0.000054719694    0.074010430661    -0.190421977152
0.250     -0.037441236305    -0.098815031790    0.000075670952    0.000158022684    -0.038932025018    -0.061184583619    0.000124037153    0.000139608060
            0.000064199307    0.000162375626    -0.039593068845    -0.103329558192    0.000012838046    0.000107182182    -0.041699387254    -0.064833186273
            -0.039117709792    -0.060003126291    0.000004018032    0.000116222685    -0.037852561872    -0.098128464632    0.000064602480    0.000150640865
            0.000112814732    0.000173555362    -0.041412127084    -0.063769449067    0.000063374005    0.000184581383    -0.039324477240    -0.103346441075
0.275     0.053432484665    -0.065097135606    0.000161005678    -0.000068395357    0.051764115504    -0.040140004588    0.000201460877    -0.000081386815
            0.000159665843    -0.000055555879    0.047355140492    -0.063093430896    0.000035341906    -0.000081691723    0.046457369466    -0.038191713713
            0.052162602557    -0.040113742181    0.000051206214    -0.000075981248    0.057573497490    -0.064986476705    0.000145714861    -0.000051596832
            0.000234356142    -0.000066034915    0.046873798810    -0.037927006962    0.000168992081    -0.000039638322    0.051051959486    -0.063498752550
0.300     0.073702964452    -0.187936985851    0.000016545066    -0.000093427633    0.044352870217    -0.133952561429    0.000015916435    -0.000188394047
            0.000026415024    -0.000086825707    0.074933776180    -0.183719476838    -0.000064991745    0.000101107604    0.045015052830    -0.131780673572
            0.044553269304    -0.135188022251    -0.000065591607    0.000087223058    0.074126108963    -0.191877210099    0.000033230824    -0.000074786421
            0.000032073095    -0.000208687150    0.045923389250    -0.131998255067    0.000055032424    -0.000082114462    0.075783908114    -0.187624521850
0.325     -0.091601590910    -0.190875123706    -0.000004638704    -0.000154998393    -0.076446023888    -0.113218934093    -0.000106210723    -0.000147692730
            0.000004316145    -0.000159080288    -0.090071816359    -0.193928598094    0.000164292574    -0.000069903985    -0.077482914367    -0.116250955113
            -0.077413634281    -0.113354817238    0.000159575790    -0.000066124973    -0.093884782463    -0.192279945224    0.000012672853    -0.000164770831
            -0.000108896244    -0.000165089376    -0.076948500898    -0.116538819688    0.000019622695    -0.000193135832    -0.091517499788    -0.195700584878
0.350     -0.111617626807    -0.038340814695    -0.000248988076    -0.000081357558    -0.070398187254    -0.004570904790    -0.000256418797    -0.000018738792
            -0.000246322345    -0.000089299678    -0.118720981671    -0.040512061065    -0.000178084085    -0.000120066917    -0.077803993608    -0.004781281678
            -0.070202916113    -0.003643180820    -0.000174058822    -0.000126841113    -0.110680481248    -0.037856073416    -0.000247153879    -0.000093074437
            -0.000274960552    -0.000033146072    -0.077071744885    -0.005144027792    -0.000276210159    -0.000109664766    -0.117135595259    -0.041108937595
0.375     -0.015158280440    -0.062489298237    -0.000140698081    0.000192145595    -0.006343879608    -0.043037763190    -0.000125672033    0.000262545848
            -0.000145286235    0.000183359774    -0.018236427820    -0.055946584530    -0.000027590695    0.000091874269    -0.008677112330    -0.037119438560
            -0.005884005754    -0.043493438024    -0.000043817362    0.000094079487    -0.014501943473    -0.064855686812    -0.000146089128    0.000173557291
            -0.000149669914    0.000281931029    -0.008429834072    -0.037792342782    -0.000164642054    0.000194912213    -0.016899016023    -0.059667384608
0.400     -0.073524250005    -0.162376708597    0.000035068782    0.000198316793    -0.057237528380    -0.078426812493    0.000156933449    0.000210305560
            0.000023583195    0.000198824749    -0.069311236052    -0.161473655952    -0.000106354789    -0.000012132641    -0.055398499545    -0.078693225722
            -0.057830025714    -0.079705531807    -0.000096904838    0.000004901560    -0.077446175844    -0.166003217414    0.000003127725    0.000198010019
            0.000172743095    0.000235094254    -0.055943342428    -0.079945224186    0.000008270868    0.000214421654    -0.073709728413    -0.165366906613
0.425     -0.194824059636    -0.053428074313    0.000221257928    0.000165185754    -0.099496012483    0.000645443643    0.000260649138    0.000043979416
            0.000217869307    0.000174042381    -0.198392661564    -0.058053768091    0.000091994123    0.000267992701    -0.105248163047    -0.001033782269
            -0.100741065120    0.000945287663    0.000102205291    0.000257697316    -0.197276433546    -0.051865289666    0.000219126517    0.000198666128
            0.000281043647    0.000036986523    -0.106216707557    -0.001443073961    0.000233526983    0.000210015628    -0.200287976810    -0.056680919511
0.450     -0.103193688079    0.076315756728    0.000287073355    -0.000124939876    -0.034311483161    0.047217594048    0.000260714749    -0.000241001299
            0.000289790029    -0.000118690505    -0.111996642110    0.081056201165    0.000294647606    -0.000177097826    -0.040908066229    0.054409097597
            -0.034136134246    0.048209836211    0.000289617144    -0.000177660765    -0.101080262768    0.075336868493    0.000311668123    -0.000126105671
            0.000265097610    -0.000254256019    -0.041520069043    0.054369471834    0.000334983690    -0.000137125020    -0.109406942672    0.078486148697
0.475     -0.031986567082    -0.011331020914    -0.000002505558    -0.000207938165    -0.023744803225    -0.004686810089    -0.000124496105    -0.000370784287
            0.000005357496    -0.000203122939    -0.029700959483    -0.004118675232    -0.000066697679    -0.000169850959    -0.021242224908    0.000923410474
            -0.023640718070    -0.005002456979    -0.000059755189    -0.000176553205    -0.033979207095    -0.014882985473    0.000008049162    -0.000221182108
            -0.000131836978    -0.000386604927    -0.021682032849    0.000984818041    0.000000208654    -0.000247592572    -0.032283644227    -0.008898956629
0.500     -0.123512259264    -0.043269375311    -0.000185419634    -0.000052709342    -0.060665019839    0.002407246898    -0.000344681023    -0.000064915404
            -0.000175430807    -0.000058969155    -0.122834602134    -0.046154025602    -0.000052099364    -0.000144337096    -0.062123691111    0.000305851365
            -0.061530861731    0.001737907866    -0.000069683986    -0.000152107345    -0.128361634823    -0.041783498976    -0.000169912842    -0.000085088016
            -0.000367561978    -0.000061274029    -0.063322653785    0.000792119074    -0.000190008766    -0.000084266085    -0.128083900171    -0.043992179671
0.525     -0.129376450142    0.088883531640    -0.000199145880    0.000185211857    -0.031567240944    0.051746895842    -0.000286248851    0.000220099177
            -0.000200997632    0.000174717985    -0.138794359342    0.091714588816    -0.000335343670    0.000058312396    -0.039609449817    0.057959005625
            -0.032549939446    0.052692228427    -0.000339336421    0.000078134468    -0.127772881886    0.091407976277    -0.000236505396    0.000155857162
            -0.000285879118    0.000243361140    -0.040121942449    0.059266590095    -0.000245152796    0.000166442841    -0.135515689189    0.093158562179
0.550     -0.001605563193    0.093550496251    0.000091539605    0.000318188846    0.009963726931    0.019663417852    0.000044250439    0.000454899412
            0.000084245511    0.000314038620    -0.003776341936    0.105893355922    0.000072910737    0.000356286262    0.011006074994    0.031422913600
            0.010652908695    0.020933405322    0.000086701663    0.000357446947    -0.000410961768    0.090126625048    0.000068681507    0.000348081349
            0.000062884419    0.000458528861    0.011446088810    0.032504013686    0.000069930126    0.000364788658    -0.002522813232    0.100101724452
0.575     -0.021121672765    0.002296010088    0.000328499847    0.000078403316    -0.030757930059    0.001629617017    0.000461754760    0.000150105925
            0.000318434713    0.000080032711    -0.015363904484    0.004958136159    0.000213778166    0.000028855615    -0.025350490819    0.002594674665
            -0.029647020289    0.001850417131    0.000217318701    0.000027482896    -0.024966263833    0.001897837343    0.000334677287    0.000098928444
            0.000471085701    0.000139656434    -0.024711451281    0.003709718484    0.000354965489    0.000103837480    -0.021278765141    0.004289817355
0.600     -0.075933028401    0.041710957403    0.000267133963    -0.000238754603    -0.033135120916    0.040311993517    0.000351015796    -0.000297732391
            0.000262795662    -0.000225447452    -0.081091869177    0.042884792539    0.000208318478    -0.000079057042    -0.038511495302    0.042285995500
            -0.033631819277    0.039626565116    0.000216699755    -0.000089262740    -0.074767905899    0.044449143294    0.000290861644    -0.000217773304
            0.000348627684    -0.000313282265    -0.037965010989    0.042871561748    0.000299816012    -0.000233472924    -0.078923948682    0.046696802779
0.625     -0.013794320318    0.067113325415    -0.000082491759    -0.000392886055    0.005955939500    0.015812507507    -0.000033712412    -0.000514404432
            -0.000071816925    -0.000384226908    -0.015122736904    0.081407441167    -0.000024072222    -0.000323439190    0.006116467513    0.029404033471
            0.005443378163    0.016764998691    -0.000039075627    -0.000334588835    -0.010933921387    0.063893884117    -0.000047649247    -0.000419845741
            -0.000052375928    -0.000517844290    0.007232025299    0.029773460300    -0.000054526130    -0.000432552937    -0.011368918773    0.075333541704
0.650     -0.022222892797    0.005237873064    -0.000382100545    -0.000113617628    -0.046927648732    -0.014312873879    -0.000536720986    -0.000218680535
            -0.000371200786    -0.000116607664    -0.009988753863    0.011538203977    -0.000259509178    -0.000036532283    -0.035161192440    -0.009689231632
            -0.045516529801    -0.013514597468    -0.000268415105    -0.000024529106    -0.024957505142    0.002541146642    -0.000398980479    -0.000144766024
            -0.000544514068    -0.000202593626    -0.033955515958    -0.010162471570    -0.000414556251    -0.000147183256    -0.015833295464    0.006698584494
0.675     -0.070643608206    0.045611903646    -0.000317024268    0.000236628810    -0.068267797500    0.057664297455    -0.000418734423    0.000345713894
            -0.000310045020    0.000224937867    -0.069635154440    0.042867782662    -0.000178347473    0.000102367998    -0.067885981893    0.054873240094
            -0.067112622515    0.056301343340    -0.000177898964    0.000110534504    -0.069771798032    0.046863494124    -0.000341160005    0.000226234875
            -0.000410960679    0.000358467979    -0.067285409236    0.053857880959    -0.000349507809    0.000241500766    -0.070441632928    0.045552356681
0.700     -0.014179697228    0.064612805616    0.000025761937    0.000459226975    0.000801852863    0.060936236484    0.000011827412    0.000566299693
            0.000015476441    0.000444623920    -0.015784461801    0.076612236241    -0.000005580606    0.000303477334    -0.000982993635    0.071734183197
            -0.000269348301    0.059783127239    0.000006742169    0.000314993873    -0.011006685883    0.059330184355    -0.000011047585    0.000482280223
            0.000030346080    0.000568382684    -0.000948577222    0.070729683458    -0.000001035068    0.000493184534    -0.011481894002    0.070308758488
0.725     -0.048075820111    -0.014397018288    0.000458962654    0.000167462465    -0.046020070459    0.002109599309    0.000621304213    0.000286347804
            0.000443278503    0.000173628597    -0.027701859018    -0.007754040594    0.000267717794    0.000032208683    -0.031132598039    0.008769995308
            -0.046490414381    0.002919014838    0.000282375518    0.000013677408    -0.055519616553    -0.017893350786    0.000481427133    0.000208689410
            0.000629795562    0.000264769939    -0.031511435324    0.008001163861    0.000493152259    0.000208759446    -0.040006049069    -0.013485680258
0.750     -0.142592442210    0.085087787048    0.000310860481    -0.000273714885    -0.098727489039    0.088678891652    0.000432723373    -0.000439748154
            0.000308424473    -0.000262775623    -0.135462133791    0.074191594582    0.000131214377    -0.000049855066    -0.092803135001    0.081687318377
            -0.097470213097    0.088698751120    0.000114880456    -0.000057518325    -0.144939600515    0.088480433826    0.000342144166    -0.000278070979
            0.000415795293    -0.000450762392    -0.093261345355    0.081028051783    0.000352607517    -0.000290845631    -0.141796423136    0.079164089062
0.775     -0.031963568754    0.182056664433    0.000023808777    -0.000404104152    0.002037579610    0.144843268905    -0.000044572978    -0.000482191747
            0.000028071579    -0.000391647384    -0.038587281549    0.184484588886    0.000146108068    -0.000260888042    -0.001311256789    0.148374256000
            0.002051710420    0.143114223917    0.000146636183    -0.000257562421    -0.027131166596    0.178988297611    0.000045708091    -0.000421133559
