# GHz S RI R 45
0.000     0.062181799000    -0.000000000000    0.000018252274    -0.000000000000    0.003134866200    0.000000000000    0.000017432211    0.000000000000
            0.000024885509    -0.000000000000    0.059678404000    -0.000000000000    -0.000021901955    0.000000000000    0.003951811000    -0.000000000000
            0.003559280700    0.000000000000    -0.000078041682    -0.000000000000    0.060053770000    -0.000000000000    0.000013858174    0.000000000000
            -0.000020512993    -0.000000000000    0.004798105700    0.000000000000    0.000002471575    -0.000000000000    0.058951384000    -0.000000000000
0.025     0.133112004407    0.020401011050    -0.000045694066    -0.000026829758    0.068253658061    0.037824965600    -0.000038703115    -0.000025907012
            -0.000030452216    -0.000036970064    0.132624307188    0.022732152805    -0.000056177886    -0.000008349486    0.067717368462    0.037339316823
            0.068421814259    0.037510641370    -0.000104346598    0.000048610555    0.132277470120    0.021862879266    -0.000049947097    -0.000031187930
            -0.000045466101    0.000006573337    0.068420440618    0.036963291150    -0.000036812868    -0.000025740164    0.133006384238    0.023332810717
0.050     0.118121913986    -0.076143101210    -0.000082788236    0.000035094431    0.073544185274    -0.034118259096    -0.000077513022    0.000029366345
            -0.000096013877    0.000013252816    0.120921011278    -0.075895378272    -0.000110649222    0.000056990000    0.073557232909    -0.033391788409
            0.073373954665    -0.034361280917    -0.000061769912    0.000130018956    0.117989966334    -0.075654106604    -0.000104090713    0.000043075563
            -0.000056079167    0.000046895183    0.073991274335    -0.034160690016    -0.000106995626    0.000029927752    0.121562145856    -0.076671169721
0.075     0.026686303805    -0.027280753304    -0.000012686612    0.000165031393    0.017261253713    0.010380190640    -0.000009670116    0.000154250813
            -0.000029687583    0.000174644432    0.025595008416    -0.030973991257    0.000013792381    0.000233098651    0.017753355235    0.010121400685
            0.017154189521    0.010257005215    0.000080733355    0.000209223946    0.024882657808    -0.026328374416    -0.000007969296    0.000199094928
            0.000021578464    0.000144216754    0.017168766619    0.008597061873    -0.000005480706    0.000204241938    0.023366083397    -0.031377644290
0.100     0.114755802010    0.038893356693    0.000187459792    0.000072939902    0.091423741516    0.054830785701    0.000176983583    0.000058484469
            0.000181530757    0.000081680420    0.110789497953    0.040634204572    0.000258436630    0.000063417278    0.089960988080    0.055784666731
            0.091378521380    0.054475741333    0.000280335915    0.000020954829    0.115338776865    0.040803947875    0.000222838563    0.000083621377
            0.000175066163    0.000018545178    0.089548431339    0.055066131990    0.000217911747    0.000062627046    0.110846180990    0.041856666435
0.125     0.157685214064    -0.079160179029    0.000160941983    -0.000094358371    0.126163723560    -0.052000630399    0.000137112017    -0.000094488515
            0.000165751847    -0.000068927069    0.160970798981    -0.074805093983    0.000194764014    -0.000131348562    0.127555671295    -0.049885790982
            0.125489563896    -0.052239856292    0.000176564164    -0.000200745419    0.159408622142    -0.078727384390    0.000194123289    -0.000118862781
            0.000098194534    -0.000101763275    0.126822688154    -0.050379656024    0.000164802604    -0.000102686823    0.162177190188    -0.075101394794
0.150     0.036740289250    -0.106909323840    0.000066503885    -0.000261401059    0.020024907137    -0.071566791886    0.000050018091    -0.000235656504
            0.000107964961    -0.000265423378    0.041393250831    -0.110979744999    0.000088086358    -0.000344410662    0.022377323265    -0.073338413946
            0.019401792644    -0.070887472284    -0.000011666064    -0.000344472482    0.037711636379    -0.107194683882    0.000066288140    -0.000312838048
            0.000034005513    -0.000206090122    0.021405369927    -0.073339396995    0.000087658227    -0.000287057820    0.040959658708    -0.111739592100
0.175     0.064364244669    -0.019782171463    -0.000287055396    -0.000179055032    0.058117130231    0.011588558504    -0.000277601684    -0.000148585077
            -0.000293533285    -0.000220554416    0.061787568466    -0.019850020002    -0.000401102979    -0.000252039205    0.055995100510    0.012152573477
            0.058172786450    0.011801436898    -0.000409440356    -0.000160946552    0.065197691269    -0.019906290196    -0.000348001201    -0.000210181981
            -0.000266855039    -0.000121823897    0.055543961129    0.012251583936    -0.000339633615    -0.000219183598    0.061720657159    -0.020364613228
0.200     0.164987761567    -0.076962753718    -0.000236277306    0.000171723295    0.140138638867    -0.054858640961    -0.000198922991    0.000192022231
            -0.000262391381    0.000169059458    0.167269771529    -0.070265085228    -0.000336057221    0.000260753595    0.143983386334    -0.050163009529
            0.140301593867    -0.054974763242    -0.000289317840    0.000287676654    0.166826114591    -0.078742721822    -0.000294150920    0.000223238717
            -0.000163299745    0.000199790323    0.143645196188    -0.049527558081    -0.000277443263    0.000227521676    0.169291572166    -0.070538900798
0.225     0.063235754199    -0.187712258044    -0.000089755019    0.000264657703    0.042456457233    -0.146398128617    -0.000035839680    0.000230445891
            -0.000110514430    0.000272793950    0.073391341288    -0.188787585155    -0.000079980881    0.000369060442    0.050242629179    -0.148524315161
            0.042088913597    -0.145949683321    -0.000027745062    0.000374830855    0.063239527453    -0.190097633237    -0.000068993345    0.000332265736
            -0.000011943783    0.000194462675    0.050022463003    -0.147757104808    -0.000057916372    0.000293966879    0.074010430661    -0.190421977152
0.250     -0.041533748274    -0.095807337617    0.000251411635    0.000363347326    -0.042659756742    -0.059596186358    0.000237118412    0.000291498230
            0.000242292236    0.000403549513    -0.039593068845    -0.103329558192    0.000332482192    0.000459031786    -0.041699387254    -0.064833186273
            -0.041980095268    -0.058526999333    0.000383374615    0.000384815676    -0.041771889853    -0.096812633203    0.000310735528    0.000392932510
            0.000208449270    0.000257341247    -0.041412127084    -0.063769449067    0.000261446751    0.000382458666    -0.039324477240    -0.103346441075
0.275     0.044557237502    -0.064787737200    0.000452157798    -0.000155275544    0.043184991614    -0.040080873565    0.000390031892    -0.000186039998
            0.000504573728    -0.000139598784    0.047355140492    -0.063093430896    0.000632976947    -0.000199897330    0.046457369466    -0.038191713713
            0.043744177633    -0.040233632353    0.000552376338    -0.000264357140    0.047661849609    -0.065640526379    0.000532896205    -0.000203338367
            0.000355140150    -0.000176710882    0.046873798810    -0.037927006962    0.000527107558    -0.000168576995    0.051051959486    -0.063498752550
0.300     0.063089476752    -0.183574322789    0.000063761127    -0.000371163031    0.034811883775    -0.128557412371    -0.000018720120    -0.000340327808
            0.000082744981    -0.000414147684    0.074933776180    -0.183719476838    0.000076936724    -0.000567289712    0.045015052830    -0.131780673572
            0.034950101675    -0.129703866654    0.000020302737    -0.000515032535    0.061284427923    -0.187105240489    0.000038138913    -0.000476803751
            -0.000033758897    -0.000308500103    0.045923389250    -0.131998255067    0.000043289720    -0.000466134999    0.075783908114    -0.187624521850
0.325     -0.100635001444    -0.182403587721    -0.000172272696    -0.000374848209    -0.082702867769    -0.105468318517    -0.000183117880    -0.000256157094
            -0.000193444627    -0.000401190354    -0.090071816359    -0.193928598094    -0.000310371143    -0.000466025826    -0.077482914367    -0.116250955113
            -0.083075226829    -0.105564057473    -0.000306893063    -0.000422080218    -0.103931607185    -0.182571016762    -0.000259823031    -0.000383630224
            -0.000161900807    -0.000221436619    -0.076948500898    -0.116538819688    -0.000243009495    -0.000360670034    -0.091517499788    -0.195700584878
0.350     -0.120254783457    -0.029048019671    -0.000611070241    -0.000080595946    -0.077362138838    0.002222053358    -0.000497690272    -0.000021883061
            -0.000643126943    -0.000086010364    -0.118720981671    -0.040512061065    -0.000769812583    -0.000051835109    -0.077803993608    -0.004781281678
            -0.076648299326    0.002195966853    -0.000742859811    -0.000004120690    -0.119848895003    -0.027965928130    -0.000666218426    -0.000040715219
            -0.000450703945    -0.000026253489    -0.077071744885    -0.005144027792    -0.000622462686    -0.000063316252    -0.117135595259    -0.041108937595
0.375     -0.023745403277    -0.047680061619    -0.000280898297    0.000592807888    -0.013953832938    -0.030229353458    -0.000172722885    0.000533929275
            -0.000310192724    0.000629646787    -0.018236427820    -0.055946584530    -0.000370836295    0.000782023955    -0.008677112330    -0.037119438560
            -0.013925050866    -0.030954930405    -0.000286630645    0.000764973120    -0.023639800160    -0.049264737355    -0.000286460484    0.000689833943
            -0.000159580722    0.000488222252    -0.008429834072    -0.037792342782    -0.000307278153    0.000644310310    -0.016899016023    -0.059667384608
0.400     -0.078779365602    -0.149659186398    0.000316348851    0.000446600631    -0.059278598742    -0.067265536446    0.000340154070    0.000304605624
            0.000349164275    0.000486984869    -0.069311236052    -0.161473655952    0.000472714396    0.000619553987    -0.055398499545    -0.078693225722
            -0.060865519154    -0.068279259491    0.000462894829    0.000532717225    -0.083504918044    -0.150845361087    0.000422274209    0.000481935384
            0.000308300450    0.000273522963    -0.055943342428    -0.079945224186    0.000390605541    0.000486789272    -0.073709728413    -0.165366906613
0.425     -0.202169755277    -0.037166847123    0.000573449006    0.000141612635    -0.103497912863    0.011199334503    0.000435019931    0.000040903919
            0.000615078236    0.000125443495    -0.198392661564    -0.058053768091    0.000780691854    0.000095287640    -0.105248163047    -0.001033782269
            -0.104748792353    0.011958100617    0.000719224266    0.000086406976    -0.203319280113    -0.033283221961    0.000627377090    0.000080928731
            0.000392941084    0.000050976312    -0.106216707557    -0.001443073961    0.000609201198    0.000094610423    -0.200287976810    -0.056680919511
0.450     -0.104806055494    0.099155318517    0.000589876943    -0.000555433032    -0.037196207581    0.063343054705    0.000435859857    -0.000475348553
            0.000595348980    -0.000591088406    -0.111996642110    0.081056201165    0.000683659773    -0.000741603714    -0.040908066229    0.054409097597
            -0.037083965684    0.063936414385    0.000654308402    -0.000719176301    -0.100797656434    0.098480984611    0.000601099823    -0.000625076171
            0.000420424077    -0.000433187536    -0.041520069043    0.054369471834    0.000594202786    -0.000588559170    -0.109406942672    0.078486148697
0.475     -0.024725823792    0.006491952332    -0.000344619892    -0.000809940745    -0.018023886471    0.010312299125    -0.000366209732    -0.000634893815
            -0.000369520915    -0.000836627006    -0.029700959483    -0.004118675232    -0.000456467134    -0.001016948832    -0.021242224908    0.000923410474
            -0.018325950763    0.010306122783    -0.000472566474    -0.000966581403    -0.026542020204    0.002665322477    -0.000420442040    -0.000873511809
            -0.000334090857    -0.000598018749    -0.021682032849    0.000984818041    -0.000376336497    -0.000852766348    -0.032283644227    -0.008898956629
0.500     -0.125082152944    -0.031202924229    -0.000779351304    -0.000070507692    -0.060996491776    0.009969724755    -0.000627770332    0.000053572229
            -0.000819254096    -0.000059035886    -0.122834602134    -0.046154025602    -0.001031384338    -0.000076540114    -0.062123691111    0.000305851365
            -0.062308347708    0.010808297703    -0.000970773348    -0.000038185909    -0.129545778946    -0.028693041109    -0.000861549249    -0.000024628981
            -0.000578774735    0.000040993155    -0.063322653785    0.000792119074    -0.000834029995    -0.000058061860    -0.128083900171    -0.043992179671
0.525     -0.129318648677    0.113662686641    -0.000617582362    0.000540501142    -0.034171668507    0.068135195396    -0.000427688741    0.000462328414
            -0.000620319588    0.000579192364    -0.138794359342    0.091714588816    -0.000761483543    0.000749289414    -0.039609449817    0.057959005625
            -0.034050630267    0.070000401756    -0.000716898032    0.000701939648    -0.125711992734    0.116169542155    -0.000640940015    0.000614077653
            -0.000416329388    0.000413618883    -0.040121942449    0.059266590095    -0.000649867187    0.000582670041    -0.135515689189    0.093158562179
0.550     0.014007135127    0.114824226354    0.000161132525    0.001034473478    0.018092174166    0.037235368785    0.000209542686    0.000832466342
            0.000188221758    0.001050261691    -0.003776341936    0.105893355922    0.000258255241    0.001284368549    0.011006074994    0.031422913600
            0.019534144929    0.038045541616    0.000239777564    0.001244205308    0.015978175299    0.109015619232    0.000229605547    0.001126599876
            0.000173194739    0.000800107525    0.011446088810    0.032504013686    0.000200084153    0.001108361036    -0.002522813232    0.100101724452
0.575     -0.011602126771    0.008337591021    0.001075535709    0.000252802192    -0.024647036063    0.007968757316    0.000917070516    0.000089528623
            0.001101467226    0.000244202273    -0.015363904484    0.004958136159    0.001347950400    0.000299196435    -0.025350490819    0.002594674665
            -0.023748437110    0.007990898570    0.001315178608    0.000281652884    -0.017917840752    0.007290573436    0.001189506883    0.000217849349
            0.000871965171    0.000104176728    -0.024711451281    0.003709718484    0.001152076538    0.000239791551    -0.021278765141    0.004289817355
0.600     -0.078033636715    0.060183820620    0.000713302877    -0.000723207538    -0.036008929048    0.055627113099    0.000484095882    -0.000659368747
            0.000722663775    -0.000750877220    -0.081091869177    0.042884792539    0.000908890901    -0.000927221459    -0.038511495302    0.042285995500
            -0.035803450037    0.055719920938    0.000863878857    -0.000903523422    -0.077532689455    0.064179011675    0.000745470017    -0.000815197561
            0.000472001631    -0.000613072094    -0.037965010989    0.042871561748    0.000750989833    -0.000772331988    -0.078923948682    0.046696802779
0.625     -0.000479729204    0.092559882813    -0.000155401570    -0.001133940281    0.014112447190    0.038236871875    -0.000230068086    -0.000909972172
            -0.000174620669    -0.001155237384    -0.015122736904    0.081407441167    -0.000226012544    -0.001433634394    0.006116467513    0.029404033471
            0.015099580149    0.038596280689    -0.000215244198    -0.001381676115    0.002887407908    0.088878755697    -0.000217171414    -0.001244902853
            -0.000192572897    -0.000876046003    0.007232025299    0.029773460300    -0.000180731560    -0.001228732823    -0.011368918773    0.075333541704
0.650     -0.006768321513    0.015336783449    -0.001253555456    -0.000378280207    -0.034832404460    -0.002312851325    -0.001092044379    -0.000166440396
            -0.001279310724    -0.000376650458    -0.009988753863    0.011538203977    -0.001560266269    -0.000463506669    -0.035161192440    -0.009689231632
            -0.033346733552    -0.003116360516    -0.001519467152    -0.000454375720    -0.011438229514    0.011973924641    -0.001392575999    -0.000344310732
            -0.001048085236    -0.000186009858    -0.033955515958    -0.010162471570    -0.001357408933    -0.000365761980    -0.015833295464    0.006698584494
0.675     -0.067196237752    0.061470739944    -0.000815985333    0.000859764537    -0.063499298537    0.073339807622    -0.000539582654    0.000807948448
            -0.000835251119    0.000883344702    -0.069635154440    0.042867782662    -0.001050814224    0.001061016709    -0.067885981893    0.054873240094
            -0.063279915781    0.071430222152    -0.001016839920    0.001040066636    -0.068023367491    0.064868959350    -0.000845381824    0.000960114235
            -0.000534101671    0.000767235134    -0.067285409236    0.053857880959    -0.000847733596    0.000915982930    -0.070441632928    0.045552356681
0.700     -0.000727565257    0.089921628645    0.000125437433    0.001198852827    0.014063245142    0.083224384438    0.000228999663    0.000954252766
            0.000140404993    0.001234290380    -0.015784461801    0.076612236241    0.000157545490    0.001539478838    -0.000982993635    0.071734183197
            0.012794551076    0.082173002426    0.000154876895    0.001486619288    0.003120930332    0.086674319666    0.000178926854    0.001319949213
            0.000199285240    0.000924125234    -0.000948577222    0.070729683458    0.000138513826    0.001302805622    -0.011481894002    0.070308758488
0.725     -0.032206272966    0.004050410944    0.001423587607    0.000522395451    -0.026180014633    0.016435493313    0.001270979208    0.000249536796
            0.001463989099    0.000521606837    -0.027701859018    -0.007754040594    0.001773047952    0.000648585935    -0.031132598039    0.008769995308
            -0.026824492869    0.016714293684    0.001718474036    0.000640350713    -0.036779481618    -0.001179726109    0.001589693273    0.000472584747
            0.001227606749    0.000266093136    -0.031511435324    0.008001163861    0.001558159410    0.000497414137    -0.040006049069    -0.013485680258
0.750     -0.127777569063    0.106981830286    0.000826087826    -0.001083594858    -0.082358874577    0.104377727152    0.000480752558    -0.001042313004
            0.000845334959    -0.001116126257    -0.135462133791    0.074191594582    0.001065805519    -0.001294476037    -0.092803135001    0.081687318377
            -0.082076657305    0.103858073402    0.001046737213    -0.001261332312    -0.129300916386    0.111887650267    0.000804903625    -0.001180442230
            0.000482099829    -0.001004732057    -0.093261345355    0.081028051783    0.000807079531    -0.001142429260    -0.141796423136    0.079164089062
0.775     -0.003748324679    0.203603639763    -0.000221709700    -0.000998812138    0.025971476016    0.158822980438    -0.000324155050    -0.000711962358
            -0.000240134067    -0.001039998276    -0.038587281549    0.184484588886    -0.000207966268    -0.001313594129    -0.001311256789    0.148374256000
            0.024756062635    0.157589732829    -0.000206402280    -0.001278260007    0.002606697409    0.201070884003    -0.000217343560    -0.001063153605
