# GHz S RI R 45
0.000     0.060339723000    0.000000000000    -0.000001526996    0.000000000000    0.003317714200    -0.000000000000    -0.000002567023    0.000000000000
            -0.000001526746    -0.000000000000    0.059678404000    -0.000000000000    -0.000001155562    -0.000000000000    0.003951811000    -0.000000000000
            0.004261328900    -0.000000000000    -0.000001154763    -0.000000000000    0.060632568000    -0.000000000000    -0.000002066872    -0.000000000000
            -0.000002561996    0.000000000000    0.004798105700    0.000000000000    -0.000002068674    0.000000000000    0.058951384000    -0.000000000000
0.025     0.132841475005    0.022987817463    -0.000015784208    -0.000003856838    0.068003153234    0.038298468377    -0.000024820213    -0.000006498860
            -0.000015789456    -0.000003858743    0.132624307188    0.022732152805    -0.000010157232    -0.000001947574    0.067717368462    0.037339316823
            0.067903624951    0.037440239719    -0.000010150559    -0.000001960439    0.132680944504    0.022529320486    -0.000018737380    -0.000004655882
            -0.000024813774    -0.000006510698    0.068420440618    0.036963291150    -0.000018737963    -0.000004641592    0.133006384238    0.023332810717
0.050     0.121770394350    -0.075481816590    -0.000026354839    0.000014580195    0.074973016647    -0.033319718940    -0.000041483089    0.000023808084
            -0.000026355441    0.000014611405    0.120921011278    -0.075895378272    -0.000016429810    0.000008982655    0.073557232909    -0.033391788409
            0.074042360204    -0.033155676814    -0.000016461754    0.000008980432    0.120973229148    -0.075680234007    -0.000031337414    0.000017696305
            -0.000041513509    0.000023809845    0.073991274335    -0.034160690016    -0.000031307196    0.000017662475    0.121562145856    -0.076671169721
0.075     0.025537893733    -0.031045444804    0.000000880668    0.000056516013    0.016806592449    0.008723367450    0.000000744762    0.000086332611
            0.000001005063    0.000056482669    0.025595008416    -0.030973991257    0.000001529036    0.000037131434    0.017753355235    0.010121400685
            0.017489017497    0.010055387848    0.000001525864    0.000037157291    0.025247947908    -0.030219834862    0.000001065263    0.000066318432
            0.000000754436    0.000086352783    0.017168766619    0.008597061873    0.000000933481    0.000066332451    0.023366083397    -0.031377644290
0.100     0.110746745932    0.042767261860    0.000065441187    0.000019007247    0.089110403255    0.057859931434    0.000099201214    0.000034551870
            0.000065414615    0.000018923526    0.110789497953    0.040634204572    0.000043617318    0.000008423500    0.089960988080    0.055784666731
            0.089887110527    0.057392903974    0.000043592274    0.000008444327    0.111722502238    0.042982345698    0.000076529384    0.000023920153
            0.000099175077    0.000034565065    0.089548431339    0.055066131990    0.000076583613    0.000023991132    0.110846180990    0.041856666435
0.125     0.163851072410    -0.072839658344    0.000049390682    -0.000034798432    0.130605343817    -0.047243560885    0.000083467141    -0.000053681199
            0.000049313013    -0.000034814699    0.160970798981    -0.074805093983    0.000026988223    -0.000023027938    0.127555671295    -0.049885790982
            0.129969014977    -0.048010964260    0.000027077730    -0.000022959293    0.164080370482    -0.073942269515    0.000060608253    -0.000041162788
            0.000083552337    -0.000053618029    0.126822688154    -0.050379656024    0.000060607323    -0.000041209485    0.162177190188    -0.075101394794
0.150     0.043562216319    -0.111499022967    0.000021554098    -0.000084581255    0.024914784168    -0.074294260628    0.000032046030    -0.000133970748
            0.000021447094    -0.000084510232    0.041393250831    -0.110979744999    0.000013783045    -0.000052599373    0.022377323265    -0.073338413946
            0.024042056930    -0.073511898868    0.000013868358    -0.000052785612    0.042516379996    -0.111534641723    0.000024575145    -0.000101260329
            0.000032107991    -0.000134149311    0.021405369927    -0.073339396995    0.000024615494    -0.000101172406    0.040959658708    -0.111739592100
0.175     0.063303095909    -0.017131457756    -0.000100449134    -0.000061944186    0.057013524825    0.014680596291    -0.000150362598    -0.000100690951
            -0.000100376934    -0.000061807183    0.061787568466    -0.019850020002    -0.000068457904    -0.000035733066    0.055995100510    0.012152573477
            0.057228024335    0.014906337949    -0.000068578223    -0.000035760969    0.062973803954    -0.017899300684    -0.000117427067    -0.000074076492
            -0.000150465753    -0.000100703211    0.055543961129    0.012251583936    -0.000117398888    -0.000074192523    0.061720657159    -0.020364613228
0.200     0.173560759069    -0.066627198462    -0.000080121144    0.000068778099    0.148749370164    -0.046073088274    -0.000136608247    0.000097315683
            -0.000079907187    0.000068697982    0.167269771529    -0.070265085228    -0.000042571173    0.000050855994    0.143983386334    -0.050163009529
            0.149347857311    -0.046848409592    -0.000042576067    0.000050923637    0.175444550358    -0.067841682316    -0.000098068526    0.000078902931
            -0.000136594076    0.000097379353    0.143645196188    -0.049527558081    -0.000098283404    0.000078926443    0.169291572166    -0.070538900798
0.225     0.081368826580    -0.190182913722    -0.000017059442    0.000083878309    0.058013378702    -0.148992111252    -0.000033540385    0.000143390049
            -0.000017044246    0.000083682441    0.073391341288    -0.188787585155    -0.000005511579    0.000045422848    0.050242629179    -0.148524315161
            0.057161367596    -0.149358227140    -0.000005604166    0.000045523847    0.080881883206    -0.192214566211    -0.000021926405    0.000103757153
            -0.000033625191    0.000143483384    0.050022463003    -0.147757104808    -0.000021860351    0.000103871361    0.074010430661    -0.190421977152
0.250     -0.035100980287    -0.104585378761    0.000074470225    0.000116329996    -0.037388652677    -0.066740109839    0.000121370309    0.000181978424
            0.000074302684    0.000116188327    -0.039593068845    -0.103329558192    0.000045554833    0.000072641019    -0.041699387254    -0.064833186273
            -0.037642311736    -0.065566969839    0.000045853315    0.000072866478    -0.035769968273    -0.104068120473    0.000091695351    0.000137689803
            0.000121667698    0.000182166025    -0.041412127084    -0.063769449067    0.000091622146    0.000137642553    -0.039324477240    -0.103346441075
0.275     0.057880556067    -0.062622355499    0.000156523688    -0.000053045800    0.055003796733    -0.037691212654    0.000247088934    -0.000072100149
            0.000156319685    -0.000052942754    0.047355140492    -0.063093430896    0.000096706548    -0.000043403146    0.046457369466    -0.038191713713
            0.055405452360    -0.037643869226    0.000096794890    -0.000043667553    0.061761601299    -0.062273019507    0.000186038384    -0.000062396151
            0.000247136386    -0.000072349930    0.046873798810    -0.037927006962    0.000186149866    -0.000062280268    0.051051959486    -0.063498752550
0.300     0.087358621760    -0.188585289119    0.000005188447    -0.000131460562    0.055011182979    -0.135417452162    0.000028164191    -0.000213356456
            0.000005286548    -0.000131198024    0.074933776180    -0.183719476838    -0.000011019382    -0.000077433351    0.045015052830    -0.131780673572
            0.055286623714    -0.136636435196    -0.000011314669    -0.000077416393    0.087852507212    -0.192552380448    0.000010566627    -0.000158095142
            0.000027857980    -0.000213318981    0.045923389250    -0.131998255067    0.000010737686    -0.000158344685    0.075783908114    -0.187624521850
0.325     -0.080542174489    -0.202514015085    -0.000056535988    -0.000100238530    -0.069476878856    -0.123325752544    -0.000097948997    -0.000173366626
            -0.000056309696    -0.000100223228    -0.090071816359    -0.193928598094    -0.000030778470    -0.000053059058    -0.077482914367    -0.116250955113
            -0.070429247252    -0.123528360131    -0.000030798309    -0.000053023215    -0.083048668496    -0.204187569820    -0.000071238417    -0.000123965798
            -0.000097952598    -0.000173312536    -0.076948500898    -0.116538819688    -0.000071444243    -0.000124032904    -0.091517499788    -0.195700584878
0.350     -0.108973979466    -0.048386038320    -0.000182562576    -0.000036972881    -0.069881174743    -0.011511783246    -0.000290779960    -0.000051601197
            -0.000182438058    -0.000037158761    -0.118720981671    -0.040512061065    -0.000113950340    -0.000023765700    -0.077803993608    -0.004781281678
            -0.069755669942    -0.010572007269    -0.000114204634    -0.000023589701    -0.108476517728    -0.047752438293    -0.000220161427    -0.000038569732
            -0.000291010754    -0.000051423765    -0.077071744885    -0.005144027792    -0.000220084545    -0.000038516159    -0.117135595259    -0.041108937595
0.375     -0.007316635656    -0.070420716045    -0.000095369510    0.000190182885    0.000337752509    -0.049159497742    -0.000158974007    0.000293257838
            -0.000095423533    0.000189995663    -0.018236427820    -0.055946584530    -0.000049526316    0.000124669240    -0.008677112330    -0.037119438560
            0.000828145543    -0.049580772242    -0.000049181366    0.000124886387    -0.006746924148    -0.072648806847    -0.000111919088    0.000226413361
            -0.000158613017    0.000293447297    -0.008429834072    -0.037792342782    -0.000112135258    0.000226387878    -0.016899016023    -0.059667384608
0.400     -0.062331071387    -0.175448593701    0.000108298561    0.000133403729    -0.051867875882    -0.089540774612    0.000162721530    0.000229549370
            0.000108140642    0.000133480916    -0.069311236052    -0.161473655952    0.000072986420    0.000069267051    -0.055398499545    -0.078693225722
            -0.052340838245    -0.090856980470    0.000073091084    0.000068736360    -0.066303478628    -0.179430881374    0.000127662513    0.000161854417
            0.000162847835    0.000228992069    -0.055943342428    -0.079945224186    0.000127644711    0.000162225438    -0.073709728413    -0.165366906613
0.425     -0.190367499781    -0.074039281549    0.000159428819    0.000045800007    -0.099587880733    -0.011322484841    0.000267594375    0.000073453078
            0.000159432982    0.000045890503    -0.198392661564    -0.058053768091    0.000092803459    0.000026529586    -0.105248163047    -0.001033782269
            -0.100851711445    -0.011152163234    0.000092489915    0.000026540763    -0.193494344153    -0.072561745682    0.000196390506    0.000053349198
            0.000267238672    0.000073445338    -0.106216707557    -0.001443073961    0.000196690036    0.000053313965    -0.200287976810    -0.056680919511
0.450     -0.107507224903    0.058979213911    0.000197510848    -0.000150226105    -0.035583192162    0.037791550935    0.000305152275    -0.000240797941
            0.000197557547    -0.000150171991    -0.111996642110    0.081056201165    0.000123662659    -0.000099218741    -0.040908066229    0.054409097597
            -0.035516350650    0.038797438291    0.000123704617    -0.000099209346    -0.105679897408    0.058507177690    0.000230357275    -0.000186318138
            0.000305182959    -0.000240768286    -0.041520069043    0.054369471834    0.000230302106    -0.000186417719    -0.109406942672    0.078486148697
0.475     -0.034377568439    -0.023998272647    -0.000091270864    -0.000260070944    -0.025261346376    -0.015662264972    -0.000131734899    -0.000407457870
            -0.000091227630    -0.000259978537    -0.029700959483    -0.004118675232    -0.000071476697    -0.000159376709    -0.021242224908    0.000923410474
            -0.025125310742    -0.015956924668    -0.000071683071    -0.000159249330    -0.036371286766    -0.027588373903    -0.000111491655    -0.000304891966
            -0.000131958229    -0.000407297500    -0.021682032849    0.000984818041    -0.000111357517    -0.000305086147    -0.032283644227    -0.008898956629
0.500     -0.120393263617    -0.058994721241    -0.000235675895    -0.000033420205    -0.062038897639    -0.006819206494    -0.000374217859    -0.000070933805
            -0.000235738440    -0.000033322851    -0.122834602134    -0.046154025602    -0.000144893767    -0.000006789880    -0.062123691111    0.000305851365
            -0.062813427334    -0.007588368037    -0.000144483657    -0.000006503251    -0.126045811061    -0.057843966767    -0.000279959234    -0.000041798378
            -0.000373803422    -0.000070553322    -0.063322653785    0.000792119074    -0.000280197285    -0.000042230552    -0.128083900171    -0.043992179671
0.525     -0.135540902331    0.066670122705    -0.000205774664    0.000143116475    -0.033982740972    0.042301114549    -0.000328577840    0.000226973130
            -0.000205556878    0.000143183519    -0.138794359342    0.091714588816    -0.000125856820    0.000096492428    -0.039609449817    0.057959005625
            -0.035086744563    0.043120660662    -0.000125750637    0.000096031166    -0.134994057792    0.070096664199    -0.000245774571    0.000176321035
            -0.000328351637    0.000226489587    -0.040121942449    0.059266590095    -0.000246218471    0.000176636564    -0.135515689189    0.093158562179
0.550     -0.015967196822    0.081981761333    0.000015746622    0.000331737677    0.005366702078    0.010648649464    0.000025624686    0.000509645730
            0.000015823335    0.000331472970    -0.003776341936    0.105893355922    0.000024787261    0.000215409610    0.011006074994    0.031422913600
            0.005900366814    0.012010299603    0.000024406467    0.000215520536    -0.014810779907    0.078759757152    0.000028723901    0.000391005608
            0.000025229999    0.000509659494    0.011446088810    0.032504013686    0.000028989849    0.000391294624    -0.002522813232    0.100101724452
0.575     -0.024934191648    -0.003048335288    0.000326366827    0.000109129225    -0.033254659006    -0.005384048402    0.000496434688    0.000186213529
            0.000326293358    0.000108865984    -0.015363904484    0.004958136159    0.000214686143    0.000046729907    -0.025350490819    0.002594674665
            -0.032169304307    -0.005027949733    0.000214763620    0.000047082500    -0.028858761117    -0.003963626934    0.000382369409    0.000124984479
            0.000496440043    0.000186508070    -0.024711451281    0.003709718484    0.000382469074    0.000124978637    -0.021278765141    0.004289817355
0.600     -0.076280613088    0.025086251310    0.000245858604    -0.000197934323    -0.033604489876    0.029837727792    0.000399087700    -0.000296639301
            0.000245451101    -0.000197964407    -0.081091869177    0.042884792539    0.000142671041    -0.000137767219    -0.038511495302    0.042285995500
            -0.034016569971    0.029081102289    0.000142541667    -0.000137902007    -0.076128191636    0.028011033169    0.000293550992    -0.000234516733
            0.000398839183    -0.000296785847    -0.037965010989    0.042871561748    0.000294107573    -0.000234376067    -0.078923948682    0.046696802779
0.625     -0.024932841838    0.052030768335    -0.000011586840    -0.000365558416    0.003006078066    0.004959126771    -0.000003419230    -0.000563397175
            -0.000011712230    -0.000364899994    -0.015122736904    0.081407441167    -0.000030516136    -0.000239437988    0.006116467513    0.029404033471
            0.002363740532    0.005850185898    -0.000030369081    -0.000239280462    -0.022039173070    0.049765944870    -0.000020556864    -0.000433887298
            -0.000003299780    -0.000563044441    0.007232025299    0.029773460300    -0.000020529224    -0.000434795558    -0.011368918773    0.075333541704
0.650     -0.027115884578    -0.002006473719    -0.000378500664    -0.000151197772    -0.047589147957    -0.025211174595    -0.000560781408    -0.000261147261
            -0.000377815496    -0.000151078473    -0.009988753863    0.011538203977    -0.000262325181    -0.000061809828    -0.035161192440    -0.009689231632
            -0.046293087145    -0.024222823403    -0.000262402930    -0.000062270970    -0.029713241985    -0.004717944100    -0.000442402045    -0.000172722180
            -0.000560649281    -0.000261586958    -0.033955515958    -0.010162471570    -0.000443198739    -0.000172487003    -0.015833295464    0.006698584494
0.675     -0.072057022366    0.028336114341    -0.000280285089    0.000228819365    -0.071739169873    0.041082616588    -0.000463737058    0.000324591337
            -0.000280022488    0.000228403882    -0.069635154440    0.042867782662    -0.000151016549    0.000169099500    -0.067885981893    0.054873240094
            -0.070396974914    0.039897020867    -0.000151552657    0.000169600395    -0.071887453262    0.030134333641    -0.000333816726    0.000264814077
            -0.000464248484    0.000324947739    -0.067285409236    0.053857880959    -0.000333635376    0.000264999209    -0.070441632928    0.045552356681
0.700     -0.024844784335    0.047604585259    -0.000012323209    0.000387714638    -0.008364461340    0.047914845992    -0.000043726555    0.000605265704
            -0.000012408121    0.000387085208    -0.015784461801    0.076612236241    0.000017422421    0.000248831564    -0.000982993635    0.071734183197
            -0.009251597138    0.046621136129    0.000018242457    0.000249192280    -0.021251505239    0.043595388019    -0.000012148597    0.000464715413
            -0.000042953472    0.000605545541    -0.000948577222    0.070729683458    -0.000012596682    0.000465036135    -0.011481894002    0.070308758488
0.725     -0.050428501077    -0.027508899453    0.000434399643    0.000202771323    -0.049277322429    -0.010943442596    0.000633536982    0.000345122895
            0.000433416611    0.000202853894    -0.027701859018    -0.007754040594    0.000311530294    0.000088959916    -0.031132598039    0.008769995308
            -0.049857174523    -0.010228803519    0.000311509230    0.000088291291    -0.057274788074    -0.031607978609    0.000509326807    0.000228743173
            0.000633377534    0.000344457022    -0.031511435324    0.008001163861    0.000510302843    0.000229147806    -0.040006049069    -0.013485680258
0.750     -0.151009143132    0.053851748723    0.000276099211    -0.000295516079    -0.108557205521    0.064546789789    0.000474105014    -0.000402556779
            0.000276165188    -0.000294600135    -0.135462133791    0.074191594582    0.000131403502    -0.000228695390    -0.092803135001    0.081687318377
            -0.107328335555    0.064774845054    0.000131396984    -0.000228630096    -0.154288185923    0.057200072653    0.000326195670    -0.000335730946
            0.000474055767    -0.000402308033    -0.093261345355    0.081028051783    0.000326197743    -0.000336771921    -0.141796423136    0.079164089062
0.775     -0.062317057563    0.160200865224    -0.000005076308    -0.000304681675    -0.021934110760    0.131040945164    0.000034510436    -0.000503689608
            -0.000004500549    -0.000304496882    -0.038587281549    0.184484588886    -0.000032571062    -0.000174232472    -0.001311256789    0.148374256000
            -0.021625632002    0.129337871098    -0.000032946933    -0.000174846402    -0.057387628464    0.158784885750    0.000005137603    -0.000371021261
