# GHz S RI R 45
0.000     0.059823408000    -0.000000000000    -0.000002661472    -0.000000000000    0.003814260900    -0.000000000000    -0.000001562031    -0.000000000000
            -0.000002655389    -0.000000000000    0.059678404000    -0.000000000000    0.000000349055    0.000000000000    0.003951811000    -0.000000000000
            0.004573398900    0.000000000000    0.000000366029    0.000000000000    0.058403399000    -0.000000000000    -0.000000354745    0.000000000000
            -0.000001582795    0.000000000000    0.004798105700    0.000000000000    -0.000000354007    -0.000000000000    0.058951384000    -0.000000000000
0.025     0.131984654185    0.023144035557    0.000000202217    0.000003885783    0.067348396182    0.037587831760    -0.000005882763    -0.000000805818
            0.000000209169    0.000003890497    0.132624307188    0.022732152805    0.000010112894    0.000006230607    0.067717368462    0.037339316823
            0.068067850162    0.037265384664    0.000010119790    0.000006231261    0.132524515419    0.024356216820    -0.000001483792    -0.000000010867
            -0.000005874867    -0.000000810038    0.068420440618    0.036963291150    -0.000001480161    -0.000000004919    0.133006384238    0.023332810717
0.050     0.122007460857    -0.075130277911    0.000003576040    -0.000001499710    0.074335957355    -0.032860060741    -0.000009432819    0.000005457485
            0.000003589304    -0.000001502309    0.120921011278    -0.075895378272    0.000020186312    -0.000011624626    0.073557232909    -0.033391788409
            0.074799180041    -0.033637887266    0.000020186394    -0.000011640638    0.122883368633    -0.076046190031    -0.000002276018    0.000001065428
            -0.000009432000    0.000005443599    0.073991274335    -0.034160690016    -0.000002259383    0.000001062715    0.121562145856    -0.076671169721
0.075     0.025567616173    -0.032698031408    0.000002188399    -0.000000567734    0.017686313654    0.008890801464    0.000000828222    0.000019300444
            0.000002197939    -0.000000593827    0.025595008416    -0.030973991257    0.000002979272    -0.000031713592    0.017753355235    0.010121400685
            0.017119154385    0.007348338378    0.000002938913    -0.000031698302    0.023225689086    -0.033113717356    0.000000259479    0.000005137351
            0.000000792778    0.000019312288    0.017168766619    0.008597061873    0.000000263661    0.000005113108    0.023366083397    -0.031377644290
0.100     0.108398778943    0.042345165160    -0.000001839890    -0.000010623522    0.087978654370    0.057050994995    0.000019451012    0.000007127471
            -0.000001863469    -0.000010646291    0.110789497953    0.040634204572    -0.000034430190    -0.000030482456    0.089960988080    0.055784666731
            0.087579418482    0.056323622721    -0.000034431063    -0.000030458335    0.108489703118    0.043669415312    0.000004677515    0.000000909304
            0.000019447847    0.000007148382    0.089548431339    0.055066131990    0.000004665172    0.000000886224    0.110846180990    0.041856666435
0.125     0.163735161015    -0.071337502311    -0.000013175997    0.000007391376    0.129998926566    -0.046867255262    0.000020240844    -0.000006370302
            -0.000013215528    0.000007403151    0.160970798981    -0.074805093983    -0.000055445365    0.000022312975    0.127555671295    -0.049885790982
            0.129277823424    -0.047379612367    -0.000055414645    0.000022326475    0.164904994276    -0.071581055044    0.000004203831    -0.000000291454
            0.000020269235    -0.000006356198    0.126822688154    -0.050379656024    0.000004152750    -0.000000295008    0.162177190188    -0.075101394794
0.150     0.045082717847    -0.113538389871    0.000006969592    0.000006405108    0.025481945796    -0.075584136349    0.000011810170    -0.000032994777
            0.000006957830    0.000006456145    0.041393250831    -0.110979744999    -0.000008944656    0.000063583467    0.022377323265    -0.073338413946
            0.024511984425    -0.075617445578    -0.000008922531    0.000063533782    0.044587861015    -0.114132089071    0.000004718275    -0.000008116139
            0.000011828593    -0.000033041789    0.021405369927    -0.073339396995    0.000004698711    -0.000008043607    0.040959658708    -0.111739592100
0.175     0.059880929814    -0.019517447032    0.000003619303    0.000007787143    0.054047703743    0.012586844175    -0.000029845615    -0.000023593254
            0.000003667118    0.000007830383    0.061787568466    -0.019850020002    0.000052805899    0.000054876915    0.055995100510    0.012152573477
            0.053588638687    0.012668469181    0.000052779169    0.000054861850    0.059933625016    -0.019795420547    -0.000006930857    -0.000005814467
            -0.000029869883    -0.000023601216    0.055543961129    0.012251583936    -0.000006871393    -0.000005779354    0.061720657159    -0.020364613228
0.200     0.170966849531    -0.064016084864    0.000023878731    -0.000009392384    0.147117907289    -0.044780424201    -0.000030564347    0.000005737853
            0.000023943138    -0.000009419811    0.167269771529    -0.070265085228    0.000091762410    -0.000023538292    0.143983386334    -0.050163009529
            0.146755454348    -0.044156364428    0.000091755124    -0.000023501971    0.173095775259    -0.064153284581    -0.000006252093    -0.000001060224
            -0.000030562227    0.000005773495    0.143645196188    -0.049527558081    -0.000006194059    -0.000001074622    0.169291572166    -0.070538900798
0.225     0.083416413883    -0.189910348841    -0.000017971449    -0.000022790766    0.058834845233    -0.149616016143    -0.000029394217    0.000036268927
            -0.000017961068    -0.000022869297    0.073391341288    -0.188787585155    0.000020785769    -0.000096368009    0.050242629179    -0.148524315161
            0.058579871217    -0.148866734967    0.000020804079    -0.000096333976    0.083989059894    -0.191361102953    -0.000011006258    0.000007578414
            -0.000029373632    0.000036293330    0.050022463003    -0.147757104808    -0.000010967897    0.000007488408    0.074010430661    -0.190421977152
0.250     -0.037093839332    -0.109550809391    -0.000008857663    0.000012918585    -0.039867048031    -0.070515874895    0.000032266384    0.000055897690
            -0.000008930914    0.000012866641    -0.039593068845    -0.103329558192    -0.000063927676    -0.000072395279    -0.041699387254    -0.064833186273
            -0.039647419592    -0.069437190906    -0.000063854039    -0.000072429438    -0.036762818860    -0.109140071896    0.000007006035    0.000017369679
            0.000032330781    0.000055857606    -0.041412127084    -0.063769449067    0.000006897428    0.000017295371    -0.039324477240    -0.103346441075
0.275     0.051404695947    -0.061060948152    -0.000011870692    0.000007169218    0.049675230418    -0.036100529645    0.000057794197    -0.000003489938
            -0.000011962255    0.000007215621    0.047355140492    -0.063093430896    -0.000116351238    0.000012667775    0.046457369466    -0.038191713713
            0.050079464430    -0.035804970507    -0.000116380734    0.000012640178    0.055386550968    -0.061141687167    0.000014266582    0.000001810912
            0.000057757347    -0.000003514574    0.046873798810    -0.037927006962    0.000014184127    0.000001889678    0.051051959486    -0.063498752550
0.300     0.088318078007    -0.184414865599    0.000017915797    0.000033263275    0.055610017938    -0.133312280583    0.000042026057    -0.000043641638
            0.000017911759    0.000033360383    0.074933776180    -0.183719476838    -0.000043961888    0.000121047495    0.045015052830    -0.131780673572
            0.056532143302    -0.133475022955    -0.000043972384    0.000121121985    0.089319075235    -0.188144602804    0.000015683345    -0.000009084146
            0.000042011115    -0.000043552108    0.045923389250    -0.131998255067    0.000015677163    -0.000009006647    0.075783908114    -0.187624521850
0.325     -0.078945743874    -0.205802075929    0.000029067399    -0.000029654493    -0.070234062198    -0.126489343981    -0.000022478404    -0.000082655299
            0.000029153396    -0.000029593688    -0.090071816359    -0.193928598094    0.000074304064    0.000093183308    -0.077482914367    -0.116250955113
            -0.069686842843    -0.126736631728    0.000074336661    0.000093184925    -0.080205124360    -0.207215583895    -0.000003321371    -0.000025916372
            -0.000022428008    -0.000082647461    -0.076948500898    -0.116538819688    -0.000003240128    -0.000025827870    -0.091517499788    -0.195700584878
0.350     -0.116334973186    -0.051218498367    -0.000023148890    -0.000010493710    -0.077224230100    -0.012378593653    -0.000095317907    -0.000008444018
            -0.000023040616    -0.000010544673    -0.118720981671    -0.040512061065    0.000122231140    0.000006819708    -0.077803993608    -0.004781281678
            -0.076460642244    -0.012675541216    0.000122274314    0.000006822275    -0.114352477133    -0.051514123621    -0.000027303122    -0.000004573105
            -0.000095266679    -0.000008457662    -0.077071744885    -0.005144027792    -0.000027161204    -0.000004647165    -0.117135595259    -0.041108937595
0.375     -0.010916026648    -0.064065547418    -0.000008022931    -0.000007844511    -0.002321856229    -0.043512777525    -0.000054396619    0.000068384354
            -0.000008027265    -0.000007978242    -0.018236427820    -0.055946584530    0.000082973364    -0.000121393624    -0.008677112330    -0.037119438560
            -0.002015326046    -0.044170908630    0.000082945077    -0.000121446608    -0.009370039945    -0.067679712658    -0.000017727029    0.000016004757
            -0.000054432033    0.000068324737    -0.008429834072    -0.037792342782    -0.000017772095    0.000015868020    -0.016899016023    -0.059667384608
0.400     -0.058319236779    -0.174575328414    -0.000033754612    0.000022244322    -0.049912767847    -0.089871740838    0.000020922291    0.000098091542
            -0.000033870394    0.000022190694    -0.069311236052    -0.161473655952    -0.000070701383    -0.000129340203    -0.055398499545    -0.078693225722
            -0.050349383171    -0.091166227426    -0.000070809030    -0.000129230049    -0.062351514078    -0.178366166764    0.000002319525    0.000030071831
            0.000020801716    0.000098198151    -0.055943342428    -0.079945224186    0.000002230889    0.000030035201    -0.073709728413    -0.165366906613
0.425     -0.193950183573    -0.079161411021    0.000039433333    0.000028243088    -0.105146913809    -0.013786027294    0.000116658535    0.000026860042
            0.000039331225    0.000028310049    -0.198392661564    -0.058053768091    -0.000134699584    -0.000022900005    -0.105248163047    -0.001033782269
            -0.106069486796    -0.014282478302    -0.000134580752    -0.000022834394    -0.195621810677    -0.077786987865    0.000032893338    0.000009668037
            0.000116770292    0.000026942893    -0.106216707557    -0.001443073961    0.000032779888    0.000009707870    -0.200287976810    -0.056680919511
0.450     -0.116855124085    0.063049260151    0.000007355000    -0.000034314705    -0.042848266449    0.044206330834    0.000070075168    -0.000092301737
            0.000007353653    -0.000034183389    -0.111996642110    0.081056201165    -0.000120396213    0.000100374866    -0.040908066229    0.054409097597
            -0.043450036788    0.044099059890    -0.000120348192    0.000100302863    -0.114122150494    0.060691091442    0.000020381142    -0.000023374158
            0.000070139264    -0.000092364202    -0.041520069043    0.054369471834    0.000020370262    -0.000023217116    -0.109406942672    0.078486148697
0.475     -0.032695125954    -0.017008032795    -0.000000085402    -0.000004554497    -0.023164520463    -0.010160992096    -0.000028291387    -0.000107864513
            0.000000044332    -0.000004491628    -0.029700959483    -0.004118675232    0.000036089204    0.000173534617    -0.021242224908    0.000923410474
            -0.023617689848    -0.010147775800    0.000036058855    0.000173474282    -0.034983310900    -0.021526792074    -0.000003908485    -0.000030385063
            -0.000028314270    -0.000107937248    -0.021682032849    0.000984818041    -0.000003761871    -0.000030342717    -0.032283644227    -0.008898956629
0.500     -0.119723871849    -0.062104936536    -0.000021498275    -0.000025408831    -0.062989275688    -0.009476399599    -0.000121736679    -0.000042453909
            -0.000021393050    -0.000025505793    -0.122834602134    -0.046154025602    0.000162456578    0.000055506417    -0.062123691111    0.000305851365
            -0.064234144441    -0.009121113400    0.000162266422    0.000055495268    -0.124926573657    -0.060293767175    -0.000033014647    -0.000014505304
            -0.000121933174    -0.000042468830    -0.063322653785    0.000792119074    -0.000032938160    -0.000014587243    -0.128083900171    -0.043992179671
0.525     -0.145055108982    0.068093222747    -0.000018764574    0.000041121643    -0.042064942657    0.046235803584    -0.000092143909    0.000096711650
            -0.000018791281    0.000041005290    -0.138794359342    0.091714588816    0.000151129479    -0.000093778737    -0.039609449817    0.057959005625
            -0.042726521862    0.047473784030    0.000151156513    -0.000093563300    -0.142461665066    0.070156511678    -0.000025281049    0.000022748542
            -0.000092119244    0.000096926486    -0.040121942449    0.059266590095    -0.000025273269    0.000022650027    -0.135515689189    0.093158562179
0.550     -0.018880600271    0.093786442575    0.000031072598    -0.000000111103    0.006457002970    0.022332161243    0.000028625952    0.000116496662
            0.000030972462    -0.000000164601    -0.003776341936    0.105893355922    0.000003486263    -0.000205312423    0.011006074994    0.031422913600
            0.006757082148    0.023459848361    0.000003667475    -0.000205355344    -0.017727971271    0.088402606674    0.000001311799    0.000030243703
            0.000028801200    0.000116455160    0.011446088810    0.032504013686    0.000001212795    0.000030150414    -0.002522813232    0.100101724452
0.575     -0.020183443278    -0.000150984684    0.000001819544    -0.000000505799    -0.028338061258    -0.004079896626    0.000117986703    0.000055889430
            0.000001711352    -0.000000439450    -0.015363904484    0.004958136159    -0.000182024641    -0.000104544182    -0.025350490819    0.002594674665
            -0.027844693060    -0.002881251188    -0.000181982675    -0.000104743305    -0.025358206106    -0.001259127500    0.000030198367    0.000020550136
            0.000118039616    0.000055696556    -0.024711451281    0.003709718484    0.000030073806    0.000020632241    -0.021278765141    0.004289817355
0.600     -0.082060120765    0.025839480837    0.000015245242    -0.000020658192    -0.039589450231    0.030969610549    0.000116642593    -0.000085221663
            0.000015251848    -0.000020522186    -0.081091869177    0.042884792539    -0.000189090490    0.000089397201    -0.038511495302    0.042285995500
            -0.039117612213    0.031620245770    -0.000189204246    0.000089315062    -0.080437324020    0.029327010042    0.000032865974    -0.000019299768
            0.000116527740    -0.000085318596    -0.037965010989    0.042871561748    0.000032877696    -0.000019181991    -0.078923948682    0.046696802779
0.625     -0.027858211788    0.065827568956    -0.000024919959    -0.000004750130    0.001565620804    0.018394237532    -0.000011636298    -0.000134920922
            -0.000024810116    -0.000004685207    -0.015122736904    0.081407441167    -0.000032005903    0.000227196407    0.006116467513    0.029404033471
            0.002615885738    0.018911816270    -0.000032125474    0.000227347140    -0.023723433757    0.060707851585    0.000004383015    -0.000034334832
            -0.000011767014    -0.000134755762    0.007232025299    0.029773460300    0.000004452128    -0.000034245299    -0.011368918773    0.075333541704
0.650     -0.016669044493    0.005438608809    -0.000000603258    0.000000271323    -0.037095814658    -0.019426904086    -0.000120973307    -0.000080592105
            -0.000000470708    0.000000217603    -0.009988753863    0.011538203977    0.000184221514    0.000140968476    -0.035161192440    -0.009689231632
            -0.035831587713    -0.019712485915    0.000184385403    0.000141072201    -0.021401442404    0.000404621285    -0.000031150964    -0.000029898009
            -0.000120788484    -0.000080492750    -0.033955515958    -0.010162471570    -0.000030964849    -0.000029920188    -0.015833295464    0.006698584494
0.675     -0.071052645977    0.026344331614    -0.000019182491    0.000019648980    -0.071154778421    0.038732278384    -0.000143191316    0.000078736593
            -0.000019165256    0.000019478244    -0.069635154440    0.042867782662    0.000217700288    -0.000064827524    -0.067885981893    0.054873240094
            -0.070395707881    0.037809605245    0.000217782490    -0.000064971839    -0.071970662219    0.028742274962    -0.000040461184    0.000020264119
            -0.000143124578    0.000078584151    -0.067285409236    0.053857880959    -0.000040441890    0.000020047392    -0.070441632928    0.045552356681
0.700     -0.027760329947    0.059133403622    0.000027063390    0.000010258511    -0.011309232827    0.058135237049    -0.000001277039    0.000152009886
            0.000026900758    0.000010165986    -0.015784461801    0.076612236241    0.000076114442    -0.000239497150    -0.000982993635    0.071734183197
            -0.011129831432    0.057138320445    0.000075987200    -0.000239574805    -0.022891262398    0.053805233301    -0.000005031981    0.000036503313
            -0.000001397123    0.000151939657    -0.000948577222    0.070729683458    -0.000005201544    0.000036423056    -0.011481894002    0.070308758488
0.725     -0.032118561647    -0.018346384249    -0.000001997715    0.000008617312    -0.036225426735    -0.002585537132    0.000123294911    0.000105863383
            -0.000002159486    0.000008730771    -0.027701859018    -0.007754040594    -0.000176615249    -0.000178530656    -0.031132598039    0.008769995308
            -0.036474672237    -0.003395519062    -0.000176652301    -0.000178414830    -0.043014056316    -0.025256050933    0.000031517231    0.000036582962
            0.000123243385    0.000105972728    -0.031511435324    0.008001163861    0.000031348385    0.000036660469    -0.040006049069    -0.013485680258
0.750     -0.142461665910    0.044972778290    0.000050375759    -0.000029961946    -0.101729927597    0.059094905483    0.000172956998    -0.000079046670
            0.000050405227    -0.000029754989    -0.135462133791    0.074191594582    -0.000229535316    0.000026202041    -0.092803135001    0.081687318377
            -0.102063007629    0.058356173074    -0.000229485597    0.000026246679    -0.149207760079    0.048670602827    0.000046884683    -0.000025505261
            0.000173019970    -0.000078977782    -0.093261345355    0.081028051783    0.000046874585    -0.000025261965    -0.141796423136    0.079164089062
0.775     -0.068694036859    0.161518462255    -0.000059680516    -0.000050093628    -0.025400007491    0.133948090436    -0.000002876382    -0.000170567969
            -0.000059455178    -0.000050023253    -0.038587281549    0.184484588886    -0.000142626144    0.000223983174    -0.001311256789    0.148374256000
            -0.026115261318    0.133181468327    -0.000142512572    0.000223965175    -0.063815466476    0.161329914647    -0.000004180416    -0.000035863713
