# GHz S RI R 45
0.000     0.060761022000    0.000000000000    0.000000063521    0.000000000000    0.003762873600    -0.000000000000    -0.000014718382    -0.000000000000
            0.000000062014    -0.000000000000    0.059678404000    -0.000000000000    0.000000222532    0.000000000000    0.003951811000    -0.000000000000
            0.004885499900    0.000000000000    0.000000223367    0.000000000000    0.059566045000    -0.000000000000    0.000000311213    0.000000000000
            -0.000014717191    -0.000000000000    0.004798105700    0.000000000000    0.000000308560    0.000000000000    0.058951384000    -0.000000000000
0.025     0.133283180987    0.022285306077    0.000010516770    0.000006374251    0.068003778949    0.037471045746    0.000008646049    0.000023819975
            0.000010475503    0.000006366154    0.132624307188    0.022732152805    0.000008227836    0.000002785059    0.067717368462    0.037339316823
            0.068866506386    0.036962398262    0.000008224133    0.000002790338    0.133332831592    0.023174968763    0.000011906317    0.000006802779
            0.000008641856    0.000023820029    0.068420440618    0.036963291150    0.000011856925    0.000006799420    0.133006384238    0.023332810717
0.050     0.120436557237    -0.075932913095    0.000020541502    -0.000013761305    0.073162285311    -0.033361471802    0.000034193421    -0.000010056602
            0.000020518106    -0.000013667186    0.120921011278    -0.075895378272    0.000014421609    -0.000007544087    0.073557232909    -0.033391788409
            0.073679106049    -0.034293008558    0.000014435032    -0.000007532649    0.120961172253    -0.076648987426    0.000022897164    -0.000015134581
            0.000034194587    -0.000010037423    0.073991274335    -0.034160690016    0.000022879548    -0.000015026252    0.121562145856    -0.076671169721
0.075     0.025750750071    -0.028861033770    0.000003137447    -0.000033606882    0.017799973045    0.012017662283    0.000019210780    -0.000030288508
            0.000003390781    -0.000033636628    0.025595008416    -0.030973991257    0.000000398874    -0.000030843679    0.017753355235    0.010121400685
            0.017101779585    0.010159706948    0.000000473264    -0.000030846398    0.023402592030    -0.029482504507    0.000003524037    -0.000038243052
            0.000019287527    -0.000030298396    0.017168766619    0.008597061873    0.000003818525    -0.000038285934    0.023366083397    -0.031377644290
0.100     0.113550027369    0.041337614715    -0.000041557108    -0.000033950316    0.092248346125    0.056568212916    -0.000030404485    -0.000078828161
            -0.000041510219    -0.000034083182    0.110789497953    0.040634204572    -0.000038128899    -0.000010999819    0.089960988080    0.055784666731
            0.091765599537    0.055663042727    -0.000038108412    -0.000011081522    0.113092824263    0.042315792740    -0.000047063205    -0.000036909032
            -0.000030405145    -0.000078882355    0.089548431339    0.055066131990    -0.000047002918    -0.000037073564    0.110846180990    0.041856666435
0.125     0.161497368939    -0.076245951485    -0.000058757605    0.000037041193    0.128378981485    -0.050790818139    -0.000114607923    0.000028135326
            -0.000058896481    0.000036937915    0.160970798981    -0.074805093983    -0.000025088591    0.000022066715    0.127555671295    -0.049885790982
            0.127479955444    -0.051414385264    -0.000025211643    0.000022025122    0.162345401887    -0.076310387188    -0.000064383318    0.000040317618
            -0.000114668773    0.000028102801    0.126822688154    -0.050379656024    -0.000064570043    0.000040185433    0.162177190188    -0.075101394794
0.150     0.040278184138    -0.108827107743    0.000006188007    0.000065706459    0.021542363452    -0.071484937091    -0.000008401659    0.000095011857
            0.000006035275    0.000065898454    0.041393250831    -0.110979744999    -0.000009641531    0.000044449073    0.022377323265    -0.073338413946
            0.020362771278    -0.071496396516    -0.000009730506    0.000044567994    0.039966546381    -0.109876805851    0.000004394581    0.000073148129
            -0.000008488599    0.000095083199    0.021405369927    -0.073339396995    0.000004202806    0.000073405686    0.040959658708    -0.111739592100
0.175     0.065914361299    -0.017216562340    0.000064947303    0.000053098284    0.059652441767    0.014312288189    0.000058149565    0.000105509884
            0.000065001872    0.000053195374    0.061787568466    -0.019850020002    0.000058296237    0.000033590110    0.055995100510    0.012152573477
            0.059100369525    0.014421323117    0.000058368359    0.000033722164    0.064890815992    -0.018559835021    0.000072644921    0.000060397274
            0.000058196773    0.000105598676    0.055543961129    0.012251583936    0.000072736406    0.000060526630    0.061720657159    -0.020364613228
0.200     0.170392465035    -0.073369072526    0.000103917139    -0.000056662737    0.146426378189    -0.052756279059    0.000205054427    -0.000018497661
            0.000104033236    -0.000056852009    0.167269771529    -0.070265085228    0.000040433067    -0.000049963031    0.143983386334    -0.050163009529
            0.145986759559    -0.052000365811    0.000040716094    -0.000050038094    0.171303758656    -0.073281636225    0.000113941511    -0.000062117147
            0.000205195286    -0.000018544268    0.143645196188    -0.049527558081    0.000114101838    -0.000062341352    0.169291572166    -0.070538900798
0.225     0.071574025305    -0.189467414301    -0.000026297817    -0.000113432250    0.048702648585    -0.148712329248    0.000009223972    -0.000212014845
            -0.000026409495    -0.000113662637    0.073391341288    -0.188787585155    -0.000001884055    -0.000038811468    0.050242629179    -0.148524315161
            0.048434551431    -0.147776022777    -0.000001888411    -0.000039120123    0.072112289037    -0.190846586219    -0.000024475291    -0.000122891795
            0.000009271569    -0.000212172321    0.050022463003    -0.147757104808    -0.000024596027    -0.000123190339    0.074010430661    -0.190421977152
0.250     -0.037147369223    -0.098619242707    -0.000082761898    -0.000035794122    -0.039419673776    -0.060713106622    -0.000113549410    -0.000075695520
            -0.000083215347    -0.000035638811    -0.039593068845    -0.103329558192    -0.000037273831    -0.000056068055    -0.041699387254    -0.064833186273
            -0.039062730357    -0.059471915364    -0.000037562186    -0.000056231207    -0.037654477657    -0.099628963433    -0.000089204292    -0.000047005887
            -0.000113751201    -0.000075851062    -0.041412127084    -0.063769449067    -0.000089747619    -0.000046850651    -0.039324477240    -0.103346441075
0.275     0.054306781672    -0.065315214153    -0.000121552978    0.000053767127    0.051961503058    -0.040212267891    -0.000207503565    0.000009272116
            -0.000121361471    0.000053954542    0.047355140492    -0.063093430896    -0.000083174226    0.000038671376    0.046457369466    -0.038191713713
            0.052433131899    -0.039904071828    -0.000083423769    0.000038915626    0.055773473807    -0.065475886169    -0.000138789964    0.000057145480
            -0.000207630020    0.000009410304    0.046873798810    -0.037927006962    -0.000138618859    0.000057385841    0.051051959486    -0.063498752550
0.300     0.073913404254    -0.188561599780    0.000029149064    0.000163981505    0.044102366462    -0.134776187066    -0.000072239659    0.000305553340
            0.000029540896    0.000163600757    0.074933776180    -0.183719476838    0.000021722551    0.000066989445    0.045015052830    -0.131780673572
            0.045132842331    -0.134973809474    0.000022097848    0.000067365581    0.073886579899    -0.190851489099    0.000027193636    0.000178538135
            -0.000072071433    0.000305727934    0.045923389250    -0.131998255067    0.000027642510    0.000178161233    0.075783908114    -0.187624521850
0.325     -0.091526196347    -0.190703343269    0.000132174903    0.000011470960    -0.077539935298    -0.113100271888    0.000256812519    0.000093862877
            0.000132027614    0.000011158343    -0.090071816359    -0.193928598094    0.000021823862    0.000031981561    -0.077482914367    -0.116250955113
            -0.076865968745    -0.113409518405    0.000022177706    0.000031778490    -0.093137349831    -0.192464510061    0.000138090200    0.000022564124
            0.000256998302    0.000093844858    -0.076948500898    -0.116538819688    0.000137957831    0.000022203068    -0.091517499788    -0.195700584878
0.350     -0.110487459032    -0.038128047396    0.000076370568    -0.000052709539    -0.070628126073    -0.003419311468    0.000120627498    -0.000072673027
            0.000075928656    -0.000052947195    -0.118720981671    -0.040512061065    0.000085352138    0.000023731280    -0.077803993608    -0.004781281678
            -0.069775170200    -0.003909161429    0.000085435789    0.000023363891    -0.111386420486    -0.038900780325    0.000096154478    -0.000048197297
            0.000120780550    -0.000072926927    -0.077071744885    -0.005144027792    0.000095658871    -0.000048436939    -0.117135595259    -0.041108937595
0.375     -0.014098394572    -0.063720892707    0.000009082767    -0.000163883961    -0.005918953486    -0.043083160740    0.000110259652    -0.000218660407
            0.000008903981    -0.000163333714    -0.018236427820    -0.055946584530    0.000037265173    -0.000100653953    -0.008677112330    -0.037119438560
            -0.005681062994    -0.043838799579    0.000036862068    -0.000100920044    -0.014908419823    -0.064675052876    0.000019590079    -0.000185297393
            0.000110012988    -0.000218815326    -0.008429834072    -0.037792342782    0.000019427088    -0.000184753827    -0.016899016023    -0.059667384608
0.400     -0.073442063493    -0.162910721789    -0.000193727453    -0.000041427427    -0.057014688189    -0.078674698970    -0.000283451521    -0.000214868893
            -0.000192698875    -0.000041207155    -0.069311236052    -0.161473655952    -0.000059676877    -0.000038804643    -0.055398499545    -0.078693225722
            -0.057633981255    -0.079996444522    -0.000059961368    -0.000038089337    -0.077194096150    -0.164602426009    -0.000203991969    -0.000054619571
            -0.000283594067    -0.000214504785    -0.055943342428    -0.079945224186    -0.000202945009    -0.000054431420    -0.073709728413    -0.165366906613
0.425     -0.193737185658    -0.053404967478    -0.000081538167    0.000127130291    -0.099656579699    0.001016624646    -0.000167648181    0.000198476792
            -0.000081448686    0.000126326283    -0.198392661564    -0.058053768091    -0.000051721537    -0.000027475869    -0.105248163047    -0.001033782269
            -0.100679558558    0.000555312747    -0.000051203427    -0.000027282573    -0.196512576333    -0.051995978246    -0.000099038923    0.000119626917
            -0.000167435575    0.000198596266    -0.106216707557    -0.001443073961    -0.000098949091    0.000118792233    -0.200287976810    -0.056680919511
0.450     -0.101497467432    0.074815157426    -0.000028512918    0.000168459800    -0.033587222156    0.047952577858    -0.000016767825    0.000085190980
            -0.000028895755    0.000168264033    -0.111996642110    0.081056201165    -0.000100760637    0.000063856637    -0.040908066229    0.054409097597
            -0.034313074257    0.047858642278    -0.000100533462    0.000063699632    -0.101786758480    0.074872177235    -0.000050437874    0.000186748723
            -0.000016604099    0.000085223880    -0.041520069043    0.054369471834    -0.000050911128    0.000186516117    -0.109406942672    0.078486148697
0.475     -0.032206904167    -0.013570832564    0.000191219859    0.000242541138    -0.023339443517    -0.005232776794    0.000108970783    0.000240928949
            0.000190873083    0.000242680220    -0.029700959483    -0.004118675232    0.000067733792    0.000119743887    -0.021242224908    0.000923410474
            -0.023840979049    -0.005102668112    0.000067913240    0.000119561821    -0.034101258387    -0.013843965296    0.000205812246    0.000264884621
            0.000109176705    0.000240831291    -0.021682032849    0.000984818041    0.000205495330    0.000265139401    -0.032283644227    -0.008898956629
0.500     -0.123736359469    -0.043919374261    0.000259441325    -0.000029086345    -0.060243028057    0.001258840000    0.000324113304    -0.000115936025
            0.000259658894    -0.000028006125    -0.122834602134    -0.046154025602    0.000112228314    -0.000012648693    -0.062123691111    0.000305851365
            -0.061455429587    0.001902798713    0.000111643842    -0.000012734798    -0.127372698552    -0.040847772757    0.000280386529    -0.000027633111
            0.000323845864    -0.000116030497    -0.063322653785    0.000792119074    0.000280768476    -0.000026583745    -0.128083900171    -0.043992179671
0.525     -0.128275850338    0.087454880982    0.000138304739    -0.000118955434    -0.031905221735    0.051121467621    -0.000014015752    -0.000187708536
            0.000139360697    -0.000119402915    -0.138794359342    0.091714588816    0.000105541625    -0.000072569734    -0.039609449817    0.057959005625
            -0.032349459490    0.052506058091    0.000105751751    -0.000071983619    -0.127079388031    0.090696391302    0.000164377532    -0.000136835109
            -0.000013894644    -0.000187452846    -0.040121942449    0.059266590095    0.000165419428    -0.000137378325    -0.135515689189    0.093158562179
0.550     -0.002027162081    0.090545872554    0.000006332906    -0.000262967335    0.009949479877    0.019552898911    0.000005432778    -0.000186044954
            0.000005849124    -0.000263738838    -0.003776341936    0.105893355922    -0.000019444863    -0.000190749273    0.011006074994    0.031422913600
            0.010433456447    0.020674724694    -0.000018981673    -0.000191115921    -0.001260371755    0.089701018816    -0.000006647219    -0.000302791795
            0.000005639441    -0.000186297403    0.011446088810    0.032504013686    -0.000007165601    -0.000303625687    -0.002522813232    0.100101724452
0.575     -0.023276019898    0.000995438902    -0.000273253742    -0.000072954016    -0.030417123372    0.001027083437    -0.000332082252    -0.000098719451
            -0.000274189772    -0.000072950877    -0.015363904484    0.004958136159    -0.000184369439    -0.000035343299    -0.025350490819    0.002594674665
            -0.029647258633    0.002263426535    -0.000184467321    -0.000035995963    -0.025120907839    0.002625349398    -0.000307852777    -0.000074653875
            -0.000332158265    -0.000099068972    -0.024711451281    0.003709718484    -0.000308995197    -0.000074601459    -0.021278765141    0.004289817355
0.600     -0.076566525412    0.041363019256    -0.000148776838    0.000164335168    -0.033993206798    0.038863221633    -0.000157967739    0.000269705610
            -0.000149058279    0.000164853358    -0.081091869177    0.042884792539    -0.000117657107    0.000107854891    -0.038511495302    0.042285995500
            -0.033289242972    0.039408987451    -0.000118031843    0.000107803272    -0.073963126272    0.044696113364    -0.000174977803    0.000183432087
            -0.000158196458    0.000269732302    -0.037965010989    0.042871561748    -0.000175184732    0.000184107451    -0.078923948682    0.046696802779
0.625     -0.014367677147    0.065138506946    0.000005107067    0.000259192571    0.004098128189    0.015942829642    0.000042476662    0.000271259399
            0.000005896279    0.000259668265    -0.015122736904    0.081407441167    0.000019413397    0.000207129179    0.006116467513    0.029404033471
            0.005284061692    0.016163850894    0.000019124132    0.000207801622    -0.011003295049    0.063134795209    0.000010764595    0.000305588463
            0.000042338988    0.000271676972    0.007232025299    0.029773460300    0.000011650195    0.000305983892    -0.011368918773    0.075333541704
0.650     -0.024906587690    0.003789242581    0.000316674723    0.000097240833    -0.047282979327    -0.013044929171    0.000384702946    0.000145371918
            0.000317087258    0.000096309810    -0.009988753863    0.011538203977    0.000222597675    0.000043953715    -0.035161192440    -0.009689231632
            -0.046107052398    -0.013641540401    0.000223503718    0.000044297580    -0.026006417623    0.002731200235    0.000362242744    0.000102172370
            0.000385262445    0.000145601069    -0.033955515958    -0.010162471570    0.000362614451    0.000101214719    -0.015833295464    0.006698584494
0.675     -0.072626043231    0.046323528305    0.000155941493    -0.000220568966    -0.067860627946    0.057564985838    0.000227637209    -0.000312995069
            0.000155073021    -0.000220907315    -0.069635154440    0.042867782662    0.000114787690    -0.000126878152    -0.067885981893    0.054873240094
            -0.067315517047    0.056439973459    0.000115156980    -0.000127769698    -0.070024350877    0.047901611194    0.000179693685    -0.000243842203
            0.000227964455    -0.000313574499    -0.067285409236    0.053857880959    0.000178818857    -0.000244177482    -0.070441632928    0.045552356681
0.700     -0.014454223470    0.064378670225    -0.000024225819    -0.000243913150    -0.000300931520    0.060628312161    -0.000043536380    -0.000322135437
            -0.000024618699    -0.000243158059    -0.015784461801    0.076612236241    0.000002837632    -0.000207723329    -0.000982993635    0.071734183197
            -0.000410618575    0.059534576969    0.000002076686    -0.000208323789    -0.010464156313    0.059733750681    -0.000023412494    -0.000290700584
            -0.000044059402    -0.000322618665    -0.000948577222    0.070729683458    -0.000023786373    -0.000289936620    -0.011481894002    0.070308758488
0.725     -0.047970358481    -0.017010782553    -0.000350821670    -0.000115337308    -0.046809807956    0.003422523810    -0.000478539884    -0.000217798304
            -0.000350159771    -0.000114980958    -0.027701859018    -0.007754040594    -0.000261869266    -0.000066944663    -0.031132598039    0.008769995308
            -0.047365950592    0.002706420123    -0.000262586445    -0.000066164359    -0.055610767109    -0.018035259685    -0.000404630284    -0.000124045356
            -0.000479087245    -0.000217333191    -0.031511435324    0.008001163861    -0.000403972870    -0.000123760517    -0.040006049069    -0.013485680258
0.750     -0.145101077028    0.085624402391    -0.000131976226    0.000292513251    -0.097524684649    0.089838351858    -0.000248779898    0.000481687610
            -0.000131513252    0.000292213447    -0.135462133791    0.074191594582    -0.000081741767    0.000165188686    -0.092803135001    0.081687318377
            -0.098072891554    0.089256957331    -0.000081295595    0.000165912191    -0.145423980683    0.088997130825    -0.000151255914    0.000323756762
            -0.000248631232    0.000482243565    -0.093261345355    0.081028051783    -0.000150853274    0.000323450471    -0.141796423136    0.079164089062
0.775     -0.032644556100    0.183017007593    0.000076031849    0.000147781362    0.002899224332    0.144217731237    0.000207489811    0.000220546737
            0.000076049443    0.000147020985    -0.038587281549    0.184484588886    -0.000016110533    0.000128987723    -0.001311256789    0.148374256000
            0.001966378488    0.143690945905    -0.000015306699    0.000129057534    -0.026968821161    0.180025306029    0.000072667322    0.000182462935
