# GHz S RI R 45
0.000     0.060800809000    0.000000000000    -0.000001115943    -0.000000000000    0.003950080100    -0.000000000000    -0.000026203096    0.000000000000
            -0.000001224244    0.000000000000    0.059678404000    -0.000000000000    -0.000019048580    0.000000000000    0.003951811000    -0.000000000000
            0.005022221200    0.000000000000    0.000031455945    -0.000000000000    0.059726067000    -0.000000000000    -0.000032031542    0.000000000000
            0.000030962263    -0.000000000000    0.004798105700    0.000000000000    -0.000029887417    0.000000000000    0.058951384000    -0.000000000000
0.025     0.133907918829    0.021808913201    -0.000030930903    -0.000010777636    0.068464779767    0.037249966506    -0.000030692262    0.000011409783
            -0.000031074270    -0.000010040627    0.132624307188    0.022732152805    -0.000017753418    0.000010994446    0.067717368462    0.037339316823
            0.069340284971    0.036769665671    -0.000008410125    -0.000030777376    0.133861162342    0.022371362969    -0.000018260972    0.000021312005
            -0.000016662957    -0.000033807264    0.068420440618    0.036963291150    -0.000016540623    0.000019985065    0.133006384238    0.023332810717
0.050     0.119136367408    -0.076583320734    -0.000020713250    0.000023118586    0.072358673782    -0.033867355571    0.000000118853    0.000017731946
            -0.000018821858    0.000023994460    0.120921011278    -0.075895378272    0.000003937220    0.000011737434    0.073557232909    -0.033391788409
            0.072880038747    -0.034814602128    -0.000023208922    0.000007450086    0.119543783970    -0.077218506708    0.000014050600    0.000005353513
            -0.000024236238    0.000008881259    0.073991274335    -0.034160690016    0.000014358143    0.000003233505    0.121562145856    -0.076671169721
0.075     0.025829821201    -0.026729252726    0.000007508930    -0.000008187492    0.017949362237    0.013448212482    -0.000005239830    -0.000032064579
            0.000009207832    -0.000010707938    0.025595008416    -0.030973991257    -0.000003712528    -0.000020563092    0.017753355235    0.010121400685
            0.017216077805    0.011601115649    0.000011821168    0.000002421915    0.023547536436    -0.027343153475    -0.000013550024    -0.000038552337
            0.000010677138    -0.000015084766    0.017168766619    0.008597061873    -0.000014646932    -0.000039853663    0.023366083397    -0.031377644290
0.100     0.116132085345    0.039684414329    -0.000037772029    -0.000015564558    0.094355334798    0.055277600033    -0.000062280120    0.000000020675
            -0.000040062354    -0.000017274186    0.110789497953    0.040634204572    -0.000040087615    0.000006741672    0.089960988080    0.055784666731
            0.093855770523    0.054383312183    -0.000007459973    -0.000025127364    0.115636465653    0.040598670296    -0.000057245527    0.000011471081
            -0.000032937854    -0.000036064853    0.089548431339    0.055066131990    -0.000057705455    0.000011286096    0.110846180990    0.041856666435
0.125     0.158501230089    -0.079489558376    -0.000021153334    0.000027774990    0.125823470503    -0.053652293613    -0.000002772595    0.000048082158
            -0.000021704161    0.000030184243    0.160970798981    -0.074805093983    0.000005424798    0.000035670111    0.127555671295    -0.049885790982
            0.124903565672    -0.054253360540    -0.000024788662    -0.000009184087    0.159361399236    -0.079569749314    0.000013449230    0.000041689655
            -0.000036114789    0.000000687935    0.126822688154    -0.050379656024    0.000013234714    0.000040188412    0.162177190188    -0.075101394794
0.150     0.036852469175    -0.105553282821    0.000023435506    -0.000014139146    0.018719513313    -0.068829911450    0.000041637819    -0.000042916402
            0.000026575468    -0.000014832799    0.041393250831    -0.110979744999    0.000032751392    -0.000030997068    0.022377323265    -0.073338413946
            0.017539820464    -0.068795433749    -0.000012471397    -0.000009152181    0.036578934765    -0.106659848531    0.000035899894    -0.000055167261
            -0.000008618515    -0.000024499869    0.021405369927    -0.073339396995    0.000032946009    -0.000056608574    0.040959658708    -0.111739592100
0.175     0.068254509245    -0.017634646930    -0.000046633021    -0.000046111278    0.061888539629    0.013691373323    -0.000082785145    -0.000063556729
            -0.000047901495    -0.000050042558    0.061787568466    -0.019850020002    -0.000060383220    -0.000040138039    0.055995100510    0.012152573477
            0.061349030807    0.013819050890    -0.000036976551    -0.000012401955    0.067120506193    -0.019111505164    -0.000088903297    -0.000052982639
            -0.000069679416    -0.000033980301    0.055543961129    0.012251583936    -0.000092166744    -0.000050316924    0.061720657159    -0.020364613228
0.200     0.166198903280    -0.079330750015    -0.000051040646    0.000030415394    0.143017695018    -0.057931869926    -0.000064220433    0.000062912683
            -0.000054941610    0.000030977718    0.167269771529    -0.070265085228    -0.000039082158    0.000053136394    0.143983386334    -0.050163009529
            0.142607081049    -0.057161370011    -0.000028882324    0.000018110529    0.166983132300    -0.079254269249    -0.000051038048    0.000068173224
            -0.000057153038    0.000037094517    0.143645196188    -0.049527558081    -0.000049873953    0.000071622479    0.169291572166    -0.070538900798
0.225     0.061797246323    -0.187074313138    0.000014470231    0.000004375546    0.040458168395    -0.146863241099    0.000044312058    0.000005773662
            0.000014841377    0.000007286404    0.073391341288    -0.188787585155    0.000039748504    0.000008531255    0.050242629179    -0.148524315161
            0.040235387994    -0.145909201164    -0.000011206490    -0.000002260323    0.062401780494    -0.188498146701    0.000051082435    -0.000000723110
            -0.000002700072    0.000000488901    0.050022463003    -0.147757104808    0.000052819191    -0.000000698315    0.074010430661    -0.190421977152
0.250     -0.038472558510    -0.092314421143    -0.000047222662    -0.000074951900    -0.040327170610    -0.055183205643    -0.000058731817    -0.000117586186
            -0.000045546634    -0.000076611042    -0.039593068845    -0.103329558192    -0.000036386808    -0.000084947266    -0.041699387254    -0.064833186273
            -0.039895696451    -0.053966922385    -0.000056882626    -0.000026037988    -0.039073101280    -0.093631361404    -0.000059453163    -0.000114133116
            -0.000078340824    -0.000058809393    -0.041412127084    -0.063769449067    -0.000060585750    -0.000114118096    -0.039324477240    -0.103346441075
0.275     0.049810819545    -0.067282502474    -0.000119631610    0.000030902285    0.048497575586    -0.042294645126    -0.000170315735    0.000045382103
            -0.000122724503    0.000029746893    0.047355140492    -0.063093430896    -0.000122872614    0.000041012853    0.046457369466    -0.038191713713
            0.048980508202    -0.042019395238    -0.000072334691    0.000060180634    0.050950117067    -0.067538479724    -0.000159645718    0.000051223348
            -0.000121554042    0.000071626410    0.046873798810    -0.037927006962    -0.000159398792    0.000055407047    0.051051959486    -0.063498752550
0.300     0.060622060975    -0.186126061510    -0.000008666439    0.000066561156    0.033924442705    -0.132255479522    0.000002434571    0.000107213192
            -0.000010713949    0.000069843996    0.074933776180    -0.183719476838    0.000011222639    0.000088344807    0.045015052830    -0.131780673572
            0.034940457001    -0.132514017216    0.000016873973    0.000051575381    0.060542728954    -0.188320000188    0.000011446977    0.000106328875
            0.000017601830    0.000077706460    0.045923389250    -0.131998255067    0.000016991708    0.000107593778    0.075783908114    -0.187624521850
0.325     -0.100819985066    -0.177896210121    -0.000017841845    -0.000038846893    -0.083341176457    -0.102655033686    0.000007417379    -0.000057263797
            -0.000015520540    -0.000036181625    -0.090071816359    -0.193928598094    0.000021510658    -0.000035668866    -0.077482914367    -0.116250955113
            -0.082684657254    -0.103015323283    -0.000016737035    -0.000025446733    -0.102536543673    -0.179877290459    0.000020418952    -0.000052979274
            -0.000017901270    -0.000051875005    -0.076948500898    -0.116538819688    0.000023640987    -0.000057038544    -0.091517499788    -0.195700584878
0.350     -0.112193277867    -0.027873216970    -0.000158736981    0.000001176396    -0.070684152104    0.003588595740    -0.000196399346    -0.000024172012
            -0.000157192157    -0.000000151086    -0.118720981671    -0.040512061065    -0.000133403526    -0.000022870138    -0.077803993608    -0.004781281678
            -0.069879619485    0.003028465334    -0.000115011420    0.000029606440    -0.113546639521    -0.028677720388    -0.000172968628    -0.000028927425
            -0.000177270993    0.000016966619    -0.077071744885    -0.005144027792    -0.000174673004    -0.000032385900    -0.117135595259    -0.041108937595
0.375     -0.020968744163    -0.054329997138    -0.000064913923    0.000165359546    -0.011541970987    -0.036039537070    -0.000098637581    0.000210596053
            -0.000066998042    0.000166564741    -0.018236427820    -0.055946584530    -0.000068198994    0.000160145599    -0.008677112330    -0.037119438560
            -0.011368103783    -0.036803025774    -0.000007990166    0.000144378604    -0.021830865899    -0.054987844979    -0.000089143993    0.000192400468
            -0.000042763299    0.000194350644    -0.008429834072    -0.037792342782    -0.000089591981    0.000193793982    -0.016899016023    -0.059667384608
0.400     -0.082534689352    -0.148654491831    0.000054458153    0.000044026971    -0.060969354239    -0.067603387096    0.000089153483    0.000069998812
            0.000056149992    0.000046389576    -0.069311236052    -0.161473655952    0.000079321155    0.000057469155    -0.055398499545    -0.078693225722
            -0.061698826141    -0.068868978568    0.000070498252    0.000007265729    -0.086332151934    -0.150273348461    0.000091181707    0.000070784678
            0.000085609689    0.000018654887    -0.055943342428    -0.079945224186    0.000094392432    0.000068252353    -0.073709728413    -0.165366906613
0.425     -0.196182823241    -0.032527846864    -0.000093700529    -0.000016969825    -0.098749319861    0.012997806742    -0.000085970644    -0.000047331329
            -0.000090415423    -0.000017703029    -0.198392661564    -0.058053768091    -0.000044286695    -0.000037583437    -0.105248163047    -0.001033782269
            -0.099815894137    0.012634565693    -0.000078557567    -0.000027550033    -0.199148400915    -0.030986064144    -0.000053836797    -0.000047993609
            -0.000119293082    -0.000048325459    -0.106216707557    -0.001443073961    -0.000055703176    -0.000053726361    -0.200287976810    -0.056680919511
0.450     -0.095336675785    0.092397217173    -0.000142212439    0.000179328728    -0.030708399221    0.057697240231    -0.000183567741    0.000182223211
            -0.000141723175    0.000176683205    -0.111996642110    0.081056201165    -0.000127016537    0.000118930598    -0.040908066229    0.054409097597
            -0.031438734264    0.057683987631    -0.000104213970    0.000147803083    -0.095652516264    0.092711705137    -0.000155972341    0.000137302728
            -0.000174097315    0.000202230035    -0.041520069043    0.054369471834    -0.000162658516    0.000136025434    -0.109406942672    0.078486148697
0.475     -0.027831729845    -0.001142428298    0.000111030121    0.000195634742    -0.020141276207    0.004638936229    0.000107759407    0.000242300103
            0.000110486130    0.000195464566    -0.029700959483    -0.004118675232    0.000078133450    0.000171525260    -0.021242224908    0.000923410474
            -0.020617774667    0.004817226188    0.000114197894    0.000135696805    -0.029527279431    -0.001409040728    0.000084577769    0.000206316728
            0.000131754526    0.000214885927    -0.021682032849    0.000984818041    0.000081714941    0.000210817050    -0.032283644227    -0.008898956629
0.500     -0.125741662117    -0.027817387086    0.000055769591    -0.000031959238    -0.059221735321    0.010307368996    0.000085590077    -0.000026502568
            0.000057174129    -0.000032977670    -0.122834602134    -0.046154025602    0.000065125442    -0.000019770652    -0.062123691111    0.000305851365
            -0.060358703427    0.011078167310    0.000031138955    -0.000063432534    -0.129172410507    -0.024473653156    0.000083297732    -0.000017507883
            0.000053630541    -0.000063024907    -0.063322653785    0.000792119074    0.000084484787    -0.000016607613    -0.128083900171    -0.043992179671
0.525     -0.119796713951    0.110459199404    -0.000132949092    0.000104822648    -0.028380365409    0.062475455520    -0.000142235207    0.000092923729
            -0.000133392442    0.000102144130    -0.138794359342    0.091714588816    -0.000092752785    0.000059728797    -0.039609449817    0.057959005625
            -0.028658644701    0.063902560402    -0.000135632807    0.000079929673    -0.117933256373    0.113376814981    -0.000103322275    0.000059598191
            -0.000186088162    0.000111072512    -0.040121942449    0.059266590095    -0.000106019266    0.000058918980    -0.135515689189    0.093158562179
0.550     0.013841843495    0.100383722407    0.000065975505    0.000299825080    0.015233066677    0.026997527842    0.000050313317    0.000324158247
            0.000063519479    0.000298592026    -0.003776341936    0.105893355922    0.000032141450    0.000213691442    0.011006074994    0.031422913600
            0.015852521655    0.028047484450    0.000046097619    0.000247131041    0.015143094327    0.099458141613    0.000031075853    0.000245427310
            0.000055110266    0.000362450810    0.011446088810    0.032504013686    0.000027350514    0.000249896444    -0.002522813232    0.100101724452
0.575     -0.019778486359    0.005990270149    0.000243382652    0.000034336068    -0.028512346805    0.007040752761    0.000255165221    0.000065125902
            0.000242073030    0.000034917648    -0.015363904484    0.004958136159    0.000157696031    0.000039502034    -0.025350490819    0.002594674665
            -0.027599464371    0.008161230566    0.000181551571    0.000016065347    -0.021871224443    0.007922384980    0.000187864885    0.000056856787
            0.000279776320    0.000057026991    -0.024711451281    0.003709718484    0.000190332591    0.000063147308    -0.021278765141    0.004289817355
0.600     -0.073839085400    0.059687522688    -0.000034584589    -0.000036416092    -0.031783550848    0.050846973905    -0.000016750338    -0.000019735283
            -0.000035510804    -0.000036542584    -0.081091869177    0.042884792539    -0.000024139099    0.000005300197    -0.038511495302    0.042285995500
            -0.031018360905    0.051300576637    -0.000060577533    -0.000020223695    -0.070699210106    0.063360642167    -0.000011215747    0.000000139772
            -0.000039962292    -0.000038881082    -0.037965010989    0.042871561748    -0.000005590933    0.000001313382    -0.078923948682    0.046696802779
0.625     -0.000227656622    0.078624507412    0.000014459432    0.000265773858    0.009783778990    0.025260534904    0.000035161277    0.000278984014
            0.000012819063    0.000265986826    -0.015122736904    0.081407441167    0.000035811099    0.000196865605    0.006116467513    0.029404033471
            0.010992356498    0.025315377110    -0.000002368806    0.000237769071    0.003137741292    0.076198631707    0.000040479691    0.000216998014
            0.000005500772    0.000314884217    0.007232025299    0.029773460300    0.000043101620    0.000215352097    -0.011368918773    0.075333541704
0.650     -0.020312529550    0.010229240867    0.000349529673    0.000113227828    -0.046562623736    -0.003361241758    0.000366442733    0.000115239171
            0.000347900662    0.000115026225    -0.009988753863    0.011538203977    0.000234795117    0.000057427276    -0.035161192440    -0.009689231632
            -0.045493442015    -0.004125409136    0.000270708740    0.000103262466    -0.021667695446    0.009196708193    0.000275588119    0.000075907012
            0.000403366749    0.000158194220    -0.033955515958    -0.010162471570    0.000276826886    0.000075851059    -0.015833295464    0.006698584494
0.675     -0.068915779801    0.065621647141    0.000127345066    -0.000165134038    -0.062325661454    0.075036360859    0.000133379551    -0.000146754362
            0.000127584713    -0.000162726199    -0.069635154440    0.042867782662    0.000046614373    -0.000073603152    -0.067885981893    0.054873240094
            -0.061959596019    0.073858763909    0.000085446474    -0.000103186951    -0.066257297647    0.067057604613    0.000079324267    -0.000089443478
            0.000176701734    -0.000174689161    -0.067285409236    0.053857880959    0.000082801988    -0.000089153351    -0.070441632928    0.045552356681
0.700     0.000265150700    0.079894611016    -0.000039086452    0.000107313903    0.012198456334    0.071512317408    0.000006312208    0.000139893574
            -0.000037376352    0.000108618763    -0.015784461801    0.076612236241    0.000017048475    0.000142683273    -0.000982993635    0.071734183197
            0.011935760476    0.070449291690    -0.000016830930    0.000116614853    0.003753796481    0.074811364415    0.000029743184    0.000148161948
            -0.000017649362    0.000107848040    -0.000948577222    0.070729683458    0.000034365622    0.000144463113    -0.011481894002    0.070308758488
0.725     -0.045327765773    -0.005246605724    0.000338755943    0.000142162109    -0.043188559675    0.014427367397    0.000404133193    0.000108867629
            0.000338951933    0.000141740846    -0.027701859018    -0.007754040594    0.000296351839    0.000053605818    -0.031132598039    0.008769995308
            -0.043861011125    0.013804483043    0.000278896296    0.000103601950    -0.053102301527    -0.005219040545    0.000352874045    0.000063198832
            0.000386885512    0.000143578092    -0.031511435324    0.008001163861    0.000352616406    0.000056287811    -0.040006049069    -0.013485680258
0.750     -0.132362930973    0.117689443047    0.000231155866    -0.000241668676    -0.084418511701    0.113520580111    0.000222963537    -0.000287268645
            0.000231634538    -0.000239727964    -0.135462133791    0.074191594582    0.000095373549    -0.000191756186    -0.092803135001    0.081687318377
            -0.085051929454    0.113055185986    0.000153885126    -0.000173870501    -0.132207147003    0.121244389009    0.000147820271    -0.000236306159
            0.000270570340    -0.000276315914    -0.093261345355    0.081028051783    0.000142508080    -0.000239530275    -0.141796423136    0.079164089062
0.775     0.002259385065    0.200316828538    -0.000057325654    -0.000096772884    0.029815353771    0.153280729719    -0.000064542601    -0.000070742680
            -0.000054707136    -0.000095833569    -0.038587281549    0.184484588886    -0.000053134902    0.000019710365    -0.001311256789    0.148374256000
            0.028829067532    0.152914955131    -0.000027237525    -0.000034819594    0.007547535828    0.196510381206    -0.000049373033    -0.000012332955
