# GHz S RI R 45
0.000     0.060726972000    0.000000000000    -0.000033353397    0.000000000000    0.003837675800    -0.000000000000    -0.000012212345    -0.000000000000
            -0.000040200641    -0.000000000000    0.059678404000    -0.000000000000    -0.000017302346    0.000000000000    0.003951811000    -0.000000000000
            0.004910172800    0.000000000000    0.000010523420    -0.000000000000    0.060074766000    -0.000000000000    -0.000002951827    -0.000000000000
            0.000000719633    -0.000000000000    0.004798105700    0.000000000000    0.000003925559    -0.000000000000    0.058951384000    -0.000000000000
0.025     0.133904459865    0.021791326198    -0.000002047548    0.000030613642    0.068466033700    0.037251712693    0.000009278084    0.000017300905
            -0.000005214801    0.000036667106    0.132624307188    0.022732152805    -0.000000369718    0.000018953603    0.067717368462    0.037339316823
            0.069340916838    0.036771543535    0.000016491269    -0.000008481281    0.133861960702    0.022375624741    0.000009583614    0.000007797697
            0.000019038607    0.000002644642    0.068420440618    0.036963291150    0.000013787888    0.000002151252    0.133006384238    0.023332810717
0.050     0.119136710192    -0.076583194336    0.000031805332    0.000015994016    0.072358691287    -0.033867289865    0.000036851644    -0.000003514273
            0.000035805292    0.000021602341    0.120921011278    -0.075895378272    0.000027114728    0.000007908970    0.073557232909    -0.033391788409
            0.072880107187    -0.034814437977    0.000003741420    -0.000018968613    0.119543030271    -0.077218862598    0.000025188747    -0.000007824921
            0.000020783847    -0.000018048365    0.073991274335    -0.034160690016    0.000022916356    -0.000014764451    0.121562145856    -0.076671169721
0.075     0.025829380738    -0.026729166617    0.000035119962    -0.000037074227    0.017949538876    0.013448316945    0.000014148862    -0.000060309911
            0.000041605798    -0.000038337550    0.025595008416    -0.030973991257    0.000018217166    -0.000037045055    0.017753355235    0.010121400685
            0.017216238504    0.011601226121    -0.000009361031    -0.000024381447    0.023543190505    -0.027341939175    0.000003296101    -0.000045955288
            0.000000219912    -0.000047763508    0.017168766619    0.008597061873    -0.000004048797    -0.000047990040    0.023366083397    -0.031377644290
0.100     0.116132400180    0.039684266130    -0.000030412965    -0.000048636307    0.094355997196    0.055276963928    -0.000061267317    -0.000037915629
            -0.000028555694    -0.000054232760    0.110789497953    0.040634204572    -0.000032660087    -0.000028100210    0.089960988080    0.055784666731
            0.093856420602    0.054382688909    -0.000037651587    -0.000004972376    0.115633985564    0.040604888494    -0.000048778880    -0.000020706059
            -0.000059440021    -0.000025593740    0.089548431339    0.055066131990    -0.000054521186    -0.000015547899    0.110846180990    0.041856666435
0.125     0.158471815126    -0.079500426732    -0.000057441815    -0.000001283195    0.126142771933    -0.053562395428    -0.000069306469    0.000024239538
            -0.000061098401    -0.000005971372    0.160970798981    -0.074805093983    -0.000042455546    0.000005257043    0.127555671295    -0.049885790982
            0.125222866954    -0.054163431651    -0.000023773001    0.000028564675    0.159326623487    -0.079594863705    -0.000047142554    0.000022111647
            -0.000056107019    0.000036021974    0.126822688154    -0.050379656024    -0.000046152767    0.000029938413    0.162177190188    -0.075101394794
0.150     0.036853315863    -0.105503659061    -0.000047353513    0.000062567274    0.018724120586    -0.068941935465    -0.000036611811    0.000100249462
            -0.000053531631    0.000063968688    0.041393250831    -0.110979744999    -0.000033522456    0.000059617108    0.022377323265    -0.073338413946
            0.017544462753    -0.068907427675    0.000001398606    0.000045179726    0.036546960362    -0.106639667191    -0.000022445531    0.000076023369
            -0.000014227001    0.000084936765    0.021405369927    -0.073339396995    -0.000015020849    0.000079749477    0.040959658708    -0.111739592100
0.175     0.068277159149    -0.017608063936    0.000052809021    0.000077907210    0.061912919472    0.013678258400    0.000105159043    0.000083369701
            0.000051961048    0.000083399059    0.061787568466    -0.019850020002    0.000063923005    0.000055721319    0.055995100510    0.012152573477
            0.061371699921    0.013806111134    0.000055691299    0.000022555582    0.067111057082    -0.019072253811    0.000084683504    0.000054503433
            0.000090597834    0.000058623207    0.055543961129    0.012251583936    0.000091918248    0.000049439161    0.061720657159    -0.020364613228
0.200     0.166206813695    -0.079304701562    0.000085053844    -0.000015749166    0.143024474567    -0.058001772144    0.000107831594    -0.000060642690
            0.000088359029    -0.000012620917    0.167269771529    -0.070265085228    0.000061282873    -0.000036374233    0.143983386334    -0.050163009529
            0.142613883294    -0.057231288113    0.000039187636    -0.000041522104    0.166986436600    -0.079252041612    0.000071623852    -0.000052791500
            0.000087635470    -0.000055597788    0.143645196188    -0.049527558081    0.000070518005    -0.000060916303    0.169291572166    -0.070538900798
0.225     0.061823459923    -0.187042913162    0.000051439028    -0.000073355970    0.040427186386    -0.146879229958    0.000035366299    -0.000113401350
            0.000056254616    -0.000073977132    0.073391341288    -0.188787585155    0.000025098001    -0.000059421493    0.050242629179    -0.148524315161
            0.040204381784    -0.145925184945    0.000002878435    -0.000049396519    0.062350875111    -0.188491018408    0.000021429317    -0.000079148902
            0.000024295323    -0.000099017007    0.050022463003    -0.147757104808    0.000014813918    -0.000082692531    0.074010430661    -0.190421977152
0.250     -0.038435486894    -0.092303812122    -0.000047956882    -0.000118576890    -0.040331490492    -0.055178684724    -0.000098636934    -0.000140626925
            -0.000046282731    -0.000123900711    -0.039593068845    -0.103329558192    -0.000052711883    -0.000092677239    -0.041699387254    -0.064833186273
            -0.039899994909    -0.053962372671    -0.000053086512    -0.000056408217    -0.039102292383    -0.093548024072    -0.000075805349    -0.000104014062
            -0.000089823678    -0.000112720254    -0.041412127084    -0.063769449067    -0.000082649298    -0.000101299565    -0.039324477240    -0.103346441075
0.275     0.049833217341    -0.067270997657    -0.000135880079    0.000010813434    0.048494712458    -0.042300088204    -0.000187436849    0.000059622447
            -0.000139924007    0.000007889112    0.047355140492    -0.063093430896    -0.000117056434    0.000040050421    0.046457369466    -0.038191713713
            0.048977677567    -0.042024879865    -0.000077420582    0.000044453330    0.050985688503    -0.067507352157    -0.000138004873    0.000056059125
            -0.000149587372    0.000055059551    0.046873798810    -0.037927006962    -0.000139263272    0.000064371231    0.051051959486    -0.063498752550
0.300     0.060655944283    -0.186096332163    -0.000046339216    0.000103132105    0.033919611491    -0.132252661472    -0.000019633324    0.000167151492
            -0.000049920155    0.000104705161    0.074933776180    -0.183719476838    -0.000000407376    0.000096906418    0.045015052830    -0.131780673572
            0.034935578370    -0.132511218520    0.000008638028    0.000067675965    0.060494114891    -0.188325822623    0.000000102476    0.000120112676
            -0.000018301583    0.000132666602    0.045923389250    -0.131998255067    0.000006868544    0.000124313545    0.075783908114    -0.187624521850
0.325     -0.100758452484    -0.177887432132    0.000033309187    0.000118800128    -0.083334820542    -0.102654783795    0.000091455653    0.000131060426
            0.000032114826    0.000122360987    -0.090071816359    -0.193928598094    0.000046145522    0.000068769138    -0.077482914367    -0.116250955113
            -0.082678306552    -0.103015034958    0.000034761888    0.000052281159    -0.102601032791    -0.179769095626    0.000063418491    0.000087521621
            0.000069114553    0.000118277073    -0.076948500898    -0.116538819688    0.000068922911    0.000085031601    -0.091517499788    -0.195700584878
0.350     -0.112148446517    -0.027897784756    0.000169847864    0.000047974279    -0.070683374869    0.003581098191    0.000222925629    0.000011886112
            0.000172681287    0.000051404370    -0.118720981671    -0.040512061065    0.000131893608    0.000015555619    -0.077803993608    -0.004781281678
            -0.069878798166    0.003020939492    0.000107325414    0.000006904713    -0.113496961357    -0.028572282731    0.000165145879    0.000011619183
            0.000197540746    0.000016538201    -0.077071744885    -0.005144027792    0.000167464556    0.000006515850    -0.117135595259    -0.041108937595
0.375     -0.020933156934    -0.054332706540    0.000101391999    -0.000154526534    -0.011547898613    -0.036038945515    0.000095268454    -0.000234719690
            0.000105671189    -0.000156237346    -0.018236427820    -0.055946584530    0.000053467673    -0.000147022314    -0.008677112330    -0.037119438560
            -0.011374096935    -0.036802472931    0.000031045452    -0.000115595020    -0.021840037399    -0.054978012627    0.000065260293    -0.000180941622
            0.000083062327    -0.000198548459    -0.008429834072    -0.037792342782    0.000061936236    -0.000187391059    -0.016899016023    -0.059667384608
0.400     -0.082461267018    -0.148649686654    -0.000069646384    -0.000133922171    -0.060960342516    -0.067600274149    -0.000150150873    -0.000159682916
            -0.000069800997    -0.000137831965    -0.069311236052    -0.161473655952    -0.000098209798    -0.000080761333    -0.055398499545    -0.078693225722
            -0.061689833681    -0.068865784878    -0.000068129608    -0.000053747818    -0.086410767861    -0.150165926435    -0.000118516189    -0.000106584916
            -0.000112217668    -0.000136673404    -0.055943342428    -0.079945224186    -0.000126218210    -0.000105838385    -0.073709728413    -0.165366906613
0.425     -0.196094350768    -0.032587804197    -0.000151442461    -0.000064677112    -0.098745007038    0.012983300718    -0.000206523750    -0.000013246165
            -0.000154042360    -0.000066278980    -0.198392661564    -0.058053768091    -0.000108489092    -0.000003668239    -0.105248163047    -0.001033782269
            -0.099811521708    0.012620047567    -0.000082554027    -0.000021209542    -0.199119431231    -0.030816882802    -0.000142954296    -0.000007444983
            -0.000177213647    -0.000040227054    -0.106216707557    -0.001443073961    -0.000145373804    -0.000001731046    -0.200287976810    -0.056680919511
0.450     -0.095313653903    0.092308019801    -0.000189107728    0.000134969323    -0.030719621181    0.057692563333    -0.000184238748    0.000207126214
            -0.000192143622    0.000135888044    -0.111996642110    0.081056201165    -0.000110234978    0.000117863231    -0.040908066229    0.054409097597
            -0.031449977587    0.057679267349    -0.000108486859    0.000096618059    -0.095591606518    0.092796444042    -0.000139655424    0.000150126005
            -0.000191117812    0.000176775463    -0.041520069043    0.054369471834    -0.000138044303    0.000154956151    -0.109406942672    0.078486148697
0.475     -0.027783060796    -0.001175302406    0.000074415920    0.000234965278    -0.020136712003    0.004643592228    0.000145541640    0.000278081117
            0.000074023717    0.000238756749    -0.029700959483    -0.004118675232    0.000095638925    0.000163981936    -0.021242224908    0.000923410474
            -0.020613245987    0.004821943046    0.000079062162    0.000141072417    -0.029576433033    -0.001306059679    0.000112936861    0.000209355712
            0.000117736151    0.000260631408    -0.021682032849    0.000984818041    0.000118783660    0.000212305843    -0.032283644227    -0.008898956629
0.500     -0.125531312770    -0.027913303453    0.000204172665    0.000040729665    -0.059213974314    0.010287396109    0.000280716530    -0.000007183587
            0.000207572431    0.000042039224    -0.122834602134    -0.046154025602    0.000162276668    -0.000021503372    -0.062123691111    0.000305851365
            -0.060350866798    0.011058198549    0.000124572265    -0.000008634084    -0.129277497652    -0.024250519528    0.000208615609    -0.000013361619
            0.000243400114    0.000015101950    -0.063322653785    0.000792119074    0.000214744986    -0.000018120419    -0.128083900171    -0.043992179671
0.525     -0.119511404513    0.109917467675    0.000192255571    -0.000120426465    -0.028408978461    0.062456732719    0.000186816937    -0.000206274299
            0.000194369376    -0.000122346163    -0.138794359342    0.091714588816    0.000099988445    -0.000121921511    -0.039609449817    0.057959005625
            -0.028687280881    0.063883766570    0.000105460597    -0.000081562865    -0.118084066611    0.113931175801    0.000136515546    -0.000153824124
            0.000198088563    -0.000160536724    -0.040121942449    0.059266590095    0.000135309235    -0.000160661519    -0.135515689189    0.093158562179
0.550     0.014242283608    0.100476516771    -0.000011189926    -0.000300381597    0.015223654775    0.026993151504    -0.000086501077    -0.000342292786
            -0.000011570104    -0.000302587276    -0.003776341936    0.105893355922    -0.000055409274    -0.000202595399    0.011006074994    0.031422913600
            0.015843064443    0.028043130769    -0.000022721770    -0.000196526984    0.014765275222    0.099401948132    -0.000064116270    -0.000259491974
            -0.000044624167    -0.000338158141    0.011446088810    0.032504013686    -0.000069714870    -0.000262234465    -0.002522813232    0.100101724452
0.575     -0.019978788146    0.006197458277    -0.000290460545    -0.000094663059    -0.028491044906    0.007042404283    -0.000370040356    -0.000055628588
            -0.000293357602    -0.000095497929    -0.015363904484    0.004958136159    -0.000222663273    -0.000015450638    -0.025350490819    0.002594674665
            -0.027578133518    0.008162811482    -0.000201354877    -0.000033779144    -0.021592374119    0.007836484779    -0.000280583780    -0.000037879968
            -0.000347580233    -0.000083453817    -0.024711451281    0.003709718484    -0.000287348900    -0.000035067451    -0.021278765141    0.004289817355
0.600     -0.073586919946    0.060045845939    -0.000212796817    0.000171432860    -0.031782160675    0.050812700695    -0.000221305093    0.000263720388
            -0.000214338359    0.000174101301    -0.081091869177    0.042884792539    -0.000114948752    0.000162897061    -0.038511495302    0.042285995500
            -0.031016962095    0.051266247689    -0.000117791433    0.000128575308    -0.070801545715    0.063045199841    -0.000165333379    0.000200459619
            -0.000230652502    0.000225585371    -0.037965010989    0.042871561748    -0.000166259597    0.000208576636    -0.078923948682    0.046696802779
0.625     -0.000162743131    0.078560317433    0.000007015698    0.000319181096    0.009764701192    0.025265542151    0.000083924553    0.000374227779
            0.000008736404    0.000321085768    -0.015122736904    0.081407441167    0.000065640369    0.000221146358    0.006116467513    0.029404033471
            0.010973215139    0.025320389727    0.000026523880    0.000211575032    0.003136056845    0.076251155389    0.000068236336    0.000289024038
            0.000039666105    0.000366834961    0.007232025299    0.029773460300    0.000074772188    0.000293663378    -0.011368918773    0.075333541704
0.650     -0.020245758931    0.010244642351    0.000333380838    0.000132147387    -0.046550345926    -0.003360657629    0.000418700172    0.000093874121
            0.000335501377    0.000131864009    -0.009988753863    0.011538203977    0.000261536868    0.000026503032    -0.035161192440    -0.009689231632
            -0.045481142114    -0.004124773958    0.000242357907    0.000057757475    -0.021696390864    0.009283073837    0.000327007673    0.000060925409
            0.000397809682    0.000130155931    -0.033955515958    -0.010162471570    0.000334237151    0.000057975595    -0.015833295464    0.006698584494
0.675     -0.068879093818    0.065577088347    0.000241578636    -0.000203345972    -0.062326091161    0.075012902017    0.000257120044    -0.000294039330
            0.000242741704    -0.000205943705    -0.069635154440    0.042867782662    0.000123928509    -0.000190647866    -0.067885981893    0.054873240094
            -0.061959990611    0.073835257438    0.000136239533    -0.000161682293    -0.066132838648    0.067197722705    0.000187705467    -0.000229756974
            0.000272803014    -0.000261768003    -0.067285409236    0.053857880959    0.000189103860    -0.000237605598    -0.070441632928    0.045552356681
0.700     0.000260005903    0.079875971826    0.000006378811    -0.000334800199    0.012176934753    0.071507630644    -0.000066299458    -0.000402863346
            0.000003372647    -0.000336793664    -0.015784461801    0.076612236241    -0.000059304276    -0.000233152078    -0.000982993635    0.071734183197
            0.011914164173    0.070444589185    -0.000021373450    -0.000224869861    0.003880967322    0.074812105728    -0.000056371692    -0.000312156452
            -0.000025918822    -0.000395111541    -0.000948577222    0.070729683458    -0.000062634019    -0.000317177557    -0.011481894002    0.070308758488
0.725     -0.045316267781    -0.005253450469    -0.000375815228    -0.000174131453    -0.043185359943    0.014440048736    -0.000473585260    -0.000134146471
            -0.000377563305    -0.000171446736    -0.027701859018    -0.007754040594    -0.000304777664    -0.000042712912    -0.031132598039    0.008769995308
            -0.043857801573    0.013817246002    -0.000284149324    -0.000082997629    -0.053086511494    -0.005144642829    -0.000378101240    -0.000086118763
            -0.000450036239    -0.000174658496    -0.031511435324    0.008001163861    -0.000384798490    -0.000083150333    -0.040006049069    -0.013485680258
0.750     -0.132362509068    0.117671902485    -0.000245401608    0.000253905924    -0.084406492479    0.113500818208    -0.000253369796    0.000344810801
            -0.000244623751    0.000255394134    -0.135462133791    0.074191594582    -0.000103898306    0.000233530954    -0.092803135001    0.081687318377
            -0.085039843550    0.113035383786    -0.000130934269    0.000209937690    -0.132056184960    0.121405899420    -0.000174403798    0.000275640348
            -0.000279032696    0.000316087188    -0.093261345355    0.081028051783    -0.000175371082    0.000281539907    -0.141796423136    0.079164089062
0.775     0.002253182836    0.200312858142    0.000007807598    0.000281928221    0.029790923703    0.153262629961    0.000063871664    0.000343270239
            0.000009667777    0.000283379695    -0.038587281549    0.184484588886    0.000060066151    0.000178263790    -0.001311256789    0.148374256000
            0.028804568694    0.152896828763    0.000035881249    0.000178922895    0.007756191867    0.196521080883    0.000052126000    0.000257831410
