# GHz S RI R 45
0.000     0.062253886000    -0.000000000000    -0.000022413753    0.000000000000    0.003247167900    0.000000000000    -0.000043568080    -0.000000000000
            0.000047415198    0.000000000000    0.059678404000    -0.000000000000    0.000076372898    -0.000000000000    0.003951811000    -0.000000000000
            0.003671265000    0.000000000000    -0.000057034161    -0.000000000000    0.059708596000    -0.000000000000    0.000013785116    0.000000000000
            -0.000031373698    0.000000000000    0.004798105700    0.000000000000    0.000073252024    -0.000000000000    0.058951384000    -0.000000000000
0.025     0.133115329171    0.020418586459    0.000049656704    0.000038484095    0.068252406774    0.037823233595    0.000030810897    0.000046004798
            0.000090788128    -0.000005331356    0.132624307188    0.022732152805    0.000045450866    -0.000056235420    0.067717368462    0.037339316823
            0.068421186129    0.037508781215    0.000032215231    0.000062361368    0.132276974361    0.021859010156    0.000029058020    -0.000009022959
            0.000021971548    0.000033483948    0.068420440618    0.036963291150    0.000028991431    -0.000063366779    0.133006384238    0.023332810717
0.050     0.118121598698    -0.076143405750    -0.000006269915    0.000002702402    0.073544141693    -0.034118334029    -0.000007861076    0.000006171933
            -0.000001528401    -0.000041263301    0.120921011278    -0.075895378272    -0.000099507470    0.000008021231    0.073557232909    -0.033391788409
            0.073373861342    -0.034361454258    -0.000000856512    0.000019065796    0.117990189330    -0.075654147879    -0.000055387149    0.000012983371
            -0.000024359383    0.000014735389    0.073991274335    -0.034160690016    -0.000105981926    0.000011687801    0.121562145856    -0.076671169721
0.075     0.026685585010    -0.027281794939    -0.000000511307    0.000170938865    0.017261038665    0.010380253298    -0.000008233226    0.000153032795
            0.000000718726    0.000143737523    0.025595008416    -0.030973991257    0.000019735956    0.000268594571    0.017753355235    0.010121400685
            0.017153976688    0.010257047439    0.000002087101    0.000172132647    0.024882748891    -0.026329017576    0.000013220844    0.000196994705
            -0.000002967243    0.000172321265    0.017168766619    0.008597061873    0.000019170962    0.000248308822    0.023366083397    -0.031377644290
0.100     0.114753083729    0.038894523160    0.000208020399    0.000099701127    0.091423412017    0.054831490636    0.000185913127    0.000100768510
            0.000201528794    0.000052209303    0.110789497953    0.040634204572    0.000306395239    0.000068446761    0.089960988080    0.055784666731
            0.091378200273    0.054476436188    0.000200947221    0.000112242254    0.115338088800    0.040803224281    0.000237965196    0.000069361458
            0.000195759849    0.000100502372    0.089548431339    0.055066131990    0.000286421733    0.000057106374    0.110846180990    0.041856666435
0.125     0.157718185501    -0.079142728145    0.000062118295    -0.000047410629    0.125843754060    -0.052093391751    0.000079503952    -0.000040834548
            0.000014910947    -0.000091572394    0.160970798981    -0.074805093983    0.000038235446    -0.000144419943    0.127555671295    -0.049885790982
            0.125169625714    -0.052332635777    0.000077291378    -0.000020519521    0.159441310396    -0.078702582579    0.000059297993    -0.000099064411
            0.000084096663    -0.000042808543    0.126822688154    -0.050379656024    0.000053323711    -0.000149424188    0.162177190188    -0.075101394794
0.150     0.036732274190    -0.106917163912    -0.000032902771    0.000205603535    0.020019879232    -0.071453338856    -0.000014268381    0.000161786014
            -0.000110112506    0.000211946840    0.041393250831    -0.110979744999    -0.000128325462    0.000240011430    0.022377323265    -0.073338413946
            0.019396710873    -0.070773977379    0.000007626395    0.000213114267    0.037715352394    -0.107196461359    -0.000054817085    0.000173437822
            -0.000016763491    0.000159266917    0.021405369927    -0.073339396995    -0.000113582866    0.000175141089    0.040959658708    -0.111739592100
0.175     0.064381350901    -0.019762529282    0.000334375933    0.000200462019    0.058096324325    0.011600096316    0.000317082850    0.000170672285
            0.000305899874    0.000252883802    0.061787568466    -0.019850020002    0.000404354669    0.000296050295    0.055995100510    0.012152573477
            0.058151520310    0.011812154005    0.000368433983    0.000179008616    0.065196381019    -0.019910813875    0.000348351167    0.000193347983
            0.000321417226    0.000176711486    0.055543961129    0.012251583936    0.000355750047    0.000249561309    0.061720657159    -0.020364613228
0.200     0.165018223764    -0.076976458606    0.000204643846    -0.000160118665    0.140128345851    -0.054790999845    0.000226290277    -0.000173455053
            0.000197948608    -0.000131983642    0.167269771529    -0.070265085228    0.000309197352    -0.000238868766    0.143983386334    -0.050163009529
            0.140291292672    -0.054907140755    0.000223570429    -0.000186786226    0.166813146761    -0.078742176092    0.000265282066    -0.000230698549
            0.000234505560    -0.000173847462    0.143645196188    -0.049527558081    0.000309888918    -0.000240139436    0.169291572166    -0.070538900798
0.225     0.063239055913    -0.187725264593    -0.000073258692    0.000063750386    0.042487054457    -0.146379776200    -0.000042219254    -0.000013089474
            -0.000088962648    0.000097912594    0.073391341288    -0.188787585155    -0.000123636128    -0.000036948644    0.050242629179    -0.148524315161
            0.042119500059    -0.145931325457    -0.000052265219    0.000047209444    0.063226101373    -0.190091423537    -0.000084954095    -0.000072337940
            -0.000032606539    -0.000025036111    0.050022463003    -0.147757104808    -0.000094223895    -0.000118471543    0.074010430661    -0.190421977152
0.250     -0.041521554553    -0.095806105414    0.000274135759    0.000340719874    -0.042652131514    -0.059601818476    0.000238324670    0.000265016567
            0.000280068717    0.000408872487    -0.039593068845    -0.103329558192    0.000214165100    0.000407319615    -0.041699387254    -0.064833186273
            -0.041972474189    -0.058532615134    0.000317592023    0.000315966000    -0.041795935759    -0.096813451721    0.000201898046    0.000292736312
            0.000225446979    0.000251221962    -0.041412127084    -0.063769449067    0.000143828764    0.000309558194    -0.039324477240    -0.103346441075
0.275     0.044588827253    -0.064808515103    0.000442654220    -0.000171638593    0.043186615882    -0.040080074556    0.000447408675    -0.000202489400
            0.000519055832    -0.000130772718    0.047355140492    -0.063093430896    0.000578045346    -0.000141681709    0.046457369466    -0.038191713713
            0.043745823825    -0.040232833690    0.000481709886    -0.000243780090    0.047619615713    -0.065615425001    0.000500078179    -0.000197819143
            0.000438799971    -0.000195308754    0.046873798810    -0.037927006962    0.000525784810    -0.000138745942    0.051051959486    -0.063498752550
0.300     0.063116934175    -0.183620622055    -0.000064599664    -0.000168809445    0.034813240661    -0.128558598960    -0.000043116282    -0.000268693844
            -0.000006267669    -0.000193101689    0.074933776180    -0.183719476838    -0.000011009937    -0.000328106878    0.045015052830    -0.131780673572
            0.034951452127    -0.129705066615    -0.000090069453    -0.000249735978    0.061250852544    -0.187066085305    -0.000030889912    -0.000354887897
            -0.000040211185    -0.000263346828    0.045923389250    -0.131998255067    0.000018834742    -0.000374082333    0.075783908114    -0.187624521850
0.325     -0.100638923602    -0.182468668457    0.000070298316    0.000279155000    -0.082705855132    -0.105467920246    0.000013128960    0.000176508388
            0.000098966286    0.000252068365    -0.090071816359    -0.193928598094    -0.000027322958    0.000209356378    -0.077482914367    -0.116250955113
            -0.083078218142    -0.105563650341    0.000043367581    0.000266278289    -0.103960467315    -0.182517747135    -0.000053598132    0.000147079123
            0.000019498979    0.000167806184    -0.076948500898    -0.116538819688    -0.000066020229    0.000102344928    -0.091517499788    -0.195700584878
0.350     -0.120287561906    -0.029093090412    0.000575606765    0.000060606160    -0.077361954204    0.002224439919    0.000535939418    0.000031472194
            0.000607096937    0.000035609427    -0.118720981671    -0.040512061065    0.000579929405    0.000121927701    -0.077803993608    -0.004781281678
            -0.076648081745    0.002198357180    0.000623962501    0.000032442032    -0.119851434605    -0.027897270635    0.000548484324    0.000072386911
            0.000519719408    0.000024213484    -0.077071744885    -0.005144027792    0.000505183086    0.000092483805    -0.117135595259    -0.041108937595
0.375     -0.023755266852    -0.047731533123    0.000172011791    -0.000444450102    -0.013953512981    -0.030230975903    0.000194590814    -0.000534647193
            0.000203456618    -0.000507915834    -0.018236427820    -0.055946584530    0.000285651653    -0.000524460675    -0.008677112330    -0.037119438560
            -0.013924741260    -0.030956596027    0.000173463722    -0.000561674488    -0.023634678988    -0.049202469625    0.000258446235    -0.000589213765
            0.000185161241    -0.000517964227    -0.008429834072    -0.037792342782    0.000293731366    -0.000549821302    -0.016899016023    -0.059667384608
0.400     -0.078799294351    -0.149765147795    -0.000146423359    0.000036237203    -0.059285659749    -0.067265430310    -0.000210245505    -0.000075063584
            -0.000181817529    -0.000038230292    -0.069311236052    -0.161473655952    -0.000209773775    -0.000109648293    -0.055398499545    -0.078693225722
            -0.060872626749    -0.068279123268    -0.000245986285    -0.000002083703    -0.083534323642    -0.150750724504    -0.000249673228    -0.000156037870
            -0.000200021457    -0.000062701942    -0.055943342428    -0.079945224186    -0.000211938487    -0.000193393183    -0.073709728413    -0.165366906613
0.425     -0.202287667424    -0.037270908492    0.000375404242    0.000177136386    -0.103499086339    0.011208471393    0.000325281823    0.000149499955
            0.000313282778    0.000150706984    -0.198392661564    -0.058053768091    0.000301230902    0.000190624160    -0.105248163047    -0.001033782269
            -0.104749909581    0.011967266286    0.000385931958    0.000228369435    -0.203265645372    -0.033122376423    0.000298033649    0.000160603893
            0.000335682178    0.000143466216    -0.106216707557    -0.001443073961    0.000270023249    0.000119294837    -0.200287976810    -0.056680919511
0.450     -0.104947506605    0.099144564264    0.000502418594    -0.000436269457    -0.037188492993    0.063344576245    0.000524798650    -0.000504792136
            0.000451823928    -0.000435220086    -0.111996642110    0.081056201165    0.000563204667    -0.000442696078    -0.040908066229    0.054409097597
            -0.037076246933    0.063937864436    0.000590819413    -0.000514609444    -0.100652636515    0.098545766682    0.000585921016    -0.000537111276
            0.000517371228    -0.000510526688    -0.041520069043    0.054369471834    0.000547075968    -0.000516215046    -0.109406942672    0.078486148697
0.475     -0.024808255341    0.006445789262    -0.000234150669    -0.000477696741    -0.018028855263    0.010309596102    -0.000273000232    -0.000600308307
            -0.000282183779    -0.000470612816    -0.029700959483    -0.004118675232    -0.000223158857    -0.000591530203    -0.021242224908    0.000923410474
            -0.018330995513    0.010303477530    -0.000300011373    -0.000596491176    -0.026506158013    0.002711753513    -0.000280617139    -0.000699677956
            -0.000276068251    -0.000589107321    -0.021682032849    0.000984818041    -0.000257148493    -0.000674345275    -0.032283644227    -0.008898956629
0.500     -0.125239853186    -0.031372181310    -0.000083776467    0.000143405195    -0.061002772033    0.009979584044    -0.000119602037    0.000099744431
            -0.000141338176    0.000183337605    -0.122834602134    -0.046154025602    -0.000142184466    0.000106786630    -0.062123691111    0.000305851365
            -0.062314530082    0.010818220862    -0.000132867051    0.000190160477    -0.129470249694    -0.028430775228    -0.000158545768    0.000073481113
            -0.000107776760    0.000106652503    -0.063322653785    0.000792119074    -0.000146094548    0.000043054603    -0.128083900171    -0.043992179671
0.525     -0.129647781062    0.113670314225    0.000430623740    -0.000237200231    -0.034161722811    0.068142904158    0.000466455723    -0.000328323922
            0.000409119912    -0.000162994074    -0.138794359342    0.091714588816    0.000468786667    -0.000261588140    -0.039609449817    0.057959005625
            -0.034040664121    0.070007991945    0.000553060766    -0.000261881894    -0.125361664792    0.116271351474    0.000502777446    -0.000373583896
            0.000478819011    -0.000335268546    -0.040121942449    0.059266590095    0.000468058438    -0.000388106908    -0.135515689189    0.093158562179
0.550     0.013917331320    0.114953605292    -0.000111966071    -0.000820713024    0.018095007046    0.037226204743    -0.000156106601    -0.000965409987
            -0.000086480840    -0.000752845275    -0.003776341936    0.105893355922    -0.000100819292    -0.000934261220    0.011006074994    0.031422913600
            0.019536867947    0.038036412436    -0.000089386365    -0.001012742858    0.016056379606    0.108906687214    -0.000177318892    -0.001084308522
            -0.000155739289    -0.000979717052    0.011446088810    0.032504013686    -0.000200055245    -0.001051950856    -0.002522813232    0.100101724452
0.575     -0.011734561390    0.008291678711    -0.000697355316    -0.000115183466    -0.024653731986    0.007978170669    -0.000733885392    -0.000176925385
            -0.000649834467    -0.000076406881    -0.015363904484    0.004958136159    -0.000732172475    -0.000168930889    -0.025350490819    0.002594674665
            -0.023755053527    0.008000371796    -0.000797949692    -0.000175706650    -0.017871301236    0.007453882809    -0.000798380066    -0.000207473702
            -0.000746214876    -0.000181122532    -0.024711451281    0.003709718484    -0.000778301536    -0.000183280309    -0.021278765141    0.004289817355
0.600     -0.078192148224    0.060289468502    0.000029017016    0.000168185576    -0.035995317104    0.055627749002    0.000077642644    0.000031683818
            0.000081381171    0.000189979565    -0.081091869177    0.042884792539    0.000078874041    0.000092486906    -0.038511495302    0.042285995500
            -0.035789797779    0.055720397723    0.000084953908    0.000148720952    -0.077329066287    0.064249454075    0.000112823125    -0.000010778761
            0.000075831797    0.000045336381    -0.037965010989    0.042871561748    0.000124491527    -0.000017629960    -0.078923948682    0.046696802779
0.625     -0.000480281077    0.092632983934    -0.000066813005    -0.000672416166    0.014105930906    0.038228165459    -0.000136728674    -0.000873714681
            -0.000002006361    -0.000670584759    -0.015122736904    0.081407441167    -0.000100229506    -0.000862269235    0.006116467513    0.029404033471
            0.015092888403    0.038587597804    -0.000039554459    -0.000878004169    0.002943662354    0.088853888715    -0.000174699764    -0.001026259553
            -0.000115917984    -0.000876164889    0.007232025299    0.029773460300    -0.000180476139    -0.001026549611    -0.011368918773    0.075333541704
0.650     -0.006830944741    0.015374353162    -0.001111069455    -0.000262858643    -0.034834938066    -0.002295335291    -0.001192654843    -0.000323429691
            -0.001044574059    -0.000301896247    -0.009988753863    0.011538203977    -0.001252555945    -0.000324330454    -0.035161192440    -0.009689231632
            -0.033349169292    -0.003098693121    -0.001271221816    -0.000394457294    -0.011443985564    0.012056430986    -0.001333677108    -0.000347877879
            -0.001197473591    -0.000354931775    -0.033955515958    -0.010162471570    -0.001331458075    -0.000333968324    -0.015833295464    0.006698584494
0.675     -0.067203902393    0.061618284597    -0.000491101226    0.000674743235    -0.063476704227    0.073335927200    -0.000432119383    0.000539206311
            -0.000457711927    0.000601272206    -0.069635154440    0.042867782662    -0.000469730497    0.000657046876    -0.067885981893    0.054873240094
            -0.063257220926    0.071426175724    -0.000541048897    0.000671513614    -0.067945844693    0.064961345396    -0.000406293059    0.000571765031
            -0.000469874879    0.000542953663    -0.067285409236    0.053857880959    -0.000388857767    0.000580974079    -0.070441632928    0.045552356681
0.700     -0.000641882724    0.089992358871    0.000090459055    -0.000111306131    0.014053784974    0.083205321983    0.000004070176    -0.000369675854
            0.000075942720    -0.000182497933    -0.015784461801    0.076612236241    0.000067864292    -0.000333830172    -0.000982993635    0.071734183197
            0.012784851131    0.082153922325    0.000079207943    -0.000266377805    0.003189656017    0.086686207472    0.000020836337    -0.000527527252
            0.000006635795    -0.000331910243    -0.000948577222    0.070729683458    0.000044000865    -0.000536885917    -0.011481894002    0.070308758488
0.725     -0.032217831653    0.004105048644    -0.001125441160    -0.000263020065    -0.026189513199    0.016455880754    -0.001281022322    -0.000310462692
            -0.001162666258    -0.000306538282    -0.027701859018    -0.007754040594    -0.001401795601    -0.000348948232    -0.031132598039    0.008769995308
            -0.026833890459    0.016734924895    -0.001339794852    -0.000370562229    -0.036780919490    -0.001142739878    -0.001475313581    -0.000378125425
            -0.001245230013    -0.000321150703    -0.031511435324    0.008001163861    -0.001471716278    -0.000402888524    -0.040006049069    -0.013485680258
0.750     -0.127727136761    0.107157939963    -0.000780174208    0.001095581766    -0.082325507328    0.104376041328    -0.000713478654    0.001009371391
            -0.000820578030    0.001059771342    -0.135462133791    0.074191594582    -0.000846251850    0.001235288706    -0.092803135001    0.081687318377
            -0.082043147816    0.103856205624    -0.000881115917    0.001180680569    -0.129259406396    0.111979225224    -0.000740089015    0.001127642186
            -0.000732704744    0.000978326213    -0.093261345355    0.081028051783    -0.000752737123    0.001117580162    -0.141796423136    0.079164089062
0.775     -0.003578010373    0.203686936358    0.000274907847    0.000612557139    0.025966994794    0.158789433897    0.000234769276    0.000331202986
            0.000207626321    0.000586191509    -0.038587281549    0.184484588886    0.000365796602    0.000524438235    -0.001311256789    0.148374256000
            0.024751327102    0.157556090143    0.000307764709    0.000564870705    0.002696484026    0.201110813649    0.000346500485    0.000255989577
