# GHz S RI R 45
0.000     0.060413656000    0.000000000000    0.000001527649    -0.000000000000    0.003430155600    -0.000000000000    0.000002567430    0.000000000000
            0.000001526298    0.000000000000    0.059678404000    -0.000000000000    0.000001155778    0.000000000000    0.003951811000    -0.000000000000
            0.004373348300    -0.000000000000    0.000001154797    0.000000000000    0.060283787000    -0.000000000000    0.000002067398    0.000000000000
            0.000002562094    -0.000000000000    0.004798105700    0.000000000000    0.000002069565    0.000000000000    0.058951384000    -0.000000000000
0.025     0.132844734156    0.023005455601    0.000013034172    0.000002536890    0.068001919541    0.038296713665    0.000019961035    0.000004542721
            0.000013030052    0.000002551182    0.132624307188    0.022732152805    0.000008227833    0.000000851833    0.067717368462    0.037339316823
            0.067903013195    0.037438352367    0.000008224537    0.000000844723    0.132680198180    0.022525053757    0.000015062604    0.000002925317
            0.000019956952    0.000004536099    0.068420440618    0.036963291150    0.000015072388    0.000002917005    0.133006384238    0.023332810717
0.050     0.121770050589    -0.075481953591    -0.000009183072    -0.000000006406    0.074973000862    -0.033319784005    -0.000013615747    0.000001581845
            -0.000009150642    0.000000030207    0.120921011278    -0.075895378272    -0.000006455172    -0.000000758216    0.073557232909    -0.033391788409
            0.074042297574    -0.033155841144    -0.000006486451    -0.000000767604    0.120973968816    -0.075679862428    -0.000010442108    0.000000293991
            -0.000013642463    0.000001578412    0.073991274335    -0.034160690016    -0.000010450126    0.000000258429    0.121562145856    -0.076671169721
0.075     0.025538330783    -0.031045517770    0.000001252436    0.000055160084    0.016806430459    0.008723271455    0.000001573338    0.000084888745
            0.000001374514    0.000055085384    0.025595008416    -0.030973991257    0.000001675659    0.000034656806    0.017753355235    0.010121400685
            0.017488850701    0.010055258644    0.000001652452    0.000034690037    0.025252323265    -0.030220895088    0.000001650098    0.000063578283
            0.000001563737    0.000084912756    0.017168766619    0.008597061873    0.000001535049    0.000063633221    0.023366083397    -0.031377644290
0.100     0.110746433967    0.042767403483    0.000070649861    0.000025589576    0.089109721275    0.057860541040    0.000106266488    0.000044325239
            0.000070622458    0.000025520266    0.110789497953    0.040634204572    0.000045158041    0.000011049123    0.089960988080    0.055784666731
            0.089886425597    0.057393493554    0.000045141772    0.000011060546    0.111725267818    0.042976214995    0.000081382531    0.000030316141
            0.000106249894    0.000044323980    0.089548431339    0.055066131990    0.000081432002    0.000030390326    0.110846180990    0.041856666435
0.125     0.163879978816    -0.072826942213    0.000023425289    -0.000027819758    0.130291132391    -0.047350977850    0.000037770878    -0.000037902755
            0.000023427589    -0.000027789970    0.160970798981    -0.074805093983    0.000010486780    -0.000020015403    0.127555671295    -0.049885790982
            0.129654869457    -0.048118299874    0.000010448344    -0.000020014727    0.164113686359    -0.073915159683    0.000027629070    -0.000031660153
            0.000037722720    -0.000037891073    0.126822688154    -0.050379656024    0.000027676672    -0.000031705659    0.162177190188    -0.075101394794
0.150     0.043564441324    -0.111548977309    -0.000019101912    0.000051401522    0.024902595119    -0.074182563197    -0.000025944656    0.000081144041
            -0.000018993727    0.000051338894    0.041393250831    -0.110979744999    -0.000014380450    0.000033116245    0.022377323265    -0.073338413946
            0.024029818237    -0.073400198100    -0.000014423238    0.000033275581    0.042549614874    -0.111552491893    -0.000021016863    0.000059673668
            -0.000025957486    0.000081296262    0.021405369927    -0.073339396995    -0.000021107924    0.000059594279    0.040959658708    -0.111739592100
0.175     0.063282087344    -0.017159291958    0.000107506665    0.000069861166    0.056989825667    0.014692847061    0.000160580668    0.000112347821
            0.000107438693    0.000069707359    0.061787568466    -0.019850020002    0.000070172318    0.000038286279    0.055995100510    0.012152573477
            0.057202986251    0.014917225056    0.000070295983    0.000038333108    0.062986404406    -0.017938665764    0.000123985705    0.000081189144
            0.000160687126    0.000112377228    0.055543961129    0.012251583936    0.000123947428    0.000081310591    0.061720657159    -0.020364613228
0.200     0.173555751634    -0.066653686573    0.000090356179    -0.000065516011    0.148736508868    -0.046004047835    0.000144092892    -0.000089437871
            0.000090173718    -0.000065432741    0.167269771529    -0.070265085228    0.000046018150    -0.000048624156    0.143983386334    -0.050163009529
            0.149335003942    -0.046779356016    0.000046011333    -0.000048709603    0.175440300914    -0.067844741694    0.000105994289    -0.000074892729
            0.000144058671    -0.000089521610    0.143645196188    -0.049527558081    0.000106194103    -0.000074898299    0.169291572166    -0.070538900798
0.225     0.081345427499    -0.190217612028    -0.000019968006    -0.000020848046    0.058042500463    -0.148972977219    -0.000024830442    -0.000026438064
            -0.000019919499    -0.000020792039    0.073391341288    -0.188787585155    -0.000019724671    -0.000009956451    0.050242629179    -0.148524315161
            0.057190493737    -0.149339120756    -0.000019794766    -0.000009901602    0.080932616671    -0.192215388370    -0.000022298635    -0.000023746191
            -0.000024891238    -0.000026351534    0.050022463003    -0.147757104808    -0.000022292400    -0.000023873966    0.074010430661    -0.190421977152
0.250     -0.035138031955    -0.104598992940    0.000065226095    0.000103551995    -0.037383503918    -0.066743977398    0.000103903283    0.000157483636
            0.000065151742    0.000103435864    -0.039593068845    -0.103329558192    0.000040092736    0.000067293505    -0.041699387254    -0.064833186273
            -0.037637198522    -0.065570837894    0.000040365111    0.000067458197    -0.035730260884    -0.104148641588    0.000077920832    0.000119114158
            0.000104189787    0.000157604974    -0.041412127084    -0.063769449067    0.000077754349    0.000119102838    -0.039324477240    -0.103346441075
0.275     0.057861491723    -0.062635618624    0.000181812406    -0.000053892910    0.055006159264    -0.037685666360    0.000277115997    -0.000070798689
            0.000181595406    -0.000053791251    0.047355140492    -0.063093430896    0.000107281382    -0.000044108886    0.046457369466    -0.038191713713
            0.055407843145    -0.037638276909    0.000107374404    -0.000044376444    0.061727092313    -0.062309831655    0.000210996158    -0.000063373366
            0.000277169709    -0.000071046170    0.046873798810    -0.037927006962    0.000211112497    -0.000063250079    0.051051959486    -0.063498752550
0.300     0.087328632704    -0.188621272970    0.000005990499    -0.000120102205    0.055016223584    -0.135419570785    0.000020905719    -0.000177406051
            0.000006105130    -0.000119827054    0.074933776180    -0.183719476838    -0.000013031017    -0.000068431214    0.045015052830    -0.131780673572
            0.055291697139    -0.136638589463    -0.000013305449    -0.000068460618    0.087898544846    -0.192537459041    0.000007877707    -0.000139480194
            0.000020620630    -0.000177412413    0.045923389250    -0.131998255067    0.000008017282    -0.000139685833    0.075783908114    -0.187624521850
0.325     -0.080604553615    -0.202530234455    -0.000009463795    0.000043726118    -0.069482727623    -0.123326520594    -0.000007225989    0.000068179198
            -0.000009325882    0.000043678701    -0.090071816359    -0.193928598094    -0.000007355227    0.000035731019    -0.077482914367    -0.116250955113
            -0.070435143355    -0.123529130902    -0.000007370643    0.000035862579    -0.082966494005    -0.204285626154    -0.000009140980    0.000051597276
            -0.000007214666    0.000068331241    -0.076948500898    -0.116538819688    -0.000009248578    0.000051514199    -0.091517499788    -0.195700584878
0.350     -0.109019256045    -0.048365692391    0.000195012119    0.000031318378    -0.069882473561    -0.011504856488    0.000295141392    0.000045359826
            0.000194923839    0.000031387284    -0.118720981671    -0.040512061065    0.000122169626    0.000019862370    -0.077803993608    -0.004781281678
            -0.069756969697    -0.010565030550    0.000122420175    0.000019702909    -0.108513072498    -0.047868542008    0.000228906159    0.000032132695
            0.000295385826    0.000045179618    -0.077071744885    -0.005144027792    0.000228783423    0.000032184519    -0.117135595259    -0.041108937595
0.375     -0.007351118507    -0.070429107535    0.000111916557    -0.000209521041    0.000343745008    -0.049159371203    0.000175689285    -0.000304876854
            0.000112006658    -0.000209280159    -0.018236427820    -0.055946584530    0.000053489448    -0.000131485535    -0.008677112330    -0.037119438560
            0.000834191738    -0.049580671884    0.000053126891    -0.000131716025    -0.006739962358    -0.072651003685    0.000127675832    -0.000244101697
            0.000175322621    -0.000305075226    -0.008429834072    -0.037792342782    0.000127857182    -0.000244118124    -0.016899016023    -0.059667384608
0.400     -0.062409374335    -0.175464229955    -0.000077477755    -0.000072515261    -0.051876060776    -0.089545463441    -0.000107189709    -0.000112355371
            -0.000077123113    -0.000072638703    -0.069311236052    -0.161473655952    -0.000052975605    -0.000025164763    -0.055398499545    -0.078693225722
            -0.052349080541    -0.090861718546    -0.000053207075    -0.000024776054    -0.066200693899    -0.179522792739    -0.000088923162    -0.000082530812
            -0.000107419071    -0.000111954420    -0.055943342428    -0.079945224186    -0.000088990704    -0.000082721145    -0.073709728413    -0.165366906613
0.425     -0.190461086299    -0.073989049909    0.000099119538    0.000049299296    -0.099594234379    -0.011309614688    0.000149008866    0.000073599568
            0.000099103512    0.000049023880    -0.198392661564    -0.058053768091    0.000069833811    0.000034707709    -0.105248163047    -0.001033782269
            -0.100858071887    -0.011139217952    0.000069897462    0.000034859397    -0.193496084714    -0.072742537954    0.000119323878    0.000056041689
            0.000149108474    0.000073752296    -0.106216707557    -0.001443073961    0.000119274826    0.000056115858    -0.200287976810    -0.056680919511
0.450     -0.107540437129    0.059051654636    0.000214234673    -0.000181533723    -0.035572746994    0.037797213998    0.000317768736    -0.000266433738
            0.000214210352    -0.000181488670    -0.111996642110    0.081056201165    0.000129778697    -0.000116723724    -0.040908066229    0.054409097597
            -0.035505853388    0.038803073786    0.000129819382    -0.000116736345    -0.105733420481    0.058422989189    0.000246153737    -0.000217737902
            0.000317821998    -0.000266470573    -0.041520069043    0.054369471834    0.000246097140    -0.000217778510    -0.109406942672    0.078486148697
0.475     -0.034454862280    -0.023977748465    -0.000080779442    -0.000259078338    -0.025266061527    -0.015669205733    -0.000108956924    -0.000383498741
            -0.000080597879    -0.000259105399    -0.029700959483    -0.004118675232    -0.000063404761    -0.000144938378    -0.021242224908    0.000923410474
            -0.025130084538    -0.015963908334    -0.000063612198    -0.000144707404    -0.036280474067    -0.027674997854    -0.000097085159    -0.000296349874
            -0.000109163918    -0.000383271150    -0.021682032849    0.000984818041    -0.000097102408    -0.000296462164    -0.032283644227    -0.008898956629
0.500     -0.120608592695    -0.058905462949    -0.000061069901    0.000009482717    -0.062052872934    -0.006802372386    -0.000094498648    0.000006767183
            -0.000061198308    0.000009037449    -0.122834602134    -0.046154025602    -0.000021533392    0.000021618746    -0.062123691111    0.000305851365
            -0.062827448314    -0.007571471837    -0.000021265727    0.000021989562    -0.125906078718    -0.058080244821    -0.000064876895    0.000011770691
            -0.000094253528    0.000007131908    -0.063322653785    0.000792119074    -0.000064902935    0.000011858707    -0.128083900171    -0.043992179671
0.525     -0.135847569186    0.067084184126    0.000176726452    -0.000119762906    -0.033960241828    0.042323570829    0.000256427019    -0.000166304698
            0.000176230732    -0.000119819342    -0.138794359342    0.091714588816    0.000116841309    -0.000086574897    -0.039609449817    0.057959005625
            -0.035064160887    0.043143117056    0.000117061808    -0.000086473813    -0.134818030815    0.069641550603    0.000206399875    -0.000144678116
            0.000256634311    -0.000166218424    -0.040121942449    0.059266590095    0.000206651237    -0.000144734389    -0.135515689189    0.093158562179
0.550     -0.016103217122    0.081692980887    -0.000022773922    -0.000374755661    0.005392913697    0.010657270263    -0.000029101970    -0.000544894688
            -0.000022840838    -0.000374472041    -0.003776341936    0.105893355922    -0.000033514334    -0.000231911840    0.011006074994    0.031422913600
            0.005926531661    0.012018860165    -0.000033107565    -0.000231921319    -0.014688433270    0.079016617796    -0.000042066065    -0.000433757246
            -0.000028704822    -0.000544895416    0.011446088810    0.032504013686    -0.000042362100    -0.000434003014    -0.002522813232    0.100101724452
0.575     -0.024753783883    -0.003297240403    -0.000254989368    -0.000107232962    -0.033266847933    -0.005396032347    -0.000375412914    -0.000171660733
            -0.000255119811    -0.000107389754    -0.015363904484    0.004958136159    -0.000151688974    -0.000036765082    -0.025350490819    0.002594674665
            -0.032181551770    -0.005039864808    -0.000151219980    -0.000037002203    -0.029082435546    -0.003852242124    -0.000290773043    -0.000116644910
            -0.000374948258    -0.000171914760    -0.024711451281    0.003709718484    -0.000291010204    -0.000116249514    -0.021278765141    0.004289817355
0.600     -0.076440317640    0.024773025207    0.000031890170    -0.000012446760    -0.033614717085    0.029865332450    0.000027291844    -0.000011738680
            0.000031341191    -0.000012370955    -0.081091869177    0.042884792539    0.000045463593    -0.000017956038    -0.038511495302    0.042285995500
            -0.034026719603    0.029108739496    0.000045588027    -0.000018244029    -0.076108118439    0.028242619527    0.000042267429    -0.000023695487
            0.000027352140    -0.000011999503    -0.037965010989    0.042871561748    0.000042744900    -0.000023589719    -0.078923948682    0.046696802779
0.625     -0.025005348905    0.052029275779    -0.000022806814    -0.000350110879    0.003025637432    0.004958318842    -0.000023143936    -0.000494875417
            -0.000022907912    -0.000349294878    -0.015122736904    0.081407441167    -0.000036339684    -0.000235037804    0.006116467513    0.029404033471
            0.002383303811    0.005849276510    -0.000036308272    -0.000235168199    -0.022034160754    0.049764666873    -0.000035539432    -0.000409801926
            -0.000023108627    -0.000494904327    0.007232025299    0.029773460300    -0.000035508346    -0.000410521321    -0.011368918773    0.075333541704
0.650     -0.027188463404    -0.002028091152    -0.000411377009    -0.000181768832    -0.047600474856    -0.025216185753    -0.000589120664    -0.000290452243
            -0.000410707468    -0.000181640259    -0.009988753863    0.011538203977    -0.000272141334    -0.000071218861    -0.035161192440    -0.009689231632
            -0.046304504540    -0.024227799005    -0.000272000730    -0.000071677660    -0.029649638035    -0.004801396903    -0.000472913985    -0.000203350913
            -0.000588850432    -0.000290904107    -0.033955515958    -0.010162471570    -0.000473742740    -0.000203081046    -0.015833295464    0.006698584494
0.675     -0.072098627757    0.028370827879    -0.000168271642    0.000138989776    -0.071745920884    0.041104027672    -0.000285095649    0.000193250615
            -0.000168350586    0.000138757775    -0.069635154440    0.042867782662    -0.000059820161    0.000099902975    -0.067885981893    0.054873240094
            -0.070403649065    0.039918533451    -0.000060159820    0.000099373320    -0.071973929874    0.029960150164    -0.000187698134    0.000150782799
            -0.000285460618    0.000192614708    -0.067285409236    0.053857880959    -0.000187299799    0.000151503803    -0.070441632928    0.045552356681
0.700     -0.024845548981    0.047621307544    0.000010631452    -0.000180500245    -0.008345519297    0.047926032730    0.000004532085    -0.000230758399
            0.000010617805    -0.000179941420    -0.015784461801    0.076612236241    0.000006770957    -0.000148683777    -0.000982993635    0.071734183197
            -0.009232581581    0.046632215805    0.000005850278    -0.000148719276    -0.021378905304    0.043560328899    0.000001280901    -0.000220462699
            0.000003564178    -0.000230715221    -0.000948577222    0.070729683458    0.000002031816    -0.000221021211    -0.011481894002    0.070308758488
0.725     -0.050442495317    -0.027504848070    -0.000455642029    -0.000202217662    -0.049274961189    -0.010956626860    -0.000639802220    -0.000310132020
            -0.000454640342    -0.000202306263    -0.027701859018    -0.007754040594    -0.000324365390    -0.000089595006    -0.031132598039    0.008769995308
            -0.049854963191    -0.010242006357    -0.000324375030    -0.000088879183    -0.057269221943    -0.031678554945    -0.000530102368    -0.000223150086
            -0.000639711327    -0.000309417704    -0.031511435324    0.008001163861    -0.000531042520    -0.000223605753    -0.040006049069    -0.013485680258
0.750     -0.151015651165    0.053868568057    -0.000318269202    0.000286020356    -0.108574236981    0.064559353183    -0.000521705010    0.000389584118
            -0.000318327663    0.000285154285    -0.135462133791    0.074191594582    -0.000139951704    0.000222121044    -0.092803135001    0.081687318377
            -0.107345323589    0.064787551405    -0.000139884076    0.000221884292    -0.154378855593    0.056997451101    -0.000363934497    0.000322633736
            -0.000521603557    0.000389201726    -0.093261345355    0.081028051783    -0.000363973293    0.000323703578    -0.141796423136    0.079164089062
0.775     -0.062311852409    0.160207428595    0.000056883725    0.000097617257    -0.021918152544    0.131065738364    0.000043847814    0.000190779295
            0.000056580162    0.000097664299    -0.038587281549    0.184484588886    0.000073327452    0.000019232535    -0.001311256789    0.148374256000
            -0.021609540711    0.129362601860    0.000072733647    0.000019095464    -0.057589968258    0.158704345028    0.000058257396    0.000101863182
