# GHz S RI R 45
0.000     0.060833039000    0.000000000000    -0.000000062412    -0.000000000000    0.003875309400    -0.000000000000    0.000014747471    0.000000000000
            -0.000000060581    0.000000000000    0.059678404000    -0.000000000000    -0.000000223543    -0.000000000000    0.003951811000    -0.000000000000
            0.004997577700    0.000000000000    -0.000000223997    0.000000000000    0.059220665000    -0.000000000000    -0.000000313352    -0.000000000000
            0.000014746951    0.000000000000    0.004798105700    0.000000000000    -0.000000307540    -0.000000000000    0.058951384000    -0.000000000000
0.025     0.133286446597    0.022302939888    -0.000008130762    -0.000001682055    0.068002532599    0.037469296055    0.000045268261    0.000027379676
            -0.000008154363    -0.000001675289    0.132624307188    0.022732152805    -0.000006410675    -0.000001055790    0.067717368462    0.037339316823
            0.068865882509    0.036960519888    -0.000006410991    -0.000001039236    0.133332347858    0.023171094425    -0.000009104975    -0.000001895718
            0.000045266207    0.000027389378    0.068420440618    0.036963291150    -0.000009126642    -0.000001893896    0.133006384238    0.023332810717
0.050     0.120436244698    -0.075933221308    0.000003297312    0.000004579358    0.073162241021    -0.033361547237    -0.000042916142    0.000047863650
            0.000003332938    0.000004625457    0.120921011278    -0.075895378272    0.000004393972    0.000001952938    0.073557232909    -0.033391788409
            0.073679013480    -0.034293181377    0.000004436454    0.000001979421    0.120961403570    -0.076649033402    0.000003954520    0.000004476489
            -0.000042893050    0.000047889026    0.073991274335    -0.034160690016    0.000003985009    0.000004517336    0.121562145856    -0.076671169721
0.075     0.025750000624    -0.028862099116    0.000004277444    -0.000024099291    0.017799751644    0.012017716781    0.000001993822    0.000266962675
            0.000004337975    -0.000024214983    0.025595008416    -0.030973991257    0.000000047486    -0.000025018356    0.017753355235    0.010121400685
            0.017101570815    0.010159752932    0.000000142228    -0.000025058898    0.023402687364    -0.029483154024    0.000004359639    -0.000028321907
            0.000002080795    0.000266920900    0.017168766619    0.008597061873    0.000004406460    -0.000028433922    0.023366083397    -0.031377644290
0.100     0.113547297812    0.041338739772    -0.000045850151    -0.000021795391    0.092248010515    0.056568913240    0.000216879340    0.000178077649
            -0.000046030514    -0.000021834659    0.110789497953    0.040634204572    -0.000038685785    -0.000010429534    0.089960988080    0.055784666731
            0.091765264954    0.055663729284    -0.000038646411    -0.000010481530    0.113092138646    0.042315056918    -0.000051297883    -0.000024292480
            0.000216877485    0.000178027792    0.089548431339    0.055066131990    -0.000051483416    -0.000024328151    0.110846180990    0.041856666435
0.125     0.161530539618    -0.076228107081    -0.000024744999    0.000036188362    0.128060688038    -0.050889418092    0.000012446745    0.000066733623
            -0.000024728492    0.000036411418    0.160970798981    -0.074805093983    -0.000010901555    0.000022809668    0.127555671295    -0.049885790982
            0.127161669475    -0.051513041152    -0.000010875359    0.000022764488    0.162378031453    -0.076285178506    -0.000026518475    0.000038191741
            0.000012452404    0.000066741464    0.126822688154    -0.050379656024    -0.000026505930    0.000038422762    0.162177190188    -0.075101394794
0.150     0.040269917291    -0.108835114494    0.000020149481    -0.000008956771    0.021534870065    -0.071371632840    -0.000035330394    0.000443305113
            0.000020358126    -0.000009090820    0.041393250831    -0.110979744999    0.000011979001    -0.000021034453    0.022377323265    -0.073338413946
            0.020355208167    -0.071383108528    0.000012020872    -0.000021135989    0.039969882930    -0.109878486535    0.000021236140    -0.000013228153
            -0.000035260843    0.000443239186    0.021405369927    -0.073339396995    0.000021439215    -0.000013364882    0.040959658708    -0.111739592100
0.175     0.065930914364    -0.017196191997    -0.000052413369    -0.000051641603    0.059630063996    0.014322058371    0.000421920321    0.000410306562
            -0.000052697118    -0.000051760443    0.061787568466    -0.019850020002    -0.000056332066    -0.000031743677    0.055995100510    0.012152573477
            0.059079735813    0.014431016387    -0.000056387470    -0.000031912214    0.064890275777    -0.018564254258    -0.000060863274    -0.000057668870
            0.000421875187    0.000410190671    0.055543961129    0.012251583936    -0.000061162957    -0.000057758102    0.061720657159    -0.020364613228
0.200     0.170423705705    -0.073381579456    -0.000088256119    0.000068622998    0.146413978353    -0.052688880807    0.000211695367    0.000066284058
            -0.000088215240    0.000069010182    0.167269771529    -0.070265085228    -0.000044680342    0.000053101357    0.143983386334    -0.050163009529
            0.145974361433    -0.051932977414    -0.000044934027    0.000053140608    0.171290267660    -0.073282128484    -0.000095702311    0.000074318416
            0.000211567818    0.000066340591    0.143645196188    -0.049527558081    -0.000095615803    0.000074715912    0.169291572166    -0.070538900798
0.225     0.071578133841    -0.189480410980    0.000038908739    0.000052207546    0.048732605611    -0.148692844162    -0.000021412664    0.000475335201
            0.000039342585    0.000052045410    0.073391341288    -0.188787585155    0.000023433416    0.000013827529    0.050242629179    -0.148524315161
            0.048464501454    -0.147756541926    0.000023397721    0.000013959396    0.072097982381    -0.190840585429    0.000040565401    0.000052579060
            -0.000021377072    0.000475371728    0.050022463003    -0.147757104808    0.000041006122    0.000052387097    0.074010430661    -0.190421977152
0.250     -0.037135682119    -0.098616912309    -0.000012522446    -0.000063543500    -0.039411871188    -0.060718466428    0.000572208565    0.000654238121
            -0.000012864774    -0.000063859344    -0.039593068845    -0.103329558192    -0.000034064779    -0.000052312046    -0.041699387254    -0.064833186273
            -0.039054926532    -0.059477271279    -0.000034130006    -0.000052372904    -0.037677923177    -0.099631260793    -0.000019183695    -0.000071312515
            0.000572095986    0.000654137441    -0.041412127084    -0.063769449067    -0.000019540539    -0.000071609887    -0.039324477240    -0.103346441075
0.275     0.054340943999    -0.065332639096    -0.000148874774    0.000026112203    0.051962829604    -0.040211444219    0.000548688325    0.000022273872
            -0.000148910769    0.000026572298    0.047355140492    -0.063093430896    -0.000100092174    0.000041223813    0.046457369466    -0.038191713713
            0.052434467493    -0.039903239892    -0.000100366462    0.000041408386    0.055728732854    -0.065454669823    -0.000163723539    0.000032196722
            0.000548540428    0.000022391249    0.046873798810    -0.037927006962    -0.000163705840    0.000032662067    0.051051959486    -0.063498752550
0.300     0.073946025702    -0.188607510748    0.000013994495    0.000153865783    0.044103956639    -0.134776908281    0.000051625728    0.000377416566
            0.000014385282    0.000153613800    0.074933776180    -0.183719476838    0.000017659611    0.000072108019    0.045015052830    -0.131780673572
            0.045134439988    -0.134974530006    0.000018040469    0.000072493741    0.073848159286    -0.190813206953    0.000015763614    0.000162534703
            0.000051787860    0.000377593006    0.045923389250    -0.131998255067    0.000016122026    0.000162207916    0.075783908114    -0.187624521850
0.325     -0.091527390410    -0.190769586890    0.000054090556    -0.000039750921    -0.077542277746    -0.113100217853    0.000627325613    0.000783700986
            0.000053719310    -0.000040183958    -0.090071816359    -0.193928598094    -0.000000231119    -0.000032952152    -0.077482914367    -0.116250955113
            -0.076868329771    -0.113409464446    0.000000064831    -0.000033154405    -0.093168212168    -0.192411963326    0.000052154736    -0.000044560618
            0.000627428474    0.000783613130    -0.076948500898    -0.116538819688    0.000051734994    -0.000044949585    -0.091517499788    -0.195700584878
0.350     -0.110515640350    -0.038170002722    -0.000149249389    -0.000037608316    -0.070628155304    -0.003417756050    0.000942003355    0.000060105284
            -0.000149579565    -0.000037070038    -0.118720981671    -0.040512061065    -0.000118818509    -0.000004148839    -0.077803993608    -0.004781281678
            -0.069775195611    -0.003907599169    -0.000118976307    -0.000004211150    -0.111394624681    -0.038837628678    -0.000165735684    -0.000036963045
            0.000941866597    0.000060197078    -0.077071744885    -0.005144027792    -0.000166006628    -0.000036432927    -0.117135595259    -0.041108937595
0.375     -0.014094955998    -0.063775005558    -0.000113171810    0.000211214723    -0.005919102670    -0.043084787574    0.000145337973    0.000083603625
            -0.000112591325    0.000211152904    -0.018236427820    -0.055946584530    -0.000056116918    0.000138314320    -0.008677112330    -0.037119438560
            -0.005681196863    -0.043840438969    -0.000055856504    0.000138623553    -0.014917410051    -0.064611263371    -0.000118161610    0.000229286505
            0.000145544696    0.000083798272    -0.008429834072    -0.037792342782    -0.000117639941    0.000229162623    -0.016899016023    -0.059667384608
0.400     -0.073455375340    -0.163025070874    0.000137807663    0.000075316922    -0.057021119677    -0.078674903795    0.000610607034    0.000827242049
            0.000137392829    0.000075024073    -0.069311236052    -0.161473655952    0.000049057274    0.000028030898    -0.055398499545    -0.078693225722
            -0.057640427744    -0.079996678181    0.000049395261    0.000027354040    -0.077229718251    -0.164502986822    0.000142745469    0.000076038589
            0.000610845380    0.000826930060    -0.055943342428    -0.079945224186    0.000142292958    0.000075857245    -0.073709728413    -0.165366906613
0.425     -0.193847673331    -0.053509512824    -0.000094947568    -0.000083090402    -0.099658302281    0.001023513432    0.001225697158    0.000156144173
            -0.000095189759    -0.000082629311    -0.198392661564    -0.058053768091    -0.000084742679    -0.000014362880    -0.105248163047    -0.001033782269
            -0.100681280105    0.000562245902    -0.000085212349    -0.000014680150    -0.196470450306    -0.051839781276    -0.000106244406    -0.000083980266
            0.001225546143    0.000155905075    -0.106216707557    -0.001443073961    -0.000106368358    -0.000083504611    -0.200287976810    -0.056680919511
0.450     -0.101613540937    0.074796211171    -0.000211803213    0.000187345810    -0.033582997588    0.047952566281    0.000427392063    -0.000264433475
            -0.000211254164    0.000187592666    -0.111996642110    0.081056201165    -0.000124432092    0.000138805236    -0.040908066229    0.054409097597
            -0.034308819975    0.047858617405    -0.000124618934    0.000138994574    -0.101671713272    0.074944089354    -0.000225542127    0.000206030571
            0.000427315058    -0.000264391348    -0.041520069043    0.054369471834    -0.000225039504    0.000206159562    -0.109406942672    0.078486148697
0.475     -0.032277786823    -0.013654053689    0.000129863364    0.000268128025    -0.023347316164    -0.005232872806    0.000422578309    0.000715247893
            0.000129830067    0.000267519045    -0.029700959483    -0.004118675232    0.000073007104    0.000150278622    -0.021242224908    0.000923410474
            -0.023848877731    -0.005102774159    0.000073271352    0.000150096859    -0.034078297396    -0.013764305664    0.000141601340    0.000282648214
            0.000422745827    0.000715045878    -0.021682032849    0.000984818041    0.000141494651    0.000282154031    -0.032283644227    -0.008898956629
0.500     -0.123891854832    -0.044090664644    0.000106072247    -0.000092076386    -0.060249964858    0.001269789232    0.001463225533    0.000287738988
            0.000105744347    -0.000091681720    -0.122834602134    -0.046154025602    0.000021156043    -0.000021380250    -0.062123691111    0.000305851365
            -0.061462364022    0.001913815392    0.000020557923    -0.000021940177    -0.127307441583    -0.040590944862    0.000102537542    -0.000094791579
            0.001462886020    0.000287186814    -0.063322653785    0.000792119074    0.000102381085    -0.000094404371    -0.128083900171    -0.043992179671
0.525     -0.128549695517    0.087438986816    -0.000202795036    0.000093245107    -0.031900453770    0.051128290283    0.000805722333    -0.000544727730
            -0.000202395007    0.000093442688    -0.138794359342    0.091714588816    -0.000105559759    0.000104987196    -0.039609449817    0.057959005625
            -0.032344638624    0.052512864996    -0.000106012866    0.000105184303    -0.126795222680    0.090822362605    -0.000215147016    0.000109911986
            0.000805229565    -0.000544812262    -0.040121942449    0.059266590095    -0.000214768808    0.000109952043    -0.135515689189    0.093158562179
0.550     -0.002116101147    0.090593093102    0.000061778730    0.000372824442    0.009945402757    0.019551415403    0.000284799504    0.000340246880
            0.000062028742    0.000372395862    -0.003776341936    0.105893355922    0.000054144856    0.000233285589    0.011006074994    0.031422913600
            0.010429350132    0.020673197776    0.000054052184    0.000233496575    -0.001187244240    0.089672882951    0.000076784883    0.000405661692
            0.000284556335    0.000340424286    0.011446088810    0.032504013686    0.000076894884    0.000405281655    -0.002522813232    0.100101724452
0.575     -0.023435991427    0.000942835302    0.000295131176    0.000025518972    -0.030419713772    0.001042994819    0.001455997558    0.000460652262
            0.000294664365    0.000025432396    -0.015363904484    0.004958136159    0.000149427392    0.000032698457    -0.025350490819    0.002594674665
            -0.029649863495    0.002279485806    0.000149088195    0.000032664780    -0.025059302920    0.002787611746    0.000311616623    0.000023022002
            0.001455596133    0.000460637751    -0.024711451281    0.003709718484    0.000311275401    0.000022998861    -0.021278765141    0.004289817355
0.600     -0.076707202959    0.041452265532    -0.000104765329    -0.000036551352    -0.033977724354    0.038865337443    0.001215656830    -0.000741745061
            -0.000104502973    -0.000036099609    -0.081091869177    0.042884792539    -0.000045643710    0.000043745443    -0.038511495302    0.042285995500
            -0.033273693390    0.039411086401    -0.000046108654    0.000044116476    -0.073795509180    0.044786206077    -0.000112817852    -0.000027719533
            0.001215218516    -0.000741486380    -0.037965010989    0.042871561748    -0.000112547737    -0.000027421531    -0.078923948682    0.046696802779
0.625     -0.014373962336    0.065180469057    0.000014556761    0.000380857935    0.004091587141    0.015934933906    0.000264226274    -0.000172430104
            0.000014961225    0.000380397818    -0.015122736904    0.081407441167    0.000060904775    0.000240192207    0.006116467513    0.029404033471
            0.005277475721    0.016155889821    0.000061065834    0.000240859583    -0.010950980545    0.063144919522    0.000025976675    0.000412676183
            0.000264209992    -0.000171818354    0.007232025299    0.029773460300    0.000026215080    0.000412215540    -0.011368918773    0.075333541704
0.650     -0.024988458799    0.003817621140    0.000439591336    0.000114270598    -0.047286211719    -0.013026186751    0.001244340257    0.000420479996
            0.000438982384    0.000113898748    -0.009988753863    0.011538203977    0.000259333117    0.000056140738    -0.035161192440    -0.009689231632
            -0.046110329842    -0.013622723562    0.000259900453    0.000056210183    -0.026009398794    0.002818722764    0.000473126566    0.000115159832
            0.001244718907    0.000420715130    -0.033955515958    -0.010162471570    0.000472519843    0.000114950011    -0.015833295464    0.006698584494
0.675     -0.072647191861    0.046473288884    0.000051835837    -0.000196220858    -0.067837790371    0.057563532029    0.001489092651    -0.000806299103
            0.000051763509    -0.000195576767    -0.069635154440    0.042867782662    0.000038033397    -0.000058044009    -0.067885981893    0.054873240094
            -0.067292605670    0.056438506960    0.000037954420    -0.000058087831    -0.069959994598    0.047999842505    0.000054427161    -0.000201323609
            0.001489172906    -0.000806173132    -0.067285409236    0.053857880959    0.000054451964    -0.000200730225    -0.070441632928    0.045552356681
0.700     -0.014377442698    0.064452116517    -0.000070260446    0.000254576450    -0.000308731262    0.060609164697    0.000317377442    -0.000736953788
            -0.000069782115    0.000254182405    -0.015784461801    0.076612236241    0.000028853885    0.000171200500    -0.000982993635    0.071734183197
            -0.000418477347    0.059515346773    0.000029402021    0.000171660684    -0.010401586999    0.059757583010    -0.000061690941    0.000278631147
            0.000317875691    -0.000736613251    -0.000948577222    0.070729683458    -0.000061340125    0.000278229256    -0.011481894002    0.070308758488
0.725     -0.047994871025    -0.016957384562    0.000478166878    0.000184592568    -0.046821237669    0.003442461182    0.000889068685    0.000195386050
            0.000477415938    0.000184375835    -0.027701859018    -0.007754040594    0.000311160169    0.000065772954    -0.031132598039    0.008769995308
            -0.047377439383    0.002726456296    0.000311821702    0.000064942401    -0.055616463472    -0.017994891620    0.000522705534    0.000182509892
            0.000889643441    0.000194891642    -0.031511435324    0.008001163861    0.000522010963    0.000182493985    -0.040006049069    -0.013485680258
0.750     -0.145072688296    0.085809795487    0.000179475359    -0.000326728668    -0.097492378580    0.089840460878    0.001464761044    -0.000792091801
            0.000179437179    -0.000325915281    -0.135462133791    0.074191594582    0.000097020102    -0.000159708455    -0.092803135001    0.081687318377
            -0.098040480655    0.089259093639    0.000096472390    -0.000160195861    -0.145393869133    0.089095034240    0.000188727603    -0.000348191704
            0.001464614263    -0.000792490940    -0.093261345355    0.081028051783    0.000188872259    -0.000347438052    -0.141796423136    0.079164089062
0.775     -0.032486634417    0.183120231110    -0.000136526891    0.000041910663    0.002898680617    0.144185675689    0.000429175307    -0.001173128934
            -0.000135802918    0.000041697575    -0.038587281549    0.184484588886    -0.000017638662    0.000033085698    -0.001311256789    0.148374256000
            0.001965778095    0.143658801111    -0.000017604351    0.000033466235    -0.026885278668    0.180076040631    -0.000135367134    0.000044471083
