!$
! Info: Touchstone file created by Circ.  Input file=Intel_C2M_200G_8p5in_202208016_staggered.circ
!$
# Hz S RI R 50
0	0.02810734	4.161129e-24	8.418872e-05	1.237998e-22	0.0001268437	3.150823e-22	8.418191e-05	1.235968e-22
	8.418872e-05	1.237998e-22	0.02812015	4.536595e-24	8.419308e-05	1.239084e-22	0.0001264444	3.123779e-22
	0.0001269003	3.152068e-22	8.419307e-05	1.239099e-22	0.02810229	4.356947e-24	8.418422e-05	1.236921e-22
	8.41819e-05	1.235983e-22	0.0001265009	3.125018e-22	8.418422e-05	1.236921e-22	0.02811814	4.293206e-24
1e+07	0.03412769	0.009295987	9.370362e-06	3.584199e-05	0.00232274	0.006942211	1.378291e-05	2.749691e-05
	9.370365e-06	3.584201e-05	0.03443952	0.009504166	9.858382e-06	6.186455e-05	0.002328553	0.006997696
	0.00232274	0.006942211	9.858382e-06	6.186455e-05	0.03441614	0.009553162	9.487679e-06	3.723056e-05
	1.378291e-05	2.749691e-05	0.002328553	0.006997696	9.487679e-06	3.723056e-05	0.03416066	0.009329101
2e+07	0.04106713	0.01314932	1.649458e-05	2.998409e-05	0.005229367	0.01262752	8.164915e-06	2.076878e-05
	1.649459e-05	2.998409e-05	0.0415557	0.01335787	5.765959e-05	7.009066e-05	0.005241995	0.01273616
	0.005229375	0.01262751	5.765959e-05	7.009066e-05	0.04153833	0.01345764	1.805867e-05	3.211459e-05
	8.164915e-06	2.076878e-05	0.005242002	0.01273615	1.805867e-05	3.211459e-05	0.04111725	0.01320698
3e+07	0.04693742	0.01395078	2.829664e-05	2.413199e-05	0.009498396	0.01746387	1.121356e-05	1.804033e-05
	2.829665e-05	2.413199e-05	0.04755379	0.01409408	9.357119e-05	6.033836e-05	0.009520805	0.01762157
	0.009498378	0.01746391	9.357119e-05	6.033836e-05	0.04754354	0.01425175	3.095659e-05	2.621467e-05
	1.121356e-05	1.804033e-05	0.009520787	0.01762161	3.095659e-05	2.621467e-05	0.04700714	0.01403489
4e+07	0.05183752	0.01321851	3.664695e-05	1.634421e-05	0.01490143	0.0209776	1.642913e-05	1.332624e-05
	3.664695e-05	1.634421e-05	0.05254551	0.01326478	0.0001198397	4.118509e-05	0.01493465	0.0211792
	0.01490144	0.02097762	0.0001198397	4.118509e-05	0.05255474	0.01347431	4.018741e-05	1.808209e-05
	1.642913e-05	1.332624e-05	0.01493466	0.02117922	4.018741e-05	1.808209e-05	0.05193741	0.01331878
5e+07	0.05591752	0.01156419	4.186016e-05	7.292037e-06	0.02106675	0.02297219	1.977664e-05	7.965328e-06
	4.186016e-05	7.292036e-06	0.05668565	0.01149455	0.0001374493	1.645702e-05	0.02110984	0.02321211
	0.02106676	0.0229722	0.0001374493	1.645702e-05	0.05672012	0.01174888	4.610348e-05	8.489023e-06
	1.977664e-05	7.965327e-06	0.02110984	0.02321212	4.610348e-05	8.489022e-06	0.05605151	0.01167127
6e+07	0.05925662	0.009311961	4.413893e-05	-2.312403e-06	0.0276051	0.02330585	2.132622e-05	2.354262e-06
	4.413892e-05	-2.312401e-06	0.06005595	0.00911554	0.0001468874	-1.138515e-05	0.02765498	0.02357868
	0.02760511	0.02330583	0.0001468874	-1.138515e-05	0.06011904	0.009406627	4.892068e-05	-1.80458e-06
	2.132621e-05	2.354264e-06	0.02765499	0.02357866	4.892067e-05	-1.804579e-06	0.05942705	0.009416734
7e+07	0.06193636	0.006709695	4.368825e-05	-1.183901e-05	0.03410007	0.02193235	2.121585e-05	-3.127225e-06
	4.368825e-05	-1.183901e-05	0.06273971	0.006381135	0.0001484487	-4.050105e-05	0.03415162	0.02223355
	0.03410007	0.02193234	0.0001484487	-4.050105e-05	0.06283209	0.006699855	4.884853e-05	-1.21407e-05
	2.121585e-05	-3.127224e-06	0.03415161	0.02223355	4.884853e-05	-1.21407e-05	0.06214406	0.006802312
8e+07	0.06407432	0.003936031	4.075581e-05	-2.076308e-05	0.04013625	0.01890402	1.96132e-05	-8.148616e-06
	4.075581e-05	-2.076308e-05	0.06485557	0.0034738	0.0001424434	-6.938491e-05	0.04018251	0.01923063
	0.04013625	0.01890403	0.0001424434	-6.938491e-05	0.06497504	0.00381107	4.610417e-05	-2.197962e-05
	1.96132e-05	-8.148617e-06	0.04018251	0.01923063	4.610417e-05	-2.197962e-05	0.06431862	0.00400625
9e+07	0.06581195	0.001098106	3.55298e-05	-2.869945e-05	0.04532162	0.0143677	1.667199e-05	-1.244857e-05
	3.55298e-05	-2.869945e-05	0.06654443	0.0005026735	0.0001289701	-9.693024e-05	0.04535434	0.01471883
	0.04532163	0.01436771	0.0001289701	-9.693024e-05	0.06668537	0.0008506056	4.085098e-05	-3.092708e-05
	1.667199e-05	-1.244857e-05	0.04535435	0.01471883	4.085098e-05	-3.092708e-05	0.06609	0.001135677
1e+08	0.06735613	-0.001733165	2.738436e-05	-3.566966e-05	0.04930857	0.008552424	1.211808e-05	-1.593243e-05
	2.738436e-05	-3.566966e-05	0.0680008	-0.002467504	0.0001053533	-0.0001235705	0.04931873	0.00892982
	0.04930857	0.008552423	0.0001053533	-0.0001235705	0.06815471	-0.002114167	3.233903e-05	-3.907227e-05
	1.211808e-05	-1.593243e-05	0.04931872	0.008929819	3.233903e-05	-3.907227e-05	0.06766383	-0.001737912
1.1e+08	0.06872517	-0.005004033	1.743748e-05	-3.643847e-05	0.05178789	0.001761019	7.003255e-06	-1.591532e-05
	1.743748e-05	-3.643847e-05	0.0692333	-0.005804165	7.278567e-05	-0.000131012	0.05176644	0.002169646
	0.05178789	0.001761018	7.278567e-05	-0.000131012	0.06940645	-0.005505602	2.148548e-05	-4.051314e-05
	7.003255e-06	-1.591532e-05	0.05176644	0.002169644	2.148549e-05	-4.051314e-05	0.06906615	-0.005120443
1.2e+08	0.0696744	-0.00838823	1.001057e-05	-3.524336e-05	0.05255817	-0.005573501	3.400775e-06	-1.488779e-05
	1.001057e-05	-3.524336e-05	0.07007212	-0.009221763	5.006654e-05	-0.0001299564	0.05249733	-0.005126062
	0.05255817	-0.005573502	5.006654e-05	-0.0001299564	0.07020914	-0.008935543	1.327851e-05	-3.97128e-05
	3.400776e-06	-1.488779e-05	0.05249733	-0.005126063	1.327851e-05	-3.97128e-05	0.06998994	-0.008579486
1.3e+08	0.07034771	-0.01188056	5.679298e-06	-3.267544e-05	0.05152744	-0.0130521	4.750776e-07	-1.356817e-05
	5.679299e-06	-3.267544e-05	0.07064813	-0.01273165	4.201357e-05	-0.0001220234	0.05142116	-0.01255572
	0.05152744	-0.0130521	4.201357e-05	-0.0001220234	0.07074638	-0.01242486	8.808632e-06	-3.714384e-05
	4.750778e-07	-1.356817e-05	0.05142115	-0.01255572	8.808632e-06	-3.714384e-05	0.07063133	-0.01212062
1.4e+08	0.0707686	-0.01552835	3.989503e-06	-2.913968e-05	0.04869157	-0.0202531	-1.916004e-06	-1.202459e-05
	3.989503e-06	-2.913968e-05	0.07098193	-0.01638665	3.382209e-05	-0.0001145618	0.04853629	-0.01969547
	0.04869157	-0.0202531	3.382209e-05	-0.0001145618	0.07105014	-0.01604703	6.795778e-06	-3.364491e-05
	-1.916004e-06	-1.202459e-05	0.04853629	-0.01969547	6.795779e-06	-3.364491e-05	0.07102291	-0.0158124
1.5e+08	0.07091193	-0.01938116	2.582895e-06	-2.602825e-05	0.04414063	-0.02675964	-2.44185e-06	-9.943611e-06
	2.582895e-06	-2.602825e-05	0.07104645	-0.02023973	2.60183e-05	-0.0001070366	0.04393598	-0.02612699
	0.04414063	-0.02675964	2.60183e-05	-0.0001070366	0.07108967	-0.01986424	5.045435e-06	-3.033313e-05
	-2.44185e-06	-9.943611e-06	0.04393597	-0.02612699	5.045435e-06	-3.033313e-05	0.07113294	-0.01971329
1.6e+08	0.07071464	-0.02347567	1.49036e-06	-2.301766e-05	0.03805727	-0.03218212	-2.460529e-06	-8.021106e-06
	1.49036e-06	-2.301766e-05	0.0707768	-0.02432976	1.882945e-05	-9.934043e-05	0.03780648	-0.03145994
	0.03805726	-0.03218212	1.882945e-05	-9.934043e-05	0.07079532	-0.02391704	3.602861e-06	-2.727662e-05
	-2.460529e-06	-8.021106e-06	0.03780648	-0.03145994	3.602862e-06	-2.727662e-05	0.07089048	-0.02386038
1.7e+08	0.07008377	-0.02782449	7.505092e-07	-2.011736e-05	0.03070893	-0.03617861	-2.319144e-06	-6.421086e-06
	7.505093e-07	-2.011736e-05	0.0700781	-0.02867014	1.24117e-05	-9.145461e-05	0.03041919	-0.03535264
	0.03070893	-0.03617861	1.24117e-05	-9.145461e-05	0.07007011	-0.02821661	2.499058e-06	-2.430779e-05
	-2.319143e-06	-6.421086e-06	0.03041919	-0.03535264	2.499059e-06	-2.430779e-05	0.07019728	-0.02826135
1.8e+08	0.06890596	-0.03240551	3.680738e-07	-1.737101e-05	0.0224359	-0.03847314	-1.990582e-06	-4.957135e-06
	3.680739e-07	-1.737101e-05	0.06883557	-0.03323965	6.872156e-06	-8.341759e-05	0.02211835	-0.03753037
	0.0224359	-0.03847314	6.872156e-06	-8.341759e-05	0.06879964	-0.03273863	1.748072e-06	-2.146149e-05
	-1.990582e-06	-4.957135e-06	0.02211835	-0.03753037	1.748072e-06	-2.146149e-05	0.06893782	-0.03288741
1.9e+08	0.06705908	-0.03715566	3.298593e-07	-1.48206e-05	0.0136355	-0.0388709	-1.486018e-06	-3.652421e-06
	3.298593e-07	-1.48206e-05	0.06692565	-0.03797493	2.281969e-06	-7.530206e-05	0.01330501	-0.03780065
	0.0136355	-0.0388709	2.281969e-06	-7.530206e-05	0.06686303	-0.03741731	1.344576e-06	-1.877602e-05
	-1.486018e-06	-3.652421e-06	0.01330501	-0.03780065	1.344576e-06	-1.877602e-05	0.06699094	-0.03766824
2e+08	0.06442602	-0.04196632	6.097734e-07	-1.250977e-05	0.004742733	-0.03726916	-8.243196e-07	-2.530705e-06
	6.097734e-07	-1.250977e-05	0.06423024	-0.04276637	-1.318331e-06	-6.720438e-05	0.004417435	-0.0360641
	0.004742733	-0.03726915	-1.318331e-06	-6.720438e-05	0.06414584	-0.0421431	1.270047e-06	-1.629262e-05
	-8.243196e-07	-2.530705e-06	0.004417435	-0.0360641	1.270047e-06	-1.629262e-05	0.06424285	-0.04248951
2.1e+08	0.06091009	-0.04668426	1.168085e-06	-1.047712e-05	-0.003790478	-0.03366397	-3.155029e-08	-1.613935e-06
	1.168085e-06	-1.047712e-05	0.06065218	-0.04745935	-3.916676e-06	-5.923503e-05	-0.004090027	-0.03232106
	-0.003790478	-0.03366396	-3.916675e-06	-5.923503e-05	0.06055444	-0.04676218	1.492743e-06	-1.40498e-05
	-3.155028e-08	-1.613935e-06	-0.004090027	-0.03232106	1.492743e-06	-1.40498e-05	0.06060156	-0.0471926
2.2e+08	0.05644822	-0.05111622	1.956587e-06	-8.756136e-06	-0.01151748	-0.02815225	8.598929e-07	-9.207162e-07
	1.956587e-06	-8.756136e-06	0.05612874	-0.05185885	-5.527054e-06	-5.151258e-05	-0.0117693	-0.02667343
	-0.01151748	-0.02815225	-5.527054e-06	-5.151258e-05	0.05602951	-0.05108248	1.972059e-06	-1.20826e-05
	8.59893e-07	-9.207162e-07	-0.0117693	-0.02667343	1.972059e-06	-1.20826e-05	0.05601061	-0.05158087
2.3e+08	0.05102471	-0.05503817	2.918862e-06	-7.369199e-06	-0.01801935	-0.02092908	1.812157e-06	-4.647033e-07
	2.918862e-06	-7.369199e-06	0.05064536	-0.05573915	-6.194158e-06	-4.415125e-05	-0.01820129	-0.01932174
	-0.01801935	-0.02092908	-6.194158e-06	-4.415125e-05	0.05055805	-0.05488243	2.659523e-06	-1.042024e-05
	1.812157e-06	-4.647033e-07	-0.01820129	-0.01932174	2.659523e-06	-1.042024e-05	0.05046095	-0.05542866
2.4e+08	0.0446812	-0.05820792	3.995097e-06	-6.33524e-06	-0.02292549	-0.01228001	2.783065e-06	-2.527221e-07
	3.995097e-06	-6.33524e-06	0.04424569	-0.05885662	-5.973056e-06	-3.727276e-05	-0.02301658	-0.01055711
	-0.02292549	-0.01228001	-5.973056e-06	-3.727276e-05	0.04418418	-0.05792225	3.499524e-06	-9.083121e-06
	2.783065e-06	-2.527221e-07	-0.02301658	-0.01055711	3.499524e-06	-9.083121e-06	0.04400185	-0.05849309
2.5e+08	0.03752342	-0.06038033	5.120168e-06	-5.660382e-06	-0.02593313	-0.0025688	3.727608e-06	-2.839057e-07
	5.120168e-06	-5.660382e-06	0.03703818	-0.06096525	-4.951011e-06	-3.098203e-05	-0.02591502	-0.000748709
	-0.02593313	-0.0025688	-4.951011e-06	-3.098203e-05	0.03701503	-0.05996067	4.432688e-06	-8.080153e-06
	3.727608e-06	-2.839057e-07	-0.02591502	-0.000748709	4.432688e-06	-8.080153e-06	0.03674639	-0.06053094
2.6e+08	0.02972323	-0.06132509	6.227368e-06	-5.338058e-06	-0.02682392	0.007778354	4.599873e-06	-5.483116e-07
	6.227368e-06	-5.338058e-06	0.02919796	-0.06183469	-3.230911e-06	-2.537972e-05	-0.02668223	0.009672486
	-0.02682392	0.007778354	-3.230911e-06	-2.537972e-05	0.02922341	-0.06077062	5.397395e-06	-7.414251e-06
	4.599873e-06	-5.483116e-07	-0.02668223	0.009672486	5.397395e-06	-7.414251e-06	0.02887399	-0.06131472
2.7e+08	0.0215164	-0.06084425	7.251092e-06	-5.349719e-06	-0.02547546	0.01829247	5.355031e-06	-1.026595e-06
	7.251092e-06	-5.349719e-06	0.02096431	-0.06126799	-9.371908e-07	-2.054621e-05	-0.02520101	0.02023356
	-0.02547546	0.01829247	-9.371907e-07	-2.054621e-05	0.02104511	-0.06015802	6.330825e-06	-7.075557e-06
	5.355031e-06	-1.026595e-06	-0.02520101	0.02023356	6.330825e-06	-7.075557e-06	0.02062722	-0.06065161
2.8e+08	0.01319598	-0.05878983	8.129296e-06	-5.664586e-06	-0.0218702	0.02848362	5.951741e-06	-1.689875e-06
	8.129296e-06	-5.664586e-06	0.01263376	-0.05911925	1.790742e-06	-1.653936e-05	-0.02146	0.030442
	-0.0218702	0.02848362	1.790742e-06	-1.653936e-05	0.01277228	-0.05797887	7.172042e-06	-7.042061e-06
	5.951741e-06	-1.689875e-06	-0.02146	0.030442	7.172042e-06	-7.042061e-06	0.01230475	-0.0584006
2.9e+08	0.005099753	-0.05507939	8.80618e-06	-6.239992e-06	-0.01609828	0.03786433	6.354592e-06	-2.500326e-06
	8.80618e-06	-6.239992e-06	0.004547198	-0.05530929	4.803701e-06	-1.339228e-05	-0.01555621	0.03980909
	-0.01609828	0.03786433	4.803701e-06	-1.339228e-05	0.004741555	-0.05415387	7.864589e-06	-7.28017e-06
	6.354592e-06	-2.500326e-06	-0.01555621	0.03980909	7.864589e-06	-7.28017e-06	0.004248986	-0.05448715
3e+08	-0.002405056	-0.04970849	9.234699e-06	-7.022479e-06	-0.008354925	0.04597303	6.536333e-06	-3.412476e-06
	9.234699e-06	-7.022479e-06	-0.002925868	-0.04983787	7.947716e-06	-1.111109e-05	-0.007692059	0.04787368
	-0.008354925	0.04597303	7.947716e-06	-1.111109e-05	-0.002682088	-0.04868179	8.358983e-06	-7.745348e-06
	6.536333e-06	-3.412477e-06	-0.007692058	0.04787368	8.358983e-06	-7.745348e-06	-0.00317043	-0.04891625
3.1e+08	-0.008941124	-0.04275901	9.379204e-06	-7.949545e-06	0.001066423	0.05239729	6.479951e-06	-4.375165e-06
	9.379204e-06	-7.949545e-06	-0.009406825	-0.04279185	1.106986e-05	-9.674167e-06	0.001831918	0.05422547
	0.001066423	0.05239729	1.106986e-05	-9.674167e-06	-0.009123433	-0.04164714	8.615378e-06	-8.383601e-06
	6.479951e-06	-4.375165e-06	0.001831918	0.05422547	8.615378e-06	-8.383601e-06	-0.009575244	-0.04177983
3.2e+08	-0.01414155	-0.0344027	9.217518e-06	-8.952058e-06	0.01178684	0.05679439	6.180035e-06	-5.334052e-06
	9.217518e-06	-8.952058e-06	-0.01452874	-0.0343484	1.402365e-05	-9.032005e-06	0.01263015	0.05852547
	0.01178684	0.05679439	1.402365e-05	-9.032005e-06	-0.01421918	-0.03322462	8.605651e-06	-9.133345e-06
	6.180035e-06	-5.334052e-06	0.01263015	0.05852547	8.605651e-06	-9.133345e-06	-0.01460095	-0.03326083
3.3e+08	-0.01767261	-0.02489966	8.742457e-06	-9.957166e-06	0.02335879	0.05890857	5.643444e-06	-6.234505e-06
	8.742457e-06	-9.957166e-06	-0.0179592	-0.02477328	1.667496e-05	-9.109009e-06	0.02424926	0.06052317
	0.02335879	0.05890857	1.667496e-05	-9.109009e-06	-0.01763874	-0.02367594	8.315153e-06	-9.928114e-06
	5.643444e-06	-6.234505e-06	0.02424926	0.06052317	8.315153e-06	-9.928114e-06	-0.0179178	-0.02362947
3.4e+08	-0.01925476	-0.01459155	7.962802e-06	-1.089184e-05	0.03528661	0.0585852	4.889278e-06	-7.024726e-06
	7.962802e-06	-1.089184e-05	-0.01942142	-0.01441345	1.890761e-05	-9.806253e-06	0.03618893	0.06007055
	0.03528661	0.0585852	1.890761e-05	-9.806253e-06	-0.01910705	-0.01334373	7.744035e-06	-1.069971e-05
	4.889278e-06	-7.024726e-06	0.03618893	0.06007055	7.744035e-06	-1.069971e-05	-0.01925362	-0.01323672
3.5e+08	-0.01868291	-0.003888529	6.903113e-06	-1.168652e-05	0.04704938	0.05577851	3.947801e-06	-7.658613e-06
	6.903113e-06	-1.168652e-05	-0.01871427	-0.003683889	2.062748e-05	-1.100553e-05	0.04792499	0.05712945
	0.04704938	0.05577851	2.062748e-05	-1.100553e-05	-0.01842255	-0.002638565	6.907298e-06	-1.138158e-05
	3.947801e-06	-7.658613e-06	0.04792499	0.05712945	6.907298e-06	-1.138158e-05	-0.01841177	-0.002500877
3.6e+08	-0.01584247	0.006747404	5.602809e-06	-1.227882e-05	0.05812533	0.05055547	2.858749e-06	-8.098418e-06
	5.602809e-06	-1.227882e-05	-0.01572831	0.006949495	2.176645e-05	-1.257436e-05	0.05893416	0.05177524
	0.05812533	0.05055547	2.176645e-05	-1.257436e-05	-0.01547545	0.007977992	5.834367e-06	-1.191232e-05
	2.858749e-06	-8.098419e-06	0.05893416	0.05177524	5.834367e-06	-1.191232e-05	-0.01528918	0.008109989
3.7e+08	-0.01072272	0.01682381	4.11408e-06	-1.26168e-05	0.06801687	0.04309301	1.668839e-06	-8.316683e-06
	4.11408e-06	-1.26168e-05	-0.01045887	0.01699138	2.228461e-05	-1.437164e-05	0.06871906	0.04419359
	0.06801687	0.04309301	2.228461e-05	-1.437164e-05	-0.01025903	0.01801499	4.567383e-06	-1.223893e-05
	1.668839e-06	-8.316683e-06	0.06871906	0.04419359	4.567383e-06	-1.223893e-05	-0.009887438	0.01809985
3.8e+08	-0.003423243	0.02584145	2.499148e-06	-1.266165e-05	0.07627292	0.03367002	4.290139e-07	-8.297405e-06
	2.499148e-06	-1.266165e-05	-0.003012302	0.02594091	2.217104e-05	-1.625369e-05	0.07683079	0.03467219
	0.07627292	0.03367002	2.217104e-05	-1.625369e-05	-0.002876396	0.02697523	3.158906e-06	-1.231947e-05
	4.290139e-07	-8.297405e-06	0.07683079	0.03467219	3.158906e-06	-1.231947e-05	-0.002319187	0.02696829
3.9e+08	0.005843254	0.03331902	8.268584e-07	-1.23897e-05	0.0825105	0.02265559	-8.084964e-07	-8.036503e-06
	8.268584e-07	-1.23897e-05	0.006391495	0.03331655	2.144384e-05	-1.808007e-05	0.08289046	0.02358849
	0.0825105	0.02265559	2.144384e-05	-1.808007e-05	0.006455943	0.034381	1.669108e-06	-1.212514e-05
	-8.084964e-07	-8.036503e-06	0.08289046	0.02358849	1.669108e-06	-1.212514e-05	0.007188668	0.03423652
4e+08	0.01675545	0.03882047	-8.311169e-07	-1.179327e-05	0.08643169	0.01049097	-1.993094e-06	-7.541304e-06
	-8.311169e-07	-1.179327e-05	0.01742377	0.03868349	2.014814e-05	-1.971957e-05	0.08660608	0.01139129
	0.08643169	0.01049097	2.014814e-05	-1.971957e-05	0.01741489	0.03979965	1.621657e-07	-1.164146e-05
	-1.993094e-06	-7.541304e-06	0.08660608	0.01139129	1.621657e-07	-1.164146e-05	0.01830223	0.03947304
4.1e+08	0.02889381	0.0419794	-2.404073e-06	-1.088071e-05	0.08783667	-0.002329533	-3.078263e-06	-6.829476e-06
	-2.404073e-06	-1.088071e-05	0.02965758	0.0416781	1.835349e-05	-2.105524e-05	0.08778545	-0.001418824
	0.08783667	-0.002329533	1.835349e-05	-2.105524e-05	0.02957893	0.04286848	-1.296926e-06	-1.086852e-05
	-3.078263e-06	-6.829476e-06	0.08778545	-0.001418824	-1.296926e-06	-1.086852e-05	0.03058916	0.04231883
4.2e+08	0.04175464	0.04251994	-3.825912e-06	-9.675234e-06	0.08663257	-0.01528112	-4.02358e-06	-5.927333e-06
	-3.825912e-06	-9.675234e-06	0.04258219	0.04202889	1.615027e-05	-2.198844e-05	0.08634474	-0.01431236
	0.08663257	-0.01528112	1.615027e-05	-2.198844e-05	0.04244356	0.04331601	-2.645797e-06	-9.820328e-06
	-4.02358e-06	-5.927333e-06	0.08634474	-0.01431236	-2.645797e-06	-9.820328e-06	0.04353468	0.04250853
4.3e+08	0.05477234	0.04027751	-5.03814e-06	-8.213104e-06	0.08283583	-0.02783171	-4.796115e-06	-4.867799e-06
	-5.03814e-06	-8.213104e-06	0.05562549	0.03957732	1.364499e-05	-2.244258e-05	0.08231058	-0.02675447
	0.08283583	-0.02783171	1.364499e-05	-2.244258e-05	0.05544349	0.04098169	-3.827587e-06	-8.523465e-06
	-4.796115e-06	-4.867799e-06	0.08231058	-0.02675447	-3.827587e-06	-8.523465e-06	0.05656432	0.03989025
4.4e+08	0.06734347	0.03521172	-5.992349e-06	-6.541195e-06	0.07657114	-0.03946411	-5.371148e-06	-3.68835e-06
	-5.992349e-06	-6.541195e-06	0.06817863	0.03429063	1.095565e-05	-2.236523e-05	0.07581839	-0.03822753
	0.07657114	-0.03946411	1.095565e-05	-2.236523e-05	0.0679757	0.03582893	-4.793239e-06	-7.015111e-06
	-5.371148e-06	-3.68835e-06	0.07581839	-0.03822753	-4.793239e-06	-7.015111e-06	0.06906756	0.03443842
4.5e+08	0.07885337	0.02741537	-6.651676e-06	-4.714028e-06	0.06806502	-0.04969833	-5.73232e-06	-2.428905e-06
	-6.651676e-06	-4.714028e-06	0.07962287	0.02627086	8.206832e-06	-2.172934e-05	0.06710564	-0.0482534
	0.06806502	-0.04969833	8.206832e-06	-2.172934e-05	0.07942707	0.02795406	-5.503129e-06	-5.340673e-06
	-5.73232e-06	-2.428905e-06	0.06710564	-0.0482534	-5.503129e-06	-5.340673e-06	0.08042606	0.02626252
4.6e+08	0.08870697	0.0171168	-6.991623e-06	-2.790868e-06	0.05763502	-0.05811042	-5.871316e-06	-1.130043e-06
	-6.991623e-06	-2.790868e-06	0.08936088	0.01575694	5.524405e-06	-2.053373e-05	0.05650037	-0.0564124
	0.05763502	-0.05811042	5.524405e-06	-2.053373e-05	0.08920489	0.01758842	-5.928103e-06	-3.551347e-06
	-5.871316e-06	-1.130043e-06	0.05650037	-0.0564124	-5.928103e-06	-3.551347e-06	0.09004475	0.0156087
4.7e+08	0.09636002	0.004676328	-7.000066e-06	-8.329005e-07	0.04567584	-0.06434935	-5.787155e-06	1.68498e-07
	-7.000066e-06	-8.329005e-07	0.0968486	0.003120756	3.030759e-06	-1.880246e-05	0.04440677	-0.06236013
	0.04567584	-0.06434935	3.030759e-06	-1.880246e-05	0.09676607	0.00509488	-6.049679e-06	-1.701648e-06
	-5.787155e-06	1.68498e-07	0.04440677	-0.06236013	-6.049679e-06	-1.701648e-06	0.09738175	0.002855702
4.8e+08	0.1013456	-0.009426257	-6.67641e-06	1.099296e-06	0.03264311	-0.06814941	-5.48525e-06	1.428873e-06
	-6.67641e-06	1.099296e-06	0.1016219	-0.01114579	8.404347e-07	-1.658324e-05	0.03128844	-0.06583945
