!$
! Info: Touchstone file created by Circ.  Input file=Intel_C2M_200G_8p5in_202208016_staggered.circ
!$
# Hz S RI R 50
0	0.02810729	4.368678e-24	8.446244e-05	1.240387e-22	0.0001268219	3.14931e-22	8.439804e-05	1.238286e-22
	8.446244e-05	1.240387e-22	0.02812015	4.536595e-24	8.444601e-05	1.23961e-22	0.0001264444	3.123779e-22
	0.0001268784	3.150555e-22	8.444599e-05	1.239625e-22	0.02810223	4.163347e-24	8.441128e-05	1.237547e-22
	8.439803e-05	1.238301e-22	0.0001265009	3.125018e-22	8.441128e-05	1.237547e-22	0.02811814	4.293206e-24
1e+07	0.03457427	0.009406701	7.890638e-05	8.473692e-06	0.001938411	0.006907414	1.116783e-05	5.975775e-05
	7.890638e-05	8.473691e-06	0.03443952	0.009504166	7.524871e-05	4.92472e-05	0.002328553	0.006997696
	0.001938411	0.006907414	7.524871e-05	4.92472e-05	0.03522549	0.009226845	4.304206e-05	3.353229e-05
	1.116783e-05	5.975775e-05	0.002328553	0.006997696	4.304206e-05	3.353229e-05	0.03416066	0.009329101
2e+07	0.04153892	0.01315557	6.115151e-05	2.099677e-05	0.004881184	0.01271631	4.974959e-05	6.187022e-05
	6.115151e-05	2.099677e-05	0.0415557	0.01335787	9.323901e-05	3.395915e-05	0.005241995	0.01273616
	0.004881192	0.01271629	9.3239e-05	3.395915e-05	0.04183026	0.01266771	4.593132e-05	1.321175e-05
	4.974959e-05	6.187022e-05	0.005242002	0.01273615	4.593132e-05	1.321175e-05	0.04111725	0.01320698
3e+07	0.04741693	0.01388826	5.514938e-05	3.037213e-05	0.009186394	0.01761277	7.905249e-05	5.392989e-05
	5.514938e-05	3.037213e-05	0.04755379	0.01409408	0.0001075748	2.283731e-05	0.009520805	0.01762157
	0.009186376	0.0176128	0.0001075748	2.283732e-05	0.04743396	0.01338181	4.807759e-05	4.46931e-06
	7.90525e-05	5.392989e-05	0.009520787	0.01762161	4.807759e-05	4.469308e-06	0.04700714	0.01403489
4e+07	0.05230615	0.01309064	5.000485e-05	3.276079e-05	0.01462951	0.02117095	0.0001016307	3.962402e-05
	5.000485e-05	3.276079e-05	0.05254551	0.01326478	0.0001180884	8.883832e-06	0.01493465	0.0211792
	0.01462951	0.02117097	0.0001180884	8.88383e-06	0.0521154	0.01265111	4.88654e-05	-3.051335e-06
	0.0001016307	3.962402e-05	0.01493466	0.02117922	4.88654e-05	-3.051336e-06	0.05193741	0.01331878
5e+07	0.05635723	0.01137611	4.46144e-05	3.217584e-05	0.02083894	0.02319904	0.0001183637	2.094755e-05
	4.46144e-05	3.217584e-05	0.05668565	0.01149455	0.0001268895	-1.113663e-05	0.02110984	0.02321211
	0.02083895	0.02319904	0.0001268895	-1.113663e-05	0.05601255	0.01105068	4.891921e-05	-1.148703e-05
	0.0001183637	2.094755e-05	0.02110984	0.02321212	4.891921e-05	-1.148703e-05	0.05605151	0.01167127
6e+07	0.059651	0.009072882	3.843972e-05	3.036256e-05	0.02742449	0.02355596	0.0001292402	-8.520528e-07
	3.843972e-05	3.036256e-05	0.06005595	0.00911554	0.0001300551	-3.27172e-05	0.02765498	0.02357868
	0.0274245	0.02355594	0.0001300551	-3.27172e-05	0.05920227	0.008888685	4.696103e-05	-1.956005e-05
	0.0001292402	-8.520521e-07	0.02765499	0.02357866	4.696103e-05	-1.956005e-05	0.05942705	0.009416734
7e+07	0.06227176	0.00643287	4.201708e-05	2.005136e-05	0.03396819	0.0221954	0.0001339273	-2.470054e-05
	4.201708e-05	2.005136e-05	0.06273971	0.006381135	0.0001271059	-5.483909e-05	0.03415162	0.02223355
	0.03396819	0.02219539	0.0001271059	-5.483909e-05	0.06176566	0.006402787	4.308416e-05	-2.680938e-05
	0.0001339273	-2.470054e-05	0.03415161	0.02223355	4.308416e-05	-2.680938e-05	0.06214406	0.006802312
8e+07	0.06434077	0.003638245	4.45821e-05	7.109405e-06	0.04005294	0.0191696	0.0001326692	-4.94109e-05
	4.45821e-05	7.109405e-06	0.06485557	0.0034738	0.0001186665	-7.606499e-05	0.04018251	0.01923063
	0.04005294	0.0191696	0.0001186665	-7.606499e-05	0.06382125	0.003764888	3.763059e-05	-3.286487e-05
	0.0001326692	-4.94109e-05	0.04018251	0.01923063	3.763059e-05	-3.286487e-05	0.06431862	0.00400625
9e+07	0.06600345	0.0007990479	4.302075e-05	-5.385395e-06	0.04528462	0.01462536	0.0001253444	-7.422621e-05
	4.302075e-05	-5.385395e-06	0.06654443	0.0005026735	0.0001050357	-9.542349e-05	0.04535434	0.01471883
	0.04528463	0.01462536	0.0001050357	-9.542349e-05	0.06551296	0.001078256	3.090238e-05	-3.742455e-05
	0.0001253444	-7.422621e-05	0.04535435	0.01471883	3.090238e-05	-3.742455e-05	0.06609	0.001135677
1e+08	0.06746793	-0.00200977	3.630624e-05	-1.701049e-05	0.04931301	0.008790902	0.0001094028	-0.0001000586
	3.630624e-05	-1.701049e-05	0.0680008	-0.002467504	8.471729e-05	-0.0001129146	0.04931873	0.00892982
	0.04931301	0.0087909	8.471729e-05	-0.0001129146	0.0670646	-0.001578322	2.672895e-05	-3.72978e-05
	0.0001094028	-0.0001000586	0.04931872	0.008929819	2.672895e-05	-3.72978e-05	0.06766383	-0.001737912
1.1e+08	0.06877974	-0.005222235	2.667701e-05	-2.048087e-05	0.05182097	0.001974642	8.431251e-05	-0.0001112791
	2.667701e-05	-2.048087e-05	0.0692333	-0.005804165	7.397314e-05	-0.0001089078	0.05176644	0.002169646
	0.05182097	0.00197464	7.397314e-05	-0.0001089078	0.06852929	-0.004809414	2.426361e-05	-3.436644e-05
	8.431251e-05	-0.0001112791	0.05176644	0.002169644	2.426361e-05	-3.436644e-05	0.06906615	-0.005120443
1.2e+08	0.06969746	-0.008543879	2.030936e-05	-2.202418e-05	0.05261312	-0.005385836	6.749367e-05	-0.0001147599
	2.030936e-05	-2.202418e-05	0.07007212	-0.009221763	6.528878e-05	-0.0001047729	0.05249733	-0.005126062
	0.05261312	-0.005385837	6.528878e-05	-0.0001047729	0.06950469	-0.008147629	2.164798e-05	-3.267712e-05
	6.749367e-05	-0.0001147599	0.05249733	-0.005126063	2.164798e-05	-3.267712e-05	0.06998994	-0.008579486
1.3e+08	0.07035919	-0.01197319	1.514134e-05	-2.368015e-05	0.05159756	-0.01289135	6.097639e-05	-0.0001124395
	1.514134e-05	-2.368015e-05	0.07064813	-0.01273165	5.654519e-05	-0.0001011531	0.05142116	-0.01255572
	0.05159756	-0.01289135	5.654519e-05	-0.0001011531	0.07020178	-0.01158099	1.884766e-05	-3.175414e-05
	6.097639e-05	-0.0001124395	0.05142115	-0.01255572	1.884766e-05	-3.175414e-05	0.07063133	-0.01212062
1.4e+08	0.07078606	-0.01556162	1.069467e-05	-2.532815e-05	0.04877051	-0.0201191	5.366282e-05	-0.0001107404
	1.069467e-05	-2.532815e-05	0.07098193	-0.01638665	4.796184e-05	-9.766988e-05	0.04853629	-0.01969547
	0.0487705	-0.0201191	4.796184e-05	-9.766988e-05	0.07065607	-0.01517521	1.613952e-05	-3.090078e-05
	5.366282e-05	-0.0001107405	0.04853629	-0.01969547	1.613952e-05	-3.090078e-05	0.07102291	-0.0158124
1.5e+08	0.07095043	-0.01936244	6.429887e-06	-2.646685e-05	0.04422253	-0.02665113	4.573561e-05	-0.0001092351
	6.429887e-06	-2.646685e-05	0.07104645	-0.02023973	3.959237e-05	-9.416139e-05	0.04393598	-0.02612699
	0.04422253	-0.02665113	3.959237e-05	-9.416139e-05	0.07083698	-0.01898834	1.349128e-05	-3.01087e-05
	4.573561e-05	-0.0001092351	0.04393597	-0.02612699	1.349128e-05	-3.01087e-05	0.07113294	-0.01971329
1.6e+08	0.07078616	-0.02341515	2.23166e-06	-2.720255e-05	0.03813697	-0.03209682	3.728493e-05	-0.000107628
	2.23166e-06	-2.720255e-05	0.0707768	-0.02432976	3.14246e-05	-9.052512e-05	0.03780648	-0.03145994
	0.03813697	-0.03209682	3.14246e-05	-9.052512e-05	0.07067391	-0.0230581	1.085134e-05	-2.935826e-05
	3.728493e-05	-0.000107628	0.03780648	-0.03145994	1.085134e-05	-2.935826e-05	0.07089048	-0.02386038
1.7e+08	0.07019696	-0.02773431	-2.000998e-06	-2.756871e-05	0.03078213	-0.03611345	2.837733e-05	-0.0001056768
	-2.000998e-06	-2.756871e-05	0.0700781	-0.02867014	2.322633e-05	-8.696108e-05	0.03041919	-0.03535264
	0.03078213	-0.03611345	2.322633e-05	-8.696108e-05	0.0700683	-0.02739315	8.102683e-06	-2.868188e-05
	2.837733e-05	-0.0001056768	0.03041919	-0.03535264	8.102683e-06	-2.868188e-05	0.07019728	-0.02826135
1.8e+08	0.06906602	-0.03229952	-6.345255e-06	-2.754463e-05	0.02249922	-0.03842442	1.908685e-05	-0.0001031622
	-6.345255e-06	-2.754463e-05	0.06883557	-0.03323965	1.491012e-05	-8.315481e-05	0.02211835	-0.03753037
	0.02249922	-0.03842442	1.491012e-05	-8.315481e-05	0.06890423	-0.03196653	5.120627e-06	-2.804212e-05
	1.908685e-05	-0.0001031622	0.02211835	-0.03753037	5.120627e-06	-2.804212e-05	0.06893782	-0.03288741
1.9e+08	0.06726749	-0.03704822	-1.084412e-05	-2.706883e-05	0.01368656	-0.03883451	9.515517e-06	-9.988555e-05
	-1.084412e-05	-2.706883e-05	0.06692565	-0.03797493	6.648924e-06	-7.872195e-05	0.01330501	-0.03780065
	0.01368656	-0.03883451	6.648924e-06	-7.872195e-05	0.06705931	-0.03670978	1.964233e-06	-2.719788e-05
	9.515517e-06	-9.988555e-05	0.01330501	-0.03780065	1.964233e-06	-2.719788e-05	0.06699094	-0.03766824
2e+08	0.06468058	-0.04187141	-1.550829e-05	-2.604857e-05	0.004780166	-0.03724082	-2.025803e-07	-9.566628e-05
	-1.550829e-05	-2.604857e-05	0.06423024	-0.04276637	-1.468478e-06	-7.356742e-05	0.004417435	-0.0360641
	0.004780166	-0.03724082	-1.468478e-06	-7.356742e-05	0.06441792	-0.0415105	-1.35714e-06	-2.606793e-05
	-2.025803e-07	-9.566628e-05	0.004417435	-0.0360641	-1.35714e-06	-2.606793e-05	0.06424285	-0.04248951
2.1e+08	0.06120521	-0.04661466	-2.030662e-05	-2.437239e-05	-0.003767017	-0.03363942	-9.894761e-06	-9.034863e-05
	-2.030662e-05	-2.437239e-05	0.06065218	-0.04745935	-9.331826e-06	-6.760294e-05	-0.004090027	-0.03232106
	-0.003767017	-0.03363942	-9.331826e-06	-6.760294e-05	0.06088554	-0.04621186	-4.812928e-06	-2.45667e-05
	-9.894761e-06	-9.034863e-05	-0.004090027	-0.03232106	-4.812928e-06	-2.45667e-05	0.06060156	-0.0471926
2.2e+08	0.0567753	-0.05108277	-2.516073e-05	-2.192642e-05	-0.0115074	-0.02812745	-1.934897e-05	-8.381204e-05
	-2.516073e-05	-2.192642e-05	0.05612874	-0.05185885	-1.680045e-05	-6.076387e-05	-0.0117693	-0.02667343
	-0.0115074	-0.02812745	-1.680045e-05	-6.076387e-05	0.05640248	-0.05061872	-8.347985e-06	-2.260985e-05
	-1.934897e-05	-8.381204e-05	-0.0117693	-0.02667343	-8.347985e-06	-2.260985e-05	0.05601061	-0.05158087
2.3e+08	0.05137277	-0.05504914	-2.940598e-05	-1.893043e-05	-0.01802118	-0.02090038	-2.836686e-05	-7.590482e-05
	-2.940598e-05	-1.893043e-05	0.05064536	-0.05573915	-2.375839e-05	-5.2938e-05	-0.01820129	-0.01932174
	-0.01802118	-0.02090038	-2.375839e-05	-5.2938e-05	0.05095581	-0.05450634	-1.1879e-05	-2.012665e-05
	-2.836686e-05	-7.590482e-05	-0.01820129	-0.01932174	-1.1879e-05	-2.012665e-05	0.05046095	-0.05542866
2.4e+08	0.04503756	-0.05826858	-3.359758e-05	-1.499632e-05	-0.02293706	-0.01224428	-3.6594e-05	-6.666502e-05
	-3.359758e-05	-1.499632e-05	0.04424569	-0.05885662	-2.994022e-05	-4.41842e-05	-0.02301658	-0.01055711
	-0.02293706	-0.01224428	-2.994022e-05	-4.41842e-05	0.04459032	-0.05763197	-1.530455e-05	-1.705258e-05
	-3.6594e-05	-6.666502e-05	-0.02301658	-0.01055711	-1.530455e-05	-1.705258e-05	0.04400185	-0.05849309
2.5e+08	0.03787449	-0.0604926	-3.754464e-05	-1.002387e-05	-0.02595164	-0.002523646	-4.373576e-05	-5.614879e-05
	-3.754464e-05	-1.002387e-05	0.03703818	-0.06096525	-3.514411e-05	-3.455972e-05	-0.02591502	-0.000748709
	-0.02595164	-0.002523646	-3.514411e-05	-3.455972e-05	0.0374143	-0.05975146	-1.849654e-05	-1.335066e-05
	-4.373576e-05	-5.614879e-05	-0.02591502	-0.000748709	-1.849654e-05	-1.335066e-05	0.03674639	-0.06053094
2.6e+08	0.03005533	-0.06148748	-4.098097e-05	-3.995037e-06	-0.02684615	0.007834551	-4.950276e-05	-4.447415e-05
	-4.098097e-05	-3.995037e-06	0.02919796	-0.06183469	-3.917306e-05	-2.416362e-05	-0.02668223	0.009672486
	-0.02684615	0.007834551	-3.917306e-05	-2.416362e-05	0.02960219	-0.06063519	-2.131151e-05	-9.01329e-06
	-4.950276e-05	-4.447415e-05	-0.02668223	0.009672486	-2.131151e-05	-9.01329e-06	0.02887399	-0.06131472
2.7e+08	0.02181653	-0.06105198	-4.363045e-05	3.043943e-06	-0.02549792	0.01836048	-5.362185e-05	-3.182575e-05
	-4.363045e-05	3.043943e-06	0.02096431	-0.06126799	-4.184084e-05	-1.314111e-05	-0.02520101	0.02023356
	-0.02549792	0.01836048	-4.184084e-05	-1.314111e-05	0.0213919	-0.06008693	-2.359745e-05	-4.066105e-06
	-5.362185e-05	-3.182575e-05	-0.02520101	0.02023356	-2.359745e-05	-4.066105e-06	0.02062722	-0.06065161
2.8e+08	0.01345266	-0.05903505	-4.522109e-05	1.097762e-05	-0.02188939	0.02856332	-5.58503e-05	-1.845377e-05
	-4.522109e-05	1.097762e-05	0.01263376	-0.05911925	-4.29828e-05	-1.682188e-06	-0.02146	0.030442
	-0.02188939	0.02856332	-4.29828e-05	-1.682188e-06	0.013078	-0.05796102	-2.520131e-05	1.426995e-06
	-5.58503e-05	-1.845377e-05	-0.02146	0.030442	-2.520131e-05	1.426995e-06	0.01230475	-0.0584006
2.9e+08	0.005303634	-0.05535167	-4.550231e-05	1.962562e-05	-0.01611082	0.03795472	-5.599147e-05	-4.666834e-06
	-4.550231e-05	1.962562e-05	0.004547198	-0.05530929	-4.246549e-05	9.980219e-06	-0.01555621	0.03980909
	-0.01611082	0.03795473	-4.246549e-05	9.980219e-06	0.004999755	-0.05417703	-2.597864e-05	7.365944e-06
	-5.599147e-05	-4.666834e-06	-0.01555621	0.03980909	-2.597864e-05	7.365944e-06	0.004248986	-0.05448715
3e+08	-0.002260639	-0.04999542	-4.425892e-05	2.874939e-05	-0.008357797	0.04607229	-5.390641e-05	9.179363e-06
	-4.425892e-05	2.874939e-05	-0.002925868	-0.04983787	-4.019729e-05	2.157765e-05	-0.007692059	0.04787368
	-0.008357797	0.04607229	-4.019729e-05	2.157765e-05	-0.002475031	-0.04873317	-2.5802e-05	1.361519e-05
	-5.390641e-05	9.179363e-06	-0.007692058	0.04787368	-2.5802e-05	1.361519e-05	-0.00317043	-0.04891625
3.1e+08	-0.008859771	-0.04304682	-4.1325e-05	3.805412e-05	0.00107569	0.05250289	-4.952498e-05	2.269288e-05
	-4.1325e-05	3.805412e-05	-0.009406825	-0.04279185	-3.613412e-05	3.281748e-05	0.001831918	0.05422547
	0.00107569	0.05250289	-3.613412e-05	3.281748e-05	-0.008968382	-0.041714	-2.456937e-05	2.000661e-05
	-4.952498e-05	2.269288e-05	0.001831918	0.05422547	-2.456937e-05	2.000661e-05	-0.009575244	-0.04177983
3.2e+08	-0.01412358	-0.03467708	-3.659171e-05	4.720798e-05	0.01181003	0.05690319	-4.285258e-05	3.545938e-05
	-3.659171e-05	4.720798e-05	-0.01452874	-0.0343484	-3.028881e-05	4.338619e-05	0.01263015	0.05852547
	0.01181003	0.05690319	-3.028881e-05	4.338619e-05	-0.01411435	-0.03329483	-2.220981e-05	2.634765e-05
	-4.285258e-05	3.545938e-05	0.01263015	0.05852547	-2.220981e-05	2.634765e-05	-0.01460095	-0.03326083
3.3e+08	-0.01771502	-0.02514653	-3.001774e-05	5.58474e-05	0.02339684	0.05901706	-3.397348e-05	4.705918e-05
	-3.001774e-05	5.58474e-05	-0.0179592	-0.02477328	-2.273126e-05	5.296723e-05	0.02424926	0.06052317
	0.02339684	0.05901706	-2.273126e-05	5.296723e-05	-0.01757993	-0.0237385	-1.869116e-05	3.242432e-05
	-3.397348e-05	4.705918e-05	0.02424926	0.06052317	-1.869116e-05	3.242432e-05	-0.0179178	-0.02362947
3.4e+08	-0.01935142	-0.01479774	-2.163272e-05	6.359325e-05	0.03533959	0.05868967	-2.305515e-05	5.70791e-05
	-2.163272e-05	6.359325e-05	-0.01942142	-0.01441345	-1.359312e-05	6.1247e-05	0.03618893	0.06007055
	0.03533959	0.05868967	-1.359312e-05	6.1247e-05	-0.01908805	-0.01338924	-1.402126e-05	3.801238e-05
	-2.305515e-05	5.70791e-05	0.03618893	0.06007055	-1.402126e-05	3.801238e-05	-0.01925362	-0.01323672
3.5e+08	-0.01882482	-0.004042564	-1.154433e-05	7.006101e-05	0.04711639	0.0558753	-1.033974e-05	6.51328e-05
	-1.154433e-05	7.006101e-05	-0.01871427	-0.003683889	-3.06828e-06	6.792998e-05	0.04792499	0.05712945
	0.04711639	0.0558753	-3.06828e-06	6.792998e-05	-0.0184355	-0.002659599	-8.252466e-06	4.288206e-05
	-1.033974e-05	6.51328e-05	0.04792499	0.05712945	-8.252466e-06	4.288206e-05	-0.01841177	-0.002500877
3.6e+08	-0.01601825	0.006654803	6.810996e-08	7.487662e-05	0.05820458	0.05064119	3.851534e-06	7.086898e-05
	6.810996e-08	7.487662e-05	-0.01572831	0.006949495	8.597228e-06	7.274996e-05	0.05893416	0.05177524
	0.05820458	0.05064119	8.597228e-06	7.274996e-05	-0.01551144	0.007986673	-1.483182e-06	4.680776e-05
	3.851534e-06	7.086898e-05	0.05893416	0.05177524	-1.483182e-06	4.680776e-05	-0.01528918	0.008109989
3.7e+08	-0.01091915	0.01679921	1.294067e-05	7.768991e-05	0.06810574	0.04316473	1.912864e-05	7.398896e-05
	1.294067e-05	7.768991e-05	-0.01045887	0.01699138	2.109849e-05	7.547797e-05	0.06871906	0.04419359
	0.06810574	0.04316473	2.109849e-05	7.547797e-05	-0.01030858	0.01805628	6.147518e-06	4.957694e-05
	1.912864e-05	7.398896e-05	0.06871906	0.04419359	6.147518e-06	4.957694e-05	-0.009887438	0.01809985
3.8e+08	-0.003625937	0.02588842	2.674065e-05	7.818629e-05	0.07636812	0.03372552	3.504042e-05	7.425897e-05
	2.674065e-05	7.818629e-05	-0.003012302	0.02594091	3.408932e-05	7.593523e-05	0.07683079	0.03467219
	0.07636812	0.03372552	3.408932e-05	7.593523e-05	-0.002930035	0.02704969	1.445261e-05	5.099665e-05
	3.504042e-05	7.425897e-05	0.07683079	0.03467219	1.445261e-05	5.099665e-05	-0.002319187	0.02696829
3.9e+08	0.00564923	0.03343791	4.105943e-05	7.610483e-05	0.08260824	0.02269345	5.108849e-05	7.151984e-05
	4.105943e-05	7.610483e-05	0.006391495	0.03331655	4.718456e-05	7.399995e-05	0.08289046	0.02358849
	0.08260824	0.02269345	4.718456e-05	7.399995e-05	0.006407116	0.034487	2.321036e-05	5.090059e-05
	5.108849e-05	7.151984e-05	0.08289046	0.02358849	2.321036e-05	5.090059e-05	0.007188668	0.03423652
4e+08	0.01658481	0.03900841	5.542116e-05	7.12528e-05	0.0865279	0.01051072	6.672855e-05	6.570135e-05
	5.542116e-05	7.12528e-05	0.01742377	0.03868349	5.996859e-05	6.96148e-05	0.08660608	0.01139129
	0.0865279	0.01051072	5.996859e-05	6.96148e-05	0.01737884	0.03993359	3.215625e-05	4.915908e-05
	6.672855e-05	6.570135e-05	0.08660608	0.01139129	3.215625e-05	4.915908e-05	0.01830223	0.03947304
4.1e+08	0.02876037	0.04223041	6.929782e-05	6.351985e-05	0.08792723	-0.002327375	8.139703e-05	5.682424e-05
	6.929782e-05	6.351985e-05	0.02965758	0.0416781	7.200888e-05	6.27923e-05	0.08778545	-0.001418824
	0.08792723	-0.002327375	7.200888e-05	6.27923e-05	0.02956215	0.04302519	4.09991e-05	4.568191e-05
	8.139703e-05	5.682424e-05	0.08778545	-0.001418824	4.09991e-05	4.568191e-05	0.03058916	0.04231883
4.2e+08	0.04167073	0.04282517	8.211437e-05	5.289461e-05	0.0867135	-0.01529513	9.451681e-05	4.501753e-05
	8.211437e-05	5.289461e-05	0.04258219	0.04202889	8.286893e-05	5.362031e-05	0.08634474	-0.01431236
	0.0867135	-0.01529513	8.286893e-05	5.362031e-05	0.04245088	0.0434891	4.941685e-05	4.042878e-05
	9.451681e-05	4.501753e-05	0.08634474	-0.01431236	4.941685e-05	4.042878e-05	0.04353468	0.04250853
4.3e+08	0.05474813	0.04062569	9.327049e-05	3.9479e-05	0.08290364	-0.02785949	0.0001055207	3.05151e-05
	9.327049e-05	3.9479e-05	0.05562549	0.03957732	9.211157e-05	4.225963e-05	0.08231058	-0.02675447
	0.08290364	-0.02785949	9.211157e-05	4.225963e-05	0.05547785	0.04116408	5.706873e-05	3.341525e-05
	0.0001055207	3.05151e-05	0.08231058	-0.02675447	5.706873e-05	3.341525e-05	0.05656432	0.03989025
4.4e+08	0.0673866	0.03558956	0.0001021624	2.350104e-05	0.07662289	-0.03950263	0.0001138712	1.365764e-05
	0.0001021624	2.350104e-05	0.06817863	0.03429063	9.931952e-05	2.895046e-05	0.07581839	-0.03822753
	0.07662289	-0.03950263	9.931952e-05	2.895046e-05	0.06803812	0.03601333	6.360015e-05	2.471914e-05
	0.0001138712	1.365764e-05	0.07581839	-0.03822753	6.360015e-05	2.471914e-05	0.06906756	0.03443842
4.5e+08	0.07896848	0.02780821	0.0001082057	5.315888e-06	0.06809854	-0.04974386	0.0001190763	-5.099095e-06
	0.0001082057	5.315888e-06	0.07962287	0.02627086	0.0001041039	1.401119e-05	0.06710564	-0.0482534
	0.06809854	-0.04974386	0.0001041039	1.401119e-05	0.07951672	0.02813346	6.865533e-05	1.448223e-05
	0.0001190763	-5.099095e-06	0.06710564	-0.0482534	6.865533e-05	1.448223e-05	0.08042606	0.02626252
4.6e+08	0.08889552	0.01750923	0.0001108649	-1.458577e-05	0.05764902	-0.05815883	0.0001207157	-2.519655e-05
	0.0001108649	-1.458577e-05	0.08936088	0.01575694	0.0001061155	-2.170173e-06	0.05650037	-0.0564124
	0.05764902	-0.05815883	0.0001061155	-2.170173e-06	0.08931928	0.01775649	7.18865e-05	2.924037e-06
	0.0001207157	-2.519655e-05	0.05650037	-0.0564124	7.18865e-05	2.924037e-06	0.09004475	0.0156087
4.7e+08	0.09662015	0.005052901	0.0001096851	-3.558584e-05	0.04566992	-0.06439638	0.0001184642	-4.598553e-05
	0.0001096851	-3.558584e-05	0.0968486	0.003120756	0.0001050571	-1.91247e-05	0.04440677	-0.06236013
	0.04566992	-0.06439638	0.0001050571	-1.91247e-05	0.0969013	0.005246369	7.296738e-05	-9.658901e-06
	0.0001184642	-4.598553e-05	0.04440677	-0.06236013	7.296738e-05	-9.658901e-06	0.09738175	0.002855702
4.8e+08	0.1016722	-0.009080315	0.0001043231	-5.694405e-05	0.03261785	-0.06819075	0.0001121114	-6.672641e-05
	0.0001043231	-5.694405e-05	0.1016219	-0.01114579	0.000100702	-3.631844e-05	0.03128844	-0.06583945
	0.03261785	-0.06819075	0.000100702	-3.631844e-05	0.1017982	-0.008912864	7.161293e-05	-2.28963e-05
