# GHz S RI R 45
0.000     0.027667779000    0.000000000000    0.000023873597    -0.000000000000    0.000635003860    0.000000000000    -0.000002979186    0.000000000000
            0.000023873498    -0.000000000000    0.026362530000    0.000000000000    0.000002400199    0.000000000000    0.000428305330    0.000000000000
            0.000634922210    0.000000000000    0.000002400052    0.000000000000    0.027609620000    0.000000000000    0.000001614075    0.000000000000
            -0.000002979293    0.000000000000    0.000428306670    0.000000000000    0.000001614171    0.000000000000    0.026180244000    0.000000000000
0.025     0.033916162985    0.007910776429    -0.000009124621    -0.000018518517    0.003598699972    0.012483864754    0.000001018706    0.000004338761
            -0.000009124715    -0.000018518514    0.031858878776    0.008091957280    -0.000005843102    -0.000002837208    0.002869387415    0.012368071835
            0.003598492755    0.012483701773    -0.000005843247    -0.000002837201    0.033874367200    0.007973601020    -0.000002391839    -0.000000998613
            0.000001018597    0.000004338769    0.002869264597    0.012367904255    -0.000002391743    -0.000000998616    0.031847060689    0.008157677890
0.050     0.039625855467    0.008372931034    -0.000018797791    -0.000002684440    0.011107695264    0.021602853999    0.000003835711    0.000004708437
            -0.000018797891    -0.000002684431    0.036637017641    0.009891662631    -0.000006980407    0.000003185505    0.009242463968    0.022222029072
            0.011107644916    0.021602850651    -0.000006980554    0.000003185521    0.039648564584    0.008494666877    -0.000002348444    0.000002486820
            0.000003835605    0.000004708448    0.009242493828    0.022222017736    -0.000002348353    0.000002486812    0.036601937134    0.009876222383
0.075     0.043000368355    0.005146451597    -0.000016382722    0.000008136884    0.020335403617    0.025624719576    0.000006345701    0.000004778523
            -0.000016382822    0.000008136898    0.039588191544    0.008982588534    -0.000004097475    0.000007072020    0.017500373034    0.028168712166
            0.020335329632    0.025624731054    -0.000004097618    0.000007072042    0.043123578430    0.005274216728    0.000000147241    0.000004522476
            0.000006345596    0.000004778539    0.017500379534    0.028168711660    0.000000147333    0.000004522463    0.039451547290    0.008994529871
0.100     0.042074520507    -0.000078640806    -0.000010238896    0.000014617739    0.028086302065    0.024731032117    0.000009160819    0.000004115536
            -0.000010238996    0.000014617757    0.039455705081    0.006722898953    0.000000171591    0.000008778367    0.025334570189    0.030162164279
            0.028086222989    0.024731047774    0.000000171448    0.000008778397    0.042295796615    -0.000010825641    0.000003580206    0.000004825600
            0.000009160705    0.000004115560    0.025334572529    0.030162164926    0.000003580297    0.000004825583    0.039250968084    0.006855308282
0.125     0.035814928345    -0.004312980570    -0.000002745913    0.000017416762    0.031869685105    0.020853019887    0.000012044934    0.000002382864
            -0.000002746003    0.000017416784    0.035655280449    0.005286236728    0.000004746226    0.000008455611    0.030860917398    0.029360627058
            0.031869607891    0.020853039269    0.000004746085    0.000008455647    0.036090612405    -0.004358225284    0.000007051256    0.000003445225
            0.000012044841    0.000002382889    0.030860919360    0.029360627898    0.000007051350    0.000003445202    0.035475480612    0.005583986850
0.150     0.025272922384    -0.004342429097    0.000004873843    0.000016999209    0.030642106234    0.017036195860    0.000014556222    -0.000000532181
            0.000004873754    0.000016999236    0.029087095695    0.006815772612    0.000008953615    0.000006298105    0.033070859892    0.027734137413
            0.030642020825    0.017036221887    0.000008953474    0.000006298147    0.025541760803    -0.004533026894    0.000009915207    0.000000541407
            0.000014556132    -0.000000532150    0.033070852753    0.027734141257    0.000009915295    0.000000541382    0.029027823400    0.007259266544
0.175     0.013093890268    0.002289321444    0.000011598616    0.000013858727    0.025341814814    0.016490642729    0.000016189882    -0.000004494800
            0.000011598547    0.000013858750    0.021574237970    0.012907206926    0.000012198365    0.000002673323    0.032250559022    0.027507712590
            0.025341739206    0.016490669079    0.000012198257    0.000002673366    0.013274985229    0.001958812851    0.000011653681    -0.000003442817
            0.000016189799    -0.000004494761    0.032250562264    0.027507713411    0.000011653781    -0.000003442850    0.021710371738    0.013411418882
0.200     0.003203318765    0.016342510352    0.000016650065    0.000008609132    0.018689331247    0.021401682540    0.000016521242    -0.000009120389
            0.000016649971    0.000008609173    0.015748344963    0.024048276805    0.000014041146    -0.000001984942    0.029914216298    0.030391517630
            0.018689258026    0.021401713291    0.000014041060    -0.000001984905    0.003222710308    0.015924410457    0.000011931640    -0.000008002736
            0.000016521169    -0.000009120366    0.029914210823    0.030391521616    0.000011931736    -0.000008002776    0.016088951478    0.024491138087
0.225     -0.000318198507    0.036210478947    0.000019528375    0.000002176262    0.014324929830    0.032006152703    0.000015345850    -0.000013804778
            0.000019528286    0.000002176307    0.014345548540    0.039195654799    0.000014255028    -0.000007001054    0.028328858851    0.036954291268
            0.014324857468    0.032006187280    0.000014254892    -0.000007000993    -0.000499822650    0.035796355671    0.000010711716    -0.000012465458
            0.000015345766    -0.000013804737    0.028328863293    0.036954290383    0.000010711810    -0.000012465503    0.014821966350    0.039465218836
0.250     0.005304467287    0.058094867179    0.000020153754    -0.000004523140    0.015498688055    0.046347644206    0.000012813013    -0.000017909154
            0.000020153666    -0.000004523092    0.019297019909    0.055877665244    0.000012913291    -0.000011736495    0.029748479345    0.046375453661
            0.015498610619    0.046347686972    0.000012913111    -0.000011736398    0.004937056727    0.057791648562    0.000008230837    -0.000016266120
            0.000012812922    -0.000017909115    0.029748483932    0.046375451907    0.000008230928    -0.000016266167    0.019779793119    0.055920458656
0.275     0.020407592268    0.077045031700    0.000018929751    -0.000010633097    0.023837041689    0.060877627410    0.000009407007    -0.000020965574
            0.000018929666    -0.000010633045    0.030998374896    0.070804420322    0.000010446773    -0.000015648029    0.035621581738    0.056678595693
            0.023836973480    0.060877669153    0.000010446647    -0.000015647950    0.019927621013    0.076942598561    0.000005034274    -0.000019039472
            0.000009406914    -0.000020965528    0.035621585695    0.056678593206    0.000005034364    -0.000019039528    0.031342062256    0.070652029193
0.300     0.042589343490    0.088551976354    0.000016474142    -0.000015772246    0.038737560723    0.071685055693    0.000005752739    -0.000022902429
            0.000016474061    -0.000015772192    0.048057173328    0.080854381881    0.000007400437    -0.000018580578    0.046097340907    0.065389579476
            0.038737495714    0.071685099917    0.000007400359    -0.000018580528    0.042113823202    0.088692216787    0.000001680359    -0.000020814209
            0.000005752662    -0.000022902379    0.046097343755    0.065389576245    0.000001680365    -0.000020814215    0.048153486928    0.080621321763
0.325     0.067403553868    0.089963355177    0.000013448519    -0.000019921725    0.057595441277    0.075767618908    0.000002356138    -0.000024000376
            0.000013448439    -0.000019921668    0.067646024968    0.084004957084    0.000004283044    -0.000020682741    0.059989783710    0.070316772451
            0.057595379125    0.075767666154    0.000004282891    -0.000020682629    0.067061329871    0.090321696211    -0.000001405345    -0.000021914260
            0.000002356066    -0.000024000316    0.059989786093    0.070316767789    -0.000001405262    -0.000021914327    0.067465346019    0.083855521716
0.350     0.089669909865    0.081240979349    0.000010194245    -0.000023402736    0.076642352555    0.071886025602    -0.000000611245    -0.000024748309
            0.000010194165    -0.000023402676    0.086305133484    0.079918965423    0.000001299132    -0.000022323127    0.075170366192    0.070187563700
            0.076642292566    0.071886074943    0.000001298984    -0.000022323001    0.089566952235    0.081726594615    -0.000004159985    -0.000022796548
            -0.000000611393    -0.000024748189    0.075170368642    0.070187561076    -0.000004159977    -0.000022796553    0.085913419282    0.080016600739
0.375     0.104861233562    0.064884992802    0.000006806411    -0.000026563427    0.091965460171    0.060820745295    -0.000003293697    -0.000025578922
            0.000006806336    -0.000026563360    0.100869878433    0.069983122238    -0.000001578685    -0.000023851095    0.089159721301    0.064947385656
            0.091965391475    0.060820812913    -0.000001578756    -0.000023851033    0.105048520889    0.065357270856    -0.000006772064    -0.000023819802
            -0.000003293802    -0.000025578829    0.089159723568    0.064947382543    -0.000006772024    -0.000023819835    0.100416235971    0.070439662491
0.400     0.110189421074    0.045287192617    0.000003059484    -0.000029661861    0.100448316665    0.045192704419    -0.000006079021    -0.000026724203
            0.000003059421    -0.000029661782    0.109257293876    0.056923894457    -0.000004623106    -0.000025488037    0.099758749774    0.055759139534
            0.100448251445    0.045192776261    -0.000004623168    -0.000025487972    0.110641400419    0.045587173032    -0.000009634575    -0.000025126279
            -0.000006079086    -0.000026724161    0.099758742018    0.055759132914    -0.000009634498    -0.000025126352    0.108937699233    0.057761897816
0.425     0.105268184583    0.027742389179    -0.000001349933    -0.000032737703    0.100539055736    0.028953616600    -0.000009407351    -0.000028145120
            -0.000001349971    -0.000032737664    0.110939480861    0.044126047816    -0.000008166159    -0.000027254306    0.105572945881    0.044733414390
            0.100538993042    0.028953689758    -0.000008166288    -0.000027254164    0.105876533540    0.027731761883    -0.000013134651    -0.000026617992
            -0.000009407410    -0.000028145053    0.105572946662    0.044733412548    -0.000013134617    -0.000026618030    0.110946194943    0.045263512086
0.450     0.092376327252    0.017290329616    -0.000006809888    -0.000035584858    0.092849546809    0.016587325230    -0.000013686431    -0.000029538090
            -0.000006809956    -0.000035584775    0.107093696723    0.034851060857    -0.000012586643    -0.000028942905    0.106414461223    0.034473964861
            0.092849484502    0.016587401056    -0.000012586766    -0.000028942759    0.092962908716    0.016894785269    -0.000017620126    -0.000027966579
            -0.000013686493    -0.000029538020    0.106414461223    0.034473964861    -0.000017620060    -0.000027966658    0.107561178636    0.036112580192
0.475     0.076229037813    0.017402732200    -0.000013557444    -0.000037732053    0.080395022087    0.011933827785    -0.000019136234    -0.000030365887
            -0.000013557504    -0.000037731972    0.100395819009    0.031431084843    -0.000018133301    -0.000030105565    0.103468839324    0.027427236065
            0.080394991912    0.011933867619    -0.000018133384    -0.000030105453    0.076583403610    0.016648731560    -0.000023249609    -0.000028653313
            -0.000019136290    -0.000030365812    0.103468839803    0.027427234259    -0.000023249549    -0.000028653392    0.101358123861    0.032586476456
0.500     0.063056568014    0.028715332979    -0.000021600531    -0.000038467589    0.068145882246    0.016802531525    -0.000025688279    -0.000029915720
            -0.000021600537    -0.000038467584    0.094460276380    0.034585685044    -0.000024823929    -0.000030064858    0.099136610390    0.025148959464
            0.068145828302    0.016802616636    -0.000024824003    -0.000030064744    0.062994952640    0.027744113094    -0.000029923658    -0.000028001212
            -0.000025688333    -0.000029915636    0.099136610390    0.025148959464    -0.000029923610    -0.000028001285    0.095832228851    0.035405455177
0.525     0.058849025804    0.048292274823    -0.000030446285    -0.000037038360    0.061611084473    0.029893340197    -0.000032812670    -0.000027493540
            -0.000030446346    -0.000037038276    0.092906923571    0.043032767338    -0.000032208109    -0.000028098924    0.096410713696    0.027668714584
            0.061611034115    0.029893423369    -0.000032208184    -0.000028098801    0.058280241830    0.047337677754    -0.000037104726    -0.000025363041
            -0.000032812701    -0.000027493439    0.096410714662    0.027668711219    -0.000037104679    -0.000025363123    0.094494778215    0.043343292048
0.550     0.067204908968    0.070133677498    -0.000039141347    -0.000032968330    0.064803245899    0.046842670225    -0.000039550712    -0.000022728745
            -0.000039141389    -0.000032968249    0.098254505205    0.053670961225    -0.000039376750    -0.000023755430    0.097907074154    0.033319246582
            0.064803200023    0.046842755882    -0.000039376818    -0.000023755303    0.066176196861    0.069458518397    -0.000043855065    -0.000020400325
            -0.000039550762    -0.000022728646    0.097907075898    0.033319241456    -0.000043855020    -0.000020400416    0.099771293230    0.053403860560
0.575     0.087812623455    0.087088797678    -0.000046468551    -0.000026434040    0.078580230914    0.061687197674    -0.000044764209    -0.000015890148
            -0.000046468576    -0.000026433957    0.111011931696    0.062417036732    -0.000045174638    -0.000017211022    0.104925942488    0.039232147753
            0.078580187927    0.061687288062    -0.000045174702    -0.000017210893    0.086508278451    0.086902395264    -0.000049068712    -0.000013396962
            -0.000044764254    -0.000015890050    0.104925945912    0.039232138596    -0.000049068676    -0.000013397044    0.112146036662    0.061696349903
0.600     0.116534956842    0.093375420263    -0.000051493580    -0.000018282071    0.100394685695    0.069078905096    -0.000047626600    -0.000007882961
            -0.000051493612    -0.000018281991    0.129430760101    0.065483301328    -0.000048715359    -0.000009298265    0.117037732938    0.042263618003
            0.100394649123    0.069078993530    -0.000048715415    -0.000009298135    0.115224776406    0.093766248182    -0.000051951734    -0.000005244646
            -0.000047626639    -0.000007882874    0.117037737364    0.042263605747    -0.000051951700    -0.000005244726    0.130009644364    0.064596604678
0.625     0.147001535479    0.086372262446    -0.000053907799    -0.000009749333    0.125449472153    0.065978841241    -0.000047963876    0.000000059018
            -0.000053907827    -0.000009749250    0.150049776907    0.060559688129    -0.000049731158    -0.000001220206    0.132213822766    0.039979708089
            0.125449437245    0.065978929097    -0.000049731207    -0.000001220086    0.145965809619    0.087281807140    -0.000052343115    0.000002851807
            -0.000047963920    0.000000059110    0.132213824859    0.039979701166    -0.000052343082    0.000002851714    0.150083263155    0.059821773966
0.650     0.172725563842    0.066991370911    -0.000054119691    -0.000001932063    0.148401610075    0.052166681680    -0.000046297578    0.000006882479
            -0.000054119717    -0.000001931969    0.168799815069    0.047413329659    -0.000048645614    0.000005955522    0.147543199495    0.031350151553
            0.148401610075    0.052166681680    -0.000048645673    0.000005955693    0.172180783213    0.068232063351    -0.000050753868    0.000009872181
            -0.000046297609    0.000006882558    0.147543192449    0.031350136599    -0.000050753840    0.000009872083    0.168446254902    0.047085911138
0.675     0.188703051469    0.038919027215    -0.000052956905    0.000004507562    0.164670071991    0.029787970824    -0.000043547608    0.000012015619
            -0.000052956937    0.000004507649    0.182113472181    0.027779736436    -0.000046293846    0.000011590080    0.160062565449    0.016863436197
            0.164670063673    0.029788016808    -0.000046293878    0.000011590225    0.188754335042    0.040220420040    -0.000048070408    0.000015259461
            -0.000043547625    0.000012015705    0.160062566067    0.016863430331    -0.000048070388    0.000015259362    0.181636119328    0.028016803848
0.700     0.192223152908    0.007459065459    -0.000051352566    0.000009463885    0.171146554574    0.002612963753    -0.000040689931    0.000015453616
            -0.000051352593    0.000009463983    0.187724690832    0.004768313533    -0.000043613904    0.000015579009    0.167421498473    -0.001734209331
            0.171146533160    0.002613056256    -0.000043613935    0.000015579200    0.192839563295    0.008524393564    -0.000045233247    0.000018998423
            -0.000040689988    0.000015453800    0.167421498473    -0.001734209389    -0.000045233232    0.000018998323    0.187432497342    0.005583048862
0.725     0.183082761215    -0.021524800189    -0.000050074705    0.000013237376    0.166519729113    -0.024621245880    -0.000038497543    0.000017605391
            -0.000050074725    0.000013237475    0.185022494294    -0.017896620815    -0.000041397098    0.000018221463    0.168267175179    -0.021853346481
            0.166519712714    -0.024621151687    -0.000041397126    0.000018221649    0.184094719132    -0.020958570859    -0.000042993774    0.000021461179
            -0.000038497561    0.000017605481    0.168267174912    -0.021853348537    -0.000042993756    0.000021461086    0.185203277163    -0.016640854863
0.750     0.163597288834    -0.042501947414    -0.000049624908    0.000016423045    0.151587726497    -0.046799639919    -0.000037437037    0.000019143930
            -0.000049624912    0.000016423046    0.175100838353    -0.036619218330    -0.000040186421    0.000020113703    0.162505774678    -0.040510434910
            0.151587726497    -0.046799639919    -0.000040186451    0.000020113885    0.164715028490    -0.042601300557    -0.000041829551    0.000023279209
            -0.000037437055    0.000019144030    0.162505774678    -0.040510434910    -0.000041829537    0.000023279115    0.175956253101    -0.035186234779
0.775     0.138506455722    -0.051213175395    -0.000050185437    0.000019743663    0.129566936960    -0.059263010183    -0.000037643636    0.000020845574
            -0.000050185450    0.000019743769    0.160572281689    -0.048595336419    -0.000040218366    0.000022010282    0.151417183633    -0.054852870756
            0.129566935321    -0.059262965682    -0.000040218372    0.000022010377    0.139366304086    -0.051990477150    -0.000041913363    0.000025200670
            -0.000037643653    0.000020845721    0.151417174231    -0.054852867350    -0.000041913362    0.000025200609    0.162162122591    -0.047332531873
