# GHz S RI R 45
0.000     0.025458909000    0.000000000000    -0.000000754173    0.000000000000    0.000639460680    -0.000000000000    -0.000007560417    0.000000000000
            -0.000000754057    0.000000000000    0.026362530000    0.000000000000    0.000000854389    -0.000000000000    0.000428305330    0.000000000000
            0.000639480900    -0.000000000000    0.000000854421    -0.000000000000    0.025430909000    0.000000000000    0.000002820462    -0.000000000000
            -0.000007560310    0.000000000000    0.000428306670    0.000000000000    0.000002820443    -0.000000000000    0.026180244000    0.000000000000
0.025     0.032963946576    0.006123706374    -0.000000662513    -0.000001674041    0.004350072924    0.010025558300    0.000004400870    0.000004548397
            -0.000000662397    -0.000001674068    0.031858878776    0.008091957280    0.000005485401    0.000000897162    0.002869387415    0.012368071835
            0.004350079620    0.010025600088    0.000005485428    0.000000897156    0.032905203984    0.006108377165    0.000002730574    -0.000001510616
            0.000004400965    0.000004548375    0.002869264597    0.012367904255    0.000002730557    -0.000001510613    0.031847060689    0.008157677890
0.050     0.042277693541    0.003398224087    -0.000002603651    -0.000003297143    0.013953626653    0.015585839551    0.000005767112    -0.000003311694
            -0.000002603557    -0.000003297193    0.036637017641    0.009891662631    0.000005858489    -0.000003058721    0.009242463968    0.022222029072
            0.013953631796    0.015585837632    0.000005858515    -0.000003058735    0.042227411825    0.003400889374    0.000001723174    -0.000002942646
            0.000005767205    -0.000003311744    0.009242493828    0.022222017736    0.000001723158    -0.000002942637    0.036601937134    0.009876222383
0.075     0.050467445584    -0.006353987597    -0.000005338996    -0.000003398163    0.025722324589    0.013907944041    0.000001857610    -0.000007664400
            -0.000005338910    -0.000003398239    0.039588191544    0.008982588534    0.000003992357    -0.000005694892    0.017500373034    0.028168712166
            0.025722325137    0.013907930413    0.000003992381    -0.000005694913    0.050459388511    -0.006333167033    0.000000245112    -0.000003781097
            0.000001857689    -0.000007664472    0.017500379534    0.028168711660    0.000000245102    -0.000003781087    0.039451547290    0.008994529871
0.100     0.053348493066    -0.022202013553    -0.000008022540    -0.000001964792    0.035082261841    0.004781742379    -0.000003374222    -0.000008747655
            -0.000008022475    -0.000001964884    0.039455705081    0.006722898953    0.000001375940    -0.000007168409    0.025334570189    0.030162164279
            0.035082259266    0.004781724253    0.000001375959    -0.000007168438    0.053421457513    -0.022178138537    -0.000001451182    -0.000004059089
            -0.000003374162    -0.000008747741    0.025334572529    0.030162164926    -0.000001451192    -0.000004059073    0.039250968084    0.006855308282
0.125     0.047443390130    -0.040759302546    -0.000010024659    0.000000728603    0.037971178571    -0.009490341119    -0.000008316272    -0.000007126656
            -0.000010024617    0.000000728493    0.035655280449    0.005286236728    -0.000001600624    -0.000007609434    0.030860917398    0.029360627058
            0.037971168609    -0.009490356232    -0.000001600612    -0.000007609462    0.047635614841    -0.040760974662    -0.000003289240    -0.000003786393
            -0.000008316235    -0.000007126750    0.030860919360    0.029360627898    -0.000003289246    -0.000003786376    0.035475480612    0.005583986850
0.150     0.031629894364    -0.056833537300    -0.000010965724    0.000004348462    0.032089944918    -0.024724748686    -0.000012118642    -0.000003370662
            -0.000010965709    0.000004348348    0.029087095695    0.006815772612    -0.000004741877    -0.000006949013    0.033070859892    0.027734137413
            0.032089929377    -0.024724759026    -0.000004741873    -0.000006949043    0.031952540927    -0.056932928024    -0.000005202461    -0.000002815697
            -0.000012118628    -0.000003370765    0.033070852753    0.027734141257    -0.000005202463    -0.000002815679    0.029027823400    0.007259266544
0.175     0.007557640103    -0.065050405402    -0.000010534007    0.000008512635    0.017647021669    -0.035916093955    -0.000014110719    0.000001855599
            -0.000010534021    0.000008512522    0.021574237970    0.012907206926    -0.000007699361    -0.000005015882    0.032250559022    0.027507712590
            0.017647003352    -0.035916096270    -0.000007699363    -0.000005015912    0.007990116515    -0.065323802438    -0.000006931306    -0.000000945002
            -0.000014110729    0.000001855500    0.032250562264    0.027507713411    -0.000006931304    -0.000000944991    0.021710371738    0.013411418882
0.200     -0.020264486055    -0.061326453247    -0.000008470969    0.000012767167    -0.002466227609    -0.038671942370    -0.000013828439    0.000007824057
            -0.000008471008    0.000012767065    0.015748344963    0.024048276805    -0.000009889078    -0.000001753990    0.029914216298    0.030391517630
            -0.002466244903    -0.038671937259    -0.000009889089    -0.000001754030    -0.019785974869    -0.061841030833    -0.000007970979    0.000001897547
            -0.000013828472    0.000007823964    0.029914210823    0.030391521616    -0.000007970963    0.000001897559    0.016088951478    0.024491138087
0.225     -0.045465520776    -0.044268315331    -0.000004632948    0.000016443197    -0.023277521491    -0.030564402518    -0.000011039699    0.000013554202
            -0.000004633014    0.000016443102    0.014345548540    0.039195654799    -0.000010611443    0.000002500452    0.028328858851    0.036954291268
            -0.023277530949    -0.030564392801    -0.000010611459    0.000002500424    -0.045044759435    -0.045055264016    -0.000007725055    0.000005397727
            -0.000011039757    0.000013554115    0.028328863293    0.036954290383    -0.000007725046    0.000005397740    0.014821966350    0.039465218836
0.250     -0.061412410632    -0.015938924166    0.000000808924    0.000018739620    -0.038996743287    -0.012035382036    -0.000005925373    0.000017989570
            0.000000808840    0.000018739543    0.019297019909    0.055877665244    -0.000009373307    0.000006977816    0.029748479345    0.046375453661
            -0.038996749399    -0.012035369014    -0.000009373334    0.000006977788    -0.061170279025    -0.016970964328    -0.000005812003    0.000008847933
            -0.000005925440    0.000017989507    0.029748483932    0.046375451907    -0.000005811990    0.000008847946    0.019779793119    0.055920458656
0.275     -0.063055153332    0.018345175038    0.000007224564    0.000018905844    -0.044617967491    0.013488235162    0.000000791889    0.000020170464
            0.000007224482    0.000018905799    0.030998374896    0.070804420322    -0.000006202827    0.000010660344    0.035621581738    0.056678595693
            -0.044617967569    0.013488252183    -0.000006202853    0.000010660328    -0.063094903942    0.017161297380    -0.000002355486    0.000011352250
            0.000000791808    0.000020170417    0.035621585695    0.056678593206    -0.000002355473    0.000011352257    0.031342062256    0.070652029193
0.300     -0.048465505793    0.051159307762    0.000013618526    0.000016581697    -0.037388538190    0.040350654369    0.000008009269    0.000019603849
            0.000013618436    0.000016581673    0.048057173328    0.080854381881    -0.000001697739    0.000012698139    0.046097340907    0.065389579476
            -0.037388535905    0.040350666029    -0.000001697772    0.000012698131    -0.048837376522    0.049969686682    0.000002015016    0.000012226030
            0.000008009175    0.000019603824    0.046097343755    0.065389576245    0.000002015037    0.000012226034    0.048153486928    0.080621321763
0.325     -0.019555948254    0.074785919357    0.000018898840    0.000011963713    -0.017660500189    0.062080234685    0.000014519197    0.000016401385
            0.000018898746    0.000011963712    0.067646024968    0.084004957084    0.000003186209    0.000012728041    0.059989783710    0.070316772451
            -0.017660491543    0.062080245462    0.000003186180    0.000012728037    -0.020231571131    0.073757434903    0.000006398143    0.000011276346
            0.000014519104    0.000016401382    0.059989786093    0.070316767789    0.000006398158    0.000011276348    0.067465346019    0.083855521716
0.350     0.018202158488    0.083143545826    0.000022253516    0.000005752341    0.011089330660    0.073021836949    0.000019419543    0.000011199108
            0.000022253422    0.000005752365    0.086305133484    0.079918965423    0.000007549132    0.000010949658    0.075170366192    0.070187563700
            0.011089330660    0.073021836949    0.000007549099    0.000010949665    0.017335859305    0.082421747009    0.000010024410    0.000008820498
            0.000019419454    0.000011199128    0.075170368642    0.070187561076    0.000010024414    0.000008820499    0.085913419282    0.080016600739
0.375     0.056965332361    0.073288676512    0.000023338706    -0.000001113536    0.043022724603    0.069711029601    0.000022269985    0.000004875902
            0.000023338580    -0.000001113479    0.100869878433    0.069983122238    0.000010824792    0.000007934066    0.089159721301    0.064947385656
            0.043022723386    0.069711030352    0.000010824765    0.000007934079    0.056090210963    0.072956158959    0.000012494881    0.000005462776
            0.000022269902    0.000004875941    0.089159723568    0.064947382543    0.000012494898    0.000005462768    0.100416235971    0.070439662491
0.400     0.088220809420    0.046179920588    0.000022289780    -0.000007775787    0.071207263012    0.051719661381    0.000023093954    -0.000001778405
            0.000022289709    -0.000007775725    0.109257293876    0.056923894457    0.000012888287    0.000004298114    0.099758749774    0.055759139534
            0.071207337461    0.051719616736    0.000012888258    0.000004298128    0.087553008260    0.046225561520    0.000013828832    0.000001762740
            0.000023093882    -0.000001778349    0.099758742018    0.055759132914    0.000013828847    0.000001762733    0.108937699233    0.057761897816
0.425     0.104603838042    0.006591015258    0.000019528584    -0.000013655961    0.089071766495    0.021847427158    0.000022157520    -0.000008230616
            0.000019528526    -0.000013655889    0.110939480861    0.044126047816    0.000013909463    0.000000464982    0.105572945881    0.044733414390
            0.089071790596    0.021847391866    0.000013909444    0.000000465005    0.104346252828    0.006897291564    0.000014275711    -0.000001973466
            0.000022157464    -0.000008230544    0.105572946662    0.044733412548    0.000014275723    -0.000001973479    0.110946194943    0.045263512086
0.450     0.101502835718    -0.037719883056    0.000015523865    -0.000018509631    0.091817830293    -0.014289651122    0.000019732226    -0.000014238329
            0.000015523827    -0.000018509548    0.107093696723    0.034851060857    0.000014113268    -0.000003452870    0.106414461223    0.034473964861
            0.091817845465    -0.014289735715    0.000014113256    -0.000003452846    0.101793552838    -0.037366951380    0.000014050720    -0.000005756555
            0.000019732191    -0.000014238244    0.106414461223    0.034473964861    0.000014050731    -0.000005756572    0.107561178636    0.036112580192
0.475     0.078187882320    -0.077453937686    0.000010562901    -0.000022303884    0.077566576577    -0.049233670810    0.000015895445    -0.000019680239
            0.000010562882    -0.000022303794    0.100395819009    0.031431084843    0.000013507622    -0.000007541632    0.103468839324    0.027427236065
            0.077566555549    -0.049233754322    0.000013507618    -0.000007541604    0.079054399501    -0.077329568468    0.000013087856    -0.000009748697
            0.000015895425    -0.000019680150    0.103468839803    0.027427234259    0.000013087863    -0.000009748744    0.101358123861    0.032586476456
0.500     0.038273287735    -0.103637768129    0.000004705707    -0.000025064119    0.048059006919    -0.075140282406    0.000010527065    -0.000024386545
            0.000004705710    -0.000025064028    0.094460276380    0.034585685044    0.000011788461    -0.000011903818    0.099136610390    0.025148959464
            0.048059006919    -0.075140282406    0.000011788464    -0.000011903724    0.039605380679    -0.104022700292    0.000010987271    -0.000014033183
            0.000010527065    -0.000024386451    0.099136610390    0.025148959464    0.000010987266    -0.000014033181    0.095832228851    0.035405455177
0.525     -0.010700398225    -0.109633419667    -0.000002055715    -0.000026554022    0.008639513070    -0.085525146766    0.000003533128    -0.000027848467
            -0.000002055691    -0.000026553935    0.092906923571    0.043032767338    0.000008503317    -0.000016248492    0.096410713696    0.027668714584
            0.008639437173    -0.085525186596    0.000008503341    -0.000016248399    -0.009147556145    -0.110744525746    0.000007239287    -0.000018235435
            0.000003533152    -0.000027848379    0.096410714662    0.027668711219    0.000007239279    -0.000018235474    0.094494778215    0.043343292048
0.550     -0.058649719811    -0.092877150837    -0.000009602094    -0.000026241908    -0.032644612513    -0.076961564751    -0.000004911702    -0.000029247703
            -0.000009602050    -0.000026241830    0.098254505205    0.053670961225    0.000003313707    -0.000019776427    0.097907074154    0.033319246582
            -0.032644612513    -0.076961564751    0.000003313750    -0.000019776347    -0.057215380291    -0.094802122126    0.000001547958    -0.000021453533
            -0.000004911658    -0.000029247623    0.097907075898    0.033319241456    0.000001547959    -0.000021453533    0.099771293230    0.053403860560
0.575     -0.095142680245    -0.055804076574    -0.000017377382    -0.000023527482    -0.066786116912    -0.050182176054    -0.000014065330    -0.000027764970
            -0.000017377318    -0.000023527420    0.111011931696    0.062417036732    -0.000003543512    -0.000021403173    0.104925942488    0.039232147753
            -0.066786118511    -0.050182177256    -0.000003543477    -0.000021403132    -0.094186024484    -0.058460298854    -0.000005729699    -0.000022559704
            -0.000014065236    -0.000027764870    0.104925945912    0.039232138596    -0.000005729694    -0.000022559702    0.112146036662    0.061696349903
0.600     -0.111896109717    -0.005551332092    -0.000024361042    -0.000018127689    -0.086002473597    -0.010155594220    -0.000022665257    -0.000023018530
            -0.000024360969    -0.000018127641    0.129430760101    0.065483301328    -0.000011114387    -0.000020243166    0.117037732938    0.042263618003
            -0.086002473597    -0.010155594220    -0.000011114380    -0.000020243162    -0.111708337867    -0.008685180343    -0.000013508060    -0.000020722950
            -0.000022665177    -0.000023018481    0.117037737364    0.042263605747    -0.000013508061    -0.000020722952    0.130009644364    0.064596604678
0.625     -0.104824025409    0.047613767527    -0.000029374956    -0.000010391123    -0.085671177885    0.035015721983    -0.000029304915    -0.000015380427
            -0.000029374872    -0.000010391094    0.150049776907    0.060559688129    -0.000017991354    -0.000016097584    0.132213822766    0.039979708089
            -0.085671177885    0.035015721983    -0.000017991310    -0.000016097567    -0.105552732870    0.044379930186    -0.000020311871    -0.000015878612
            -0.000029304831    -0.000015380396    0.132213824859    0.039979701166    -0.000020311906    -0.000015878628    0.150083263155    0.059821773966
0.650     -0.075008447483    0.092692005373    -0.000031546847    -0.000001280978    -0.065421263501    0.076022378704    -0.000032956827    -0.000005911100
            -0.000031546759    -0.000001280968    0.168799815069    0.047413329659    -0.000022880804    -0.000009577395    0.147543199495    0.031350151553
            -0.065421263501    0.076022378704    -0.000022880791    -0.000009577484    -0.076613463577    0.089777472481    -0.000024877733    -0.000008792124
            -0.000032956737    -0.000005911090    0.147543192449    0.031350136599    -0.000024877732    -0.000008792128    0.168446254902    0.047085911138
0.675     -0.028340555280    0.120428221154    -0.000030617482    0.000007942779    -0.029084412396    0.104460576114    -0.000033285713    0.000004015748
            -0.000030617396    0.000007942762    0.182113472181    0.027779736436    -0.000025047906    -0.000001846809    0.160062565449    0.016863436197
            -0.029084412396    0.104460576114    -0.000025047904    -0.000001846805    -0.030594392297    0.118201179930    -0.000026591558    -0.000000728213
            -0.000033285626    0.000004015737    0.160062566067    0.016863430331    -0.000026591556    -0.000000728218    0.181636119328    0.028016803848
0.700     0.025906924102    0.125204102530    -0.000026947324    0.000016142017    0.016286117447    0.114548297860    -0.000030627702    0.000013180538
            -0.000026947269    0.000016141958    0.187724690832    0.004768313533    -0.000024466910    0.000005856239    0.167421498473    -0.001734209331
            0.016286117447    0.114548297860    -0.000024466777    0.000005856216    0.023377831575    0.123900648641    -0.000025579056    0.000007066856
            -0.000030627619    0.000013180509    0.167421498473    -0.001734209389    -0.000025579055    0.000007066856    0.187432497342    0.005583048862
0.725     0.077063732692    0.105987582792    -0.000021292994    0.000022570867    0.061927750976    0.104107495133    -0.000025723995    0.000020792201
            -0.000021292882    0.000022570796    0.185022494294    -0.017896620815    -0.000021657793    0.000012578690    0.168267175179    -0.021853346481
            0.061927750976    0.104107495133    -0.000021657755    0.000012578663    0.074710145202    0.105659741332    -0.000022482165    0.000013725310
            -0.000025723925    0.000020792152    0.168267174912    -0.021853348537    -0.000022482163    0.000013725309    0.185203277163    -0.016640854863
0.750     0.115108296826    0.066359727225    -0.000014509707    0.000026958034    0.099008305068    0.074843444820    -0.000019390479    0.000026556834
            -0.000014509649    0.000026957970    0.175100838353    -0.036619218330    -0.000017385210    0.000017857101    0.162505774678    -0.040510434910
            0.099008305068    0.074843444820    -0.000017385206    0.000017857098    0.113372570711    0.066856328085    -0.000018109166    0.000018918787
            -0.000019390413    0.000026556773    0.162505774678    -0.040510434910    -0.000018109228    0.000018918845    0.175956253101    -0.035186234779
0.775     0.132446299729    0.013785982747    -0.000007311358    0.000029418182    0.120149266565    0.032013674068    -0.000012267774    0.000030551571
            -0.000007311317    0.000029418104    0.160572281689    -0.048595336419    -0.000012357794    0.000021687493    0.151417183633    -0.054852870756
            0.120149303376    0.032013652434    -0.000012357772    0.000021687454    0.131676941043    0.014769140273    -0.000013118968    0.000022779133
            -0.000012267726    0.000030551497    0.151417174231    -0.054852867350    -0.000013118970    0.000022779126    0.162162122591    -0.047332531873
