# GHz S RI R 45
0.000     0.025891585000    0.000000000000    -0.000043753062    0.000000000000    0.000629469180    -0.000000000000    -0.000032843854    0.000000000000
            -0.000043753406    0.000000000000    0.026362530000    0.000000000000    -0.000020557265    0.000000000000    0.000428305330    0.000000000000
            0.000629388670    -0.000000000000    -0.000020556961    0.000000000000    0.025852724000    0.000000000000    -0.000016786466    0.000000000000
            -0.000032844052    0.000000000000    0.000428306670    0.000000000000    -0.000016786783    0.000000000000    0.026180244000    0.000000000000
0.025     0.033790453083    0.007112377810    -0.000039206778    -0.000042159604    0.004828946035    0.011089319838    -0.000041532305    -0.000042826729
            -0.000039206969    -0.000042159558    0.031858878776    0.008091957280    -0.000045549979    -0.000066613514    0.002869387415    0.012368071835
            0.004828858688    0.011089404774    -0.000045549703    -0.000066613585    0.033724694638    0.007071290278    -0.000042613327    -0.000058023218
            -0.000041532457    -0.000042826676    0.002869264597    0.012367904255    -0.000042613568    -0.000058023144    0.031847060689    0.008157677890
0.050     0.043961953700    0.004674468483    -0.000081117480    -0.000093963370    0.015488081690    0.017037402442    -0.000082389839    -0.000079667916
            -0.000081117638    -0.000093963287    0.036637017641    0.009891662631    -0.000103070684    -0.000111007604    0.009242463968    0.022222029072
            0.015488023465    0.017037476995    -0.000103070423    -0.000111007751    0.043904003231    0.004609655735    -0.000092752934    -0.000092161388
            -0.000082390029    -0.000079667821    0.009242493828    0.022222017736    -0.000092753191    -0.000092161257    0.036601937134    0.009876222383
0.075     0.052913859202    -0.005534403044    -0.000155201451    -0.000110664113    0.028336143430    0.014833678441    -0.000144677084    -0.000088057934
            -0.000155201525    -0.000110664043    0.039588191544    0.008982588534    -0.000183589551    -0.000122590311    0.017500373034    0.028168712166
            0.028336118662    0.014833758098    -0.000183589313    -0.000122590523    0.052885253766    -0.005619896029    -0.000160003813    -0.000098777822
            -0.000144677203    -0.000088057834    0.017500379534    0.028168711660    -0.000160004002    -0.000098777630    0.039451547290    0.008994529871
0.100     0.055923444431    -0.022453127485    -0.000237851012    -0.000088384888    0.038156128391    0.004361863787    -0.000212158711    -0.000064968027
            -0.000237851053    -0.000088384808    0.039455705081    0.006722898953    -0.000271906031    -0.000095859872    0.025334570189    0.030162164279
            0.038156141250    0.004361945002    -0.000271905819    -0.000095860171    0.055956623424    -0.022570505616    -0.000232337948    -0.000073733315
            -0.000212158825    -0.000064967859    0.025334572529    0.030162164926    -0.000232338069    -0.000073733131    0.039250968084    0.006855308282
0.125     0.049124630145    -0.042173752453    -0.000313581774    -0.000027601574    0.040382224528    -0.011578656851    -0.000272837026    -0.000010817519
            -0.000313581799    -0.000027601521    0.035655280449    0.005286236728    -0.000353915626    -0.000029597020    0.030860917398    0.029360627058
            0.040382267807    -0.011578592986    -0.000353915521    -0.000029597322    0.049248834742    -0.042372282476    -0.000298382303    -0.000016605525
            -0.000272837060    -0.000010817425    0.030860919360    0.029360627898    -0.000298382395    -0.000016605321    0.035475480612    0.005583986850
0.150     0.031368187702    -0.058848189530    -0.000369313879    0.000067767189    0.032582780890    -0.028050080983    -0.000316474369    0.000071176305
            -0.000369313879    0.000067767189    0.029087095695    0.006815772612    -0.000416320334    0.000073783993    0.033070859892    0.027734137413
            0.032582841356    -0.028050042934    -0.000416320334    0.000073783993    0.031591291639    -0.059176347645    -0.000347818860    0.000070273789
            -0.000316474369    0.000071176305    0.033070852753    0.027734141257    -0.000347818860    0.000070273789    0.029027823400    0.007259266544
0.175     0.004737540188    -0.066433077187    -0.000392454770    0.000191415949    0.015305530417    -0.039279594286    -0.000332938606    0.000176313241
            -0.000392454761    0.000191415944    0.021574237970    0.012907206926    -0.000445386760    0.000209349862    0.032250559022    0.027507712590
            0.015305606556    -0.039279585009    -0.000445386760    0.000209349862    0.005029790425    -0.066959233842    -0.000369919724    0.000183229084
            -0.000332938541    0.000176313727    0.032250562264    0.027507713411    -0.000369919715    0.000183229080    0.021710371738    0.013411418882
0.200     -0.025453962549    -0.060512402337    -0.000370924687    0.000332901094    -0.007776717919    -0.040375877865    -0.000311880096    0.000296429044
            -0.000370924301    0.000332902033    0.015748344963    0.024048276805    -0.000426809865    0.000367194892    0.029914216298    0.030391517630
            -0.007776642105    -0.040375901632    -0.000426810192    0.000367194006    -0.025167117998    -0.061292460947    -0.000352792179    0.000314813354
            -0.000311880096    0.000296429044    0.029914210823    0.030391521616    -0.000352792179    0.000314813354    0.016088951478    0.024491138087
0.225     -0.051887868632    -0.039886922926    -0.000294944052    0.000475218859    -0.030668842113    -0.028927637486    -0.000244296872    0.000417396780
            -0.000294944036    0.000475218834    0.014345548540    0.039195654799    -0.000348037362    0.000529562276    0.028328858851    0.036954291268
            -0.030668782212    -0.028927692249    -0.000348037633    0.000529561883    -0.051716241461    -0.040933882701    -0.000285180405    0.000450712031
            -0.000244296604    0.000417397157    0.028328863293    0.036954290383    -0.000285180113    0.000450712441    0.014821966350    0.039465218836
0.250     -0.067184653292    -0.007383062503    -0.000162233200    0.000595469914    -0.046661918310    -0.006008490742    -0.000127535596    0.000519222155
            -0.000162233200    0.000595469914    0.019297019909    0.055877665244    -0.000204435133    0.000670946990    0.029748479345    0.046375453661
            -0.046661890028    -0.006008561612    -0.000204435836    0.000670946358    -0.067245180831    -0.008647089516    -0.000162195136    0.000569135585
            -0.000127535596    0.000519222155    0.029748483932    0.046375451907    -0.000162195134    0.000569135576    0.019779793119    0.055920458656
0.275     -0.066082585369    0.030542251355    0.000017762067    0.000669115179    -0.050299940304    0.023848319895    0.000030429368    0.000579894544
            0.000017762067    0.000669115179    0.030998374896    0.070804420322    -0.000004632997    0.000762921583    0.035621581738    0.056678595693
            -0.050299944688    0.023848235954    -0.000004632997    0.000762921583    -0.066462136564    0.029175363952    0.000009283676    0.000644941466
            0.000030429400    0.000579894562    0.035621585695    0.056678593206    0.000009283710    0.000644941476    0.031342062256    0.070652029193
0.300     -0.047137498917    0.065332010356    0.000223746773    0.000677980879    -0.039064882562    0.053758983098    0.000210464680    0.000582895532
            0.000223746771    0.000677980911    0.048057173328    0.080854381881    0.000228584368    0.000783212557    0.046097340907    0.065389579476
            -0.039064924139    0.053758902204    0.000228584407    0.000783212535    -0.047857451313    0.064020001048    0.000209224114    0.000658027857
            0.000210465589    0.000582895757    0.046097343755    0.065389576245    0.000209224123    0.000658027844    0.048153486928    0.080621321763
0.325     -0.013319822093    0.088551962739    0.000427865772    0.000616129245    -0.014178154738    0.076311446259    0.000387129356    0.000523045748
            0.000427865772    0.000616129245    0.067646024968    0.084004957084    0.000463943342    0.000723076050    0.059989783710    0.070316772451
            -0.014178213478    0.076311391610    0.000463942878    0.000723076050    -0.014316777878    0.087457271030    0.000409424125    0.000600589650
            0.000387129827    0.000523045735    0.059989786093    0.070316767789    0.000409425058    0.000600589644    0.067465346019    0.083855521716
0.350     0.028601874640    0.094065773566    0.000604119932    0.000491281483    0.019650333411    0.085481625520    0.000536651612    0.000408076929
            0.000604119932    0.000491281483    0.086305133484    0.079918965423    0.000671164665    0.000589592842    0.075170366192    0.070187563700
            0.019650249629    0.085481602710    0.000671164673    0.000589592848    0.027472772625    0.093310049935    0.000582406371    0.000479646333
            0.000536651604    0.000408076923    0.075170368642    0.070187561076    0.000582407264    0.000479646130    0.085913419282    0.080016600739
0.375     0.069629600072    0.079530064472    0.000734827998    0.000320390659    0.055326912569    0.078071742000    0.000643346667    0.000254526908
            0.000734828418    0.000320390446    0.100869878433    0.069983122238    0.000828945221    0.000401161647    0.089159721301    0.064947385656
            0.055326871027    0.078071746926    0.000828944817    0.000401161862    0.068568905104    0.079155010458    0.000709252265    0.000313007299
            0.000643346657    0.000254526904    0.089159723568    0.064947382543    0.000709252673    0.000313007095    0.100416235971    0.070439662491
0.400     0.100513773688    0.046975497907    0.000813103936    0.000122833324    0.084915765460    0.054458702150    0.000702158158    0.000081100970
            0.000813104642    0.000122832738    0.109257293876    0.056923894457    0.000928376056    0.000179767645    0.099758749774    0.055759139534
            0.084915689968    0.054458745767    0.000928376066    0.000179767647    0.099734782059    0.046919286475    0.000783162482    0.000121850746
            0.000702158158    0.000081100976    0.099758742018    0.055759132914    0.000783162471    0.000121850749    0.108937699233    0.057761897816
0.425     0.113694743110    0.002480561297    0.000840245612    -0.000085771945    0.101260894143    0.018626474596    0.000716252908    -0.000097575030
            0.000840245612    -0.000085771945    0.110939480861    0.044126047816    0.000970493006    -0.000056574654    0.105572945881    0.044733414390
            0.101260850334    0.018626546931    0.000970492736    -0.000056574300    0.113372145897    0.002573904527    0.000807327478    -0.000076849586
            0.000716252908    -0.000097575027    0.105572946662    0.044733412548    0.000807327479    -0.000076849578    0.110946194943    0.045263512086
0.450     0.104947685394    -0.044873624186    0.000820503850    -0.000296521742    0.099519317360    -0.022405917525    0.000691761221    -0.000274131046
            0.000820503835    -0.000296521752    0.107093696723    0.034851060857    0.000960231587    -0.000297799133    0.106414461223    0.034473964861
            0.099519305690    -0.022405832774    0.000960231217    -0.000297798301    0.105163135268    -0.044887452707    0.000788988365    -0.000274604314
            0.000691761249    -0.000274131057    0.106414461223    0.034473964861    0.000788988398    -0.000274604279    0.107561178636    0.036112580192
0.475     0.074522409118    -0.084657628918    0.000755013539    -0.000505694332    0.078418320970    -0.059761677868    0.000631478299    -0.000447199394
            0.000755013531    -0.000505694326    0.100395819009    0.031431084843    0.000898982047    -0.000540547092    0.103468839324    0.027427236065
            0.078418344294    -0.059761596119    0.000898982047    -0.000540547092    0.075216321741    -0.085080783183    0.000731788400    -0.000470590914
            0.000631478300    -0.000447199411    0.103468839803    0.027427234259    0.000731788480    -0.000470591363    0.101358123861    0.032586476456
0.500     0.027573398337    -0.107237666579    0.000638530075    -0.000709131391    0.041012585624    -0.084487983263    0.000531081549    -0.000615822624
            0.000638530068    -0.000709131384    0.094460276380    0.034585685044    0.000780062467    -0.000781733004    0.099136610390    0.025148959464
            0.041012638772    -0.084487916335    0.000780062521    -0.000781732102    0.028496157601    -0.108364446577    0.000630621616    -0.000665395241
            0.000531081553    -0.000615822607    0.099136610390    0.025148959464    0.000630621609    -0.000665395234    0.095832228851    0.035405455177
0.525     -0.026462611243    -0.106125557507    0.000461615276    -0.000894712614    -0.005562091908    -0.089806024147    0.000380771329    -0.000771620249
            0.000461615148    -0.000894713017    0.092906923571    0.043032767338    0.000590608259    -0.001010326498    0.096410713696    0.027668714584
            -0.005562015581    -0.089805985792    0.000590608259    -0.001010326498    -0.025936111704    -0.108324981792    0.000472773567    -0.000852393387
            0.000380771192    -0.000771620718    0.096410714662    0.027668711219    0.000472773572    -0.000852393396    0.094494778215    0.043343292048
0.550     -0.075715933461    -0.079983675546    0.000219468365    -0.001038442609    -0.049725681928    -0.073226451876    0.000173793247    -0.000894126487
            0.000219468347    -0.001038442612    0.098254505205    0.053670961225    0.000331149676    -0.001190081146    0.097907074154    0.033319246582
            -0.049725591623    -0.073226456387    0.000331150180    -0.001190080383    -0.073569844158    -0.083644378060    0.000255807784    -0.001001365049
            0.000173793284    -0.000894126510    0.097907075898    0.033319241456    0.000255807802    -0.001001365045    0.099771293230    0.053403860560
0.575     -0.108746059338    -0.033348831041    -0.000078163224    -0.001108702672    -0.083689063504    -0.036198740804    -0.000083368496    -0.000954363510
            -0.000078163224    -0.001108702672    0.111011931696    0.062417036732    -0.000012656961    -0.001296249608    0.104925942488    0.039232147753
            -0.083689024252    -0.036198758504    -0.000012656961    -0.001296249608    -0.108138225767    -0.037017854092    -0.000035348638    -0.001089360237
            -0.000083368511    -0.000954363488    0.104925945912    0.039232138596    -0.000035348638    -0.001089360237    0.112146036662    0.061696349903
0.600     -0.117364622285    0.023968520411    -0.000400674138    -0.001078362388    -0.097570349059    0.012494186269    -0.000364363836    -0.000926218147
            -0.000400673915    -0.001078362364    0.129430760101    0.065483301328    -0.000391436924    -0.001290024998    0.117037732938    0.042263618003
            -0.097570292317    0.012494109769    -0.000391436924    -0.001290024998    -0.118310439069    0.019989261387    -0.000358732952    -0.001080357399
            -0.000364364578    -0.000926218607    0.117037737364    0.042263605747    -0.000358732920    -0.001080357304    0.130009644364    0.064596604678
0.625     -0.100035902997    0.079030304168    -0.000703376171    -0.000944139775    -0.088607269841    0.062574851724    -0.000628578648    -0.000804904140
            -0.000703376171    -0.000944139775    0.150049776907    0.060559688129    -0.000760569154    -0.001156957975    0.132213822766    0.039979708089
            -0.088607234505    0.062574780414    -0.000760569154    -0.001156957975    -0.102060038865    0.075913140657    -0.000674078794    -0.000959561323
            -0.000628578648    -0.000804904140    0.132213824859    0.039979701166    -0.000674078794    -0.000959561323    0.150083263155    0.059821773966
0.650     -0.060313432879    0.121555112520    -0.000951898754    -0.000718526688    -0.058446765081    0.104269336889    -0.000843284510    -0.000601199047
            -0.000951898754    -0.000718526688    0.168799815069    0.047413329659    -0.001070237100    -0.000909783695    0.147543199495    0.031350151553
            -0.058446790339    0.104269253948    -0.001070237100    -0.000909783695    -0.062858607450    0.119055344599    -0.000935315608    -0.000737766976
            -0.000843284510    -0.000601199047    0.147543192449    0.031350136599    -0.000935315608    -0.000737766976    0.168446254902    0.047085911138
0.675     -0.005972295821    0.142425207284    -0.001115135075    -0.000430809636    -0.012970522588    0.128840105087    -0.000979189764    -0.000342643594
            -0.001115135075    -0.000430809636    0.182113472181    0.027779736436    -0.001284244269    -0.000582730664    0.160062565449    0.016863436197
            -0.012970543317    0.128840062798    -0.001284244269    -0.000582730664    -0.008905561723    0.140754433031    -0.001108638797    -0.000446774131
            -0.000979189764    -0.000342643594    0.160062566067    0.016863430331    -0.001108638797    -0.000446774131    0.181636119328    0.028016803848
0.700     0.051887880057    0.137643931809    -0.001183886145    -0.000118733320    0.038807562043    0.131472277852    -0.001027867410    -0.000065291129
            -0.001183886145    -0.000118733320    0.187724690832    0.004768313533    -0.001388046511    -0.000218985557    0.167421498473    -0.001734209331
            0.038807496869    0.131472234530    -0.001388046511    -0.000218985557    0.048955523702    0.136951173085    -0.001180917585    -0.000127641221
            -0.001027867410    -0.000065291129    0.167421498473    -0.001734209389    -0.001180917585    -0.000127641221    0.187432497342    0.005583048862
0.725     0.101933171701    0.108316908798    -0.001165633252    0.000185432626    0.086959715055    0.111554009832    -0.000997550078    0.000199782314
            -0.001165633252    0.000185432626    0.185022494294    -0.017896620815    -0.001387357129    0.000141836381    0.168267175179    -0.021853346481
            0.086959635333    0.111553995901    -0.001387357129    0.000141836381    0.099454673969    0.108542595976    -0.001159081671    0.000181707978
            -0.000997550078    0.000199782314    0.168267174912    -0.021853348537    -0.001159081671    0.000181707978    0.185203277163    -0.016640854863
0.750     0.134437706829    0.060052846626    -0.001077736952    0.000460573310    0.122205212311    0.072532704568    -0.000906701981    0.000432626770
            -0.001077736952    0.000460573310    0.175100838353    -0.036619218330    -0.001301580166    0.000472306305    0.162505774678    -0.040510434910
            0.122205131599    0.072532723001    -0.001301580166    0.000472306305    0.132814580619    0.060931765567    -0.001064006452    0.000455430692
            -0.000906701981    0.000432626770    0.162505774678    -0.040510434910    -0.001064006452    0.000455430692    0.175956253101    -0.035186234779
0.775     0.142777295242    0.001979736346    -0.000939510183    0.000698439952    0.137309188580    0.021413526550    -0.000776046312    0.000626718158
            -0.000939510183    0.000698439952    0.160572281689    -0.048595336419    -0.001154244369    0.000760800703    0.151417183633    -0.054852870756
            0.137309120065    0.021413576498    -0.001154244369    0.000760800703    0.142271847210    0.003078507435    -0.000921093629    0.000684032074
            -0.000776046312    0.000626718158    0.151417174231    -0.054852867350    -0.000921093629    0.000684032074    0.162162122591    -0.047332531873
