# GHz S RI R 45
0.000     0.027019580000    0.000000000000    0.000080285669    -0.000000000000    0.000585008900    0.000000000000    0.000059382685    -0.000000000000
            0.000080285671    -0.000000000000    0.026362530000    0.000000000000    0.000049958422    -0.000000000000    0.000428305330    0.000000000000
            0.000585009900    0.000000000000    0.000049958407    -0.000000000000    0.026992521000    0.000000000000    0.000060003434    -0.000000000000
            0.000059382725    -0.000000000000    0.000428306670    0.000000000000    0.000060003359    -0.000000000000    0.026180244000    0.000000000000
0.025     0.033284300237    0.008457924989    0.000098113885    0.000036025907    0.003425512989    0.012913882714    0.000096955278    0.000047586460
            0.000098113886    0.000036025905    0.031858878776    0.008091957280    0.000100515457    0.000057234955    0.002869387415    0.012368071835
            0.003425389773    0.012913714689    0.000100515538    0.000057234936    0.033186375958    0.008394500724    0.000092188495    0.000044578424
            0.000096955318    0.000047586446    0.002869264597    0.012367904255    0.000092188405    0.000044578428    0.031847060689    0.008157677890
0.050     0.038774021961    0.009814435841    0.000115061496    0.000056254102    0.010612489351    0.022742074520    0.000120348393    0.000058903177
            0.000115061496    0.000056254102    0.036637017641    0.009891662631    0.000129419350    0.000064681380    0.009242463968    0.022222029072
            0.010612519569    0.022742062626    0.000129419380    0.000064681386    0.038575313085    0.009747529370    0.000113364224    0.000058506319
            0.000120348433    0.000058903187    0.009242493828    0.022222017736    0.000113364225    0.000058506317    0.036601937134    0.009876222383
0.075     0.042141982731    0.007827953676    0.000134201948    0.000072827392    0.019626888433    0.027918457087    0.000138365991    0.000069396387
            0.000134201939    0.000072827387    0.039588191544    0.008982588534    0.000148845004    0.000072436094    0.017500373034    0.028168712166
            0.019626894056    0.027918456801    0.000148845043    0.000072436106    0.041839231968    0.007847636792    0.000131008039    0.000071200434
            0.000138366030    0.000069396398    0.017500379534    0.028168711660    0.000131008041    0.000071200432    0.039451547290    0.008994529871
0.100     0.041676225837    0.004084384382    0.000156469740    0.000085094368    0.027610329325    0.028542697404    0.000157577992    0.000077953153
            0.000156469739    0.000085094371    0.039455705081    0.006722898953    0.000168566580    0.000078945520    0.025334570189    0.030162164279
            0.027610330020    0.028542698123    0.000168566637    0.000078945540    0.041329167995    0.004265872530    0.000150360212    0.000081668437
            0.000157578041    0.000077953167    0.025334572529    0.030162164926    0.000150360221    0.000081668442    0.039250968084    0.006855308282
0.125     0.036540020422    0.001351885771    0.000181100367    0.000091960332    0.032313556664    0.026271533454    0.000178388104    0.000083081124
            0.000181100359    0.000091960328    0.035655280449    0.005286236728    0.000189436839    0.000082423395    0.030860917398    0.029360627058
            0.032313558216    0.026271534716    0.000189436900    0.000082423406    0.036253700652    0.001720968906    0.000171633191    0.000088489630
            0.000178388164    0.000083081137    0.030860919360    0.029360627898    0.000171633200    0.000088489635    0.035475480612    0.005583986850
0.150     0.027761288510    0.002399408071    0.000206895667    0.000093680871    0.032741007215    0.023755615422    0.000200231346    0.000084566874
            0.000206895665    0.000093680875    0.029087095695    0.006815772612    0.000211063636    0.000082495800    0.033070859892    0.027734137413
            0.032741009248    0.023755616025    0.000211063708    0.000082495808    0.027643035394    0.002911373629    0.000194145232    0.000091514961
            0.000200231419    0.000084566880    0.033070852753    0.027734141257    0.000194145241    0.000091514965    0.029027823400    0.007259266544
0.175     0.017775153446    0.009386793406    0.000232914677    0.000090067642    0.029642225970    0.023811984784    0.000222559906    0.000082040587
            0.000232914675    0.000090067646    0.021574237970    0.012907206926    0.000232977300    0.000078778514    0.032250559022    0.027507712590
            0.029642229140    0.023811985628    0.000232977376    0.000078778508    0.017892593967    0.009930355469    0.000217304238    0.000090398503
            0.000222559982    0.000082040584    0.032250562264    0.027507713411    0.000217304238    0.000090398503    0.021710371738    0.013411418882
0.200     0.010117966203    0.022894160345    0.000258399312    0.000081385936    0.025330411087    0.028376632003    0.000244872026    0.000075500488
            0.000258399312    0.000081385936    0.015748344963    0.024048276805    0.000254746003    0.000071237830    0.029914216298    0.030391517630
            0.025330405469    0.028376635678    0.000254746080    0.000071237813    0.010459201194    0.023327414150    0.000240591246    0.000085179852
            0.000244872114    0.000075500473    0.029914210823    0.030391521616    0.000240591246    0.000085179852    0.016088951478    0.024491138087
0.225     0.008400885703    0.041369485562    0.000282220533    0.000067613637    0.022928636288    0.037700138080    0.000266314059    0.000064685210
            0.000282220533    0.000067613637    0.014345548540    0.039195654799    0.000275566573    0.000059593346    0.028328858851    0.036954291268
            0.022928639439    0.037700137334    0.000275566641    0.000059593315    0.008865970254    0.041576284460    0.000263174050    0.000075606123
            0.000266314148    0.000064685182    0.028328863293    0.036954290383    0.000263173613    0.000075606341    0.014821966350    0.039465218836
0.250     0.015006622302    0.061333281468    0.000303345269    0.000049188834    0.025235375163    0.050140584266    0.000285961408    0.000049718224
            0.000303345269    0.000049188831    0.019297019909    0.055877665244    0.000294548449    0.000043944237    0.029748479345    0.046375453661
            0.025235379539    0.050140582064    0.000294548516    0.000043944197    0.015436873044    0.061274643951    0.000284157886    0.000061778290
            0.000285961487    0.000049718182    0.029748483932    0.046375451907    0.000284157898    0.000061778283    0.019779793119    0.055920458656
0.275     0.030104454756    0.078336923413    0.000320408763    0.000026941224    0.033662312263    0.062680997219    0.000302520922    0.000031095360
            0.000320408753    0.000026941226    0.030998374896    0.070804420322    0.000310419719    0.000024764918    0.035621581738    0.056678595693
            0.033662315072    0.062680994575    0.000310419773    0.000024764871    0.030338652232    0.078076126755    0.000302258328    0.000044128049
            0.000302520988    0.000031095305    0.035621585695    0.056678593206    0.000302258340    0.000044128039    0.031342062256    0.070652029193
0.300     0.051422369894    0.088399209795    0.000332657336    0.000002307695    0.047715755513    0.071987526840    0.000315108949    0.000009967647
            0.000332657336    0.000002307686    0.048057173328    0.080854381881    0.000322309098    0.000003192656    0.046097340907    0.065389579476
            0.047715758730    0.071987523508    0.000322309148    0.000003192612    0.051359091536    0.088086904558    0.000316553702    0.000023741916
            0.000315109001    0.000009967581    0.046097343755    0.065389576245    0.000316553713    0.000023741907    0.048153486928    0.080621321763
0.325     0.074901987437    0.089257941974    0.000339778302    -0.000022897881    0.065189506622    0.075498024025    0.000323252242    -0.000012069318
            0.000339778302    -0.000022897890    0.067646024968    0.084004957084    0.000329758616    -0.000019186444    0.059989783710    0.070316772451
            0.065189509268    0.075498019098    0.000329758653    -0.000019186493    0.074539717106    0.089084858181    0.000326497622    0.000002169462
            0.000323252289    -0.000012069389    0.059989786093    0.070316767789    0.000326497633    0.000002169449    0.067465346019    0.083855521716
0.350     0.095902002036    0.081024537887    0.000342526491    -0.000047024766    0.082889314135    0.072157566542    0.000327458561    -0.000033429805
            0.000342526480    -0.000047024774    0.086305133484    0.079918965423    0.000333290265    -0.000040796611    0.075170366192    0.070187563700
            0.082889315394    0.072157565095    0.000333290310    -0.000040796658    0.095347771237    0.081160089669    0.000332509530    -0.000018997038
            0.000327458595    -0.000033429867    0.075170368642    0.070187561076    0.000332509539    -0.000018997053    0.085913419282    0.080016600739
0.375     0.110454848848    0.066071746079    0.000342142336    -0.000068895234    0.097510064826    0.062630490621    0.000328796015    -0.000052920783
            0.000342142335    -0.000068895240    0.100869878433    0.069983122238    0.000333988285    -0.000060461357    0.089159721301    0.064947385656
            0.097510065919    0.062630488919    0.000333988318    -0.000060461399    0.109898129726    0.066608901050    0.000335584768    -0.000038522397
            0.000328796046    -0.000052920843    0.089159723568    0.064947382543    0.000335584766    -0.000038522408    0.100416235971    0.070439662491
0.400     0.116237554282    0.048403688515    0.000340274878    -0.000088237140    0.106448930426    0.049133379859    0.000328790364    -0.000070142381
            0.000340274878    -0.000088237140    0.109257293876    0.056923894457    0.000333388455    -0.000077807345    0.099758749774    0.055759139534
            0.106448931283    0.049133378001    0.000333388486    -0.000077807389    0.115901301137    0.049323217294    0.000337212393    -0.000055930083
            0.000328790384    -0.000070142434    0.099758742018    0.055759132914    0.000337212391    -0.000055930096    0.108937699233    0.057761897816
0.425     0.113122263893    0.032708167749    0.000338275978    -0.000105458355    0.108447662549    0.034970707322    0.000328803235    -0.000085396089
            0.000338275968    -0.000105458352    0.110939480861    0.044126047816    0.000332844179    -0.000093169780    0.105572945881    0.044733414390
            0.108447663160    0.034970705429    0.000332844219    -0.000093169823    0.113200874365    0.033872939071    0.000338765548    -0.000071447591
            0.000328803263    -0.000085396139    0.105572946662    0.044733412548    0.000338765547    -0.000071447597    0.110946194943    0.045263512086
0.450     0.103329247712    0.023291688568    0.000337079653    -0.000121612177    0.104070480043    0.023834767423    0.000329857179    -0.000099644874
            0.000337079646    -0.000121612168    0.107093696723    0.034851060857    0.000333347547    -0.000107533512    0.106414461223    0.034473964861
            0.104070480043    0.023834767423    0.000333347585    -0.000107533556    0.103927776453    0.024470586607    0.000341322258    -0.000085973794
            0.000329857205    -0.000099644926    0.106414461223    0.034473964861    0.000341322258    -0.000085973794    0.107561178636    0.036112580192
0.475     0.091109973621    0.022934453458    0.000336912503    -0.000137884643    0.095845948650    0.018812722653    0.000332333272    -0.000114125933
            0.000336912503    -0.000137884643    0.100395819009    0.031431084843    0.000335234238    -0.000122128111    0.103468839324    0.027427236065
            0.095845948650    0.018812722653    0.000335234568    -0.000122128550    0.092201637742    0.023858906175    0.000345352893    -0.000100736222
            0.000332333305    -0.000114125990    0.103468839803    0.027427234259    0.000345352892    -0.000100736228    0.101358123861    0.032586476456
0.500     0.081848461994    0.031874381235    0.000337405342    -0.000155493215    0.087841633323    0.021271315405    0.000335973755    -0.000130202371
            0.000337405342    -0.000155493215    0.094460276380    0.034585685044    0.000338211259    -0.000138276754    0.099136610390    0.025148959464
            0.087841633323    0.021271315405    0.000338211288    -0.000138276814    0.083267411686    0.032312577878    0.000350685642    -0.000117152011
            0.000335973249    -0.000130201629    0.099136610390    0.025148959464    0.000350685649    -0.000117152020    0.095832228851    0.035405455177
0.525     0.080515953232    0.047310900036    0.000337583791    -0.000175263635    0.084465781250    0.030029817110    0.000339801016    -0.000148970942
            0.000337583794    -0.000175263629    0.092906923571    0.043032767338    0.000341308238    -0.000157006876    0.096410713696    0.027668714584
            0.084465784707    0.030029813358    0.000341308262    -0.000157006945    0.081989311576    0.047128754229    0.000356384889    -0.000136436110
            0.000339801044    -0.000148971003    0.096410714662    0.027668711219    0.000356384899    -0.000136436114    0.094494778215    0.043343292048
0.550     0.089898601697    0.063963297065    0.000336039259    -0.000197527101    0.088812095690    0.041481557759    0.000342236296    -0.000170987855
            0.000336039271    -0.000197527100    0.098254505205    0.053670961225    0.000342998625    -0.000178821048    0.097907074154    0.033319246582
            0.088812095690    0.041481557759    0.000342998645    -0.000178821119    0.091075150630    0.063175168034    0.000360827643    -0.000159271246
            0.000342236335    -0.000170987934    0.097907075898    0.033319241456    0.000360827650    -0.000159271256    0.099771293230    0.053403860560
0.575     0.109414855685    0.075739606467    0.000331214249    -0.000221692133    0.101409382305    0.050860429459    0.000341425170    -0.000195806662
            0.000331214267    -0.000221692161    0.111011931696    0.062417036732    0.000341512686    -0.000203264534    0.104925942488    0.039232147753
            0.101409373366    0.050860424976    0.000341512685    -0.000203264614    0.109972421961    0.074602935004    0.000362045754    -0.000185313568
            0.000341425205    -0.000195806761    0.104925945912    0.039232138596    0.000362045774    -0.000185313594    0.112146036662    0.061696349903
0.600     0.135265216855    0.077846273630    0.000321954657    -0.000246291174    0.120123951957    0.053931240114    0.000335876747    -0.000221903555
            0.000321954650    -0.000246291133    0.129430760101    0.065483301328    0.000335430985    -0.000228856349    0.117037732938    0.042263618003
            0.120123954781    0.053931233825    0.000335430986    -0.000228856418    0.135118986233    0.076767366678    0.000358377706    -0.000213061283
            0.000335876759    -0.000221903681    0.117037737364    0.042263605747    0.000358377341    -0.000213060431    0.130009644364    0.064596604678
0.625     0.161815131346    0.068284285917    0.000308116190    -0.000269213366    0.140995640529    0.048311772021    0.000325171533    -0.000246975794
            0.000308116190    -0.000269213366    0.150049776907    0.060559688129    0.000324371613    -0.000253358808    0.132213822766    0.039979708089
            0.140995633598    0.048311761397    0.000324371609    -0.000253358878    0.161112196584    0.067617575592    0.000349236529    -0.000240131927
            0.000325171523    -0.000246975840    0.132213824859    0.039979701166    0.000349236358    -0.000240131522    0.150083263155    0.059821773966
0.650     0.183435444408    0.048144970511    0.000290772064    -0.000288537090    0.159627029916    0.033956443538    0.000310259623    -0.000268787241
            0.000290772042    -0.000288537169    0.168799815069    0.047413329659    0.000309289413    -0.000274610166    0.147543199495    0.031350151553
            0.159627029916    0.033956443538    0.000309289397    -0.000274610229    0.182464135567    0.048114339456    0.000335482450    -0.000264132622
            0.000310259630    -0.000268787294    0.147543192449    0.031350136599    0.000335482490    -0.000264132539    0.168446254902    0.047085911138
0.675     0.195903921645    0.020929437062    0.000271939032    -0.000303161020    0.172295308026    0.012790324803    0.000293181001    -0.000285939806
            0.000271939023    -0.000303161042    0.182113472181    0.027779736436    0.000292201131    -0.000291280271    0.160062565449    0.016863436197
            0.172295308026    0.012790324803    0.000292201115    -0.000291280358    0.195018950646    0.021594495677    0.000319154900    -0.000283497818
            0.000293181005    -0.000285939831    0.160062566067    0.016863430331    0.000319154900    -0.000283497848    0.181636119328    0.028016803848
0.700     0.197133441110    -0.008509106013    0.000253891066    -0.000313211890    0.176574021723    -0.011930734201    0.000276374703    -0.000298312390
            0.000253891085    -0.000313211836    0.187724690832    0.004768313533    0.000275494610    -0.000303304283    0.167421498473    -0.001734209331
            0.176574021723    -0.011930734201    0.000275494593    -0.000303304339    0.196679959649    -0.007260071753    0.000302770314    -0.000297966948
            0.000276374728    -0.000298312449    0.167421498473    -0.001734209389    0.000302770358    -0.000297966960    0.187432497342    0.005583048862
0.725     0.187345135453    -0.034966644341    0.000238529292    -0.000319921508    0.171604173264    -0.036214237394    0.000261979182    -0.000307013848
            0.000238529263    -0.000319921517    0.185022494294    -0.017896620815    0.000261237378    -0.000311822910    0.168267175179    -0.021853346481
            0.171604162848    -0.036214238324    0.000261237361    -0.000311822989    0.187585713452    -0.033400681310    0.000288590067    -0.000308569117
            0.000261979108    -0.000307013924    0.168267174912    -0.021853348537    0.000288590015    -0.000308569125    0.185203277163    -0.016640854863
0.750     0.169007319426    -0.053758479533    0.000226859975    -0.000325280178    0.158329222368    -0.055887077407    0.000251286049    -0.000314032119
            0.000226859924    -0.000325280189    0.175100838353    -0.036619218330    0.000250622792    -0.000318824266    0.162505774678    -0.040510434910
            0.158329222368    -0.055887077407    0.000250622720    -0.000318824323    0.170057762489    -0.052251736857    0.000278051251    -0.000317273620
            0.000251285977    -0.000314032176    0.162505774678    -0.040510434910    0.000278051297    -0.000317273606    0.175956253101    -0.035186234779
0.775     0.146602833156    -0.061576835949    0.000218814956    -0.000331481257    0.139655546421    -0.067334590000    0.000244468126    -0.000321721815
            0.000218814961    -0.000331481266    0.160572281689    -0.048595336419    0.000243730259    -0.000326598710    0.151417183633    -0.054852870756
            0.139655546421    -0.067334590000    0.000243730214    -0.000326598769    0.148382214185    -0.060543681648    0.000271467255    -0.000326491165
            0.000244468077    -0.000321721890    0.151417174231    -0.054852867350    0.000271467255    -0.000326491165    0.162162122591    -0.047332531873
0.800     0.126086736258    -0.057476153695    0.000213283731    -0.000340377403    0.120325069317    -0.068560247044    0.000240559239    -0.000332225401
