# GHz S RI R 45
0.000     0.027374954000    0.000000000000    0.000014569674    0.000000000000    0.000417896840    0.000000000000    0.000023611570    0.000000000000
            0.000014569572    0.000000000000    0.026362530000    0.000000000000    0.000042906828    0.000000000000    0.000428305330    0.000000000000
            0.000417872120    0.000000000000    0.000042906640    0.000000000000    0.027290030000    0.000000000000    0.000022764137    0.000000000000
            0.000023611284    0.000000000000    0.000428306670    0.000000000000    0.000022764148    0.000000000000    0.026180244000    0.000000000000
0.025     0.033894433645    0.008722176883    -0.000045849395    -0.000021395212    0.003411940883    0.013346004697    -0.000028627742    -0.000017914412
            -0.000045849495    -0.000021395209    0.031858878776    0.008091957280    -0.000042224912    -0.000033473725    0.002869387415    0.012368071835
            0.003411791216    0.013345838591    -0.000042225089    -0.000033473710    0.033782993678    0.008695424019    -0.000021191836    -0.000009336885
            -0.000028628017    -0.000017914389    0.002869264597    0.012367904255    -0.000021191828    -0.000009336881    0.031847060689    0.008157677890
0.050     0.039928826659    0.009843143592    -0.000057585292    0.000021173125    0.011257724123    0.023272453230    -0.000038108568    0.000019538259
            -0.000057585395    0.000021173128    0.036637017641    0.009891662631    -0.000060066799    0.000022918999    0.009242463968    0.022222029072
            0.011257728821    0.023272444292    -0.000060066986    0.000022919023    0.039759229605    0.009831574184    -0.000025575323    0.000028717694
            -0.000038108856    0.000019538289    0.009242493828    0.022222017736    -0.000025575314    0.000028717695    0.036601937134    0.009876222383
0.075     0.043605737362    0.007060137811    -0.000043119853    0.000050512312    0.020900997268    0.027883084329    -0.000025229564    0.000045322306
            -0.000043119964    0.000050512318    0.039588191544    0.008982588534    -0.000042733241    0.000061789540    0.017500373034    0.028168712166
            0.020900976184    0.027883087636    -0.000042733424    0.000061789574    0.043388523770    0.007130377434    -0.000009687292    0.000054980419
            -0.000025229793    0.000045322345    0.017500379534    0.028168711660    -0.000009687281    0.000054980422    0.039451547290    0.008994529871
0.100     0.042806744699    0.002223516354    -0.000020269470    0.000067913047    0.028989367192    0.027446387524    -0.000004839387    0.000060726003
            -0.000020269578    0.000067913063    0.039455705081    0.006722898953    -0.000013840281    0.000085187808    0.025334570189    0.030162164279
            0.028989340970    0.027446393402    -0.000013840459    0.000085187853    0.042607527168    0.002421907736    0.000013786938    0.000070491282
            -0.000004839668    0.000060726063    0.025334572529    0.030162164926    0.000013786961    0.000070491283    0.039250968084    0.006855308282
0.125     0.036507170519    -0.001390555498    0.000004984407    0.000075096837    0.032980359054    0.024071763929    0.000017661736    0.000067185601
            0.000004984313    0.000075096858    0.035655280449    0.005286236728    0.000018431176    0.000095345448    0.030860917398    0.029360627058
            0.032980331878    0.024071772327    0.000018430996    0.000095345500    0.036424468309    -0.001081415984    0.000039299014    0.000076407166
            0.000017661483    0.000067185674    0.030860919360    0.029360627898    0.000039299024    0.000076407170    0.035475480612    0.005583986850
0.150     0.025962965971    -0.000460187019    0.000029870343    0.000073765787    0.031934097126    0.020984002285    0.000039985762    0.000066146919
            0.000029870249    0.000073765815    0.029087095695    0.006815772612    0.000050570728    0.000094454836    0.033070859892    0.027734137413
            0.031934070466    0.020984011899    0.000050570560    0.000094454892    0.026070418724    -0.000109098811    0.000064402537    0.000074147340
            0.000039985498    0.000066147008    0.033070852753    0.027734141257    0.000064402554    0.000074147342    0.029027823400    0.007259266544
0.175     0.014133569718    0.007540422327    0.000052198568    0.000065439400    0.027023659469    0.021471759612    0.000060129633    0.000058912390
            0.000052198468    0.000065439437    0.021574237970    0.012907206926    0.000079581927    0.000084483187    0.032250559022    0.027507712590
            0.027023642304    0.021471766748    0.000079581761    0.000084483247    0.014460545637    0.007814194694    0.000086887030    0.000065146808
            0.000060129420    0.000058912474    0.032250562264    0.027507713411    0.000086887045    0.000065146805    0.021710371738    0.013411418882
0.200     0.005292991269    0.023177884438    0.000070747754    0.000051522783    0.021253656489    0.027606491028    0.000077076593    0.000046704363
            0.000070747652    0.000051522826    0.015748344963    0.024048276805    0.000103947670    0.000067292332    0.029914216298    0.030391517630
            0.021253631147    0.027606502967    0.000103947516    0.000067292404    0.005790600505    0.023240365843    0.000105706183    0.000050832331
            0.000077076437    0.000046704436    0.029914210823    0.030391521616    0.000105706197    0.000050832324    0.016088951478    0.024491138087
0.225     0.003708841976    0.044402044998    0.000084404206    0.000033608249    0.018442269403    0.039304337849    0.000089800743    0.000030884432
            0.000084404111    0.000033608297    0.014345548540    0.039195654799    0.000122228115    0.000044937429    0.028328858851    0.036954291268
            0.018442245132    0.039304350342    0.000122227959    0.000044937505    0.004248000007    0.044157937455    0.000119815785    0.000032723707
            0.000089800499    0.000030884553    0.028328863293    0.036954290383    0.000119815808    0.000032723701    0.014821966350    0.039465218836
0.250     0.012023176802    0.066868606021    0.000092675659    0.000013228409    0.021773226527    0.054185126635    0.000097906755    0.000012766732
            0.000092675571    0.000013228460    0.019297019909    0.055877665244    0.000133918589    0.000019336804    0.029748479345    0.046375453661
            0.021773201165    0.054185140059    0.000133918612    0.000019336791    0.012427566358    0.066307490112    0.000128930766    0.000012246740
            0.000097906515    0.000012766863    0.029748483932    0.046375451907    0.000128930787    0.000012246731    0.019779793119    0.055920458656
0.275     0.030087299092    0.085223426329    0.000095421011    -0.000007879572    0.032523788419    0.068370266365    0.000101189665    -0.000006169721
            0.000095420962    -0.000007879544    0.030998374896    0.070804420322    0.000138808839    -0.000007410350    0.035621581738    0.056678595693
            0.032523773336    0.068370274648    0.000138808442    -0.000007410093    0.030191313089    0.084438695595    0.000132879214    -0.000009071589
            0.000101189423    -0.000006169580    0.035621585695    0.056678593206    0.000132879223    -0.000009071597    0.031342062256    0.070652029193
0.300     0.054824959058    0.094909857480    0.000093101523    -0.000028323113    0.049583007169    0.077886934801    0.000100034426    -0.000024724379
            0.000093101439    -0.000028323052    0.048057173328    0.080854381881    0.000137471383    -0.000033657115    0.046097340907    0.065389579476
            0.049583007454    0.077886932249    0.000137471390    -0.000033657127    0.054532840836    0.094076970630    0.000132124452    -0.000030029388
            0.000100034196    -0.000024724227    0.046097343755    0.065389576245    0.000132124469    -0.000030029404    0.048153486928    0.080621321763
0.325     0.081182631924    0.093632624919    0.000086516931    -0.000046920912    0.069879421473    0.079981642088    0.000095030919    -0.000041840558
            0.000086516932    -0.000046920913    0.067646024968    0.084004957084    0.000130743820    -0.000057964904    0.059989783710    0.070316772451
            0.069879385178    0.079981673798    0.000130743827    -0.000057964912    0.080504023374    0.092960093610    0.000127232546    -0.000049555111
            0.000095030153    -0.000041839991    0.059989786093    0.070316767789    0.000127232562    -0.000049555125    0.067465346019    0.083855521716
0.350     0.103662259331    0.081993515056    0.000076624237    -0.000063095744    0.089389400236    0.073879539583    0.000087000006    -0.000056966783
            0.000076624231    -0.000063095741    0.086305133484    0.079918965423    0.000119732503    -0.000079594151    0.075170366192    0.070187563700
            0.089389400236    0.073879539583    0.000119732518    -0.000079594164    0.102715993721    0.081661841082    0.000119041220    -0.000067091347
            0.000087000010    -0.000056966795    0.075170368642    0.070187561076    0.000119041234    -0.000067091363    0.085913419282    0.080016600739
0.375     0.117793926379    0.063211385449    0.000064324381    -0.000076557969    0.104214874182    0.060891633558    0.000076678030    -0.000069760433
            0.000064324375    -0.000076557967    0.100869878433    0.069983122238    0.000105431020    -0.000098070531    0.089159721301    0.064947385656
            0.104214875244    0.060891631739    0.000105430680    -0.000098070207    0.116780826594    0.063319929823    0.000108250751    -0.000082233031
            0.000076677686    -0.000069760113    0.089159723568    0.064947382543    0.000108250754    -0.000082233044    0.100416235971    0.070439662491
0.400     0.121202249564    0.042290683337    0.000050263333    -0.000087365332    0.111512940393    0.044110788526    0.000064688322    -0.000080208891
            0.000050263335    -0.000087365331    0.109257293876    0.056923894457    0.000088655297    -0.000113356627    0.099758749774    0.055759139534
            0.111512940393    0.044110788526    0.000088655308    -0.000113356644    0.120355772464    0.042824196324    0.000095513811    -0.000094921754
            0.000064687641    -0.000080208221    0.099758742018    0.055759132914    0.000095513832    -0.000094921775    0.108937699233    0.057761897816
0.425     0.114189242108    0.024892205933    0.000034884214    -0.000095569818    0.110224209473    0.027806472732    0.000051460009    -0.000088289880
            0.000034884141    -0.000095569749    0.110939480861    0.044126047816    0.000069980523    -0.000125390288    0.105572945881    0.044733414390
            0.110224169708    0.027806507717    0.000069980532    -0.000125390294    0.113714238986    0.025713207741    0.000081282088    -0.000105051649
            0.000051459677    -0.000088289541    0.105572946662    0.044733412548    0.000081282099    -0.000105051666    0.110946194943    0.045263512086
0.450     0.099895231451    0.016055171538    0.000018406674    -0.000101185424    0.101627495790    0.016522425259    0.000037304102    -0.000094030664
            0.000018406606    -0.000101185344    0.107093696723    0.034851060857    0.000049806662    -0.000134159450    0.106414461223    0.034473964861
            0.101627495732    0.016522425614    0.000049806676    -0.000134159467    0.099905273298    0.016926268196    0.000065948005    -0.000112620311
            0.000037303491    -0.000094029938    0.106414461223    0.034473964861    0.000065948020    -0.000112620337    0.107561178636    0.036112580192
0.475     0.083893247845    0.018767251098    0.000001081727    -0.000104018075    0.089457182202    0.013766602913    0.000022503798    -0.000097305112
            0.000001081662    -0.000104017986    0.100395819009    0.031431084843    0.000028527000    -0.000139434750    0.103468839324    0.027427236065
            0.089457182202    0.013766602913    0.000028526716    -0.000139434389    0.084363781923    0.019407211553    0.000049871168    -0.000117471159
            0.000022503658    -0.000097304932    0.103468839803    0.027427234259    0.000049871172    -0.000117471168    0.101358123861    0.032586476456
0.500     0.072961104894    0.032663742808    -0.000016719860    -0.000103779444    0.079190927030    0.020550867240    0.000007440155    -0.000097994401
            -0.000016719914    -0.000103779344    0.094460276380    0.034585685044    0.000006672230    -0.000140979978    0.099136610390    0.025148959464
            0.079190930651    0.020550865229    0.000006672236    -0.000140979998    0.073724512618    0.032822792333    0.000033519996    -0.000119532593
            0.000007440000    -0.000097994173    0.099136610390    0.025148959464    0.000033520004    -0.000119532612    0.095832228851    0.035405455177
0.525     0.072883832134    0.053556617185    -0.000034323081    -0.000100243350    0.076238536389    0.034498919029    -0.000007361764    -0.000096013319
            -0.000034323128    -0.000100243260    0.092906923571    0.043032767338    -0.000014982602    -0.000138610124    0.096410713696    0.027668714584
            0.076238513477    0.034498959960    -0.000014982837    -0.000138609717    0.073747738620    0.053037627044    0.000017464075    -0.000118763923
            -0.000007361866    -0.000096013062    0.096410714662    0.027668711219    0.000017464079    -0.000118763932    0.094494778215    0.043343292048
0.550     0.086330355518    0.073294054387    -0.000050902564    -0.000093462833    0.083790215168    0.049687524742    -0.000021311735    -0.000091510675
            -0.000050902617    -0.000093462736    0.098254505205    0.053670961225    -0.000035533746    -0.000132485634    0.097907074154    0.033319246582
            0.083790215168    0.049687524742    -0.000035534194    -0.000132484810    0.086979446762    0.073107288396    0.000002307053    -0.000115414924
            -0.000021311864    -0.000091510434    0.097907075898    0.033319241456    0.000002307056    -0.000115414934    0.099771293230    0.053403860560
0.575     0.111781045239    0.086402910791    -0.000065743553    -0.000083907642    0.101655603447    0.060973774154    -0.000033939564    -0.000084878808
            -0.000065743579    -0.000083907584    0.111011931696    0.062417036732    -0.000054232498    -0.000123105938    0.104925942488    0.039232147753
            0.101655590739    0.060973814783    -0.000054232587    -0.000123105789    0.111721882045    0.085648803401    -0.000011529425    -0.000109893855
            -0.000033939657    -0.000084878610    0.104925945912    0.039232138596    -0.000011529421    -0.000109893876    0.112146036662    0.061696349903
0.600     0.143004896573    0.086461217675    -0.000078390240    -0.000072232564    0.125596426413    0.062814169070    -0.000044989479    -0.000076585566
            -0.000078390281    -0.000072232475    0.129430760101    0.065483301328    -0.000070612311    -0.000111193060    0.117037732938    0.042263618003
            0.125596429702    0.062814162494    -0.000070612394    -0.000111192889    0.142397605631    0.085574194459    -0.000023847903    -0.000102709556
            -0.000044989588    -0.000076585324    0.117037737364    0.042263605747    -0.000023847908    -0.000102709575    0.130009644364    0.064596604678
0.625     0.173086497799    0.072443124517    -0.000088746716    -0.000059095352    0.150180041967    0.053655029073    -0.000054444974    -0.000067023058
            -0.000088746751    -0.000059095263    0.150049776907    0.060559688129    -0.000084572327    -0.000097397256    0.132213822766    0.039979708089
            0.150180041967    0.053655029073    -0.000084572383    -0.000097397114    0.171764628925    0.071931272164    -0.000034677583    -0.000094203824
            -0.000054445069    -0.000067022817    0.132213824859    0.039979701166    -0.000034677590    -0.000094203843    0.150083263155    0.059821773966
0.650     0.195580864943    0.046745184546    -0.000096927867    -0.000044938474    0.170451685382    0.034444511011    -0.000062353503    -0.000056432404
            -0.000096927888    -0.000044938381    0.168799815069    0.047413329659    -0.000096183814    -0.000082169702    0.147543199495    0.031350151553
            0.170451685382    0.034444511011    -0.000096183877    -0.000082169552    0.194073273318    0.046930198442    -0.000044087646    -0.000084569951
            -0.000062353585    -0.000056432162    0.147543192449    0.031350136599    -0.000044087640    -0.000084569975    0.168446254902    0.047085911138
0.675     0.206196451986    0.014256438197    -0.000103054732    -0.000030020719    0.182271718634    0.008178716299    -0.000068722225    -0.000044889067
            -0.000103054753    -0.000030020647    0.182113472181    0.027779736436    -0.000105513162    -0.000065749691    0.160062565449    0.016863436197
            0.182271718634    0.008178716299    -0.000105513211    -0.000065749517    0.204844273774    0.015077341434    -0.000052057857    -0.000073803526
            -0.000068722311    -0.000044888815    0.160062566067    0.016863430331    -0.000052057869    -0.000073803543    0.181636119328    0.028016803848
0.700     0.203305141367    -0.019023314747    -0.000107148346    -0.000014468192    0.183369443585    -0.020761387768    -0.000073392532    -0.000032472504
            -0.000107148378    -0.000014468101    0.187724690832    0.004768313533    -0.000112493923    -0.000048304413    0.167421498473    -0.001734209331
            0.183369432634    -0.020761395604    -0.000112493963    -0.000048304244    0.202383236895    -0.017717388091    -0.000058364841    -0.000061952139
            -0.000073392600    -0.000032472335    0.167421498473    -0.001734209389    -0.000058364859    -0.000061952158    0.187432497342    0.005583048862
0.725     0.187931497834    -0.047011876258    -0.000109133209    0.000001555244    0.173411848550    -0.047399159159    -0.000076142106    -0.000019330417
            -0.000109133227    0.000001555340    0.185022494294    -0.017896620815    -0.000116980462    -0.000030026446    0.168267175179    -0.021853346481
            0.173411840012    -0.047399114539    -0.000116980495    -0.000030026281    0.187628242232    -0.045486085700    -0.000062710020    -0.000049142205
            -0.000076142166    -0.000019330178    0.168267174912    -0.021853348537    -0.000062710035    -0.000049142217    0.185203277163    -0.016640854863
0.750     0.163669542209    -0.064437082355    -0.000108877949    0.000017818287    0.154276823699    -0.066738085890    -0.000076699516    -0.000005808046
            -0.000108877973    0.000017818388    0.175100838353    -0.036619218330    -0.000118755288    -0.000011244815    0.162505774678    -0.040510434910
            0.154276800080    -0.066737989367    -0.000118755314    -0.000011244650    0.164029081085    -0.063032197238    -0.000064731761    -0.000035768840
            -0.000076699563    -0.000005807808    0.162505774678    -0.040510434910    -0.000064731769    -0.000035768859    0.175956253101    -0.035186234779
0.775     0.136481088581    -0.067865836723    -0.000106319381    0.000033972864    0.130300693681    -0.074728647553    -0.000074953623    0.000007628130
            -0.000106319399    0.000033972972    0.160572281689    -0.048595336419    -0.000117716151    0.000007610216    0.151417183633    -0.054852870756
            0.130300693681    -0.074728647553    -0.000117716169    0.000007610403    0.137363021319    -0.066925483507    -0.000064270967    -0.000022345704
            -0.000074953658    0.000007628358    0.151417174231    -0.054852867350    -0.000064270977    -0.000022345720    0.162162122591    -0.047332531873
