# GHz S RI R 45
0.000     0.026398690000    0.000000000000    0.973123200000    -0.000000000000    0.000669324550    -0.000000000000    -0.000807769160    0.000000000000
            0.973123200000    -0.000000000000    0.026362530000    0.000000000000    -0.000807901680    0.000000000000    0.000428305330    0.000000000000
            0.000669294380    -0.000000000000    -0.000807936780    0.000000000000    0.026373970000    0.000000000000    0.973184390000    -0.000000000000
            -0.000807804280    0.000000000000    0.000428306670    0.000000000000    0.973184390000    -0.000000000000    0.026180244000    0.000000000000
0.025     0.034570785319    0.007485299376    0.934220765207    -0.257144208529    0.004984834722    0.011627740973    -0.001430895591    -0.001966135941
            0.934220765207    -0.257144208529    0.031858878776    0.008091957280    -0.001427369341    -0.001965145531    0.002869387415    0.012368071835
            0.004984794638    0.011627804942    -0.001427406912    -0.001965198702    0.034497385378    0.007404081340    0.934347553354    -0.256849031393
            -0.001431034329    -0.001966192414    0.002869264597    0.012367904255    0.934347553354    -0.256849031393    0.031847060689    0.008157677890
0.050     0.044886917605    0.005099356697    0.831772784155    -0.490576146650    0.015911552601    0.017884174095    -0.003280387814    -0.003248102756
            0.831772784155    -0.490576146650    0.036637017641    0.009891662631    -0.003276057831    -0.003248708573    0.009242463968    0.022222029072
            0.015911526162    0.017884211003    -0.003276090385    -0.003248700029    0.044800002783    0.004965613708    0.832137588494    -0.490033364158
            -0.003280420873    -0.003248095804    0.009242493828    0.022222017736    0.832137588494    -0.490033364158    0.036601937134    0.009876222383
0.075     0.053697256798    -0.005270804919    0.673180386001    -0.688242151653    0.028897312031    0.015674805961    -0.005612877377    -0.003373386349
            0.673180386001    -0.688242151653    0.039588191544    0.008982588534    -0.005606386038    -0.003374047214    0.017500373034    0.028168712166
            0.028897299406    0.015674837625    -0.005606410238    -0.003374024457    0.053608941783    -0.005457884195    0.673909744025    -0.687586094518
            -0.005612901748    -0.003373363659    0.017500379534    0.028168711660    0.673909744025    -0.687586094518    0.039451547290    0.008994529871
0.100     0.056078267395    -0.022326390457    0.469686971841    -0.837179838660    0.038450924558    0.005044777539    -0.007918630406    -0.002520654882
            0.469686971841    -0.837179838660    0.039455705081    0.006722898953    -0.007906618511    -0.002524515977    0.025334570189    0.030162164279
            0.038450929373    0.005044802337    -0.007906636588    -0.002524488294    0.055998910759    -0.022576359725    0.470843287436    -0.836579340377
            -0.007918649745    -0.002520629074    0.025334572529    0.030162164926    0.470843287436    -0.836579340377    0.039250968084    0.006855308282
0.125     0.048141854679    -0.041785937001    0.235297589697    -0.927768586844    0.039889889747    -0.010861684088    -0.010075060204    -0.000904600854
            0.235297589697    -0.927768586844    0.035655280449    0.005286236728    -0.010053915622    -0.000929857810    0.030860917398    0.029360627058
            0.039889906789    -0.010861659563    -0.010053928826    -0.000929823636    0.048067472574    -0.042121797758    0.236879955870    -0.927407326225
            -0.010075070018    -0.000904569828    0.030860919360    0.029360627898    0.236879955870    -0.927407326225    0.035475480612    0.005583986850
0.150     0.029011204854    -0.057385148533    -0.013706488832    -0.954252877943    0.030919011429    -0.026699383669    -0.012066820218    0.001566174084
            -0.013706488688    -0.954252867944    0.029087095695    0.006815772612    -0.012049744396    0.001509414297    0.033070859892    0.027734137413
            0.030919032862    -0.026699371089    -0.012049747592    0.001509453146    0.028932881290    -0.057826103922    -0.011763938687    -0.954315225133
            -0.012066822887    0.001566200129    0.033070852753    0.027734141257    -0.011763938687    -0.954315225133    0.029027823400    0.007259266544
0.175     0.001300262975    -0.062872352069    -0.260281863402    -0.915106100008    0.012506454499    -0.036396649179    -0.013658710735    0.005179648309
            -0.260281863402    -0.915106100008    0.021574237970    0.012907206926    -0.013665886357    0.005090273143    0.032250559022    0.027507712590
            0.012506478992    -0.036396646050    -0.013665880479    0.005090308979    0.001181211263    -0.063441763568    -0.258110601308    -0.915755202491
            -0.013658704624    0.005179684165    0.032250562264    0.027507713411    -0.258110601308    -0.915755202491    0.021710371738    0.013411418882
0.200     -0.028996246168    -0.053978646832    -0.487337807836    -0.813232045694    -0.011055908520    -0.035059847822    -0.014179765695    0.010142348543
            -0.487337807836    -0.813232045694    0.015748344963    0.024048276805    -0.014230611844    0.010032285155    0.029914216298    0.030391517630
            -0.011055890163    -0.035059853611    -0.014230600172    0.010032310390    -0.029216285449    -0.054678463604    -0.485132091127    -0.814589673040
            -0.014179750146    0.010142382314    0.029914210823    0.030391521616    -0.485132091127    -0.814589673040    0.016088951478    0.024491138087
0.225     -0.053976623189    -0.030103654459    -0.678944760420    -0.656110705133    -0.033167286956    -0.020699312157    -0.012637967291    0.016133332736
            -0.678944760420    -0.656110705133    0.014345548540    0.039195654799    -0.012742076020    0.016023961458    0.028328858851    0.036954291268
            -0.033167262106    -0.020699336865    -0.012742053032    0.016023989959    -0.054365798507    -0.030896611407    -0.676948986291    -0.658229646752
            -0.012637946882    0.016133358885    0.028328863293    0.036954290383    -0.676948986291    -0.658229646752    0.014821966350    0.039465218836
0.250     -0.066086751103    0.004958532335    -0.821806338636    -0.455492879769    -0.046823559680    0.004800885651    -0.008218815070    0.022061181376
            -0.821806338636    -0.455492879769    0.019297019909    0.055877665244    -0.008372376496    0.021973577906    0.029748479345    0.046375453661
            -0.046823548110    0.004800851432    -0.008372345541    0.021973600402    -0.066694997541    0.004154865025    -0.820290578499    -0.458335189603
            -0.008218784256    0.022061204594    0.029748483932    0.046375451907    -0.820290578499    -0.458335189603    0.019779793119    0.055920458656
0.275     -0.060521113679    0.043719702481    -0.906625653617    -0.226378631332    -0.046823031112    0.035959162053    -0.000885913324    0.026287074941
            -0.906625653617    -0.226378631332    0.030998374896    0.070804420322    -0.001077423685    0.026232697467    0.035621581738    0.056678595693
            -0.046823031837    0.035959149617    -0.001077398955    0.026232709492    -0.061350902954    0.043021268214    -0.905843272973    -0.229811879047
            -0.000885880304    0.026287090062    0.035621585695    0.056678593206    -0.905843272973    -0.229811879047    0.031342062256    0.070652029193
0.300     -0.036894665133    0.076952399607    -0.928927428839    0.014565838209    -0.031470749267    0.065189954450    0.008325254589    0.027287351809
            -0.928927428839    0.014565838209    0.048057173328    0.080854381881    0.008103492683    0.027266053327    0.046097340907    0.065389579476
            -0.031470737454    0.065189959042    0.008103529410    0.027266060146    -0.037882259030    0.076480154410    -0.929078653048    0.010765291296
            0.008325290983    0.027287358479    0.046097343755    0.065389576245    -0.929078653048    0.010765291296    0.048153486928    0.080621321763
0.325     0.000469599256    0.096238024288    -0.889044589482    0.250739856351    -0.003133280338    0.084940202310    0.017578566704    0.024377651820
            -0.889044589482    0.250739856351    0.067646024968    0.084004957084    0.017320711740    0.024386795264    0.059989783710    0.070316772451
            -0.003133277299    0.084940200421    0.017320748859    0.024386793432    -0.000544625454    0.096079481411    -0.890251386179    0.246850409375
            0.017578603930    0.024377649634    0.059989786093    0.070316767789    -0.890251386179    0.246850409375    0.067465346019    0.083855521716
0.350     0.043603847955    0.096199313174    -0.791430378380    0.466982380040    0.032392376419    0.089686380080    0.024964173930    0.018071729458
            -0.791430378380    0.466982380040    0.086305133484    0.079918965423    0.024650443607    0.018120161887    0.075170366192    0.070187563700
            0.032392378870    0.089686377069    0.024650478727    0.018120151254    0.042741817680    0.096373318148    -0.793724014348    0.463306748453
            0.024964209098    0.018071718394    0.075170368642    0.070187561076    -0.793724014348    0.463306748453    0.085913419282    0.080016600739
0.375     0.082825866661    0.075785284329    -0.643656634832    0.650301533669    0.067298420817    0.077220526946    0.029279685304    0.009847076049
            -0.643656634832    0.650301533669    0.100869878433    0.069983122238    0.028887001935    0.009967862073    0.089159721301    0.064947385656
            0.067298379374    0.077220536534    0.028887028920    0.009967848252    0.082306243402    0.076219565741    -0.646986325915    0.647137882863
            0.029279716130    0.009847059681    0.089159723568    0.064947382543    -0.646986325915    0.647137882863    0.100416235971    0.070439662491
0.400     0.108878537036    0.038524941758    -0.455567394402    0.790096715601    0.093455154851    0.049148836156    0.030463187268    0.001452424980
            -0.455567394402    0.790096715601    0.109257293876    0.056923894457    0.029982514487    0.001706038343    0.099758749774    0.055759139534
            0.093455156567    0.049148832894    0.029982540983    0.001706012761    0.108858603886    0.039051571527    -0.459813299047    0.787725241062
            0.030463213520    0.001452399321    0.099758742018    0.055759132914    -0.459813299047    0.787725241062    0.108937699233    0.057761897816
0.425     0.114862545002    -0.008094268314    -0.238788127375    0.878130913114    0.104052913260    0.010708996987    0.029452182227    -0.005898852313
            -0.238788127375    0.878130913114    0.110939480861    0.044126047816    0.028904896656    -0.005431724894    0.105572945881    0.044733414390
            0.104052913410    0.010708995534    0.028904913916    -0.005431752164    0.115421034236    -0.007724278738    -0.243766181159    0.876809363789
            0.029452198288    -0.005898879055    0.105572946662    0.044733412548    -0.243766181159    0.876809363789    0.110946194943    0.045263512086
0.450     0.097812860968    -0.053895976315    -0.006547205106    0.908643452454    0.095135554050    -0.029968620657    0.027534953029    -0.012050099021
            -0.006547205106    0.908643452454    0.107093696723    0.034851060857    0.026983696150    -0.011281134358    0.106414461223    0.034473964861
            0.095135556265    -0.029968533745    0.026983708448    -0.011281167163    0.098909442447    -0.053978616814    -0.012005499908    0.908597217773
            0.027534964921    -0.012050131710    0.106414461223    0.034473964861    -0.012005515898    0.908597227563    0.107561178636    0.036112580192
0.475     0.059767347397    -0.087895104847    0.226422580323    0.878788644320    0.066881733812    -0.063243250008    0.025471516688    -0.017844070232
            0.226422580323    0.878788644320    0.100395819009    0.031431084843    0.025030734108    -0.016689560081    0.103468839324    0.027427236065
            0.066881729802    -0.063243248427    0.025030737846    -0.016689606749    0.061213582278    -0.088719333339    0.220811838292    0.880198240291
            0.025471519573    -0.017844116656    0.103468839803    0.027427234259    0.220811838292    0.880198240291    0.101358123861    0.032586476456
0.500     0.008044661182    -0.100758944613    0.444309873816    0.789459246175    0.024312283004    -0.080090528444    0.022833383716    -0.024415853326
            0.444309873816    0.789459246175    0.094460276380    0.034585685044    0.022703748878    -0.022824754244    0.099136610390    0.025148959464
            0.024312283004    -0.080090528444    0.022703748878    -0.022824754244    0.009489330343    -0.102533815564    0.438954710882    0.792420147766
            0.022833383716    -0.024415853326    0.099136610390    0.025148959464    0.438954710882    0.792420147766    0.095832228851    0.035405455177
0.525     -0.045798957076    -0.087528885286    0.631326424978    0.646126070870    -0.023215074466    -0.074709365961    0.018037756553    -0.032036706974
            0.631326424978    0.646126070870    0.092906923571    0.043032767338    0.018550856974    -0.030143601141    0.096410713696    0.027668714584
            -0.023214995916    -0.074709343247    0.018550856980    -0.030143597614    -0.044859308638    -0.090262298426    0.626690438003    0.650608436881
            0.018037720558    -0.032036786915    0.096410714662    0.027668711219    0.626690438003    0.650608436881    0.094494778215    0.043343292048
0.550     -0.088732182479    -0.049722217742    0.773528790686    0.459132550969    -0.064189086015    -0.046773500467    0.009573594955    -0.039222804099
            0.773528790686    0.459132550969    0.098254505205    0.053670961225    0.010883700856    -0.037642818345    0.097907074154    0.033319246582
            -0.064189083590    -0.046773498701    0.010883645279    -0.037642889585    -0.088777584431    -0.053040491447    0.770071860575    0.464947063584
            0.009573594955    -0.039222804099    0.097907075898    0.033319241456    0.770071860575    0.464947063584    0.099771293230    0.053403860560
0.575     -0.110094940693    0.004753445492    0.860798290968    0.242864881489    -0.088324891077    -0.001884704528    -0.002468153950    -0.043702511447
            0.860798290968    0.242864881489    0.111011931696    0.062417036732    -0.000954300300    -0.042976778176    0.104925942488    0.039232147753
            -0.088324886407    -0.001884689006    -0.000954371324    -0.042976833613    -0.111207888407    0.001436048269    0.858927440013    0.249672131460
            -0.002468189965    -0.043702539461    0.104925945912    0.039232138596    0.858927440013    0.249672131460    0.112146036662    0.061696349903
0.600     -0.104378836068    0.063806795673    0.888220315517    0.013913970458    -0.089437929499    0.049988324104    -0.016909213597    -0.043576665534
            0.888220315534    0.013913969373    0.129430760101    0.065483301328    -0.015760233483    -0.043499562390    0.117037732938    0.042263618003
            -0.089437877115    0.049988253854    -0.015760307066    -0.043499599547    -0.106385610018    0.060899851697    0.888219040379    0.021234127875
            -0.016909288541    -0.043576700812    0.117037737364    0.042263605747    0.888219040379    0.021234127875    0.130009644364    0.064596604678
0.625     -0.072660588746    0.114229083094    0.856268597503    -0.211230780318    -0.067050565956    0.097263809716    -0.031366900513    -0.037442611219
            0.856268597503    -0.211230780318    0.150049776907    0.060559688129    -0.030669537395    -0.037660510169    0.132213822766    0.039979708089
            -0.067050560177    0.097263728678    -0.030669570117    -0.037660523501    -0.075325797733    0.112042957782    0.858239586781    -0.203953490479
            -0.031366940668    -0.037442619326    0.132213824859    0.039979701166    0.858239577052    -0.203953488167    0.150083263155    0.059821773966
0.650     -0.022065764824    0.145277614656    0.769768412794    -0.418050821226    -0.026110669208    0.129923944190    -0.042644875104    -0.025628944640
            0.769768412794    -0.418050821226    0.168799815069    0.047413329659    -0.042296563070    -0.025919113327    0.147543199495    0.031350151553
            -0.026110667238    0.129923934386    -0.042296651602    -0.025919106654    -0.025041231975    0.144039131618    0.773637236142    -0.411357108479
            -0.042644959182    -0.025628944514    0.147543192449    0.031350136599    0.773637236142    -0.411357108479    0.168446254902    0.047085911138
0.675     0.036603907488    0.150966283266    0.636370637375    -0.594784409031    0.024857916505    0.141582069371    -0.048259343943    -0.010391718759
            0.636370637375    -0.594784409031    0.182113472181    0.027779736436    -0.048123649231    -0.010644737289    0.160062565449    0.016863436197
            0.024857884877    0.141582034312    -0.048123689073    -0.010644728482    0.033758398083    0.150743359492    0.641924170012    -0.589146264348
            -0.048259382764    -0.010391709492    0.160062566067    0.016863430331    0.641924170012    -0.589146264348    0.181636119328    0.028016803848
0.700     0.091533997014    0.130653670243    0.465284731933    -0.732367979145    0.075862675856    0.130170375142    -0.047491815481    0.005029071411
            0.465284731933    -0.732367979145    0.187724690832    0.004768313533    -0.047448547543    0.004837009406    0.167421498473    -0.001734209331
            0.075862675856    0.130170375142    -0.047448548538    0.004837009508    0.089270017954    0.131316111749    0.472222613975    -0.728166792786
            -0.047491816476    0.005029071516    0.167421498473    -0.001734209389    0.472222613975    -0.728166792786    0.187432497342    0.005583048862
0.725     0.132028812648    0.088529391394    0.266618900237    -0.823942013925    0.117143520451    0.097757190338    -0.041556080307    0.017690984996
            0.266618900237    -0.823942013925    0.185022494294    -0.017896620815    -0.041529940015    0.017523359215    0.168267175179    -0.021853346481
            0.117143520451    0.097757190338    -0.041529940015    0.017523359215    0.130722586016    0.089755008809    0.274583200896    -0.821481101577
            -0.041556112776    0.017691015953    0.168267174912    -0.021853348537    0.274583200896    -0.821481101577    0.185203277163    -0.016640854863
0.750     0.150031433078    0.032665741793    0.051265909251    -0.864447526390    0.140472872435    0.050102562967    -0.032991045507    0.026022321682
            0.051265909251    -0.864447526390    0.175100838353    -0.036619218330    -0.032969603576    0.025818426211    0.162505774678    -0.040510434910
            0.140472804353    0.050102605011    -0.032969608869    0.025818421073    0.149904461309    0.033979479070    0.059862666563    -0.863962024831
            -0.032991050833    0.026022316543    0.162505774678    -0.040510434910    0.059862681642    -0.863962023786    0.175956253101    -0.035186234779
0.775     0.141288151771    -0.026095150657    -0.168819618872    -0.850570769325    0.140351273025    -0.003913009327    -0.024540338144    0.030319690052
            -0.168819618872    -0.850570769325    0.160572281689    -0.048595336419    -0.024571461092    0.030037504821    0.151417183633    -0.054852870756
            0.140351273032    -0.003913009082    -0.024571461092    0.030037504821    0.142344448510    -0.025254068788    -0.160039842240    -0.852247057173
            -0.024540368566    0.030319770922    0.151417174231    -0.054852867350    -0.160039842240    -0.852247057173    0.162162122591    -0.047332531873
