# GHz S RI R 45
0.000     0.026268772000    0.000000000000    -0.000089634277    0.000000000000    0.000673948410    -0.000000000000    -0.000100102910    0.000000000000
            -0.000089633831    0.000000000000    0.026362530000    0.000000000000    -0.000059531377    0.000000000000    0.000428305330    0.000000000000
            0.000673945410    -0.000000000000    -0.000059530542    0.000000000000    0.026186721000    0.000000000000    -0.000061995966    0.000000000000
            -0.000100102240    0.000000000000    0.000428306670    0.000000000000    -0.000061996341    0.000000000000    0.026180244000    0.000000000000
0.025     0.034177905874    0.007219102710    -0.000123149843    -0.000181593473    0.004908981493    0.011342430807    -0.000090065631    -0.000123525752
            -0.000123149422    -0.000181593602    0.031858878776    0.008091957280    -0.000140496145    -0.000255584045    0.002869387415    0.012368071835
            0.004908966303    0.011342483146    -0.000140495335    -0.000255584262    0.034125461950    0.007221306164    -0.000113027154    -0.000193818557
            -0.000090065064    -0.000123525881    0.002869264597    0.012367904255    -0.000113027644    -0.000193818387    0.031847060689    0.008157677890
0.050     0.044350133126    0.004771953895    -0.000290118794    -0.000339895748    0.015678675862    0.017456434619    -0.000211566886    -0.000268243894
            -0.000290118446    -0.000339895940    0.036637017641    0.009891662631    -0.000360851796    -0.000439508004    0.009242463968    0.022222029072
            0.015678667380    0.017456450303    -0.000360851011    -0.000439508454    0.044330322324    0.004790419142    -0.000285539280    -0.000343546311
            -0.000211566303    -0.000268244214    0.009242493828    0.022222017736    -0.000285539697    -0.000343546082    0.036601937134    0.009876222383
0.075     0.053148927759    -0.005516136055    -0.000546125603    -0.000384705760    0.028579115023    0.015273760147    -0.000419785065    -0.000313205179
            -0.000546125253    -0.000384706083    0.039588191544    0.008982588534    -0.000674892545    -0.000494215885    0.017500373034    0.028168712166
            0.028579109343    0.015273768654    -0.000674891882    -0.000494216486    0.053197161891    -0.005497910836    -0.000535970815    -0.000384277149
            -0.000419784602    -0.000313205632    0.017500379534    0.028168711660    -0.000535971406    -0.000384276582    0.039451547290    0.008994529871
0.100     0.055764842718    -0.022465458751    -0.000827380525    -0.000300963152    0.038261507584    0.004753804198    -0.000648930529    -0.000249521307
            -0.000827380525    -0.000300963152    0.039455705081    0.006722898953    -0.001021008546    -0.000399805961    0.025334570189    0.030162164279
            0.038261509261    0.004753806916    -0.001021007918    -0.000399806743    0.055912295859    -0.022481791797    -0.000807563609    -0.000303945742
            -0.000648930028    -0.000249522024    0.025334572529    0.030162164926    -0.000807564133    -0.000303944974    0.039250968084    0.006855308282
0.125     0.048341778222    -0.042000630178    -0.001084753214    -0.000088462120    0.040104851468    -0.011141654000    -0.000857197602    -0.000081163827
            -0.001084753084    -0.000088462490    0.035655280449    0.005286236728    -0.001345792095    -0.000152760961    0.030860917398    0.029360627058
            0.040104853978    -0.011141652435    -0.001345791942    -0.000152761419    0.048602911255    -0.042095446310    -0.001057243277    -0.000104897600
            -0.000857197470    -0.000081164267    0.030860919360    0.029360627898    -0.001057243277    -0.000104897600    0.035475480612    0.005583986850
0.150     0.029858945441    -0.058055987605    -0.001274558133    0.000241880095    0.031740755221    -0.027281393067    -0.001011079766    0.000180939817
            -0.001274558133    0.000241880095    0.029087095695    0.006815772612    -0.001599525867    0.000239750601    0.033070859892    0.027734137413
            0.031740758166    -0.027281392709    -0.001599525795    0.000239749734    0.030223801028    -0.058304858336    -0.001249173928    0.000203940233
            -0.001011079727    0.000180938899    0.033070852753    0.027734141257    -0.001249173928    0.000203940233    0.029027823400    0.007259266544
0.175     0.002672163167    -0.064501597728    -0.001353025740    0.000670768849    0.013915882147    -0.037748404107    -0.001077406344    0.000521706948
            -0.001353025651    0.000670768805    0.021574237970    0.012907206926    -0.001728835752    0.000762311712    0.032250559022    0.027507712590
            0.013915884815    -0.037748405255    -0.001728835835    0.000762311028    0.003089145932    -0.064973311975    -0.001345432538    0.000611160646
            -0.001077406439    0.000521706065    0.032250562264    0.027507713411    -0.001345432416    0.000611161157    0.021710371738    0.013411418882
0.200     -0.027566994631    -0.057003484270    -0.001276101047    0.001163298968    -0.009400411102    -0.037646945533    -0.001021161436    0.000915543351
            -0.001276101434    0.001163298098    0.015748344963    0.024048276805    -0.001674581870    0.001380122794    0.029914216298    0.030391517630
            -0.009400411586    -0.037646947474    -0.001674582361    0.001380121726    -0.027190216921    -0.057738751161    -0.001301060969    0.001093196085
            -0.001021161852    0.000915542437    0.029914210823    0.030391521616    -0.001301060969    0.001093196085    0.016088951478    0.024491138087
0.225     -0.053250181368    -0.034663608792    -0.001007299476    0.001659743669    -0.031918604181    -0.024764532495    -0.000810815624    0.001316192218
            -0.001007299662    0.001659743322    0.014345548540    0.039195654799    -0.001382074216    0.002024683708    0.028328858851    0.036954291268
            -0.031918605762    -0.024764533721    -0.001382074753    0.002024682978    -0.053031476606    -0.035650870541    -0.001070492681    0.001599509798
            -0.000810816333    0.001316191311    0.028328863293    0.036954290383    -0.001070492681    0.001599509798    0.014821966350    0.039465218836
0.250     -0.066908044113    -0.000793312067    -0.000537328784    0.002077569095    -0.046780181728    -0.000564206878    -0.000435579749    0.001656569557
            -0.000537329409    0.002077568520    0.019297019909    0.055877665244    -0.000827666748    0.002592844560    0.029748479345    0.046375453661
            -0.046780183728    -0.000564206902    -0.000827667532    0.002592843890    -0.066958592856    -0.001954931829    -0.000630358376    0.002048576820
            -0.000435580489    0.001656568845    0.029748483932    0.046375451907    -0.000630357778    0.002048577422    0.019779793119    0.055920458656
0.275     -0.063500253129    0.037628854258    0.000099700329    0.002328079838    -0.048644173375    0.029957351839    0.000078789810    0.001861737130
            0.000099700329    0.002328079838    0.030998374896    0.070804420322    -0.000043152622    0.002966822488    0.035621581738    0.056678595693
            -0.048644174227    0.029957352364    -0.000043153085    0.002966822281    -0.063886897797    0.036430572041    -0.000002778991    0.002342809752
            0.000078789481    0.001861737044    0.035621585695    0.056678593206    -0.000002778787    0.002342810052    0.031342062256    0.070652029193
0.300     -0.042109174662    0.071696092315    0.000826043331    0.002346061018    -0.035387685335    0.059565760773    0.000668019283    0.001875138460
            0.000826042436    0.002346060697    0.048057173328    0.080854381881    0.000879343070    0.003052851104    0.046097340907    0.065389579476
            -0.035387685846    0.059565761633    0.000879333992    0.003052849036    -0.042821902405    0.070631113937    0.000737585303    0.002402009014
            0.000668018363    0.001875138257    0.046097343755    0.065389576245    0.000737585273    0.002402008918    0.048153486928    0.080621321763
0.325     -0.006388385422    0.092963827657    0.001540525001    0.002111772277    -0.008792506560    0.080769333696    0.001245914779    0.001679162646
            0.001540525001    0.002111772277    0.067646024968    0.084004957084    0.001810604038    0.002813657314    0.059989783710    0.070316772451
            -0.008792509487    0.080769334383    0.001810604038    0.002813657314    -0.007327886321    0.092190402789    0.001481839949    0.002193382349
            0.001245914809    0.001679162624    0.059989786093    0.070316767789    0.001481839893    0.002193382266    0.067465346019    0.083855521716
0.350     0.036276236524    0.095661299895    0.002149709271    0.001655322806    0.025893291939    0.087781262062    0.001732213304    0.001300384225
            0.002149709271    0.001655322806    0.086305133484    0.079918965423    0.002624809356    0.002279124924    0.075170366192    0.070187563700
            0.025893290973    0.087781264432    0.002624809356    0.002279124924    0.035287224523    0.095280243574    0.002122226388    0.001743016119
            0.001732213304    0.001300384225    0.075170368642    0.070187561076    0.002122226310    0.001743016055    0.085913419282    0.080016600739
0.375     0.076521412719    0.078087557341    0.002591540718    0.001039806876    0.061218825113    0.077885885168    0.002074507322    0.000795323553
            0.002591540718    0.001039806876    0.100869878433    0.069983122238    0.003234364607    0.001527866312    0.089159721301    0.064947385656
            0.061218824990    0.077885887809    0.003234364607    0.001527866312    0.075704897205    0.078106097666    0.002584123178    0.001121275329
            0.002074507336    0.000795323517    0.089159723568    0.064947382543    0.002584123178    0.001121275329    0.100416235971    0.070439662491
0.400     0.105071815469    0.043027761444    0.002843490312    0.000336014878    0.089147906597    0.052061550441    0.002256691233    0.000227519629
            0.002843490413    0.000336014880    0.109257293876    0.056923894457    0.003605474134    0.000653811144    0.099758749774    0.055759139534
            0.089147905689    0.052061551997    0.003605474134    0.000653811144    0.104646786645    0.043341791681    0.002841814906    0.000413221943
            0.002256691234    0.000227519617    0.099758742018    0.055759132914    0.002841814905    0.000413221953    0.108937699233    0.057761897816
0.425     0.114679498720    -0.002725012331    0.002912479695    -0.000399870055    0.102688845174    0.014902864330    0.002290630298    -0.000353537215
            0.002912479593    -0.000399870066    0.110939480861    0.044126047816    0.003748245719    -0.000267124741    0.105572945881    0.044733414390
            0.102688844940    0.014902865943    0.003748243186    -0.000267120892    0.114807215942    -0.002326199251    0.002911412598    -0.000312348624
            0.002290630297    -0.000353537219    0.105572946662    0.044733412548    0.002911412603    -0.000312348578    0.110946194943    0.045263512086
0.450     0.101730238717    -0.049529376573    0.002815424297    -0.001136427365    0.097420752279    -0.026030908066    0.002198342536    -0.000923233285
            0.002815424297    -0.001136427365    0.107093696723    0.034851060857    0.003690208113    -0.001195395405    0.106414461223    0.034473964861
            0.097420752279    -0.026030908066    0.003690208113    -0.001195395405    0.102462694707    -0.049333357430    0.002827455273    -0.001022156594
            0.002198342444    -0.000923233246    0.106414461223    0.034473964861    0.002827455273    -0.001022156594    0.107561178636    0.036112580192
0.475     0.067343767508    -0.086657559799    0.002557404436    -0.001860871856    0.072759768347    -0.061484135406    0.001990574224    -0.001477661879
            0.002557404436    -0.001860871856    0.100395819009    0.031431084843    0.003443033057    -0.002123190025    0.103468839324    0.027427236065
            0.072759773548    -0.061484135448    0.003443033057    -0.002123190025    0.068586290471    -0.086972454609    0.002611108775    -0.001716908475
            0.001990574224    -0.001477661879    0.103468839803    0.027427234259    0.002611108775    -0.001716908475    0.101358123861    0.032586476456
0.500     0.017727510305    -0.104585915953    0.002120230270    -0.002558196914    0.032703365832    -0.082438069139    0.001653708555    -0.002014705859
            0.002120230270    -0.002558196914    0.094460276380    0.034585685044    0.002981302608    -0.003045939873    0.099136610390    0.025148959464
            0.032703365832    -0.082438069139    0.002981302555    -0.003045939925    0.019229411126    -0.105664220320    0.002246936353    -0.002406611166
            0.001653708421    -0.002014705840    0.099136610390    0.025148959464    0.002246935339    -0.002406620185    0.095832228851    0.035405455177
0.525     -0.036642710200    -0.097504693619    0.001471290005    -0.003183809699    -0.014473035749    -0.082483545896    0.001155254545    -0.002507001941
            0.001471289976    -0.003183809492    0.092906923571    0.043032767338    0.002249435408    -0.003920976589    0.096410713696    0.027668714584
            -0.014473035921    -0.082483546881    0.002249435408    -0.003920976589    -0.035252983243    -0.099463294558    0.001684940298    -0.003070898452
            0.001155254370    -0.002507002022    0.096410714662    0.027668711219    0.001684938745    -0.003070902611    0.094494778215    0.043343292048
0.550     -0.083249400580    -0.065344688849    0.000596162337    -0.003650378051    -0.057917773659    -0.059983110272    0.000472978601    -0.002886101263
            0.000596162289    -0.003650378161    0.098254505205    0.053670961225    0.001204396037    -0.004641612053    0.097907074154    0.033319246582
            -0.057917778521    -0.059983115307    0.001204395956    -0.004641612074    -0.082383228515    -0.068106434707    0.000877455272    -0.003630259785
            0.000472978901    -0.002886101517    0.097907075898    0.033319241456    0.000877455303    -0.003630260189    0.099771293230    0.053403860560
0.575     -0.110807760912    -0.014337416435    -0.000463192010    -0.003846303285    -0.087076927390    -0.018993370971    -0.000368118718    -0.003056256423
            -0.000463191943    -0.003846303293    0.111011931696    0.062417036732    -0.000127900255    -0.005053413702    0.104925942488    0.039232147753
            -0.087076927390    -0.018993370971    -0.000127900341    -0.005053413600    -0.110806367364    -0.017624433385    -0.000167573994    -0.003956282172
            -0.000368118718    -0.003056256423    0.104925945912    0.039232138596    -0.000167574063    -0.003956282169    0.112146036662    0.061696349903
0.600     -0.112474349703    0.044429410725    -0.001594776568    -0.003683332100    -0.094732919077    0.031663881116    -0.001280015782    -0.002936119777
            -0.001594776568    -0.003683332100    0.129430760101    0.065483301328    -0.001622844373    -0.005014555204    0.117037732938    0.042263618003
            -0.094732921922    0.031663882067    -0.001622844373    -0.005014555204    -0.113509394677    0.041042935215    -0.001355638465    -0.003923203659
            -0.001280015782    -0.002936119777    0.117037737364    0.042263605747    -0.001355638465    -0.003923203659    0.130009644364    0.064596604678
0.625     -0.087657519902    0.098050449050    -0.002643537716    -0.003142093546    -0.078901195387    0.080910898150    -0.002132021546    -0.002501494999
            -0.002643537588    -0.003142093393    0.150049776907    0.060559688129    -0.003080973755    -0.004462957010    0.132213822766    0.039979708089
            -0.078901195387    0.080910898150    -0.003080973698    -0.004462956928    -0.089677655328    0.095038017031    -0.002521403372    -0.003469325187
            -0.002132021546    -0.002501494999    0.132213824859    0.039979701166    -0.002521403372    -0.003469325187    0.150083263155    0.059821773966
0.650     -0.041819137828    0.135174392627    -0.003464189503    -0.002285558697    -0.042965036529    0.118363476114    -0.002797166269    -0.001801356068
            -0.003464189503    -0.002285558697    0.168799815069    0.047413329659    -0.004293345571    -0.003448601248    0.147543199495    0.031350151553
            -0.042965039941    0.118363485514    -0.004293345571    -0.003448601248    -0.044557255457    0.132944018350    -0.003484738171    -0.002630714300
            -0.002797166269    -0.001801356068    0.147543192449    0.031350136599    -0.003484738091    -0.002630714240    0.168446254902    0.047085911138
0.675     0.015338185334    0.148463527422    -0.003965169324    -0.001233638719    0.005661908675    0.136568823888    -0.003193479367    -0.000937733958
            -0.003965169539    -0.001233638027    0.182113472181    0.027779736436    -0.005106937498    -0.002113710949    0.160062565449    0.016863436197
            0.005661876548    0.136568855246    -0.005106937498    -0.002113710949    0.012308438985    0.147267031307    -0.004110666418    -0.001527560703
            -0.003193479559    -0.000937734014    0.160062566067    0.016863430331    -0.004110666511    -0.001527560738    0.181636119328    0.028016803848
0.700     0.072300366835    0.135656567903    -0.004124030437    -0.000121012305    0.057437088072    0.132103913322    -0.003300197647    -0.000028672508
            -0.004124030437    -0.000121012305    0.187724690832    0.004768313533    -0.005459715246    -0.000642189327    0.167421498473    -0.001734209331
            0.057437087448    0.132103924497    -0.005459715246    -0.000642189327    0.069479425454    0.135535943896    -0.004343608255    -0.000320812351
            -0.003300197647    -0.000028672508    0.167421498473    -0.001734209389    -0.004343608255    -0.000320812351    0.187432497342    0.005583048862
0.725     0.117969942113    0.099455164303    -0.003975414961    0.000938891159    0.102468137014    0.105721907094    -0.003149164145    0.000825010553
            -0.003975414863    0.000938891136    0.185022494294    -0.017896620815    -0.005378594023    0.000794351974    0.168267175179    -0.021853346481
            0.102468137014    0.105721907094    -0.005378590541    0.000794349541    0.115840845612    0.100230426051    -0.004208904786    0.000836241049
            -0.003149164145    0.000825010553    0.168267174912    -0.021853348537    -0.004208904834    0.000836240295    0.185203277163    -0.016640854863
0.750     0.143397878839    0.046773817998    -0.003586841331    0.001873862599    0.131970134469    0.062053595797    -0.002804162017    0.001559487039
            -0.003586835964    0.001873855810    0.175100838353    -0.036619218330    -0.004953396156    0.002076161673    0.162505774678    -0.040510434910
            0.131970134469    0.062053595797    -0.004953396064    0.002076161634    0.142336273240    0.048062804068    -0.003792016087    0.001835616624
            -0.002804161833    0.001559487577    0.162505774678    -0.040510434910    -0.003792016087    0.001835616624    0.175956253101    -0.035186234779
0.775     0.143107996636    -0.012328218083    -0.003030999333    0.002657507759    0.139544515617    0.009059553599    -0.002335802358    0.002154547751
            -0.003030999333    0.002657507759    0.160572281689    -0.048595336419    -0.004296022463    0.003154851132    0.151417183633    -0.054852870756
            0.139544525596    0.009059554247    -0.004296022463    0.003154851132    0.143301423164    -0.011057989339    -0.003202765539    0.002636091657
            -0.002335802358    0.002154547751    0.151417174231    -0.054852867350    -0.003202765539    0.002636091657    0.162162122591    -0.047332531873
