# GHz S RI R 45
0.000     0.026319527000    0.000000000000    -0.000005156032    0.000000000000    0.000702990850    -0.000000000000    -0.000008146582    0.000000000000
            -0.000005155858    0.000000000000    0.026362530000    0.000000000000    -0.000054629296    0.000000000000    0.000428305330    0.000000000000
            0.000702982790    -0.000000000000    -0.000054629200    0.000000000000    0.026196508000    0.000000000000    0.000004573979    -0.000000000000
            -0.000008146388    0.000000000000    0.000428306670    0.000000000000    0.000004573907    -0.000000000000    0.026180244000    0.000000000000
0.025     0.033743530622    0.006513086131    -0.000020500047    -0.000030713898    0.004491366583    0.010550990836    -0.000017119705    -0.000024975890
            -0.000020499887    -0.000030713996    0.031858878776    0.008091957280    -0.000055348171    -0.000021584959    0.002869387415    0.012368071835
            0.004491346595    0.010551046078    -0.000055348084    -0.000021584981    0.033688642185    0.006517036766    -0.000031245232    -0.000044095109
            -0.000017119531    -0.000024975944    0.002869264597    0.012367904255    -0.000031245270    -0.000044095098    0.031847060689    0.008157677890
0.050     0.043059209362    0.003988643716    -0.000049246641    -0.000044748424    0.014251099008    0.016472507140    -0.000039095289    -0.000041834505
            -0.000049246561    -0.000044748476    0.036637017641    0.009891662631    -0.000090776102    -0.000043167499    0.009242463968    0.022222029072
            0.014251086992    0.016472528114    -0.000090776019    -0.000043167557    0.043021699717    0.004001196177    -0.000067013773    -0.000051513913
            -0.000039095125    -0.000041834594    0.009242493828    0.022222017736    -0.000067013774    -0.000051513914    0.036601937134    0.009876222383
0.075     0.050995474366    -0.005678234340    -0.000082500463    -0.000041137726    0.026054696571    0.014947133793    -0.000069774997    -0.000045767443
            -0.000082500321    -0.000041137871    0.039588191544    0.008982588534    -0.000134506574    -0.000030505922    0.017500373034    0.028168712166
            0.026054691002    0.014947147520    -0.000134506494    -0.000030506003    0.050994327216    -0.005658919643    -0.000102746018    -0.000045592290
            -0.000069774888    -0.000045767615    0.017500379534    0.028168711660    -0.000102746060    -0.000045592245    0.039451547290    0.008994529871
0.100     0.053224559992    -0.021352109814    -0.000111601964    -0.000022021765    0.035134193885    0.005891611843    -0.000103025673    -0.000034975812
            -0.000111601916    -0.000022021857    0.039455705081    0.006722898953    -0.000165885315    0.000004346960    0.025334570189    0.030162164279
            0.035134197028    0.005891617288    -0.000165885266    0.000004346901    0.053286846985    -0.021342084047    -0.000136865344    -0.000024756119
            -0.000103025574    -0.000034975979    0.025334572529    0.030162164926    -0.000136865396    -0.000024756055    0.039250968084    0.006855308282
0.125     0.046293239660    -0.039310980719    -0.000131955929    0.000006610391    0.037350480282    -0.008125866862    -0.000133461339    -0.000009303548
            -0.000131955884    0.000006610273    0.035655280449    0.005286236728    -0.000181704696    0.000048354503    0.030860917398    0.029360627058
            0.037350485042    -0.008125863801    -0.000181704673    0.000048354395    0.046438033870    -0.039358578921    -0.000164626238    0.000009442100
            -0.000133461276    -0.000009303731    0.030860919360    0.029360627898    -0.000164626273    0.000009442189    0.035475480612    0.005583986850
0.150     0.029306133981    -0.054105710093    -0.000144014170    0.000040482998    0.030521498753    -0.022614174762    -0.000156163093    0.000030147071
            -0.000144014152    0.000040482803    0.029087095695    0.006815772612    -0.000184582160    0.000094629967    0.033070859892    0.027734137413
            0.030521505139    -0.022614174543    -0.000184582148    0.000094629880    0.029533801860    -0.054255897650    -0.000182553728    0.000055154326
            -0.000156163094    0.000030146958    0.033070852753    0.027734141257    -0.000182553728    0.000055154326    0.029027823400    0.007259266544
0.175     0.004372268280    -0.060193160038    -0.000149524912    0.000078822770    0.015187461206    -0.032342138767    -0.000166074061    0.000081427970
            -0.000149524933    0.000078822581    0.021574237970    0.012907206926    -0.000179235039    0.000142121022    0.032250559022    0.027507712590
            0.015187470530    -0.032342141017    -0.000179235050    0.000142120928    0.004646966860    -0.060503286803    -0.000187452927    0.000110310227
            -0.000166074101    0.000081427774    0.032250562264    0.027507713411    -0.000187452925    0.000110310270    0.021710371738    0.013411418882
0.200     -0.023437918516    -0.053632425359    -0.000147618984    0.000123950565    -0.005272691861    -0.032917705853    -0.000157877145    0.000140773371
            -0.000147619046    0.000123950397    0.015748344963    0.024048276805    -0.000166147223    0.000195067625    0.029914216298    0.030391517630
            -0.005272689046    -0.032917710355    -0.000166147267    0.000195067469    -0.023190005900    -0.054142975358    -0.000175456767    0.000172245262
            -0.000157877223    0.000140773194    0.029914210823    0.030391521616    -0.000175456736    0.000172245352    0.016088951478    0.024491138087
0.225     -0.047278855650    -0.033540972876    -0.000132574366    0.000177194277    -0.025399994615    -0.022243885371    -0.000126863503    0.000201417933
            -0.000132574484    0.000177194113    0.014345548540    0.039195654799    -0.000138275352    0.000256589084    0.028328858851    0.036954291268
            -0.025399993742    -0.022243892440    -0.000138275352    0.000256589084    -0.047157557725    -0.034250164538    -0.000141979464    0.000236179674
            -0.000126863612    0.000201417793    0.028328863293    0.036954290383    -0.000141979469    0.000236179683    0.014821966350    0.039465218836
0.250     -0.060374818817    -0.002797718035    -0.000096095903    0.000234320234    -0.039149767432    -0.001411883621    -0.000071367059    0.000253562210
            -0.000096096044    0.000234320111    0.019297019909    0.055877665244    -0.000084328332    0.000322139943    0.029748479345    0.046375453661
            -0.039149769184    -0.001411890526    -0.000084328332    0.000322139943    -0.060478771414    -0.003647222555    -0.000083917770    0.000293770151
            -0.000071367214    0.000253562083    0.029748483932    0.046375451907    -0.000083917773    0.000293770161    0.019779793119    0.055920458656
0.275     -0.058053960282    0.032397169650    -0.000032740950    0.000284043535    -0.041696723315    0.025366839504    0.000005043755    0.000286287203
            -0.000032741383    0.000284043324    0.030998374896    0.070804420322    0.000003518230    0.000376980813    0.035621581738    0.056678595693
            -0.041696727742    0.025366832226    0.000003518230    0.000376980803    -0.058447633168    0.031519616895    -0.000002515334    0.000334130782
            0.000005043760    0.000286287203    0.035621585695    0.056678593206    -0.000002515334    0.000334130772    0.031342062256    0.070652029193
0.300     -0.039289192968    0.064017438252    0.000054893241    0.000311585783    -0.030947414387    0.051823133068    0.000093226820    0.000291259990
            0.000054893247    0.000311585782    0.048057173328    0.080854381881    0.000122125094    0.000400998878    0.046097340907    0.065389579476
            -0.030947415412    0.051823134785    0.000122125097    0.000400998888    -0.039974653707    0.063256183830    0.000094904037    0.000347216357
            0.000093226825    0.000291259988    0.046097343755    0.065389576245    0.000094904037    0.000347216357    0.048153486928    0.080621321763
0.325     -0.007178140784    0.084321093831    0.000155045548    0.000305014745    -0.008215102558    0.071321757060    0.000180916630    0.000265734361
            0.000155045513    0.000305014741    0.067646024968    0.084004957084    0.000255311718    0.000377510083    0.059989783710    0.070316772451
            -0.008215106636    0.071321759610    0.000255311704    0.000377510104    -0.008080587437    0.083816102134    0.000196421676    0.000327651757
            0.000180916636    0.000265734369    0.059989786093    0.070316767789    0.000196421704    0.000327651740    0.067465346019    0.083855521716
0.350     0.031720969705    0.087864518968    0.000250478527    0.000260817478    0.022076490519    0.078594444954    0.000256752528    0.000213226671
            0.000250478529    0.000260817462    0.086305133484    0.079918965423    0.000378799432    0.000301420554    0.075170366192    0.070187563700
            0.022076487215    0.078594448998    0.000378799432    0.000301420554    0.030746126460    0.087710940721    0.000289155657    0.000276644794
            0.000256751673    0.000213226870    0.075170368642    0.070187561076    0.000289155659    0.000276644806    0.085913419282    0.080016600739
0.375     0.068917505138    0.072842809015    0.000324555693    0.000185488836    0.053444117646    0.071005441720    0.000313396864    0.000141269930
            0.000324555685    0.000185488831    0.100869878433    0.069983122238    0.000468905010    0.000181851741    0.089159721301    0.064947385656
            0.053444116334    0.071005447715    0.000468904619    0.000181851975    0.068057694431    0.073057740541    0.000362935798    0.000200891419
            0.000313396864    0.000141269930    0.089159723568    0.064947382543    0.000362935800    0.000200891395    0.100416235971    0.070439662491
0.400     0.095862724148    0.041558746887    0.000366498406    0.000093204186    0.078761565576    0.049175130348    0.000348416738    0.000058059218
            0.000366498406    0.000093204186    0.109257293876    0.056923894457    0.000510928426    0.000038798049    0.099758749774    0.055759139534
            0.078761566394    0.049175136590    0.000510928456    0.000038798048    0.095306966029    0.042062680886    0.000411827492    0.000109966947
            0.000348416738    0.000058059216    0.099758742018    0.055759132914    0.000411827492    0.000109966908    0.108937699233    0.057761897816
0.425     0.105762299296    0.000047583281    0.000372674266    0.000000919338    0.091726878705    0.016966127773    0.000362728884    -0.000030269517
            0.000372674246    0.000000919336    0.110939480861    0.044126047816    0.000503304363    -0.000104371373    0.105572945881    0.044733414390
            0.091726883029    0.016966131884    0.000503304386    -0.000104371359    0.105652378325    0.000666407011    0.000432370755    0.000013663376
            0.000362728884    -0.000030269519    0.105572946662    0.044733412548    0.000432370755    0.000013663382    0.110946194943    0.045263512086
0.450     0.095093403608    -0.042963962142    0.000341444528    -0.000079993386    0.088245027640    -0.019072925890    0.000357956215    -0.000120366342
            0.000341444215    -0.000079992533    0.107093696723    0.034851060857    0.000456464997    -0.000229083460    0.106414461223    0.034473964861
            0.088245032860    -0.019072925406    0.000456464976    -0.000229083479    0.095476150183    -0.042475352381    0.000417068467    -0.000082641474
            0.000357956252    -0.000120366326    0.106414461223    0.034473964861    0.000417068512    -0.000082641506    0.107561178636    0.036112580192
0.475     0.064638037437    -0.077672690351    0.000278235201    -0.000165261673    0.067564630938    -0.050820071509    0.000333163857    -0.000210581045
            0.000278235207    -0.000165261702    0.100395819009    0.031431084843    0.000385858783    -0.000327437134    0.103468839324    0.027427236065
            0.067564653552    -0.050820033126    0.000385858785    -0.000327437148    0.065425097200    -0.077584748035    0.000361952610    -0.000197873613
            0.000333163857    -0.000210581045    0.103468839803    0.027427234259    0.000361952614    -0.000197873606    0.101358123861    0.032586476456
0.500     0.019814592412    -0.095279174731    0.000225164469    -0.000257507562    0.032934729654    -0.070269468239    0.000284189677    -0.000299915839
            0.000225164459    -0.000257507531    0.094460276380    0.034585685044    0.000304387004    -0.000404619725    0.099136610390    0.025148959464
            0.032934733003    -0.070269472192    0.000304387122    -0.000404618823    0.020745583913    -0.095833228240    0.000303448836    -0.000328363242
            0.000284189722    -0.000299915865    0.099136610390    0.025148959464    0.000303448856    -0.000328363264    0.095832228851    0.035405455177
0.525     -0.030037080847    -0.090242364511    0.000174276991    -0.000331555360    -0.008719058368    -0.071647130295    0.000207037896    -0.000384235771
            0.000174276977    -0.000331555333    0.092906923571    0.043032767338    0.000216862278    -0.000470605882    0.096410713696    0.027668714584
            -0.008719056471    -0.071647135563    0.000216862448    -0.000470605451    -0.029560409398    -0.091706160046    0.000227174222    -0.000437260282
            0.000207037883    -0.000384235779    0.096410714662    0.027668711219    0.000227174063    -0.000437260703    0.094494778215    0.043343292048
0.550     -0.073580839555    -0.062129818742    0.000105394667    -0.000393383511    -0.046631435468    -0.053479465934    0.000101340862    -0.000450737158
            0.000105394667    -0.000393383511    0.098254505205    0.053670961225    0.000120029815    -0.000526350120    0.097907074154    0.033319246582
            -0.046631428763    -0.053479477087    0.000120029824    -0.000526350118    -0.071819798323    -0.064991114313    0.000120256836    -0.000516041906
            0.000101340854    -0.000450737160    0.097907075898    0.033319241456    0.000120256836    -0.000516041906    0.099771293230    0.053403860560
0.575     -0.100333447961    -0.016112109032    0.000010948185    -0.000440651085    -0.073800566049    -0.017681469906    -0.000029708719    -0.000483784687
            0.000010948185    -0.000440651085    0.111011931696    0.062417036732    -0.000005134327    -0.000572362442    0.104925942488    0.039232147753
            -0.073800566853    -0.017681483719    -0.000005134327    -0.000572362442    -0.099962442175    -0.018813120795    -0.000023666994    -0.000561091742
            -0.000029708718    -0.000483784667    0.104925945912    0.039232138596    -0.000023667004    -0.000561091731    0.112146036662    0.061696349903
0.600     -0.103387173871    0.037863287794    -0.000107985449    -0.000460491581    -0.081949460780    0.026913945638    -0.000172142062    -0.000471230400
            -0.000107985449    -0.000460491581    0.129430760101    0.065483301328    -0.000155261974    -0.000590091028    0.117037732938    0.042263618003
            -0.081949463630    0.026913946574    -0.000155261974    -0.000590091028    -0.104435563116    0.035079723084    -0.000183059283    -0.000558308624
            -0.000172142066    -0.000471230410    0.117037737364    0.042263605747    -0.000183059283    -0.000558308624    0.130009644364    0.064596604678
0.625     -0.082382964908    0.087506513915    -0.000239549677    -0.000441491054    -0.069520040791    0.070736871298    -0.000305145025    -0.000411955486
            -0.000239549668    -0.000441491036    0.150049776907    0.060559688129    -0.000322710675    -0.000561136046    0.132213822766    0.039979708089
            -0.069520044296    0.070736874864    -0.000322710685    -0.000561136063    -0.084311797172    0.085654778636    -0.000339395637    -0.000502343481
            -0.000305144189    -0.000411955259    0.132213824859    0.039979701166    -0.000339395654    -0.000502343506    0.150083263155    0.059821773966
0.650     -0.041598786053    0.123404560107    -0.000368792951    -0.000376416110    -0.038920361462    0.105147723721    -0.000413034836    -0.000312560320
            -0.000368792064    -0.000376416124    0.168799815069    0.047413329659    -0.000486600084    -0.000474369224    0.147543199495    0.031350151553
            -0.038920364933    0.105147733099    -0.000486600070    -0.000474369210    -0.043912268782    0.122223426230    -0.000472100730    -0.000398518264
            -0.000413034899    -0.000312560254    0.147543192449    0.031350136599    -0.000472100730    -0.000398518264    0.168446254902    0.047085911138
0.675     0.010812830112    0.137754122160    -0.000474484937    -0.000267698929    0.003745882102    0.122865891847    -0.000482522869    -0.000187243164
            -0.000474484509    -0.000267699015    0.182113472181    0.027779736436    -0.000621360443    -0.000331691963    0.160062565449    0.016863436197
            0.003745880262    0.122865901908    -0.000621360028    -0.000331692020    0.008273391331    0.137415687106    -0.000566476832    -0.000260662838
            -0.000482522869    -0.000187243164    0.160062566067    0.016863430331    -0.000566476832    -0.000260662838    0.181636119328    0.028016803848
0.700     0.064095740026    0.127833058926    -0.000540976611    -0.000128202510    0.049960164882    0.120437450015    -0.000511057895    -0.000053252752
            -0.000540975834    -0.000128202925    0.187724690832    0.004768313533    -0.000705229283    -0.000147880857    0.167421498473    -0.001734209331
            0.049960164510    0.120437460995    -0.000705229264    -0.000147880853    0.061709687485    0.128422004567    -0.000616695119    -0.000105657023
            -0.000511057914    -0.000053252664    0.167421498473    -0.001734209389    -0.000616695119    -0.000105657023    0.187432497342    0.005583048862
0.725     0.107718354138    0.095707549346    -0.000560598853    0.000024520780    0.090785719096    0.098233152947    -0.000503608467    0.000076018247
            -0.000560598853    0.000024520780    0.185022494294    -0.017896620815    -0.000726206034    0.000053867533    0.168267175179    -0.021853346481
            0.090785717381    0.098233154532    -0.000726206034    0.000053867533    0.105898155661    0.097108246521    -0.000624504775    0.000051727286
            -0.000503608467    0.000076018247    0.168267174912    -0.021853348537    -0.000624504775    0.000051727286    0.185203277163    -0.016640854863
0.750     0.133022956252    0.047539855603    -0.000534345907    0.000172610551    0.118197929325    0.060187337906    -0.000468472245    0.000193257742
            -0.000534345907    0.000172610551    0.175100838353    -0.036619218330    -0.000684596530    0.000248400401    0.162505774678    -0.040510434910
            0.118197937186    0.060187344507    -0.000684596530    0.000248400401    0.132106976512    0.049450068198    -0.000595869586    0.000201549786
            -0.000468472245    0.000193257742    0.162505774678    -0.040510434910    -0.000595869621    0.000201549682    0.175956253101    -0.035186234779
0.775     0.134560077065    -0.007406164937    -0.000470394840    0.000302050961    0.126282797424    0.013297340982    -0.000413105138    0.000296904978
            -0.000470394848    0.000302050967    0.160572281689    -0.048595336419    -0.000591748560    0.000415214874    0.151417183633    -0.054852870756
            0.126282784021    0.013297372775    -0.000591748535    0.000415214857    0.134732779164    -0.005429386855    -0.000537219340    0.000338944299
            -0.000413105138    0.000296904978    0.151417174231    -0.054852867350    -0.000537219340    0.000338944299    0.162162122591    -0.047332531873
