# GHz S RI R 45
0.000     0.027474881000    0.000000000000    -0.000011159769    0.000000000000    0.000736067860    0.000000000000    -0.000014620203    0.000000000000
            -0.000011160258    0.000000000000    0.026362530000    0.000000000000    -0.000003198116    0.000000000000    0.000428305330    0.000000000000
            0.000736180160    0.000000000000    -0.000003198562    0.000000000000    0.027485945000    0.000000000000    -0.000005786644    0.000000000000
            -0.000014620601    0.000000000000    0.000428306670    0.000000000000    -0.000005786256    0.000000000000    0.026180244000    0.000000000000
0.025     0.033585793207    0.007733686243    -0.000035883782    -0.000021968561    0.003481869577    0.012157246140    -0.000028237715    -0.000014889217
            -0.000035884174    -0.000021968534    0.031858878776    0.008091957280    -0.000026234035    -0.000021409432    0.002869387415    0.012368071835
            0.003481862299    0.012157072430    -0.000026234483    -0.000021409394    0.033479465878    0.007667883407    -0.000020999989    -0.000016199471
            -0.000028238113    -0.000014889188    0.002869264597    0.012367904255    -0.000020999602    -0.000016199494    0.031847060689    0.008157677890
0.050     0.039052589826    0.008400599668    -0.000047322527    -0.000019054136    0.010617486744    0.021257511658    -0.000035549081    -0.000016323103
            -0.000047322913    -0.000019054090    0.036637017641    0.009891662631    -0.000037024899    -0.000019569526    0.009242463968    0.022222029072
            0.010617629135    0.021257488603    -0.000037025392    -0.000019569473    0.038852545867    0.008325215691    -0.000028637338    -0.000017226177
            -0.000035549476    -0.000016323059    0.009242493828    0.022222017736    -0.000028636952    -0.000017226223    0.036601937134    0.009876222383
0.075     0.042393145214    0.005559255895    -0.000052119589    -0.000017812639    0.019530536547    0.025561635990    -0.000039898278    -0.000018144047
            -0.000052120016    -0.000017812571    0.039588191544    0.008982588534    -0.000041699364    -0.000019369383    0.017500373034    0.028168712166
            0.019530653688    0.025561618221    -0.000041699795    -0.000019369264    0.042093786536    0.005554676016    -0.000032625770    -0.000019118814
            -0.000039898667    -0.000018143989    0.017500379534    0.028168711660    -0.000032625398    -0.000019118925    0.039451547290    0.008994529871
0.100     0.041731092529    0.000752746101    -0.000055950922    -0.000017528455    0.027220913765    0.025167603654    -0.000044104329    -0.000020061101
            -0.000055951292    -0.000017528377    0.039455705081    0.006722898953    -0.000045630480    -0.000020097781    0.025334570189    0.030162164279
            0.027221025040    0.025167580521    -0.000045630865    -0.000020097704    0.041382566783    0.000887525532    -0.000036372610    -0.000021497971
            -0.000044104814    -0.000020060996    0.025334572529    0.030162164926    -0.000036372239    -0.000021498051    0.039250968084    0.006855308282
0.125     0.036049172573    -0.003225963029    -0.000059709989    -0.000017518867    0.031318374366    0.021804621004    -0.000048584850    -0.000021705400
            -0.000059710400    -0.000017518761    0.035655280449    0.005286236728    -0.000049697543    -0.000021047863    0.030860917398    0.029360627058
            0.031318482548    0.021804591631    -0.000049697923    -0.000021047769    0.035744344200    -0.002923975504    -0.000040488612    -0.000023917932
            -0.000048585328    -0.000021705278    0.030860919360    0.029360627898    -0.000040488247    -0.000023918031    0.035475480612    0.005583986850
0.150     0.026263180404    -0.003375385732    -0.000063650577    -0.000017459452    0.030753420150    0.018262080335    -0.000053437623    -0.000022981046
            -0.000063651027    -0.000017459313    0.029087095695    0.006815772612    -0.000054128930    -0.000021843038    0.033070859892    0.027734137413
            0.030753531298    0.018262043969    -0.000054129399    -0.000021842898    0.026094493566    -0.002942237234    -0.000045164311    -0.000026155240
            -0.000053438003    -0.000022980922    0.033070852753    0.027734141257    -0.000045163955    -0.000026155360    0.029027823400    0.007259266544
0.175     0.014781609705    0.002670157103    -0.000067941816    -0.000017166791    0.026275830911    0.017539299393    -0.000058792639    -0.000023737751
            -0.000067942258    -0.000017166625    0.021574237970    0.012907206926    -0.000059031251    -0.000022241235    0.032250559022    0.027507712590
            0.026275933514    0.017539259159    -0.000059031652    -0.000022241033    0.014810398641    0.003140585031    -0.000050565023    -0.000027968677
            -0.000058793102    -0.000023737580    0.032250562264    0.027507713411    -0.000050564675    -0.000027968807    0.021710371738    0.013411418882
0.200     0.005246394833    0.015728084326    -0.000072696072    -0.000016441199    0.020300599043    0.021754834871    -0.000064734551    -0.000023796295
            -0.000072696508    -0.000016441005    0.015748344963    0.024048276805    -0.000064440558    -0.000022034955    0.029914216298    0.030391517630
            0.020300702883    0.021754788579    -0.000064440915    -0.000022034801    0.005466415647    0.016113400035    -0.000056752007    -0.000029098237
            -0.000064734912    -0.000023796146    0.029914210823    0.030391521616    -0.000056751661    -0.000029098385    0.016088951478    0.024491138087
0.225     0.001510775056    0.034423646719    -0.000077927860    -0.000014944557    0.016153504905    0.031283914661    -0.000071216831    -0.000022788370
            -0.000077928286    -0.000014944356    0.014345548540    0.039195654799    -0.000070302773    -0.000020914912    0.028328858851    0.036954291268
            0.016153600915    0.031283866211    -0.000070303171    -0.000020914724    0.001838891784    0.034621170337    -0.000063663927    -0.000029137353
            -0.000071217188    -0.000022788196    0.028328863293    0.036954290383    -0.000063663614    -0.000029137560    0.014821966350    0.039465218836
0.250     0.006290592395    0.055310064692    -0.000083417202    -0.000012357257    0.016898695917    0.044490278190    -0.000077950102    -0.000020386338
            -0.000083417615    -0.000012357036    0.019297019909    0.055877665244    -0.000076370211    -0.000018611558    0.029748479345    0.046375453661
            0.016898784902    0.044490229414    -0.000076370642    -0.000018611324    0.006590034250    0.055282790095    -0.000070980208    -0.000027735398
            -0.000077950535    -0.000020386102    0.029748483932    0.046375451907    -0.000070979877    -0.000027735583    0.019779793119    0.055920458656
0.275     0.020086038784    0.073781167043    -0.000088718801    -0.000008472563    0.024200263883    0.058212947714    -0.000084383764    -0.000016403046
            -0.000088719098    -0.000008472326    0.030998374896    0.070804420322    -0.000082196368    -0.000014964615    0.035621581738    0.056678595693
            0.024200355661    0.058212893315    -0.000082196785    -0.000014964365    0.020214774400    0.073581167038    -0.000078148911    -0.000024687711
            -0.000084384143    -0.000016402814    0.035621585695    0.056678593206    -0.000078148591    -0.000024687910    0.031342062256    0.070652029193
0.300     0.040837551721    0.085526053817    -0.000093298428    -0.000003423740    0.037713587000    0.068844855565    -0.000089901831    -0.000011034814
            -0.000093298738    -0.000003423523    0.048057173328    0.080854381881    -0.000087266826    -0.000010133050    0.046097340907    0.065389579476
            0.037713672553    0.068844800717    -0.000087267149    -0.000010132841    0.040704092574    0.085283859522    -0.000084535884    -0.000020174607
            -0.000089902235    -0.000011034545    0.046097343755    0.065389576245    -0.000084535660    -0.000020174741    0.048153486928    0.080621321763
0.325     0.064498060501    0.087868663878    -0.000096758311    0.000002378477    0.055216859119    0.073497803866    -0.000094046539    -0.000004802026
            -0.000096758689    0.000002378757    0.067646024968    0.084004957084    -0.000091203745    -0.000004539306    0.059989783710    0.070316772451
            0.055216946185    0.073497743459    -0.000091204056    -0.000004539066    0.064097321268    0.087752753928    -0.000089679165    -0.000014694961
            -0.000094046851    -0.000004801795    0.059989786093    0.070316767789    -0.000089678866    -0.000014695169    0.067465346019    0.083855521716
0.350     0.086211780491    0.080542796141    -0.000099016331    0.000008342602    0.073326194798    0.070833218791    -0.000096745772    0.000001588055
            -0.000099016621    0.000008342835    0.086305133484    0.079918965423    -0.000093943447    0.000001228344    0.075170366192    0.070187563700
            0.073326279875    0.070833145112    -0.000093943818    0.000001228660    0.085635133701    0.080705703252    -0.000093488480    -0.000008944825
            -0.000096746146    0.000001588365    0.075170368642    0.070187561076    -0.000093488189    -0.000008945061    0.085913419282    0.080016600739
0.375     0.101618766598    0.065692372523    -0.000100310695    0.000013965248    0.088418562966    0.061358273425    -0.000098296499    0.000007528213
            -0.000100311008    0.000013965541    0.100869878433    0.069983122238    -0.000095735080    0.000006675627    0.089159721301    0.064947385656
            0.088418645441    0.061358207196    -0.000095735400    0.000006675918    0.101032512673    0.066221166703    -0.000096253699    -0.000003512271
            -0.000098296783    0.000007528476    0.089159723568    0.064947382543    -0.000096253424    -0.000003512530    0.100416235971    0.070439662491
0.400     0.107912647957    0.047313318929    -0.000101110103    0.000018945896    0.097514302365    0.047305582991    -0.000099268822    0.000012671638
            -0.000101110427    0.000018946230    0.109257293876    0.056923894457    -0.000097049455    0.000011518336    0.099758749774    0.055759139534
            0.097514377158    0.047305520458    -0.000097049725    0.000011518626    0.107515731042    0.048197160080    -0.000098530273    0.000001269657
            -0.000099269091    0.000012671902    0.099758742018    0.055759132914    -0.000098530009    0.000001269395    0.108937699233    0.057761897816
0.425     0.104504465197    0.030338170236    -0.000101943458    0.000023288441    0.099003005072    0.032187243648    -0.000100293610    0.000017023160
            -0.000101943781    0.000023288777    0.110939480861    0.044126047816    -0.000098405310    0.000015772159    0.105572945881    0.044733414390
            0.099003070639    0.032187171347    -0.000098405631    0.000015772527    0.104473624242    0.031460498213    -0.000100933482    0.000005430232
            -0.000100293832    0.000017023468    0.105572946662    0.044733412548    -0.000100933227    0.000005429953    0.110946194943    0.045263512086
0.450     0.093294755659    0.019553638990    -0.000103287301    0.000027251365    0.093207853519    0.020084555201    -0.000101931501    0.000020898671
            -0.000103287534    0.000027251658    0.107093696723    0.034851060857    -0.000100261942    0.000019699507    0.106414461223    0.034473964861
            0.093207916715    0.020084480298    -0.000100262257    0.000019699878    0.093730700721    0.020713442111    -0.000103996818    0.000009300002
            -0.000101931748    0.000020898963    0.106414461223    0.034473964861    -0.000103996582    0.000009299725    0.107561178636    0.036112580192
0.475     0.078484279343    0.018386957487    -0.000105442283    0.000031341193    0.082628522625    0.014606725986    -0.000104528147    0.000024886694
            -0.000105442528    0.000031341527    0.100395819009    0.031431084843    -0.000102905991    0.000023795161    0.103468839324    0.027427236065
            0.082628580010    0.014606648385    -0.000102906229    0.000023795462    0.079373146617    0.019346639441    -0.000108035570    0.000013481071
            -0.000104528382    0.000024887001    0.103468839803    0.027427234259    -0.000108035345    0.000013480775    0.101358123861    0.032586476456
0.500     0.065771808305    0.027739031598    -0.000108440422    0.000036223226    0.071600824801    0.017659033207    -0.000108111369    0.000029755833
            -0.000108440628    0.000036223526    0.094460276380    0.034585685044    -0.000106367361    0.000028709039    0.099136610390    0.025148959464
            0.071600875503    0.017658952914    -0.000106367575    0.000028709356    0.066978789290    0.028288453337    -0.000113046301    0.000018743642
            -0.000108111587    0.000029756136    0.099136610390    0.025148959464    -0.000113046087    0.000018743343    0.095832228851    0.035405455177
0.525     0.060817110926    0.045263483518    -0.000111892137    0.000042608451    0.065115054025    0.028425547298    -0.000112232955    0.000036303716
            -0.000111892187    0.000042608627    0.092906923571    0.043032767338    -0.000110267686    0.000035142014    0.096410713696    0.027668714584
            0.065115124750    0.028425425278    -0.000110267940    0.000035142434    0.062112516837    0.045269070185    -0.000118549378    0.000025888739
            -0.000112233113    0.000036304071    0.096410714662    0.027668711219    -0.000118549193    0.000025888416    0.094494778215    0.043343292048
0.550     0.067310232060    0.065700411125    -0.000114963823    0.000050949251    0.067022428474    0.043292854628    -0.000115950822    0.000045030921
            -0.000114963822    0.000050949227    0.098254505205    0.053670961225    -0.000113785089    0.000043550771    0.097907074154    0.033319246582
            0.067022470784    0.043292772541    -0.000113785319    0.000043551178    0.068379525286    0.065144973218    -0.000123568359    0.000035411628
            -0.000115951015    0.000045031252    0.097907075898    0.033319241456    -0.000123568226    0.000035411404    0.099771293230    0.053403860560
0.575     0.085492437621    0.082459303363    -0.000116549036    0.000061138399    0.078522718201    0.057053174383    -0.000118038464    0.000055806331
            -0.000116549245    0.000061138819    0.111011931696    0.062417036732    -0.000115817972    0.000053843685    0.104925942488    0.039232147753
            0.078522772659    0.057053056901    -0.000115818078    0.000053843907    0.086016246762    0.081555480179    -0.000126838624    0.000047174213
            -0.000118038672    0.000055806757    0.104925945912    0.039232138596    -0.000126838462    0.000047173875    0.112146036662    0.061696349903
0.600     0.112002117766    0.089863357325    -0.000115734612    0.000072374411    0.097820677980    0.064723569854    -0.000117484674    0.000067738250
            -0.000115734604    0.000072374405    0.129430760101    0.065483301328    -0.000115436803    0.000065234397    0.117037732938    0.042263618003
            0.097820699275    0.064723483301    -0.000115437171    0.000065235270    0.111877780976    0.088988455462    -0.000127304923    0.000060263962
            -0.000117485045    0.000067739147    0.117037737364    0.042263605747    -0.000127304554    0.000060263107    0.130009644364    0.064596604678
0.625     0.141119134906    0.084939902521    -0.000112210282    0.000083416143    0.120854236231    0.063113793418    -0.000113950249    0.000079451881
            -0.000112210289    0.000083416117    0.150049776907    0.060559688129    -0.000112305176    0.000076480304    0.132213822766    0.039979708089
            0.120854267023    0.063113712854    -0.000112305352    0.000076480739    0.140470468901    0.084430603825    -0.000124584515    0.000073257865
            -0.000113950249    0.000079451881    0.132213824859    0.039979701166    -0.000124584366    0.000073257427    0.150083263155    0.059821773966
0.650     0.166674002153    0.068004314458    -0.000106438928    0.000093075578    0.142752561656    0.051558359060    -0.000107945956    0.000089628294
            -0.000106439229    0.000093076464    0.168799815069    0.047413329659    -0.000106869080    0.000086369761    0.147543199495    0.031350151553
            0.142752592252    0.051558274349    -0.000106869371    0.000086370674    0.165760326281    0.068077887702    -0.000119178668    0.000084773878
            -0.000107945948    0.000089628287    0.147543192449    0.031350136599    -0.000119178670    0.000084773910    0.168446254902    0.047085911138
0.675     0.183640681886    0.042136929681    -0.000099401594    0.000100644711    0.159127664981    0.031668704198    -0.000100561512    0.000097477605
            -0.000099401587    0.000100644704    0.182113472181    0.027779736436    -0.000100110967    0.000094168242    0.160062565449    0.016863436197
            0.159127711679    0.031668572014    -0.000100111221    0.000094169140    0.182786474925    0.042862302347    -0.000112195332    0.000093964343
            -0.000100561636    0.000097478065    0.160062566067    0.016863430331    -0.000112195196    0.000093963930    0.181636119328    0.028016803848
0.700     0.189048135055    0.012161548177    -0.000092237199    0.000106044469    0.166847564480    0.006695904395    -0.000093061326    0.000102905746
            -0.000092237186    0.000106044454    0.187724690832    0.004768313533    -0.000093183974    0.000099781427    0.167421498473    -0.001734209331
            0.166847588227    0.006695811429    -0.000093183974    0.000099781427    0.188574930409    0.013451001547    -0.000104940375    0.000100700919
            -0.000093061542    0.000102906670    0.167421498473    -0.001734209389    -0.000104940375    0.000100700919    0.187432497342    0.005583048862
0.725     0.182295498653    -0.016382297111    -0.000085884703    0.000109734590    0.164404134921    -0.019100539003    -0.000086498878    0.000106413468
            -0.000085884751    0.000109735047    0.185022494294    -0.017896620815    -0.000087042941    0.000103658395    0.168267175179    -0.021853346481
            0.164404169219    -0.019100677052    -0.000087043030    0.000103658868    0.182456529765    -0.014759893924    -0.000098505778    0.000105476585
            -0.000086498957    0.000106413945    0.168267174912    -0.021853348537    -0.000098505766    0.000105476609    0.185203277163    -0.016640854863
0.750     0.165201479104    -0.038136580863    -0.000080925160    0.000112514153    0.152210796367    -0.041023957216    -0.000081539072    0.000108878491
            -0.000080925266    0.000112515088    0.175100838353    -0.036619218330    -0.000082285898    0.000106596722    0.162505774678    -0.040510434910
            0.152210818131    -0.041024145453    -0.000082286014    0.000106597680    0.166123745801    -0.036517710761    -0.000093587270    0.000109181734
            -0.000081539203    0.000108879418    0.162505774678    -0.040510434910    -0.000093587251    0.000109181750    0.175956253101    -0.035186234779
0.775     0.141911367116    -0.048823329794    -0.000077508206    0.000115311987    0.132866487144    -0.054684880181    -0.000078382462    0.000111339243
            -0.000077508215    0.000115311957    0.160572281689    -0.048595336419    -0.000079081372    0.000109525728    0.151417183633    -0.054852870756
            0.132866500930    -0.054684978056    -0.000079081372    0.000109525728    0.143546685582    -0.047589580749    -0.000090398586    0.000112871725
            -0.000078382532    0.000111340209    0.151417174231    -0.054852867350    -0.000090398565    0.000112871255    0.162162122591    -0.047332531873
