# GHz S RI R 45
0.000     0.026657423000    0.000000000000    -0.000057064156    0.000000000000    0.000463475750    0.000000000000    -0.000028477779    0.000000000000
            -0.000057064394    0.000000000000    0.026362530000    0.000000000000    -0.000040058727    0.000000000000    0.000428305330    0.000000000000
            0.000463474940    0.000000000000    -0.000040058721    0.000000000000    0.026612993000    0.000000000000    -0.000028151359    0.000000000000
            -0.000028477449    0.000000000000    0.000428306670    0.000000000000    -0.000028151356    0.000000000000    0.026180244000    0.000000000000
0.025     0.032748727209    0.008442767659    -0.000011148563    0.000031950719    0.003219898256    0.012766294938    -0.000020633264    0.000011188451
            -0.000011148567    0.000031950712    0.031858878776    0.008091957280    -0.000017844426    0.000017837588    0.002869387415    0.012368071835
            0.003219774431    0.012766128156    -0.000017844423    0.000017837591    0.032656269335    0.008456925663    -0.000017436150    0.000015907904
            -0.000020633263    0.000011188451    0.002869264597    0.012367904255    -0.000017436161    0.000015907898    0.031847060689    0.008157677890
0.050     0.038051038075    0.009958470642    0.000002691816    0.000016464712    0.010107889677    0.022593344154    -0.000019543537    0.000014381257
            0.000002691800    0.000016464719    0.036637017641    0.009891662631    -0.000012172205    0.000012567200    0.009242463968    0.022222029072
            0.010107919660    0.022593331835    -0.000012172208    0.000012567199    0.037920725795    0.010039713873    -0.000014840827    0.000020898432
            -0.000019543443    0.000014381246    0.009242493828    0.022222017736    -0.000014840742    0.000020898421    0.036601937134    0.009876222383
0.075     0.041290451516    0.008345054521    -0.000000700521    0.000008039748    0.018812476435    0.028083889948    -0.000022526876    0.000020172772
            -0.000000700525    0.000008039763    0.039588191544    0.008982588534    -0.000016511291    0.000011295552    0.017500373034    0.028168712166
            0.018812481959    0.028083888655    -0.000016511246    0.000011295542    0.041144514907    0.008532614564    -0.000017133180    0.000028638470
            -0.000022526885    0.000020172779    0.017500379534    0.028168711660    -0.000017133146    0.000028638459    0.039451547290    0.008994529871
0.100     0.040935894751    0.005130169410    -0.000009017324    0.000005855994    0.026728002604    0.029287454863    -0.000026572282    0.000029114595
            -0.000009017306    0.000005856001    0.039455705081    0.006722898953    -0.000024615995    0.000014575836    0.025334570189    0.030162164279
            0.026728001418    0.029287454591    -0.000024616000    0.000014575832    0.040825671965    0.005451270209    -0.000020729226    0.000039732778
            -0.000026572287    0.000029114600    0.025334572529    0.030162164926    -0.000020729151    0.000039732752    0.039250968084    0.006855308282
0.125     0.036245448930    0.002901436333    -0.000019330214    0.000010162554    0.031773004233    0.027653768538    -0.000030266589    0.000041671935
            -0.000019330190    0.000010162559    0.035655280449    0.005286236728    -0.000034375175    0.000023456461    0.030860917398    0.029360627058
            0.031773003479    0.027653767881    -0.000034375182    0.000023456457    0.036244851522    0.003337684555    -0.000024054621    0.000054854265
            -0.000030266597    0.000041671931    0.030860919360    0.029360627898    -0.000024054642    0.000054854260    0.035475480612    0.005583986850
0.150     0.028247333957    0.004174946277    -0.000029103948    0.000020318718    0.032955905112    0.025542546941    -0.000031990884    0.000057725152
            -0.000029103925    0.000020318717    0.029087095695    0.006815772612    -0.000043494256    0.000038325732    0.033070859892    0.027734137413
            0.032955903086    0.025542546291    -0.000043494259    0.000038325736    0.028410463688    0.004679936816    -0.000025282917    0.000073989529
            -0.000031990884    0.000057725152    0.033070852753    0.027734141257    -0.000025282945    0.000073989525    0.029027823400    0.007259266544
0.175     0.019153715871    0.010904238195    -0.000036005870    0.000036031745    0.030837587505    0.025513837974    -0.000030177301    0.000076870434
            -0.000036005842    0.000036031742    0.021574237970    0.012907206926    -0.000049355593    0.000059293029    0.032250559022    0.027507712590
            0.030837594270    0.025513834504    -0.000049355595    0.000059293032    0.019510476378    0.011394531326    -0.000022468592    0.000096839787
            -0.000030177318    0.000076870437    0.032250562264    0.027507713411    -0.000022468627    0.000096839786    0.021710371738    0.013411418882
0.200     0.012176151594    0.023633908272    -0.000037793002    0.000055857255    0.027395208474    0.029399144428    -0.000023260106    0.000097774067
            -0.000037792971    0.000055857251    0.015748344963    0.024048276805    -0.000049070140    0.000085030185    0.029914216298    0.030391517630
            0.027395205058    0.029399144878    -0.000049070157    0.000085030181    0.012705201233    0.024010102925    -0.000013697232    0.000121899479
            -0.000023260106    0.000097774067    0.029914210823    0.030391521616    -0.000013697269    0.000121899485    0.016088951478    0.024491138087
0.225     0.010614272951    0.040993095314    -0.000032860564    0.000077467598    0.025387898395    0.037575091028    -0.000010351773    0.000118408905
            -0.000032860625    0.000077467630    0.014345548540    0.039195654799    -0.000040467942    0.000112843077    0.028328858851    0.036954291268
            0.025387893996    0.037575091586    -0.000040467946    0.000112843087    0.011236962827    0.041174725881    0.000002245143    0.000146821135
            -0.000010351780    0.000118408904    0.028328863293    0.036954290383    0.000002245191    0.000146821104    0.014821966350    0.039465218836
0.250     0.016695358887    0.059862268863    -0.000020859707    0.000097738870    0.027377328039    0.048740039278    0.000008323858    0.000136190032
            -0.000020859767    0.000097738902    0.019297019909    0.055877665244    -0.000022876860    0.000138876207    0.029748479345    0.046375453661
            0.027377325487    0.048740040711    -0.000022876866    0.000138876216    0.017292896833    0.059821131516    0.000025197070    0.000168515422
            0.000008323851    0.000136190033    0.029748483932    0.046375451907    0.000025197039    0.000168515437    0.019779793119    0.055920458656
0.275     0.030680460928    0.076199560343    -0.000003254732    0.000113761911    0.034781170914    0.060313587000    0.000031037052    0.000148981183
            -0.000003254752    0.000113761920    0.030998374896    0.070804420322    0.000002082679    0.000159365582    0.035621581738    0.056678595693
            0.034781171967    0.060313586393    0.000002082674    0.000159365592    0.031128761085    0.075978069722    0.000053274206    0.000184376632
            0.000031037047    0.000148981184    0.035621585695    0.056678593206    0.000053274166    0.000184376664    0.031342062256    0.070652029193
0.300     0.050618887577    0.086312837548    0.000017210887    0.000123915491    0.047365822557    0.069328046826    0.000055145609    0.000155920821
            0.000017210907    0.000123915478    0.048057173328    0.080854381881    0.000031074323    0.000171972789    0.046097340907    0.065389579476
            0.047365820056    0.069328050958    0.000031074321    0.000171972779    0.050831235563    0.086018042248    0.000083422266    0.000193206527
            0.000055145601    0.000155920834    0.046097343755    0.065389576245    0.000083422243    0.000193206548    0.048153486928    0.080621321763
0.325     0.072885827078    0.088000117869    0.000037436783    0.000128468195    0.063347696391    0.073387562499    0.000078017838    0.000157885784
            0.000037436766    0.000128468210    0.067646024968    0.084004957084    0.000060075578    0.000176646474    0.059989783710    0.070316772451
            0.063347695137    0.073387566224    0.000060075611    0.000176646441    0.072842258135    0.087775690651    0.000112536103    0.000195805137
            0.000078017828    0.000157885800    0.059989786093    0.070316767789    0.000112536082    0.000195805172    0.067465346019    0.083855521716
0.350     0.093238197848    0.081193124065    0.000055358328    0.000129277117    0.079982125241    0.071359531415    0.000098237701    0.000156989707
            0.000055358344    0.000129277099    0.086305133484    0.079918965423    0.000086059702    0.000175401329    0.075170366192    0.070187563700
            0.079982123995    0.071359532811    0.000086059775    0.000175401271    0.092998159188    0.081178757452    0.000138763351    0.000194441307
            0.000098237698    0.000156989708    0.075170368642    0.070187561076    0.000138763405    0.000194441268    0.085913419282    0.080016600739
0.375     0.107962193906    0.067909745668    0.000070392334    0.000128826382    0.094321533141    0.063616052420    0.000115910214    0.000155626151
            0.000070392348    0.000128826364    0.100869878433    0.069983122238    0.000107660530    0.000171344158    0.089159721301    0.064947385656
            0.094321532031    0.063616054067    0.000107660563    0.000171344125    0.107652646725    0.068200836108    0.000161944436    0.000191821840
            0.000115910215    0.000155626163    0.089159723568    0.064947382543    0.000161944463    0.000191821831    0.100416235971    0.070439662491
0.400     0.114791183904    0.051713417579    0.000083544517    0.000129224618    0.103947610831    0.051931436090    0.000132557152    0.000155474847
            0.000083544475    0.000129224681    0.109257293876    0.056923894457    0.000125510623    0.000167499920    0.099758749774    0.055759139534
            0.103947609925    0.051931437904    0.000125510614    0.000167499927    0.114577634094    0.052331252602    0.000183517742    0.000189996067
            0.000132557140    0.000155474844    0.099758742018    0.055759132914    0.000183517729    0.000189996094    0.108937699233    0.057761897816
0.425     0.113437187237    0.036853940183    0.000096658309    0.000131597860    0.107555548379    0.039098854777    0.000150277833    0.000157022236
            0.000096658291    0.000131597873    0.110939480861    0.044126047816    0.000141562447    0.000166004710    0.105572945881    0.044733414390
            0.107555547696    0.039098856654    0.000141562444    0.000166004712    0.113483134970    0.037732426948    0.000205686757    0.000189791543
            0.000150277831    0.000157022238    0.105572946662    0.044733412548    0.000205686751    0.000189791564    0.110946194943    0.045263512086
0.450     0.105742730448    0.027293924685    0.000112000061    0.000135865229    0.105393815160    0.028339760017    0.000171214946    0.000159462760
            0.000112000083    0.000135865211    0.107093696723    0.034851060857    0.000158716756    0.000167614400    0.106414461223    0.034473964861
            0.105393814665    0.028339761856    0.000158716750    0.000167614406    0.106165038365    0.028287212805    0.000230852582    0.000190652510
            0.000171214953    0.000159462767    0.106414461223    0.034473964861    0.000230852590    0.000190652516    0.107561178636    0.036112580192
0.475     0.095397991323    0.025684486799    0.000131592255    0.000140772058    0.099415158118    0.022464758678    0.000196892137    0.000160927842
            0.000131592209    0.000140772128    0.100395819009    0.031431084843    0.000180011744    0.000171499250    0.103468839324    0.027427236065
            0.099415158118    0.022464758678    0.000180011735    0.000171499259    0.096230369590    0.026596810607    0.000260919044    0.000190794220
            0.000196892132    0.000160927849    0.103468839803    0.027427234259    0.000260919056    0.000190794221    0.101358123861    0.032586476456
0.500     0.087160106347    0.032477782788    0.000156893313    0.000143842551    0.092968501847    0.022930649415    0.000227938028    0.000158644744
            0.000156893275    0.000143842592    0.094460276380    0.034585685044    0.000208084952    0.000174980140    0.099136610390    0.025148959464
            0.092968499505    0.022930650558    0.000208084956    0.000174980151    0.088339427789    0.033107605631    0.000296932400    0.000187287810
            0.000227938028    0.000158644744    0.099136610390    0.025148959464    0.000296932380    0.000187287842    0.095832228851    0.035405455177
0.525     0.085492061934    0.045497816424    0.000187886572    0.000141645427    0.089831575891    0.029117756889    0.000263419420    0.000149375029
            0.000187886577    0.000141645421    0.092906923571    0.043032767338    0.000243874629    0.000173744976    0.096410713696    0.027668714584
            0.089831572972    0.029117759408    0.000243874642    0.000173744959    0.086927467475    0.045661037894    0.000338253543    0.000176455020
            0.000263419419    0.000149375010    0.096410714662    0.027668711219    0.000338253516    0.000176455051    0.094494778215    0.043343292048
0.550     0.093305386060    0.059577164088    0.000222160000    0.000130337751    0.093016380718    0.037825197659    0.000300138631    0.000130162926
            0.000222159991    0.000130337767    0.098254505205    0.053670961225    0.000285475451    0.000162809396    0.097907074154    0.033319246582
            0.093016380718    0.037825197659    0.000285475462    0.000162809415    0.094675879248    0.059874128305    0.000381879121    0.000154788586
            0.000300138631    0.000130162926    0.097907075898    0.033319241456    0.000381879140    0.000154788539    0.099771293230    0.053403860560
0.575     0.110514075037    0.070683235851    0.000255663849    0.000108082481    0.103470929769    0.045864787053    0.000333847777    0.000099890251
            0.000255663859    0.000108082485    0.111011931696    0.062417036732    0.000328022751    0.000138588716    0.104925942488    0.039232147753
            0.103470929769    0.045864787053    0.000328022757    0.000138588726    0.111560131927    0.070418512216    0.000422832059    0.000120598050
            0.000333847767    0.000099890248    0.104925945912    0.039232138596    0.000422832045    0.000120598062    0.112146036662    0.061696349903
0.600     0.133826951609    0.073342535346    0.000282444128    0.000075757805    0.119514680670    0.048782537666    0.000359025486    0.000060645025
            0.000282444134    0.000075757743    0.129430760101    0.065483301328    0.000364670849    0.000101111018    0.117037732938    0.042263618003
            0.119514678116    0.048782543924    0.000364670872    0.000101110935    0.134565922525    0.072802756687    0.000455195007    0.000075628092
            0.000359025496    0.000060645025    0.117037737364    0.042263605747    0.000455194986    0.000075628155    0.130009644364    0.064596604678
0.625     0.158507119116    0.065524273400    0.000298427089    0.000037659888    0.137910896893    0.044432110346    0.000372368014    0.000017283584
            0.000298427066    0.000037659906    0.150049776907    0.060559688129    0.000389717797    0.000054474245    0.132213822766    0.039979708089
            0.137910895342    0.044432115160    0.000389717788    0.000054474239    0.158720074562    0.065034746642    0.000474975660    0.000024901769
            0.000372368013    0.000017283614    0.132213824859    0.039979701166    0.000474975658    0.000024901800    0.150083263155    0.059821773966
0.650     0.179391411943    0.047783264031    0.000302657929    -0.000000373924    0.155114344556    0.032401048706    0.000373850745    -0.000024235271
            0.000302657949    -0.000000373918    0.168799815069    0.047413329659    0.000400721110    0.000004972454    0.147543199495    0.031350151553
            0.155114345122    0.032401045999    0.000400721100    0.000004972453    0.179362768666    0.047651282094    0.000481581665    -0.000025322904
            0.000373850781    -0.000024235186    0.147543192449    0.031350136599    0.000481581699    -0.000025322827    0.168446254902    0.047085911138
0.675     0.192386627955    0.023015444925    0.000297576079    -0.000033041237    0.167642687432    0.013955127581    0.000366742012    -0.000058907383
            0.000297576074    -0.000033041195    0.182113472181    0.027779736436    0.000398997476    -0.000040835578    0.160062565449    0.016863436197
            0.167642696886    0.013955134555    0.000398997491    -0.000040835621    0.192339433956    0.023276497221    0.000477976177    -0.000069409159
            0.000366741986    -0.000058907419    0.160062566067    0.016863430331    0.000477976156    -0.000069409163    0.181636119328    0.028016803848
0.700     0.195276135490    -0.004488340654    0.000287852054    -0.000057564964    0.173117101742    -0.008240549037    0.000356312172    -0.000084552355
            0.000287852085    -0.000057564965    0.187724690832    0.004768313533    0.000388863578    -0.000078597940    0.167421498473    -0.001734209331
            0.173117101742    -0.008240549037    0.000388863578    -0.000078597940    0.195418064891    -0.003867408856    0.000469471324    -0.000104612271
            0.000356312215    -0.000084552300    0.167421498473    -0.001734209389    0.000469471324    -0.000104612271    0.187432497342    0.005583048862
0.725     0.187961785354    -0.029975416403    0.000278462015    -0.000074026742    0.170502106303    -0.030786295516    0.000347840166    -0.000102042283
            0.000278461997    -0.000074026769    0.185022494294    -0.017896620815    0.000375665984    -0.000106819698    0.168267175179    -0.021853346481
            0.170502106840    -0.030786292540    0.000375665946    -0.000106819687    0.188470626531    -0.029122174067    0.000461548950    -0.000131355150
            0.000347840183    -0.000102042262    0.168267174912    -0.021853348537    0.000461549002    -0.000131355112    0.185203277163    -0.016640854863
0.750     0.172437949694    -0.049086238190    0.000273280955    -0.000084903185    0.160316105897    -0.050031497204    0.000345163019    -0.000114738202
            0.000273280899    -0.000084903194    0.175100838353    -0.036619218330    0.000364341283    -0.000126723111    0.162505774678    -0.040510434910
            0.160316115443    -0.050031500183    0.000364341372    -0.000126723128    0.173415496159    -0.048205404016    0.000458369535    -0.000152667536
            0.000345163017    -0.000114738208    0.162505774678    -0.040510434910    0.000458369503    -0.000152667507    0.175956253101    -0.035186234779
0.775     0.152550852880    -0.058654144398    0.000274280625    -0.000093860629    0.144769148183    -0.062698400745    0.000349798787    -0.000127172528
            0.000274280616    -0.000093860658    0.160572281689    -0.048595336419    0.000358422131    -0.000141295050    0.151417183633    -0.054852870756
            0.144769148183    -0.062698400745    0.000358422096    -0.000141295029    0.153986367857    -0.057988786674    0.000461877145    -0.000172864479
            0.000349798775    -0.000127172503    0.151417174231    -0.054852867350    0.000461877169    -0.000172864469    0.162162122591    -0.047332531873
0.800     0.133495133140    -0.057552133527    0.000281585619    -0.000104826174    0.127694043698    -0.066750325859    0.000360974753    -0.000143908185
