# GHz S RI R 45
0.000     0.027153432000    0.000000000000    0.000002252342    -0.000000000000    0.000679396530    0.000000000000    0.000012466251    -0.000000000000
            0.000002252435    -0.000000000000    0.026362530000    0.000000000000    0.000007019704    -0.000000000000    0.000428305330    0.000000000000
            0.000679474400    0.000000000000    0.000007019835    -0.000000000000    0.027110893000    0.000000000000    0.000005085103    0.000000000000
            0.000012466348    -0.000000000000    0.000428306670    0.000000000000    0.000005084977    0.000000000000    0.026180244000    0.000000000000
0.025     0.033045139560    0.007587432546    -0.000001887473    -0.000004127489    0.003315324942    0.011949789299    -0.000001006217    -0.000010929043
            -0.000001887376    -0.000004127499    0.031858878776    0.008091957280    0.000004583183    -0.000003526522    0.002869387415    0.012368071835
            0.003315282211    0.011949617468    0.000004583319    -0.000003526529    0.032997358474    0.007630044995    0.000004858807    -0.000003167255
            -0.000001006129    -0.000010929048    0.002869264597    0.012367904255    0.000004858677    -0.000003167249    0.031847060689    0.008157677890
0.050     0.038189279613    0.008376345715    -0.000003069482    -0.000004158786    0.010115728421    0.021028366794    -0.000005477415    -0.000008199116
            -0.000003069386    -0.000004158797    0.036637017641    0.009891662631    0.000003745258    -0.000004526427    0.009242463968    0.022222029072
            0.010115836417    0.021028347024    0.000003745387    -0.000004526440    0.038162088527    0.008474663258    0.000004580910    -0.000006126580
            -0.000005477317    -0.000008199119    0.009242493828    0.022222017736    0.000004580776    -0.000006126565    0.036601937134    0.009876222383
0.075     0.041275667288    0.005979375688    -0.000002804581    -0.000005092086    0.018696203159    0.025643390474    -0.000005407143    -0.000007533511
            -0.000002804485    -0.000005092102    0.039588191544    0.008982588534    0.000003941925    -0.000005992204    0.017500373034    0.028168712166
            0.018696286556    0.025643377935    0.000003942059    -0.000005992223    0.041292405510    0.006119424397    0.000004454532    -0.000009241775
            -0.000005407055    -0.000007533525    0.017500379534    0.028168711660    0.000004454409    -0.000009241754    0.039451547290    0.008994529871
0.100     0.040674936260    0.001851784369    -0.000002317885    -0.000006852617    0.026310054857    0.025830264085    -0.000004354066    -0.000008620744
            -0.000002317792    -0.000006852638    0.039455705081    0.006722898953    0.000004430563    -0.000008114665    0.025334570189    0.030162164279
            0.026310130623    0.025830248290    0.000004430691    -0.000008114690    0.040749107923    0.002011974616    0.000004285438    -0.000012784901
            -0.000004353978    -0.000008620765    0.025334572529    0.030162164926    0.000004285317    -0.000012784874    0.039250968084    0.006855308282
0.125     0.035507675743    -0.001451624363    -0.000002071098    -0.000009394849    0.030753031587    0.023102989300    -0.000003292444    -0.000011281110
            -0.000002071006    -0.000009394875    0.035655280449    0.005286236728    0.000004859427    -0.000011084529    0.030860917398    0.029360627058
            0.030753107457    0.023102969888    0.000004859564    -0.000011084562    0.035647871607    -0.001307829373    0.000003846143    -0.000017013924
            -0.000003292359    -0.000011281132    0.030860919360    0.029360627898    0.000003846014    -0.000017013889    0.035475480612    0.005583986850
0.150     0.026682880631    -0.001262383292    -0.000002329232    -0.000012601888    0.030956480025    0.019954911705    -0.000002793720    -0.000015231442
            -0.000002329144    -0.000012601918    0.029087095695    0.006815772612    0.000004768655    -0.000014932459    0.033070859892    0.027734137413
            0.030956554789    0.019954888007    0.000004768791    -0.000014932499    0.026865278738    -0.001158363316    0.000002666785    -0.000021991664
            -0.000002793634    -0.000015231468    0.033070852753    0.027734141257    0.000002666669    -0.000021991627    0.029027823400    0.007259266544
0.175     0.016348019049    0.004516239998    -0.000003481158    -0.000016365033    0.027477722080    0.019122879469    -0.000003531339    -0.000020257799
            -0.000003481070    -0.000016365067    0.021574237970    0.012907206926    0.000003651665    -0.000019550947    0.032250559022    0.027507712590
            0.027477794908    0.019122851849    0.000003651790    -0.000019550989    0.016545407161    0.004566596691    0.000000231992    -0.000027579530
            -0.000003531257    -0.000020257829    0.032250562264    0.027507713411    0.000000231873    -0.000027579486    0.021710371738    0.013411418882
0.200     0.007742656238    0.016626781550    -0.000005831237    -0.000020362321    0.022389047086    0.022616577462    -0.000005943344    -0.000025809926
            -0.000005831148    -0.000020362358    0.015748344963    0.024048276805    0.000001024115    -0.000024497544    0.029914216298    0.030391517630
            0.022389118100    0.022616546562    0.000001024240    -0.000024497595    0.007922928827    0.016623054598    -0.000003946663    -0.000033266597
            -0.000005943266    -0.000025809960    0.029914210823    0.030391521616    -0.000003946775    -0.000033266550    0.016088951478    0.024491138087
0.225     0.004312492077    0.033885366110    -0.000009625030    -0.000024069579    0.018641526213    0.030934971075    -0.000010371649    -0.000031130793
            -0.000009624948    -0.000024069619    0.014345548540    0.039195654799    -0.000003346628    -0.000029069376    0.028328858851    0.036954291268
            0.018641594616    0.030934938028    -0.000003346501    -0.000029069434    0.004444931479    0.033844834584    -0.000010051606    -0.000038261330
            -0.000010371570    -0.000031130827    0.028328863293    0.036954290383    -0.000010051720    -0.000038261277    0.014821966350    0.039465218836
0.250     0.008534409553    0.053271209996    -0.000014719646    -0.000026802234    0.019049486354    0.042787074839    -0.000016590622    -0.000035298963
            -0.000014719566    -0.000026802277    0.019297019909    0.055877665244    -0.000009251306    -0.000032425041    0.029748479345    0.046375453661
            0.019049552957    0.042787037524    -0.000009251189    -0.000032425104    0.008599664108    0.053227532249    -0.000017769852    -0.000041653401
            -0.000016590549    -0.000035298999    0.029748483932    0.046375451907    -0.000017769957    -0.000041653344    0.019779793119    0.055920458656
0.275     0.020962221804    0.070694226417    -0.000020597650    -0.000028006481    0.025273723435    0.055461595205    -0.000023947088    -0.000037606126
            -0.000020597605    -0.000028006562    0.030998374896    0.070804420322    -0.000015988505    -0.000033958610    0.035621581738    0.056678595693
            0.025273791334    0.055461554373    -0.000015988388    -0.000033958683    0.020961863738    0.070690415987    -0.000026255017    -0.000042826691
            -0.000023947013    -0.000037606167    0.035621585695    0.056678593206    -0.000026255121    -0.000042826627    0.031342062256    0.070652029193
0.300     0.039886390531    0.082252836199    -0.000026445652    -0.000027538096    0.037229018833    0.065734702480    -0.000031424404    -0.000037864174
            -0.000026445573    -0.000027538149    0.048057173328    0.080854381881    -0.000022611456    -0.000033566253    0.046097340907    0.065389579476
            0.037229081764    0.065734661092    -0.000022611347    -0.000033566330    0.039847517677    0.082327658700    -0.000034418802    -0.000041746798
            -0.000031424325    -0.000037864227    0.046097343755    0.065389576245    -0.000034418903    -0.000041746729    0.048153486928    0.080621321763
0.325     0.061784365021    0.085424136580    -0.000031539642    -0.000025749395    0.053123767265    0.070899316687    -0.000038144948    -0.000036487403
            -0.000031539565    -0.000025749451    0.067646024968    0.084004957084    -0.000028300763    -0.000031724562    0.059989783710    0.070316772451
            0.053123829736    0.070899271128    -0.000028300662    -0.000031724638    0.061754073193    0.085598011146    -0.000041354012    -0.000039029684
            -0.000038144878    -0.000036487450    0.059989786093    0.070316767789    -0.000041354110    -0.000039029613    0.067465346019    0.083855521716
0.350     0.082329937169    0.079796674084    -0.000035514129    -0.000023338734    0.070036018294    0.069549445970    -0.000043661239    -0.000034307679
            -0.000035514054    -0.000023338792    0.086305133484    0.079918965423    -0.000032702005    -0.000029249763    0.075170366192    0.070187563700
            0.070036078090    0.069549398527    -0.000032701907    -0.000029249850    0.082363876715    0.080061925596    -0.000046705553    -0.000035656768
            -0.000043661168    -0.000034307734    0.075170368642    0.070187561076    -0.000046705642    -0.000035656694    0.085913419282    0.080016600739
0.375     0.097552440489    0.067124192827    -0.000038475534    -0.000021033888    0.084715162095    0.061906225791    -0.000048105549    -0.000032188856
            -0.000038475461    -0.000021033952    0.100869878433    0.069983122238    -0.000035982186    -0.000026966786    0.089159721301    0.064947385656
            0.084715227945    0.061906169578    -0.000035982088    -0.000026966880    0.097698660484    0.067441852080    -0.000050727709    -0.000032591896
            -0.000048105478    -0.000032188919    0.089159723568    0.064947382543    -0.000050727804    -0.000032591807    0.100416235971    0.070439662491
0.400     0.104808933342    0.050862945779    -0.000040907187    -0.000019355251    0.094385202797    0.049762928983    -0.000052071081    -0.000030740717
            -0.000040907123    -0.000019355317    0.109257293876    0.056923894457    -0.000038725399    -0.000025421001    0.099758749774    0.055759139534
            0.094385201928    0.049762930631    -0.000038725307    -0.000025421095    0.105091272222    0.051169481029    -0.000054150956    -0.000030450976
            -0.000052071019    -0.000030740778    0.099758742018    0.055759132914    -0.000054151018    -0.000030450911    0.108937699233    0.057761897816
0.425     0.103402158597    0.035361373361    -0.000043482716    -0.000018476013    0.097414741085    0.036114378581    -0.000056386054    -0.000030132268
            -0.000043482652    -0.000018476085    0.110939480861    0.044126047816    -0.000041694118    -0.000024762642    0.105572945881    0.044733414390
            0.097414800100    0.036114305699    -0.000041694039    -0.000024762733    0.103807860186    0.035582484322    -0.000057902551    -0.000029367941
            -0.000056385987    -0.000030132346    0.105572946662    0.044733412548    -0.000057902613    -0.000029367870    0.110946194943    0.045263512086
0.450     0.094831915404    0.024897425893    -0.000046918931    -0.000018196063    0.093837412834    0.024547154621    -0.000061913876    -0.000030055003
            -0.000046918872    -0.000018196135    0.107093696723    0.034851060857    -0.000045664788    -0.000024711999    0.106414461223    0.034473964861
            0.093837474778    0.024547079833    -0.000045664730    -0.000024712070    0.095307599153    0.024969512883    -0.000062898883    -0.000028959666
            -0.000061913815    -0.000030055080    0.106414461223    0.034473964861    -0.000062898939    -0.000028959599    0.107561178636    0.036112580192
0.475     0.082628401396    0.022620241538    -0.000051808788    -0.000017920859    0.085587726805    0.018348253152    -0.000069321529    -0.000029711131
            -0.000051808731    -0.000017920941    0.100395819009    0.031431084843    -0.000051233067    -0.000024581799    0.103468839324    0.027427236065
            0.085587785468    0.018348175107    -0.000051233007    -0.000024581881    0.083090560872    0.022512863544    -0.000069811617    -0.000028363839
            -0.000069321474    -0.000029711207    0.103468839803    0.027427234259    -0.000069811700    -0.000028363731    0.101358123861    0.032586476456
0.500     0.071673433776    0.029559915828    -0.000058432952    -0.000016669688    0.076257232017    0.019459772689    -0.000078844405    -0.000027866665
            -0.000058432904    -0.000016669762    0.094460276380    0.034585685044    -0.000058624710    -0.000023302835    0.099136610390    0.025148959464
            0.076257285779    0.019459691429    -0.000058624652    -0.000023302919    0.072038315696    0.029287988069    -0.000078840053    -0.000026297710
            -0.000078844350    -0.000027866754    0.099136610390    0.025148959464    -0.000078840105    -0.000026297636    0.095832228851    0.035405455177
0.525     0.066872993603    0.044021119914    -0.000066453646    -0.000013239336    0.070133890151    0.027596473316    -0.000089948700    -0.000023095687
            -0.000066453598    -0.000013239423    0.092906923571    0.043032767338    -0.000067398486    -0.000019633369    0.096410713696    0.027668714584
            0.070133938306    0.027596391899    -0.000067398436    -0.000019633443    0.067161512723    0.043615204665    -0.000089392909    -0.000021328400
            -0.000089948676    -0.000023095731    0.096410714662    0.027668711219    -0.000089392957    -0.000021328329    0.094494778215    0.043343292048
0.550     0.071985849799    0.060935546788    -0.000074623926    -0.000006638794    0.070989445424    0.039543639216    -0.000101039392    -0.000014307445
            -0.000074623888    -0.000006638869    0.098254505205    0.053670961225    -0.000076263760    -0.000012605856    0.097907074154    0.033319246582
            0.070989489918    0.039543555230    -0.000076263708    -0.000012605957    0.071956307399    0.061219890312    -0.000099911764    -0.000012399496
            -0.000101039349    -0.000014307529    0.097907075898    0.033319241456    -0.000099911802    -0.000012399430    0.099771293230    0.053403860560
0.575     0.087458237688    0.076255365959    -0.000081353349    0.000003370075    0.080291439196    0.051836478983    -0.000110234945    -0.000001318497
            -0.000081353312    0.000003369988    0.111011931696    0.062417036732    -0.000083447901    -0.000002098270    0.104925942488    0.039232147753
            0.080291479843    0.051836392055    -0.000083447856    -0.000002098356    0.087209100200    0.076428998743    -0.000108361978    0.000000555188
            -0.000110234924    -0.000001318554    0.104925945912    0.039232138596    -0.000108362027    0.000000555264    0.112146036662    0.061696349903
0.600     0.110634790548    0.083684300925    -0.000084827880    0.000015737677    0.096784709148    0.059235113611    -0.000115415864    0.000014548019
            -0.000084827844    0.000015737593    0.129430760101    0.065483301328    -0.000087199495    0.000010774917    0.117037732938    0.042263618003
            0.096784746108    0.059235034065    -0.000087199420    0.000010774723    0.110417521230    0.083972355266    -0.000112759477    0.000016198389
            -0.000115415864    0.000014548019    0.117037737364    0.042263605747    -0.000112759515    0.000016198474    0.130009644364    0.064596604678
0.625     0.136894295176    0.080435966943    -0.000084226294    0.000028616535    0.117135768325    0.058837927803    -0.000115658189    0.000031102422
            -0.000084226260    0.000028616458    0.150049776907    0.060559688129    -0.000086768056    0.000024054480    0.132213822766    0.039979708089
            0.117135789890    0.058837884870    -0.000086768008    0.000024054336    0.136588733464    0.080945871873    -0.000112292695    0.000032270818
            -0.000115658171    0.000031102374    0.132213824859    0.039979701166    -0.000112292739    0.000032270958    0.150083263155    0.059821773966
0.650     0.160789138415    0.066322221102    -0.000079915694    0.000040033471    0.137385842260    0.049655790609    -0.000111404348    0.000046035545
            -0.000079915666    0.000040033387    0.168799815069    0.047413329659    -0.000082592495    0.000035778520    0.147543199495    0.031350151553
            0.137385864922    0.049655698490    -0.000082592469    0.000035778423    0.160721696175    0.067167524436    -0.000107484323    0.000046540352
            -0.000111404325    0.000046035445    0.147543192449    0.031350136599    -0.000107484346    0.000046540451    0.168446254902    0.047085911138
0.675     0.177641188680    0.043727153992    -0.000073232190    0.000048579943    0.153420291875    0.032611055063    -0.000104208346    0.000057687569
            -0.000073232165    0.000048579852    0.182113472181    0.027779736436    -0.000076075522    0.000044540661    0.160062565449    0.016863436197
            0.153420311902    0.032611008943    -0.000076075491    0.000044540518    0.177973017451    0.044708619381    -0.000099943631    0.000057396163
            -0.000104208340    0.000057687518    0.160062566067    0.016863430331    -0.000099943667    0.000057396300    0.181636119328    0.028016803848
0.700     0.184499528900    0.016742781112    -0.000065927272    0.000053818192    0.162165631613    0.010363285493    -0.000096115381    0.000065521181
            -0.000065927241    0.000053818110    0.187724690832    0.004768313533    -0.000069021899    0.000049960273    0.167421498473    -0.001734209331
            0.162165641322    0.010363290376    -0.000069021887    0.000049960173    0.185267461808    0.017650421617    -0.000091743560    0.000064392160
            -0.000096115357    0.000065521091    0.167421498473    -0.001734209389    -0.000091743564    0.000064392258    0.187432497342    0.005583048862
0.725     0.180510482549    -0.009753586845    -0.000059598111    0.000056185460    0.161968535471    -0.013414844466    -0.000089008001    0.000070016736
            -0.000059598083    0.000056185374    0.185022494294    -0.017896620815    -0.000063040413    0.000052547567    0.168267175179    -0.021853346481
            0.161968541831    -0.013414888825    -0.000063040398    0.000052547424    0.181654964373    -0.009129260851    -0.000084746854    0.000068097998
            -0.000089007982    0.000070016646    0.168267174912    -0.021853348537    -0.000084746861    0.000068098101    0.185203277163    -0.016640854863
0.750     0.166999012339    -0.030953577967    -0.000055380337    0.000056746635    0.152870461177    -0.034563507070    -0.000084251081    0.000072412299
            -0.000055380321    0.000056746539    0.175100838353    -0.036619218330    -0.000059237254    0.000053435717    0.162505774678    -0.040510434910
            0.152870470531    -0.034563601733    -0.000059237244    0.000053435632    0.168363017799    -0.030783106502    -0.000080263371    0.000069810900
            -0.000084251066    0.000072412209    0.162505774678    -0.040510434910    -0.000080263375    0.000069811002    0.175956253101    -0.035186234779
0.775     0.147359752716    -0.042936899409    -0.000053818220    0.000056888813    0.136830336869    -0.049093710066    -0.000082510369    0.000074358407
            -0.000053818222    0.000056888735    0.160572281689    -0.048595336419    -0.000058095900    0.000054058154    0.151417183633    -0.054852870756
            0.136830344530    -0.049093807159    -0.000058095892    0.000054058014    0.148704949090    -0.043308059303    -0.000078892994    0.000071209792
            -0.000082510376    0.000074358309    0.151417174231    -0.054852867350    -0.000078893008    0.000071209880    0.162162122591    -0.047332531873
