# GHz S RI R 45
0.000     0.026550537000    0.000000000000    0.000000588648    0.000000000000    0.000707558620    -0.000000000000    -0.000009212056    0.000000000000
            0.000000588718    0.000000000000    0.026362530000    0.000000000000    0.000001076081    0.000000000000    0.000428305330    0.000000000000
            0.000707558630    -0.000000000000    0.000001076205    0.000000000000    0.026373635000    0.000000000000    -0.000031651680    0.000000000000
            -0.000009212035    0.000000000000    0.000428306670    0.000000000000    -0.000031651642    0.000000000000    0.026180244000    0.000000000000
0.025     0.034108877755    0.006729677329    -0.000024194994    -0.000057407672    0.004576293980    0.010867457291    -0.000022285610    -0.000054481753
            -0.000024194950    -0.000057407679    0.031858878776    0.008091957280    -0.000024407179    -0.000060382729    0.002869387415    0.012368071835
            0.004576282208    0.010867507820    -0.000024407048    -0.000060382770    0.034068889156    0.006734693539    -0.000015047158    -0.000042997092
            -0.000022285519    -0.000054481774    0.002869264597    0.012367904255    -0.000015047200    -0.000042997070    0.031847060689    0.008157677890
0.050     0.043486136381    0.004231207267    -0.000071526724    -0.000090952969    0.014506086604    0.016967968934    -0.000069050211    -0.000097930446
            -0.000071526724    -0.000090952969    0.036637017641    0.009891662631    -0.000074311485    -0.000096171276    0.009242463968    0.022222029072
            0.014506079192    0.016967981849    -0.000074311395    -0.000096171332    0.043489382380    0.004245859133    -0.000056288279    -0.000107130493
            -0.000069050136    -0.000097930486    0.009242493828    0.022222017736    -0.000056288297    -0.000107130483    0.036601937134    0.009876222383
0.075     0.051319377165    -0.005493176388    -0.000133858401    -0.000100419547    0.026425790330    0.015447138109    -0.000138080613    -0.000113122347
            -0.000133858401    -0.000100419547    0.039588191544    0.008982588534    -0.000140251355    -0.000106299437    0.017500373034    0.028168712166
            0.026425785692    0.015447144061    -0.000140251246    -0.000106299547    0.051400387138    -0.005495880640    -0.000135900936    -0.000134319564
            -0.000138080566    -0.000113122389    0.017500379534    0.028168711660    -0.000135900983    -0.000134319516    0.039451547290    0.008994529871
0.100     0.053203755950    -0.021189095374    -0.000202062622    -0.000081630435    0.035424912581    0.006295841780    -0.000215393263    -0.000095295291
            -0.000202062575    -0.000081630498    0.039455705081    0.006722898953    -0.000212325660    -0.000086381500    0.025334570189    0.030162164279
            0.035424912581    0.006295841780    -0.000212325547    -0.000086381670    0.053384371712    -0.021253556987    -0.000227703017    -0.000119763668
            -0.000215393212    -0.000095295358    0.025334572529    0.030162164926    -0.000227703017    -0.000119763668    0.039250968084    0.006855308282
0.125     0.045688979094    -0.038966204874    -0.000266571818    -0.000033523093    0.037295197717    -0.007750881064    -0.000289036924    -0.000043306354
            -0.000266571812    -0.000033523139    0.035655280449    0.005286236728    -0.000280284176    -0.000035444357    0.030860917398    0.029360627058
            0.037295197717    -0.007750881064    -0.000280284128    -0.000035444500    0.045966434742    -0.039140662228    -0.000315379176    -0.000063664806
            -0.000289036889    -0.000043306452    0.030860919360    0.029360627898    -0.000315379188    -0.000063664751    0.035475480612    0.005583986850
0.150     0.028015047433    -0.053163416388    -0.000318021305    0.000043200921    0.029906677073    -0.021996748844    -0.000347596915    0.000041709886
            -0.000318021305    0.000043200921    0.029087095695    0.006815772612    -0.000334151678    0.000045606082    0.033070859892    0.027734137413
            0.029906677073    -0.021996748844    -0.000334151663    0.000045605902    0.028362726029    -0.053515364577    -0.000385130615    0.000031403721
            -0.000347596910    0.000041709762    0.033070852753    0.027734141257    -0.000385130619    0.000031403789    0.029027823400    0.007259266544
0.175     0.002549409395    -0.058147590977    -0.000345887525    0.000146375107    0.013993077712    -0.031052528541    -0.000378721087    0.000156300207
            -0.000345887541    0.000146375042    0.021574237970    0.012907206926    -0.000362898028    0.000154207943    0.032250559022    0.027507712590
            0.013993077712    -0.031052528541    -0.000362898055    0.000154207805    0.002902184941    -0.058728766447    -0.000422839885    0.000160131432
            -0.000378721096    0.000156300133    0.032250562264    0.027507713411    -0.000422839866    0.000160131509    0.021710371738    0.013411418882
0.200     -0.025308576760    -0.050054743310    -0.000337815794    0.000269775794    -0.006771453426    -0.030506355606    -0.000368995750    0.000292335674
            -0.000337815794    0.000269775794    0.015748344963    0.024048276805    -0.000353766868    0.000283636594    0.029914216298    0.030391517630
            -0.006771453426    -0.030506355606    -0.000353766918    0.000283636533    -0.025046320412    -0.050881205266    -0.000414083159    0.000312573961
            -0.000368995750    0.000292335674    0.029914210823    0.030391521616    -0.000414083151    0.000312573955    0.016088951478    0.024491138087
0.225     -0.048432963369    -0.028292663630    -0.000282064344    0.000400003598    -0.026630263266    -0.018442494820    -0.000306612729    0.000434171985
            -0.000282064344    0.000400003598    0.014345548540    0.039195654799    -0.000294720288    0.000419784676    0.028328858851    0.036954291268
            -0.026630264088    -0.018442495389    -0.000294720579    0.000419784313    -0.048367681433    -0.029327422696    -0.000346570548    0.000470922086
            -0.000306613027    0.000434171603    0.028328863293    0.036954290383    -0.000346570296    0.000470922433    0.014821966350    0.039465218836
0.250     -0.059962307733    0.003794888693    -0.000173172764    0.000516099093    -0.039378430064    0.003677664181    -0.000187061939    0.000558986526
            -0.000173172764    0.000516099093    0.019297019909    0.055877665244    -0.000180269158    0.000540825371    0.029748479345    0.046375453661
            -0.039378430064    0.003677664181    -0.000180269158    0.000540825371    -0.060179760192    0.002647226155    -0.000215957510    0.000610244917
            -0.000187061945    0.000558986545    0.029748483932    0.046375451907    -0.000215957623    0.000610244898    0.019779793119    0.055920458656
0.275     -0.055437311809    0.039510884004    -0.000017208510    0.000594010527    -0.040283309548    0.031196429053    -0.000018001107    0.000641591802
            -0.000017208510    0.000594010527    0.030998374896    0.070804420322    -0.000016858547    0.000621762270    0.035621581738    0.056678595693
            -0.040283309548    0.031196429053    -0.000016858546    0.000621762260    -0.055970030261    0.038390351953    -0.000030901763    0.000703221187
            -0.000018001528    0.000641591620    0.035621585695    0.056678593206    -0.000030901788    0.000703221196    0.031342062256    0.070652029193
0.300     -0.034332738947    0.070499788048    0.000167358998    0.000614635115    -0.027611893061    0.057500120175    0.000180481057    0.000662664258
            0.000167359001    0.000614635124    0.048057173328    0.080854381881    0.000176216731    0.000642759873    0.046097340907    0.065389579476
            -0.027611893061    0.057500120175    0.000176216731    0.000642759873    -0.035137196114    0.069559885611    0.000186789192    0.000728944843
            0.000180481057    0.000662664258    0.046097343755    0.065389576245    0.000186789189    0.000728944834    0.048153486928    0.080621321763
0.325     -0.000392436459    0.089013135928    0.000354779680    0.000570505467    -0.003199072674    0.075859367763    0.000381367617    0.000615096327
            0.000354779680    0.000570505467    0.067646024968    0.084004957084    0.000372066319    0.000596058777    0.059989783710    0.070316772451
            -0.003199072674    0.075859367763    0.000372066319    0.000596058777    -0.001346176148    0.088378346139    0.000407779093    0.000679513764
            0.000381367617    0.000615096327    0.059989786093    0.070316767789    0.000407779088    0.000679513755    0.067465346019    0.083855521716
0.350     0.039243287998    0.089955826267    0.000520351499    0.000467472889    0.028021580413    0.081207929038    0.000559228648    0.000505270993
            0.000520351500    0.000467472874    0.086305133484    0.079918965423    0.000544851666    0.000487799268    0.075170366192    0.070187563700
            0.028021580413    0.081207929038    0.000544850780    0.000487799538    0.038321845656    0.089682881133    0.000604326061    0.000561549488
            0.000559228640    0.000505270986    0.075170368642    0.070187561076    0.000604326043    0.000561549492    0.085913419282    0.080016600739
0.375     0.075740801196    0.072133168741    0.000647230324    0.000320541074    0.059216527712    0.071345728851    0.000696761231    0.000348538748
            0.000647230329    0.000320541062    0.100869878433    0.069983122238    0.000676896631    0.000333753212    0.089159721301    0.064947385656
            0.059216527712    0.071345728851    0.000676896631    0.000333753212    0.075055249977    0.072184741429    0.000757202632    0.000391522553
            0.000696760831    0.000348538988    0.089159723568    0.064947382543    0.000757202632    0.000391522553    0.100416235971    0.070439662491
0.400     0.100530957871    0.038565817848    0.000728850197    0.000147016547    0.083143735090    0.047451801736    0.000786902779    0.000162306737
            0.000728850207    0.000147016549    0.109257293876    0.056923894457    0.000761331468    0.000152203452    0.099758749774    0.055759139534
            0.083143735090    0.047451801736    0.000761331458    0.000152203450    0.100260226452    0.038803905700    0.000858238640    0.000188416600
            0.000786902779    0.000162306737    0.099758742018    0.055759132914    0.000858238640    0.000188416600    0.108937699233    0.057761897816
0.425     0.107124254108    -0.004029166400    0.000766318476    -0.000039744079    0.093636436096    0.013970385252    0.000829912640    -0.000039980731
            0.000766318475    -0.000039744080    0.110939480861    0.044126047816    0.000799463877    -0.000042656187    0.105572945881    0.044733414390
            0.093636436096    0.013970385252    0.000799463877    -0.000042656186    0.107374529016    -0.003828190980    0.000907342132    -0.000032737085
            0.000829912650    -0.000039980731    0.105572946662    0.044733412548    0.000907342142    -0.000032737066    0.110946194943    0.045263512086
0.450     0.092597129682    -0.046394796240    0.000762839509    -0.000233116311    0.086990605466    -0.022026152939    0.000827784509    -0.000251244277
            0.000762839509    -0.000233116311    0.107093696723    0.034851060857    0.000794985721    -0.000243770681    0.106414461223    0.034473964861
            0.086990605466    -0.022026152939    0.000794985721    -0.000243770681    0.093360681694    -0.046503882077    0.000906680190    -0.000263699263
            0.000827784509    -0.000251244277    0.106414461223    0.034473964861    0.000906680190    -0.000263699263    0.107561178636    0.036112580192
0.475     0.058583822010    -0.078463715117    0.000717463092    -0.000431254208    0.063113609343    -0.052050478065    0.000778275786    -0.000468433518
            0.000717463092    -0.000431254208    0.100395819009    0.031431084843    0.000747343499    -0.000449332269    0.103468839324    0.027427236065
            0.063113609343    -0.052050478065    0.000747343437    -0.000449331343    0.059715127370    -0.079147930887    0.000854239258    -0.000500722903
            0.000778275776    -0.000468433050    0.103468839803    0.027427234259    0.000854239258    -0.000500722903    0.101358123861    0.032586476456
0.500     0.011519558151    -0.091588464190    0.000622027059    -0.000630623876    0.026157576460    -0.068049337217    0.000672397718    -0.000685964681
            0.000622027059    -0.000630623876    0.094460276380    0.034585685044    0.000648358521    -0.000656089458    0.099136610390    0.025148959464
            0.026157576460    -0.068049337217    0.000648358521    -0.000656089458    0.012739949189    -0.093033567828    0.000740935787    -0.000737795247
            0.000672397725    -0.000685964688    0.099136610390    0.025148959464    0.000740935787    -0.000737795247    0.095832228851    0.035405455177
0.525     -0.038288804852    -0.080940986607    0.000464293708    -0.000817968418    -0.015879648798    -0.064645040087    0.000498153351    -0.000888003058
            0.000464293708    -0.000817968418    0.092906923571    0.043032767338    0.000485273690    -0.000850869408    0.096410713696    0.027668714584
            -0.015879648798    -0.064645040087    0.000485273690    -0.000850869408    -0.037344643173    -0.083185708489    0.000554297863    -0.000958382332
            0.000498153416    -0.000888003137    0.096410714662    0.027668711219    0.000554297896    -0.000958382428    0.094494778215    0.043343292048
0.550     -0.078964636518    -0.047345487541    0.000238049514    -0.000966879613    -0.052911269914    -0.041089628891    0.000250932870    -0.001045776361
            0.000238049517    -0.000966879623    0.098254505205    0.053670961225    0.000251144348    -0.001006709035    0.097907074154    0.033319246582
            -0.052911269914    -0.041089628891    0.000251144348    -0.001006709035    -0.078664212159    -0.050241477278    0.000289196586    -0.001132322275
            0.000250932852    -0.001045776365    0.097907075898    0.033319241456    0.000289196018    -0.001132322936    0.099771293230    0.053403860560
0.575     -0.100295048278    0.002420419160    -0.000045842312    -0.001043913327    -0.075569420764    -0.001926656204    -0.000055790588    -0.001124614503
            -0.000045842312    -0.001043913327    0.111011931696    0.062417036732    -0.000043525912    -0.001088874010    0.104925942488    0.039232147753
            -0.075569420764    -0.001926656204    -0.000043525912    -0.001088874010    -0.100903559205    -0.000803712289    -0.000040760476    -0.001222815848
            -0.000055790607    -0.001124614502    0.104925945912    0.039232138596    -0.000040760476    -0.001222815848    0.112146036662    0.061696349903
0.600     -0.096722093980    0.057304872479    -0.000356111338    -0.001022742932    -0.078001977229    0.044164217625    -0.000388101894    -0.001098315077
            -0.000356111338    -0.001022742932    0.129430760101    0.065483301328    -0.000366951336    -0.001069398864    0.117037732938    0.042263618003
            -0.078001977229    0.044164217625    -0.000366951336    -0.001069398864    -0.098318800630    0.054182418863    -0.000400379774    -0.001201306273
            -0.000388101119    -0.001098314715    0.117037737364    0.042263605747    -0.000400379774    -0.001201306273    0.130009644364    0.064596604678
0.625     -0.068804833908    0.105080590815    -0.000649502186    -0.000896889512    -0.059402474329    0.086919401177    -0.000700661509    -0.000961541396
            -0.000649502343    -0.000896889399    0.150049776907    0.060559688129    -0.000674358649    -0.000940529253    0.132213822766    0.039979708089
            -0.059402474329    0.086919401177    -0.000674358088    -0.000940529163    -0.071251249114    0.102492413905    -0.000741789656    -0.001060724942
            -0.000700661509    -0.000961541396    0.132213824859    0.039979701166    -0.000741789656    -0.001060724942    0.150083263155    0.059821773966
0.650     -0.022693189121    0.135550101221    -0.000885887927    -0.000682868896    -0.023805799644    0.117248148633    -0.000952173090    -0.000732424120
            -0.000885887927    -0.000682868896    0.168799815069    0.047413329659    -0.000923475481    -0.000718495334    0.147543199495    0.031350151553
            -0.023805799644    0.117248148633    -0.000923474553    -0.000718495388    -0.025660963143    0.133824848820    -0.001020424705    -0.000818826620
            -0.000952173090    -0.000732424120    0.147543192449    0.031350136599    -0.001020424705    -0.000818826620    0.168446254902    0.047085911138
0.675     0.031835150713    0.142689531362    -0.001040228978    -0.000412526092    0.021396551407    0.129127438596    -0.001117283975    -0.000444304184
            -0.001040228978    -0.000412526092    0.182113472181    0.027779736436    -0.001087194206    -0.000436051104    0.160062565449    0.016863436197
            0.021396551407    0.129127438596    -0.001087193775    -0.000436051372    0.028792378285    0.141977851443    -0.001207778990    -0.000510118999
            -0.001117283092    -0.000444304510    0.160062566067    0.016863430331    -0.001207778990    -0.000510118999    0.181636119328    0.028016803848
0.700     0.083754103294    0.125405376542    -0.001106351412    -0.000121212866    0.067294256958    0.120365629257    -0.001189942078    -0.000133530801
            -0.001106351412    -0.000121212866    0.187724690832    0.004768313533    -0.001158012352    -0.000130382272    0.167421498473    -0.001734209331
            0.067294256958    0.120365629257    -0.001158011611    -0.000130382598    0.081110368310    0.125646490053    -0.001295563782    -0.000173330489
            -0.001189942078    -0.000133530801    0.167421498473    -0.001734209389    -0.001295563782    -0.000173330489    0.187432497342    0.005583048862
0.725     0.122846242355    0.087234464933    -0.001093171923    0.000162110914    0.105039126409    0.092545128364    -0.001179147464    0.000170428675
            -0.001093171923    0.000162110914    0.185022494294    -0.017896620815    -0.001144635190    0.000167377601    0.168267175179    -0.021853346481
            0.105039126409    0.092545128364    -0.001144635190    0.000167377601    0.121014465146    0.088163463877    -0.001291864492    0.000159187274
            -0.001179147593    0.000170428484    0.168267174912    -0.021853348537    -0.001291864492    0.000159187274    0.185203277163    -0.016640854863
0.750     0.141255159774    0.035527476057    -0.001017597223    0.000420166509    0.127088650328    0.050652091601    -0.001101489771    0.000449986728
            -0.001017597223    0.000420166509    0.175100838353    -0.036619218330    -0.001064848268    0.000438121258    0.162505774678    -0.040510434910
            0.127088650328    0.050652091601    -0.001064848268    0.000438121258    0.140506932899    0.036712163360    -0.001213640728    0.000467211900
            -0.001101489771    0.000449986728    0.162505774678    -0.040510434910    -0.001213640728    0.000467211900    0.175956253101    -0.035186234779
0.775     0.134683346977    -0.019617455945    -0.000896298750    0.000648058555    0.128325578448    0.002542343121    -0.000972872808    0.000699640445
            -0.000896298750    0.000648058555    0.160572281689    -0.048595336419    -0.000936893983    0.000676008333    0.151417183633    -0.054852870756
            0.128325578448    0.002542343121    -0.000936893983    0.000676008333    0.135083882357    -0.018712146224    -0.001078029784    0.000743444421
            -0.000972872808    0.000699640445    0.151417174231    -0.054852867350    -0.001078029784    0.000743444421    0.162162122591    -0.047332531873
