# GHz S RI R 45
0.000     0.025950209000    0.000000000000    -0.000005421032    0.000000000000    0.000675216510    -0.000000000000    -0.000002362310    0.000000000000
            -0.000005421011    0.000000000000    0.026362530000    0.000000000000    -0.000006252137    0.000000000000    0.000428305330    0.000000000000
            0.000675218550    -0.000000000000    -0.000006252115    0.000000000000    0.025881073000    0.000000000000    -0.000012940436    0.000000000000
            -0.000002362361    0.000000000000    0.000428306670    0.000000000000    -0.000012940443    0.000000000000    0.026180244000    0.000000000000
0.025     0.033372416792    0.006461752525    0.000001107557    -0.000005331662    0.004414414064    0.010305255024    0.000007032856    -0.000003477557
            0.000001107580    -0.000005331665    0.031858878776    0.008091957280    -0.000007508643    -0.000009410526    0.002869387415    0.012368071835
            0.004414403948    0.010305303961    -0.000007508611    -0.000009410536    0.033293881448    0.006363795945    -0.000002732881    -0.000001853522
            0.000007032884    -0.000003477565    0.002869264597    0.012367904255    -0.000002732888    -0.000001853525    0.031847060689    0.008157677890
0.050     0.042711731253    0.003984445746    -0.000005789593    -0.000017289699    0.014072164529    0.016075822505    0.000001784730    -0.000016816802
            -0.000005789581    -0.000017289705    0.036637017641    0.009891662631    -0.000016565956    -0.000018093672    0.009242463968    0.022222029072
            0.014072159125    0.016075833881    -0.000016565941    -0.000018093680    0.042599364875    0.003812728980    -0.000004403409    -0.000016652478
            0.000001784755    -0.000016816817    0.009242493828    0.022222017736    -0.000004403429    -0.000016652468    0.036601937134    0.009876222383
0.075     0.050820990049    -0.005589371062    -0.000019762879    -0.000021438799    0.025830827425    0.014521482103    -0.000010737315    -0.000023075836
            -0.000019762867    -0.000021438808    0.039588191544    0.008982588534    -0.000030540580    -0.000020174686    0.017500373034    0.028168712166
            0.025830822022    0.014521485592    -0.000030540571    -0.000020174695    0.050675864286    -0.005811370472    -0.000018445329    -0.000023784168
            -0.000010737290    -0.000023075857    0.017500379534    0.028168711660    -0.000018445345    -0.000023784155    0.039451547290    0.008994529871
0.100     0.053439390778    -0.021236196265    -0.000034883045    -0.000017308666    0.035031153791    0.005493975473    -0.000025308970    -0.000021952793
            -0.000034883033    -0.000017308682    0.039455705081    0.006722898953    -0.000045524107    -0.000015087274    0.025334570189    0.030162164279
            0.035031152966    0.005493974279    -0.000045524055    -0.000015087354    0.053279777259    -0.021492708311    -0.000035176178    -0.000022358953
            -0.000025308954    -0.000021952817    0.025334572529    0.030162164926    -0.000035176186    -0.000022358941    0.039250968084    0.006855308282
0.125     0.047095146420    -0.039418049032    -0.000047468245    -0.000006010102    0.037580641634    -0.008580228341    -0.000038679702    -0.000014130928
            -0.000047468242    -0.000006010110    0.035655280449    0.005286236728    -0.000058709188    -0.000003164808    0.030860917398    0.029360627058
            0.037580640509    -0.008580228774    -0.000058709188    -0.000003164819    0.046939264669    -0.039711435892    -0.000050882439    -0.000013001941
            -0.000038679690    -0.000014130962    0.030860919360    0.029360627898    -0.000050882448    -0.000013001925    0.035475480612    0.005583986850
0.150     0.030753620423    -0.054807652664    -0.000055178505    0.000010729932    0.031239313437    -0.023375502249    -0.000048662246    -0.000000614224
            -0.000055178504    0.000010729932    0.029087095695    0.006815772612    -0.000067889045    0.000014609732    0.033070859892    0.027734137413
            0.031239311821    -0.023375502741    -0.000067889034    0.000014609643    0.030625430378    -0.055157120696    -0.000062952597    0.000003281402
            -0.000048662243    -0.000000614258    0.033070852753    0.027734141257    -0.000062952601    0.000003281402    0.029027823400    0.007259266544
0.175     0.006283046648    -0.061942367969    -0.000056324146    0.000030775229    0.016374572216    -0.033782395133    -0.000053350535    0.000017100454
            -0.000056324150    0.000030775181    0.021574237970    0.012907206926    -0.000071067012    0.000036949266    0.032250559022    0.027507712590
            0.016374571191    -0.033782394519    -0.000071067012    0.000036949266    0.006178510174    -0.062386526160    -0.000069019440    0.000025013400
            -0.000053350538    0.000017100434    0.032250562264    0.027507713411    -0.000069019440    0.000025013400    0.021710371738    0.013411418882
0.200     -0.021539721539    -0.056797284421    -0.000049853714    0.000051801548    -0.003888535257    -0.035410649733    -0.000051211353    0.000037124969
            -0.000049853749    0.000051801458    0.015748344963    0.024048276805    -0.000066380556    0.000062010778    0.029914216298    0.030391517630
            -0.003888535766    -0.035410648671    -0.000066380587    0.000062010698    -0.021656733430    -0.057370623328    -0.000066997889    0.000050146782
            -0.000051211385    0.000037124884    0.029914210823    0.030391521616    -0.000066997883    0.000050146795    0.016088951478    0.024491138087
0.225     -0.046110839739    -0.038213338997    -0.000035332613    0.000070890270    -0.024341612623    -0.025993057622    -0.000041272476    0.000056734131
            -0.000035332612    0.000070890268    0.014345548540    0.039195654799    -0.000052297027    0.000086918378    0.028328858851    0.036954291268
            -0.024341611940    -0.025993056892    -0.000052297082    0.000086918298    -0.046302705112    -0.038924179318    -0.000055322403    0.000075545146
            -0.000041272497    0.000056734097    0.028328863293    0.036954290383    -0.000055322404    0.000075545148    0.014821966350    0.039465218836
0.250     -0.060717089344    -0.008641451210    -0.000013460795    0.000084869112    -0.039068547941    -0.006289844676    -0.000023708969    0.000072730811
            -0.000013460795    0.000084869111    0.019297019909    0.055877665244    -0.000028486733    0.000107836018    0.029748479345    0.046375453661
            -0.039068546954    -0.006289844517    -0.000028486752    0.000107836013    -0.061052966039    -0.009455633861    -0.000033747116    0.000097252261
            -0.000023709046    0.000072730747    0.029748483932    0.046375451907    -0.000033747119    0.000097252270    0.019779793119    0.055920458656
0.275     -0.060479998003    0.026170565935    0.000013505098    0.000090734273    -0.043151821735    0.019882505774    -0.000000310593    0.000081980433
            0.000013505098    0.000090734271    0.030998374896    0.070804420322    0.000003432945    0.000120605952    0.035621581738    0.056678595693
            -0.043151820827    0.019882505355    0.000003432941    0.000120605952    -0.061008069470    0.025332229608    -0.000004006593    0.000111140855
            -0.000000310634    0.000081980409    0.035621585695    0.056678593206    -0.000004006591    0.000111140855    0.031342062256    0.070652029193
0.300     -0.043904691980    0.058497096710    0.000042008424    0.000086778922    -0.034167833480    0.046561389224    0.000025783864    0.000082509851
            0.000042008334    0.000086778899    0.048057173328    0.080854381881    0.000039838289    0.000122124208    0.046097340907    0.065389579476
            -0.034167827129    0.046561397606    0.000039838287    0.000122124209    -0.044625473880    0.057744302406    0.000030298208    0.000114257386
            0.000025783774    0.000082509829    0.046097343755    0.065389576245    0.000030298208    0.000114257386    0.048153486928    0.080621321763
0.325     -0.013483653020    0.080602303333    0.000067958966    0.000073150736    -0.012952105174    0.067195092832    0.000050859052    0.000074083001
            0.000067958918    0.000073150733    0.067646024968    0.084004957084    0.000075953885    0.000111340500    0.059989783710    0.070316772451
            -0.012952105174    0.067195092832    0.000075953793    0.000111340502    -0.014334273396    0.080045557592    0.000064569445    0.000105687345
            0.000050859052    0.000074083000    0.059989786093    0.070316767789    0.000064569445    0.000105687345    0.067465346019    0.083855521716
0.350     0.024777480565    0.086716442984    0.000088015895    0.000051853791    0.016545054951    0.076328502687    0.000071812082    0.000058159255
            0.000088015895    0.000051853791    0.086305133484    0.079918965423    0.000107295030    0.000089545321    0.075170366192    0.070187563700
            0.016545056283    0.076328502398    0.000107295030    0.000089545321    0.023921298559    0.086432185264    0.000094629396    0.000086703286
            0.000071812080    0.000058159253    0.075170368642    0.070187561076    0.000094629402    0.000086703279    0.085913419282    0.080016600739
0.375     0.062721065584    0.074455065269    0.000100285921    0.000025951757    0.048170841650    0.070917489800    0.000086797660    0.000037146865
            0.000100285921    0.000025951755    0.100869878433    0.069983122238    0.000130768905    0.000059628722    0.089159721301    0.064947385656
            0.048170842326    0.070917488132    0.000130768819    0.000059628765    0.062025188519    0.074454510954    0.000117669078    0.000059986324
            0.000086797618    0.000037146891    0.089159723568    0.064947382543    0.000117669122    0.000059986303    0.100416235971    0.070439662491
0.400     0.091822816324    0.045430062695    0.000104568861    -0.000001484657    0.074909583113    0.051054108903    0.000095377260    0.000013448484
            0.000104568782    -0.000001484599    0.109257293876    0.056923894457    0.000145129345    0.000024932905    0.099758749774    0.055759139534
            0.074909583178    0.051054107033    0.000145129273    0.000024932965    0.091460680670    0.045639327812    0.000132592402    0.000028505202
            0.000095377258    0.000013448483    0.099758742018    0.055759132914    0.000132592403    0.000028505197    0.108937699233    0.057761897816
0.425     0.104995210247    0.005018971331    0.000101797299    -0.000028162205    0.090331037716    0.020051007464    0.000097978642    -0.000011205564
            0.000101797299    -0.000028162205    0.110939480861    0.044126047816    0.000150552152    -0.000011799804    0.105572945881    0.044733414390
            0.090331036113    0.020051005454    0.000150552152    -0.000011799802    0.105106831285    0.005275870992    0.000139502250    -0.000005413559
            0.000097978641    -0.000011205564    0.105572946662    0.044733412548    0.000139502249    -0.000005413562    0.110946194943    0.045263512086
0.450     0.098138620962    -0.038556134261    0.000093267527    -0.000052939350    0.089973828522    -0.016030718517    0.000095170257    -0.000035985358
            0.000093267518    -0.000052939345    0.107093696723    0.034851060857    0.000147767955    -0.000048952986    0.106414461223    0.034473964861
            0.089973827258    -0.016030719912    0.000147767954    -0.000048952988    0.098787695016    -0.038487985283    0.000138848012    -0.000040483778
            0.000095170257    -0.000035985358    0.106414461223    0.034473964861    0.000138848011    -0.000040483780    0.107561178636    0.036112580192
0.475     0.071230175730    -0.075731498329    0.000079776684    -0.000075505654    0.072489874786    -0.049400921292    0.000086935862    -0.000060568400
            0.000079776683    -0.000075505656    0.100395819009    0.031431084843    0.000137024682    -0.000085808377    0.103468839324    0.027427236065
            0.072489873960    -0.049400920729    0.000137024684    -0.000085808375    0.072365381563    -0.076130222294    0.000130465289    -0.000076111115
            0.000086935862    -0.000060568400    0.103468839803    0.027427234259    0.000130465289    -0.000076111115    0.101358123861    0.032586476456
0.500     0.028760624064    -0.097560002175    0.000061222816    -0.000095692058    0.040357599079    -0.072092939208    0.000072441103    -0.000084401348
            0.000061222816    -0.000095692058    0.094460276380    0.034585685044    0.000117547475    -0.000121695576    0.099136610390    0.025148959464
            0.040357597821    -0.072092939912    0.000117547477    -0.000121695574    0.030181087321    -0.098693793187    0.000113176812    -0.000111487829
            0.000072441111    -0.000084401262    0.099136610390    0.025148959464    0.000113176812    -0.000111487829    0.095832228851    0.035405455177
0.525     -0.020768975226    -0.097890114122    0.000036973016    -0.000112398480    -0.000192029131    -0.077891701292    0.000050565473    -0.000105731615
            0.000036973016    -0.000112398480    0.092906923571    0.043032767338    0.000087865846    -0.000154679775    0.096410713696    0.027668714584
            -0.000192029129    -0.077891700292    0.000087865849    -0.000154679773    -0.019442516327    -0.099917955278    0.000085292217    -0.000144337937
            0.000050565488    -0.000105731575    0.096410714662    0.027668711219    0.000085292217    -0.000144337937    0.094494778215    0.043343292048
0.550     -0.066568706348    -0.075292028098    0.000006883331    -0.000123237498    -0.040361706324    -0.064218783535    0.000021052888    -0.000121411633
            0.000006883331    -0.000123237498    0.098254505205    0.053670961225    0.000047129995    -0.000180904757    0.097907074154    0.033319246582
            -0.040361705792    -0.064218782689    0.000047129995    -0.000180904757    -0.065803338412    -0.078072458619    0.000046030362    -0.000170437631
            0.000021052938    -0.000121411554    0.097907075898    0.033319241456    0.000046030365    -0.000170437631    0.099771293230    0.053403860560
0.575     -0.098320450719    -0.033663707116    -0.000027581969    -0.000125191589    -0.071000786899    -0.033045321205    -0.000014411877    -0.000127780085
            -0.000027581969    -0.000125191589    0.111011931696    0.062417036732    -0.000003183862    -0.000195278056    0.104925942488    0.039232147753
            -0.071000785992    -0.033045320783    -0.000003183862    -0.000195278056    -0.098337322165    -0.036796829792    -0.000002824740    -0.000184507948
            -0.000014411843    -0.000127780049    0.104925945912    0.039232138596    -0.000002824740    -0.000184507948    0.112146036662    0.061696349903
0.600     -0.108547722773    0.018694510762    -0.000062917192    -0.000115889085    -0.084837666472    0.009490851166    -0.000051924421    -0.000122063488
            -0.000062917192    -0.000115889085    0.129430760101    0.065483301328    -0.000058474865    -0.000193437701    0.117037732938    0.042263618003
            -0.084837663491    0.009490850833    -0.000058474868    -0.000193437711    -0.109354704269    0.015537854055    -0.000056347669    -0.000182289595
            -0.000051924425    -0.000122063497    0.117037737364    0.042263605747    -0.000056347672    -0.000182289604    0.130009644364    0.064596604678
0.625     -0.094484127741    0.070763101170    -0.000094262677    -0.000095173566    -0.078351886584    0.054438459100    -0.000086220721    -0.000103921026
            -0.000094262677    -0.000095173566    0.150049776907    0.060559688129    -0.000111999685    -0.000173805681    0.132213822766    0.039979708089
            -0.078351886584    0.054438459100    -0.000111999685    -0.000173805681    -0.096037455078    0.067881988373    -0.000107626394    -0.000162515998
            -0.000086220709    -0.000103921049    0.132213824859    0.039979701166    -0.000107626360    -0.000162516008    0.150083263155    0.059821773966
0.650     -0.058875235351    0.111571740471    -0.000117291446    -0.000065570243    -0.052647503100    0.092352089302    -0.000112637462    -0.000075835625
            -0.000117291446    -0.000065570243    0.168799815069    0.047413329659    -0.000157049386    -0.000138389034    0.147543199495    0.031350151553
            -0.052647503100    0.092352089302    -0.000157049379    -0.000138389028    -0.061016019361    0.109265168562    -0.000150043630    -0.000127558033
            -0.000112637462    -0.000075835625    0.147543192449    0.031350136599    -0.000150043630    -0.000127558033    0.168446254902    0.047085911138
0.675     -0.009043293912    0.132790042115    -0.000129680225    -0.000031277922    -0.012875551903    0.115502851780    -0.000128589213    -0.000041997093
            -0.000129680215    -0.000031277920    0.182113472181    0.027779736436    -0.000188952707    -0.000091893472    0.160062565449    0.016863436197
            -0.012875551903    0.115502851780    -0.000188952707    -0.000091893472    -0.011475062258    0.131280925565    -0.000179234720    -0.000082364374
            -0.000128589194    -0.000041997087    0.160062566067    0.016863430331    -0.000179234702    -0.000082364365    0.181636119328    0.028016803848
0.700     0.044996924419    0.130285483042    -0.000131462983    0.000003379752    0.033155582830    0.119306480684    -0.000133868921    -0.000006726156
            -0.000131462933    0.000003379751    0.187724690832    0.004768313533    -0.000205925156    -0.000039984829    0.167421498473    -0.001734209331
            0.033155582830    0.119306480684    -0.000205925178    -0.000039984871    0.042661543455    0.129652336905    -0.000193812900    -0.000032625592
            -0.000133868921    -0.000006726156    0.167421498473    -0.001734209389    -0.000193812900    -0.000032625592    0.187432497342    0.005583048862
0.725     0.092628721554    0.104595002486    -0.000124436792    0.000035148291    0.076587601228    0.102891758104    -0.000129997433    0.000026715806
            -0.000124436792    0.000035148291    0.185022494294    -0.017896620815    -0.000208707058    0.000012338365    0.168267175179    -0.021853346481
            0.076587595257    0.102891750082    -0.000208707058    0.000012338365    0.090795952715    0.104739963391    -0.000194858410    0.000016846998
            -0.000129997433    0.000026715806    0.168267174912    -0.021853348537    -0.000194858410    0.000016846998    0.185203277163    -0.016640854863
0.750     0.124509558325    0.060590862581    -0.000111156013    0.000062400449    0.109005460477    0.069081989026    -0.000119209343    0.000056627656
            -0.000111156002    0.000062400469    0.175100838353    -0.036619218330    -0.000199554316    0.000061709755    0.162505774678    -0.040510434910
            0.109005460477    0.069081989026    -0.000199554316    0.000061709755    0.123524863776    0.061241352220    -0.000184820692    0.000063007018
            -0.000119208798    0.000056626963    0.162505774678    -0.040510434910    -0.000184820720    0.000063007028    0.175956253101    -0.035186234779
0.775     0.134090461983    0.006612165427    -0.000093924465    0.000085076710    0.123752171496    0.023969606766    -0.000103456730    0.000082755973
            -0.000093924258    0.000085076313    0.160572281689    -0.048595336419    -0.000180986487    0.000106652336    0.151417183633    -0.054852870756
            0.123752171496    0.023969606766    -0.000180986279    0.000106651959    0.134166545864    0.007352717820    -0.000166214158    0.000104727086
            -0.000103456715    0.000082755991    0.151417174231    -0.054852867350    -0.000166214158    0.000104727086    0.162162122591    -0.047332531873
