# GHz S RI R 45
0.000     0.027236109000    0.000000000000    -0.000075343118    0.000000000000    0.000523619430    0.000000000000    -0.000041557290    0.000000000000
            -0.000075342629    0.000000000000    0.026362530000    0.000000000000    -0.000054350795    0.000000000000    0.000428305330    0.000000000000
            0.000523594400    0.000000000000    -0.000054350676    0.000000000000    0.027188801000    0.000000000000    -0.000049375316    0.000000000000
            -0.000041556933    0.000000000000    0.000428306670    0.000000000000    -0.000049375692    0.000000000000    0.026180244000    0.000000000000
0.025     0.033452375838    0.008373981558    -0.000110940245    -0.000035163061    0.003304461903    0.013020947317    -0.000098816467    -0.000047567116
            -0.000110940245    -0.000035163061    0.031858878776    0.008091957280    -0.000115517508    -0.000050998888    0.002869387415    0.012368071835
            0.003304312431    0.013020775814    -0.000115517526    -0.000050998871    0.033376986730    0.008384719755    -0.000088062634    -0.000035973595
            -0.000098816343    -0.000047567120    0.002869264597    0.012367904255    -0.000088062832    -0.000035973569    0.031847060689    0.008157677890
0.050     0.039043887375    0.009605381288    -0.000129931972    -0.000035639493    0.010755776570    0.022938212918    -0.000125084913    -0.000037766100
            -0.000129931972    -0.000035639493    0.036637017641    0.009891662631    -0.000143774509    -0.000040640643    0.009242463968    0.022222029072
            0.010755781229    0.022938204106    -0.000143774538    -0.000040640651    0.038933830442    0.009680389678    -0.000107889489    -0.000033803610
            -0.000125084942    -0.000037766109    0.009242493828    0.022222017736    -0.000107890485    -0.000033803508    0.036601937134    0.009876222383
0.075     0.042447858758    0.007285990674    -0.000141986107    -0.000037106947    0.020072641286    0.027871972212    -0.000136366108    -0.000031891867
            -0.000141985130    -0.000037107088    0.039588191544    0.008982588534    -0.000155922320    -0.000034320519    0.017500373034    0.028168712166
            0.020072620946    0.027871975769    -0.000155922359    -0.000034320527    0.042335794233    0.007466157203    -0.000119359808    -0.000033107798
            -0.000136366137    -0.000031891873    0.017500379534    0.028168711660    -0.000119359823    -0.000033107780    0.039451547290    0.008994529871
0.100     0.041757205182    0.003096620980    -0.000154497766    -0.000038088220    0.028124166318    0.027990154606    -0.000145965103    -0.000027821231
            -0.000154497766    -0.000038088220    0.039455705081    0.006722898953    -0.000166137731    -0.000029960016    0.025334570189    0.030162164279
            0.028124140762    0.027990160438    -0.000166137781    -0.000029960024    0.041706879578    0.003401004912    -0.000130790896    -0.000032257222
            -0.000145964170    -0.000027821423    0.025334572529    0.030162164926    -0.000130790905    -0.000032257225    0.039250968084    0.006855308282
0.125     0.036041625416    0.000018178368    -0.000168107578    -0.000036760075    0.032496524393    0.025167969222    -0.000155711846    -0.000023250093
            -0.000168107094    -0.000036760185    0.035655280449    0.005286236728    -0.000176438685    -0.000025225410    0.030860917398    0.029360627058
            0.032496501464    0.025167975963    -0.000176438253    -0.000025225537    0.036127356338    0.000423885863    -0.000142936191    -0.000029347554
            -0.000155711886    -0.000023250099    0.030860919360    0.029360627898    -0.000142936201    -0.000029347556    0.035475480612    0.005583986850
0.150     0.026419899950    0.001079069085    -0.000182153386    -0.000032384831    0.032206387716    0.022342881547    -0.000165518062    -0.000016923306
            -0.000182153386    -0.000032384831    0.029087095695    0.006815772612    -0.000186866187    -0.000018840618    0.033070859892    0.027734137413
            0.032206360879    0.022342890407    -0.000186865292    -0.000018840923    0.026714189067    0.001503040395    -0.000155156842    -0.000023567736
            -0.000165518112    -0.000016923311    0.033070852753    0.027734141257    -0.000155156862    -0.000023567739    0.029027823400    0.007259266544
0.175     0.015570641109    0.008605093398    -0.000195620742    -0.000024588026    0.028199942002    0.022576421294    -0.000174614976    -0.000008326756
            -0.000195620742    -0.000024588026    0.021574237970    0.012907206926    -0.000196767336    -0.000010214445    0.032250559022    0.027507712590
            0.028199921981    0.022576430302    -0.000196766928    -0.000010214596    0.016082346866    0.008922003958    -0.000166378347    -0.000014628613
            -0.000174614558    -0.000008326919    0.032250562264    0.027507713411    -0.000166378367    -0.000014628615    0.021710371738    0.013411418882
0.200     0.007370674736    0.023167133178    -0.000207489080    -0.000013777081    0.023129010034    0.027887683291    -0.000182146711    0.000002325863
            -0.000207489080    -0.000013777081    0.015748344963    0.024048276805    -0.000205334935    0.000000560431    0.029914216298    0.030391517630
            0.023128986735    0.027887694820    -0.000205334985    0.000000560432    0.008028051918    0.023253461456    -0.000175595732    -0.000003042043
            -0.000182146771    0.000002325864    0.029914210823    0.030391521616    -0.000175595752    -0.000003042043    0.016088951478    0.024491138087
0.225     0.005733827803    0.042981521060    -0.000216859936    -0.000000675989    0.020466787907    0.038379306935    -0.000187392878    0.000014359088
            -0.000216859486    -0.000000676177    0.014345548540    0.039195654799    -0.000211809486    0.000012961020    0.028328858851    0.036954291268
            0.020466768481    0.038379317294    -0.000211809544    0.000012961060    0.006393950158    0.042765789190    -0.000181995315    0.000010303788
            -0.000187392492    0.000014358894    0.028328863293    0.036954290383    -0.000181995345    0.000010303789    0.014821966350    0.039465218836
0.250     0.013164253040    0.064166359869    -0.000223444035    0.000013539835    0.023220495825    0.052055063982    -0.000190214987    0.000026731619
            -0.000223443173    0.000013539352    0.019297019909    0.055877665244    -0.000215924447    0.000026027869    0.029748479345    0.046375453661
            0.023220481194    0.052055072698    -0.000215924503    0.000026027914    0.013653503080    0.063667857895    -0.000185468097    0.000024167597
            -0.000190215061    0.000026731663    0.029748483932    0.046375451907    -0.000185468117    0.000024167600    0.019779793119    0.055920458656
0.275     0.029684926193    0.081849333314    -0.000227429274    0.000027794870    0.032758228765    0.065469191086    -0.000190977351    0.000038515177
            -0.000227428852    0.000027794617    0.030998374896    0.070804420322    -0.000217886107    0.000038828259    0.035621581738    0.056678595693
            0.032758207502    0.065469202843    -0.000217886156    0.000038828268    0.029856075246    0.081186556566    -0.000186403226    0.000037476377
            -0.000190977403    0.000038515222    0.035621585695    0.056678593206    -0.000186404085    0.000037476922    0.031342062256    0.070652029193
0.300     0.052649893408    0.091775992288    -0.000229624548    0.000041344651    0.048298674187    0.074953459088    -0.000190552675    0.000049189981
            -0.000229624538    0.000041344649    0.048057173328    0.080854381881    -0.000218456778    0.000050733642    0.046097340907    0.065389579476
            0.048298660563    0.074953466677    -0.000218456001    0.000050733141    0.052437293567    0.091138014763    -0.000185764185    0.000049625761
            -0.000190552725    0.000049190029    0.046097343755    0.065389576245    -0.000185764204    0.000049625766    0.048153486928    0.080621321763
0.325     0.077533795640    0.091663468086    -0.000230878720    0.000054033433    0.067210010485    0.077825384580    -0.000189798414    0.000058815556
            -0.000230878710    0.000054033431    0.067646024968    0.084004957084    -0.000218472882    0.000061668500    0.059989783710    0.070316772451
            0.067209976527    0.077825413906    -0.000218472540    0.000061668239    0.076981156336    0.091256425402    -0.000184456765    0.000060621007
            -0.000189798043    0.000058815332    0.059989786093    0.070316767789    -0.000184457168    0.000060621318    0.067465346019    0.083855521716
0.350     0.099290834755    0.081847828356    -0.000231959626    0.000066231460    0.085874706911    0.073146236297    -0.000189371934    0.000067940060
            -0.000231959616    0.000066231458    0.086305133484    0.079918965423    -0.000218659083    0.000072063265    0.075170366192    0.070187563700
            0.085874709464    0.073146233300    -0.000218658358    0.000072062687    0.098547834426    0.081835117179    -0.000183193370    0.000071006556
            -0.000189371960    0.000067940106    0.075170368642    0.070187561076    -0.000183193380    0.000071006560    0.085913419282    0.080016600739
0.375     0.113713477493    0.065095080888    -0.000233130505    0.000078581353    0.100671865428    0.061889860823    -0.000189403526    0.000077310383
            -0.000233129785    0.000078580703    0.100869878433    0.069983122238    -0.000219260743    0.000082622652    0.089159721301    0.064947385656
            0.100671825706    0.061889887247    -0.000219260756    0.000082622701    0.113001943177    0.065546659145    -0.000182101503    0.000081502493
            -0.000189403550    0.000077310431    0.089159723568    0.064947382543    -0.000182101861    0.000081502844    0.100416235971    0.070439662491
0.400     0.118448931999    0.045874026312    -0.000234266543    0.000091779425    0.108857460525    0.046707626865    -0.000189601894    0.000087635562
            -0.000234266543    0.000091779425    0.109257293876    0.056923894457    -0.000220110848    0.000094087219    0.099758749774    0.055759139534
            0.108857461341    0.046707624965    -0.000220110868    0.000094087274    0.118009182935    0.046738544481    -0.000180889707    0.000092798998
            -0.000189601921    0.000087635575    0.099758742018    0.055759132914    -0.000180889716    0.000092799002    0.108937699233    0.057761897816
0.425     0.113561900663    0.029325249750    -0.000234782965    0.000106291715    0.109252472687    0.031390399845    -0.000189260584    0.000099318946
            -0.000234782629    0.000106291366    0.110939480861    0.044126047816    -0.000220589476    0.000106972888    0.105572945881    0.044733414390
            0.109252473235    0.031390397939    -0.000220589521    0.000106972910    0.113589274207    0.030428851320    -0.000178839191    0.000105222906
            -0.000189260593    0.000099318993    0.105572946662    0.044733412548    -0.000178839854    0.000105223633    0.110946194943    0.045263512086
0.450     0.101688826645    0.020098015162    -0.000233880782    0.000122244503    0.102757445344    0.020066188456    -0.000187510481    0.000112355875
            -0.000233880794    0.000122244457    0.107093696723    0.034851060857    -0.000219841695    0.000121430635    0.106414461223    0.034473964861
            0.102757445344    0.020066188456    -0.000219841730    0.000121430654    0.102271710944    0.021175082330    -0.000175104846    0.000118698199
            -0.000187510516    0.000112355895    0.106414461223    0.034473964861    -0.000175104855    0.000118698205    0.107561178636    0.036112580192
0.475     0.087682788695    0.021080128293    -0.000230660170    0.000139227626    0.092481791816    0.016054337877    -0.000183487723    0.000126187934
            -0.000230660161    0.000139227621    0.100395819009    0.031431084843    -0.000216911055    0.000137072495    0.103468839324    0.027427236065
            0.092481791872    0.016054337554    -0.000216911098    0.000137072522    0.088758534161    0.021837130226    -0.000168877751    0.000132563301
            -0.000183487742    0.000126187994    0.103468839803    0.027427234259    -0.000168877759    0.000132563307    0.101358123861    0.032586476456
0.500     0.077574089644    0.032249484688    -0.000224490116    0.000156321342    0.083187624343    0.020584898895    -0.000176695089    0.000139775908
            -0.000224490107    0.000156321336    0.094460276380    0.034585685044    -0.000211104171    0.000152962111    0.099136610390    0.025148959464
            0.083187624343    0.020584898895    -0.000211104193    0.000152962183    0.078922872688    0.032452880982    -0.000159757271    0.000145715970
            -0.000176695120    0.000139775933    0.099136610390    0.025148959464    -0.000159757795    0.000145716805    0.095832228851    0.035405455177
0.525     0.076764502922    0.050153313480    -0.000215309127    0.000172182674    0.079827458862    0.031917562842    -0.000167285239    0.000151773756
            -0.000215308858    0.000172182273    0.092906923571    0.043032767338    -0.000202313161    0.000167726657    0.096410713696    0.027668714584
            0.079827458862    0.031917562842    -0.000202313170    0.000167726724    0.078059880684    0.049716819675    -0.000148027623    0.000156760685
            -0.000167285283    0.000151773796    0.096410714662    0.027668711219    -0.000148027630    0.000156760693    0.094494778215    0.043343292048
0.550     0.087993495585    0.068664422690    -0.000203916546    0.000185551797    0.085625564590    0.045616997229    -0.000156250596    0.000161054755
            -0.000203916546    0.000185551797    0.098254505205    0.053670961225    -0.000191321403    0.000180046704    0.097907074154    0.033319246582
            0.085625567861    0.045616993216    -0.000191321524    0.000180046692    0.088901491934    0.067693289064    -0.000134823494    0.000164589213
            -0.000156250679    0.000161054785    0.097907075898    0.033319241456    -0.000134823507    0.000164589228    0.099771293230    0.053403860560
0.575     0.110106945129    0.081027230776    -0.000191802354    0.000195778022    0.100694986756    0.056126527615    -0.000145167062    0.000167213860
            -0.000191802142    0.000195777600    0.111011931696    0.062417036732    -0.000179640482    0.000189227939    0.104925942488    0.039232147753
            0.100694949450    0.056126615084    -0.000179640477    0.000189227999    0.110397008372    0.079794760777    -0.000121860996    0.000168857385
            -0.000145166858    0.000167213507    0.104925945912    0.039232138596    -0.000121861008    0.000168857401    0.112146036662    0.061696349903
0.600     0.138468945711    0.082272114644    -0.000180622272    0.000203254840    0.122085009045    0.058863700940    -0.000135620029    0.000170878551
            -0.000180622265    0.000203254833    0.129430760101    0.065483301328    -0.000168976524    0.000195636000    0.117037732938    0.042263618003
            0.122085016236    0.058863686024    -0.000168976529    0.000195636075    0.138087849596    0.081133459572    -0.000110818380    0.000170323336
            -0.000135620037    0.000170878622    0.117037737364    0.042263605747    -0.000110818361    0.000170323372    0.130009644364    0.064596604678
0.625     0.166718899277    0.070719060862    -0.000171481975    0.000209249409    0.145063052462    0.051633262593    -0.000128547279    0.000173478399
            -0.000171481981    0.000209249417    0.150049776907    0.060559688129    -0.000160490079    0.000200560771    0.132213822766    0.039979708089
            0.145063052462    0.051633262593    -0.000160490123    0.000200560826    0.165800063866    0.070002754134    -0.000102667829    0.000170556091
            -0.000128547125    0.000173478002    0.132213824859    0.039979701166    -0.000102667998    0.000170556573    0.150083263155    0.059821773966
0.650     0.188833289853    0.048054226758    -0.000164548479    0.000215419264    0.164739634097    0.034875410755    -0.000123912322    0.000176714915
            -0.000164548189    0.000215418340    0.168799815069    0.047413329659    -0.000154388797    0.000205709560    0.147543199495    0.031350151553
            0.164739635923    0.034875402129    -0.000154388526    0.000205708675    0.187650442121    0.047978157123    -0.000097327689    0.000171397362
            -0.000123912038    0.000176714052    0.147543192449    0.031350136599    -0.000097327973    0.000171398281    0.168446254902    0.047085911138
0.675     0.200541608068    0.018411345166    -0.000159057715    0.000223157480    0.177193436428    0.011094930062    -0.000120776317    0.000181940623
            -0.000159057465    0.000223156553    0.182113472181    0.027779736436    -0.000149912018    0.000212551162    0.160062565449    0.016863436197
            0.177193423582    0.011094975208    -0.000149911998    0.000212551212    0.199437062144    0.019034498300    -0.000093774019    0.000174277685
            -0.000120776275    0.000181940699    0.160062566067    0.016863430331    -0.000093774256    0.000174278637    0.181636119328    0.028016803848
0.700     0.199958020938    -0.012822707667    -0.000153658048    0.000233240198    0.180033725782    -0.015884300951    -0.000117662823    0.000189828625
            -0.000153657843    0.000233239267    0.187724690832    0.004768313533    -0.000145679525    0.000221931502    0.167421498473    -0.001734209331
            0.180033703383    -0.015884213475    -0.000145679502    0.000221931553    0.199264312325    -0.011607590197    -0.000090421800    0.000179887440
            -0.000117662805    0.000189828671    0.167421498473    -0.001734209389    -0.000090422003    0.000179888390    0.187432497342    0.005583048862
0.725     0.187667184334    -0.040038292084    -0.000146797737    0.000245621423    0.172635955015    -0.041545113463    -0.000112950323    0.000200207306
            -0.000146797673    0.000245620925    0.185022494294    -0.017896620815    -0.000140073362    0.000233868759    0.168267175179    -0.021853346481
            0.172635925981    -0.041545020412    -0.000140073160    0.000233867866    0.187636106540    -0.038488224381    -0.000085581161    0.000188013551
            -0.000112950268    0.000200207372    0.168267174912    -0.021853348537    -0.000085581161    0.000188013551    0.185203277163    -0.016640854863
0.750     0.166642145700    -0.058279122907    -0.000137116115    0.000259504790    0.156396265946    -0.061267656815    -0.000105264583    0.000212130631
            -0.000137116110    0.000259504781    0.175100838353    -0.036619218330    -0.000131642279    0.000247595628    0.162505774678    -0.040510434910
            0.156396249332    -0.061267562148    -0.000131642134    0.000247594731    0.167382642132    -0.056753523407    -0.000077843990    0.000197643164
            -0.000105264588    0.000212130640    0.162505774678    -0.040510434910    -0.000077844124    0.000197644111    0.175956253101    -0.035186234779
0.775     0.142025795984    -0.064166703888    -0.000123766029    0.000273445458    0.134923653847    -0.071182007960    -0.000093814756    0.000224007236
            -0.000123765979    0.000273444965    0.160572281689    -0.048595336419    -0.000119423996    0.000261662489    0.151417183633    -0.054852870756
            0.134923645949    -0.071181958638    -0.000119423966    0.000261662546    0.143456599774    -0.063057367819    -0.000066444397    0.000207119584
            -0.000093814751    0.000224006783    0.151417174231    -0.054852867350    -0.000066444397    0.000207119584    0.162162122591    -0.047332531873
