# GHz S RI R 45
0.000     0.065445818000    -0.000000000000    0.000002641030    0.000000000000    0.004178460900    -0.000000000000    0.000001536735    0.000000000000
            0.000002615400    0.000000000000    0.065233647000    -0.000000000000    -0.000000350579    -0.000000000000    0.004203045500    -0.000000000000
            0.004928917200    0.000000000000    -0.000000349828    -0.000000000000    0.063626919000    -0.000000000000    0.000000358368    -0.000000000000
            0.000001573697    -0.000000000000    0.005039307200    0.000000000000    0.000000350556    0.000000000000    0.064507715000    -0.000000000000
0.025     0.144391492921    0.016310304399    0.000005647251    0.000003058450    0.077493222276    0.037582174246    0.000002665832    -0.000000108574
            0.000005653272    0.000003060726    0.144950268413    0.015760929552    0.000001522273    0.000003241257    0.077822007140    0.037241571627
            0.078104444887    0.037105495682    0.000001525824    0.000003238089    0.145195182889    0.017394764735    0.000000605067    0.000000240260
            0.000002676325    -0.000000110680    0.078404329610    0.036717954226    0.000000609847    0.000000246867    0.145474690662    0.016320415987
0.050     0.103849226723    -0.075949995180    -0.000011674559    0.000015476376    0.066845146041    -0.030784542212    -0.000005800373    0.000006090762
            -0.000011657062    0.000015475895    0.102725499936    -0.076226563253    -0.000002887118    0.000007004667    0.066011463747    -0.031031829786
            0.066899057941    -0.031683343654    -0.000002900180    0.000007000844    0.104299188558    -0.077036494418    -0.000001148359    0.000002020266
            -0.000005812406    0.000006087119    0.066043530625    -0.031909158078    -0.000001126293    0.000002018963    0.103050769801    -0.077085954290
0.075     0.063707536317    0.007378154798    0.000013746564    0.000042731184    0.048941860037    0.031804585388    0.000008251519    0.000016255059
            0.000013763223    0.000042715975    0.064993796412    0.008055925903    0.000003913263    0.000017723041    0.049857028308    0.032321381610
            0.048447626552    0.031053529902    0.000003923279    0.000017746855    0.063153027235    0.007557648118    0.000002370605    0.000004781806
            0.000008260823    0.000016278401    0.049361330695    0.031579644392    0.000002385586    0.000004762834    0.064547342589    0.008128758441
0.100     0.182912693755    -0.009347626555    0.000012150565    0.000011560277    0.148357489410    0.000843976799    0.000003883324    -0.000000409610
            0.000012152575    0.000011534308    0.183068831010    -0.013088001168    0.000004825825    0.000013061231    0.148438672063    -0.002098872904
            0.147569403546    0.000748144981    0.000004841756    0.000013030723    0.184266614197    -0.008489849209    0.000001599061    0.000002578400
            0.000003897659    -0.000000439712    0.147649658543    -0.002179920891    0.000001599107    0.000002555273    0.184387697960    -0.012307775626
0.125     0.116024456821    -0.136065774452    -0.000023623998    0.000049157809    0.080209299274    -0.104033144921    -0.000012691862    0.000017643568
            -0.000023644805    0.000049122354    0.111432339487    -0.136618670871    -0.000000428425    0.000022156843    0.076265388373    -0.104502634683
            0.079456641566    -0.103579056086    -0.000000473984    0.000022166797    0.116745088969    -0.137055321763    0.000000170689    0.000004661959
            -0.000012734538    0.000017654119    0.075524723726    -0.104029487006    0.000000159130    0.000004623009    0.112198310648    -0.137745369424
0.150     0.041237947026    -0.047841749093    0.000039122217    0.000073022100    0.021417081521    -0.019758265763    0.000017180703    0.000026822020
            0.000039065915    0.000073016260    0.041957491868    -0.046363867069    0.000017079484    0.000029320356    0.021938289752    -0.018147359344
            0.021261785174    -0.018799019156    0.000017125563    0.000029346162    0.041235126043    -0.047413350105    0.000005945557    0.000007194233
            0.000017224045    0.000026841595    0.021815127599    -0.017183276725    0.000005874632    0.000007186516    0.041900008534    -0.046132082843
0.175     0.154269079194    -0.080740926625    0.000007692792    0.000016466885    0.120301653468    -0.056469912476    -0.000002289514    0.000000107089
            0.000007653868    0.000016509932    0.150927975968    -0.085929689145    0.000010340736    0.000018056781    0.117598360395    -0.060481584585
            0.120885527456    -0.055788031512    0.000010327848    0.000018016949    0.156296093525    -0.081077580504    0.000003567001    0.000003138476
            -0.000002307714    0.000000070779    0.118206669853    -0.059824323552    0.000003535029    0.000003187158    0.152882963276    -0.086391028611
0.200     0.052557529763    -0.208316526015    -0.000023331926    0.000089414348    0.020762818845    -0.156457812058    -0.000017490641    0.000033606427
            -0.000023340860    0.000089460600    0.042607171550    -0.206006536922    0.000010781268    0.000031875321    0.012596467714    -0.153972561878
            0.021440161863    -0.156284431494    0.000010756221    0.000031913186    0.053040215746    -0.210540340569    0.000002058555    0.000004190268
            -0.000017513105    0.000033647208    0.013279699600    -0.153825829452    0.000002052211    0.000004228930    0.043102453595    -0.208400612123
0.225     -0.060943285333    -0.081772501337    0.000065592504    0.000085628123    -0.065755845013    -0.029691035401    0.000023602267    0.000036660270
            0.000065609866    0.000085695450    -0.061647315537    -0.075233553319    0.000030710712    0.000025884292    -0.065250243574    -0.023492703851
            -0.064945394017    -0.029882530903    0.000030776037    0.000025875700    -0.061283005159    -0.082278850633    0.000007418379    0.000007595941
            0.000023664359    0.000036650482    -0.064445799821    -0.023726341814    0.000007416388    0.000007667495    -0.062077806753    -0.076052694187
0.250     0.071546948559    -0.050712240251    -0.000012160868    0.000023370279    0.061735143880    -0.008977720891    -0.000010179848    0.000006017336
            -0.000012068432    0.000023414526    0.067593209866    -0.053115965643    0.000003560329    0.000015031703    0.059677121081    -0.011222227969
            0.062281993843    -0.009924291310    0.000003520381    0.000014980949    0.072777777799    -0.052236630247    0.000002070589    0.000002173505
            -0.000010218749    0.000005972563    0.060166112168    -0.012199941633    0.000002182418    0.000002228740    0.068633825044    -0.054771501843
0.275     0.000923981539    -0.176745714847    -0.000011584660    0.000139383989    0.002291878361    -0.110534922160    -0.000012081469    0.000055439162
            -0.000011488420    0.000139321476    -0.009514867009    -0.169882151294    0.000018094199    0.000044411906    -0.005120128942    -0.105200805221
            0.001775099544    -0.111560898659    0.000018055092    0.000044453407    -0.000514313167    -0.179033821264    0.000003405838    0.000007113800
            -0.000012113879    0.000055483428    -0.005699278133    -0.106188225669    0.000003498629    0.000007039999    -0.010928867276    -0.172361365788
0.300     -0.113791153266    -0.047942453283    0.000087027657    0.000081023585    -0.069929070552    -0.003878802465    0.000031362882    0.000037557476
            0.000087035473    0.000080925339    -0.112754972189    -0.037287063477    0.000036590761    0.000014437487    -0.067667620511    0.003488520079
            -0.070869478850    -0.004036185752    0.000036653796    0.000014444569    -0.114880975906    -0.046845363497    0.000008701766    0.000006340771
            0.000031431102    0.000037557739    -0.068610817332    0.003392132358    0.000008704719    0.000006253630    -0.113983621392    -0.036552954981
0.325     0.055791684154    0.023881474894    -0.000039401009    0.000049768866    0.069370245718    0.028695287867    -0.000015230412    0.000017914201
            -0.000039424016    0.000049718585    0.055333194148    0.022837325244    -0.000014271565    0.000024192234    0.068742861927    0.026225715315
            0.068948483697    0.028893334710    -0.000014338503    0.000024149713    0.057789182422    0.022929256847    0.000001166036    0.000004247584
            -0.000015301878    0.000017867474    0.068330606019    0.026452231787    0.000001164674    0.000004193140    0.057170137489    0.021729017789
0.350     0.044851465518    -0.149458464293    0.000021897285    0.000183389605    0.039469238454    -0.106070207225    0.000002608070    0.000063522532
            0.000021827987    0.000183310926    0.035244817545    -0.144662301254    0.000033460510    0.000063802207    0.031836896446    -0.102253565932
            0.038815369379    -0.105614951945    0.000033467215    0.000063894238    0.043413633785    -0.151325762811    0.000008667403    0.000006447090
            0.000002616414    0.000063616128    0.031224076419    -0.101743071985    0.000008586241    0.000006353943    0.033843509317    -0.146890670322
0.375     -0.098831730966    -0.087505774026    0.000094362705    0.000065195728    -0.051824221571    -0.051790928456    0.000021854225    0.000029622091
            0.000094198877    0.000065195533    -0.102436255605    -0.076705247219    0.000044129246    0.000004850338    -0.054201698334    -0.045046039238
            -0.051979643022    -0.050558374206    0.000044216096    0.000004794659    -0.098415172103    -0.085238111438    0.000006055173    0.000002485734
            0.000021938717    0.000029558632    -0.054250189703    -0.043813747471    0.000005887612    0.000002492455    -0.102213954817    -0.074961734810
0.400     0.011621869361    0.000593661172    -0.000060431659    0.000092058516    0.020576870568    -0.017084938548    -0.000024538988    0.000042188858
            -0.000060527626    0.000092227021    0.009040029098    0.005148683169    -0.000018498571    0.000034160673    0.015839897285    -0.013897623848
            0.021731295843    -0.016302698525    -0.000018595055    0.000034167809    0.016310413573    -0.001844945206    0.000002599450    0.000006175603
            -0.000024648111    0.000042199071    0.017049390915    -0.013216273486    0.000002514178    0.000006330671    0.013459835002    0.002283792223
0.425     0.026224317826    -0.160228285463    0.000067336587    0.000205358403    -0.008921040678    -0.108178301638    0.000015101109    0.000066491765
            0.000067419609    0.000205507600    0.015004212048    -0.153910132849    0.000055956870    0.000065434347    -0.016859752699    -0.099910069876
            -0.007913727529    -0.108646035131    0.000056062218    0.000065459185    0.024601637086    -0.165041058069    0.000008964436    -0.000000455815
            0.000015214707    0.000066528515    -0.015891785578    -0.100470280758    0.000009012008    -0.000000302630    0.013029552207    -0.159254968211
0.450     -0.158022403235    -0.135054821714    0.000075318467    0.000052773259    -0.102070468676    -0.056784326912    -0.000002461164    0.000039243302
            0.000075406105    0.000052815698    -0.168988253536    -0.115859798210    0.000043442007    -0.000012766335    -0.107041209020    -0.043479052313
            -0.101756764294    -0.057270813539    0.000043410001    -0.000012880685    -0.158586585462    -0.134229746377    -0.000003744899    0.000003770644
            -0.000002494232    0.000039120845    -0.106783535584    -0.044002095996    -0.000003640376    0.000003832595    -0.169978912300    -0.115491660210
0.475     -0.116935688718    0.014219093673    -0.000066750817    0.000143991475    -0.059985352183    0.009325667146    -0.000018718862    0.000082437196
            -0.000066630973    0.000144042233    -0.116506627139    0.034880998326    -0.000022141529    0.000028398359    -0.061308549674    0.023277681412
            -0.059577595825    0.008637236129    -0.000022236799    0.000028473869    -0.113252159807    0.009934352667    0.000004016557    0.000010277670
            -0.000018816120    0.000082521347    -0.060980416001    0.022560692432    0.000004135187    0.000010320273    -0.113352123885    0.030050155065
0.500     -0.051779014569    -0.061571039865    0.000108183979    0.000217753995    -0.050047213548    -0.027619192957    0.000039457555    0.000075887623
            0.000108391978    0.000217662911    -0.052406652658    -0.047549143087    0.000052697678    0.000054066002    -0.048948783101    -0.014659231315
            -0.050454659834    -0.028835333000    0.000052772757    0.000054043318    -0.056368784060    -0.067856661486    0.000006609083    -0.000001369924
            0.000039542443    0.000075862855    -0.049481254134    -0.015826802623    0.000006798912    -0.000001443585    -0.057749442013    -0.054199199657
0.525     -0.177700651434    -0.041925382452    0.000046660644    0.000050497845    -0.091613997705    0.018414689757    -0.000006098499    0.000049436269
            0.000046677774    0.000050240818    -0.181401225118    -0.017315085903    0.000016467173    -0.000019935852    -0.090313466635    0.032750526253
            -0.092946119485    0.018157215331    0.000016375051    -0.000019907417    -0.180882427052    -0.039642411521    -0.000007547363    0.000009251159
            -0.000006194784    0.000049454041    -0.091671329101    0.032653761801    -0.000007479630    0.000009011549    -0.184535533823    -0.015401500961
0.550     -0.132441943164    0.104982352911    -0.000054387531    0.000205592664    -0.035964621891    0.060091266637    0.000008526189    0.000107510121
            -0.000054560610    0.000205462486    -0.119470322187    0.129570895396    -0.000035566603    0.000042279530    -0.030332642938    0.072896675380
            -0.036754414653    0.060865904386    -0.000035504033    0.000042368404    -0.129645871545    0.102763014918    0.000009933413    0.000012965839
            0.000008581578    0.000107607326    -0.031014736807    0.073764817164    0.000009752766    0.000012787583    -0.116130386170    0.128133821478
0.575     -0.027841414781    0.056275294656    0.000145438130    0.000209777336    -0.023308444544    0.015910418702    0.000064096765    0.000059867398
            0.000145297507    0.000209787804    -0.013624734899    0.065311825153    0.000037013030    0.000053683308    -0.015993374818    0.024881577127
            -0.023372121423    0.016626204145    0.000037101322    0.000053615375    -0.032585051315    0.052095396124    0.000005428811    -0.000006404356
            0.000064194820    0.000059797972    -0.015961712903    0.025590390400    0.000005276777    -0.000006375876    -0.019181609212    0.061297057134
0.600     -0.079901366943    0.029349317180    0.000008556849    0.000056773697    -0.044635856564    0.034371233786    -0.000018322066    0.000044318790
            0.000008396135    0.000056794668    -0.076975695485    0.043334943774    -0.000015024139    0.000003624398    -0.041809979710    0.044091248960
            -0.044599632608    0.035152485592    -0.000015091467    0.000003594443    -0.081588076267    0.033400524515    -0.000012821901    0.000011676527
            -0.000018396101    0.000044282213    -0.041677889261    0.044859997601    -0.000012956518    0.000011684848    -0.078534686748    0.048037547861
0.625     -0.039218263072    0.081174196536    -0.000029052280    0.000276342945    0.002321339731    0.034334598340    0.000019098502    0.000118898019
            -0.000029211756    0.000276539655    -0.026023802174    0.098040867214    -0.000021330832    0.000087762829    0.007577897655    0.044971191805
            0.003101002035    0.035141138591    -0.000021284151    0.000087802042    -0.034679791201    0.078263785391    0.000012696866    0.000014379755
            0.000019134998    0.000118949682    0.008463964675    0.045664264272    0.000012497810    0.000014536494    -0.021629074660    0.094282396471
0.650     -0.013471262842    0.013138322497    0.000174792698    0.000179209895    -0.031041517591    -0.017162384061    0.000053168698    0.000041242892
            0.000174873473    0.000179493536    -0.005372738789    0.019174710708    0.000051476527    0.000042299807    -0.028609887399    -0.007887836343
            -0.029789261447    -0.017305052056    0.000051496424    0.000042169009    -0.017561963497    0.008148415764    -0.000004318377    -0.000011930882
            0.000053212669    0.000041113227    -0.027394528353    -0.008217605841    -0.000004259576    -0.000011605557    -0.010590676682    0.014230370491
0.675     -0.076345321223    0.028934041392    -0.000036243323    0.000095675015    -0.070927967070    0.043393024524    -0.000036162737    0.000076227447
            -0.000035993727    0.000095772143    -0.074449858583    0.046842630728    -0.000031981023    0.000025266961    -0.067010694262    0.060108602609
            -0.070310075751    0.042410719993    -0.000032152636    0.000025312836    -0.076470981370    0.030933549216    -0.000016876072    0.000023889739
            -0.000036344425    0.000076259490    -0.066557081943    0.059056941228    -0.000016613315    0.000023995770    -0.074549813806    0.049058538771
0.700     -0.037978000518    0.050363715058    0.000025835923    0.000331444938    -0.012629968165    0.050654679628    0.000043855784    0.000134802743
            0.000026051548    0.000331374776    -0.025164572525    0.068743565581    0.000011687671    0.000103961320    -0.001653403757    0.064099226232
            -0.012820265391    0.049687324339    0.000011795587    0.000104039648    -0.034892271502    0.042999891550    0.000016956488    0.000012920755
            0.000043959018    0.000134891071    -0.001977646630    0.063175544464    0.000017156104    0.000012852566    -0.022990749779    0.060605771259
0.725     -0.098045418845    0.007751519470    0.000171643499    0.000140630835    -0.068770802023    0.019921362986    0.000035144539    0.000046371617
            0.000171766381    0.000140471401    -0.091382348862    0.026485373944    0.000041599349    0.000002940168    -0.061890264399    0.034739477737
            -0.069324450704    0.019410146230    0.000041507939    0.000002869640    -0.107278847125    0.002335662578    -0.000020397678    -0.000005550735
            0.000035066600    0.000046289920    -0.062527075117    0.034320283222    -0.000020250133    -0.000005674906    -0.101958213650    0.022311084120
0.750     -0.139473096819    0.138604438089    -0.000051713514    0.000158399388    -0.075891098182    0.120574053993    -0.000000823164    0.000123391264
            -0.000051697775    0.000158194036    -0.116675684650    0.169280291976    -0.000062383552    0.000034168192    -0.056612572634    0.140607967474
            -0.076614134745    0.120335403180    -0.000062373595    0.000034354194    -0.141198583379    0.143109072056    -0.000002207314    0.000035654534
            -0.000000835467    0.000123579126    -0.057356659276    0.140506001623    -0.000002170477    0.000035437622    -0.117513141981    0.174222037359
0.775     0.006096471935    0.168375787044    0.000073488594    0.000349705402    0.035895730655    0.113507316592    0.000084355450    0.000112802553
            0.000073387657    0.000349466980    0.040477820413    0.176380200138    -0.000010941464    0.000116522787    0.058993935896    0.116363879956
            0.034894959572    0.113744091780    -0.000010742013    0.000116434954    0.007758413064    0.161850684525    0.000014800642    0.000005453213
            0.000084560817    0.000112721386    0.058061230598    0.116751509663    0.000014715994    0.000005201002    0.041284543514    0.169080985906
