# GHz S RI R 45
0.000     0.066372241000    0.000000000000    -0.000000065372    -0.000000000000    0.004126732200    -0.000000000000    0.000014573948    0.000000000000
            -0.000000063642    0.000000000000    0.065233647000    -0.000000000000    -0.000000220812    -0.000000000000    0.004203045500    -0.000000000000
            0.005235675700    0.000000000000    -0.000000221258    0.000000000000    0.064775062000    -0.000000000000    -0.000000313336    -0.000000000000
            0.000014573471    0.000000000000    0.005039307200    0.000000000000    -0.000000307685    -0.000000000000    0.064507715000    -0.000000000000
0.025     0.145447525651    0.015281588939    -0.000007570218    -0.000000100728    0.078072046780    0.037311072244    0.000038224451    0.000020341301
            -0.000007592833    -0.000000089113    0.144950268413    0.015760929552    -0.000005708284    0.000000150353    0.077822007140    0.037241571627
            0.078776660183    0.036624241597    -0.000005704775    0.000000166637    0.145723081164    0.016139237984    -0.000008408610    -0.000000155760
            0.000038225854    0.000020350815    0.078404329610    0.036717954226    -0.000008430912    -0.000000149168    0.145474690662    0.016320415987
0.050     0.102115069709    -0.075840139243    0.000006901905    0.000000080473    0.065481834860    -0.030724059266    -0.000060029491    0.000084074132
            0.000006959546    0.000000107940    0.102725499936    -0.076226563253    0.000007110572    -0.000002142008    0.066011463747    -0.031031829786
            0.065513008595    -0.031782034945    0.000007159880    -0.000002136236    0.102428209634    -0.076671059910    0.000007935907    -0.000000681045
            -0.000060000852    0.000084083320    0.066043530625    -0.031909158078    0.000007987606    -0.000000655766    0.103050769801    -0.077085954290
0.075     0.066159519455    0.009906764746    -0.000008896496    -0.000028339016    0.050697836573    0.034025357598    0.000089777379    0.000260745141
            -0.000008932978    -0.000028469467    0.064993796412    0.008055925903    -0.000013030817    -0.000024294113    0.049857028308    0.032321381610
            0.050114409912    0.033107125800    -0.000012977234    -0.000024347794    0.065568693902    0.009747660181    -0.000010655504    -0.000032548146
            0.000089812514    0.000260704516    0.049361330695    0.031579644392    -0.000010700434    -0.000032674432    0.064547342589    0.008128758441
0.100     0.184805554114    -0.013918047651    -0.000042263554    0.000013328486    0.149905853051    -0.002637281709    0.000139076026    0.000068094186
            -0.000042388288    0.000013475807    0.183068831010    -0.013088001168    -0.000025669243    0.000013181695    0.148438672063    -0.002098872904
            0.148932580564    -0.002769033014    -0.000025709934    0.000013111070    0.185765878796    -0.013211483559    -0.000046288101    0.000014021230
            0.000139036462    0.000068054690    0.147649658543    -0.002179920891    -0.000046413483    0.000014179627    0.184387697960    -0.012307775626
0.125     0.110120729658    -0.136386965373    0.000017590316    0.000013061315    0.075214215064    -0.104220086850    -0.000092479803    0.000245161951
            0.000017822098    0.000013098397    0.111432339487    -0.136618670871    0.000015112945    0.000000425728    0.076265388373    -0.104502634683
            0.074288313157    -0.103646130735    0.000015084083    0.000000404263    0.111024860802    -0.137647888035    0.000019136065    0.000011935324
            -0.000092473211    0.000245186721    0.075524723726    -0.104029487006    0.000019379358    0.000011972430    0.112198310648    -0.137745369424
0.150     0.044175354523    -0.042960764393    -0.000019556470    -0.000049123821    0.023829133409    -0.015236370562    0.000276432508    0.000460453350
            -0.000019697605    -0.000049314235    0.041957491868    -0.046363867069    -0.000028161402    -0.000041643390    0.021938289752    -0.018147359344
            0.023670429488    -0.014068254858    -0.000028262891    -0.000041727767    0.043685008616    -0.043706615613    -0.000024170783    -0.000056040206
            0.000276391948    0.000460343824    0.021815127599    -0.017183276725    -0.000024322364    -0.000056215924    0.041900008534    -0.046132082843
0.175     0.153868873188    -0.087824056914    -0.000075794062    0.000035007006    0.119865528737    -0.061945612503    0.000245193185    0.000071150225
            -0.000075796575    0.000035248066    0.150927975968    -0.085929689145    -0.000041480419    0.000030299305    0.117598360395    -0.060481584585
            0.120573375159    -0.061142766209    -0.000041660199    0.000030503410    0.154647177002    -0.088351719725    -0.000083013365    0.000038220243
            0.000245053814    0.000071264999    0.118206669853    -0.059824323552    -0.000082971058    0.000038455796    0.152882963276    -0.086391028611
0.200     0.040658815608    -0.205763815224    0.000033067723    0.000026051147    0.010972992570    -0.153359518083    -0.000041188044    0.000414764595
            0.000033329248    0.000025887862    0.042607171550    -0.206006536922    0.000018192479    -0.000002806857    0.012596467714    -0.153972561878
            0.011797898254    -0.153148633068    0.000018375327    -0.000002648718    0.040845390545    -0.208178021268    0.000034917989    0.000024979866
            -0.000041070876    0.000414862655    0.013279699600    -0.153825829452    0.000035164201    0.000024773884    0.043102453595    -0.208400612123
0.225     -0.058232852753    -0.070184694378    -0.000036823588    -0.000070403655    -0.062140062262    -0.018987189911    0.000532336811    0.000555557114
            -0.000037152604    -0.000070574857    -0.061647315537    -0.075233553319    -0.000047791673    -0.000055266951    -0.065250243574    -0.023492703851
            -0.061158988970    -0.019276196785    -0.000047750389    -0.000055365661    -0.059938095968    -0.071944328705    -0.000044577038    -0.000078516611
            0.000532266850    0.000555485169    -0.064445799821    -0.023726341814    -0.000044928861    -0.000078664581    -0.062077806753    -0.076052694187
0.250     0.073068993083    -0.056373498678    -0.000132109519    0.000059518682    0.064213639484    -0.013751526255    0.000317095965    0.000011153210
            -0.000132068476    0.000059832475    0.067593209866    -0.053115965643    -0.000084432669    0.000053795198    0.059677121081    -0.011222227969
            0.064765851029    -0.014903363709    -0.000084362840    0.000053982789    0.071961985408    -0.057177275117    -0.000143376328    0.000066275190
            0.000317209319    0.000011373200    0.060166112168    -0.012199941633    -0.000143314290    0.000066565114    0.068633825044    -0.054771501843
0.275     -0.011392301781    -0.170401424591    0.000039642493    0.000071549970    -0.006234333513    -0.105025747540    0.000061919011    0.000593243586
            0.000039846659    0.000071358451    -0.009514867009    -0.169882151294    0.000017174752    0.000020893728    -0.005120128942    -0.105200805221
            -0.006885862549    -0.106147950063    0.000017438599    0.000020696882    -0.013119267725    -0.171812888249    0.000041366391    0.000072354893
            0.000062096378    0.000593085226    -0.005699278133    -0.106188225669    0.000041519448    0.000072165956    -0.010928867276    -0.172361365788
0.300     -0.107445496241    -0.031962541467    -0.000056035266    -0.000075767770    -0.062540016271    0.007589139624    0.000817005226    0.000533591173
            -0.000056428007    -0.000075834193    -0.112754972189    -0.037287063477    -0.000071951669    -0.000045952347    -0.067667620511    0.003488520079
            -0.063598579016    0.007435198012    -0.000072053003    -0.000046230980    -0.109909522770    -0.031693810467    -0.000067396862    -0.000082740272
            0.000816958298    0.000533443492    -0.068610817332    0.003392132358    -0.000067770103    -0.000082758416    -0.113983621392    -0.036552954981
0.325     0.063738481197    0.016587830051    -0.000186186587    0.000127714669    0.075188701987    0.020788718754    0.000344968678    -0.000042477338
            -0.000185957161    0.000128175121    0.055333194148    0.022837325244    -0.000116304807    0.000107285409    0.068742861927    0.026225715315
            0.074661938512    0.021028090622    -0.000116523530    0.000107369296    0.063065987940    0.017179184482    -0.000200679128    0.000141162706
            0.000344932146    -0.000042461698    0.068330606019    0.026452231787    -0.000200430826    0.000141587463    0.057170137489    0.021729017789
0.350     0.032740494567    -0.148616531004    0.000089934995    0.000143923540    0.030129738302    -0.104495666307    0.000261386940    0.000752217292
            0.000090206681    0.000143505110    0.035244817545    -0.144662301254    0.000046065161    0.000067936452    0.031836896446    -0.102253565932
            0.029432640717    -0.103841617938    0.000046099451    0.000067881468    0.031540436233    -0.148727500731    0.000093394837    0.000149648870
            0.000261313557    0.000752129272    0.031224076419    -0.101743071985    0.000093636393    0.000149258779    0.033843509317    -0.146890670322
0.375     -0.097925453408    -0.073118148498    -0.000044124547    -0.000074211435    -0.049607807259    -0.042802454680    0.001113021526    0.000401544626
            -0.000044624956    -0.000074112877    -0.102436255605    -0.076705247219    -0.000065431402    -0.000028355760    -0.054201698334    -0.045046039238
            -0.049579233846    -0.041430699487    -0.000065766912    -0.000028442074    -0.098469095829    -0.071662922110    -0.000055168932    -0.000077072789
            0.001112861295    0.000401511690    -0.054250189703    -0.043813747471    -0.000055595482    -0.000076961586    -0.102213954817    -0.074961734810
0.400     0.017293780874    -0.003477562038    -0.000186795931    0.000191068205    0.021250443026    -0.021043605294    0.000380294558    -0.000127331528
            -0.000186165887    0.000191351965    0.009040029098    0.005148683169    -0.000101432041    0.000148964075    0.015839897285    -0.013897623848
            0.022567655206    -0.020357648878    -0.000101652829    0.000149670517    0.018943338372    -0.004077827730    -0.000199310999    0.000211748130
            0.000380082448    -0.000126969605    0.017049390915    -0.013216273486    -0.000198705820    0.000211937823    0.013459835002    0.002283792223
0.425     0.009942190682    -0.160251814236    0.000178225405    0.000165941085    -0.020191520060    -0.102716891156    0.000537269710    0.000795034322
            0.000178023472    0.000165180834    0.015004212048    -0.153910132849    0.000087413142    0.000074103572    -0.016859752699    -0.099910069876
            -0.019152464608    -0.103291170405    0.000088239729    0.000074148376    0.008556178787    -0.162403736681    0.000187819858    0.000173708945
            0.000537726258    0.000795165602    -0.015891785578    -0.100470280758    0.000187551562    0.000173009796    0.013029552207    -0.159254968211
0.450     -0.167124909945    -0.112491620164    -0.000048321620    -0.000115151978    -0.103189962497    -0.041687554451    0.001316344079    0.000122991529
            -0.000048866572    -0.000114715341    -0.168988253536    -0.115859798210    -0.000060667513    -0.000030413634    -0.107041209020    -0.043479052313
            -0.102840612550    -0.042287755938    -0.000060729263    -0.000030783610    -0.168367513210    -0.111773460025    -0.000055595560    -0.000115241273
            0.001316361336    0.000122773317    -0.106783535584    -0.044002095996    -0.000056054707    -0.000114794853    -0.169978912300    -0.115491660210
0.475     -0.108637128119    0.027204647851    -0.000181313285    0.000203203976    -0.055957283868    0.016152107639    0.000394091418    -0.000269772584
            -0.000180680516    0.000203364484    -0.116506627139    0.034880998326    -0.000094366940    0.000145992635    -0.061308549674    0.023277681412
            -0.055674429455    0.015270359898    -0.000094143600    0.000146319508    -0.108018667562    0.025469565523    -0.000189996442    0.000224490935
            0.000394240262    -0.000269453007    -0.060980416001    0.022560692432    -0.000189458019    0.000224559533    -0.113352123885    0.030050155065
0.500     -0.058227785525    -0.054908497512    0.000227966630    0.000195855887    -0.052589391733    -0.018523290215    0.000739560480    0.000752438927
            0.000227433746    0.000195398147    -0.052406652658    -0.047549143087    0.000118281088    0.000099046373    -0.048948783101    -0.014659231315
            -0.053280611347    -0.019693367462    0.000118962937    0.000098334594    -0.062042219443    -0.056993875269    0.000243765118    0.000202834204
            0.000740278627    0.000752058813    -0.049481254134    -0.015826802623    0.000243230613    0.000202561561    -0.057749442013    -0.054199199657
0.525     -0.178809127370    -0.014539272948    -0.000022329192    -0.000113014956    -0.085090058754    0.032905356445    0.001437072086    -0.000178464501
            -0.000022272833    -0.000112360557    -0.181401225118    -0.017315085903    -0.000035342696    -0.000010932707    -0.090313466635    0.032750526253
            -0.086495455353    0.032890352154    -0.000035958111    -0.000011262166    -0.181315029041    -0.011430440435    -0.000029956723    -0.000110991430
            0.001436801685    -0.000178954976    -0.091671329101    0.032653761801    -0.000029752442    -0.000110408721    -0.184535533823    -0.015401500961
0.550     -0.110215698581    0.121382666178    -0.000133704753    0.000257769604    -0.024613283849    0.063879447401    0.000370924051    -0.000341400423
            -0.000133210951    0.000257583980    -0.119470322187    0.129570895396    -0.000057311976    0.000176156063    -0.030332642938    0.072896675380
            -0.025313166585    0.064802671885    -0.000057363675    0.000176325323    -0.109097221819    0.122101395596    -0.000141131171    0.000284805225
            0.000370806066    -0.000341410602    -0.031014736807    0.073764817164    -0.000140737316    0.000284522993    -0.116130386170    0.128133821478
0.575     -0.020260131622    0.055412732858    0.000282413278    0.000216892045    -0.021979042373    0.018774303862    0.000916649393    0.000653346998
            0.000282067734    0.000216510082    -0.013624734899    0.065311825153    0.000157713947    0.000128247918    -0.015993374818    0.024881577127
            -0.021913881179    0.019584250332    0.000157714718    0.000128036357    -0.022726856095    0.055851731193    0.000306004429    0.000227696698
            0.000916560898    0.000653095027    -0.015961712903    0.025590390400    0.000305670699    0.000227446199    -0.019181609212    0.061297057134
0.600     -0.076053758866    0.044283289846    0.000012224990    -0.000111419079    -0.039359423268    0.043373596449    0.001502088331    -0.000483047573
            0.000012231322    -0.000110914712    -0.076975695485    0.043334943774    0.000000735592    -0.000003882893    -0.041809979710    0.044091248960
            -0.039078282979    0.044193162996    0.000000169979    -0.000003790394    -0.075302628930    0.048613241684    0.000008621662    -0.000110868454
            0.001501562526    -0.000483027817    -0.041677889261    0.044859997601    0.000008714178    -0.000110492935    -0.078534686748    0.048037547861
0.625     -0.022198838240    0.083838438954    -0.000063791762    0.000326819593    0.008248629190    0.032277438207    0.000324878519    -0.000402976519
            -0.000063325287    0.000326525132    -0.026023802174    0.098040867214    0.000013551638    0.000219286251    0.007577897655    0.044971191805
            0.009246427417    0.032860236335    0.000013520454    0.000219870717    -0.018430388565    0.083275791060    -0.000060292668    0.000355541575
            0.000324710588    -0.000402459895    0.008463964675    0.045664264272    -0.000059975165    0.000355202384    -0.021629074660    0.094282396471
0.650     -0.019783353678    0.010316728660    0.000427649980    0.000147199218    -0.040618606081    -0.012274736223    0.001162552225    0.000428050925
            0.000427114879    0.000146795085    -0.005372738789    0.019174710708    0.000256240739    0.000074864653    -0.028609887399    -0.007887836343
            -0.039418432777    -0.012727332077    0.000256747897    0.000074996777    -0.020426763686    0.009386589698    0.000461190519    0.000151819477
            0.001162866285    0.000428319718    -0.027394528353    -0.008217605841    0.000460641769    0.000151568039    -0.010590676682    0.014230370491
0.675     -0.076317577045    0.049915601385    0.000016967035    -0.000175061556    -0.066117993090    0.062029691862    0.001407170646    -0.000856606753
            0.000016990983    -0.000174418295    -0.074449858583    0.046842630728    0.000023318117    -0.000043821220    -0.067010694262    0.060108602609
            -0.065731044360    0.060878717702    0.000023208258    -0.000043846446    -0.073373596530    0.050990147698    0.000019576769    -0.000178639621
            0.001407236713    -0.000856496675    -0.066557081943    0.059056941228    0.000019685691    -0.000178058254    -0.074549813806    0.049058538771
0.700     -0.026987179511    0.054931782217    0.000015921638    0.000317305186    -0.003851754000    0.051826090481    0.000258745225    -0.000490258120
            0.000016192861    0.000316756754    -0.025164572525    0.068743565581    0.000079533530    0.000192050423    -0.001653403757    0.064099226232
            -0.004339510588    0.050873322633    0.000080253647    0.000192256132    -0.024798613795    0.049575921202    0.000031309642    0.000342212959
            0.000259364233    -0.000490107111    -0.001977646630    0.063175544464    0.000031462350    0.000341707687    -0.022990749779    0.060605771259
0.725     -0.110118853311    0.026381832873    0.000470595544    -0.000034184817    -0.075444659800    0.035622357771    0.001243163497    0.000038008575
            0.000469946926    -0.000033885108    -0.091382348862    0.026485373944    0.000267619281    -0.000049852658    -0.061890264399    0.034739477737
            -0.076174095343    0.035317219621    0.000267540237    -0.000050829674    -0.114722917810    0.025118745094    0.000506072716    -0.000049436156
            0.001243299393    0.000037287249    -0.062527075117    0.034320283222    0.000505572229    -0.000049033726    -0.101958213650    0.022311084120
0.750     -0.115180642738    0.177354436324    -0.000060613649    -0.000189534588    -0.054289831571    0.143768341243    0.001091779912    -0.001106776903
            -0.000059992911    -0.000189077994    -0.116675684650    0.169280291976    0.000001342842    -0.000063554216    -0.056612572634    0.140607967474
            -0.055040480762    0.143773657915    0.000000721161    -0.000063272499    -0.112670276638    0.179803740978    -0.000058813221    -0.000198680109
            0.001091387431    -0.001106793617    -0.057356659276    0.140506001623    -0.000058140988    -0.000198396505    -0.117513141981    0.174222037359
0.775     0.041486306558    0.162921120112    0.000036911677    0.000265111948    0.057070397673    0.104038309462    0.000130557096    -0.000572965568
            0.000036900652    0.000264352526    0.040477820413    0.176380200138    0.000065645539    0.000139869061    0.058993935896    0.116363879956
            0.056161029285    0.104581343464    0.000066203248    0.000139845699    0.042580094394    0.157463892623    0.000048113939    0.000281234213
