# GHz S RI R 45
0.000     0.067706337000    -0.000000000000    0.000017999694    -0.000000000000    0.003265328900    0.000000000000    0.000017071932    0.000000000000
            0.000025034650    -0.000000000000    0.065233647000    -0.000000000000    -0.000021315815    0.000000000000    0.004203045500    -0.000000000000
            0.003698818000    0.000000000000    -0.000077920994    -0.000000000000    0.065596307000    -0.000000000000    0.000013868348    0.000000000000
            -0.000020568317    -0.000000000000    0.005039307200    0.000000000000    0.000002887354    -0.000000000000    0.064507715000    -0.000000000000
0.025     0.148435305823    0.005395378210    -0.000046321880    -0.000020015806    0.081529467044    0.029761891546    -0.000039472312    -0.000020684327
            -0.000030537062    -0.000034515348    0.144950268413    0.015760929552    -0.000052949265    -0.000003428957    0.077822007140    0.037241571627
            0.081723776546    0.029419142745    -0.000095339144    0.000061441509    0.147674979796    0.006750756618    -0.000051276895    -0.000025114432
            -0.000042219900    0.000010966730    0.078404329610    0.036717954226    -0.000037628877    -0.000022675952    0.145474690662    0.016320415987
0.050     0.081748362903    -0.096628614074    -0.000077483424    0.000053297336    0.047367527213    -0.052376198603    -0.000074313919    0.000048228534
            -0.000099520183    0.000035782780    0.102725499936    -0.076226563253    -0.000103501934    0.000082834857    0.066011463747    -0.031031829786
            0.047122163100    -0.052636008425    -0.000034655332    0.000140373113    0.081341892125    -0.096144241790    -0.000096820915    0.000068511836
            -0.000051100568    0.000062090363    0.066043530625    -0.031909158078    -0.000104786675    0.000058593562    0.103050769801    -0.077085954290
0.075     0.005761374895    0.033772634156    0.000063915169    0.000155965600    -0.010655434668    0.050351515350    0.000064316669    0.000142970934
            0.000053528373    0.000168859415    0.064993796412    0.008055925903    0.000116652379    0.000206143109    0.049857028308    0.032321381610
            -0.010616972207    0.050477106343    0.000166393449    0.000163305018    0.005698789015    0.034995149120    0.000081958477    0.000182261081
            0.000093041791    0.000120745242    0.049361330695    0.031579644392    0.000090425870    0.000184335708    0.064547342589    0.008128758441
0.100     0.181347144774    0.012622028920    0.000157413387    -0.000021094098    0.142264856477    0.032525617539    0.000140444002    -0.000029632364
            0.000149877593    -0.000004656774    0.183068831010    -0.013088001168    0.000206369202    -0.000055877961    0.148438672063    -0.002098872904
            0.142299589827    0.032065254521    0.000214726861    -0.000108209315    0.182192182222    0.013879482228    0.000190214011    -0.000026668791
            0.000117309101    -0.000063495598    0.147649658543    -0.002179920891    0.000172189760    -0.000043157426    0.184387697960    -0.012307775626
0.125     0.102358394079    -0.140667414428    0.000122659291    -0.000144977535    0.079889317014    -0.096938104422    0.000102662089    -0.000130998100
            0.000155438278    -0.000125691098    0.111432339487    -0.136618670871    0.000146039089    -0.000191236255    0.076265388373    -0.104502634683
            0.079034962279    -0.097216221316    0.000077398089    -0.000242064373    0.103083694484    -0.140174631004    0.000138638760    -0.000182392227
            0.000069387847    -0.000113397568    0.075524723726    -0.104029487006    0.000126526118    -0.000149321754    0.112198310648    -0.137745369424
0.150     -0.003741070442    -0.015884912325    -0.000174004082    -0.000256917176    -0.004764646389    0.004492705166    -0.000168759331    -0.000229652627
            -0.000158238615    -0.000303465029    0.041957491868    -0.046363867069    -0.000227049393    -0.000351302147    0.021938289752    -0.018147359344
            -0.005284013210    0.005391892464    -0.000288457914    -0.000267531873    -0.002084758916    -0.014978067840    -0.000208965923    -0.000298962136
            -0.000164597189    -0.000201861622    0.021815127599    -0.017183276725    -0.000179505967    -0.000300712464    0.041900008534    -0.046132082843
0.175     0.161194619375    0.002090157683    -0.000244515414    0.000109769728    0.129532290372    0.010746118701    -0.000217230257    0.000126553789
            -0.000277870276    0.000102144355    0.150927975968    -0.085929689145    -0.000367285292    0.000164152196    0.117598360395    -0.060481584585
            0.130011350783    0.011201881804    -0.000309119615    0.000212113246    0.163625286484    0.000528501895    -0.000306137566    0.000138245452
            -0.000188380522    0.000141853175    0.118206669853    -0.059824323552    -0.000304703027    0.000134277749    0.152882963276    -0.086391028611
0.200     0.124254988708    -0.170391654645    -0.000110564530    0.000220289404    0.092595801400    -0.120948297165    -0.000066217118    0.000195746702
            -0.000126884999    0.000233572244    0.042607171550    -0.206006536922    -0.000098124373    0.000336617981    0.012596467714    -0.153972561878
            0.092513426147    -0.121078201095    -0.000051703642    0.000325599654    0.124182468729    -0.172572042908    -0.000099840836    0.000285293006
            -0.000037891349    0.000166684864    0.013279699600    -0.153825829452    -0.000084148313    0.000267283148    0.043102453595    -0.208400612123
0.225     -0.014691210503    -0.113818759053    0.000251929816    0.000337032410    -0.003175204153    -0.074475069178    0.000237823575    0.000277824482
            0.000253108713    0.000369517724    -0.061647315537    -0.075233553319    0.000345566979    0.000397613689    -0.065250243574    -0.023492703851
            -0.003468680364    -0.073740849814    0.000378080328    0.000342403857    -0.014224033291    -0.113910788013    0.000309459747    0.000363411346
            0.000212845423    0.000242830399    -0.064445799821    -0.023726341814    0.000272968037    0.000339774279    -0.062077806753    -0.076052694187
0.250     0.065027632341    -0.050063787106    0.000387925065    -0.000222557358    0.050528810330    -0.047277707568    0.000329420444    -0.000238234887
            0.000428386291    -0.000220799412    0.067593209866    -0.053115965643    0.000518767470    -0.000288028410    0.059677121081    -0.011222227969
            0.051449360180    -0.046490434313    0.000456476308    -0.000341983792    0.067241367121    -0.052681206993    0.000453474900    -0.000274684628
            0.000294094393    -0.000225920450    0.060166112168    -0.012199941633    0.000436413259    -0.000234987238    0.068633825044    -0.054771501843
0.275     0.063077490903    -0.154983503570    0.000025228792    -0.000371074455    0.017915291931    -0.106098656822    -0.000032294207    -0.000317526988
            0.000032862194    -0.000403635824    -0.009514867009    -0.169882151294    0.000006727645    -0.000533748312    -0.005120128942    -0.105200805221
            0.019039584328    -0.106483736544    -0.000052141637    -0.000486025792    0.061248805993    -0.158984102900    -0.000012803047    -0.000452291128
            -0.000038164992    -0.000281293647    -0.005699278133    -0.106188225669    0.000009836581    -0.000437454882    -0.010928867276    -0.172361365788
0.300     -0.039353235332    -0.145301319299    -0.000395507531    -0.000319918784    -0.028674921043    -0.069468789765    -0.000358045111    -0.000231982377
            -0.000417534556    -0.000340097825    -0.112754972189    -0.037287063477    -0.000557240088    -0.000372408518    -0.067667620511    0.003488520079
            -0.028412800731    -0.070299385198    -0.000535792675    -0.000313667898    -0.041869664061    -0.145198949385    -0.000476890860    -0.000320264692
            -0.000324323240    -0.000210487867    -0.068610817332    0.003392132358    -0.000458275052    -0.000320713169    -0.113983621392    -0.036552954981
0.325     -0.034626690529    -0.104184733663    -0.000464438059    0.000371692070    -0.011691166847    -0.074881134121    -0.000363697194    0.000375578858
            -0.000495097979    0.000386281355    0.055333194148    0.022837325244    -0.000586173586    0.000505126004    0.068742861927    0.026225715315
            -0.011778455743    -0.075197158389    -0.000533517927    0.000513355516    -0.034091451255    -0.105130937807    -0.000510291340    0.000456242218
            -0.000330942886    0.000350837885    0.068330606019    0.026452231787    -0.000492129288    0.000430540867    0.057170137489    0.021729017789
0.350     -0.064053140199    -0.123869953886    0.000126774840    0.000499444897    -0.070459056612    -0.079206281826    0.000185219615    0.000395053398
            0.000131336964    0.000531124987    0.035244817545    -0.144662301254    0.000193808389    0.000662566731    0.031836896446    -0.102253565932
            -0.070076395269    -0.079426692211    0.000231340790    0.000622503148    -0.066279167824    -0.126680121165    0.000199342622    0.000566447425
            0.000175384181    0.000354742456    0.031224076419    -0.101743071985    0.000172002918    0.000535005889    0.033843509317    -0.146890670322
0.375     -0.106461707442    -0.060412841734    0.000555251282    0.000221260316    -0.074790623079    0.006497205356    0.000466081184    0.000120082115
            0.000581980934    0.000234119282    -0.102436255605    -0.076705247219    0.000736809992    0.000256780014    -0.054201698334    -0.045046039238
            -0.074492255031    0.005338286013    0.000711692692    0.000192252729    -0.108916402369    -0.059431271516    0.000632707901    0.000194888599
            0.000421689718    0.000112738196    -0.054250189703    -0.043813747471    0.000596500588    0.000217292072    -0.102213954817    -0.074961734810
0.400     -0.052870172359    -0.044481091340    0.000457969757    -0.000567335950    -0.007019892538    -0.009921788867    0.000330126621    -0.000529592717
            0.000490247079    -0.000590759162    0.009040029098    0.005148683169    0.000594990308    -0.000752006435    0.015839897285    -0.013897623848
            -0.008238220717    -0.011160464799    0.000514408425    -0.000735791035    -0.052192639832    -0.045045946514    0.000486245881    -0.000666551259
            0.000308395996    -0.000487807196    0.017049390915    -0.013216273486    0.000497357805    -0.000633812691    0.013459835002    0.002283792223
0.425     -0.119530766798    -0.091969585111    -0.000336616312    -0.000535029964    -0.074900556416    -0.048901138220    -0.000372956998    -0.000385841141
            -0.000358253107    -0.000576402282    0.015004212048    -0.153910132849    -0.000483775649    -0.000724856156    -0.016859752699    -0.099910069876
            -0.076485921890    -0.048304835837    -0.000475811877    -0.000653191090    -0.122150926837    -0.093266066631    -0.000443416761    -0.000582992121
            -0.000343187016    -0.000352911389    -0.015891785578    -0.100470280758    -0.000418756510    -0.000574119162    0.013029552207    -0.159254968211
0.450     -0.184551341854    0.039169125372    -0.000610743264    -0.000086648574    -0.100457774693    0.053810888255    -0.000462728780    0.000012254127
            -0.000651017563    -0.000074880876    -0.168988253536    -0.115859798210    -0.000813926132    -0.000040272282    -0.107041209020    -0.043479052313
            -0.100445631136    0.054737516370    -0.000767373525    -0.000028523889    -0.184995264281    0.041900783817    -0.000662956172    -0.000023671926
            -0.000422416848    0.000000924669    -0.106783535584    -0.044002095996    -0.000634365099    -0.000039286990    -0.169978912300    -0.115491660210
0.475     -0.030210251691    0.101646250030    -0.000477402803    0.000692075331    0.010869920569    0.068680062892    -0.000333002297    0.000592869105
            -0.000484206708    0.000727277129    -0.116506627139    0.034880998326    -0.000563722049    0.000893768182    -0.061308549674    0.023277681412
            0.010745118396    0.068234160657    -0.000521169829    0.000872915224    -0.027183541808    0.099335367452    -0.000481571077    0.000771207256
            -0.000322942642    0.000548273633    -0.060980416001    0.022560692432    -0.000489650559    0.000728469805    -0.113352123885    0.030050155065
0.500     -0.032957434817    -0.050112266248    0.000609305544    0.000639220953    -0.012242349526    -0.027793716746    0.000591310024    0.000453398734
            0.000640543999    0.000666369516    -0.052406652658    -0.047549143087    0.000786567671    0.000829281449    -0.048948783101    -0.014659231315
            -0.013819540347    -0.027276758346    0.000777636967    0.000757720766    -0.037396460416    -0.053308884658    0.000711203364    0.000674284474
            0.000547697132    0.000426187063    -0.049481254134    -0.015826802623    0.000667323005    0.000676242016    -0.057749442013    -0.054199199657
0.525     -0.173978852834    0.046542549705    0.000706547045    -0.000171391839    -0.078184622284    0.042797381579    0.000505601041    -0.000230198491
            0.000743297217    -0.000199730390    -0.181401225118    -0.017315085903    0.000942985682    -0.000266623152    -0.090313466635    0.032750526253
            -0.078168245724    0.044985486093    0.000870141091    -0.000258646870    -0.174952614779    0.050934277399    0.000751998640    -0.000235872086
            0.000467271182    -0.000197440030    -0.091671329101    0.032653761801    0.000740105714    -0.000203966063    -0.184535533823    -0.015401500961
0.550     -0.027457361958    0.174308557332    0.000378368155    -0.000807935370    0.009059338682    0.082121433416    0.000241562354    -0.000652665260
            0.000359565619    -0.000844894395    -0.119470322187    0.129570895396    0.000413480697    -0.001056235188    -0.030332642938    0.072896675380
            0.010757941615    0.082915326083    0.000412255495    -0.001003168282    -0.022308269218    0.171951779927    0.000371254845    -0.000893566133
            0.000256944087    -0.000607747297    -0.031014736807    0.073764817164    0.000388187505    -0.000865025038    -0.116130386170    0.128133821478
0.575     0.053031823585    0.011212213054    -0.000854307529    -0.000731786913    0.017642929106    -0.020679791957    -0.000780813472    -0.000524445558
            -0.000885688331    -0.000729350964    -0.013624734899    0.065311825153    -0.001077820191    -0.000883866587    -0.015993374818    0.024881577127
            0.018214233745    -0.020777368455    -0.001051344834    -0.000861005856    0.048675664781    0.005294249413    -0.000970725308    -0.000755455601
            -0.000734958033    -0.000519387364    -0.015961712903    0.025590390400    -0.000929957795    -0.000759677212    -0.019181609212    0.061297057134
0.600     -0.091011827635    0.016340275414    -0.000874760150    0.000527730082    -0.055300954264    0.032057654333    -0.000633017723    0.000532798765
            -0.000889603074    0.000552414659    -0.076975695485    0.043334943774    -0.001113604399    0.000666264944    -0.041809979710    0.044091248960
            -0.055213361282    0.032296525766    -0.001066928172    0.000657469772    -0.093650451068    0.020679610838    -0.000921794692    0.000606480821
            -0.000608293406    0.000492872182    -0.041677889261    0.044859997601    -0.000914185096    0.000565032204    -0.078534686748    0.048037547861
0.625     -0.022327285307    0.109591135615    -0.000042254248    0.001077262234    0.005106586426    0.054132400281    0.000061235931    0.000868837981
            -0.000025932465    0.001101795562    -0.026023802174    0.098040867214    -0.000027972830    0.001374940379    0.007577897655    0.044971191805
            0.006187633598    0.054526354710    -0.000029284058    0.001321920980    -0.018103097453    0.107714945843    -0.000012975734    0.001186658859
            0.000031121218    0.000829184750    0.008463964675    0.045664264272    -0.000045311793    0.001164144202    -0.021629074660    0.094282396471
0.650     0.000797327540    0.020534301092    0.001205309563    0.000454680628    -0.028638272007    -0.001026364550    0.001058554660    0.000240841420
            0.001231193220    0.000453526133    -0.005372738789    0.019174710708    0.001501902609    0.000557686224    -0.028609887399    -0.007887836343
            -0.027155726550    -0.001864643671    0.001461526520    0.000547010355    -0.003168293781    0.016784918105    0.001343978704    0.000435587402
            0.001013913679    0.000257622456    -0.027394528353    -0.008217605841    0.001308005443    0.000454805361    -0.010590676682    0.014230370491
0.675     -0.062804731899    0.072236254397    0.000736249609    -0.000880785509    -0.057670666799    0.079524575682    0.000471639835    -0.000810859833
            0.000755268223    -0.000906303151    -0.074449858583    0.046842630728    0.000955998671    -0.001092362771    -0.067010694262    0.060108602609
            -0.057427642795    0.077573293448    0.000922421781    -0.001068825868    -0.062797295340    0.075095080517    0.000763323059    -0.000977558554
            0.000468330353    -0.000770563806    -0.066557081943    0.059056941228    0.000768113227    -0.000934200975    -0.074549813806    0.049058538771
0.700     0.025757157051    0.069596983830    -0.000337617831    -0.001183754827    0.026967797600    0.062768007506    -0.000402592588    -0.000932104439
            -0.000362477279    -0.001218338792    -0.025164572525    0.068743565581    -0.000437296218    -0.001513324235    -0.001653403757    0.064099226232
            0.025547541781    0.061685358258    -0.000421304469    -0.001459575690    0.027908810242    0.064373454563    -0.000423310795    -0.001297655310
            -0.000367435172    -0.000907546311    -0.001977646630    0.063175544464    -0.000380077707    -0.001288620213    -0.022990749779    0.060605771259
0.725     -0.081069029743    -0.018627680907    -0.001451236754    0.000085988300    -0.059782198503    0.027829720516    -0.001208895741    0.000299348348
            -0.001489412939    0.000103477794    -0.091382348862    0.026485373944    -0.001800206443    0.000092018588    -0.061890264399    0.034739477737
            -0.060393252405    0.027847907970    -0.001748232990    0.000077534935    -0.088066686642    -0.018819678007    -0.001557706596    0.000196967512
            -0.001175351191    0.000269763980    -0.062527075117    0.034320283222    -0.001537527846    0.000164625644    -0.101958213650    0.022311084120
0.750     -0.126055455832    0.174286802954    -0.000226129578    0.001071899926    -0.060745756013    0.150043540566    0.000041076281    0.000879127401
            -0.000230046065    0.001109584499    -0.116675684650    0.169280291976    -0.000360606800    0.001324288742    -0.056612572634    0.140607967474
            -0.060273360071    0.149320895524    -0.000357124709    0.001290056294    -0.122070133220    0.178959260692    -0.000202244287    0.001102777130
            0.000027102741    0.000849234217    -0.057356659276    0.140506001623    -0.000215922867    0.001071695032    -0.117513141981    0.174222037359
0.775     0.076416170445    0.172045613523    0.000478876106    0.000891637258    0.071640501008    0.115823508236    0.000442656884    0.000625189491
            0.000524144542    0.000919024614    0.040477820413    0.176380200138    0.000618297025    0.001195388297    0.058993935896    0.116363879956
            0.070034045292    0.114398702777    0.000595550809    0.001161591325    0.080345516539    0.162867058143    0.000519436347    0.001004399701
