# GHz S RI R 45
0.000     0.065889323000    0.000000000000    -0.000001508095    0.000000000000    0.003446848000    -0.000000000000    -0.000002535939    0.000000000000
            -0.000001507842    -0.000000000000    0.065233647000    -0.000000000000    -0.000001141092    -0.000000000000    0.004203045500    -0.000000000000
            0.004391900100    -0.000000000000    -0.000001140316    -0.000000000000    0.066179655000    -0.000000000000    -0.000002041699    -0.000000000000
            -0.000002530984    0.000000000000    0.005039307200    0.000000000000    -0.000002043486    0.000000000000    0.064507715000    -0.000000000000
0.025     0.148507423611    0.008102430416    -0.000015325627    -0.000001996259    0.081395251864    0.030393633055    -0.000024293048    -0.000003625055
            -0.000015329801    -0.000001993750    0.144950268413    0.015760929552    -0.000009677118    -0.000000765961    0.077822007140    0.037241571627
            0.081301836573    0.029528784398    -0.000009672766    -0.000000782223    0.148366261515    0.007602786764    -0.000018202799    -0.000002514524
            -0.000024288391    -0.000003640014    0.078404329610    0.036717954226    -0.000018201957    -0.000002501961    0.145474690662    0.016320415987
0.050     0.085615699684    -0.097186224252    -0.000024080265    0.000020726024    0.049197963851    -0.052310252838    -0.000037550615    0.000033222013
            -0.000024057555    0.000020752145    0.102725499936    -0.076226563253    -0.000015504774    0.000012821023    0.066011463747    -0.031031829786
            0.048234506227    -0.052141774264    -0.000015549446    0.000012830846    0.084679047296    -0.097349221192    -0.000028900021    0.000024763612
            -0.000037592444    0.000033233763    0.066043530625    -0.031909158078    -0.000028886250    0.000024723603    0.103050769801    -0.077085954290
0.075     0.002514316117    0.030478313280    0.000026762041    0.000050294298    -0.012718892447    0.048487671419    0.000039161929    0.000078736707
            0.000026817287    0.000050213110    0.064993796412    0.008055925903    0.000019316839    0.000032975593    0.049857028308    0.032321381610
            -0.011921938804    0.049665017009    0.000019349920    0.000032996950    0.002652172148    0.031444936632    0.000031232296    0.000060988739
            0.000039201904    0.000078751963    0.049361330695    0.031579644392    0.000031145979    0.000061061595    0.064547342589    0.008128758441
0.100     0.180095921527    0.019127375322    0.000051495720    -0.000012921957    0.141735973040    0.037510952646    0.000084745321    -0.000015670632
            0.000051391257    -0.000012959901    0.183068831010    -0.013088001168    0.000030698162    -0.000012177265    0.148438672063    -0.002098872904
            0.142502791715    0.037011379463    0.000030718558    -0.000012160636    0.181165369431    0.018899048710    0.000063256000    -0.000014619222
            0.000084758172    -0.000015662371    0.147649658543    -0.002179920891    0.000063349708    -0.000014601124    0.184387697960    -0.012307775626
0.125     0.110643111973    -0.139265865687    0.000036268572    -0.000047019514    0.086074290800    -0.095665026092    0.000057883419    -0.000078720359
            0.000036212765    -0.000046909684    0.111432339487    -0.136618670871    0.000021405616    -0.000026962826    0.076265388373    -0.104502634683
            0.085374057248    -0.096443355741    0.000021516162    -0.000027016521    0.110203267083    -0.140316952341    0.000043029166    -0.000057854910
            0.000057981753    -0.000078767168    0.075524723726    -0.104029487006    0.000042988225    -0.000057917891    0.112198310648    -0.137745369424
0.150     -0.004749903217    -0.019707475193    -0.000056975077    -0.000086999488    -0.005955543422    0.002392509809    -0.000086465321    -0.000135152418
            -0.000056869512    -0.000086925954    0.041957491868    -0.046363867069    -0.000038741366    -0.000056450557    0.021938289752    -0.018147359344
            -0.006748694146    0.003277605543    -0.000038933000    -0.000056596281    -0.005301716264    -0.018814970872    -0.000067667175    -0.000104252200
            -0.000086639901    -0.000135287527    0.021815127599    -0.017183276725    -0.000067617861    -0.000104206131    0.041900008534    -0.046132082843
0.175     0.163176060870    0.010071656705    -0.000085123873    0.000042678365    0.132012442585    0.018354758475    -0.000141987538    0.000060074191
            -0.000085035455    0.000042595690    0.150927975968    -0.085929689145    -0.000050481881    0.000034394990    0.117598360395    -0.060481584585
            0.132818584701    0.019078444908    -0.000050517224    0.000034610758    0.164736536234    0.010112225383    -0.000106526757    0.000051713334
            -0.000142028974    0.000060291409    0.118206669853    -0.059824323552    -0.000106577678    0.000051618401    0.152882963276    -0.086391028611
0.200     0.137244168337    -0.168188842661    -0.000027235267    0.000071932029    0.104041491179    -0.118943593641    -0.000042400996    0.000124732692
            -0.000027276722    0.000071822148    0.042607171550    -0.206006536922    -0.000012192093    0.000040004641    0.012596467714    -0.153972561878
            0.104552956883    -0.119631313536    -0.000012083770    0.000040005182    0.137553572306    -0.169775706858    -0.000026894382    0.000091622758
            -0.000042271647    0.000124728694    0.013279699600    -0.153825829452    -0.000026942287    0.000091733232    0.043102453595    -0.208400612123
0.225     -0.007629718552    -0.116921174916    0.000077911801    0.000109964724    0.003013901562    -0.076462317844    0.000124214858    0.000164372595
            0.000077777596    0.000110029625    -0.061647315537    -0.075233553319    0.000048849190    0.000068735717    -0.065250243574    -0.023492703851
            0.002195488675    -0.076738751059    0.000048907886    0.000068740327    -0.007931041735    -0.116944591665    0.000093982410    0.000122342903
            0.000124250436    0.000164355557    -0.064445799821    -0.023726341814    0.000094067292    0.000122262460    -0.062077806753    -0.076052694187
0.250     0.077363007863    -0.048107658744    0.000133384729    -0.000076584752    0.062568912240    -0.045590702088    0.000209814087    -0.000108535238
            0.000133510693    -0.000076554820    0.067593209866    -0.053115965643    0.000080621628    -0.000056173566    0.059677121081    -0.011222227969
            0.062418662158    -0.044583646858    0.000080620929    -0.000056336320    0.079039426954    -0.048841466206    0.000155993136    -0.000087704130
            0.000209832743    -0.000108679145    0.060166112168    -0.012199941633    0.000155845032    -0.000087589365    0.068633825044    -0.054771501843
0.275     0.078939309263    -0.161394497792    -0.000000144259    -0.000120379854    0.031369370573    -0.113806278272    0.000004963386    -0.000199007304
            -0.000000287939    -0.000120479736    -0.009514867009    -0.169882151294    -0.000006552188    -0.000069915174    -0.005120128942    -0.105200805221
            0.032487982499    -0.113517716858    -0.000006689232    -0.000069872148    0.079012989638    -0.163772442503    -0.000002086135    -0.000147009499
            0.000004785810    -0.000198997650    -0.005699278133    -0.106188225669    -0.000001799976    -0.000146929545    -0.010928867276    -0.172361365788
0.300     -0.025524872367    -0.151082743522    -0.000123510933    -0.000104806535    -0.019396512613    -0.074657914059    -0.000195776696    -0.000157435792
            -0.000123504668    -0.000104523710    -0.112754972189    -0.037287063477    -0.000078053458    -0.000062498621    -0.067667620511    0.003488520079
            -0.018921080104    -0.075739507188    -0.000077993845    -0.000062418211    -0.025895966833    -0.151731777609    -0.000148371096    -0.000113836804
            -0.000195715670    -0.000157271272    -0.068610817332    0.003392132358    -0.000148423710    -0.000114204406    -0.113983621392    -0.036552954981
0.325     -0.009991381691    -0.116070643713    -0.000157954801    0.000127377461    0.009160246662    -0.084382570702    -0.000242960488    0.000181361886
            -0.000157747467    0.000127269341    0.055333194148    0.022837325244    -0.000091470186    0.000089179490    0.068742861927    0.026225715315
            0.008342922347    -0.084723711422    -0.000091486012    0.000089132620    -0.008887818090    -0.118111390304    -0.000175142447    0.000141773764
            -0.000242923329    0.000181273877    0.068330606019    0.026452231787    -0.000175342553    0.000141906722    0.057170137489    0.021729017789
0.350     -0.047879454695    -0.149944113064    0.000053078029    0.000156338574    -0.058817027667    -0.103405249185    0.000063240234    0.000254169543
            0.000053166262    0.000156218563    0.035244817545    -0.144662301254    0.000040621784    0.000087306450    0.031836896446    -0.102253565932
            -0.058872106736    -0.102489327037    0.000040559994    0.000087478191    -0.049493282446    -0.153134905605    0.000050787907    0.000183548029
            0.000063171778    0.000254341126    0.031224076419    -0.101743071985    0.000050729983    0.000183529706    0.033843509317    -0.146890670322
0.375     -0.098112317310    -0.079292694893    0.000165762685    0.000071558730    -0.073121147461    -0.007804857644    0.000266507742    0.000121012655
            0.000165542394    0.000071174247    -0.102436255605    -0.076705247219    0.000102193337    0.000041811846    -0.054201698334    -0.045046039238
            -0.071915017019    -0.008055377491    0.000102521747    0.000041793934    -0.099316788619    -0.079485735011    0.000200916137    0.000090149753
            0.000266838144    0.000120918603    -0.054250189703    -0.043813747471    0.000200880039    0.000090580938    -0.102213954817    -0.074961734810
0.400     -0.033714216061    -0.068242457592    0.000156856057    -0.000182071058    0.007252000133    -0.026472128468    0.000250897561    -0.000272502961
            0.000156378315    -0.000181558174    0.009040029098    0.005148683169    0.000089962080    -0.000125973941    0.015839897285    -0.013897623848
            0.006948983626    -0.028035966099    0.000089748783    -0.000126304207    -0.032681406315    -0.071234481846    0.000182330796    -0.000214976718
            0.000250574683    -0.000272773219    0.017049390915    -0.013216273486    0.000182985474    -0.000215221253    0.013459835002    0.002283792223
0.425     -0.108669732718    -0.130023562644    -0.000119126538    -0.000165567928    -0.069682046736    -0.078528494997    -0.000163954906    -0.000276181491
            -0.000118566411    -0.000165316776    0.015004212048    -0.153910132849    -0.000084931010    -0.000086932089    -0.016859752699    -0.099910069876
            -0.071207913519    -0.078341200334    -0.000085030883    -0.000086781308    -0.112708373516    -0.133479392872    -0.000129797745    -0.000195017235
            -0.000163973730    -0.000275965378    -0.015891785578    -0.100470280758    -0.000130242691    -0.000195417072    0.013029552207    -0.159254968211
0.450     -0.186961556269    0.000523793337    -0.000170675228    -0.000024782529    -0.105526182328    0.030023905700    -0.000286589626    -0.000055493648
            -0.000170513674    -0.000025054969    -0.168988253536    -0.115859798210    -0.000097403549    -0.000013094649    -0.107041209020    -0.043479052313
            -0.105380555584    0.031210861398    -0.000097559563    -0.000013064523    -0.189566693502    0.002822181074    -0.000209839089    -0.000042996611
            -0.000286726182    -0.000055513132    -0.106783535584    -0.044002095996    -0.000209917803    -0.000042766715    -0.169978912300    -0.115491660210
0.475     -0.037541099925    0.070362725773    -0.000163592538    0.000197105065    0.009738924461    0.048530979194    -0.000264654801    0.000313429571
            -0.000163633634    0.000196804926    -0.116506627139    0.034880998326    -0.000100583013    0.000131626810    -0.061308549674    0.023277681412
            0.010643656760    0.048044908647    -0.000100312613    0.000132087465    -0.035308692554    0.068565528983    -0.000200591744    0.000245531186
            -0.000264376259    0.000313894071    -0.060980416001    0.022560692432    -0.000200753763    0.000245490586    -0.113352123885    0.030050155065
0.500     -0.035464004218    -0.075536355007    0.000180760110    0.000207543363    -0.015378072812    -0.047927838183    0.000268316479    0.000339815736
            0.000180310954    0.000207588897    -0.052406652658    -0.047549143087    0.000130618033    0.000117388605    -0.048948783101    -0.014659231315
            -0.016357253971    -0.048821398400    0.000130945876    0.000116720432    -0.040495781005    -0.079641114089    0.000218100075    0.000246754682
            0.000268650769    0.000339104440    -0.049481254134    -0.015826802623    0.000218221219    0.000247215917    -0.057749442013    -0.054199199657
0.525     -0.174321851980    0.003922614380    0.000209624177    -0.000037149401    -0.079349425322    0.018969891944    0.000347117691    -0.000046431193
            0.000209764703    -0.000036827603    -0.181401225118    -0.017315085903    0.000121577261    -0.000031951333    -0.090313466635    0.032750526253
            -0.080441188494    0.020013373077    0.000121020122    -0.000031895780    -0.178451624114    0.008564591029    0.000254256037    -0.000041811559
            0.000346496857    -0.000046382405    -0.091671329101    0.032653761801    0.000254631039    -0.000042076924    -0.184535533823    -0.015401500961
0.550     -0.055167135956    0.134534784615    0.000148114926    -0.000230976230    -0.001026204969    0.054928771816    0.000228989146    -0.000371560223
            0.000148205902    -0.000231093825    -0.119470322187    0.129570895396    0.000091678533    -0.000150729026    -0.030332642938    0.072896675380
            -0.000350860502    0.056176423328    0.000091843494    -0.000150501709    -0.052066286829    0.134460096641    0.000175169084    -0.000285005134
            0.000229153766    -0.000371296221    -0.031014736807    0.073764817164    0.000174982924    -0.000285167818    -0.116130386170    0.128133821478
0.575     0.032836410474    0.002041497256    -0.000242176658    -0.000251014555    0.009473037180    -0.034037475646    -0.000367044938    -0.000397860587
            -0.000242186924    -0.000250953483    -0.013624734899    0.065311825153    -0.000175320488    -0.000147806328    -0.015993374818    0.024881577127
            0.010330362151    -0.033954328183    -0.000175321898    -0.000147868722    0.030771777854    -0.002086810916    -0.000296729090    -0.000295098599
            -0.000367040460    -0.000397876215    -0.015961712903    0.025590390400    -0.000296780520    -0.000295123888    -0.019181609212    0.061297057134
0.600     -0.083954398698    -0.013538480723    -0.000284127425    0.000129642826    -0.051294194393    0.008661831542    -0.000456101321    0.000186181649
            -0.000283927804    0.000129792863    -0.076975695485    0.043334943774    -0.000168314897    0.000100617639    -0.041809979710    0.044091248960
            -0.051727801677    0.008007507760    -0.000168087225    0.000100726632    -0.086416272847    -0.010899124270    -0.000337664031    0.000156136483
            -0.000455775783    0.000186353042    -0.041677889261    0.044859997601    -0.000338072984    0.000155863082    -0.078534686748    0.048037547861
0.625     -0.044900108349    0.064482066327    -0.000054544489    0.000339303959    -0.004854717954    0.019210174064    -0.000095364881    0.000524214506
            -0.000054295787    0.000338867332    -0.026023802174    0.098040867214    -0.000016173832    0.000223788487    0.007577897655    0.044971191805
            -0.005434850454    0.020085016347    -0.000016317759    0.000223514710    -0.041602946845    0.063908405505    -0.000058028669    0.000404639459
            -0.000095437919    0.000523771834    0.008463964675    0.045664264272    -0.000058223700    0.000405407300    -0.021629074660    0.094282396471
0.650     -0.021469230065    0.003142730194    0.000362171084    0.000174808372    -0.042288098078    -0.023980115182    0.000534338100    0.000294504801
            0.000361563759    0.000174635493    -0.005372738789    0.019174710708    0.000254000813    0.000080112249    -0.028609887399    -0.007887836343
            -0.041006692380    -0.023007995994    0.000254013767    0.000080575244    -0.023403960167    0.000229664925    0.000423696267    0.000200724997
            0.000534152415    0.000294929283    -0.027394528353    -0.008217605841    0.000424463663    0.000200559485    -0.010590676682    0.014230370491
0.675     -0.069850220144    0.037834528929    0.000258008593    -0.000238104013    -0.067097785021    0.046800855826    0.000431824274    -0.000342286921
            0.000257825398    -0.000237642096    -0.074449858583    0.046842630728    0.000136494408    -0.000171233656    -0.067010694262    0.060108602609
            -0.065753561611    0.045583257542    0.000136953031    -0.000171804782    -0.068905717092    0.039347944241    0.000309481431    -0.000275287138
            0.000432280901    -0.000342711796    -0.066557081943    0.059056941228    0.000309263801    -0.000275458811    -0.074549813806    0.049058538771
0.700     -0.000044827351    0.034740726079    -0.000063527102    -0.000392318026    0.004209846517    0.031385159944    -0.000071357713    -0.000613811137
            -0.000063183764    -0.000391807419    -0.025164572525    0.068743565581    -0.000067020317    -0.000250654246    -0.001653403757    0.064099226232
            0.003237867391    0.030116557558    -0.000068003401    -0.000250720886    0.002582235882    0.028805708646    -0.000076347389    -0.000469929460
            -0.000072273521    -0.000613842137    -0.001977646630    0.063175544464    -0.000076019505    -0.000470311114    -0.022990749779    0.060605771259
0.725     -0.088227848881    -0.052219672819    -0.000446870919    -0.000005777860    -0.078512486820    -0.001653759806    -0.000676856521    -0.000068434638
            -0.000446337974    -0.000006296194    -0.091382348862    0.026485373944    -0.000295081360    0.000049980530    -0.061890264399    0.034739477737
            -0.079047777803    -0.001697636924    -0.000294918351    0.000050665590    -0.095433208329    -0.054755714001    -0.000523171659    -0.000009831574
            -0.000676635724    -0.000067793429    -0.062527075117    0.034320283222    -0.000523753313    -0.000009812328    -0.101958213650    0.022311084120
0.750     -0.164516814441    0.108861864701    -0.000101774130    0.000292965553    -0.098022529556    0.106159432920    -0.000223870409    0.000453061112
            -0.000102423216    0.000292417529    -0.116675684650    0.169280291976    -0.000016783134    0.000189270845    -0.056612572634    0.140607967474
            -0.096792150144    0.106232080968    -0.000016673060    0.000189184302    -0.163481606809    0.113458441903    -0.000135195743    0.000347258154
            -0.000223802249    0.000452829042    -0.057356659276    0.140506001623    -0.000134675265    0.000347942305    -0.117513141981    0.174222037359
0.775     0.010893835684    0.150999091903    0.000087573924    0.000309741186    0.024147943168    0.101038368496    0.000135304527    0.000507980062
            0.000087074486    0.000310286275    0.040477820413    0.176380200138    0.000067256539    0.000185289221    0.058993935896    0.116363879956
            0.024270022192    0.099335131008    0.000067932974    0.000185228740    0.015642319941    0.143724868624    0.000114341306    0.000380292762
