# GHz S RI R 45
0.000     0.066338196000    0.000000000000    -0.000001104072    -0.000000000000    0.004200872500    -0.000000000000    -0.000025886207    0.000000000000
            -0.000001212645    0.000000000000    0.065233647000    -0.000000000000    -0.000018816534    0.000000000000    0.004203045500    -0.000000000000
            0.005260434500    0.000000000000    0.000031092330    -0.000000000000    0.065267448000    -0.000000000000    -0.000031655029    0.000000000000
            0.000030604033    -0.000000000000    0.005039307200    0.000000000000    -0.000029537645    0.000000000000    0.064507715000    -0.000000000000
0.025     0.145958255943    0.014657585275    -0.000030760442    -0.000003817939    0.078489522734    0.036988887865    -0.000025186256    0.000017196504
            -0.000030732744    -0.000003069258    0.144950268413    0.015760929552    -0.000013647088    0.000014254151    0.077822007140    0.037241571627
            0.079212747882    0.036327471588    -0.000014385089    -0.000027908103    0.146076885955    0.015243965231    -0.000011275093    0.000024027910
            -0.000022239548    -0.000029346408    0.078404329610    0.036717954226    -0.000009937593    0.000022366536    0.145474690662    0.016320415987
0.050     0.100773250419    -0.075921954980    -0.000003291554    0.000026507632    0.064610085245    -0.030912352073    0.000013395944    0.000011654162
            -0.000001222173    0.000026400001    0.102725499936    -0.076226563253    0.000011459835    0.000006686460    0.066011463747    -0.031031829786
            0.064638562044    -0.031985416892    -0.000014460244    0.000015296348    0.101030123274    -0.076631681490    0.000019000208    -0.000004759340
            -0.000012136079    0.000014952858    0.066043530625    -0.031909158078    0.000018304200    -0.000006781781    0.103050769801    -0.077085954290
0.075     0.067606022595    0.010907365536    0.000007592735    -0.000021016723    0.051749543037    0.034687682214    -0.000016046449    -0.000031526617
            0.000007157526    -0.000023929421    0.064993796412    0.008055925903    -0.000011970504    -0.000018511267    0.049857028308    0.032321381610
            0.051147100211    0.033781635357    0.000014461970    -0.000011925066    0.067067388201    0.010674916512    -0.000028048864    -0.000028549020
            0.000006692379    -0.000029519470    0.049361330695    0.031579644392    -0.000029747015    -0.000028745197    0.064547342589    0.008128758441
0.100     0.184949087558    -0.017614245944    -0.000025948634    -0.000000228257    0.149978322120    -0.005570329782    -0.000026605106    0.000023946610
            -0.000028512637    0.000000596538    0.183068831010    -0.013088001168    -0.000013550613    0.000021193400    0.148438672063    -0.002098872904
            0.149003569498    -0.005683655960    -0.000020087808    -0.000021956938    0.185866327547    -0.016948664401    -0.000016286720    0.000031410982
            -0.000038166949    -0.000019061221    0.147649658543    -0.002179920891    -0.000016579022    0.000031621591    0.184387697960    -0.012307775626
0.125     0.105413913979    -0.136388525736    0.000020321148    0.000000083927    0.071269794336    -0.104347731702    0.000046598850    -0.000013135343
            0.000022128534    0.000001505199    0.111432339487    -0.136618670871    0.000034869764    -0.000008360665    0.076265388373    -0.104502634683
            0.070355760152    -0.103744555006    -0.000017709112    0.000001583964    0.106323512277    -0.137717494752    0.000046147425    -0.000023718538
            -0.000009560805    -0.000001320472    0.075524723726    -0.104029487006    0.000044610170    -0.000024107190    0.112198310648    -0.137745369424
0.150     0.045410196027    -0.041260671515    -0.000020445239    -0.000070110456    0.024753361415    -0.013575546637    -0.000047985110    -0.000098896541
            -0.000020741808    -0.000073192713    0.041957491868    -0.046363867069    -0.000036068102    -0.000064300499    0.021938289752    -0.018147359344
            0.024640077768    -0.012403156647    -0.000020104161    -0.000016742447    0.044883285216    -0.042099179958    -0.000058862147    -0.000084533205
            -0.000036071799    -0.000046766306    0.021815127599    -0.017183276725    -0.000060622779    -0.000081788587    0.041900008534    -0.046132082843
0.175     0.150237902251    -0.092843576745    -0.000063996856    -0.000001216243    0.117020779943    -0.065837797756    -0.000080376711    0.000026505742
            -0.000067662333    0.000000133989    0.150927975968    -0.085929689145    -0.000051041911    0.000030776356    0.117598360395    -0.060481584585
            0.117754670945    -0.065066496707    -0.000027099921    0.000006187041    0.150929547006    -0.093412814126    -0.000064646666    0.000042550431
            -0.000053694931    0.000011405198    0.118206669853    -0.059824323552    -0.000061830321    0.000045209269    0.152882963276    -0.086391028611
0.200     0.030952746199    -0.202302133432    -0.000005205577    -0.000008422417    0.003157082422    -0.150188471459    0.000022250934    -0.000012805517
            -0.000003622623    -0.000004699048    0.042607171550    -0.206006536922    0.000024472373    -0.000002375738    0.012596467714    -0.153972561878
            0.003990105173    -0.150010103159    -0.000011002883    -0.000002694265    0.031152089078    -0.204760338104    0.000033450157    -0.000014891734
            -0.000003922937    -0.000012456945    0.013279699600    -0.153825829452    0.000036230135    -0.000016635803    0.043102453595    -0.208400612123
0.225     -0.057854335707    -0.063696676981    -0.000078297242    -0.000072064085    -0.060764609578    -0.013053661755    -0.000104261186    -0.000108221607
            -0.000075955198    -0.000074035334    -0.061647315537    -0.075233553319    -0.000067868839    -0.000074587822    -0.065250243574    -0.023492703851
            -0.059796614859    -0.013394094425    -0.000049853926    -0.000023830637    -0.059671257621    -0.065646161097    -0.000097595996    -0.000098217418
            -0.000083375108    -0.000064067781    -0.064445799821    -0.023726341814    -0.000098259372    -0.000099978747    -0.062077806753    -0.076052694187
0.250     0.068632977937    -0.058515322938    -0.000112241977    0.000061848587    0.061926608639    -0.015934218826    -0.000146199113    0.000096171937
            -0.000114527049    0.000061859178    0.067593209866    -0.053115965643    -0.000097450562    0.000080846047    0.059677121081    -0.011222227969
            0.062410495366    -0.017114459748    -0.000043403276    0.000050738121    0.067326287780    -0.059246254994    -0.000122292252    0.000100283564
            -0.000092918025    0.000065641538    0.060166112168    -0.012199941633    -0.000121544929    0.000101165463    0.068633825044    -0.054771501843
0.275     -0.020921412527    -0.162121715199    -0.000000351137    0.000032630058    -0.012804327341    -0.099013950050    0.000031421316    0.000044203385
            0.000001630286    0.000035299954    -0.009514867009    -0.169882151294    0.000040294664    0.000037407123    -0.005120128942    -0.105200805221
            -0.013521998493    -0.100090454074    0.000008527170    -0.000003295114    -0.022547370944    -0.163549636452    0.000049704267    0.000036342803
            0.000004584961    -0.000001362584    -0.005699278133    -0.106188225669    0.000051541139    0.000032821487    -0.010928867276    -0.172361365788
0.300     -0.105044452940    -0.021977861013    -0.000094159645    -0.000040066962    -0.059350521154    0.014117802285    -0.000109838655    -0.000079918471
            -0.000091104625    -0.000042906984    -0.112754972189    -0.037287063477    -0.000065747909    -0.000064982149    -0.067667620511    0.003488520079
            -0.060412099599    0.014031418359    -0.000083371215    -0.000031504455    -0.107672501002    -0.021931327711    -0.000091709028    -0.000087396253
            -0.000134023803    -0.000056789076    -0.068610817332    0.003392132358    -0.000096457105    -0.000090682109    -0.113983621392    -0.036552954981
0.325     0.062541533837    0.015718009179    -0.000116286180    0.000132899498    0.074111306092    0.018328167233    -0.000162131170    0.000161629727
            -0.000118747829    0.000130349475    0.055333194148    0.022837325244    -0.000116473939    0.000118365870    0.068742861927    0.026225715315
            0.073597206633    0.018604271075    -0.000076462465    0.000108797020    0.061714830296    0.016476295759    -0.000147897088    0.000141095779
            -0.000135920162    0.000156883691    0.068330606019    0.026452231787    -0.000151733497    0.000145503532    0.057170137489    0.021729017789
0.350     0.024055601821    -0.142460970231    0.000051450589    0.000067516284    0.023348335795    -0.100158941117    0.000077914119    0.000097571724
            0.000050412117    0.000069107945    0.035244817545    -0.144662301254    0.000068568618    0.000074370464    0.031836896446    -0.102253565932
            0.022708580688    -0.099448178395    0.000039185332    0.000028802500    0.023077535742    -0.142710238369    0.000078067560    0.000085697406
            0.000050582089    0.000062876924    0.031224076419    -0.101743071985    0.000080802876    0.000088460862    0.033843509317    -0.146890670322
0.375     -0.100461096136    -0.062702065668    -0.000080208678    -0.000034387045    -0.051412635930    -0.036629687379    -0.000080101347    -0.000069127260
            -0.000078667135    -0.000036653773    -0.102436255605    -0.076705247219    -0.000046729932    -0.000058922050    -0.054201698334    -0.045046039238
            -0.051269368513    -0.035274549458    -0.000093622689    -0.000021775882    -0.101220430426    -0.061616545055    -0.000064506208    -0.000076869129
            -0.000123047181    -0.000033203281    -0.054250189703    -0.043813747471    -0.000064715636    -0.000078168747    -0.102213954817    -0.074961734810
0.400     0.014434643016    0.001703717946    -0.000111471753    0.000168137189    0.016653217175    -0.017363960894    -0.000161645735    0.000190302439
            -0.000114334897    0.000167407143    0.009040029098    0.005148683169    -0.000121824722    0.000135060240    0.015839897285    -0.013897623848
            0.018017973189    -0.016789581324    -0.000083972131    0.000170354484    0.015875048101    0.001139893516    -0.000155583643    0.000158387196
            -0.000127462698    0.000229818330    0.017049390915    -0.013216273486    -0.000156684477    0.000162358046    0.013459835002    0.002283792223
0.425     -0.000341547073    -0.152502907534    0.000096678242    0.000091317241    -0.026973844249    -0.094219274024    0.000118273335    0.000138624306
            0.000095543413    0.000094263277    0.015004212048    -0.153910132849    0.000088445894    0.000105339121    -0.016859752699    -0.099910069876
            -0.025984088837    -0.094891313443    0.000100591425    0.000071482927    -0.001714331151    -0.154921515064    0.000096860168    0.000130875370
            0.000139011162    0.000112003802    -0.015891785578    -0.100470280758    0.000102917153    0.000132675069    0.013029552207    -0.159254968211
0.450     -0.176306041347    -0.092450350251    -0.000059533780    -0.000034318139    -0.107126404543    -0.028417119410    -0.000040249692    -0.000051627863
            -0.000057660739    -0.000032996000    -0.168988253536    -0.115859798210    -0.000018518898    -0.000034235759    -0.107041209020    -0.043479052313
            -0.106847239488    -0.029054284443    -0.000052138017    -0.000024774673    -0.177919714144    -0.092056898743    -0.000020790271    -0.000040796110
            -0.000061459512    -0.000050737473    -0.106783535584    -0.044002095996    -0.000017550377    -0.000046297087    -0.169978912300    -0.115491660210
0.475     -0.106281065541    0.048099910521    -0.000116870356    0.000190893256    -0.055629352302    0.030033271537    -0.000148953969    0.000196378283
            -0.000116600864    0.000190523781    -0.116506627139    0.034880998326    -0.000103225721    0.000134920253    -0.061308549674    0.023277681412
            -0.055440783352    0.029138507908    -0.000076682711    0.000175708091    -0.106026863306    0.046348885601    -0.000127865143    0.000155656433
            -0.000127881594    0.000224301441    -0.060980416001    0.022560692432    -0.000131418951    0.000152187051    -0.113352123885    0.030050155065
0.500     -0.057541774076    -0.041044421311    0.000155604080    0.000145336085    -0.050306565238    -0.006844840187    0.000166776332    0.000187743516
            0.000156652963    0.000146712083    -0.052406652658    -0.047549143087    0.000119484801    0.000134162345    -0.048948783101    -0.014659231315
            -0.051118232157    -0.007938325500    0.000161364884    0.000098556523    -0.061523186325    -0.043268823206    0.000134434985    0.000167016057
            0.000201682756    0.000154448261    -0.049481254134    -0.015826802623    0.000133538184    0.000168282338    -0.057749442013    -0.054199199657
0.525     -0.180233357695    0.010671879303    -0.000017875453    -0.000037805771    -0.082907979391    0.046872089193    0.000006753001    -0.000043502569
            -0.000015572370    -0.000039008199    -0.181401225118    -0.017315085903    0.000009435558    -0.000024719211    -0.090313466635    0.032750526253
            -0.084308265830    0.047027019244    -0.000021822013    -0.000058352151    -0.182579289657    0.013376195906    0.000024030825    -0.000026451387
            -0.000022987962    -0.000078592789    -0.091671329101    0.032653761801    0.000023879002    -0.000029135369    -0.184535533823    -0.015401500961
0.550     -0.094474151487    0.144192838214    -0.000092754948    0.000210870938    -0.017426578579    0.075360378491    -0.000105086837    0.000210480707
            -0.000092798938    0.000208347420    -0.119470322187    0.129570895396    -0.000063620964    0.000139236223    -0.030332642938    0.072896675380
            -0.017999990844    0.076360486546    -0.000084518067    0.000166329138    -0.092474342997    0.146022401489    -0.000072145479    0.000152925265
            -0.000134151416    0.000232402779    -0.031014736807    0.073764817164    -0.000077491310    0.000151986290    -0.116130386170    0.128133821478
0.575     -0.006625721593    0.062274120546    0.000229744188    0.000184742990    -0.015095981318    0.025638101538    0.000228218144    0.000210962350
            0.000228409506    0.000184108470    -0.013624734899    0.065311825153    0.000148966860    0.000131801155    -0.015993374818    0.024881577127
            -0.014930242199    0.026423385747    0.000181457151    0.000133728438    -0.009211090338    0.062900845361    0.000171040811    0.000160178525
            0.000250191509    0.000223347729    -0.015961712903    0.025590390400    0.000168073874    0.000165944291    -0.019181609212    0.061297057134
0.600     -0.072378627956    0.059374790000    0.000057161116    -0.000076639584    -0.036301540475    0.053592909315    0.000071680778    -0.000057920252
            0.000056505366    -0.000077266340    -0.076975695485    0.043334943774    0.000029329248    -0.000028119034    -0.041809979710    0.044091248960
            -0.035920655012    0.054370521998    0.000013290409    -0.000068327256    -0.071403523042    0.064163398498    0.000052362345    -0.000032767479
            0.000063010386    -0.000085875650    -0.041677889261    0.044859997601    0.000056328217    -0.000028819707    -0.078534686748    0.048037547861
0.625     -0.007163055544    0.098764981843    -0.000036156493    0.000218911519    0.014810567730    0.041410745427    -0.000017236946    0.000233589382
            -0.000037742166    0.000218593249    -0.026023802174    0.098040867214    -0.000001945501    0.000171104800    0.007577897655    0.044971191805
            0.015881561134    0.041850281391    -0.000050090086    0.000195757206    -0.003299947464    0.097841963620    0.000000508973    0.000184228557
            -0.000055996149    0.000256483848    0.008463964675    0.045664264272    0.000003404455    0.000183581075    -0.021629074660    0.094282396471
0.650     -0.013765118578    0.016287117106    0.000337353913    0.000135609104    -0.039441423075    -0.003301521189    0.000354740710    0.000138143708
            0.000335589872    0.000137164798    -0.005372738789    0.019174710708    0.000230061834    0.000073184826    -0.028609887399    -0.007887836343
            -0.038326589803    -0.003926914693    0.000259905243    0.000121304833    -0.014687701871    0.015273666429    0.000268886947    0.000093000729
            0.000385870380    0.000183591394    -0.027394528353    -0.008217605841    0.000270091870    0.000093090360    -0.010590676682    0.014230370491
0.675     -0.071709123190    0.070301874979    0.000099329612    -0.000155291678    -0.059669266568    0.079772468424    0.000107849954    -0.000135789562
            0.000099860111    -0.000153023507    -0.074449858583    0.046842630728    0.000032804727    -0.000062030669    -0.067010694262    0.060108602609
            -0.059461164552    0.078593351530    0.000066406662    -0.000095394715    -0.068833559467    0.071244988623    0.000063446009    -0.000077833923
            0.000145986606    -0.000168149457    -0.066557081943    0.059056941228    0.000066840574    -0.000077993580    -0.074549813806    0.049058538771
0.700     -0.011894089371    0.070845863359    0.000006751989    0.000166837458    0.008647150658    0.062093533768    0.000060464494    0.000187553076
            0.000008761039    0.000167350581    -0.025164572525    0.068743565581    0.000065347691    0.000164443468    -0.001653403757    0.064099226232
            0.008031113001    0.061221972206    0.000025397432    0.000152813220    -0.010291498320    0.065282065399    0.000083295484    0.000175617042
            0.000027370870    0.000166933237    -0.001977646630    0.063175544464    0.000086133141    0.000170596893    -0.022990749779    0.060605771259
0.725     -0.103163630440    0.046968848689    0.000359385255    0.000006090529    -0.068968373299    0.050948477648    0.000397145284    -0.000043530520
            0.000359280393    0.000005924081    -0.091382348862    0.026485373944    0.000264380801    -0.000060756211    -0.061890264399    0.034739477737
            -0.069746096095    0.050767749203    0.000278636335    -0.000012379872    -0.108090457556    0.046427973325    0.000326719146    -0.000067490017
            0.000403000505    -0.000006943114    -0.062527075117    0.034320283222    0.000322596767    -0.000072636706    -0.101958213650    0.022311084120
0.750     -0.085970834110    0.205832133414    0.000061377336    -0.000204714312    -0.030924573843    0.161256917824    0.000036802122    -0.000215307798
            0.000063079097    -0.000204115185    -0.116675684650    0.169280291976    -0.000018048936    -0.000105685460    -0.056612572634    0.140607967474
            -0.031647318313    0.161392417417    0.000031439643    -0.000134310076    -0.083029908570    0.208092788322    0.000009061354    -0.000152280694
            0.000074700903    -0.000240942615    -0.057356659276    0.140506001623    0.000003743996    -0.000150677292    -0.117513141981    0.174222037359
0.775     0.075119707689    0.164007307717    -0.000003196249    0.000110170755    0.078561589692    0.101415380316    0.000033050427    0.000143988386
            -0.000001066689    0.000108621573    0.040477820413    0.176380200138    0.000051833373    0.000138711781    0.058993935896    0.116363879956
            0.077758590371    0.102082405051    0.000018240795    0.000089694945    0.075519313137    0.158371556923    0.000064272123    0.000138041991
