# GHz S RI R 45
0.000     0.067773033000    -0.000000000000    -0.000022126574    0.000000000000    0.003505345000    0.000000000000    -0.000043052973    -0.000000000000
            0.000046845330    0.000000000000    0.065233647000    -0.000000000000    0.000075442866    -0.000000000000    0.004203045500    -0.000000000000
            0.003924457500    0.000000000000    -0.000056359481    -0.000000000000    0.065252055000    -0.000000000000    0.000013645318    0.000000000000
            -0.000031032007    0.000000000000    0.005039307200    0.000000000000    0.000072377381    -0.000000000000    0.064507715000    -0.000000000000
0.025     0.144928015562    0.013486214314    0.000049618002    0.000028593691    0.078467817579    0.037553507935    0.000034600311    0.000039715211
            0.000078915011    -0.000022702559    0.144950268413    0.015760929552    0.000023744949    -0.000060458113    0.077822007140    0.037241571627
            0.078554289904    0.037213034138    0.000038577853    0.000055970165    0.144486407057    0.015125277288    0.000020416005    -0.000012622577
            0.000023242407    0.000029953094    0.078404329610    0.036717954226    0.000007832170    -0.000064423809    0.145474690662    0.016320415987
0.050     0.100244226906    -0.075207211666    -0.000028422982    0.000021325471    0.065712438332    -0.031782050857    -0.000023602799    0.000022972501
            -0.000044565484    -0.000019473942    0.102725499936    -0.076226563253    -0.000107979114    0.000069681957    0.066011463747    -0.031031829786
            0.065450658672    -0.031919866820    -0.000015712824    0.000034462593    0.100496511136    -0.074622203956    -0.000061019850    0.000050767530
            -0.000034429928    0.000038016378    0.066043530625    -0.031909158078    -0.000106545822    0.000072845853    0.103050769801    -0.077085954290
0.075     0.067331202513    0.010325076018    0.000069034715    0.000170408911    0.050399750669    0.032427561477    0.000061693180    0.000156094338
            0.000052323803    0.000148799987    0.064993796412    0.008055925903    0.000149509714    0.000229668768    0.049857028308    0.032321381610
            0.050322286574    0.032436664124    0.000073369735    0.000171076603    0.067663268241    0.011669929535    0.000108848984    0.000174009663
            0.000078199578    0.000166405728    0.049361330695    0.031579644392    0.000147117146    0.000206407750    0.064547342589    0.008128758441
0.100     0.183863919582    -0.017791948843    0.000141939288    -0.000008078197    0.148353780626    -0.004279767998    0.000145423876    -0.000001095178
            0.000101290094    -0.000027835953    0.183068831010    -0.013088001168    0.000178257044    -0.000096645006    0.148438672063    -0.002098872904
            0.148052574271    -0.004443479471    0.000152774701    0.000008869701    0.186044476124    -0.017188121701    0.000155772008    -0.000060975880
            0.000151273328    -0.000008056831    0.147649658543    -0.002179920891    0.000173212145    -0.000103724346    0.184387697960    -0.012307775626
0.125     0.105646265997    -0.136612626663    -0.000063761862    0.000066416264    0.072995737018    -0.104876230205    -0.000030165264    0.000032340747
            -0.000122452176    0.000090575187    0.111432339487    -0.136618670871    -0.000152365880    0.000051906049    0.076265388373    -0.104502634683
            0.072520328752    -0.104353707402    -0.000024153964    0.000066199966    0.107279903940    -0.138188613692    -0.000081375530    0.000026870746
            -0.000030586421    0.000026154409    0.075524723726    -0.104029487006    -0.000129501667    0.000010864202    0.112198310648    -0.137745369424
0.150     0.043826908523    -0.042998652016    0.000193209303    0.000274370837    0.022259649808    -0.016952926265    0.000178591277    0.000219174321
            0.000191009930    0.000352513382    0.041957491868    -0.046363867069    0.000232762071    0.000378193603    0.021938289752    -0.018147359344
            0.022854690096    -0.016250274434    0.000222227927    0.000238976164    0.044254015743    -0.044481488574    0.000198138576    0.000254690802
            0.000176934833    0.000222236144    0.021815127599    -0.017183276725    0.000193679101    0.000314110171    0.041900008534    -0.046132082843
0.175     0.149093931730    -0.091738616608    0.000207527521    -0.000075508385    0.114334275901    -0.063617650816    0.000207065808    -0.000098774130
            0.000257481637    -0.000052862250    0.150927975968    -0.085929689145    0.000311084228    -0.000153458960    0.117598360395    -0.060481584585
            0.114915282687    -0.063994962934    0.000205967706    -0.000108137004    0.149419353417    -0.093807341948    0.000243411336    -0.000143420592
            0.000210349927    -0.000103794668    0.118206669853    -0.059824323552    0.000293418402    -0.000155147390    0.152882963276    -0.086391028611
0.200     0.032083390565    -0.203752094980    -0.000076669122    0.000113556273    0.005565111883    -0.150521067607    -0.000065568078    0.000038944030
            -0.000046347622    0.000110663638    0.042607171550    -0.206006536922    -0.000146053829    0.000031119654    0.012596467714    -0.153972561878
            0.005412758498    -0.150642357952    -0.000075557611    0.000096774001    0.030620937310    -0.205944228465    -0.000109176267    0.000002362694
            -0.000067025246    0.000031895999    0.013279699600    -0.153825829452    -0.000127306197    -0.000038287654    0.043102453595    -0.208400612123
0.225     -0.061601592092    -0.067242102140    0.000328669999    0.000365206417    -0.063984191783    -0.017894673319    0.000270683763    0.000305744041
            0.000365146656    0.000362660234    -0.061647315537    -0.075233553319    0.000305778570    0.000451821992    -0.065250243574    -0.023492703851
            -0.063378353644    -0.017838522343    0.000341496688    0.000342726758    -0.063293631560    -0.067361397864    0.000266957574    0.000348833828
            0.000255004580    0.000304249127    -0.064445799821    -0.023726341814    0.000229248228    0.000383972509    -0.062077806753    -0.076052694187
0.250     0.065338721669    -0.055590710082    0.000355492473    -0.000193901051    0.057271952358    -0.013010364100    0.000350099372    -0.000206757853
            0.000396978859    -0.000250406458    0.067593209866    -0.053115965643    0.000488076317    -0.000235926730    0.059677121081    -0.011222227969
            0.057476743542    -0.014249118063    0.000351119200    -0.000234591734    0.064939121458    -0.056120275711    0.000418425718    -0.000237059088
            0.000350194848    -0.000189541668    0.060166112168    -0.012199941633    0.000473349961    -0.000213523975    0.068633825044    -0.054771501843
0.275     -0.019599063670    -0.163450166501    -0.000041568265    0.000085906111    -0.011151203769    -0.098924612383    -0.000047539623    0.000006380707
            -0.000082671004    0.000016606448    -0.009514867009    -0.169882151294    -0.000094137844    -0.000044758259    -0.005120128942    -0.105200805221
            -0.012543362100    -0.099362522635    -0.000067440838    0.000084642749    -0.021398905857    -0.163684377358    -0.000070697503    -0.000068077256
            -0.000035398511    0.000006274436    -0.005699278133    -0.106188225669    -0.000061284992    -0.000127510883    -0.010928867276    -0.172361365788
0.300     -0.111364644657    -0.025797844542    0.000475716225    0.000301162942    -0.064193723760    0.009728535871    0.000419772703    0.000270710020
            0.000409465747    0.000303688349    -0.112754972189    -0.037287063477    0.000412746917    0.000372802409    -0.067667620511    0.003488520079
            -0.064705678174    0.010779750465    0.000516569186    0.000326952325    -0.111271728765    -0.023771462732    0.000397777661    0.000295523472
            0.000416462943    0.000262475337    -0.068610817332    0.003392132358    0.000340751519    0.000295512366    -0.113983621392    -0.036552954981
0.325     0.056643864011    0.022490825790    0.000465496036    -0.000432778058    0.067647678165    0.023545882469    0.000500714350    -0.000450933817
            0.000437281025    -0.000404765782    0.055333194148    0.022837325244    0.000602055197    -0.000435794863    0.068742861927    0.026225715315
            0.068050352177    0.023575305766    0.000530107471    -0.000499294659    0.058964504502    0.021132717559    0.000577659320    -0.000486715389
            0.000494209359    -0.000439901554    0.068330606019    0.026452231787    0.000591847491    -0.000438839245    0.057170137489    0.021729017789
0.350     0.027276476405    -0.140687909388    -0.000125093458    -0.000108875125    0.024860124724    -0.097584796374    -0.000121604596    -0.000220209035
            -0.000151493839    -0.000078613883    0.035244817545    -0.144662301254    -0.000125687631    -0.000257240510    0.031836896446    -0.102253565932
            0.024185782580    -0.097399175847    -0.000147045130    -0.000162176489    0.025604860519    -0.143095195280    -0.000145071736    -0.000327248071
            -0.000104292205    -0.000217450568    0.031224076419    -0.101743071985    -0.000110745878    -0.000356736521    0.033843509317    -0.146890670322
0.375     -0.105640919596    -0.065949721970    0.000382425836    0.000163193684    -0.055613101732    -0.038512746038    0.000343747287    0.000115987853
            0.000380901901    0.000230823025    -0.102436255605    -0.076705247219    0.000320764726    0.000181560093    -0.054201698334    -0.045046039238
            -0.055278586043    -0.037007143202    0.000433894431    0.000171610887    -0.105849176615    -0.064417140904    0.000296029549    0.000119576327
            0.000345995865    0.000097391828    -0.054250189703    -0.043813747471    0.000250503956    0.000098321515    -0.102213954817    -0.074961734810
0.400     0.008661738527    0.010302463007    0.000366907195    -0.000545632227    0.011543457552    -0.010546972026    0.000413034529    -0.000623969485
            0.000440834093    -0.000505361876    0.009040029098    0.005148683169    0.000491450593    -0.000570519934    0.015839897285    -0.013897623848
            0.013445433986    -0.010693037932    0.000454592495    -0.000682232835    0.011503956851    0.007288058146    0.000467328717    -0.000661115922
            0.000398329352    -0.000626580166    0.017049390915    -0.013216273486    0.000459748284    -0.000605618712    0.013459835002    0.002283792223
0.425     0.005798849458    -0.149186092169    -0.000310789491    -0.000198960842    -0.023955793614    -0.091008670446    -0.000350845068    -0.000343127641
            -0.000252105418    -0.000235814006    0.015004212048    -0.153910132849    -0.000317331143    -0.000374283085    -0.016859752699    -0.099910069876
            -0.023775122955    -0.092498389130    -0.000399364418    -0.000324422509    0.001609904528    -0.153081864853    -0.000388851573    -0.000440821502
            -0.000352171854    -0.000333425311    -0.015891785578    -0.100470280758    -0.000338670208    -0.000441240337    0.013029552207    -0.159254968211
0.450     -0.179295229374    -0.097299899827    0.000193759572    0.000182040771    -0.110016843096    -0.029464868453    0.000145386270    0.000124499321
            0.000210775709    0.000138492402    -0.168988253536    -0.115859798210    0.000119447285    0.000148245418    -0.107041209020    -0.043479052313
            -0.110580975739    -0.029580898019    0.000174576956    0.000197759062    -0.181575390060    -0.094013262760    0.000100518323    0.000128505333
            0.000151568703    0.000121010121    -0.106783535584    -0.044002095996    0.000096058084    0.000088537232    -0.169978912300    -0.115491660210
0.475     -0.113556636201    0.055088959791    0.000349396726    -0.000452750451    -0.059730284551    0.036268665606    0.000359294963    -0.000559304440
            0.000352146650    -0.000499837191    -0.116506627139    0.034880998326    0.000389125744    -0.000499768529    -0.061308549674    0.023277681412
            -0.059312077807    0.035878125191    0.000408173023    -0.000571254848    -0.110126377350    0.053596304308    0.000399853300    -0.000597625175
            0.000349847986    -0.000564634569    -0.060980416001    0.022560692432    0.000371643148    -0.000581316135    -0.113352123885    0.030050155065
0.500     -0.051489379608    -0.036112452370    -0.000405123263    -0.000312430164    -0.046914181066    -0.003670328229    -0.000478768428    -0.000423091052
            -0.000446627331    -0.000367985944    -0.052406652658    -0.047549143087    -0.000452146790    -0.000433048012    -0.048948783101    -0.014659231315
            -0.047798354930    -0.004938653200    -0.000534504164    -0.000419835152    -0.055629809849    -0.040231945870    -0.000519225052    -0.000500215729
            -0.000485597604    -0.000410949355    -0.049481254134    -0.015826802623    -0.000488124060    -0.000489426876    -0.057749442013    -0.054199199657
0.525     -0.183055193305    0.005784977941    0.000085809995    0.000198927688    -0.086300703582    0.046698420263    0.000070526076    0.000153646856
            0.000009925946    0.000201349709    -0.181401225118    -0.017315085903    0.000037811627    0.000188897448    -0.090313466635    0.032750526253
            -0.087986929688    0.047348648748    0.000063314763    0.000265166948    -0.185077190760    0.010155023269    0.000063575806    0.000148723987
            0.000080960203    0.000163727802    -0.091671329101    0.032653761801    0.000066137459    0.000113081559    -0.184535533823    -0.015401500961
0.550     -0.101904332347    0.153822718788    0.000328116309    -0.000489370220    -0.019674280907    0.084916100343    0.000324688697    -0.000625607406
            0.000285291135    -0.000436632221    -0.119470322187    0.129570895396    0.000354602285    -0.000555973105    -0.030332642938    0.072896675380
            -0.019661151995    0.086476006827    0.000422728321    -0.000582755180    -0.097121354391    0.152620460848    0.000356532548    -0.000711258472
            0.000337232194    -0.000632507566    -0.031014736807    0.073764817164    0.000320145300    -0.000715183930    -0.116130386170    0.128133821478
0.575     0.000176786107    0.071130159309    -0.000586687430    -0.000507469314    -0.009885980784    0.030553226162    -0.000656125205    -0.000591590503
            -0.000583674211    -0.000448240860    -0.013624734899    0.065311825153    -0.000635449356    -0.000577006257    -0.015993374818    0.024881577127
            -0.009132720565    0.030949396203    -0.000673309018    -0.000628564338    -0.003459275269    0.066564164014    -0.000723077942    -0.000664124648
            -0.000661951868    -0.000603643276    -0.015961712903    0.025590390400    -0.000727629520    -0.000634244425    -0.019181609212    0.061297057134
0.600     -0.073558891167    0.057901564242    -0.000206876392    0.000261164519    -0.039478366418    0.055449532267    -0.000162844354    0.000170347349
            -0.000175885201    0.000306840112    -0.076975695485    0.043334943774    -0.000173501598    0.000229562932    -0.041809979710    0.044091248960
            -0.039360311272    0.055634877959    -0.000198718073    0.000278674966    -0.075503639491    0.061707280140    -0.000146333840    0.000157231103
            -0.000171512762    0.000180336483    -0.041677889261    0.044859997601    -0.000133259800    0.000157851269    -0.078534686748    0.048037547861
0.625     -0.010259504409    0.111226244052    0.000082988080    -0.000535095499    0.016337206510    0.054305333056    0.000043645105    -0.000740509589
            0.000141510119    -0.000512279331    -0.026023802174    0.098040867214    0.000086999995    -0.000711759418    0.007577897655    0.044971191805
            0.017105835511    0.054940609246    0.000147427259    -0.000705978494    -0.006389010966    0.109204655327    0.000038842010    -0.000886668017
            0.000063162773    -0.000735887146    0.008463964675    0.045664264272    0.000033775087    -0.000888793367    -0.021629074660    0.094282396471
0.650     -0.000710515810    0.022555562905    -0.001066545586    -0.000332152751    -0.027606831654    -0.001191360208    -0.001153061005    -0.000401158592
            -0.000998164363    -0.000362946639    -0.005372738789    0.019174710708    -0.001205432192    -0.000405288676    -0.028609887399    -0.007887836343
            -0.026085763465    -0.001809756501    -0.001215962300    -0.000475002414    -0.004682365175    0.019081189037    -0.001293240652    -0.000439760160
            -0.001154309454    -0.000432205616    -0.027394528353    -0.008217605841    -0.001292558618    -0.000426077345    -0.010590676682    0.014230370491
0.675     -0.071022737703    0.066886374979    -0.000399632320    0.000654069650    -0.061401228068    0.078961166473    -0.000346119979    0.000506398588
            -0.000376993018    0.000579053629    -0.074449858583    0.046842630728    -0.000375715888    0.000625198115    -0.067010694262    0.060108602609
            -0.061427511910    0.077101421976    -0.000442233458    0.000648133262    -0.071067658387    0.069871721385    -0.000312660348    0.000528676618
            -0.000382070111    0.000514709098    -0.066557081943    0.059056941228    -0.000294805387    0.000535309607    -0.074549813806    0.049058538771
0.700     -0.010078919548    0.082110203647    -0.000033420111    -0.000296379154    0.013585158862    0.074042199053    -0.000158314089    -0.000526957807
            -0.000072043346    -0.000355743955    -0.025164572525    0.068743565581    -0.000114333541    -0.000514613656    -0.001653403757    0.064099226232
            0.012060210724    0.073536270294    -0.000079932185    -0.000457241132    -0.007401546551    0.077522417775    -0.000182655414    -0.000692134393
            -0.000143064690    -0.000493538361    -0.001977646630    0.063175544464    -0.000165035594    -0.000708810961    -0.022990749779    0.060605771259
0.725     -0.088830615447    0.044507921538    -0.001185439079    0.000200947040    -0.056010850929    0.046916233507    -0.001268633001    0.000192069033
            -0.001238275116    0.000188114060    -0.091382348862    0.026485373944    -0.001420483526    0.000242330309    -0.061890264399    0.034739477737
            -0.056406226505    0.047429476117    -0.001384527682    0.000189879253    -0.094582821273    0.043019672535    -0.001431574749    0.000214658149
            -0.001246738857    0.000164539413    -0.062527075117    0.034320283222    -0.001442167768    0.000193414978    -0.101958213650    0.022311084120
0.750     -0.089687309270    0.200507785803    -0.000152162925    0.000943702876    -0.034915108102    0.158917279042    -0.000091635204    0.000760309307
            -0.000202686143    0.000949171813    -0.116675684650    0.169280291976    -0.000083387534    0.001019131918    -0.056612572634    0.140607967474
            -0.035091797003    0.158395488904    -0.000143945602    0.001008763388    -0.087251271797    0.203481148492    -0.000007978820    0.000812655172
            -0.000123892214    0.000753058094    -0.057356659276    0.140506001623    -0.000023452676    0.000814823946    -0.117513141981    0.174222037359
0.775     0.075600852775    0.176827798275    0.000123881878    -0.000153321008    0.082452774955    0.113829389268    -0.000029284301    -0.000379440111
            0.000068603896    -0.000109667751    0.040477820413    0.176380200138    0.000106981314    -0.000349583912    0.058993935896    0.116363879956
            0.080801257723    0.114263726550    0.000113572859    -0.000279884914    0.076814117274    0.169533172344    -0.000015598683    -0.000565147921
