# GHz S RI R 45
0.000     0.065376731000    -0.000000000000    -0.000002629678    -0.000000000000    0.003938236600    -0.000000000000    -0.000001542873    -0.000000000000
            -0.000002623661    -0.000000000000    0.065233647000    -0.000000000000    0.000000345534    0.000000000000    0.004203045500    -0.000000000000
            0.004706213800    0.000000000000    0.000000362418    0.000000000000    0.063970532000    -0.000000000000    -0.000000350268    0.000000000000
            -0.000001563242    0.000000000000    0.005039307200    0.000000000000    -0.000000349599    -0.000000000000    0.064507715000    -0.000000000000
0.025     0.147731289153    0.008340276109    0.000000987116    0.000003696854    0.080792041057    0.029757927743    -0.000005687461    -0.000000160023
            0.000000995031    0.000003701484    0.144950268413    0.015760929552    0.000010921566    0.000004902590    0.077822007140    0.037241571627
            0.081546509444    0.029414797514    0.000010928818    0.000004902196    0.148351395490    0.009442386652    -0.000001361651    0.000000131377
            -0.000005680333    -0.000000166508    0.078404329610    0.036717954226    -0.000001357492    0.000000136547    0.145474690662    0.016320415987
0.050     0.086090913751    -0.097236103286    0.000002075782    -0.000001930579    0.048796370162    -0.052143367616    -0.000008329933    0.000007812924
            0.000002091040    -0.000001937986    0.102725499936    -0.076226563253    0.000015998740    -0.000015871238    0.066011463747    -0.031031829786
            0.049203872325    -0.052970344767    0.000015992635    -0.000015886174    0.086690703396    -0.098120649197    -0.000002286459    0.000001685159
            -0.000008338780    0.000007802435    0.066043530625    -0.031909158078    -0.000002271948    0.000001678698    0.103050769801    -0.077085954290
0.075     0.001426723025    0.028630583716    0.000004339525    -0.000002497732    -0.012720886846    0.048014674168    0.000008926387    0.000016135727
            0.000004335274    -0.000002524605    0.064993796412    0.008055925903    -0.000006623591    -0.000030414083    0.049857028308    0.032321381610
            -0.013264819412    0.047108584888    -0.000006637725    -0.000030392432    0.000823945379    0.028697608169    0.000002865733    0.000004332259
            0.000008918099    0.000016151555    0.049361330695    0.031579644392    0.000002860533    0.000004310678    0.064547342589    0.008128758441
0.100     0.178471785555    0.020199576418    -0.000012098290    -0.000006264379    0.141106680800    0.037893618355    0.000016128016    -0.000000174624
            -0.000012136509    -0.000006264514    0.183068831010    -0.013088001168    -0.000047000316    -0.000010304876    0.148438672063    -0.002098872904
            0.140837311008    0.037151811141    -0.000046998100    -0.000010284679    0.178702096769    0.020683336737    0.000002887110    -0.000000379378
            0.000016145077    -0.000000171002    0.147649658543    -0.002179920891    0.000002872902    -0.000000400191    0.184387697960    -0.012307775626
0.125     0.112325119748    -0.139290254908    0.000000932888    0.000013268770    0.086949374004    -0.096397391934    0.000018724914    -0.000016724201
            0.000000919755    0.000013312066    0.111432339487    -0.136618670871    -0.000029138432    0.000049014089    0.076265388373    -0.104502634683
            0.086145972056    -0.097055770402    -0.000029094288    0.000049008198    0.112334483444    -0.139234716273    0.000005577575    -0.000002706600
            0.000018734624    -0.000016750287    0.075524723726    -0.104029487006    0.000005520361    -0.000002686803    0.112198310648    -0.137745369424
0.150     -0.006602647246    -0.023440283069    0.000000120227    0.000001524835    -0.008099249232    -0.000373632262    -0.000018620816    -0.000030910879
            0.000000157427    0.000001547897    0.041957491868    -0.046363867069    0.000028772933    0.000053870936    0.021938289752    -0.018147359344
            -0.009181810940    -0.000228747329    0.000028735540    0.000053824965    -0.006038309454    -0.022648292102    -0.000004774842    -0.000008643349
            -0.000018670733    -0.000030904942    0.021815127599    -0.017183276725    -0.000004739887    -0.000008562066    0.041900008534    -0.046132082843
0.175     0.159842892665    0.011901794251    0.000019775806    -0.000000624603    0.129771751881    0.020272772928    -0.000029045767    0.000001370470
            0.000019809241    -0.000000642598    0.150927975968    -0.085929689145    0.000081406524    -0.000002673981    0.117598360395    -0.060481584585
            0.129255643901    0.020865736079    0.000081390184    -0.000002642598    0.161084091199    0.011185954406    -0.000005661352    -0.000000350686
            -0.000029005955    0.000001411234    0.118206669853    -0.059824323552    -0.000005587497    -0.000000369028    0.152882963276    -0.086391028611
0.200     0.139043223735    -0.167610036098    -0.000013686342    -0.000021391975    0.105882352495    -0.119373709848    -0.000028762166    0.000032057657
            -0.000013681927    -0.000021429223    0.042607171550    -0.206006536922    0.000025456420    -0.000085966535    0.012596467714    -0.153972561878
            0.105436322512    -0.118971949871    0.000025450105    -0.000085938407    0.138478602840    -0.168001783992    -0.000009553720    0.000005948064
            -0.000028743924    0.000032017377    0.013279699600    -0.153825829452    -0.000009518403    0.000005870406    0.043102453595    -0.208400612123
0.225     -0.009604515262    -0.121312691693    -0.000005408319    0.000010696347    0.000437227832    -0.080804413102    0.000035630428    0.000047831963
            -0.000005426501    0.000010665961    -0.061647315537    -0.075233553319    -0.000062974182    -0.000062774177    -0.065250243574    -0.023492703851
            -0.000037939728    -0.079856953987    -0.000062897322    -0.000062770723    -0.008083316838    -0.119623223501    0.000007695372    0.000014636864
            0.000035593659    0.000047808184    -0.064445799821    -0.023726341814    0.000007585091    0.000014554455    -0.062077806753    -0.076052694187
0.250     0.072370980145    -0.045850337441    -0.000013007202    0.000006279516    0.057868001626    -0.043214156698    0.000048644036    -0.000014730198
            -0.000013082716    0.000006269628    0.067593209866    -0.053115965643    -0.000103088555    0.000030458364    0.059677121081    -0.011222227969
            0.058374929552    -0.042058638471    -0.000103139986    0.000030384192    0.075861694933    -0.047971502228    0.000012173951    -0.000001519689
            0.000048612966    -0.000014661554    0.060166112168    -0.012199941633    0.000012098849    -0.000001396898    0.068633825044    -0.054771501843
0.275     0.080375046962    -0.160107571929    0.000023524631    0.000014701572    0.032895186578    -0.113078717445    0.000024714110    -0.000056940355
            0.000023490413    0.000014806421    -0.009514867009    -0.169882151294    -0.000007213970    0.000114217881    -0.005120128942    -0.105200805221
            0.033860238861    -0.112688848104    -0.000007243926    0.000114271476    0.079406920213    -0.162963612346    0.000010434785    -0.000013966897
            0.000024807508    -0.000056951689    -0.005699278133    -0.106188225669    0.000010512990    -0.000013905315    -0.010928867276    -0.172361365788
0.300     -0.028237759072    -0.154660460598    0.000000223344    -0.000018892084    -0.022475617785    -0.078657520797    -0.000061955375    -0.000050076582
            0.000000336471    -0.000018822235    -0.112754972189    -0.037287063477    0.000095862661    0.000060017634    -0.067667620511    0.003488520079
            -0.021759858080    -0.078672167909    0.000095884252    0.000060039831    -0.027751950901    -0.153346948229    -0.000014912016    -0.000016536509
            -0.000062002864    -0.000050145479    -0.068610817332    0.003392132358    -0.000014857157    -0.000016553259    -0.113983621392    -0.036552954981
0.325     -0.014738507401    -0.112747037704    0.000005559089    -0.000007603252    0.003886100092    -0.081449701565    -0.000057953757    0.000036312179
            0.000005666749    -0.000007703287    0.055333194148    0.022837325244    0.000112047144    -0.000065968650    0.068742861927    0.026225715315
            0.004633147208    -0.081576137268    0.000112100563    -0.000065991112    -0.010977574838    -0.115613053558    -0.000017416921    0.000005842121
            -0.000057984593    0.000036332782    0.068330606019    0.026452231787    -0.000017371766    0.000005788238    0.057170137489    0.021729017789
0.350     -0.045887988216    -0.148787028091    -0.000029796085    -0.000003854025    -0.058022174713    -0.101905128531    -0.000011498241    0.000075425192
            -0.000029880044    -0.000004010100    0.035244817545    -0.144662301254    -0.000020449200    -0.000130995231    0.031836896446    -0.102253565932
            -0.057222005501    -0.102469690308    -0.000020503455    -0.000131054809    -0.047691103196    -0.153894084453    -0.000007718281    0.000022586066
            -0.000011480775    0.000075501539    0.031224076419    -0.101743071985    -0.000007751929    0.000022511679    0.033843509317    -0.146890670322
0.375     -0.102334404534    -0.083035394880    0.000010840047    0.000023766292    -0.077342980583    -0.010467683128    0.000085510045    0.000045471678
            0.000010656734    0.000023833406    -0.102436255605    -0.076705247219    -0.000121140430    -0.000049638858    -0.054201698334    -0.045046039238
            -0.076930550029    -0.011490292249    -0.000121191759    -0.000049571574    -0.103783777155    -0.082585555468    0.000023623380    0.000015013610
            0.000085606809    0.000045387765    -0.054250189703    -0.043813747471    0.000023544883    0.000015000138    -0.102213954817    -0.074961734810
0.400     -0.039315447356    -0.062287916029    0.000001159626    0.000003585983    0.001927741546    -0.021230755685    0.000066754917    -0.000059871578
            0.000001204568    0.000003749084    0.009040029098    0.005148683169    -0.000117201269    0.000100186292    0.015839897285    -0.013897623848
            0.001661252931    -0.022370104672    -0.000117115534    0.000100254242    -0.036460633439    -0.065542654518    0.000020300593    -0.000012582078
            0.000066618163    -0.000059878827    0.017049390915    -0.013216273486    0.000020208563    -0.000012501623    0.013459835002    0.002283792223
0.425     -0.104898018012    -0.128414512984    0.000032919079    -0.000012717219    -0.068246991462    -0.076680106583    -0.000010009487    -0.000097687051
            0.000033036117    -0.000012704272    0.015004212048    -0.153910132849    0.000054385081    0.000142496077    -0.016859752699    -0.099910069876
            -0.069101757592    -0.077353630532    0.000054438440    0.000142366343    -0.108539777433    -0.133469710369    0.000001135218    -0.000031112449
            -0.000009941560    -0.000097616522    -0.015891785578    -0.100470280758    0.000001224512    -0.000030953633    0.013029552207    -0.159254968211
0.450     -0.191782852715    -0.004794751565    -0.000037424367    -0.000026746008    -0.110459913400    0.028276656187    -0.000117245644    -0.000030390718
            -0.000037349901    -0.000026830463    -0.168988253536    -0.115859798210    0.000138559991    0.000029367194    -0.107041209020    -0.043479052313
            -0.111261426465    0.028159027254    0.000138435441    0.000029342470    -0.194484154201    -0.002948931547    -0.000033919392    -0.000009211919
            -0.000117237223    -0.000030424459    -0.106783535584    -0.044002095996    -0.000033726283    -0.000009285840    -0.169978912300    -0.115491660210
0.475     -0.046883125300    0.077993103222    -0.000000013771    0.000025836043    0.003661819276    0.056450817276    -0.000063878280    0.000098717400
            -0.000000064509    0.000025737582    -0.116506627139    0.034880998326    0.000118083078    -0.000124179124    -0.061308549674    0.023277681412
            0.002945715776    0.056318133897    0.000118029205    -0.000124097766    -0.044062637236    0.075557512514    -0.000017894549    0.000024094345
            -0.000063891871    0.000098654614    -0.060980416001    0.022560692432    -0.000017938224    0.000023881209    -0.113352123885    0.030050155065
0.500     -0.030246499721    -0.069722060143    -0.000012192574    0.000012151127    -0.011169562328    -0.044046790164    0.000051133265    0.000107654507
            -0.000012286317    0.000012146929    -0.052406652658    -0.047549143087    -0.000087410864    -0.000162103915    -0.048948783101    -0.014659231315
            -0.012323133630    -0.043836274366    -0.000087312310    -0.000161962894    -0.035088495666    -0.074579755110    0.000009397597    0.000032218446
            0.000051031691    0.000107769438    -0.049481254134    -0.015826802623    0.000009200326    0.000032231005    -0.057749442013    -0.054199199657
0.525     -0.177750371218    -0.000760943961    0.000048213913    0.000005545288    -0.083470971810    0.017233035176    0.000139128331    -0.000011303833
            0.000048151875    0.000005618167    -0.181401225118    -0.017315085903    -0.000166855838    -0.000002693072    -0.090313466635    0.032750526253
            -0.084253564615    0.018455173079    -0.000166719739    -0.000002883908    -0.180699280090    0.003124431476    0.000038311216    -0.000001581568
            0.000139308013    -0.000011293412    -0.091671329101    0.032653761801    0.000038272605    -0.000001431075    -0.184535533823    -0.015401500961
0.550     -0.065614226257    0.142742370728    -0.000022116947    -0.000042394011    -0.006120519648    0.065225544100    0.000031790000    -0.000127139387
            -0.000022082103    -0.000042281829    -0.119470322187    0.129570895396    -0.000106848337    0.000158936742    -0.030332642938    0.072896675380
            -0.005810193718    0.066461064523    -0.000107047403    0.000158867830    -0.061091182784    0.141604168577    0.000010560489    -0.000029825981
            0.000031731305    -0.000127288031    -0.031014736807    0.073764817164    0.000010655410    -0.000029739141    -0.116130386170    0.128133821478
0.575     0.038279173129    0.012516116909    -0.000005779930    0.000013821027    0.016646715536    -0.026686358226    -0.000085750033    -0.000091099073
            -0.000005662665    0.000013823666    -0.013624734899    0.065311825153    0.000126920039    0.000174825609    -0.015993374818    0.024881577127
            0.017003462113    -0.025632960804    0.000126806918    0.000174966676    0.034942931175    0.007208767741    -0.000016393260    -0.000029066560
            -0.000085849738    -0.000091046976    -0.015961712903    0.025590390400    -0.000016247509    -0.000029131459    -0.019181609212    0.061297057134
0.600     -0.084967535613    -0.015196552946    -0.000021576858    0.000008364810    -0.053876393126    0.007074432841    -0.000136632433    0.000046249919
            -0.000021534187    0.000008222086    -0.076975695485    0.043334943774    0.000201609016    -0.000036121950    -0.041809979710    0.044091248960
            -0.053466752156    0.007688588822    0.000201686172    -0.000036012730    -0.086819792351    -0.011870387221    -0.000038458824    0.000008458719
            -0.000136617309    0.000046397825    -0.041677889261    0.044859997601    -0.000038459645    0.000008357275    -0.078534686748    0.048037547861
0.625     -0.050280116325    0.075980930568    0.000026247426    0.000016068789    -0.008642995354    0.031213079013    -0.000007541749    0.000135561896
            0.000026140977    0.000015979622    -0.026023802174    0.098040867214    0.000071694910    -0.000211012747    0.007577897655    0.044971191805
            -0.007612693324    0.031774960102    0.000071848385    -0.000211137553    -0.045550319749    0.072957022396    -0.000008031896    0.000032926509
            -0.000007356449    0.000135477779    0.008463964675    0.045664264272    -0.000008074430    0.000032850567    -0.021629074660    0.094282396471
0.650     -0.011518186664    0.011600277726    0.000000890318    -0.000003387372    -0.032014605737    -0.017282138297    0.000114155657    0.000083836389
            0.000000754537    -0.000003336228    -0.005372738789    0.019174710708    -0.000174136265    -0.000150358185    -0.028609887399    -0.007887836343
            -0.030735672858    -0.017569538947    -0.000174297135    -0.000150472451    -0.015466713686    0.006295086783    0.000028224938    0.000030599432
            0.000113994233    0.000083713410    -0.027394528353    -0.008217605841    0.000028048951    0.000030604527    -0.010590676682    0.014230370491
0.675     -0.070165342542    0.036495948545    0.000017120494    -0.000023241138    -0.067464244924    0.045191260240    0.000134700056    -0.000088032395
            0.000017108696    -0.000023068567    -0.074449858583    0.046842630728    -0.000210920736    0.000076094569    -0.067010694262    0.060108602609
            -0.066690105554    0.044276225349    -0.000210996244    0.000076238239    -0.070062109416    0.038635257716    0.000037538284    -0.000022682109
            0.000134666230    -0.000087876889    -0.066557081943    0.059056941228    0.000037544525    -0.000022468358    -0.074549813806    0.049058538771
0.700     -0.000165507690    0.049614955947    -0.000024125698    -0.000000312580    0.004062692614    0.043868750311    -0.000022766167    -0.000146581128
            -0.000023940423    -0.000000237842    -0.025164572525    0.068743565581    -0.000027430072    0.000249546524    -0.001653403757    0.064099226232
            0.004241727089    0.042812429355    -0.000027288147    0.000249596196    0.003640611440    0.041723633706    0.000000678465    -0.000036038542
            -0.000022627498    -0.000146596911    -0.001977646630    0.063175544464    0.000000855017    -0.000036013804    -0.022990749779    0.060605771259
0.725     -0.069730381582    -0.049321632838    -0.000019513999    -0.000019849272    -0.065685926264    -0.000268003757    -0.000161176532    -0.000063062648
            -0.000019385252    -0.000019988518    -0.091382348862    0.026485373944    0.000207721551    0.000111355421    -0.061890264399    0.034739477737
            -0.065694561080    -0.000631582174    0.000207715108    0.000111350506    -0.079794947718    -0.054593343905    -0.000046150881    -0.000021822409
            -0.000161232796    -0.000063153690    -0.062527075117    0.034320283222    -0.000046069324    -0.000021972430    -0.101958213650    0.022311084120
0.750     -0.164686979054    0.100601205173    -0.000017303806    0.000073957618    -0.098098108471    0.103002686218    -0.000104042814    0.000149936360
            -0.000017424393    0.000073754066    -0.116675684650    0.169280291976    0.000205441341    -0.000102522980    -0.056612572634    0.140607967474
            -0.098320295392    0.102325172193    0.000205438151    -0.000102566496    -0.165878223812    0.106269738237    -0.000021629632    0.000040408465
            -0.000104113700    0.000149996143    -0.057356659276    0.140506001623    -0.000021725649    0.000040247025    -0.117513141981    0.174222037359
0.775     0.007931347526    0.163442591664    0.000072424773    -0.000021335180    0.025265446484    0.112106801510    0.000075840263    0.000124902002
            0.000072129731    -0.000021256860    0.040477820413    0.176380200138    0.000002618594    -0.000279540055    0.058993935896    0.116363879956
            0.024550944973    0.111166956568    0.000002474666    -0.000279477394    0.013144043068    0.155758117180    0.000011590390    0.000024152231
