# GHz S RI R 45
0.000     0.066601705000    0.000000000000    -0.000018412723    0.000000000000    0.003484284900    -0.000000000000    -0.000024970553    -0.000000000000
            -0.000012639236    -0.000000000000    0.065233647000    -0.000000000000    -0.000005419576    0.000000000000    0.004203045500    -0.000000000000
            0.004459347000    -0.000000000000    -0.000001154559    0.000000000000    0.066380372000    -0.000000000000    -0.000017163620    0.000000000000
            -0.000001363540    0.000000000000    0.005039307200    0.000000000000    0.000015583028    0.000000000000    0.064507715000    -0.000000000000
0.025     0.148865692211    0.007125777761    -0.000021307116    0.000011367317    0.081718098276    0.030044038558    -0.000031813208    0.000017832237
            -0.000017076051    0.000007524676    0.144950268413    0.015760929552    -0.000010718335    0.000010112686    0.077822007140    0.037241571627
            0.081607857742    0.029163921688    -0.000003519428    0.000000788851    0.148875797594    0.006889187423    -0.000023821480    0.000014821659
            -0.000017381198    -0.000006590965    0.078404329610    0.036717954226    -0.000013349442    -0.000013725538    0.145474690662    0.016320415987
0.050     0.084202420857    -0.097071405049    -0.000027301909    0.000034829016    0.048129000304    -0.052344672802    -0.000018701582    0.000048701450
            -0.000028206937    0.000025456768    0.102725499936    -0.076226563253    -0.000016512468    0.000012269024    0.066011463747    -0.031031829786
            0.047162167629    -0.052156796101    -0.000031126703    0.000007626946    0.083313168589    -0.097345499188    -0.000016667979    0.000033165546
            -0.000041568306    0.000026181154    0.066043530625    -0.031909158078    -0.000036314137    0.000011009205    0.103050769801    -0.077085954290
0.075     0.004382291511    0.032071045428    0.000065563169    0.000063810611    -0.011407247015    0.050073812374    0.000062053026    0.000062770132
            0.000054418441    0.000063762003    0.064993796412    0.008055925903    0.000053024584    0.000042713667    0.049857028308    0.032321381610
            -0.010587691372    0.051235808053    0.000055106995    0.000051796925    0.004485221195    0.033103955783    0.000055663461    0.000050577920
            0.000038258476    0.000076767361    0.049361330695    0.031579644392    0.000023221033    0.000060548882    0.064547342589    0.008128758441
0.100     0.180806455286    0.015358236786    0.000044569964    -0.000051536295    0.142642190816    0.034658323932    0.000076380475    -0.000040781596
            0.000041370325    -0.000044719805    0.183068831010    -0.013088001168    -0.000001962956    -0.000061258992    0.148438672063    -0.002098872904
            0.143396782371    0.034142694667    -0.000003714461    -0.000061632391    0.181916306565    0.015132483128    0.000040668703    -0.000044737086
            0.000074048863    -0.000015667236    0.147649658543    -0.002179920891    0.000040802403    -0.000007514787    0.184387697960    -0.012307775626
0.125     0.106013780109    -0.139718216775    0.000033462338    -0.000041652549    0.082328079301    -0.096281238965    0.000026295365    -0.000082534655
            0.000035443881    -0.000030780365    0.111432339487    -0.136618670871    0.000015864476    0.000012925474    0.076265388373    -0.104502634683
            0.081607378342    -0.097039960337    0.000023199056    0.000019630385    0.105514983381    -0.140715211420    0.000026649980    -0.000037910848
            0.000056171579    -0.000065653923    0.075524723726    -0.104029487006    0.000063249048    -0.000029300223    0.112198310648    -0.137745369424
0.150     -0.003044565382    -0.016865714499    -0.000093262566    -0.000105357562    -0.004563649845    0.004984295521    -0.000098473410    -0.000098554256
            -0.000076496093    -0.000106582320    0.041957491868    -0.046363867069    -0.000074743248    -0.000062782772    0.021938289752    -0.018147359344
            -0.005325544190    0.005892810978    -0.000070696359    -0.000075676075    -0.003468010501    -0.015826023770    -0.000075373748    -0.000084790577
            -0.000077001984    -0.000130875224    0.021815127599    -0.017183276725    -0.000060685047    -0.000113025797    0.041900008534    -0.046132082843
0.175     0.163181170532    0.004395905086    -0.000069295146    0.000089927185    0.132186022428    0.013790185142    -0.000112212087    0.000073414261
            -0.000070727810    0.000075951520    0.150927975968    -0.085929689145    0.000030994825    0.000094858028    0.117598360395    -0.060481584585
            0.133016173190    0.014483873503    0.000021618884    0.000095491554    0.164837865327    0.004383507890    -0.000054146250    0.000053652424
            -0.000134215777    0.000053257097    0.118206669853    -0.059824323552    -0.000067359899    0.000029782676    0.152882963276    -0.086391028611
0.200     0.129239215617    -0.169765726130    -0.000018025316    0.000044635596    0.097658752837    -0.120154910963    -0.000015718944    0.000114081983
            -0.000024832401    0.000041357235    0.042607171550    -0.206006536922    -0.000024838144    -0.000069579905    0.012596467714    -0.153972561878
            0.098141948670    -0.120864182236    -0.000023831779    -0.000067437235    0.129513357500    -0.171263340550    -0.000055055619    0.000046427359
            -0.000038542298    0.000119932644    0.013279699600    -0.153825829452    -0.000089231581    0.000047715880    0.043102453595    -0.208400612123
0.225     -0.010368100507    -0.113462942806    0.000079609741    0.000126952653    0.001069443119    -0.073768693416    0.000123341805    0.000121784769
            0.000068466214    0.000128140723    -0.061647315537    -0.075233553319    0.000033427453    0.000113352417    -0.065250243574    -0.023492703851
            0.000238397558    -0.074005530020    0.000028704919    0.000115949410    -0.010471830318    -0.113329209993    0.000092945745    0.000144404915
            0.000116814709    0.000149587247    -0.064445799821    -0.023726341814    0.000090538810    0.000182482125    -0.062077806753    -0.076052694187
0.250     0.073351585861    -0.050878097495    0.000126538483    -0.000087702022    0.058582020625    -0.047825415767    0.000165266106    -0.000108234309
            0.000126341379    -0.000072292894    0.067593209866    -0.053115965643    0.000017447001    -0.000100296489    0.059677121081    -0.011222227969
            0.058484355890    -0.046809818214    0.000025573989    -0.000092526418    0.075169772811    -0.051701595267    0.000118446294    -0.000086199354
            0.000193434225    -0.000095825928    0.060166112168    -0.012199941633    0.000146198645    -0.000081752917    0.068633825044    -0.054771501843
0.275     0.069436739875    -0.159599948477    0.000023519315    -0.000110315701    0.023931355301    -0.110387823812    -0.000007720488    -0.000175125792
            0.000035528910    -0.000109492488    -0.009514867009    -0.169882151294    0.000026709680    0.000048656209    -0.005120128942    -0.105200805221
            0.025071379956    -0.110168555869    0.000033217235    0.000038165647    0.069516914161    -0.161868215335    0.000051151186    -0.000106711354
            0.000008660128    -0.000196933278    -0.005699278133    -0.106188225669    0.000066042295    -0.000118466463    -0.010928867276    -0.172361365788
0.300     -0.032203105615    -0.146631141966    -0.000130869641    -0.000136880758    -0.022243299528    -0.070866048583    -0.000186086986    -0.000120913175
            -0.000126382076    -0.000141471765    -0.112754972189    -0.037287063477    -0.000038143272    -0.000133422247    -0.067667620511    0.003488520079
            -0.021847335323    -0.071979855793    -0.000047635690    -0.000137823763    -0.032271021171    -0.147176868265    -0.000157967104    -0.000166955500
            -0.000199746302    -0.000139830774    -0.068610817332    0.003392132358    -0.000158477039    -0.000193133973    -0.113983621392    -0.036552954981
0.325     -0.020651838088    -0.111757149338    -0.000164785357    0.000106467687    0.000475986030    -0.082107522341    -0.000197240555    0.000172244215
            -0.000163520373    0.000096050346    0.055333194148    0.022837325244    -0.000051738691    0.000107652972    0.068742861927    0.026225715315
            -0.000362101089    -0.082383545231    -0.000053864593    0.000112502122    -0.019414748393    -0.113946494258    -0.000155479729    0.000159400618
            -0.000215633286    0.000176478842    0.068330606019    0.026452231787    -0.000185762804    0.000155814006    0.057170137489    0.021729017789
0.350     -0.057415460603    -0.137976241710    -0.000023340383    0.000178841468    -0.066064048537    -0.091802573347    0.000067275206    0.000226566548
            -0.000035732980    0.000175603246    0.035244817545    -0.144662301254    -0.000022172953    -0.000022082983    0.031836896446    -0.102253565932
            -0.066042789753    -0.090888525789    -0.000024260237    -0.000020464581    -0.058994270509    -0.141002139258    -0.000000318741    0.000134541022
            0.000060553692    0.000243066835    0.031224076419    -0.101743071985    -0.000008322566    0.000159653914    0.033843509317    -0.146890670322
0.375     -0.101350568936    -0.068783974399    0.000216432085    0.000153415528    -0.071624528786    0.000443685436    0.000250761649    0.000088620864
            0.000211915159    0.000161066298    -0.102436255605    -0.076705247219    0.000063930643    0.000142124908    -0.054201698334    -0.045046039238
            -0.070453078604    0.000090710459    0.000067825820    0.000150442695    -0.102127751320    -0.068944664945    0.000176262435    0.000161689683
            0.000267000760    0.000105182492    -0.054250189703    -0.043813747471    0.000192433125    0.000176846411    -0.102213954817    -0.074961734810
0.400     -0.042268832667    -0.059102722382    0.000202578985    -0.000182758951    0.001746451836    -0.021993775023    0.000207952028    -0.000255030645
            0.000203434061    -0.000174993364    0.009040029098    0.005148683169    0.000069513349    -0.000130035649    0.015839897285    -0.013897623848
            0.001312573183    -0.023515988060    0.000082653300    -0.000139548701    -0.041175230303    -0.062344861255    0.000205483251    -0.000172247244
            0.000228644908    -0.000271995478    0.017049390915    -0.013216273486    0.000225230704    -0.000179971172    0.013459835002    0.002283792223
0.425     -0.116480134046    -0.111193158530    -0.000005146891    -0.000220920293    -0.074559304917    -0.064327691719    -0.000159340199    -0.000258622849
            0.000005945029    -0.000217544002    0.015004212048    -0.153910132849    0.000037551030    0.000014130129    -0.016859752699    -0.099910069876
            -0.076062076282    -0.064002878570    0.000024527255    0.000005135934    -0.120435591147    -0.114333859947    0.000000446891    -0.000183101685
            -0.000172894826    -0.000276180880    -0.015891785578    -0.100470280758    0.000001165282    -0.000203657366    0.013029552207    -0.159254968211
0.450     -0.183916098271    0.021532349552    -0.000211204955    -0.000174145599    -0.100826454694    0.043003194770    -0.000285509255    -0.000030555683
            -0.000205950056    -0.000183997256    -0.168988253536    -0.115859798210    -0.000089073090    -0.000229924872    -0.107041209020    -0.043479052313
            -0.100564260286    0.044171673207    -0.000090643359    -0.000220951590    -0.185745194812    0.023802877745    -0.000155590358    -0.000205110257
            -0.000298495707    -0.000026019450    -0.106783535584    -0.044002095996    -0.000174566986    -0.000214814969    -0.169978912300    -0.115491660210
0.475     -0.031792832124    0.081933475071    -0.000169975253    0.000158190521    0.012233353894    0.054247413725    -0.000228441648    0.000296795765
            -0.000173822358    0.000151900256    -0.116506627139    0.034880998326    -0.000209607391    0.000199635024    -0.061308549674    0.023277681412
            0.013086714782    0.053672087792    -0.000212476489    0.000197107327    -0.029462764839    0.079559768947    -0.000230643303    0.000117303823
            -0.000236161436    0.000308932932    -0.060980416001    0.022560692432    -0.000247360454    0.000134305321    -0.113352123885    0.030050155065
0.500     -0.037861208132    -0.064153999640    0.000131798752    0.000133268258    -0.016584231168    -0.039219234511    0.000239553721    0.000306368184
            0.000123200121    0.000129891076    -0.052406652658    -0.047549143087    0.000052703600    0.000067489157    -0.048948783101    -0.014659231315
            -0.017662255505    -0.040007108928    0.000053856112    0.000083676165    -0.042842716485    -0.067808804236    0.000100837254    0.000172148409
            0.000255325567    0.000322781090    -0.049481254134    -0.015826802623    0.000114407007    0.000189665994    -0.057749442013    -0.054199199657
0.525     -0.172737714073    0.026942463314    0.000224773040    -0.000025123115    -0.076765536448    0.030705966709    0.000320770361    -0.000056946982
            0.000217642724    -0.000015460077    -0.181401225118    -0.017315085903    0.000146006092    0.000200391461    -0.090313466635    0.032750526253
            -0.077722987560    0.031881797466    0.000163945575    0.000189689486    -0.175238785920    0.031319556704    0.000225652765    0.000019797610
            0.000337736920    -0.000074892451    -0.091671329101    0.032653761801    0.000241219060    0.000014806022    -0.184535533823    -0.015401500961
0.550     -0.038683597764    0.150219802675    0.000098523660    -0.000300401823    0.005486196062    0.064155866212    0.000182372063    -0.000346022366
            0.000105266715    -0.000292109581    -0.119470322187    0.129570895396    0.000252317227    -0.000300580126    -0.030332642938    0.072896675380
            0.006313357090    0.065297172682    0.000239219330    -0.000311137819    -0.034504959494    0.149743064590    0.000160985411    -0.000292623767
            0.000167350304    -0.000360387996    -0.031014736807    0.073764817164    0.000166163355    -0.000306852458    -0.116130386170    0.128133821478
0.575     0.039109764177    0.003308424300    -0.000276014508    -0.000180394139    0.009792068889    -0.029370008859    -0.000347184448    -0.000345581173
            -0.000267503765    -0.000180117597    -0.013624734899    0.065311825153    -0.000248754603    -0.000143080453    -0.015993374818    0.024881577127
            0.010640567521    -0.029397388525    -0.000251346080    -0.000140080437    0.036529062125    -0.000832005569    -0.000276925537    -0.000255228554
            -0.000359913362    -0.000339017332    -0.015961712903    0.025590390400    -0.000291341134    -0.000267635134    -0.019181609212    0.061297057134
0.600     -0.087676212964    0.001808064810    -0.000299335542    0.000143993169    -0.052538025772    0.019514723630    -0.000412947738    0.000198186930
            -0.000291473374    0.000134641705    -0.076975695485    0.043334943774    -0.000184144512    0.000018212006    -0.041809979710    0.044091248960
            -0.053048700711    0.018937577638    -0.000194561584    0.000022125184    -0.089226275070    0.004780923105    -0.000333142082    0.000133021502
            -0.000415612549    0.000212962602    -0.041677889261    0.044859997601    -0.000347548932    0.000144825332    -0.078534686748    0.048037547861
0.625     -0.033580265129    0.082479924612    -0.000000986962    0.000388989878    -0.001352530749    0.031167333740    -0.000055306845    0.000484092380
            -0.000009310043    0.000377888041    -0.026023802174    0.098040867214    -0.000068435282    0.000316424113    0.007577897655    0.044971191805
            -0.001799991956    0.032095941404    -0.000057222516    0.000331256046    -0.030036928036    0.080839452413    -0.000033354298    0.000409998775
            -0.000037728375    0.000491518815    0.008463964675    0.045664264272    -0.000028338231    0.000424384220    -0.021629074660    0.094282396471
0.650     -0.015551843890    0.009980335067    0.000372912560    0.000135085783    -0.041225495623    -0.013458627112    0.000512488498    0.000250115530
            0.000361717531    0.000137637214    -0.005372738789    0.019174710708    0.000265344519    0.000057870670    -0.028609887399    -0.007887836343
            -0.039832203686    -0.012675464540    0.000275325712    0.000046429599    -0.017662769402    0.006989031085    0.000387454182    0.000168183358
            0.000521316821    0.000234456208    -0.027394528353    -0.008217605841    0.000402753242    0.000171142426    -0.010590676682    0.014230370491
0.675     -0.066968442727    0.055374127913    0.000299125931    -0.000253195813    -0.062775543591    0.063202869981    0.000385452599    -0.000361364975
            0.000292644377    -0.000240790681    -0.074449858583    0.046842630728    0.000177829799    -0.000107242343    -0.067010694262    0.060108602609
            -0.061622914418    0.061806866480    0.000177442044    -0.000115589819    -0.065368174353    0.056187994977    0.000322325086    -0.000239766444
            0.000377423416    -0.000373686659    -0.066557081943    0.059056941228    0.000329669172    -0.000255621930    -0.074549813806    0.049058538771
0.700     0.010146111613    0.047089560485    -0.000128406284    -0.000447333837    0.012204734478    0.041886721633    -0.000115653622    -0.000563600294
            -0.000113974147    -0.000435402925    -0.025164572525    0.068743565581    -0.000072503922    -0.000295568770    -0.001653403757    0.064099226232
            0.011047388983    0.040771108621    -0.000088671208    -0.000304209622    0.011989207532    0.040071629616    -0.000081166000    -0.000477399922
            -0.000135010198    -0.000562318171    -0.001977646630    0.063175544464    -0.000093297997    -0.000485552485    -0.022990749779    0.060605771259
0.725     -0.092589955228    -0.033990128105    -0.000450721191    0.000010337382    -0.076165226900    0.014966148157    -0.000657013641    -0.000020865118
            -0.000440708718    -0.000000043536    -0.091382348862    0.026485373944    -0.000178857918    0.000036810140    -0.061890264399    0.034739477737
            -0.076704019176    0.015027515891    -0.000183072085    0.000059268916    -0.100028946844    -0.035750563075    -0.000485120742    -0.000036057680
            -0.000657494919    0.000001762060    -0.062527075117    0.034320283222    -0.000494878850    -0.000033655889    -0.101958213650    0.022311084120
0.750     -0.145765997371    0.145332061332    -0.000170259234    0.000309325466    -0.080521332597    0.130869333687    -0.000162774811    0.000480527374
            -0.000169444657    0.000300805182    -0.116675684650    0.169280291976    -0.000195298711    0.000047345485    -0.056612572634    0.140607967474
            -0.079294477131    0.130726648055    -0.000181818952    0.000044182314    -0.143624300423    0.149004723142    -0.000209785199    0.000338742681
            -0.000145469395    0.000483304589    -0.057356659276    0.140506001623    -0.000216299484    0.000354367539    -0.117513141981    0.174222037359
0.775     0.042794105715    0.157942843272    0.000156643381    0.000401473379    0.045646668730    0.105528991794    0.000185945988    0.000439687092
            0.000144652558    0.000389126007    0.040477820413    0.176380200138    0.000062862638    0.000382336476    0.058993935896    0.116363879956
            0.045470240064    0.103832617799    0.000062246431    0.000385265957    0.046227624367    0.149182037656    0.000149293391    0.000434606104
