# GHz S RI R 45
0.000     0.065959955000    0.000000000000    0.000001508673    -0.000000000000    0.003686929700    -0.000000000000    0.000002536210    0.000000000000
            0.000001507326    0.000000000000    0.065233647000    -0.000000000000    0.000001141207    0.000000000000    0.004203045500    -0.000000000000
            0.004618991000    -0.000000000000    0.000001140260    0.000000000000    0.065824925000    -0.000000000000    0.000002042074    0.000000000000
            0.000002530961    -0.000000000000    0.005039307200    0.000000000000    0.000002044207    0.000000000000    0.064507715000    -0.000000000000
0.025     0.145145699573    0.016033376175    0.000011235013    0.000000312805    0.078235541753    0.038123390235    0.000017206090    0.000001187161
            0.000011233933    0.000000326741    0.144950268413    0.015760929552    0.000007036064    -0.000000550389    0.077822007140    0.037241571627
            0.077943075087    0.037331050437    0.000007032380    -0.000000556731    0.144895698361    0.015646497993    0.000012975748    0.000000387014
            0.000017201876    0.000001181494    0.078404329610    0.036717954226    0.000012983034    0.000000377792    0.145474690662    0.016320415987
0.050     0.103345293594    -0.075988361267    -0.000014452470    0.000008802469    0.067017032594    -0.031382432271    -0.000021552006    0.000015071310
            -0.000014404700    0.000008823104    0.102725499936    -0.076226563253    -0.000009621577    0.000004866172    0.066011463747    -0.031031829786
            0.066270417918    -0.030812911707    -0.000009655079    0.000004873272    0.102675445696    -0.075741263161    -0.000016443555    0.000010469722
            -0.000021579041    0.000015081536    0.066043530625    -0.031909158078    -0.000016468463    0.000010437787    0.103050769801    -0.077085954290
0.075     0.064551414057    0.008858011477    0.000026606884    0.000052487525    0.048982436355    0.032500087976    0.000039338323    0.000082077301
            0.000026646917    0.000052404064    0.064993796412    0.008055925903    0.000018259553    0.000031334773    0.049857028308    0.032321381610
            0.049533560493    0.033132670357    0.000018266596    0.000031366315    0.064938379077    0.009773599676    0.000030608427    0.000060690481
            0.000039349791    0.000082102444    0.049361330695    0.031579644392    0.000030558757    0.000060758443    0.064547342589    0.008128758441
0.100     0.184222928169    -0.010204930455    0.000047862812    -0.000011323211    0.149222663186    0.001172562701    0.000074983606    -0.000012437672
            0.000047801536    -0.000011326015    0.183068831010    -0.013088001168    0.000027089645    -0.000011390814    0.148438672063    -0.002098872904
            0.149294121874    0.000308202631    0.000027104045    -0.000011385138    0.185320344835    -0.010843290161    0.000055885026    -0.000012395206
            0.000074987484    -0.000012436752    0.147649658543    -0.002179920891    0.000055953868    -0.000012402085    0.184387697960    -0.012307775626
0.125     0.114476103796    -0.135751258421    -0.000022089455    0.000008651755    0.079737151253    -0.103712551965    -0.000031310354    0.000017424464
            -0.000022055274    0.000008653858    0.111432339487    -0.136618670871    -0.000016927884    0.000004457365    0.076265388373    -0.104502634683
            0.078804616417    -0.103430558295    -0.000016976672    0.000004509872    0.114180168430    -0.136499277634    -0.000024866938    0.000010538971
            -0.000031350228    0.000017490624    0.075524723726    -0.104029487006    -0.000024878055    0.000010478337    0.112198310648    -0.137745369424
0.150     0.043098669985    -0.044515000622    0.000058750494    0.000088300209    0.022620190009    -0.017324864440    0.000089142070    0.000136368329
            0.000058683129    0.000088177533    0.041957491868    -0.046363867069    0.000037979334    0.000053965381    0.021938289752    -0.018147359344
            0.023287395641    -0.016360741736    0.000038164853    0.000053994823    0.043661413473    -0.043897617728    0.000068309805    0.000101626760
            0.000089323722    0.000136367788    0.021815127599    -0.017183276725    0.000068220195    0.000101730067    0.041900008534    -0.046132082843
0.175     0.156888318113    -0.082386313405    0.000085537850    -0.000035759664    0.122147648878    -0.056862015963    0.000135043275    -0.000046782046
            0.000085398676    -0.000035629335    0.150927975968    -0.085929689145    0.000045764430    -0.000028643470    0.117598360395    -0.060481584585
            0.122857081625    -0.057668979246    0.000045744422    -0.000028783789    0.158676249339    -0.083787891525    0.000100036632    -0.000040747803
            0.000134998859    -0.000046912897    0.118206669853    -0.059824323552    0.000100196554    -0.000040743334    0.152882963276    -0.086391028611
0.200     0.050576739837    -0.208055239111    -0.000023384517    0.000001162751    0.020312221127    -0.155552660660    -0.000030617841    0.000006139835
            -0.000023319321    0.000001259660    0.042607171550    -0.206006536922    -0.000020997393    0.000003185113    0.012596467714    -0.153972561878
            0.019429425554    -0.155908147351    -0.000021081431    0.000003199140    0.049922398502    -0.210458936477    -0.000026178792    0.000001609029
            -0.000030694061    0.000006182687    0.013279699600    -0.153825829452    -0.000026173705    0.000001485476    0.043102453595    -0.208400612123
0.225     -0.058054635945    -0.077016238309    0.000088338803    0.000116342065    -0.062643552934    -0.026261332856    0.000136310350    0.000173745127
            0.000088384862    0.000116339431    -0.061647315537    -0.075233553319    0.000055708389    0.000076360665    -0.065250243574    -0.023492703851
            -0.062506125412    -0.025307212691    0.000055866485    0.000076359969    -0.058814100664    -0.077088647537    0.000103657383    0.000132807456
            0.000136480531    0.000173717806    -0.064445799821    -0.023726341814    0.000103485393    0.000132808885    -0.062077806753    -0.076052694187
0.250     0.076293700674    -0.053728474871    0.000151599960    -0.000076228988    0.065502402250    -0.011352215502    0.000230117032    -0.000104602199
            0.000151589059    -0.000076124891    0.067593209866    -0.053115965643    0.000088215114    -0.000055708989    0.059677121081    -0.011222227969
            0.066459992272    -0.012055552138    0.000088012224    -0.000055942005    0.077508803867    -0.055381172872    0.000174924935    -0.000087940428
            0.000229891590    -0.000104808204    0.060166112168    -0.012199941633    0.000175084940    -0.000087815324    0.068633825044    -0.054771501843
0.275     -0.001512080142    -0.177087904605    -0.000018033305    -0.000031908586    0.001395850548    -0.110164527224    -0.000020454846    -0.000044713934
            -0.000017801973    -0.000031894316    -0.009514867009    -0.169882151294    -0.000019258456    -0.000012332770    -0.005120128942    -0.105200805221
            0.000404309925    -0.111026623843    -0.000019486498    -0.000012151995    -0.003394200157    -0.179855525493    -0.000020204747    -0.000036623872
            -0.000020648599    -0.000044512137    -0.005699278133    -0.106188225669    -0.000020204490    -0.000036826032    -0.010928867276    -0.172361365788
0.300     -0.109687282934    -0.042312461540    0.000126554158    0.000102408468    -0.065289687353    -0.000355465385    0.000191067187    0.000152290285
            0.000126636774    0.000102152611    -0.112754972189    -0.037287063477    0.000084004385    0.000068608258    -0.067667620511    0.003488520079
            -0.065968303359    0.000727438291    0.000084167597    0.000068882106    -0.111695938697    -0.041259416533    0.000148283307    0.000116964463
            0.000191262001    0.000152521831    -0.068610817332    0.003392132358    0.000148035905    0.000117003565    -0.113983621392    -0.036552954981
0.325     0.063174457270    0.019004203064    0.000206417988    -0.000156834099    0.074838572249    0.023788221701    0.000308331458    -0.000218113211
            0.000206211623    -0.000156880442    0.055333194148    0.022837325244    0.000123601235    -0.000111749624    0.068742861927    0.026225715315
            0.075767611778    0.023984256010    0.000123638900    -0.000111957960    0.064833700804    0.018509153657    0.000237029026    -0.000181133790
            0.000308332684    -0.000218332425    0.068330606019    0.026452231787    0.000237189855    -0.000180917845    0.057170137489    0.021729017789
0.350     0.042234781090    -0.152100088493    -0.000043038105    -0.000113695772    0.037582172353    -0.107080114466    -0.000051841999    -0.000166005467
            -0.000042975717    -0.000113676009    0.035244817545    -0.144662301254    -0.000039142540    -0.000060748346    0.031836896446    -0.102253565932
            0.037252271205    -0.107937104703    -0.000039249208    -0.000060539009    0.040720245655    -0.154720473465    -0.000048568481    -0.000130146827
            -0.000051950003    -0.000165785133    0.031224076419    -0.101743071985    -0.000048502586    -0.000130335409    0.033843509317    -0.146890670322
0.375     -0.094818118862    -0.082893256943    0.000101848288    0.000052098418    -0.046793255297    -0.048754266792    0.000156329479    0.000079353600
            0.000101621192    0.000051899707    -0.102436255605    -0.076705247219    0.000068215685    0.000035179044    -0.054201698334    -0.045046039238
            -0.047617490932    -0.047888194376    0.000068630056    0.000035364297    -0.096198907022    -0.081118058995    0.000122038777    0.000059743481
            0.000156735937    0.000079529881    -0.054250189703    -0.043813747471    0.000121903503    0.000059767026    -0.102213954817    -0.074961734810
0.400     0.019619627906    -0.006088062669    0.000187463286    -0.000216336496    0.026374189981    -0.023867821195    0.000285403095    -0.000309059072
            0.000187193020    -0.000215988505    0.009040029098    0.005148683169    0.000104890797    -0.000146553369    0.015839897285    -0.013897623848
            0.027576197534    -0.023096059613    0.000105022776    -0.000147187787    0.023222441744    -0.007082236974    0.000215896315    -0.000253401663
            0.000285519348    -0.000309680738    0.017049390915    -0.013216273486    0.000216012625    -0.000253253893    0.013459835002    0.002283792223
0.425     0.022156716656    -0.165240950188    -0.000110382454    -0.000164314055    -0.012043138370    -0.110536052701    -0.000147812270    -0.000249946855
            -0.000110068298    -0.000164099600    0.015004212048    -0.153910132849    -0.000083865758    -0.000081377680    -0.016859752699    -0.099910069876
            -0.011379870537    -0.111666368972    -0.000084247545    -0.000081318555    0.020974091590    -0.169940186015    -0.000126472599    -0.000189278906
            -0.000148188154    -0.000249868677    -0.015891785578    -0.100470280758    -0.000126457598    -0.000189442425    0.013029552207    -0.159254968211
0.450     -0.156366814957    -0.131166137311    0.000043427631    0.000034557172    -0.097634416453    -0.054411941931    0.000064756510    0.000050003775
            0.000043405200    0.000034410320    -0.168988253536    -0.115859798210    0.000035854998    0.000027426471    -0.107041209020    -0.043479052313
            -0.098534871179    -0.054725360563    0.000035946311    0.000027460790    -0.158495801774    -0.130812271165    0.000054778804    0.000038862475
            0.000064854320    0.000050041446    -0.106783535584    -0.044002095996    0.000054777261    0.000038929851    -0.169978912300    -0.115491660210
0.475     -0.109605408601    0.008655140435    0.000161184232    -0.000210737734    -0.054012228334    0.001811097945    0.000243604091    -0.000307991061
            0.000161271076    -0.000210423183    -0.116506627139    0.034880998326    0.000090524246    -0.000134799628    -0.061308549674    0.023277681412
            -0.053789088650    0.002582188484    0.000090415008    -0.000135089789    -0.107092176764    0.006435715794    0.000184802106    -0.000251341342
            0.000243527379    -0.000308273583    -0.060980416001    0.022560692432    0.000184753457    -0.000251433856    -0.113352123885    0.030050155065
0.500     -0.056592892262    -0.066981021552    -0.000159245729    -0.000204190224    -0.054605531349    -0.031835286087    -0.000223477717    -0.000311086127
            -0.000158788953    -0.000204399996    -0.052406652658    -0.047549143087    -0.000109706290    -0.000100615038    -0.048948783101    -0.014659231315
            -0.053882396031    -0.032636439374    -0.000110154335    -0.000100289328    -0.059696847266    -0.072676364046    -0.000184993562    -0.000232767181
            -0.000223938152    -0.000310793817    -0.049481254134    -0.015826802623    -0.000185041250    -0.000232729183    -0.057749442013    -0.054199199657
0.525     -0.176261817482    -0.037298151161    0.000011186170    0.000032278749    -0.088346104883    0.020636639618    0.000004252334    0.000045049838
            0.000011047816    0.000031842295    -0.181401225118    -0.017315085903    0.000028494397    0.000026593784    -0.090313466635    0.032750526253
            -0.089408162008    0.019847262915    0.000028639101    0.000026767361    -0.179986502808    -0.036439790403    0.000017223859    0.000034893895
            0.000004406602    0.000045225011    -0.091671329101    0.032653761801    0.000017292744    0.000035070333    -0.184535533823    -0.015401500961
0.550     -0.124717945961    0.098002929027    0.000137011757    -0.000239200078    -0.030813514953    0.050358458730    0.000200254081    -0.000345746935
            0.000136772080    -0.000239092813    -0.119470322187    0.129570895396    0.000079406355    -0.000157742084    -0.030332642938    0.072896675380
            -0.031692181255    0.051435397394    0.000079439901    -0.000157454756    -0.122939237862    0.098772754313    0.000150772323    -0.000287538180
            0.000200282908    -0.000345451921    -0.031014736807    0.073764817164    0.000150893844    -0.000287879996    -0.116130386170    0.128133821478
0.575     -0.031462565908    0.048688522216    -0.000221302253    -0.000254646345    -0.029032605938    0.009711035783    -0.000318761655    -0.000383536163
            -0.000221173719    -0.000254795322    -0.013624734899    0.065311825153    -0.000147261555    -0.000132118453    -0.015993374818    0.024881577127
            -0.028125262495    0.010318369509    -0.000146940159    -0.000132078190    -0.034936024841    0.046110246862    -0.000261149265    -0.000287244037
            -0.000318418116    -0.000383528575    -0.015961712903    0.025590390400    -0.000261540815    -0.000287074295    -0.019181609212    0.061297057134
0.600     -0.077070634123    0.030454439376    -0.000062183411    0.000031613276    -0.041817276514    0.035756749932    -0.000113317528    0.000043030626
            -0.000062669742    0.000031410487    -0.076975695485    0.043334943774    -0.000006967170    0.000024822582    -0.041809979710    0.044091248960
            -0.041747975339    0.034922191495    -0.000006716961    0.000024652752    -0.079283247149    0.033894279081    -0.000064770166    0.000031901840
            -0.000113130015    0.000042853271    -0.041677889261    0.044859997601    -0.000064438991    0.000032213168    -0.078534686748    0.048037547861
0.625     -0.033738176865    0.069228305670    0.000038169253    -0.000296852249    0.006246954520    0.022409002342    0.000058886272    -0.000413126403
            0.000037810474    -0.000296180073    -0.026023802174    0.098040867214    0.000012468988    -0.000207866316    0.007577897655    0.044971191805
            0.005371797553    0.023004656154    0.000012511637    -0.000207957653    -0.030851128768    0.068561310520    0.000037388136    -0.000350056252
            0.000058893890    -0.000413135044    0.008463964675    0.045664264272    0.000037669576    -0.000350663752    -0.021629074660    0.094282396471
0.650     -0.023351721300    0.004780980722    -0.000396113860    -0.000206981482    -0.041198354040    -0.023876490301    -0.000564743729    -0.000324833471
            -0.000395484534    -0.000206779279    -0.005372738789    0.019174710708    -0.000265573504    -0.000090693424    -0.028609887399    -0.007887836343
            -0.040049026633    -0.022783985836    -0.000265366151    -0.000091119117    -0.025413678079    0.002120762488    -0.000456136913    -0.000233318912
            -0.000564413589    -0.000325235892    -0.027394528353    -0.008217605841    -0.000456971824    -0.000233159844    -0.010590676682    0.014230370491
0.675     -0.076462187970    0.030422883520    -0.000136911058    0.000129129709    -0.070629921980    0.045209921855    -0.000240506938    0.000183160676
            -0.000137017267    0.000128917633    -0.074449858583    0.046842630728    -0.000040781916    0.000088623379    -0.067010694262    0.060108602609
            -0.069490994834    0.043910694238    -0.000041150790    0.000088152132    -0.075908741428    0.031690754022    -0.000153727036    0.000138837890
            -0.000240910802    0.000182591207    -0.066557081943    0.059056941228    -0.000153266611    0.000139478414    -0.074549813806    0.049058538771
0.700     -0.038102525351    0.037438855390    -0.000047872502    -0.000242433959    -0.012176815734    0.038769626488    -0.000069618748    -0.000324147564
            -0.000047673959    -0.000241906533    -0.025164572525    0.068743565581    -0.000044131297    -0.000180524672    -0.001653403757    0.064099226232
            -0.013439307194    0.037912398619    -0.000045011837    -0.000180198025    -0.036066069966    0.032123241668    -0.000068161386    -0.000287500762
            -0.000070519743    -0.000323740032    -0.001977646630    0.063175544464    -0.000067673802    -0.000288295600    -0.022990749779    0.060605771259
0.725     -0.113492195737    0.006033127284    -0.000471802464    -0.000022636547    -0.081403958925    0.017453933815    -0.000688458801    -0.000069856071
            -0.000471162382    -0.000023253639    -0.091382348862    0.026485373944    -0.000302013949    0.000044491601    -0.061890264399    0.034739477737
            -0.081545497823    0.018224514935    -0.000301625001    0.000045002276    -0.119748499306    0.002926339335    -0.000544064176    -0.000021515383
            -0.000688006760    -0.000069385866    -0.062527075117    0.034320283222    -0.000544951852    -0.000021346822    -0.101958213650    0.022311084120
0.750     -0.137745778328    0.145609277324    -0.000086721586    0.000238062997    -0.075765601678    0.123925846498    -0.000189724351    0.000364527918
            -0.000087263462    0.000237685659    -0.116675684650    0.169280291976    0.000009882996    0.000142943286    -0.056612572634    0.140607967474
            -0.074820265109    0.123221217433    0.000009844187    0.000142722324    -0.137840224029    0.148547137704    -0.000103066853    0.000267532102
            -0.000189827068    0.000364209174    -0.057356659276    0.140506001623    -0.000102483566    0.000268110975    -0.117513141981    0.174222037359
0.775     0.009103063505    0.156386965830    -0.000007439154    -0.000172097982    0.035868325671    0.102789232183    -0.000013392513    -0.000208351258
            -0.000007563425    -0.000171923432    0.040477820413    0.176380200138    -0.000010490866    -0.000146643531    0.058993935896    0.116363879956
            0.034553444040    0.101719877718    -0.000011156980    -0.000146183628    0.009832058416    0.150661374137    -0.000023299461    -0.000204786330
