# GHz S RI R 45
0.000     0.065162756000    -0.000000000000    0.932947620000    0.000000000000    0.003962935200    -0.000000000000    -0.005473649100    0.000000000000
            0.932947420000    0.000000000000    0.065233647000    -0.000000000000    -0.005479922600    0.000000000000    0.004203045500    -0.000000000000
            0.004816715600    0.000000000000    -0.004871578900    -0.000000000000    0.064854549000    -0.000000000000    0.933171500000    0.000000000000
            -0.004865344000    -0.000000000000    0.005039307200    0.000000000000    0.933171700000    0.000000000000    0.064507715000    -0.000000000000
0.025     0.148245048104    0.007776038769    0.387592498920    -0.834618454302    0.081075662932    0.029404554176    -0.015396054856    0.008290909307
            0.387577888075    -0.834615514741    0.144950268413    0.015760929552    -0.015389155665    0.008279794690    0.077822007140    0.037241571627
            0.081801600943    0.029014208253    -0.015063670056    0.007741967309    0.148584116655    0.008359000965    0.386558900829    -0.835385040065
            -0.015070050681    0.007752922266    0.078404329610    0.036717954226    0.386573525449    -0.835387991212    0.145474690662    0.016320415987
0.050     0.084734211808    -0.097306433488    -0.583370642552    -0.712627986641    0.047730724931    -0.052177107081    -0.001813054081    0.013679583470
            -0.583365371288    -0.712599217812    0.102725499936    -0.076226563253    -0.001813111000    0.013708927857    0.066011463747    -0.031031829786
            0.048117600385    -0.052985752044    -0.002159243487    0.013096528664    0.085214410846    -0.097957638413    -0.585360771605    -0.711465023932
            -0.002159008975    0.013067148681    0.066043530625    -0.031909158078    -0.585366102531    -0.711493775805    0.103050769801    -0.077085954290
0.075     0.003147474716    0.030339886622    -0.888699556583    0.235850411985    -0.011448271803    0.049559932662    0.014584227662    0.029600354369
            -0.888654269370    0.235847690616    0.064993796412    0.008055925903    0.014618575030    0.029529472520    0.049857028308    0.032321381610
            -0.011995443990    0.048663970897    0.013817745134    0.029614837394    0.002658501314    0.030306457759    -0.888339615508    0.239478200891
            0.013783345383    0.029685439028    0.049361330695    0.031579644392    -0.888384883717    0.239481090348    0.064547342589    0.008128758441
0.100     0.179257521513    0.016523198383    -0.166006500751    0.877620005245    0.141987053551    0.035065889877    0.041593412357    -0.021592786145
            -0.166024675102    0.877560927552    0.183068831010    -0.013088001168    0.041498711029    -0.021548176454    0.148438672063    -0.002098872904
            0.141702414239    0.034328697334    0.041253072658    -0.020763137749    0.179449828771    0.016956374460    -0.161328038135    0.878824209007
            0.041347284816    -0.020808103872    0.147649658543    -0.002179920891    -0.161309551148    0.878883297602    0.184387697960    -0.012307775626
0.125     0.107640866583    -0.139718224769    0.708586296981    0.545966578693    0.083207800833    -0.097056278674    -0.006443255592    -0.030986965302
            0.708517801052    0.545999159780    0.111432339487    -0.136618670871    -0.006340651408    -0.030976106414    0.076265388373    -0.104502634683
            0.082385837649    -0.097694001293    -0.005647576458    -0.030407320104    0.107718361903    -0.139792594998    0.712146039383    0.541559857986
            -0.005750719881    -0.030417365049    0.075524723726    -0.104029487006    0.712214488766    0.541526788903    0.112198310648    -0.137745369424
0.150     -0.004963265453    -0.020322532448    0.805776557362    -0.420307627278    -0.006865574206    0.002235362130    -0.022267424579    -0.031178245938
            0.805823301900    -0.420242308933    0.041957491868    -0.046363867069    -0.022313231345    -0.031205299714    0.021938289752    -0.018147359344
            -0.007942089046    0.002418005246    -0.021525094633    -0.031694438315    -0.004471735271    -0.019755850886    0.802896705811    -0.426538993758
            -0.021478154897    -0.031666794936    0.021815127599    -0.017183276725    0.802849352547    -0.426604036011    0.041900008534    -0.046132082843
0.175     0.160015608607    0.006406128137    -0.042236196731    -0.882802587814    0.129943915607    0.015816482399    -0.054795772836    0.027875186899
            -0.042177335121    -0.882843144982    0.150927975968    -0.085929689145    -0.054707937519    0.027784870167    0.117598360395    -0.060481584585
            0.129450741883    0.016426097918    -0.054874813754    0.026933135750    0.161157171903    0.005588213992    -0.050220855085    -0.882540128598
            -0.054962076359    0.027022404417    0.118206669853    -0.059824323552    -0.050279295992    -0.882499120078    0.152882963276    -0.086391028611
0.200     0.131019770307    -0.169096880668    -0.792799953109    -0.358947844610    0.099476465556    -0.120651179503    0.016651954252    0.049061646936
            -0.792831104357    -0.359022810798    0.042607171550    -0.206006536922    0.016350702191    0.048988052279    0.012596467714    -0.153972561878
            0.099045945919    -0.120226540006    0.015527544228    0.048759344356    0.130489554122    -0.169653122136    -0.796287934137    -0.350880649577
            0.015827903571    0.048831946280    0.013279699600    -0.153825829452    -0.796256415410    -0.350805856449    0.043102453595    -0.208400612123
0.225     -0.012406722656    -0.117422368599    -0.684921869683    0.565795812223    -0.001802969104    -0.077988952027    0.033967173021    0.020468201520
            -0.685021044056    0.565844549361    -0.061647315537    -0.075233553319    0.034015766693    0.020848648595    -0.065250243574    -0.023492703851
            -0.002223386352    -0.077019685583    0.033465615896    0.021562210942    -0.010967161856    -0.116115844780    -0.678470143649    0.573438605341
            0.033415487363    0.021184038558    -0.064445799821    -0.023726341814    -0.678371320052    0.573389181101    -0.062077806753    -0.076052694187
0.250     0.068697100726    -0.048320722478    0.230937503849    0.856890091462    0.053940771894    -0.045169194805    0.056131988623    -0.024554788860
            0.231017305565    0.856986826431    0.067593209866    -0.053115965643    0.056407820915    -0.024640537068    0.059677121081    -0.011222227969
            0.054504420898    -0.044048168394    0.056882196058    -0.023893847764    0.071915848717    -0.050666318298    0.241667442789    0.853657984544
            0.056608701118    -0.023806904538    0.060166112168    -0.012199941633    0.241586709572    0.853561911221    0.068633825044    -0.054771501843
0.275     0.070933855358    -0.158161534392    0.854759236272    0.162817561761    0.025440469515    -0.109706814615    -0.009389074184    -0.065408103902
            0.854827314335    0.162733653580    -0.009514867009    -0.169882151294    -0.009236192033    -0.065535229929    -0.005120128942    -0.105200805221
            0.026428716399    -0.109369997116    -0.008417661008    -0.065640948088    0.069832893614    -0.161231684739    0.856445680164    0.151154153276
            -0.008570362084    -0.065516478287    -0.005699278133    -0.106188225669    0.856378687233    0.151238950615    -0.010928867276    -0.172361365788
0.300     -0.034794763973    -0.149668906136    0.524874200893    -0.695703986767    -0.025660690790    -0.074582111671    -0.057139254412    -0.024103008932
            0.524809536465    -0.695758442373    -0.112754972189    -0.037287063477    -0.057273552217    -0.024577192556    -0.067667620511    0.003488520079
            -0.024943255665    -0.074649530030    -0.056987584568    -0.025375677565    -0.034565579693    -0.148702726145    0.514459810780    -0.703170637882
            -0.056855599700    -0.024901133874    -0.068610817332    0.003392132358    0.514525161291    -0.703117492564    -0.113983621392    -0.036552954981
0.325     -0.024881581293    -0.108191719030    -0.406440424814    -0.770479610761    -0.004651878425    -0.078754799349    -0.060782773643    0.045025812346
            -0.406513196280    -0.770439318730    0.055333194148    0.022837325244    -0.061404745185    0.045280234171    0.068742861927    0.026225715315
            -0.003923002233    -0.078934872031    -0.062072239745    0.044674385306    -0.021508487843    -0.111241062852    -0.418753138975    -0.763308612153
            -0.061450311582    0.044422076941    0.068330606019    0.026452231787    -0.418681523437    -0.763349618472    0.057170137489    0.021729017789
0.350     -0.055294066703    -0.136708730274    -0.858506812366    0.032019869172    -0.065227066529    -0.090244770887    0.022031397556    0.078758753029
            -0.858463792548    0.032110688818    0.035244817545    -0.144662301254    0.022283641783    0.079232067790    0.031836896446    -0.102253565932
            -0.064468465313    -0.090865957868    0.021463512829    0.079640297530    -0.057488486457    -0.141965733557    -0.856775057157    0.046661487721
            0.021214801218    0.079167868077    0.031224076419    -0.101743071985    -0.856819051347    0.046571492460    0.033843509317    -0.146890670322
0.375     -0.105373526215    -0.071922185738    -0.350174098169    0.784249122130    -0.076080821063    -0.001731550547    0.076560105045    0.019202293123
            -0.350078410283    0.784184443134    -0.102436255605    -0.076705247219    0.076846411204    0.019243352471    -0.054201698334    -0.045046039238
            -0.075757007823    -0.002791878009    0.076931743160    0.020178180299    -0.107196874726    -0.071538093168    -0.335891196715    0.789674071621
            0.076645832725    0.020131366961    -0.054250189703    -0.043813747471    -0.335985950775    0.789740316561    -0.102213954817    -0.074961734810
0.400     -0.047164689848    -0.052875531923    0.563146382264    0.652182011029    -0.003241312614    -0.016241114378    0.067026836022    -0.065409229220
            0.563066574913    0.652106911019    0.009040029098    0.005148683169    0.067457904663    -0.065604417570    0.015839897285    -0.013897623848
            -0.003613746272    -0.017345707567    0.068374399607    -0.065385191598    -0.044680786948    -0.056246548863    0.575374572728    0.640635468276
            0.067936438700    -0.065188454989    0.017049390915    -0.013216273486    0.575456372862    0.640709315704    0.013459835002    0.002283792223
0.425     -0.112435692841    -0.109604071918    0.811398220397    -0.226062244486    -0.073029976500    -0.062313271068    -0.047263971206    -0.096011741369
            0.811353311851    -0.226003037740    0.015004212048    -0.153910132849    -0.047431688583    -0.096627956026    -0.016859752699    -0.099910069876
            -0.073938288145    -0.062900519045    -0.046948520548    -0.097353679347    -0.116657198714    -0.114587052219    0.805306633353    -0.242318820682
            -0.046778214311    -0.096731688958    -0.015891785578    -0.100470280758    0.805350303973    -0.242379833533    0.013029552207    -0.159254968211
0.450     -0.188691805637    0.016785159131    0.161645659680    -0.811990771269    -0.105839191916    0.042031743597    -0.098159889685    0.009415360713
            0.161675014687    -0.811946476642    -0.168988253536    -0.115859798210    -0.098667390143    0.009325650302    -0.107041209020    -0.043479052313
            -0.106650040241    0.041991066810    -0.099100769932    0.008605763499    -0.191533360293    0.019017640767    0.144558874012    -0.814042772199
            -0.098588615350    0.008694380951    -0.106783535584    -0.044002095996    0.144527854458    -0.814086478216    -0.169978912300    -0.115491660210
0.475     -0.040304891431    0.090223469802    -0.664248068254    -0.512695705393    0.006941769907    0.062850017644    -0.046182474617    0.082913244665
            -0.664184891703    -0.512711319688    -0.116506627139    0.034880998326    -0.046925837957    0.083055251548    -0.061308549674    0.023277681412
            0.006216061614    0.062801705430    -0.047801165924    0.083209916758    -0.037523833924    0.087590783853    -0.675089972300    -0.497364149657
            -0.047057042863    0.083062260840    -0.060980416001    0.022560692432    -0.675153701111    -0.497346566383    -0.113352123885    0.030050155065
0.500     -0.031883139435    -0.058450722759    -0.744888791708    0.390566199382    -0.012193365222    -0.035422145381    0.060022479472    0.096982300913
            -0.744914852320    0.390490194613    -0.052406652658    -0.047549143087    0.059336153408    0.098845314884    -0.048948783101    -0.014659231315
            -0.013308366528    -0.035089672979    0.059279889097    0.099709969558    -0.037566901223    -0.063173312317    -0.734156279684    0.407579183243
            0.059958722477    0.097845969549    -0.049481254134    -0.015826802623    -0.734127288309    0.407657128217    -0.057749442013    -0.054199199657
0.525     -0.176259595945    0.022755435693    0.027516322943    0.817901310634    -0.082001495940    0.030652920694    0.116101957894    -0.025741508065
            0.027457349470    0.817939813087    -0.181401225118    -0.017315085903    0.119645786255    -0.021257745045    -0.090313466635    0.032750526253
            -0.082637579172    0.031954117756    0.120279120741    -0.020982812509    -0.179469689544    0.027689855269    0.046806095329    0.815700963042
            0.116735714819    -0.025459261330    -0.091671329101    0.032653761801    0.046869891565    0.815659798061    -0.184535533823    -0.015401500961
0.550     -0.048172767379    0.159701858722    0.738285124062    0.346956149818    -0.000408698756    0.074344633628    0.028394117757    -0.106821101952
            0.738323786034    0.347000607691    -0.119470322187    0.129570895396    0.023534160031    -0.094906405545    -0.030332642938    0.072896675380
            0.000049373228    0.075533407863    0.024039614391    -0.095235457660    -0.044392395091    0.157288806382    0.746592311518    0.328345773604
            0.028904455957    -0.107150990492    -0.031014736807    0.073764817164    0.746557849350    0.328309422830    -0.116130386170    0.128133821478
0.575     0.045932341398    0.013639266024    0.641347469622    -0.521732143429    0.017905810199    -0.022448387134    -0.082358393162    -0.088515442290
            0.641386467246    -0.521760426320    -0.013624734899    0.065311825153    -0.079723109873    -0.083662059026    -0.015993374818    0.024881577127
            0.018396256435    -0.021457085462    -0.079781705353    -0.084317103374    0.041836197203    0.008372947539    0.626391209573    -0.538665896777
            -0.082415478336    -0.089173109228    -0.015961712903    0.025590390400    0.626357077972    -0.538636279035    -0.019181609212    0.061297057134
0.600     -0.088103144654    0.000623943507    -0.198591701337    -0.795678321262    -0.054829617980    0.018522587460    -0.126408273895    0.044890756954
            -0.198598687018    -0.795703354696    -0.076975695485    0.043334943774    -0.122554327079    0.042403725128    -0.041809979710    0.044091248960
            -0.054350679585    0.019076499007    -0.123204382376    0.042233754101    -0.089781291975    0.003983898285    -0.220100564699    -0.788804342170
            -0.127060038258    0.044719654000    -0.041677889261    0.044859997601    -0.220093289243    -0.788783054284    -0.078534686748    0.048037547861
0.625     -0.037505034551    0.094473848907    -0.796375537378    -0.170097703165    -0.003661466842    0.043445304145    -0.014973857683    0.131801251777
            -0.796396477210    -0.170093164730    -0.026023802174    0.098040867214    -0.016865136732    0.130923936985    0.007577897655    0.044971191805
            -0.002561609583    0.043862681825    -0.017281414255    0.131406744432    -0.032985976659    0.090690718734    -0.800776822197    -0.147224908326
            -0.015391419828    0.132285181887    0.008463964675    0.045664264272    -0.800757117757    -0.147228943202    -0.021629074660    0.094282396471
0.650     -0.003684142410    0.017421167493    -0.495885139297    0.645946814644    -0.029593265866    -0.007851592815    0.118932008841    0.082232791209
            -0.495881770347    0.645954796661    -0.005372738789    0.019174710708    0.118695036379    0.082747894279    -0.028609887399    -0.007887836343
            -0.028372357068    -0.008328134518    0.118963187180    0.083395842823    -0.008823345610    0.012251506613    -0.475502548793    0.660566253002
            0.119199861125    0.082881585538    -0.027394528353    -0.008217605841    -0.475505755946    0.660558793978    -0.010590676682    0.014230370491
0.675     -0.067215946465    0.053448722337    0.363103468391    0.716297739674    -0.063283429767    0.061277118501    0.129029372535    -0.081425444917
            0.363096951848    0.716304507301    -0.074449858583    0.046842630728    0.129094431918    -0.081428043278    -0.067010694262    0.060108602609
            -0.062665618655    0.060268228591    0.129877641877    -0.081483605390    -0.066908872125    0.055898245119    0.384967748254    0.704044074130
            0.129813685120    -0.081479059444    -0.066557081943    0.059056941228    0.384974413787    0.704036793649    -0.074549813806    0.049058538771
0.700     0.011917356208    0.062223232358    0.801504714088    -0.013118843871    0.013592598468    0.054706082694    -0.013423180881    -0.155132598170
            0.801521167160    -0.013104729002    -0.025164572525    0.068743565581    -0.013631261308    -0.155033893517    -0.001653403757    0.064099226232
            0.013618474560    0.053638123788    -0.013464271653    -0.155833152601    0.014809216504    0.053408345302    0.800830507599    -0.039639799121
            -0.013253439665    -0.155933330327    -0.001977646630    0.063175544464    0.800813272986    -0.039653622648    -0.022990749779    0.060605771259
0.725     -0.072879827471    -0.034145843150    0.319580865359    -0.723377223710    -0.062525769114    0.014319439927    -0.166539130114    -0.056368409360
            0.319615496914    -0.723400995972    -0.091382348862    0.026485373944    -0.166394280806    -0.056075433864    -0.061890264399    0.034739477737
            -0.062602037046    0.013956553122    -0.167079579014    -0.056441111437    -0.084276422823    -0.037951339970    0.293419846736    -0.733059860734
            -0.167224301954    -0.056738702954    -0.062527075117    0.034320283222    0.293385460331    -0.733034955087    -0.101958213650    0.022311084120
0.750     -0.147567224174    0.136726413228    -0.485199054834    -0.586676048813    -0.081327899204    0.127484067874    -0.103812514419    0.138155125111
            -0.485217206478    -0.586722183440    -0.116675684650    0.169280291976    -0.103593798734    0.138073284955    -0.056612572634    0.140607967474
            -0.081657086593    0.126869161525    -0.104176166718    0.138597167227    -0.147547787550    0.142814369908    -0.503852497829    -0.568779530103
            -0.104399848870    0.138679149478    -0.057356659276    0.140506001623    -0.503832621052    -0.568733293270    -0.117513141981    0.174222037359
0.775     0.041621953302    0.171314057019    -0.752721764508    0.158605655309    0.048286715006    0.116772098232    0.061384921176    0.140093353284
            -0.752798435508    0.158643903420    0.040477820413    0.176380200138    0.061398871448    0.139899609984    0.058993935896    0.116363879956
            0.047438622320    0.115962489761    0.061760420428    0.140670282875    0.045776110408    0.162260867372    -0.747331167988    0.185582911937
