# GHz S RI R 45
0.000     0.066302908000    0.000000000000    0.000000066496    0.000000000000    0.003886439900    -0.000000000000    -0.000014544822    -0.000000000000
            0.000000065087    -0.000000000000    0.065233647000    -0.000000000000    0.000000219805    0.000000000000    0.004203045500    -0.000000000000
            0.005014725000    0.000000000000    0.000000220633    0.000000000000    0.065117913000    -0.000000000000    0.000000310353    0.000000000000
            -0.000014543633    -0.000000000000    0.005039307200    0.000000000000    0.000000307711    0.000000000000    0.064507715000    -0.000000000000
0.025     0.148725906699    0.007303793185    0.000011252409    0.000005181547    0.081301665201    0.029457518372    0.000012730624    0.000021875384
            0.000011212721    0.000005186261    0.144950268413    0.015760929552    0.000008074781    0.000001745603    0.077822007140    0.037241571627
            0.082180585407    0.028940354177    0.000008072653    0.000001753248    0.148819968116    0.008135815261    0.000012948553    0.000005126808
            0.000012726135    0.000021877047    0.078404329610    0.036717954226    0.000012898316    0.000005130443    0.145474690662    0.016320415987
0.050     0.084065101375    -0.096831412599    0.000017283132    -0.000017459355    0.047091134341    -0.051819385496    0.000025999311    -0.000016141847
            0.000017320842    -0.000017376131    0.102725499936    -0.076226563253    0.000013325533    -0.000010742769    0.066011463747    -0.031031829786
            0.047569325440    -0.052784106308    0.000013346508    -0.000010737118    0.084430542175    -0.097563068122    0.000016523600    -0.000019973039
            0.000026012446    -0.000016123017    0.066043530625    -0.031909158078    0.000016543527    -0.000019864537    0.103050769801    -0.077085954290
0.075     0.004520840126    0.032548200788    -0.000009223538    -0.000038013725    -0.010445680934    0.051624398154    0.000018859678    -0.000039985953
            -0.000009125918    -0.000038103316    0.064993796412    0.008055925903    -0.000013751999    -0.000028850312    0.049857028308    0.032321381610
            -0.011092615091    0.050507502256    -0.000013706368    -0.000028888091    0.003794050227    0.032226697734    -0.000007177369    -0.000033330881
            0.000018894380    -0.000040030808    0.049361330695    0.031579644392    -0.000007038818    -0.000033451206    0.064547342589    0.008128758441
0.100     0.181213699851    0.015613486180    -0.000058842681    -0.000002620752    0.143647363249    0.034569599924    -0.000086231206    -0.000049773891
            -0.000058935984    -0.000002665455    0.183068831010    -0.013088001168    -0.000029662134    0.000009920684    0.148438672063    -0.002098872904
            0.143283974699    0.033644498793    -0.000029731559    0.000009842434    0.180951250587    0.016184168626    -0.000060288946    -0.000008579486
            -0.000086265469    -0.000049808142    0.147649658543    -0.002179920891    -0.000060289483    -0.000008738100    0.184387697960    -0.012307775626
0.125     0.106275843872    -0.139516795915    -0.000017885515    0.000059598291    0.082192337332    -0.096754643513    -0.000047738276    0.000090089622
            -0.000017945872    0.000059724324    0.111432339487    -0.136618670871    -0.000017063032    0.000025151392    0.076265388373    -0.104502634683
            0.081201921479    -0.097512956976    -0.000017159116    0.000025243205    0.106529281796    -0.139584355044    -0.000023432103    0.000064258409
            -0.000047809996    0.000090112376    0.075524723726    -0.104029487006    -0.000023703507    0.000064256728    0.112198310648    -0.137745369424
0.150     -0.002478354466    -0.016423533485    0.000039631240    0.000055352024    -0.004702943269    0.005578935936    0.000017103303    0.000077045692
            0.000039858969    0.000055355081    0.041957491868    -0.046363867069    0.000030968921    0.000047773494    0.021938289752    -0.018147359344
            -0.005970395274    0.005752653304    0.000031034277    0.000047914195    -0.002459259448    -0.016710540027    0.000037222490    0.000054939311
            0.000017140285    0.000077163880    0.021815127599    -0.017183276725    0.000037356504    0.000055259752    0.041900008534    -0.046132082843
0.175     0.164004114245    0.004163334470    0.000098147432    -0.000038067887    0.133134390710    0.014086318593    0.000166312103    0.000028216699
            0.000098019688    -0.000038316004    0.150927975968    -0.085929689145    0.000048018592    -0.000031933559    0.117598360395    -0.060481584585
            0.132477718471    0.014771149805    0.000048223356    -0.000032012416    0.164020852101    0.003643283526    0.000099725180    -0.000015541667
            0.000166428402    0.000028166635    0.118206669853    -0.059824323552    0.000099934110    -0.000015713105    0.152882963276    -0.086391028611
0.200     0.129427346028    -0.170001959260    -0.000030013209    -0.000094025057    0.098345323574    -0.121003515583    0.000019934133    -0.000185644876
            -0.000030206015    -0.000093863135    0.042607171550    -0.206006536922    0.000005340913    -0.000034980512    0.012596467714    -0.153972561878
            0.097793048707    -0.120434920155    0.000005285096    -0.000035171690    0.129088932698    -0.170273415382    0.000007350794    -0.000110064227
            0.000019935723    -0.000185741860    0.013279699600    -0.153825829452    0.000007351121    -0.000110287250    0.043102453595    -0.208400612123
0.225     -0.009841743805    -0.113187120505    -0.000057590427    -0.000022878902    0.000614912200    -0.074590907438    -0.000095099402    -0.000060188993
            -0.000057418982    -0.000022627779    -0.061647315537    -0.075233553319    -0.000039778788    -0.000054214922    -0.065250243574    -0.023492703851
            0.000181459564    -0.073438056814    -0.000039950813    -0.000054250681    -0.009060878380    -0.113104955336    -0.000089215922    -0.000057930170
            -0.000095218851    -0.000060254003    -0.064445799821    -0.023726341814    -0.000089688986    -0.000057963781    -0.062077806753    -0.076052694187
0.250     0.074241919167    -0.051382059125    -0.000103119807    0.000055118199    0.057965082239    -0.047660675219    -0.000191243703    0.000026970342
            -0.000102805538    0.000054804832    0.067593209866    -0.053115965643    -0.000070617383    0.000048996763    0.059677121081    -0.011222227969
            0.058589273712    -0.046413079191    -0.000070729926    0.000049230215    0.075386684541    -0.053289674315    -0.000120416395    0.000076086938
            -0.000191311602    0.000027114990    0.060166112168    -0.012199941633    -0.000120192127    0.000076651130    0.068633825044    -0.054771501843
0.275     0.069325244970    -0.160097553557    0.000062954532    0.000111285875    0.024216413983    -0.110101435722    0.000033280031    0.000238148012
            0.000062482558    0.000111111899    -0.009514867009    -0.169882151294    0.000012845854    0.000056523919    -0.005120128942    -0.105200805221
            0.025301630083    -0.109651645442    0.000013047422    0.000056596739    0.068020010993    -0.162205853961    0.000049043499    0.000132782167
            0.000033364961    0.000238201863    -0.005699278133    -0.106188225669    0.000049467911    0.000132480521    -0.010928867276    -0.172361365788
0.300     -0.031822783339    -0.146151231750    0.000072893600    -0.000003423579    -0.022086254189    -0.071584875284    0.000158553254    0.000024270842
            0.000072939749    -0.000002988662    -0.112754972189    -0.037287063477    0.000059688590    0.000048357554    -0.067667620511    0.003488520079
            -0.021195504996    -0.071607554939    0.000059775830    0.000048313236    -0.032513243860    -0.146020347717    0.000127554616    0.000030214460
            0.000158644833    0.000024280327    -0.068610817332    0.003392132358    0.000127386503    0.000029841987    -0.113983621392    -0.036552954981
0.325     -0.019514279067    -0.112197626498    0.000102605022    -0.000069443795    -0.000602245140    -0.082349841844    0.000189713700    -0.000094829377
            0.000102781619    -0.000069504225    0.055333194148    0.022837325244    0.000077102950    -0.000075103602    0.068742861927    0.026225715315
            0.000263060910    -0.082605661137    0.000077185183    -0.000075345565    -0.018684886206    -0.114190938171    0.000110757636    -0.000155116428
            0.000189755340    -0.000094994851    0.068330606019    0.026452231787    0.000110224164    -0.000155053620    0.057170137489    0.021729017789
0.350     -0.057325165089    -0.138584108785    -0.000095289903    -0.000138955703    -0.066633534402    -0.090416823018    -0.000108695716    -0.000267777373
            -0.000095263958    -0.000139321636    0.035244817545    -0.144662301254    -0.000040617581    -0.000064642051    0.031836896446    -0.102253565932
            -0.065814436303    -0.091139487034    -0.000040897430    -0.000064709590    -0.059809819995    -0.142035944078    -0.000145120352    -0.000116563748
            -0.000108824174    -0.000267830092    0.031224076419    -0.101743071985    -0.000144999364    -0.000115892499    0.033843509317    -0.146890670322
0.375     -0.100677417504    -0.068393770837    -0.000127345687    0.000042459753    -0.070508542767    0.001144810491    -0.000204444424    0.000034854373
            -0.000127998696    0.000042709653    -0.102436255605    -0.076705247219    -0.000072816032    -0.000032295680    -0.054201698334    -0.045046039238
            -0.070152795670    -0.000036180942    -0.000072947657    -0.000032154681    -0.103593205771    -0.068164830982    -0.000115774955    0.000042832728
            -0.000204590285    0.000034915729    -0.054250189703    -0.043813747471    -0.000115068434    0.000042683389    -0.102213954817    -0.074961734810
0.400     -0.040745192551    -0.059947145365    -0.000061455393    0.000158407840    0.002071829392    -0.022719342128    -0.000167108103    0.000165584041
            -0.000060630751    0.000158862678    0.009040029098    0.005148683169    -0.000072565602    0.000100556858    0.015839897285    -0.013897623848
            0.001637749916    -0.023957614702    -0.000072459741    0.000100971437    -0.040870344100    -0.060966693751    -0.000073286590    0.000187923960
            -0.000167000921    0.000165855875    0.017049390915    -0.013216273486    -0.000073413653    0.000187162714    0.013459835002    0.002283792223
0.425     -0.116189780000    -0.112329937195    0.000212513817    0.000111177694    -0.075157866558    -0.063831024407    0.000227820145    0.000269324240
            0.000212462114    0.000110340389    0.015004212048    -0.153910132849    0.000073210023    0.000049902006    -0.016859752699    -0.099910069876
            -0.076179272410    -0.064458475599    0.000073712154    0.000049596454    -0.119729868693    -0.114522181510    0.000248879692    0.000086969830
            0.000228067232    0.000269162249    -0.015891785578    -0.100470280758    0.000248086772    0.000087159940    0.013029552207    -0.159254968211
0.450     -0.183058667760    0.021171350608    0.000167092581    -0.000161439254    -0.099857235282    0.044068397577    0.000192094359    -0.000188444366
            0.000166640761    -0.000161383346    -0.168988253536    -0.115859798210    0.000049388044    0.000012252140    -0.107041209020    -0.043479052313
            -0.100750208397    0.044025793194    0.000049152648    0.000011893522    -0.186451277706    0.023443295687    0.000122184854    -0.000156135802
            0.000192063042    -0.000188644233    -0.106783535584    -0.044002095996    0.000122377518    -0.000155454719    -0.169978912300    -0.115491660210
0.475     -0.030378871814    0.080058125975    0.000059231632    -0.000264270104    0.013848628213    0.053610195496    0.000045714822    -0.000141816494
            0.000058821560    -0.000263678840    -0.116506627139    0.034880998326    0.000076349484    -0.000099777756    -0.061308549674    0.023277681412
            0.012994407512    0.053584922003    0.000075997192    -0.000099936352    -0.030151914939    0.080661954621    0.000104535373    -0.000237423524
            0.000045464688    -0.000142065504    -0.060980416001    0.022560692432    0.000105122318    -0.000237372449    -0.113352123885    0.030050155065
0.500     -0.038470518645    -0.066155819066    -0.000239334451    -0.000197791845    -0.016580898583    -0.040476270825    -0.000264699226    -0.000247270831
            -0.000238085293    -0.000197440574    -0.052406652658    -0.047549143087    -0.000124827060    -0.000083811665    -0.048948783101    -0.014659231315
            -0.017766145499    -0.039984298478    -0.000125076604    -0.000083205741    -0.041882275937    -0.066855876581    -0.000248798479    -0.000241566128
            -0.000264935242    -0.000246936664    -0.049481254134    -0.015826802623    -0.000248486532    -0.000242367310    -0.057749442013    -0.054199199657
0.525     -0.172591850456    0.026258793900    -0.000160636019    0.000091560116    -0.077046068380    0.030465613444    -0.000185396501    0.000274919676
            -0.000160921827    0.000090261175    -0.181401225118    -0.017315085903    -0.000085564823    0.000025589145    -0.090313466635    0.032750526253
            -0.077595059202    0.031884996131    -0.000085009477    0.000025375694    -0.174547305025    0.030615750258    -0.000182976670    0.000090400995
            -0.000185160951    0.000274879830    -0.091671329101    0.032653761801    -0.000184062209    0.000090264577    -0.184535533823    -0.015401500961
0.550     -0.038178119970    0.147785989244    -0.000097178443    0.000157268185    0.005777403254    0.063829116559    0.000031026157    0.000098648806
            -0.000098037858    0.000157834316    -0.119470322187    0.129570895396    -0.000089146551    0.000124363933    -0.030332642938    0.072896675380
            0.006309367623    0.065031899765    -0.000089537985    0.000124139897    -0.035316213640    0.149290902645    -0.000129612707    0.000173840658
            0.000030845120    0.000098609652    -0.031014736807    0.073764817164    -0.000129493214    0.000174805667    -0.116130386170    0.128133821478
0.575     0.037144940516    0.001060771866    0.000201960713    0.000189398732    0.009909264605    -0.030129263750    0.000192818584    0.000234186805
            0.000202243483    0.000189878086    -0.013624734899    0.065311825153    0.000155630182    0.000128754903    -0.015993374818    0.024881577127
            0.010470585334    -0.029010310048    0.000155476244    0.000129108314    0.036067672933    0.000235230212    0.000229561449    0.000253880224
            0.000192789536    0.000234358134    -0.015961712903    0.025590390400    0.000230465271    0.000254220116    -0.019181609212    0.061297057134
0.600     -0.088933450091    0.001619740779    0.000179642347    -0.000131265078    -0.053380903373    0.018270810090    0.000250115716    -0.000234212414
            0.000180311835    -0.000131378875    -0.076975695485    0.043334943774    0.000134231517    -0.000080601141    -0.041809979710    0.044091248960
            -0.052741007255    0.018810354234    0.000134399153    -0.000080399345    -0.088381420498    0.005056514031    0.000227457281    -0.000152178319
            0.000250228504    -0.000234161609    -0.041677889261    0.044859997601    0.000227780737    -0.000152686615    -0.078534686748    0.048037547861
0.625     -0.033937547324    0.080844213113    0.000038763404    -0.000224639520    -0.003088875656    0.031250583447    -0.000023857738    -0.000241443849
            0.000038338914    -0.000225483899    -0.026023802174    0.098040867214    0.000024037760    -0.000190047449    0.007577897655    0.044971191805
            -0.001905231920    0.031513532676    0.000024502662    -0.000190496998    -0.030084506457    0.080050452661    0.000037178830    -0.000273567358
            -0.000023626849    -0.000241732505    0.008463964675    0.045664264272    0.000036413428    -0.000274082444    -0.021629074660    0.094282396471
0.650     -0.018144208408    0.008436634152    -0.000300177337    -0.000120001783    -0.041611086628    -0.012218988059    -0.000356299324    -0.000166537663
            -0.000300742011    -0.000119181005    -0.005372738789    0.019174710708    -0.000216673474    -0.000061358325    -0.028609887399    -0.007887836343
            -0.040423648811    -0.012823175568    -0.000217504934    -0.000061785651    -0.018724659431    0.007175757079    -0.000345215633    -0.000128682490
            -0.000356811973    -0.000166807330    -0.027394528353    -0.008217605841    -0.000345617692    -0.000127754269    -0.010590676682    0.014230370491
0.675     -0.068786640614    0.056073332703    -0.000134385464    0.000220373861    -0.062370504409    0.063055435455    -0.000192279638    0.000316998756
            -0.000133525606    0.000220517629    -0.074449858583    0.046842630728    -0.000104996999    0.000126179396    -0.067010694262    0.060108602609
            -0.061809573462    0.061929542334    -0.000105255845    0.000127094332    -0.065628623338    0.057237721662    -0.000155799552    0.000241174669
            -0.000192540888    0.000317607078    -0.066557081943    0.059056941228    -0.000154896335    0.000241477053    -0.074549813806    0.049058538771
0.700     0.009727599733    0.046407528813    0.000071081678    0.000252800739    0.011001095092    0.041617629551    0.000087033731    0.000331629848
            0.000070978809    0.000251993222    -0.025164572525    0.068743565581    0.000042070577    0.000215176615    -0.001653403757    0.064099226232
            0.010862060280    0.040472365940    0.000043040571    0.000215504952    0.012522161355    0.040506714686    0.000067475309    0.000297800919
            0.000087712282    0.000331936798    -0.001977646630    0.063175544464    0.000067717886    0.000296895920    -0.022990749779    0.060605771259
0.725     -0.094977710540    -0.034882615781    0.000347946136    -0.000071837401    -0.077276197022    0.015449036215    0.000551040469    -0.000036707826
            0.000347316496    -0.000071459908    -0.091382348862    0.026485373944    0.000232383557    -0.000051693770    -0.061890264399    0.034739477737
            -0.077438921245    0.015111267823    0.000232448527    -0.000052504176    -0.100082468959    -0.035868966499    0.000396485965    -0.000065550174
            0.000551201770    -0.000037240259    -0.062527075117    0.034320283222    0.000396242246    -0.000065683506    -0.101958213650    0.022311084120
0.750     -0.147444616335    0.146281461583    -0.000044380713    -0.000215900443    -0.079370671237    0.131789058572    -0.000088166646    -0.000441726463
            -0.000044130833    -0.000215435308    -0.116675684650    0.169280291976    0.000019545426    -0.000111136241    -0.056612572634    0.140607967474
            -0.079792046738    0.131199317837    0.000018899500    -0.000111291359    -0.144214466286    0.149438112924    -0.000018779808    -0.000259142323
            -0.000088544287    -0.000442052702    -0.057356659276    0.140506001623    -0.000019185481    -0.000258804283    -0.117513141981    0.174222037359
0.775     0.042430161278    0.157677669330    -0.000051091757    -0.000143694817    0.046414275666    0.104989343087    -0.000135586829    -0.000107622899
            -0.000050404691    -0.000143835255    0.040477820413    0.176380200138    -0.000024153971    -0.000181090757    0.058993935896    0.116363879956
            0.045381789591    0.104311510070    -0.000024802151    -0.000180628506    0.046426237004    0.150366178089    -0.000073196872    -0.000189695213
