# GHz S RI R 45
0.000     0.066671668000    0.000000000000    0.000005220057    -0.000000000000    0.003724265700    -0.000000000000    -0.000018669663    -0.000000000000
            0.000019915320    0.000000000000    0.065233647000    -0.000000000000    -0.000008217380    0.000000000000    0.004203045500    -0.000000000000
            0.004686343200    -0.000000000000    0.000039270272    0.000000000000    0.066028494000    -0.000000000000    -0.000025337047    -0.000000000000
            0.000052568178    0.000000000000    0.005039307200    0.000000000000    -0.000040336551    -0.000000000000    0.064507715000    -0.000000000000
0.025     0.145550875786    0.015067936421    -0.000012783977    -0.000007609688    0.078603418410    0.037785526807    0.000002068476    0.000015974673
            -0.000003333466    -0.000018100118    0.144950268413    0.015760929552    0.000062913577    0.000042457617    0.077822007140    0.037241571627
            0.078294687262    0.036978945275    0.000047521638    -0.000000261815    0.145451208711    0.014948458150    0.000000341678    0.000020333234
            0.000017637743    -0.000040875403    0.078404329610    0.036717954226    0.000011878473    0.000035214211    0.145474690662    0.016320415987
0.050     0.102162416378    -0.076087466040    -0.000037839418    0.000050824560    0.066176448141    -0.031629313489    -0.000019440774    0.000032071951
            -0.000038520852    0.000038821769    0.102725499936    -0.076226563253    -0.000065184080    0.000083011667    0.066011463747    -0.031031829786
            0.065430794874    -0.031043136817    -0.000099995158    0.000112380461    0.101544427998    -0.075951883430    -0.000016578753    0.000029002806
            -0.000045659226    0.000018123615    0.066043530625    -0.031909158078    0.000000104321    0.000011065373    0.103050769801    -0.077085954290
0.075     0.065968046630    0.009415063523    0.000069505926    0.000084968887    0.049937026491    0.033051381027    0.000044940847    0.000086786333
            0.000064304335    0.000079161953    0.064993796412    0.008055925903    0.000111987227    0.000329502359    0.049857028308    0.032321381610
            0.050501631388    0.033673574794    0.000155128941    0.000350878509    0.066310803022    0.010398180258    0.000041587536    0.000078475009
            0.000057663678    0.000083811558    0.049361330695    0.031579644392    0.000021664177    0.000062177281    0.064547342589    0.008128758441
0.100     0.184302329857    -0.014032045255    0.000057273952    -0.000023930731    0.149341293772    -0.001802403435    0.000078263202    0.000002691662
            0.000052464267    -0.000030400116    0.183068831010    -0.013088001168    0.000208297856    0.000068503861    0.148438672063    -0.002098872904
            0.149393675696    -0.002667579397    0.000215765884    0.000021895549    0.185429304259    -0.014656704292    0.000064301238    0.000006993630
            0.000062451417    -0.000044160337    0.147649658543    -0.002179920891    0.000052475763    0.000020659831    0.184387697960    -0.012307775626
0.125     0.109925845546    -0.136291615537    -0.000025085002    0.000027655385    0.075777074301    -0.104147271688    -0.000002086702    0.000016273492
            -0.000037247623    0.000022710239    0.111432339487    -0.136618670871    -0.000105896151    0.000254735693    0.076265388373    -0.104502634683
            0.074853306803    -0.103839498182    -0.000151349447    0.000257254451    0.109572452919    -0.137033308176    0.000007227196    0.000010608697
            -0.000073531787    0.000023290236    0.075524723726    -0.104029487006    0.000015769042    0.000018061434    0.112198310648    -0.137745369424
0.150     0.043911385300    -0.043231171448    0.000104266757    0.000096063963    0.023292666268    -0.015710139440    0.000095399167    0.000102978284
            0.000093154308    0.000111126879    0.041957491868    -0.046363867069    0.000359370298    0.000571211222    0.021938289752    -0.018147359344
            0.023991144113    -0.014772145997    0.000377148539    0.000610333080    0.044502421184    -0.042529834419    0.000077996085    0.000076197247
            0.000092615984    0.000174306145    0.021815127599    -0.017183276725    0.000079886114    0.000068117655    0.041900008534    -0.046132082843
0.175     0.153408911451    -0.087708395337    0.000073296980    -0.000065690265    0.119482910679    -0.060984875822    0.000117918600    -0.000049724572
            0.000080438494    -0.000053999078    0.150927975968    -0.085929689145    0.000356597379    0.000023445601    0.117598360395    -0.060481584585
            0.120159480646    -0.061815811231    0.000381441502    -0.000008830383    0.155216948378    -0.089155355735    0.000066157149    -0.000031286665
            0.000157748782    -0.000048123292    0.118206669853    -0.059824323552    0.000054249670    -0.000028064297    0.152882963276    -0.086391028611
0.200     0.040690804312    -0.205734219489    -0.000041053713    0.000009427135    0.012165267135    -0.153037761146    -0.000024231544    -0.000008880906
            -0.000036321531    0.000010920632    0.042607171550    -0.206006536922    -0.000064422777    0.000425165186    0.012596467714    -0.153972561878
            0.011268329479    -0.153353070880    -0.000106759073    0.000410665272    0.039867782414    -0.208077375240    -0.000004822347    0.000010901749
            -0.000039660277    -0.000013056988    0.013279699600    -0.153825829452    -0.000001051395    0.000029432270    0.043102453595    -0.208400612123
0.225     -0.058574270055    -0.070892333662    0.000096734431    0.000139735451    -0.061871113687    -0.020195971074    0.000112308326    0.000145299270
            0.000100589001    0.000146633872    -0.061647315537    -0.075233553319    0.000673169707    0.000708142451    -0.065250243574    -0.023492703851
            -0.061684757086    -0.019253782282    0.000665859516    0.000758947967    -0.059308765765    -0.070690354233    0.000087048756    0.000111248629
            0.000132525890    0.000192393899    -0.064445799821    -0.023726341814    0.000112566571    0.000106990683    -0.062077806753    -0.076052694187
0.250     0.072021094868    -0.056404580768    0.000124853885    -0.000071501074    0.063387137909    -0.013839634919    0.000184468431    -0.000084743650
            0.000139410242    -0.000070605222    0.067593209866    -0.053115965643    0.000518090049    -0.000112982662    0.059677121081    -0.011222227969
            0.064301083398    -0.014590519257    0.000568544380    -0.000116458270    0.073325264518    -0.058057205370    0.000105931096    -0.000041342242
            0.000252468454    -0.000112741308    0.060166112168    -0.012199941633    0.000098174222    -0.000067691358    0.068633825044    -0.054771501843
0.275     -0.011873801364    -0.170245722720    -0.000010641898    0.000016776830    -0.005961773902    -0.104801895851    -0.000013230989    -0.000027159699
            -0.000001649006    0.000002491131    -0.009514867009    -0.169882151294    0.000033970602    0.000567272240    -0.005120128942    -0.105200805221
            -0.007001179856    -0.105602784786    0.000017895801    0.000528136119    -0.013967897664    -0.172814093239    0.000033635543    0.000035189034
            -0.000030364526    -0.000091631787    -0.005699278133    -0.106188225669    0.000014054556    0.000047564631    -0.010928867276    -0.172361365788
0.300     -0.108492959528    -0.032290977591    0.000158480845    0.000121863533    -0.062711849949    0.006659058043    0.000181391249    0.000141983223
            0.000151124452    0.000108903076    -0.112754972189    -0.037287063477    0.001030599161    0.000672517934    -0.067667620511    0.003488520079
            -0.063317628006    0.007781707487    0.001005659531    0.000703646522    -0.110274734320    -0.030777661818    0.000176738501    0.000081024345
            0.000141162649    0.000150940220    -0.068610817332    0.003392132358    0.000196166042    0.000091672408    -0.113983621392    -0.036552954981
0.325     0.062221679096    0.017544846571    0.000190092456    -0.000138716311    0.073970138464    0.020929130247    0.000275353939    -0.000192781241
            0.000182141848    -0.000138759356    0.055333194148    0.022837325244    0.000628958068    -0.000308527987    0.068742861927    0.026225715315
            0.074909817416    0.021063559980    0.000676054836    -0.000296721096    0.064146443323    0.016960094939    0.000160901758    -0.000140923331
            0.000290667745    -0.000188945332    0.068330606019    0.026452231787    0.000161013089    -0.000168935403    0.057170137489    0.021729017789
0.350     0.032572455864    -0.147430246107    0.000021431419    -0.000078394759    0.029989010868    -0.103253914733    -0.000020026656    -0.000149844547
            0.000018714990    -0.000080544920    0.035244817545    -0.144662301254    0.000176568683    0.000608272302    0.031836896446    -0.102253565932
            0.029596732515    -0.104087792714    0.000179252815    0.000551503820    0.030852908063    -0.149847236258    0.000046237454    -0.000051496209
            -0.000044088491    -0.000181806885    0.031224076419    -0.101743071985    0.000012659970    -0.000043344470    0.033843509317    -0.146890670322
0.375     -0.098415704093    -0.072830701700    0.000114721016    -0.000000182066    -0.048890116571    -0.042586045666    0.000147700031    0.000042179399
            0.000104237836    -0.000002377240    -0.102436255605    -0.076705247219    0.001296746898    0.000474763054    -0.054201698334    -0.045046039238
            -0.049643210721    -0.041654270987    0.001240065747    0.000479153246    -0.099382147046    -0.070607194578    0.000149312260    -0.000039588781
            0.000097744105    0.000074696733    -0.054250189703    -0.043813747471    0.000163965083    -0.000006013785    -0.102213954817    -0.074961734810
0.400     0.016364751548    -0.002076686262    0.000125524299    -0.000186998110    0.021163790613    -0.021190335970    0.000240228243    -0.000295264764
            0.000115875847    -0.000173610135    0.009040029098    0.005148683169    0.000636215836    -0.000497143024    0.015839897285    -0.013897623848
            0.022432481944    -0.020522263902    0.000652117796    -0.000452275243    0.020246283945    -0.003430148004    0.000086753529    -0.000219159248
            0.000266689346    -0.000242423072    0.017049390915    -0.013216273486    0.000112656454    -0.000239933101    0.013459835002    0.002283792223
0.425     0.010594452326    -0.159052834177    -0.000028832139    -0.000137298747    -0.020026119467    -0.102234064536    -0.000137775853    -0.000248002593
            -0.000019797291    -0.000125364443    0.015004212048    -0.153910132849    0.000330502117    0.000578493931    -0.016859752699    -0.099910069876
            -0.019473073570    -0.103433109862    0.000355601401    0.000548429335    0.008968416707    -0.163571721408    -0.000038715424    -0.000099574296
            -0.000102195273    -0.000263349712    -0.015891785578    -0.100470280758    -0.000063212303    -0.000112553915    0.013029552207    -0.159254968211
0.450     -0.167346385897    -0.112599278482    -0.000011062442    -0.000062847517    -0.102297804905    -0.041892432071    0.000021291637    0.000014844882
            -0.000003132173    -0.000063600287    -0.168988253536    -0.115859798210    0.001410249321    0.000186430429    -0.107041209020    -0.043479052313
            -0.103230411159    -0.042104180663    0.001365641295    0.000176044730    -0.169137746957    -0.111694869105    0.000032699729    -0.000069057666
            0.000010483535    0.000004984789    -0.106783535584    -0.044002095996    0.000031721918    -0.000041273641    -0.169978912300    -0.115491660210
0.475     -0.109801484950    0.028513717747    0.000059793424    -0.000134400753    -0.056037704222    0.014923676790    0.000177437735    -0.000285201220
            0.000061926843    -0.000134330046    -0.116506627139    0.034880998326    0.000621587179    -0.000632339198    -0.061308549674    0.023277681412
            -0.055726418068    0.015665322497    0.000619333152    -0.000572466468    -0.107159054838    0.025989091820    0.000049011518    -0.000184900589
            0.000191322411    -0.000263208278    -0.060980416001    0.022560692432    0.000081620827    -0.000195892834    -0.113352123885    0.030050155065
0.500     -0.057632979364    -0.053230849245    -0.000044320412    -0.000131687077    -0.053704741983    -0.018791697682    -0.000218856856    -0.000274412551
            -0.000035820056    -0.000129987887    -0.052406652658    -0.047549143087    0.000446020931    0.000474656200    -0.048948783101    -0.014659231315
            -0.053081414261    -0.019677888054    0.000509321130    0.000468005069    -0.061454070384    -0.058429565183    -0.000079198753    -0.000105586235
            -0.000183795056    -0.000300887432    -0.049481254134    -0.015826802623    -0.000098855618    -0.000135153046    -0.057749442013    -0.054199199657
0.525     -0.178931217807    -0.014152644387    -0.000008520194    -0.000058972234    -0.085546387066    0.033497053159    -0.000010412753    0.000051150750
            -0.000001292672    -0.000068904079    -0.181401225118    -0.017315085903    0.001482966767    -0.000103513754    -0.090313466635    0.032750526253
            -0.086694937013    0.032855619227    0.001469704269    -0.000152814891    -0.182565656132    -0.012132078329    0.000038089503    -0.000041604409
            -0.000032570871    0.000010828617    -0.091671329101    0.032653761801    0.000015965849    -0.000020345620    -0.184535533823    -0.015401500961
0.550     -0.111005916408    0.123565225148    0.000066011361    -0.000137968121    -0.024622850985    0.064019682770    0.000171349580    -0.000308040984
            0.000061218523    -0.000149584766    -0.119470322187    0.129570895396    0.000568762659    -0.000743826996    -0.030332642938    0.072896675380
            -0.025348833265    0.065181587617    0.000536812425    -0.000720524971    -0.109390396335    0.122935668460    0.000087406938    -0.000204913165
            0.000135173876    -0.000294676105    -0.031014736807    0.073764817164    0.000109428345    -0.000191544197    -0.116130386170    0.128133821478
0.575     -0.018547763165    0.057879311400    -0.000085045546    -0.000184274144    -0.022620594971    0.019086600374    -0.000305456207    -0.000333315070
            -0.000095021995    -0.000185457889    -0.013624734899    0.065311825153    0.000522099129    0.000294935806    -0.015993374818    0.024881577127
            -0.021657428458    0.019571055049    0.000565959947    0.000310567560    -0.022191890269    0.055506777419    -0.000150370377    -0.000203706980
            -0.000293016793    -0.000313617596    -0.015961712903    0.025590390400    -0.000148681712    -0.000227962554    -0.019181609212    0.061297057134
0.600     -0.074751982884    0.044580189496    -0.000077983606    -0.000084574093    -0.039325663343    0.044969732977    -0.000104447814    0.000063532236
            -0.000081750854    -0.000082115420    -0.076975695485    0.043334943774    0.001437864637    -0.000397417441    -0.041809979710    0.044091248960
            -0.039363675432    0.044147068489    0.001439380002    -0.000458265137    -0.075938730187    0.048185416513    -0.000070061050    -0.000047082054
            -0.000104389475    0.000043856578    -0.041677889261    0.044859997601    -0.000092588864    -0.000037525453    -0.078534686748    0.048037547861
0.625     -0.021876724796    0.085521537882    -0.000060591183    -0.000192410586    0.010014752617    0.032721295107    0.000053465533    -0.000380116592
            -0.000064143315    -0.000191906388    -0.026023802174    0.098040867214    0.000374347175    -0.000887993548    0.007577897655    0.044971191805
            0.009237809281    0.033415053950    0.000307116923    -0.000884304992    -0.018576070647    0.084015561002    -0.000027549474    -0.000245864757
            0.000021461713    -0.000367495893    0.008463964675    0.045664264272    -0.000011854744    -0.000223840642    -0.021629074660    0.094282396471
0.650     -0.017097147169    0.011790361595    -0.000268722245    -0.000137456553    -0.040109774613    -0.013488650584    -0.000552699109    -0.000284626647
            -0.000276080750    -0.000132541137    -0.005372738789    0.019174710708    0.000507805457    0.000160265408    -0.028609887399    -0.007887836343
            -0.038829430748    -0.012567568970    0.000518448268    0.000221354771    -0.019489903224    0.009481063227    -0.000348202329    -0.000176778539
            -0.000533980705    -0.000244816891    -0.027394528353    -0.008217605841    -0.000329259177    -0.000195132328    -0.010590676682    0.014230370491
0.675     -0.074669167996    0.048943177702    -0.000183297659    0.000043361484    -0.066509431812    0.062165046752    -0.000226667159    0.000221901856
            -0.000182094671    0.000055535763    -0.074449858583    0.046842630728    0.001241198646    -0.000624911078    -0.067010694262    0.060108602609
            -0.065571458291    0.060719410983    0.001282387479    -0.000648322027    -0.073035867849    0.050292934427    -0.000214825362    0.000105003596
            -0.000190202294    0.000202149986    -0.066557081943    0.059056941228    -0.000232009673    0.000091770891    -0.074549813806    0.049058538771
0.700     -0.026903240345    0.055652868427    -0.000131250320    -0.000100699612    -0.002754183178    0.051819028151    -0.000053729890    -0.000291657270
            -0.000118127451    -0.000096259174    -0.025164572525    0.068743565581    0.000169486270    -0.000884513642    -0.001653403757    0.064099226232
            -0.004134724844    0.051153925039    0.000127289756    -0.000904284675    -0.025133777368    0.049411230695    -0.000088222916    -0.000108704570
            -0.000075774321    -0.000315490554    -0.001977646630    0.063175544464    -0.000093909426    -0.000092240664    -0.022990749779    0.060605771259
0.725     -0.107811857317    0.027280573865    -0.000339631533    0.000037689420    -0.075414561911    0.034337657853    -0.000679929098    -0.000029246680
            -0.000336177994    0.000029500332    -0.091382348862    0.026485373944    0.000508841087    0.000080922818    -0.061890264399    0.034739477737
            -0.075431630065    0.035135582655    0.000508701245    0.000142444665    -0.114425444904    0.025357579078    -0.000383887492    0.000001348401
            -0.000685702735    -0.000002521142    -0.062527075117    0.034320283222    -0.000368760910    -0.000002152061    -0.101958213650    0.022311084120
0.750     -0.113611133937    0.176403138544    -0.000129272153    0.000229127136    -0.055697003798    0.144041544918    -0.000145953043    0.000425754610
            -0.000129643363    0.000230307108    -0.116675684650    0.169280291976    0.001021610472    -0.000741774496    -0.056612572634    0.140607967474
            -0.054879838764    0.143188674821    0.001087871622    -0.000750260782    -0.112151571110    0.179311390195    -0.000167447859    0.000271302796
            -0.000116026257    0.000418181033    -0.057356659276    0.140506001623    -0.000176088666    0.000256026949    -0.117513141981    0.174222037359
0.775     0.041801639229    0.163491866646    -0.000000657376    -0.000059113713    0.057378586311    0.105242083837    0.000026264407    -0.000193261881
            0.000007993852    -0.000059503323    0.040477820413    0.176380200138    0.000096045606    -0.000861067073    0.058993935896    0.116363879956
            0.055902237535    0.104405019733    0.000087052600    -0.000924489624    0.042067516945    0.156918388554    0.000037405291    -0.000043229753
