!$
! Info: Touchstone file created by Circ.  Input file=Intel_C2M_200G_6p0in_202208016_staggered.circ
!$
# Hz S RI R 50
0	0.01848521	3.660962e-24	0.9813146	-6.323945e-24	0.00010942	2.825893e-22	-0.0002404496	2.944659e-20
	0.9813146	-6.321468e-24	0.01903998	6.805176e-24	-0.0002405053	2.945341e-20	0.000333563	5.746176e-22
	0.0001094776	2.827168e-22	-0.0002406422	2.947017e-20	0.01848316	3.467987e-24	0.9813149	-6.424894e-24
	-0.0002405865	2.946335e-20	0.0003336312	5.750191e-22	0.9813149	-6.427379e-24	0.0190414	6.946607e-24
1e+07	0.02264885	-0.002529079	0.9719499	-0.1002934	0.001565447	0.006011714	-0.0009076559	-0.0004127784
	0.9719499	-0.1002934	0.02244603	-0.002295097	-0.0009076736	-0.0004127266	0.001432611	0.006045736
	0.001565447	0.006011714	-0.0009076736	-0.0004127266	0.02251292	-0.002500354	0.9720894	-0.1002975
	-0.0009076559	-0.0004127784	0.001432611	0.006045736	0.9720894	-0.1002975	0.02231011	-0.002266046
2e+07	0.02539542	-0.008824562	0.9533116	-0.1955763	0.003631299	0.01124838	-0.001043681	-0.0003938553
	0.9533116	-0.1955763	0.02477003	-0.008110358	-0.001043636	-0.000393851	0.003082407	0.01147243
	0.003631309	0.01124836	-0.001043638	-0.0003939616	0.02529533	-0.008717105	0.9534274	-0.195639
	-0.001043682	-0.0003939596	0.003082493	0.01147232	0.9534274	-0.195639	0.02466256	-0.007998372
3e+07	0.02619721	-0.01667941	0.9265359	-0.286937	0.006706091	0.01602064	-0.001067937	-0.0003929127
	0.9265359	-0.286937	0.02446964	-0.01549806	-0.001067994	-0.0003928231	0.005632469	0.01645971
	0.006706067	0.01602068	-0.001068035	-0.0003928193	0.02612683	-0.01652052	0.9266301	-0.2870291
	-0.001067949	-0.0003929171	0.005632445	0.01645968	0.9266301	-0.2870291	0.02440148	-0.01533844
4e+07	0.02517667	-0.02499057	0.8916023	-0.3745164	0.01072969	0.02000087	-0.001013487	-0.000443397
	0.8916023	-0.3745164	0.02219355	-0.02280725	-0.00101365	-0.0004431432	0.008916445	0.02092421
	0.01072969	0.02000089	-0.001013654	-0.0004431389	0.02514369	-0.02479427	0.8916749	-0.3746303
	-0.001013487	-0.0004433836	0.008916445	0.02092421	0.8916749	-0.3746303	0.02216427	-0.0226117
5e+07	0.02256706	-0.03318327	0.8487902	-0.4577777	0.01550966	0.0230583	-0.0009159591	-0.0005763894
	0.8487902	-0.4577777	0.0182003	-0.02957932	-0.0009162643	-0.0005759784	0.01285179	0.02472903
	0.01550967	0.02305831	-0.0009162612	-0.0005759795	0.02257377	-0.0329599	0.8488412	-0.4579097
	-0.0009159561	-0.0005763909	0.01285179	0.02472904	0.8488412	-0.4579097	0.01821176	-0.02935723
6e+07	0.01854969	-0.04092491	0.7985165	-0.5361003	0.02085553	0.0250645	-0.0008172029	-0.0008150112
	0.7985165	-0.5361003	0.01273125	-0.03539097	-0.0008177196	-0.000814321	0.01730218	0.02778116
	0.02085554	0.02506449	-0.0008177183	-0.0008143223	0.01859735	-0.04068338	0.798545	-0.5362471
	-0.0008172011	-0.0008150119	0.01730218	0.02778116	0.798545	-0.5362471	0.01278462	-0.03515112
7e+07	0.01330303	-0.04794305	0.741285	-0.6088729	0.02655091	0.02592919	-0.0007660821	-0.001166206
	0.741285	-0.6088729	0.006100785	-0.0399202	-0.0007667699	-0.001165162	0.02212025	0.03001816
	0.02655091	0.02592918	-0.0007667284	-0.001165218	0.01339205	-0.04769222	0.7412886	-0.6090317
	-0.0007660799	-0.001166208	0.02212024	0.03001816	0.7412886	-0.6090317	0.006195488	-0.03967114
8e+07	0.007040118	-0.05401851	0.677665	-0.6755245	0.03236762	0.02560522	-0.0008117803	-0.001619254
	0.677665	-0.6755245	-0.001344968	-0.04294748	-0.0008126086	-0.00161774	0.02715178	0.03140692
	0.03236762	0.02560522	-0.0008126091	-0.001617738	0.007169832	-0.0537671	0.6776434	-0.6756928
	-0.0008117815	-0.001619252	0.02715178	0.03140692	0.6776434	-0.6756928	-0.001211282	-0.04269744
9e+07	3.802188e-06	-0.05899139	0.6082747	-0.7355414	0.03807469	0.02408868	-0.0009988771	-0.002146996
	0.6082747	-0.7355414	-0.009244082	-0.04433424	-0.0009997584	-0.002144838	0.03224319	0.03194448
	0.0380747	0.02408869	-0.0009997558	-0.00214483	0.0001715308	-0.05874809	0.6082248	-0.7357149
	-0.0009988768	-0.002146987	0.03224319	0.03194448	0.6082248	-0.7357149	-0.009075048	-0.04408984
1e+08	-0.00751312	-0.06273184	0.5337204	-0.7885073	0.04344884	0.02141677	-0.0013661	-0.002707901
	0.5337204	-0.7885073	-0.01718638	-0.04398723	-0.001366957	-0.002704816	0.03725138	0.03165528
	0.04344884	0.02141677	-0.001366957	-0.002704817	-0.007312476	-0.06250523	0.5336427	-0.7886824
	-0.0013661	-0.002707902	0.03725138	0.03165528	0.5336427	-0.7886824	-0.01698732	-0.04375454
1.1e+08	-0.01525506	-0.06548598	0.4546731	-0.8336818	0.0482747	0.01764466	-0.001923967	-0.003231949
	0.4546731	-0.8336818	-0.02476131	-0.04219059	-0.001923298	-0.00322685	0.04202183	0.030572
	0.0482747	0.01764465	-0.001923298	-0.003226852	-0.01498726	-0.0653238	0.4545676	-0.8338592
	-0.001923967	-0.00323195	0.04202183	0.030572	0.4545676	-0.8338592	-0.02453944	-0.04195521
1.2e+08	-0.02323036	-0.0670611	0.372192	-0.870918	0.05231541	0.0129349	-0.002667612	-0.003689491
	0.372192	-0.870918	-0.03191187	-0.03888132	-0.002665303	-0.00368385	0.04642212	0.02879379
	0.05231541	0.0129349	-0.002665304	-0.003683851	-0.0229604	-0.06695173	0.3720547	-0.8710927
	-0.002667612	-0.003689492	0.04642212	0.02879379	0.3720547	-0.8710927	-0.03166507	-0.03865578
1.3e+08	-0.0311597	-0.0674524	0.2869817	-0.9000484	0.05542139	0.007440275	-0.003595959	-0.00402263
	0.2869817	-0.9000484	-0.03826668	-0.03413191	-0.003592527	-0.004017133	0.0503561	0.02641867
	0.05542139	0.007440273	-0.003592528	-0.004017134	-0.03090372	-0.06737172	0.286812	-0.9002169
	-0.00359596	-0.004022631	0.0503561	0.02641867	0.286812	-0.9002169	-0.03800088	-0.03392348
1.4e+08	-0.03883445	-0.06672689	0.1998005	-0.9209298	0.05746366	0.001340894	-0.004686498	-0.004176435
	0.1998005	-0.9209298	-0.04353058	-0.02811612	-0.004682216	-0.004170722	0.05374508	0.02355759
	0.05746366	0.001340893	-0.004682216	-0.004170723	-0.03858989	-0.06666395	0.1995983	-0.9210854
	-0.004686499	-0.004176436	0.05374508	0.02355759	0.1995983	-0.9210854	-0.04325333	-0.02792671
1.5e+08	-0.04607811	-0.06498426	0.1114126	-0.9334794	0.05834423	-0.005162934	-0.005900773	-0.004102316
	0.1114126	-0.9334794	-0.04745907	-0.02106549	-0.005895434	-0.004096339	0.05653344	0.02033013
	0.05834423	-0.005162934	-0.005895435	-0.004096339	-0.04584159	-0.06493858	0.1111793	-0.9336167
	-0.005900773	-0.004102316	0.05653344	0.02033013	0.1111793	-0.9336167	-0.04717736	-0.02089342
1.6e+08	-0.05274454	-0.06234925	0.02258169	-0.9376753	0.05800071	-0.01185686	-0.007187215	-0.003762374
	0.02258169	-0.9376753	-0.04986228	-0.01325455	-0.007180401	-0.003756155	0.05868892	0.01686065
	0.05800071	-0.01185686	-0.007180401	-0.003756155	-0.05251631	-0.06232538	0.02231733	-0.9377899
	-0.007187215	-0.003762375	0.05868892	0.01686065	0.02231733	-0.9377899	-0.04958166	-0.01309548
1.7e+08	-0.05871881	-0.05896608	-0.06593847	-0.9335618	0.05640829	-0.01851901	-0.008484626	-0.003132434
	-0.06593847	-0.9335618	-0.05060974	-0.004987499	-0.008475852	-0.00312616	0.0602023	0.01327326
	0.05640829	-0.01851901	-0.008475853	-0.00312616	-0.05850367	-0.05896901	-0.06623192	-0.9336481
	-0.008484627	-0.003132434	0.0602023	0.01327326	-0.06623192	-0.9336481	-0.05033346	-0.0048359
1.8e+08	-0.06391934	-0.05499167	-0.1534059	-0.9212429	0.05358055	-0.02492628	-0.009726191	-0.002204056
	-0.1534059	-0.9212429	-0.04963209	0.003414121	-0.00971507	-0.002198291	0.06108676	0.009688677
	0.05358055	-0.02492628	-0.009715071	-0.002198292	-0.06372545	-0.05502477	-0.1537252	-0.9212951
	-0.009726191	-0.002204056	0.06108676	0.009688677	-0.1537252	-0.9212951	-0.04936187	0.003564259
1.9e+08	-0.06829827	-0.05058982	-0.2390925	-0.9008805	0.04956937	-0.03086084	-0.0108436	-0.0009852035
	-0.2390925	-0.9008805	-0.04692284	0.0116224	-0.01082996	-0.0009806835	0.06137623	0.006220961
	0.04956937	-0.03086084	-0.01082996	-0.0009806835	-0.06813585	-0.05065342	-0.2394329	-0.9008956
	-0.0108436	-0.0009852035	0.06137623	0.006220961	-0.2394329	-0.9008956	-0.04665853	0.01177724
2e+08	-0.07184203	-0.04592351	-0.3222898	-0.8726953	0.04446311	-0.03611617	-0.01177147	0.0004995821
	-0.3222898	-0.8726953	-0.04253618	0.01931564	-0.01175551	0.0005018504	0.061123	0.002973613
	0.04446311	-0.03611617	-0.01175551	0.0005018504	-0.07172124	-0.04601545	-0.3226471	-0.8726668
	-0.01177147	0.0004995821	0.061123	0.002973613	-0.3226471	-0.8726668	-0.04227592	0.01948106
2.1e+08	-0.07456827	-0.04114893	-0.4023128	-0.8369643	0.03838439	-0.0405028	-0.01245169	0.002210475
	-0.4023128	-0.8369643	-0.03658559	0.02618843	-0.01243372	0.002209847	0.06039689	3.774507e-05
	0.03838439	-0.0405028	-0.01243372	0.002209847	-0.07449959	-0.04126383	-0.4026803	-0.8368889
	-0.01245169	0.002210475	0.06039689	3.774516e-05	-0.4026803	-0.8368889	-0.03632579	0.02636968
2.2e+08	-0.07652484	-0.03640943	-0.4785006	-0.7940181	0.03148694	-0.04385356	-0.01283625	0.004095132
	-0.4785006	-0.7940181	-0.02923778	0.03196182	-0.01281697	0.004090751	0.05928135	-0.002510831
	0.03148694	-0.04385356	-0.01281697	0.004090751	-0.0765172	-0.03653917	-0.4788712	-0.7938934
	-0.01283625	0.004095132	0.05928135	-0.002510831	-0.4788712	-0.7938934	-0.0289741	0.03216372
2.3e+08	-0.07778477	-0.03182979	-0.5502182	-0.7442423	0.02395167	-0.04602878	-0.01289091	0.006090883
	-0.5502182	-0.7442423	-0.0207085	0.0363924	-0.01287111	0.006082394	0.05787154	-0.004613426
	0.02395167	-0.04602878	-0.01287111	0.006082394	-0.07784534	-0.03196468	-0.550586	-0.7440667
	-0.01289091	0.006090883	0.05787154	-0.004613426	-0.550586	-0.7440667	-0.02043497	0.03661896
2.4e+08	-0.07844178	-0.02751192	-0.6168681	-0.6880768	0.01598226	-0.04692004	-0.01259631	0.008129712
	-0.6168681	-0.6880768	-0.01125381	0.03928127	-0.01257714	0.00811661	0.05627154	-0.006230065
	0.01598226	-0.04692004	-0.01257714	0.00811661	-0.07857608	-0.02764042	-0.6172254	-0.6878513
	-0.01259631	0.008129711	0.05627154	-0.006230065	-0.6172254	-0.6878513	-0.01096375	0.03953524
2.5e+08	-0.07860489	-0.02353117	-0.6778867	-0.6260147	0.007799659	-0.04645397	-0.0119494	0.01014105
	-0.6778867	-0.6260147	-0.001162058	0.04047959	-0.01193198	0.0101232	0.05459059	-0.007341048
	0.007799659	-0.04645397	-0.01193198	0.0101232	-0.07881599	-0.02364117	-0.678226	-0.6257383
	-0.0119494	0.01014105	0.05459059	-0.007341048	-0.678226	-0.6257383	-0.0008474335	0.04076217
2.6e+08	-0.07839207	-0.01993471	-0.7327535	-0.5585972	-0.0003637591	-0.04459545	-0.01096338	0.01205639
	-0.7327535	-0.5585972	0.009256169	0.03989414	-0.01094872	0.01203417	0.05293996	-0.007947741
	-0.0003637593	-0.04459545	-0.01094872	0.01203417	-0.07868122	-0.02001312	-0.7330664	-0.5582735
	-0.01096338	0.01205639	0.05293996	-0.007947741	-0.7330664	-0.5582735	0.009603467	0.04020479
2.7e+08	-0.07792402	-0.01674008	-0.780994	-0.4864153	-0.008270316	-0.04134855	-0.00966578	0.0138132
	-0.780994	-0.4864153	0.0196789	0.0374899	-0.009655249	0.01378696	0.05142909	-0.008072467
	-0.008270316	-0.04134855	-0.00965525	0.01378696	-0.07829018	-0.01677365	-0.7812754	-0.4860476
	-0.00966578	0.0138132	0.05142909	-0.008072467	-0.7812754	-0.4860476	0.02006776	0.0378269
2.8e+08	-0.07731735	-0.01393524	-0.8221888	-0.4101065	-0.01568419	-0.0367581	-0.00809692	0.01535797
	-0.8221888	-0.4101065	0.02978357	0.03329216	-0.008091388	0.01532866	0.05016191	-0.007759088
	-0.01568419	-0.0367581	-0.008091389	0.01532866	-0.07775705	-0.01391104	-0.8224331	-0.409699
	-0.008096921	0.01535797	0.05016191	-0.007759088	-0.8224331	-0.409699	0.03022274	0.0336519
2.9e+08	-0.07667823	-0.01148108	-0.8559772	-0.3303502	-0.02237819	-0.03090919	-0.006306111	0.01664936
	-0.8559772	-0.3303502	0.03925793	0.02738555	-0.006306732	0.01661808	0.04923248	-0.007071221
	-0.02237819	-0.03090918	-0.006306732	0.01661808	-0.07718618	-0.01138624	-0.8561791	-0.3299078
	-0.006306111	0.01664936	0.04923248	-0.007071221	-0.8561791	-0.3299078	0.03975599	0.02776225
3e+08	-0.07609634	-0.009314004	-0.8820619	-0.2478602	-0.02814046	-0.02392509	-0.004349467	0.01765923
	-0.8820619	-0.2478602	0.04781218	0.01990998	-0.004356913	0.01762743	0.04872141	-0.006091025
	-0.02814046	-0.02392509	-0.004356913	0.01762743	-0.07666518	-0.00913658	-0.8822167	-0.2473878
	-0.004349467	0.01765923	0.04872141	-0.006091025	-0.8822167	-0.2473878	0.04837693	0.02029598
3.1e+08	-0.0756397	-0.00735068	-0.9002178	-0.1633805	-0.03278171	-0.01596489	-0.002285009	0.01837386
	-0.9002178	-0.1633805	0.05518867	0.01105651	-0.002299323	0.01834302	0.04869249	-0.004915689
	-0.03278171	-0.01596489	-0.002299323	0.01834302	-0.07626023	-0.007079181	-0.9003202	-0.1628854
	-0.002285009	0.01837386	0.04869249	-0.004915689	-0.9003202	-0.1628854	0.05582615	0.01144236
3.2e+08	-0.07535054	-0.005492935	-0.9102909	-0.07768026	-0.036141	-0.007219063	-0.0001690908	0.01879332
	-0.9102909	-0.07768026	0.06117015	0.001059813	-0.0001901811	0.01876516	0.04918913	-0.00365523
	-0.036141	-0.007219063	-0.0001901812	0.01876516	-0.07601101	-0.005117729	-0.9103408	-0.07716643
	-0.0001690909	0.01879332	0.04918913	-0.00365523	-0.9103408	-0.07716643	0.06188591	0.001434523
3.3e+08	-0.07524212	-0.003634997	-0.9122062	0.008461698	-0.03809074	0.002095759	0.001947184	0.01892993
	-0.9122062	0.008461698	0.06558886	-0.009811083	0.001919276	0.01890628	0.05023187	-0.002427396
	-0.03809074	0.002095759	0.001919276	0.01890628	-0.07592924	-0.003147587	-0.9122015	0.008986217
	0.001947184	0.01892993	0.05023187	-0.002427396	-0.9122015	0.008986217	0.06638602	-0.009459556
3.4e+08	-0.07529701	-0.001670045	-0.9059689	0.09425671	-0.03854178	0.01174318	0.004019787	0.01880624
	-0.9059689	0.09425671	0.06833108	-0.02126187	0.00398653	0.01878862	0.05181766	-0.001353186
	-0.03854178	0.01174318	0.00398653	0.01878862	-0.07599596	-0.001064381	-0.9059098	0.09478839
	0.004019787	0.01880624	0.05181766	-0.001353186	-0.9059098	0.09478839	0.06921098	-0.02094683
3.5e+08	-0.07546785	0.0005020544	-0.8916644	0.1789264	-0.03744544	0.0214737	0.006015377	0.01845198
	-0.8916644	0.1789264	0.06934141	-0.03298541	0.005978181	0.01844177	0.05391852	-0.0005524997
	-0.03744544	0.0214737	0.00597818	0.01844177	-0.07616249	0.001230391	-0.8915489	0.1794558
	0.006015376	0.01845198	0.05391852	-0.0005524997	-0.8915489	0.1794558	0.07030215	-0.03272069
3.6e+08	-0.07567897	0.002968035	-0.8694562	0.2617014	-0.03479601	0.03103221	0.007911424	0.01790062
	-0.8694562	0.2617014	0.06862282	-0.0446727	0.007871823	0.01789913	0.05648252	-0.0001380991
	-0.03479601	0.03103221	0.007871823	0.01789913	-0.07635199	0.003820412	-0.869285	0.2622236
	0.007911424	0.01790062	0.05648252	-0.0001380991	-0.869285	0.2622236	0.06966077	-0.04447182
3.7e+08	-0.07582999	0.005793645	-0.8395836	0.3418392	-0.03063045	0.04016598	0.00969617	0.01718625
	-0.8395836	0.3418392	0.06623625	-0.05602434	0.009656501	0.01719399	0.05943566	-0.0002113577
	-0.03063045	0.04016598	0.009656501	0.01719399	-0.07646357	0.006768757	-0.8393587	0.34235
	0.00969617	0.01718625	0.05943566	-0.0002113577	-0.8393587	0.34235	0.06734516	-0.05590087
3.8e+08	-0.07580089	0.009018863	-0.8023592	0.41863	-0.02502695	0.04863119	0.01136887	0.01633965
	-0.8023592	0.41863	0.06229697	-0.06676141	0.01133085	0.01635712	0.06268429	-0.0008579381
	-0.02502695	0.04863119	0.01133085	0.01635712	-0.07637699	0.0101128	-0.8020808	0.4191219
	0.01136887	0.01633965	0.06268429	-0.0008579381	-0.8020808	0.4191219	0.06346776	-0.06672799
3.9e+08	-0.07545738	0.01265267	-0.7581626	0.4913999	-0.0181034	0.05620036	0.01293585	0.01538698
	-0.7581626	0.4913999	0.0569682	-0.07663567	0.01290252	0.01541316	0.06611912	-0.002143993
	-0.0181034	0.05620036	0.01290252	0.01541316	-0.07595877	0.01385772	-0.7578353	0.4918697
	0.01293585	0.01538698	0.06611912	-0.002143993	-0.7578353	0.4918697	0.05819006	-0.07670283
4e+08	-0.07465966	0.0166698	-0.7074364	0.5595236	-0.0100126	0.06266836	0.0144105	0.01434578
	-0.7074364	0.5595236	0.05045489	-0.08543709	0.01438379	0.01438011	0.06961928	-0.004113507
	-0.0100126	0.06266836	0.01438379	0.01438011	-0.07507002	0.01797616	-0.7070598	0.5599664
	0.0144105	0.01434578	0.06961928	-0.004113507	-0.7070598	0.5599664	0.05171447	-0.08561434
4.1e+08	-0.07327015	0.0210099	-0.6506707	0.62243	-0.0009384282	0.06785742	0.01580888	0.01322526
	-0.6506707	0.62243	0.04299396	-0.09300182	0.01579065	0.01326622	0.07305743	-0.006786141
	-0.0009384282	0.06785742	0.01579065	0.01326622	-0.07357428	0.02240468	-0.6502477	0.6228425
	0.01580888	0.01322526	0.07305743	-0.006786141	-0.6502477	0.6228425	0.04427647	-0.09329609
4.2e+08	-0.07115959	0.02557692	-0.5884101	0.6796	0.008909407	0.0716221	0.01714669	0.01202612
	-0.5884101	0.6796	0.03484534	-0.09921536	0.01713872	0.01207134	0.07630398	-0.01015797
	0.008909407	0.0716221	0.01713872	0.01207134	-0.07134434	0.02704456	-0.587944	0.6799768
	0.01714669	0.01202612	0.07630398	-0.01015797	-0.587944	0.6799768	0.03613495	-0.09963069
4.3e+08	-0.06821736	0.03024201	-0.5212334	0.7305747	0.01930151	0.0738518	0.01843728	0.01073959
	-0.5212334	0.7305747	0.0262814	-0.1040162	0.01844072	0.01078696	0.07923271	-0.01420002
	0.01930151	0.0738518	0.01844072	0.01078696	-0.06827208	0.03176499	-0.5207267	0.7309126
	0.01843728	0.01073959	0.07923271	-0.01420002	-0.5207267	0.7309126	0.027561	-0.1045543
4.4e+08	-0.06435766	0.03484721	-0.449753	0.7749547	0.02999408	0.07447329	0.01968803	0.00935077
	-0.449753	0.7749547	0.01757657	-0.107396	0.01970339	0.00939719	0.0817245	-0.01886123
	0.02999408	0.07447329	0.01970339	0.00939719	-0.06427414	0.0364058	-0.4492093	0.7752496
	0.01968803	0.00935077	0.0817245	-0.01886123	-0.4492093	0.7752496	0.01882951	-0.1080553
4.5e+08	-0.0595256	0.03920929	-0.3746108	0.8123985	0.04073529	0.07345235	0.02089889	0.00783963
	-0.3746108	0.8123985	0.008997733	-0.1093982	0.02092611	0.007882182	0.08367194	-0.02406965
	0.04073529	0.07345235	0.02092611	0.007882182	-0.05929871	0.04078248	-0.3740333	0.8126472
	0.02089889	0.00783963	0.08367194	-0.02406965	-0.3740333	0.8126472	0.01020755	-0.1101744
4.6e+08	-0.05370312	0.04312734	-0.2964679	0.8426264	0.05127114	0.07079361	0.02206089	0.006183403
	-0.2964679	0.8426264	0.0007945362	-0.1101157	0.02209914	0.006219573	0.08498228	-0.02973588
	0.05127114	0.07079361	0.02209914	0.006219573	-0.05333119	0.04469363	-0.2958586	0.8428253
	0.02206089	0.006183403	0.08498228	-0.02973588	-0.2958586	0.8428253	0.001945511	-0.1110016
4.7e+08	-0.04691425	0.04639076	-0.2159987	0.8654218	0.06135159	0.06654061	0.02315543	0.004361088
	-0.2159987	0.8654218	-0.006809095	-0.1096849	0.0232032	0.004387844	0.08558034	-0.03575559
	0.06135159	0.06654061	0.0232032	0.004387844	-0.04639826	0.04792733	-0.2153624	0.8655658
	0.02315543	0.004361088	0.08558034	-0.03575559	-0.2153624	0.8655658	-0.005730837	-0.1106707
4.8e+08	-0.03922447	0.04878587	-0.1338906	0.8806186	0.07073529	0.0607743	0.024155	0.002353637
	-0.1338906	0.8806186	-0.01362192	-0.108281	0.02421	0.002369148	0.08541019	-0.04201379
	0.07073529	0.0607743	0.02421	0.002369147	-0.03856994	0.05027032	-0.1332321	0.8807074
	0.024155	0.002353637	0.08541019	-0.04201379	-0.1332321	0.8807074	-0.01262849	-0.1093546
4.9e+08	-0.03074506	0.05010457	-0.05084363	0.8881155	0.07919618	0.05361168	0.02502365	0.0001497944
	-0.05084363	0.8881155	-0.01949202	-0.1061102	0.02508324	0.0001517696	0.08443664	-0.04838803
	0.07919618	0.05361168	0.02508324	0.0001517696	-0.02996031	0.05151538	-0.05016458	0.8881456
	0.02502365	0.0001497944	0.08443664	-0.04838803	-0.05016458	0.8881456	-0.01859325	-0.1072577
5e+08	-0.02163113	0.05015561	0.03244733	0.8878694	0.08652725	0.04520255	0.0257189	-0.002254726
	0.03244733	0.8878694	-0.02431147	-0.1034022	0.02578009	-0.002266987	0.08264585	-0.05475224
	0.08652725	0.04520255	0.02578009	-0.002266987	-0.02072792	0.05147159	0.03313881	0.8878365
	0.0257189	-0.002254726	0.08264585	-0.05475224	0.03313881	0.8878365	-0.0235143	-0.1046082
5.1e+08	-0.01207832	0.04876956	0.1152772	0.8798894	0.09254564	0.03572763	0.02619473	-0.004852271
	0.1152772	0.8798894	-0.02801919	-0.1004015	0.02625408	-0.004879215	0.08004511	-0.0609805
	0.09254564	0.03572763	0.02625408	-0.004879215	-0.01107206	0.04997208	0.1159774	0.8797933
	0.02619473	-0.004852271	0.08004511	-0.0609805	0.1159774	0.8797933	-0.02732764	-0.1016495
5.2e+08	-0.002321046	0.04581009	0.1969452	0.8642486	0.09709808	0.02539355	0.02640317	-0.007624878
	0.1969452	0.8642486	-0.0306031	-0.09735802	0.02645717	-0.007666511	0.07666275	-0.06695027
