!$
! Info: Touchstone file created by Circ.  Input file=Intel_C2M_200G_6p0in_202208016_staggered.circ
!$
# Hz S RI R 50
0	0.01903998	6.804628e-24	-8.835975e-05	1.082095e-20	0.0003335648	5.746123e-22	-8.404173e-05	1.029214e-20
	-8.835985e-05	1.082096e-20	0.01848521	3.660962e-24	-9.552217e-05	1.169809e-20	0.00010942	2.825893e-22
	0.000333633	5.750152e-22	-9.552226e-05	1.16981e-20	0.0190412	6.948443e-24	-8.838521e-05	1.082407e-20
	-8.404172e-05	1.029214e-20	0.0001094776	2.827168e-22	-8.838512e-05	1.082406e-20	0.01848316	3.467987e-24
1e+07	0.0229862	-0.002128862	-0.0005063748	-6.905907e-05	0.001194706	0.006029314	-5.306157e-05	-0.0001072833
	-0.0005063748	-6.905907e-05	0.02264885	-0.002529079	-0.0007203126	6.585685e-05	0.001565447	0.006011714
	0.001194706	0.006029314	-0.0007203126	6.585685e-05	0.02271024	-0.002025515	-0.0003736144	-8.348036e-05
	-5.306157e-05	-0.0001072833	0.001565447	0.006011714	-0.0003736144	-8.348036e-05	0.02251292	-0.002500354
2e+07	0.02536653	-0.008039696	-0.0004603612	-0.0003398249	0.002877547	0.01153159	-7.732053e-05	-0.0001776342
	-0.0004603611	-0.0003398249	0.02539542	-0.008824562	-0.0006796314	-0.0001726389	0.003631299	0.01124838
	0.002877633	0.01153149	-0.0006796314	-0.0001726389	0.02522656	-0.007763435	-0.0003641886	-0.0002621145
	-7.732052e-05	-0.0001776341	0.003631309	0.01124836	-0.0003641886	-0.0002621145	0.02529533	-0.008717105
3e+07	0.02510606	-0.01549131	-0.0004589268	-0.00047323	0.005456005	0.0165477	-0.0001164216	-0.000241891
	-0.0004589268	-0.00047323	0.02619721	-0.01667941	-0.0006602237	-0.0002660092	0.006706091	0.01602064
	0.005455982	0.01654768	-0.0006602237	-0.0002660092	0.02508927	-0.01515363	-0.0003899386	-0.0003720964
	-0.0001164216	-0.000241891	0.006706067	0.01602068	-0.0003899386	-0.0003720964	0.02612683	-0.01652052
4e+07	0.0228554	-0.02286805	-0.0004894333	-0.0005695037	0.008766206	0.0210287	-0.0001812011	-0.0002925503
	-0.0004894333	-0.0005695037	0.02517667	-0.02499057	-0.0006572063	-0.0003336132	0.01072969	0.02000087
	0.008766207	0.0210287	-0.0006572063	-0.0003336132	0.022946	-0.02250698	-0.0004405814	-0.0004526656
	-0.0001812011	-0.0002925503	0.01072969	0.02000089	-0.0004405814	-0.0004526656	0.02514369	-0.02479427
5e+07	0.01887385	-0.02971203	-0.0005430659	-0.0006405048	0.01272564	0.02484268	-0.0002557172	-0.0003313565
	-0.0005430659	-0.0006405048	0.02256706	-0.03318327	-0.0006677407	-0.0003920812	0.01550966	0.0230583
	0.01272564	0.02484269	-0.0006677407	-0.0003920812	0.01905994	-0.02935323	-0.0005098378	-0.0005108549
	-0.0002557172	-0.0003313565	0.01550967	0.02305831	-0.0005098378	-0.0005108549	0.02257377	-0.0329599
6e+07	0.0134029	-0.0355985	-0.0006135376	-0.0006893462	0.0171977	0.02789871	-0.0003378475	-0.00035763
	-0.0006135376	-0.0006893462	0.01854969	-0.04092491	-0.0006919501	-0.0004471247	0.02085553	0.0250645
	0.0171977	0.02789872	-0.0006919501	-0.0004471247	0.01367229	-0.03526197	-0.0005926589	-0.000548158
	-0.0003378475	-0.00035763	0.02085554	0.02506449	-0.0005926588	-0.000548158	0.01859735	-0.04068338
7e+07	0.006756793	-0.04020381	-0.000735887	-0.0006864501	0.02203462	0.03013568	-0.0004250989	-0.0003700372
	-0.000735887	-0.0006864501	0.01330303	-0.04794305	-0.0007305752	-0.0004998641	0.02655091	0.02592919
	0.02203462	0.03013568	-0.0007305752	-0.0004998641	0.007095449	-0.03990578	-0.0006845209	-0.0005648655
	-0.0004250989	-0.0003700372	0.02655091	0.02592918	-0.0006845209	-0.0005648655	0.01339205	-0.04769222
8e+07	-0.0007187327	-0.04330672	-0.0009019672	-0.0006161451	0.02708183	0.0315215	-0.0005150668	-0.0003680634
	-0.0009019672	-0.0006161451	0.007040118	-0.05401851	-0.000784932	-0.000549464	0.03236762	0.02560522
	0.02708183	0.0315215	-0.000784932	-0.000549464	-0.0003268935	-0.04306047	-0.00078107	-0.0005610049
	-0.0005150668	-0.0003680634	0.03236762	0.02560522	-0.00078107	-0.0005610049	0.007169832	-0.0537671
9e+07	-0.00866273	-0.04476741	-0.001050158	-0.0005143868	0.03218555	0.03205441	-0.0006067187	-0.0003517235
	-0.001050158	-0.0005143868	3.802188e-06	-0.05899139	-0.0008568966	-0.0005938134	0.03807469	0.02408868
	0.03218555	0.03205441	-0.0008568966	-0.0005938135	-0.008236089	-0.04458276	-0.0008885778	-0.0005245331
	-0.0006067187	-0.0003517235	0.0380747	0.02408869	-0.0008885778	-0.0005245331	0.0001715308	-0.05874809
1e+08	-0.01667192	-0.04449491	-0.00116561	-0.0003769563	0.03720176	0.03176015	-0.0006966432	-0.0003204343
	-0.00116561	-0.0003769563	-0.00751312	-0.06273184	-0.0009445526	-0.000627861	0.04344884	0.02141677
	0.03720176	0.03176015	-0.0009445526	-0.000627861	-0.0162369	-0.04438276	-0.001008503	-0.0004314155
	-0.0006966432	-0.0003204343	0.04344884	0.02141677	-0.001008503	-0.0004314155	-0.007312476	-0.06250523
1.1e+08	-0.02433819	-0.042733	-0.001235624	-0.0002647595	0.04197948	0.03067564	-0.0007849427	-0.0002792413
	-0.001235624	-0.0002647595	-0.01525506	-0.06548598	-0.001058946	-0.0006417033	0.0482747	0.01764466
	0.04197948	0.03067564	-0.001058946	-0.0006417032	-0.02392592	-0.04264624	-0.001101224	-0.0003428248
	-0.0007849427	-0.0002792413	0.0482747	0.01764465	-0.001101224	-0.0003428248	-0.01498726	-0.0653238
1.2e+08	-0.03156796	-0.03944004	-0.00131255	-0.0001517082	0.04638765	0.02889555	-0.0008746023	-0.0002243841
	-0.00131255	-0.0001517082	-0.02323036	-0.0670611	-0.001195218	-0.0006398565	0.05231541	0.0129349
	0.04638765	0.02889555	-0.001195218	-0.0006398566	-0.03116611	-0.03937785	-0.001194001	-0.0002458006
	-0.0008746023	-0.0002243841	0.05231541	0.0129349	-0.001194001	-0.0002458006	-0.0229604	-0.06695173
1.3e+08	-0.03799649	-0.03469604	-0.001384525	-2.83937e-05	0.05032915	0.02651807	-0.0009661318	-0.000156141
	-0.001384525	-2.83937e-05	-0.0311597	-0.0674524	-0.001348632	-0.0006149319	0.05542139	0.007440275
	0.05032915	0.02651807	-0.001348632	-0.0006149319	-0.03760699	-0.03465914	-0.001279736	-0.0001360137
	-0.0009661318	-0.000156141	0.05542139	0.007440273	-0.001279736	-0.0001360137	-0.03090372	-0.06737172
1.4e+08	-0.04332972	-0.02867689	-0.001447814	0.0001063495	0.05372512	0.02365424	-0.001051775	-7.13905e-05
	-0.001447814	0.0001063495	-0.03883445	-0.06672689	-0.001514667	-0.0005614654	0.05746366	0.001340894
	0.05372512	0.02365424	-0.001514667	-0.0005614654	-0.04295727	-0.0286625	-0.001355819	-1.364101e-05
	-0.001051775	-7.13905e-05	0.05746366	0.001340893	-0.001355819	-1.364101e-05	-0.03858989	-0.06666395
1.5e+08	-0.04732338	-0.0216153	-0.001499763	0.0002525605	0.05651988	0.02042372	-0.001129258	2.937873e-05
	-0.001499763	0.0002525605	-0.04607811	-0.06498426	-0.001687662	-0.000475022	0.05834423	-0.005162934
	0.05651988	0.02042373	-0.001687662	-0.000475022	-0.04697263	-0.02161814	-0.001420351	0.0001206133
	-0.001129258	2.937873e-05	0.05834423	-0.005162934	-0.001420351	0.0001206133	-0.04584159	-0.06493858
1.6e+08	-0.04978766	-0.01378658	-0.001538122	0.0004095866	0.05868122	0.01695098	-0.001196253	0.0001453315
	-0.001538122	0.0004095867	-0.05274454	-0.06234925	-0.001860862	-0.0003525494	0.05800071	-0.01185686
	0.05868122	0.01695098	-0.001860862	-0.0003525494	-0.049462	-0.01379936	-0.001471786	0.0002657464
	-0.001196253	0.0001453315	0.05800071	-0.01185686	-0.001471786	0.0002657464	-0.05251631	-0.06232538
1.7e+08	-0.05059184	-0.005495603	-0.001560871	0.0005764189	0.06019995	0.01336017	-0.001250458	0.0002753866
	-0.001560871	0.0005764189	-0.05871881	-0.05896608	-0.002026777	-0.0001925864	0.05640829	-0.01851901
	0.06019995	0.01336017	-0.002026777	-0.0001925864	-0.05029261	-0.005510272	-0.001508733	0.0004206195
	-0.001250458	0.0002753866	0.05640829	-0.01851901	-0.001508733	0.0004206195	-0.05850367	-0.05896901
1.8e+08	-0.04966635	0.002935583	-0.001566182	0.0007516532	0.06108929	0.009772044	-0.001289629	0.0004181172
	-0.001566182	0.0007516532	-0.06391934	-0.05499167	-0.002177512	4.759495e-06	0.05358055	-0.02492628
	0.06108929	0.009772044	-0.002177512	4.759495e-06	-0.04939334	0.00292719	-0.001530029	0.0005839584
	-0.001289629	0.0004181172	0.05358055	-0.02492628	-0.001530029	0.0005839584	-0.06372545	-0.05502477
1.9e+08	-0.04700429	0.01117861	-0.001552348	0.0009336218	0.0613832	0.006300669	-0.001311678	0.000571787
	-0.001552348	0.0009336218	-0.06829827	-0.05058982	-0.002305125	0.0002379141	0.04956937	-0.03086084
	0.0613832	0.006300669	-0.002305125	0.0002379141	-0.04675553	0.01118454	-0.001534484	0.000754392
	-0.001311678	0.000571787	0.04956937	-0.03086084	-0.001534484	0.000754392	-0.06813585	-0.05065342
2e+08	-0.04265931	0.01891092	-0.001517213	0.001119179	0.06113402	0.003049601	-0.001314728	0.000734294
	-0.001517213	0.001119179	-0.07184203	-0.04592351	-0.002391698	0.000538441	0.04446311	-0.03611617
	0.06113402	0.003049601	-0.002391698	0.000538441	-0.04243139	0.01893932	-0.001520969	0.0009289725
	-0.001314728	0.000734294	0.04446311	-0.03611617	-0.001520969	0.0009289725	-0.07172124	-0.04601545
2.1e+08	-0.03674471	0.0258268	-0.001460377	0.001307073	0.06041159	0.0001098784	-0.001297053	0.0009032441
	-0.001460377	0.001307073	-0.07456827	-0.04114893	-0.002434751	0.0008621264	0.03838439	-0.0405028
	0.06041159	0.0001098785	-0.002434751	0.0008621264	-0.03653196	0.02588446	-0.001488996	0.001107687
	-0.001297053	0.0009032441	0.03838439	-0.0405028	-0.001488996	0.001107687	-0.07449959	-0.04126383
2.2e+08	-0.02942678	0.0316467	-0.001380777	0.001494831	0.05929935	-0.002442646	-0.001257264	0.001075934
	-0.001380777	0.001494831	-0.07652484	-0.03640943	-0.002429482	0.001201577	0.03148694	-0.04385356
	0.05929935	-0.002442646	-0.002429482	0.001201577	-0.02922264	0.03173978	-0.00143756	0.001288949
	-0.001257264	0.001075934	0.03148694	-0.04385356	-0.00143756	0.001288949	-0.0765172	-0.03653917
2.3e+08	-0.02092084	0.03612648	-0.001277685	0.001679675	0.05789247	-0.004549295	-0.001194373	0.001249397
	-0.001277685	0.001679675	-0.07778477	-0.03182979	-0.002372776	0.001548293	0.02395167	-0.04602878
	0.05789247	-0.004549295	-0.002372776	0.001548293	-0.02071712	0.03625998	-0.001365755	0.001470981
	-0.001194373	0.001249397	0.02395167	-0.04602878	-0.001365755	0.001470981	-0.07784534	-0.03196468
2.4e+08	-0.01148269	0.03906644	-0.001150628	0.00185872	0.05629501	-0.006170082	-0.001107801	0.001420455
	-0.001150628	0.00185872	-0.07844178	-0.02751192	-0.002263258	0.001893331	0.01598226	-0.04692004
	0.05629501	-0.006170082	-0.002263258	0.001893331	-0.01127033	0.0392439	-0.001272706	0.001651808
	-0.001107801	0.001420455	0.01598226	-0.04692004	-0.001272706	0.001651808	-0.07857608	-0.02764042
2.5e+08	-0.001400356	0.04031687	-0.0009996252	0.002028811	0.05461619	-0.007285309	-0.0009973805	0.00158582
	-0.0009996252	0.002028811	-0.07860489	-0.02353117	-0.002101355	0.00222761	0.007799659	-0.04645397
	0.05461619	-0.007285309	-0.002101355	0.00222761	-0.001168905	0.04053991	-0.001157712	0.001829238
	-0.0009973805	0.00158582	0.007799659	-0.04645397	-0.001157712	0.001829238	-0.07881599	-0.02364117
2.6e+08	0.009015725	0.03978359	-0.0008250626	0.002186702	0.05296723	-0.007896292	-0.0008635362	0.001742121
	-0.0008250626	0.002186702	-0.07839207	-0.01993471	-0.001889331	0.002542402	-0.0003637591	-0.04459545
	0.05296723	-0.007896292	-0.001889331	0.002542402	0.009276723	0.04005175	-0.001020205	0.002000841
	-0.0008635362	0.001742121	-0.0003637593	-0.04459545	-0.001020205	0.002000841	-0.07868122	-0.02001312
2.7e+08	0.01944356	0.03743057	-0.0006278116	0.002329105	0.05145759	-0.008025327	-0.00070707	0.001886036
	-0.0006278116	0.002329105	-0.07792402	-0.01674008	-0.001631175	0.00282966	-0.008270316	-0.04134855
	0.05145759	-0.008025327	-0.001631175	0.00282966	0.01974535	0.03774188	-0.0008598436	0.002163954
	-0.00070707	0.001886036	-0.008270316	-0.04134855	-0.0008598436	0.002163954	-0.07829018	-0.01677365
2.8e+08	0.02956048	0.03328201	-0.0004092459	0.002452765	0.05019115	-0.007716214	-0.0005294079	0.00201431
	-0.0004092459	0.002452765	-0.07731735	-0.01393524	-0.001332138	0.003082468	-0.01568419	-0.0367581
	0.05019115	-0.007716214	-0.001332138	0.003082468	0.02991403	0.03363233	-0.0006766246	0.002315681
	-0.0005294079	0.00201431	-0.01568419	-0.0367581	-0.0006766246	0.002315681	-0.07775705	-0.01391104
2.9e+08	0.03905389	0.02742155	-0.0001712778	0.002554503	0.049262	-0.00703249	-0.0003324207	0.002123929
	-0.0001712778	0.002554503	-0.07667823	-0.01148108	-0.0009986095	0.003295234	-0.02237819	-0.03090919
	0.049262	-0.00703249	-0.0009986095	0.003295234	0.03946982	0.02780412	-0.0004708292	0.002452943
	-0.0003324207	0.002123929	-0.02237819	-0.03090918	-0.0004708292	0.002452943	-0.07718618	-0.01138624
3e+08	0.04763352	0.01998802	8.370354e-05	0.002631358	0.04875074	-0.006056268	-0.000118427	0.002212165
	8.370354e-05	0.002631358	-0.07609634	-0.009314004	-0.0006377221	0.003463857	-0.02814046	-0.02392509
	0.04875074	-0.006056268	-0.0006377221	0.003463857	0.04812144	0.02039403	-0.0002432171	0.002572483
	-0.000118427	0.002212165	-0.02814046	-0.02392509	-0.0002432171	0.002572483	-0.07666518	-0.00913658
3.1e+08	0.05504099	0.01117149	0.0003528043	0.002680697	0.04872119	-0.004884673	0.0001099185	0.002276624
	0.0003528043	0.002680697	-0.0756397	-0.00735068	-0.0002568159	0.003585783	-0.03278171	-0.01596489
	0.04872119	-0.004884673	-0.0002568159	0.003585783	0.05560857	0.01159015	4.881413e-06	0.002670989
	0.0001099185	0.002276624	-0.03278171	-0.01596489	4.881408e-06	0.002670989	-0.07626023	-0.007079181
3.2e+08	0.06105825	0.001205786	0.0006327173	0.002700233	0.04921683	-0.003627661	0.0003495126	0.002315343
	0.0006327173	0.002700233	-0.07535054	-0.005492935	0.000136673	0.003660003	-0.036141	-0.007219063
	0.04921683	-0.003627661	0.000136673	0.003660003	0.06171225	0.001624555	0.0002716904	0.002745129
	0.0003495126	0.002315343	-0.036141	-0.007219063	0.0002716904	0.002745129	-0.07601101	-0.005117729
3.3e+08	0.0655165	-0.009640765	0.0009197375	0.002688167	0.05025826	-0.002402923	0.0005971145	0.002326809
	0.0009197375	0.002688167	-0.07524212	-0.003634997	0.0005359549	0.003686832	-0.03809074	0.002095759
	0.05025826	-0.002402923	0.0005359549	0.003686832	0.06626097	-0.009235584	0.0005548297	0.002791697
	0.0005971145	0.002326809	-0.03809074	0.002095759	0.0005548297	0.002791697	-0.07592924	-0.003147587
3.4e+08	0.06830086	-0.02107442	0.001209848	0.002643262	0.05184249	-0.001331454	0.0008493038	0.002310033
	0.001209848	0.002643262	-0.07529701	-0.001670045	0.0009347204	0.003667744	-0.03854178	0.01174318
	0.05184249	-0.001331454	0.0009347204	0.003667744	0.06913779	-0.02069782	0.0008513468	0.002807724
	0.0008493038	0.002310033	-0.03854178	0.01174318	0.0008513468	0.002807724	-0.07599596	-0.001064381
3.5e+08	0.06935468	-0.03278838	0.001498801	0.002564868	0.05394162	-0.0005331346	0.001102551	0.002264475
	0.001498801	0.002564868	-0.07546785	0.0005020544	0.001327649	0.003605077	-0.03744544	0.0214737
	0.05394162	-0.0005331346	0.001327649	0.003605077	0.07028257	-0.03245587	0.001157655	0.00279058
	0.001102551	0.002264475	-0.03744544	0.0214737	0.001157655	0.00279058	-0.07616249	0.001230391
3.6e+08	0.06867966	-0.04447377	0.001782318	0.002453022	0.05650376	-0.0001207582	0.001353362	0.002190134
	0.001782318	0.002453022	-0.07567897	0.002968035	0.001710499	0.003501586	-0.03479601	0.03103221
	0.05650376	-0.0001207582	0.001710499	0.003501586	0.06969487	-0.04420046	0.001469703	0.002738145
	0.001353362	0.002190134	-0.03479601	0.03103221	0.001469703	0.002738145	-0.07635199	0.003820412
3.7e+08	0.06633537	-0.05583109	0.00205617	0.002308336	0.05945501	-0.0001956876	0.00159841	0.00208739
	0.00205617	0.002308336	-0.07582999	0.005793645	0.002079924	0.003360264	-0.03063045	0.04016598
	0.05945501	-0.0001956876	0.002079924	0.003360264	0.06743151	-0.05563198	0.001783092	0.002648807
	0.00159841	0.00208739	-0.03063045	0.04016598	0.001783092	0.002648807	-0.07646357	0.006768757
3.8e+08	0.06243581	-0.06658107	0.002316235	0.002132132	0.06270171	-0.000843677	0.001834399	0.001957114
	0.002316235	0.002132132	-0.07580089	0.009018863	0.00243339	0.003184051	-0.02502695	0.04863119
	0.06270171	-0.000843677	0.00243339	0.003184051	0.06360344	-0.06647014	0.002092973	0.002521691
	0.001834399	0.001957114	-0.02502695	0.04863119	0.002092973	0.002521691	-0.07637699	0.0101128
3.9e+08	0.05714292	-0.07647482	0.002558707	0.001926285	0.06613462	-0.002130871	0.002058326	0.001800479
	0.002558707	0.001926285	-0.07545738	0.01265267	0.002769148	0.002975531	-0.0181034	0.05620036
	0.06613462	-0.002130871	0.002769148	0.002975531	0.05837073	-0.07646378	0.00239439	0.002356637
	0.002058326	0.001800479	-0.0181034	0.05620036	0.00239439	0.002356637	-0.07595877	0.01385772
4e+08	0.05066057	-0.08530159	0.00278015	0.00169318	0.06963284	-0.004101317	0.002267384	0.001618984
	0.00278015	0.00169318	-0.07465966	0.0166698	0.00308594	0.002736707	-0.0100126	0.06266836
	0.06963284	-0.004101317	0.00308594	0.002736707	0.05193464	-0.08540085	0.00268234	0.002154179
	0.002267384	0.001618984	-0.0100126	0.06266836	0.00268234	0.002154179	-0.07507002	0.01797616
4.1e+08	0.04322475	-0.09289644	0.002977595	0.001435579	0.07306903	-0.006774726	0.00245905	0.001414382
	0.002977595	0.001435579	-0.07327015	0.0210099	0.003382578	0.00246925	-0.0009384282	0.06785742
	0.07306903	-0.006774726	0.003382578	0.00246925	0.04452958	-0.09311382	0.002951829	0.001915752
	0.00245905	0.001414382	-0.0009384282	0.06785742	0.002951829	0.001915752	-0.07357428	0.02240468
4.2e+08	0.03509462	-0.09914377	0.00314857	0.001156588	0.07631358	-0.01014716	0.00263107	0.001188658
	0.00314857	0.001156588	-0.07115959	0.02557692	0.003657994	0.002174025	0.008909407	0.0716221
	0.07631358	-0.01014716	0.003657994	0.002174025	0.03641367	-0.09948397	0.003198175	0.001643386
	0.00263107	0.001188658	0.008909407	0.0716221	0.003198175	0.001643386	-0.07134434	0.02704456
4.3e+08	0.02654203	-0.1039808	0.003291141	0.0008594536	0.0792402	-0.01418966	0.002781472	0.0009437736
	0.003291141	0.0008594536	-0.06821736	0.03024201	0.003910659	0.001851753	0.01930151	0.0738518
	0.0792402	-0.01418966	0.003910659	0.001851753	0.02785749	-0.1044459	0.003417035	0.001339739
	0.002781472	0.0009437736	0.01930151	0.0738518	0.003417035	0.001339739	-0.06827208	0.03176499
4.4e+08	0.01784111	-0.1073977	0.003403868	0.0005475096	0.08172974	-0.01885108	0.002908489	0.0006819576
	0.003403868	0.0005475096	-0.06435766	0.03484721	0.004138677	0.001502679	0.02999408	0.07447329
	0.08172974	-0.01885108	0.004138677	0.001502679	0.01913556	-0.1079868	0.003604417	0.001008232
	0.002908489	0.0006819576	0.02999408	0.07447329	0.003604417	0.001008232	-0.06427414	0.0364058
4.5e+08	0.009258744	-0.1094367	0.00348582	0.0002240361	0.08367479	-0.02405949	0.003010598	0.0004054923
	0.00348582	0.0002240361	-0.0595256	0.03920929	0.004339548	0.001127036	0.04073529	0.07345235
	0.08367479	-0.02405949	0.004339548	0.001127036	0.01051498	-0.1101457	0.00375694	0.0006526575
	0.003010598	0.0004054923	0.04073529	0.07345235	0.00375694	0.0006526575	-0.05929871	0.04078248
4.6e+08	0.001044722	-0.1101892	0.003536433	-0.0001077166	0.08498256	-0.02972537	0.00308648	0.0001166026
	0.003536433	-0.0001077166	-0.05370312	0.04312734	0.004510059	0.000725508	0.05127114	0.07079361
	0.08498256	-0.02972537	0.004510059	0.000725508	0.002246404	-0.1110108	0.003871739	0.0002770424
	0.00308648	0.0001166026	0.05127114	0.07079361	0.003871739	0.0002770424	-0.05333119	0.04469363
4.7e+08	-0.00657647	-0.1097903	0.003555515	-0.0004448363	0.08557789	-0.03574429	0.003134972	-0.0001823491
	0.003555515	-0.0004448363	-0.04691425	0.04639076	0.00464645	0.0002991295	0.06135159	0.06654061
	0.08557789	-0.03574429	0.00464645	0.0002991295	-0.005443963	-0.110715	0.003946563	-0.0001140223
	0.003134972	-0.0001823491	0.06135159	0.06654061	0.003946563	-0.0001140223	-0.04639826	0.04792733
4.8e+08	-0.01341291	-0.108414	0.003543118	-0.0007845314	0.08540494	-0.04200117	0.003155045	-0.0004890711
	0.003543118	-0.0007845314	-0.03922447	0.04878587	0.00474453	-0.0001504928	0.07073529	0.0607743
	0.08540494	-0.04200117	0.00474453	-0.0001504928	-0.01236227	-0.1094296	0.003979731	-0.0005159864
	0.003155045	-0.0004890711	0.07073529	0.0607743	0.003979731	-0.0005159864	-0.03856994	0.05027032
4.9e+08	-0.01931178	-0.1062653	0.00349944	-0.001124148	0.08442856	-0.04837351	0.003145805	-0.0008011864
	0.00349944	-0.001124148	-0.03074506	0.05010457	0.004799771	-0.0006204991	0.07919618	0.05361168
