!$
! Info: Touchstone file created by Circ.  Input file=Intel_C2M_200G_6p0in_202208016_staggered.circ
!$
# Hz S RI R 50
0	0.01847209	3.481632e-24	6.660319e-05	9.191764e-23	0.0001098045	2.842026e-22	6.653725e-05	9.176113e-23
	6.660319e-05	9.191764e-23	0.01848521	3.660962e-24	6.65861e-05	9.185603e-23	0.00010942	2.825893e-22
	0.0001098621	2.843296e-22	6.658609e-05	9.185731e-23	0.01846693	3.328721e-24	6.655043e-05	9.170215e-23
	6.653724e-05	9.176241e-23	0.0001094776	2.827168e-22	6.655043e-05	9.170215e-23	0.01848316	3.467987e-24
1e+07	0.0228807	-0.002314247	1.298295e-05	7.240697e-06	0.001321606	0.005937418	2.320917e-06	1.776077e-05
	1.298295e-05	7.240697e-06	0.02264885	-0.002529079	4.136683e-05	7.331673e-06	0.001565447	0.006011714
	0.001321606	0.005937418	4.136683e-05	7.331673e-06	0.02316729	-0.002313426	1.708392e-05	2.119081e-05
	2.320917e-06	1.776077e-05	0.001565447	0.006011714	1.708392e-05	2.119081e-05	0.02251292	-0.002500354
2e+07	0.02580573	-0.008577548	5.692354e-06	2.018754e-05	0.003411979	0.011194	3.247334e-06	6.212322e-06
	5.692354e-06	2.018754e-05	0.02539542	-0.008824562	2.839049e-05	2.121052e-05	0.003631299	0.01124838
	0.003411988	0.01119398	2.83905e-05	2.121052e-05	0.02598814	-0.008654831	1.272026e-05	1.830681e-05
	3.247335e-06	6.212322e-06	0.003631309	0.01124836	1.272026e-05	1.830681e-05	0.02529533	-0.008717105
3e+07	0.02674658	-0.01646896	1.927358e-05	2.466724e-05	0.006502591	0.01594315	4.705232e-06	3.80315e-06
	1.927358e-05	2.466724e-05	0.02619721	-0.01667941	2.09556e-05	3.207125e-05	0.006706091	0.01602064
	0.006502568	0.01594319	2.095559e-05	3.207125e-05	0.02685273	-0.01651997	1.038363e-05	1.922927e-05
	4.705233e-06	3.80315e-06	0.006706067	0.01602068	1.038363e-05	1.922927e-05	0.02612683	-0.01652052
4e+07	0.02583905	-0.02485161	3.051261e-05	2.389839e-05	0.01053684	0.01989292	6.367117e-06	3.473599e-06
	3.051261e-05	2.389839e-05	0.02517667	-0.02499057	1.599302e-05	3.849822e-05	0.01072969	0.02000087
	0.01053684	0.01989294	1.599302e-05	3.849822e-05	0.02589852	-0.02485254	9.031343e-06	2.032631e-05
	6.367118e-06	3.473598e-06	0.01072969	0.02000089	9.031343e-06	2.032631e-05	0.02514369	-0.02479427
5e+07	0.02331921	-0.0331402	3.952496e-05	1.991079e-05	0.01532383	0.02291843	8.331106e-06	4.052273e-06
	3.952496e-05	1.991079e-05	0.02256706	-0.03318327	2.833028e-05	3.522209e-05	0.01550966	0.0230583
	0.01532383	0.02291844	2.833028e-05	3.522209e-05	0.02335322	-0.03308035	1.363012e-05	1.845663e-05
	8.331106e-06	4.052273e-06	0.01550967	0.02305831	1.363012e-05	1.845663e-05	0.02257377	-0.0329599
6e+07	0.01936874	-0.04099572	4.647578e-05	1.394527e-05	0.02067447	0.02489389	1.009179e-05	4.049119e-06
	4.647578e-05	1.394527e-05	0.01854969	-0.04092491	3.808462e-05	2.929353e-05	0.02085553	0.0250645
	0.02067449	0.02489387	3.808462e-05	2.929353e-05	0.01939624	-0.04087101	1.763658e-05	1.575054e-05
	1.009179e-05	4.049119e-06	0.02085554	0.02506449	1.763658e-05	1.575054e-05	0.01859735	-0.04068338
7e+07	0.01416568	-0.04814104	5.138267e-05	6.648873e-06	0.02637385	0.02573044	1.165226e-05	3.643912e-06
	5.138267e-05	6.648873e-06	0.01330303	-0.04794305	4.523626e-05	2.14744e-05	0.02655091	0.02592919
	0.02637385	0.02573044	4.523626e-05	2.14744e-05	0.01420376	-0.04795252	2.074239e-05	1.24782e-05
	1.165226e-05	3.643912e-06	0.02655091	0.02592918	2.07424e-05	1.24782e-05	0.01339205	-0.04769222
8e+07	0.0079219	-0.05435327	5.423898e-05	-1.542487e-06	0.0321953	0.0253817	1.301099e-05	2.931072e-06
	5.423898e-05	-1.542487e-06	0.007040118	-0.05401851	4.973188e-05	1.229443e-05	0.03236762	0.02560522
	0.0321953	0.02538171	4.973188e-05	1.229443e-05	0.007985952	-0.05410546	2.293207e-05	8.769772e-06
	1.301099e-05	2.931072e-06	0.03236762	0.02560522	2.293207e-05	8.769772e-06	0.007169832	-0.0537671
9e+07	0.0008775668	-0.05947027	5.493902e-05	-1.032588e-05	0.03790951	0.0238442	1.414582e-05	2.001559e-06
	5.493902e-05	-1.032588e-05	3.802188e-06	-0.05899139	5.145702e-05	2.279219e-06	0.03807469	0.02408868
	0.03790952	0.02384421	5.145702e-05	2.279219e-06	0.0009813699	-0.05916964	2.413314e-05	4.762078e-06
	1.414582e-05	2.001558e-06	0.0380747	0.02408869	2.413314e-05	4.762078e-06	0.0001715308	-0.05874809
1e+08	-0.006688047	-0.06336794	5.255788e-05	-2.002464e-05	0.04329417	0.02115535	1.494295e-05	8.990537e-07
	5.255788e-05	-2.002464e-05	-0.00751312	-0.06273184	4.930016e-05	-8.925082e-06	0.04344884	0.02141677
	0.04329417	0.02115535	4.930016e-05	-8.925082e-06	-0.006527095	-0.06301803	2.393007e-05	3.436497e-07
	1.494295e-05	8.990538e-07	0.04344884	0.02141677	2.393007e-05	3.436498e-07	-0.007312476	-0.06250523
1.1e+08	-0.01453018	-0.06621524	4.659098e-05	-2.485101e-05	0.04813951	0.01737172	1.573553e-05	2.89884e-07
	4.659098e-05	-2.485101e-05	-0.01525506	-0.06548598	4.265767e-05	-1.425706e-05	0.0482747	0.01764466
	0.0481395	0.01737172	4.265767e-05	-1.425706e-05	-0.01424847	-0.06590076	2.224566e-05	-2.022947e-06
	1.573553e-05	2.898841e-07	0.0482747	0.01764465	2.224566e-05	-2.022947e-06	-0.01498726	-0.0653238
1.2e+08	-0.02258459	-0.06785564	4.240018e-05	-2.789797e-05	0.05220969	0.0126493	1.724105e-05	-2.501787e-07
	4.240018e-05	-2.789797e-05	-0.02323036	-0.0670611	3.79551e-05	-1.723557e-05	0.05231541	0.0129349
	0.05220969	0.0126493	3.79551e-05	-1.723557e-05	-0.02225961	-0.06758355	2.128e-05	-3.736579e-06
	1.724105e-05	-2.501786e-07	0.05231541	0.0129349	2.128e-05	-3.736579e-06	-0.0229604	-0.06695173
1.3e+08	-0.03058511	-0.06829967	4.045849e-05	-2.94432e-05	0.05535452	0.007138999	1.873601e-05	-1.313738e-06
	4.045849e-05	-2.94432e-05	-0.0311597	-0.0674524	3.401301e-05	-1.933103e-05	0.05542139	0.007440275
	0.05535452	0.007138998	3.401301e-05	-1.933103e-05	-0.03023959	-0.06805525	2.056234e-05	-5.263738e-06
	1.873601e-05	-1.313738e-06	0.05542139	0.007440273	2.056234e-05	-5.263738e-06	-0.03090372	-0.06737172
1.4e+08	-0.03832592	-0.06761834	4.058013e-05	-3.018967e-05	0.05744459	0.001018808	2.014344e-05	-2.901318e-06
	4.058013e-05	-3.018967e-05	-0.03883445	-0.06672689	3.055828e-05	-2.095136e-05	0.05746366	0.001340894
	0.05744459	0.001018807	3.055828e-05	-2.095136e-05	-0.03796317	-0.06739708	1.997249e-05	-6.735968e-06
	2.014344e-05	-2.901318e-06	0.05746366	0.001340893	1.997249e-05	-6.735968e-06	-0.03858989	-0.06666395
1.5e+08	-0.04563186	-0.06591332	4.045831e-05	-3.152231e-05	0.0583812	-0.005513089	2.140555e-05	-4.889138e-06
	4.045831e-05	-3.152231e-05	-0.04607811	-0.06498426	2.747087e-05	-2.21938e-05	0.05834423	-0.005162934
	0.05838119	-0.005513089	2.747087e-05	-2.21938e-05	-0.0452541	-0.06571927	1.943577e-05	-8.24077e-06
	2.140555e-05	-4.889138e-06	0.05834423	-0.005162934	1.943577e-05	-8.24077e-06	-0.04584159	-0.06493858
1.6e+08	-0.05235759	-0.06331049	4.005368e-05	-3.337063e-05	0.05810075	-0.01224437	2.245138e-05	-7.280089e-06
	4.005368e-05	-3.337063e-05	-0.05274454	-0.06234925	2.466395e-05	-2.320753e-05	0.05800071	-0.01185686
	0.05810075	-0.01224437	2.466395e-05	-2.320753e-05	-0.05197054	-0.06315118	1.888359e-05	-9.829633e-06
	2.245138e-05	-7.280089e-06	0.05800071	-0.01185686	1.888359e-05	-9.829633e-06	-0.05251631	-0.06232538
1.7e+08	-0.05838865	-0.05995473	3.925032e-05	-3.574788e-05	0.0565769	-0.01895497	2.318789e-05	-1.007744e-05
	3.925032e-05	-3.574788e-05	-0.05871881	-0.05896608	2.311508e-05	-2.3871e-05	0.05640829	-0.01851901
	0.0565769	-0.01895497	2.311508e-05	-2.3871e-05	-0.05800236	-0.05983691	1.852515e-05	-1.152315e-05
	2.318789e-05	-1.007744e-05	0.05640829	-0.01851901	1.852515e-05	-1.152315e-05	-0.05850367	-0.05896901
1.8e+08	-0.06364368	-0.05600339	3.796851e-05	-3.855053e-05	0.05382119	-0.02542334	2.35205e-05	-1.325605e-05
	3.796851e-05	-3.855053e-05	-0.06391934	-0.05499167	2.208432e-05	-2.457326e-05	0.05358055	-0.02492628
	0.05382119	-0.02542334	2.208432e-05	-2.457326e-05	-0.06327126	-0.05593099	1.830004e-05	-1.334678e-05
	2.35205e-05	-1.325605e-05	0.05358055	-0.02492628	1.830004e-05	-1.334678e-05	-0.06372545	-0.05502477
1.9e+08	-0.06807489	-0.05162052	3.61622e-05	-4.165655e-05	0.0498832	-0.03143285	2.338469e-05	-1.674459e-05
	3.61622e-05	-4.165655e-05	-0.06829827	-0.05058982	2.07517e-05	-2.547156e-05	0.04956937	-0.03086084
	0.0498832	-0.03143285	2.07517e-05	-2.547156e-05	-0.06773109	-0.05159351	1.770965e-05	-1.534281e-05
	2.338469e-05	-1.674459e-05	0.04956937	-0.03086084	1.770965e-05	-1.534281e-05	-0.06813585	-0.05065342
2e+08	-0.07166856	-0.04696937	3.37562e-05	-4.497998e-05	0.04484864	-0.03677778	2.269961e-05	-2.048397e-05
	3.37562e-05	-4.497998e-05	-0.07184203	-0.04592351	1.908942e-05	-2.650261e-05	0.04446311	-0.03611617
	0.04484864	-0.03677778	1.908942e-05	-2.650261e-05	-0.07136753	-0.04698435	1.672085e-05	-1.745484e-05
	2.269961e-05	-2.048397e-05	0.04446311	-0.03611617	1.672085e-05	-1.745484e-05	-0.07172124	-0.04601545
2.1e+08	-0.0744421	-0.04220636	3.067712e-05	-4.842515e-05	0.03883731	-0.04126887	2.138979e-05	-2.439639e-05
	3.067712e-05	-4.842515e-05	-0.07456827	-0.04114893	1.706553e-05	-2.76176e-05	0.03838439	-0.0405028
	0.03883731	-0.04126887	1.706553e-05	-2.76176e-05	-0.07419766	-0.04225608	1.530519e-05	-1.962061e-05
	2.138979e-05	-2.439639e-05	0.03838439	-0.0405028	1.530519e-05	-1.962061e-05	-0.07449959	-0.04126383
2.2e+08	-0.07644302	-0.03747516	2.686399e-05	-5.187517e-05	0.03199995	-0.0447387	1.938995e-05	-2.838662e-05
	2.686399e-05	-5.187517e-05	-0.07652484	-0.03640943	1.46547e-05	-2.875309e-05	0.03148694	-0.04385356
	0.03199995	-0.0447387	1.46547e-05	-2.875309e-05	-0.07626674	-0.03754914	1.344106e-05	-2.177361e-05
	1.938995e-05	-2.838662e-05	0.03148694	-0.04385356	1.344106e-05	-2.177361e-05	-0.0765172	-0.03653917
2.3e+08	-0.07774396	-0.03290098	2.227135e-05	-5.519696e-05	0.02451446	-0.04704677	1.664686e-05	-3.234342e-05
	2.227135e-05	-5.519696e-05	-0.07778477	-0.03182979	1.183449e-05	-2.984199e-05	0.02395167	-0.04602878
	0.02451446	-0.04704677	1.183449e-05	-2.984199e-05	-0.07764493	-0.03298687	1.111517e-05	-2.384245e-05
	1.664686e-05	-3.234342e-05	0.02395167	-0.04602878	1.111517e-05	-2.384245e-05	-0.07784534	-0.03196468
2.4e+08	-0.07843828	-0.02858637	1.687422e-05	-5.824312e-05	0.01658162	-0.04808321	1.312681e-05	-3.613971e-05
	1.687422e-05	-5.824312e-05	-0.07844178	-0.02751192	8.592015e-06	-3.081131e-05	0.01598226	-0.04692004
	0.01658162	-0.04808321	8.592015e-06	-3.081131e-05	-0.0784232	-0.02866983	8.322331e-06	-2.575326e-05
	1.312681e-05	-3.613971e-05	0.01598226	-0.04692004	8.322331e-06	-2.575326e-05	-0.07857608	-0.02764042
2.5e+08	-0.07863472	-0.02460745	1.067225e-05	-6.085538e-05	0.008419629	-0.04777255	8.816362e-06	-3.963697e-05
	1.067225e-05	-6.085538e-05	-0.07860489	-0.02353117	4.921393e-06	-3.158401e-05	0.007799659	-0.04645397
	0.008419629	-0.04777255	4.921393e-06	-3.158401e-05	-0.07870713	-0.02467354	5.068114e-06	-2.742867e-05
	8.816362e-06	-3.963697e-05	0.007799659	-0.04645397	5.068114e-06	-2.742867e-05	-0.07881599	-0.02364117
2.6e+08	-0.07845114	-0.02101225	3.693209e-06	-6.286857e-05	0.0002584976	-0.04607706	3.726372e-06	-4.268843e-05
	3.693209e-06	-6.286857e-05	-0.07839207	-0.01993471	8.273062e-07	-3.207923e-05	-0.0003637591	-0.04459545
	0.0002584974	-0.04607706	8.273062e-07	-3.207923e-05	-0.07861209	-0.02104531	1.367338e-06	-2.87902e-05
	3.726372e-06	-4.268843e-05	-0.0003637593	-0.04459545	1.367338e-06	-2.87902e-05	-0.07868122	-0.02001312
2.7e+08	-0.0780083	-0.01781938	-4.005623e-06	-6.411636e-05	-0.007666087	-0.04299761	-2.106757e-06	-4.514363e-05
	-4.005623e-06	-6.411636e-05	-0.07792402	-0.01674008	-3.675443e-06	-3.221267e-05	-0.008270316	-0.04134855
	-0.007666087	-0.04299761	-3.675443e-06	-3.221267e-05	-0.07825599	-0.0178038	-2.755381e-06	-2.975837e-05
	-2.106757e-06	-4.514363e-05	-0.008270316	-0.04134855	-2.755381e-06	-2.975837e-05	-0.07829018	-0.01677365
2.8e+08	-0.07742314	-0.01501783	-1.23331e-05	-6.44366e-05	-0.01511965	-0.03857543	-8.617644e-06	-4.685282e-05
	-1.23331e-05	-6.44366e-05	-0.07731735	-0.01393524	-8.560489e-06	-3.189777e-05	-0.01568419	-0.0367581
	-0.01511965	-0.03857543	-8.560489e-06	-3.189777e-05	-0.0777529	-0.01493882	-7.262298e-06	-3.025385e-05
	-8.617644e-06	-4.685282e-05	-0.01568419	-0.0367581	-7.262298e-06	-3.025385e-05	-0.07775705	-0.01391104
2.9e+08	-0.07680252	-0.01256954	-2.116713e-05	-6.367782e-05	-0.02187572	-0.03289159	-1.571224e-05	-4.76731e-05
	-2.116713e-05	-6.367782e-05	-0.07667823	-0.01148108	-1.378618e-05	-3.104699e-05	-0.02237819	-0.03090919
	-0.02187572	-0.03289159	-1.378618e-05	-3.104699e-05	-0.0772075	-0.01241283	-1.210469e-05	-3.019872e-05
	-1.571224e-05	-4.76731e-05	-0.02237819	-0.03090918	-1.210469e-05	-3.019872e-05	-0.07718618	-0.01138624
3e+08	-0.07623705	-0.01041189	-3.035721e-05	-6.170466e-05	-0.02772239	-0.02606521	-2.326951e-05	-4.747251e-05
	-3.035721e-05	-6.170466e-05	-0.07609634	-0.009314004	-1.929549e-05	-2.957436e-05	-0.02814046	-0.02392509
	-0.02772239	-0.02606521	-1.929549e-05	-2.957436e-05	-0.07670819	-0.01016467	-1.72209e-05	-2.951776e-05
	-2.326951e-05	-4.747251e-05	-0.02814046	-0.02392509	-1.72209e-05	-2.951776e-05	-0.07666518	-0.00913658
3.1e+08	-0.07579608	-0.008462277	-3.972039e-05	-5.840625e-05	-0.03246948	-0.01825109	-3.114203e-05	-4.613678e-05
	-3.972039e-05	-5.840625e-05	-0.0756397	-0.00735068	-2.50179e-05	-2.739527e-05	-0.03278171	-0.01596489
	-0.03246948	-0.01825109	-2.50179e-05	-2.739527e-05	-0.07632241	-0.008112747	-2.253491e-05	-2.814091e-05
	-3.114203e-05	-4.613678e-05	-0.03278171	-0.01596489	-2.253491e-05	-2.814091e-05	-0.07626023	-0.007079181
3.2e+08	-0.07552337	-0.00662296	-4.90539e-05	-5.369766e-05	-0.03595435	-0.009635584	-3.915804e-05	-4.357366e-05
	-4.90539e-05	-5.369766e-05	-0.07535054	-0.005492935	-3.086202e-05	-2.443323e-05	-0.036141	-0.007219063
	-0.03595435	-0.009635584	-3.086202e-05	-2.443323e-05	-0.07609152	-0.0061617	-2.795851e-05	-2.60037e-05
	-3.915804e-05	-4.357366e-05	-0.036141	-0.007219063	-2.795851e-05	-2.60037e-05	-0.07601101	-0.005117729
3.3e+08	-0.07543398	-0.004788224	-5.813308e-05	-4.752797e-05	-0.03804691	-0.0004314471	-4.712738e-05	-3.971654e-05
	-5.813308e-05	-4.752797e-05	-0.07524212	-0.003634997	-3.672225e-05	-2.061862e-05	-0.03809074	0.002095759
	-0.03804691	-0.0004314471	-3.672225e-05	-2.061862e-05	-0.07602922	-0.004207392	-3.33874e-05	-2.305236e-05
	-4.712738e-05	-3.971654e-05	-0.03809074	0.002095759	-3.33874e-05	-2.305236e-05	-0.07592924	-0.003147587
3.4e+08	-0.07551237	-0.002850765	-6.672045e-05	-3.988155e-05	-0.03865467	0.009128367	-5.484199e-05	-3.453131e-05
	-6.672045e-05	-3.988155e-05	-0.07529701	-0.001670045	-4.247355e-05	-1.589501e-05	-0.03854178	0.01174318
	-0.03865467	0.009128367	-4.247355e-05	-1.589501e-05	-0.07611882	-0.002145411	-3.870482e-05	-1.924398e-05
	-5.484199e-05	-3.453131e-05	-0.03854178	0.01174318	-3.870482e-05	-1.924398e-05	-0.07599596	-0.001064381
3.5e+08	-0.07571303	-0.0007095147	-7.456967e-05	-3.078484e-05	-0.03772506	0.01879716	-6.208704e-05	-2.80123e-05
	-7.456967e-05	-3.078484e-05	-0.07546785	0.0005020544	-4.797372e-05	-1.022459e-05	-0.03744544	0.0214737
	-0.03772506	0.01879716	-4.797372e-05	-1.022459e-05	-0.07631391	0.0001234966	-4.37805e-05	-1.455173e-05
	-6.208704e-05	-2.80123e-05	-0.03744544	0.0214737	-4.37805e-05	-1.455173e-05	-0.07616249	0.001230391
3.6e+08	-0.075962	0.00172381	-8.143453e-05	-2.029859e-05	-0.03524782	0.02832191	-6.863917e-05	-2.019237e-05
	-8.143453e-05	-2.029859e-05	-0.07567897	0.002968035	-5.306794e-05	-3.585889e-06	-0.03479601	0.03103221
	-0.03524782	0.02832191	-5.306794e-05	-3.585889e-06	-0.07653986	0.0026843	-4.847222e-05	-8.968552e-06
	-6.863917e-05	-2.019237e-05	-0.03479601	0.03103221	-4.847222e-05	-8.968552e-06	-0.07635199	0.003820412
3.7e+08	-0.07616032	0.004516967	-8.707382e-05	-8.531791e-06	-0.03125504	0.03745114	-7.427628e-05	-1.113989e-05
	-8.707382e-05	-8.531791e-06	-0.07582999	0.005793645	-5.758665e-05	4.011713e-06	-0.03063045	0.04016598
	-0.03125504	0.03745114	-5.758665e-05	4.011713e-06	-0.07669778	0.005602124	-5.263064e-05	-2.505384e-06
	-7.427628e-05	-1.113989e-05	-0.03063045	0.04016598	-5.263064e-05	-2.505384e-06	-0.07646357	0.006768757
3.8e+08	-0.07618896	0.007712446	-9.12571e-05	4.374408e-06	-0.02581979	0.04594141	-7.878273e-05	-9.592779e-07
	-9.12571e-05	4.374408e-06	-0.07580089	0.009018863	-6.135419e-05	1.253537e-05	-0.02502695	0.04863119
	-0.02581979	0.04594141	-6.135419e-05	1.253537e-05	-0.07666887	0.008916971	-5.609946e-05	4.797042e-06
	-7.878273e-05	-9.592779e-07	-0.02502695	0.04863119	-5.609946e-05	4.797042e-06	-0.07637699	0.0101128
3.9e+08	-0.07591399	0.01132205	-9.377235e-05	1.823647e-05	-0.01905482	0.05356465	-8.195371e-05	1.021389e-05
	-9.377235e-05	1.823647e-05	-0.07545738	0.01265267	-6.419094e-05	2.191977e-05	-0.0181034	0.05620036
	-0.01905482	0.05356465	-6.419094e-05	2.191977e-05	-0.07632054	0.0126371	-5.872149e-05	1.287701e-05
	-8.195371e-05	1.021389e-05	-0.0181034	0.05620036	-5.872149e-05	1.287701e-05	-0.07595877	0.01385772
4e+08	-0.07519541	0.01532362	-9.443039e-05	3.283398e-05	-0.01110781	0.06011431	-8.360172e-05	2.220239e-05
	-9.443039e-05	3.283398e-05	-0.07465966	0.0166698	-6.59192e-05	3.206407e-05	-0.0100126	0.06266836
	-0.01110781	0.06011431	-6.59192e-05	3.206407e-05	-0.07551413	0.01673864	-6.034297e-05	2.163808e-05
	-8.360172e-05	2.220239e-05	-0.0100126	0.06266836	-6.034297e-05	2.163808e-05	-0.07507002	0.01797616
4.1e+08	-0.07389462	0.01965994	-9.307047e-05	4.791865e-05	-0.002157937	0.06541027	-8.355834e-05	3.480424e-05
	-9.307047e-05	4.791865e-05	-0.07327015	0.0210099	-6.637006e-05	4.283409e-05	-0.0009384282	0.06785742
	-0.002157937	0.06541027	-6.637006e-05	4.283409e-05	-0.07411249	0.02116178	-6.081799e-05	3.096125e-05
	-8.355834e-05	3.480424e-05	-0.0009384282	0.06785742	-6.081799e-05	3.096125e-05	-0.07357428	0.02240468
4.2e+08	-0.07188059	0.02423803	-8.95639e-05	6.32096e-05	0.007589507	0.06930392	-8.168534e-05	4.77816e-05
	-8.95639e-05	6.32096e-05	-0.07115959	0.02557692	-6.539277e-05	5.406361e-05	0.008909407	0.0716221
	0.007589507	0.06930392	-6.539277e-05	5.406361e-05	-0.07198692	0.02581146	-6.001426e-05	4.069491e-05
	-8.168534e-05	4.77816e-05	0.008909407	0.0716221	-6.001426e-05	4.069491e-05	-0.07134434	0.02704456
4.3e+08	-0.06904027	0.02893179	-8.381997e-05	7.840147e-05	0.01790891	0.07168082	-7.787352e-05	6.087226e-05
	-8.381997e-05	7.840147e-05	-0.06821736	0.03024201	-6.285373e-05	6.555052e-05	0.01930151	0.0738518
	0.01790891	0.07168082	-6.285373e-05	6.555052e-05	-0.06902691	0.03056034	-5.781983e-05	5.066177e-05
	-7.787352e-05	6.087226e-05	0.01930151	0.0738518	-5.781983e-05	5.066177e-05	-0.06827208	0.03176499
4.4e+08	-0.0652847	0.03358568	-7.579196e-05	9.316792e-05	0.02855967	0.07246327	-7.204729e-05	7.379448e-05
	-7.579196e-05	9.316792e-05	-0.06435766	0.03484721	-5.86516e-05	7.706612e-05	0.02999408	0.07447329
	0.02855967	0.07246327	-5.86516e-05	7.706612e-05	-0.06514586	0.0352513	-5.414666e-05	6.065843e-05
	-7.204729e-05	7.379448e-05	0.02999408	0.07447329	-5.414666e-05	6.065843e-05	-0.06427414	0.0364058
4.5e+08	-0.06055519	0.03801821	-6.547383e-05	0.0001071673	0.03929236	0.071612	-6.417437e-05	8.624107e-05
	-6.547383e-05	0.0001071673	-0.0595256	0.03920929	-5.272053e-05	8.835609e-05	0.04073529	0.07345235
	0.03929236	0.071612	-5.272053e-05	8.835609e-05	-0.06028798	0.03970235	-4.893326e-05	7.046403e-05
	-6.417437e-05	8.624107e-05	0.04073529	0.07345235	-4.893326e-05	7.046403e-05	-0.05929871	0.04078248
4.6e+08	-0.05482943	0.04202961	-5.290994e-05	0.0001200459	0.04985455	0.06912629	-5.426481e-05	9.789209e-05
	-5.290994e-05	0.0001200459	-0.05370312	0.04312734	-4.502811e-05	9.914956e-05	0.05127114	0.07079361
	0.04985455	0.06912629	-4.502811e-05	9.914956e-05	-0.05443402	0.04371392	-4.215544e-05	7.983743e-05
	-5.426481e-05	9.789209e-05	0.05127114	0.07079361	-4.215544e-05	7.983743e-05	-0.05333119	0.04469363
4.7e+08	-0.04812685	0.04540957	-3.819504e-05	0.0001314468	0.05999697	0.06504402	-4.237316e-05	0.0001084231
	-3.819504e-05	0.0001314468	-0.04691425	0.04639076	-3.559033e-05	0.0001091565	0.06135159	0.06654061
	0.05999697	0.06504402	-3.559033e-05	0.0001091565	-0.04760543	0.04707501	-3.382506e-05	8.852419e-05
	-4.237316e-05	0.0001084231	0.06135159	0.06654061	-3.382506e-05	8.852419e-05	-0.04639826	0.04792733
4.8e+08	-0.04050813	0.04794388	-2.148233e-05	0.0001410121	0.06947812	0.05944043	-2.861125e-05	0.0001175007
