!$
! Info: Touchstone file created by Circ.  Input file=Intel_C2M_200G_6p0in_202208016_staggered.circ
!$
# Hz S RI R 50
0	0.01847214	3.32748e-24	6.63238e-05	9.175186e-23	0.0001098268	2.843014e-22	6.631659e-05	9.159985e-23
	6.63238e-05	9.175186e-23	0.01848521	3.660962e-24	6.632836e-05	9.182925e-23	0.00010942	2.825893e-22
	0.0001098844	2.844283e-22	6.632835e-05	9.183053e-23	0.01846699	3.472729e-24	6.631906e-05	9.166885e-23
	6.631658e-05	9.160113e-23	0.0001094776	2.827168e-22	6.631906e-05	9.166885e-23	0.01848316	3.467987e-24
1e+07	0.02248752	-0.002511377	3.367257e-06	2.087858e-05	0.001559289	0.005951725	1.017876e-05	2.049365e-05
	3.367259e-06	2.087858e-05	0.02264885	-0.002529079	2.017417e-06	5.695436e-06	0.001565447	0.006011714
	0.001559289	0.005951725	2.017417e-06	5.695436e-06	0.02263043	-0.002469726	3.273169e-06	1.992374e-05
	1.017876e-05	2.049365e-05	0.001565447	0.006011714	3.273169e-06	1.992374e-05	0.02251292	-0.002500354
2e+07	0.02526535	-0.008730545	3.905932e-06	1.168119e-05	0.00361599	0.01113114	6.40108e-06	1.427979e-05
	3.905934e-06	1.168121e-05	0.02539542	-0.008824562	1.228564e-05	1.224115e-05	0.003631299	0.01124838
	0.003615999	0.01113112	1.228564e-05	1.224115e-05	0.02539893	-0.008706871	2.801644e-06	1.024227e-05
	6.401081e-06	1.427979e-05	0.003631309	0.01124836	2.801644e-06	1.024227e-05	0.02529533	-0.008717105
3e+07	0.02610722	-0.01653904	6.403182e-06	8.803519e-06	0.006678173	0.01585052	4.073873e-06	1.348971e-05
	6.403182e-06	8.803519e-06	0.02619721	-0.01667941	2.261461e-05	1.386389e-05	0.006706091	0.01602064
	0.006678149	0.01585055	2.261461e-05	1.386389e-05	0.02623053	-0.01650092	4.543931e-06	7.444987e-06
	4.073874e-06	1.348971e-05	0.006706067	0.01602068	4.543931e-06	7.444986e-06	0.02612683	-0.01652052
4e+07	0.02513689	-0.02481614	8.265215e-06	6.431763e-06	0.01068691	0.01978277	7.371179e-06	1.142792e-05
	8.265215e-06	6.431763e-06	0.02517667	-0.02499057	3.053664e-05	1.120531e-05	0.01072969	0.02000087
	0.0106869	0.01978279	3.053664e-05	1.120531e-05	0.02525958	-0.02476126	5.823488e-06	5.371449e-06
	7.371179e-06	1.142792e-05	0.01072969	0.02000089	5.823489e-06	5.371448e-06	0.02514369	-0.02479427
5e+07	0.0225861	-0.03298676	9.534188e-06	4.100097e-06	0.01545109	0.02279775	1.004863e-05	8.987778e-06
	9.534188e-06	4.100097e-06	0.02256706	-0.03318327	3.632676e-05	6.248071e-06	0.01550966	0.0230583
	0.01545109	0.02279776	3.632676e-05	6.248071e-06	0.02271224	-0.03291536	6.6624e-06	3.464974e-06
	1.004863e-05	8.987778e-06	0.01550967	0.02305831	6.6624e-06	3.464973e-06	0.02257377	-0.0329599
6e+07	0.01863406	-0.04071905	1.022665e-05	1.753126e-06	0.02078178	0.02476735	1.19728e-05	6.254683e-06
	1.022665e-05	1.753127e-06	0.01854969	-0.04092491	4.011712e-05	-7.373602e-08	0.02085553	0.0250645
	0.02078179	0.02476733	4.011712e-05	-7.373599e-08	0.01876697	-0.04063241	7.072341e-06	1.628623e-06
	1.19728e-05	6.254683e-06	0.02085554	0.02506449	7.072341e-06	1.628623e-06	0.01859735	-0.04068338
7e+07	0.01345681	-0.04774127	1.035783e-05	-5.655451e-07	0.0264643	0.02560126	1.315936e-05	3.323231e-06
	1.035783e-05	-5.65545e-07	0.01330303	-0.04794305	4.196398e-05	-7.18724e-06	0.02655091	0.02592919
	0.0264643	0.02560126	4.196398e-05	-7.18724e-06	0.01359927	-0.04764217	7.062101e-06	-1.290721e-07
	1.315936e-05	3.323231e-06	0.02655091	0.02592918	7.062101e-06	-1.290725e-07	0.01339205	-0.04769222
8e+07	0.007264686	-0.05383459	9.94321e-06	-2.786257e-06	0.03227211	0.02525188	1.361419e-05	2.89663e-07
	9.94321e-06	-2.786258e-06	0.007040118	-0.05401851	4.189724e-05	-1.468482e-05	0.03236762	0.02560522
	0.03227211	0.02525188	4.189724e-05	-1.468482e-05	0.007418725	-0.05372664	6.645367e-06	-1.763004e-06
	1.361419e-05	2.89663e-07	0.03236762	0.02560522	6.645367e-06	-1.763004e-06	0.007169832	-0.0537671
9e+07	0.0002975102	-0.05883904	8.98756e-06	-4.840665e-06	0.03797584	0.02371441	1.331482e-05	-2.775842e-06
	8.98756e-06	-4.840666e-06	3.802188e-06	-0.05899139	3.987636e-05	-2.230812e-05	0.03807469	0.02408868
	0.03797585	0.02371442	3.987636e-05	-2.230812e-05	0.0004639661	-0.05872638	5.832635e-06	-3.219583e-06
	1.331482e-05	-2.775843e-06	0.0380747	0.02408869	5.832635e-06	-3.219583e-06	0.0001715308	-0.05874809
1e+08	-0.007155387	-0.06262427	7.322574e-06	-6.740899e-06	0.04335364	0.02102485	1.196889e-05	-6.002289e-06
	7.322574e-06	-6.740899e-06	-0.00751312	-0.06273184	3.512437e-05	-3.038705e-05	0.04344884	0.02141677
	0.04335364	0.02102484	3.512437e-05	-3.038705e-05	-0.006976591	-0.06251085	4.516293e-06	-4.48011e-06
	1.196889e-05	-6.002289e-06	0.04344884	0.02141677	4.516293e-06	-4.48011e-06	-0.007312476	-0.06250523
1.1e+08	-0.01483897	-0.06543219	5.099006e-06	-7.28307e-06	0.04819157	0.01723587	9.363551e-06	-7.462652e-06
	5.099006e-06	-7.28307e-06	-0.01525506	-0.06548598	2.701008e-05	-3.369783e-05	0.0482747	0.01764466
	0.04819157	0.01723586	2.701008e-05	-3.369783e-05	-0.01460663	-0.06536831	2.909135e-06	-4.740389e-06
	9.363551e-06	-7.462652e-06	0.0482747	0.01764465	2.909136e-06	-4.740388e-06	-0.01498726	-0.0653238
1.2e+08	-0.0227618	-0.06707084	3.367137e-06	-7.351376e-06	0.05225251	0.01250848	7.341628e-06	-8.117466e-06
	3.367137e-06	-7.351376e-06	-0.02323036	-0.0670611	2.173572e-05	-3.401659e-05	0.05231541	0.0129349
	0.05225251	0.01250848	2.173572e-05	-3.401659e-05	-0.02254082	-0.06704566	1.673067e-06	-4.699677e-06
	7.341628e-06	-8.117466e-06	0.05231541	0.0129349	1.673067e-06	-4.699677e-06	-0.0229604	-0.06695173
1.3e+08	-0.03064688	-0.06753422	1.881942e-06	-7.254511e-06	0.05538715	0.006993625	5.595194e-06	-8.356208e-06
	1.881942e-06	-7.254511e-06	-0.0311597	-0.0674524	1.962538e-05	-3.217047e-05	0.05542139	0.007440275
	0.05538715	0.006993623	1.962538e-05	-3.217047e-05	-0.03045232	-0.06752316	6.226247e-07	-4.584728e-06
	5.595194e-06	-8.356208e-06	0.05542139	0.007440273	6.226247e-07	-4.584728e-06	-0.03090372	-0.06737172
1.4e+08	-0.03828702	-0.0668876	6.551778e-07	-6.884455e-06	0.05746624	0.000869463	4.079959e-06	-8.309205e-06
	6.551779e-07	-6.884455e-06	-0.03883445	-0.06672689	1.749754e-05	-3.048328e-05	0.05746366	0.001340894
	0.05746624	0.000869462	1.749754e-05	-3.048328e-05	-0.03811497	-0.06687907	-2.790281e-07	-4.287762e-06
	4.079959e-06	-8.309205e-06	0.05746366	0.001340893	-2.79028e-07	-4.287762e-06	-0.03858989	-0.06666395
1.5e+08	-0.04550665	-0.06522867	2.337636e-07	-6.108198e-06	0.0583911	-0.005665647	2.762121e-06	-8.089336e-06
	2.337636e-07	-6.108198e-06	-0.04607811	-0.06498426	1.54234e-05	-2.886865e-05	0.05834423	-0.005162934
	0.0583911	-0.005665647	1.54234e-05	-2.886865e-05	-0.04535224	-0.06522167	-1.031242e-06	-3.849472e-06
	2.762121e-06	-8.089336e-06	0.05834423	-0.005162934	-1.031242e-06	-3.849472e-06	-0.04584159	-0.06493858
1.6e+08	-0.05216011	-0.06268013	-1.229932e-07	-5.343335e-06	0.05809825	-0.01239915	1.824625e-06	-7.673876e-06
	-1.229932e-07	-5.343335e-06	-0.05274454	-0.06234925	1.344726e-05	-2.726328e-05	0.05800071	-0.01185686
	0.05809824	-0.01239915	1.344726e-05	-2.726328e-05	-0.05202212	-0.06267877	-1.240222e-06	-3.202702e-06
	1.824625e-06	-7.673876e-06	0.05800071	-0.01185686	-1.240222e-06	-3.202702e-06	-0.05251631	-0.06232538
1.7e+08	-0.05813254	-0.05938407	-4.230106e-07	-4.609631e-06	0.05656137	-0.01911077	1.498888e-06	-7.066365e-06
	-4.230105e-07	-4.609631e-06	-0.05871881	-0.05896608	1.160774e-05	-2.562151e-05	0.05640829	-0.01851901
	0.05656137	-0.01911077	1.160774e-05	-2.562151e-05	-0.05801423	-0.05939312	-1.400202e-06	-2.589603e-06
	1.498888e-06	-7.066365e-06	0.05640829	-0.01851901	-1.400202e-06	-2.589603e-06	-0.05850367	-0.05896901
1.8e+08	-0.06334203	-0.05549544	-6.424555e-07	-3.874903e-06	0.05379221	-0.02557877	1.211752e-06	-6.478808e-06
	-6.424555e-07	-3.874903e-06	-0.06391934	-0.05499167	9.93448e-06	-2.393766e-05	0.05358055	-0.02492628
	0.05379221	-0.02557877	9.93448e-06	-2.393766e-05	-0.06325006	-0.05551813	-1.491822e-06	-1.978056e-06
	1.211752e-06	-6.478808e-06	0.05358055	-0.02492628	-1.491822e-06	-1.978056e-06	-0.06372545	-0.05502477
1.9e+08	-0.06774002	-0.05117618	-7.754189e-07	-3.146961e-06	0.04984057	-0.03158629	9.679894e-07	-5.90876e-06
	-7.754189e-07	-3.146961e-06	-0.06829827	-0.05058982	8.448475e-06	-2.22167e-05	0.04956937	-0.03086084
	0.04984057	-0.03158629	8.448475e-06	-2.22167e-05	-0.06768309	-0.05121286	-1.509154e-06	-1.375186e-06
	9.679894e-07	-5.90876e-06	0.04956937	-0.03086084	-1.509154e-06	-1.375186e-06	-0.06813585	-0.05065342
2e+08	-0.07131169	-0.046588	-8.177133e-07	-2.435779e-06	0.04479241	-0.03692751	7.714199e-07	-5.356082e-06
	-8.177133e-07	-2.435779e-06	-0.07184203	-0.04592351	7.161987e-06	-2.046927e-05	0.04446311	-0.03611617
	0.04479241	-0.03692751	7.161987e-06	-2.046927e-05	-0.07129885	-0.04663602	-1.451065e-06	-7.90156e-07
	7.714199e-07	-5.356082e-06	0.04446311	-0.03611617	-1.451064e-06	-7.90156e-07	-0.07172124	-0.04601545
2.1e+08	-0.07407367	-0.04188544	-7.696496e-07	-1.753034e-06	0.03876784	-0.04141309	6.233907e-07	-4.822618e-06
	-7.696496e-07	-1.753034e-06	-0.07456827	-0.04114893	6.082445e-06	-1.871485e-05	0.03838439	-0.0405028
	0.03876784	-0.04141309	6.082445e-06	-1.871485e-05	-0.07411371	-0.04193968	-1.317484e-06	-2.337085e-07
	6.233907e-07	-4.822618e-06	0.03838439	-0.0405028	-1.317484e-06	-2.337085e-07	-0.07449959	-0.04126383
2.2e+08	-0.0760723	-0.03721079	-6.340939e-07	-1.110684e-06	0.03191796	-0.04487561	5.24048e-07	-4.311145e-06
	-6.340939e-07	-1.110684e-06	-0.07652484	-0.03640943	5.212399e-06	-1.697265e-05	0.03148694	-0.04385356
	0.03191796	-0.04487561	5.212399e-06	-1.697265e-05	-0.07617242	-0.03726366	-1.11136e-06	2.836266e-07
	5.24048e-07	-4.311145e-06	0.03148694	-0.04385356	-1.111359e-06	2.836266e-07	-0.0765172	-0.03653917
2.3e+08	-0.07737894	-0.03268813	-4.164638e-07	-5.203766e-07	0.02442102	-0.04717464	4.724571e-07	-3.824989e-06
	-4.164638e-07	-5.203766e-07	-0.07778477	-0.03182979	4.550262e-06	-1.52632e-05	0.02395167	-0.04602878
	0.02442102	-0.04717464	4.550262e-06	-1.52632e-05	-0.07754464	-0.03273076	-8.378116e-07	7.517016e-07
	4.724571e-07	-3.824989e-06	0.02395167	-0.04602878	-8.378116e-07	7.517015e-07	-0.07784534	-0.03196468
2.4e+08	-0.07808557	-0.02841909	-1.244268e-07	7.056697e-09	0.01647811	-0.04820044	4.668078e-07	-3.367755e-06
	-1.244268e-07	7.056699e-09	-0.07844178	-0.02751192	4.090755e-06	-1.360744e-05	0.01598226	-0.04692004
	0.01647811	-0.04820044	4.090755e-06	-1.360744e-05	-0.07832082	-0.02844108	-5.039006e-07	1.161132e-06
	4.668078e-07	-3.367755e-06	0.01598226	-0.04692004	-5.039006e-07	1.161132e-06	-0.07857608	-0.02764042
2.5e+08	-0.07829949	-0.02447913	2.323782e-07	4.620261e-07	0.008307756	-0.04787785	5.044703e-07	-2.943129e-06
	2.323782e-07	4.620261e-07	-0.07860489	-0.02353117	3.825156e-06	-1.202607e-05	0.007799659	-0.04645397
	0.008307756	-0.04787785	3.825156e-06	-1.202607e-05	-0.07860601	-0.02446982	-1.183714e-07	1.503681e-06
	5.044703e-07	-2.943129e-06	0.007799659	-0.04645397	-1.183714e-07	1.503681e-06	-0.07881599	-0.02364117
2.6e+08	-0.07813704	-0.02091588	6.42704e-07	8.365616e-07	0.0001401787	-0.04616938	5.821241e-07	-2.554722e-06
	6.42704e-07	8.365616e-07	-0.07839207	-0.01993471	3.741616e-06	-1.053905e-05	-0.0003637591	-0.04459545
	0.0001401786	-0.04616938	3.741616e-06	-1.053905e-05	-0.078515	-0.020864	3.086204e-07	1.772563e-06
	5.821241e-07	-2.554722e-06	-0.0003637593	-0.04459545	3.086205e-07	1.772563e-06	-0.07868122	-0.02001312
2.7e+08	-0.07771757	-0.01774778	1.094063e-06	1.124496e-06	-0.007788731	-0.04307631	6.958039e-07	-2.205958e-06
	1.094063e-06	1.124496e-06	-0.07792402	-0.01674008	3.825364e-06	-9.164976e-06	-0.008270316	-0.04134855
	-0.007788731	-0.04307631	3.825364e-06	-9.164976e-06	-0.0781652	-0.01764213	7.65841e-07	1.962625e-06
	6.958039e-07	-2.205958e-06	-0.008270316	-0.04134855	7.65841e-07	1.962625e-06	-0.07829018	-0.01677365
2.8e+08	-0.07715655	-0.01496392	1.573114e-06	1.321692e-06	-0.01524441	-0.03864018	8.409629e-07	-1.899995e-06
	1.573114e-06	1.321692e-06	-0.07731735	-0.01393524	4.058976e-06	-7.920867e-06	-0.01568419	-0.0367581
	-0.01524441	-0.03864018	4.058976e-06	-7.920867e-06	-0.07767015	-0.01479385	1.241305e-06	2.070509e-06
	8.409629e-07	-1.899995e-06	-0.01568419	-0.0367581	1.241305e-06	2.070509e-06	-0.07775705	-0.01391104
2.9e+08	-0.07655945	-0.01252662	2.066045e-06	1.426108e-06	-0.02200039	-0.03294253	1.01251e-06	-1.639613e-06
	2.066045e-06	1.426108e-06	-0.07667823	-0.01148108	4.422624e-06	-6.821587e-06	-0.02237819	-0.03090919
	-0.02200039	-0.03294253	4.422624e-06	-6.821587e-06	-0.07713397	-0.01228161	1.722602e-06	2.094753e-06
	1.01251e-06	-1.639613e-06	-0.02237819	-0.03090918	1.722602e-06	2.094753e-06	-0.07718618	-0.01138624
3e+08	-0.07601564	-0.01037381	2.558951e-06	1.437781e-06	-0.02784483	-0.02610282	1.204845e-06	-1.427144e-06
	2.558951e-06	1.437781e-06	-0.07609634	-0.009314004	4.894398e-06	-5.8795e-06	-0.02814046	-0.02392509
	-0.02784483	-0.02610282	4.894398e-06	-5.8795e-06	-0.07664458	-0.01004422	2.197224e-06	2.035768e-06
	1.204845e-06	-1.427144e-06	-0.02814046	-0.02392509	2.197224e-06	2.035768e-06	-0.07666518	-0.00913658
3.1e+08	-0.07559335	-0.008423664	3.038187e-06	1.358813e-06	-0.0325877	-0.01827624	1.411902e-06	-1.264352e-06
	3.038187e-06	1.358813e-06	-0.0756397	-0.00735068	5.450655e-06	-5.104181e-06	-0.03278171	-0.01596489
	-0.0325877	-0.01827624	5.450655e-06	-5.104181e-06	-0.0762689	-0.008000195	2.652881e-06	1.895859e-06
	1.411902e-06	-1.264352e-06	-0.03278171	-0.01596489	2.652881e-06	1.895859e-06	-0.07626023	-0.007079181
3.2e+08	-0.07533545	-0.006579446	3.490657e-06	1.193228e-06	-0.03606659	-0.009649439	1.62719e-06	-1.152341e-06
	3.490657e-06	1.193228e-06	-0.07535054	-0.005492935	6.066381e-06	-4.502042e-06	-0.036141	-0.007219063
	-0.03606659	-0.009649439	6.066381e-06	-4.502042e-06	-0.07604785	-0.006054313	3.077791e-06	1.679122e-06
	1.62719e-06	-1.152341e-06	-0.036141	-0.007219063	3.077791e-06	1.679122e-06	-0.07601101	-0.005117729
3.3e+08	-0.07525631	-0.004736523	3.904076e-06	9.468093e-07	-0.03815163	-0.000435405	1.84387e-06	-1.091458e-06
	3.904076e-06	9.468093e-07	-0.07524212	-0.003634997	6.715684e-06	-4.076147e-06	-0.03809074	0.002095759
	-0.03815163	-0.000435405	6.715684e-06	-4.076147e-06	-0.07599469	-0.004102647	3.460904e-06	1.391307e-06
	1.84387e-06	-1.091458e-06	-0.03809074	0.002095759	3.460904e-06	1.391307e-06	-0.07592924	-0.003147587
3.4e+08	-0.07533994	-0.002788813	4.267219e-06	6.26981e-07	-0.03875068	0.009132678	2.054853e-06	-1.081145e-06
	4.267219e-06	6.26981e-07	-0.07529701	-0.001670045	7.372268e-06	-3.825908e-06	-0.03854178	0.01174318
	-0.03875068	0.009132678	7.372268e-06	-3.825908e-06	-0.07609231	-0.002041045	3.792183e-06	1.039698e-06
	2.054853e-06	-1.081145e-06	-0.03854178	0.01174318	3.792183e-06	1.039698e-06	-0.07599596	-0.001064381
3.5e+08	-0.0755407	-0.00063646	4.570073e-06	2.425606e-07	-0.03781143	0.018808	2.252927e-06	-1.119876e-06
	4.570073e-06	2.425606e-07	-0.07546785	0.0005020544	8.010002e-06	-3.747113e-06	-0.03744544	0.0214737
	-0.03781143	0.018808	8.010002e-06	-3.747113e-06	-0.07629398	0.0002294135	4.06275e-06	6.329254e-07
	2.252927e-06	-1.119876e-06	-0.03744544	0.0214737	4.06275e-06	6.329254e-07	-0.07616249	0.001230391
3.6e+08	-0.07578469	0.001807547	4.803987e-06	-1.963898e-07	-0.03532401	0.0283375	2.430925e-06	-1.205042e-06
	4.803987e-06	-1.963898e-07	-0.07567897	0.002968035	8.603495e-06	-3.831814e-06	-0.03479601	0.03103221
	-0.03532401	0.0283375	8.603495e-06	-3.831814e-06	-0.07652479	0.002793331	4.265095e-06	1.807989e-07
	2.430925e-06	-1.205042e-06	-0.03479601	0.03103221	4.265095e-06	1.807989e-07	-0.07635199	0.003820412
3.7e+08	-0.07597331	0.004609855	4.961806e-06	-6.787936e-07	-0.03132079	0.03746965	2.581916e-06	-1.33292e-06
	4.961806e-06	-6.787936e-07	-0.07582999	0.005793645	9.128671e-06	-4.068448e-06	-0.03063045	0.04016598
	-0.03132079	0.03746966	9.128671e-06	-4.068448e-06	-0.07668559	0.005715438	4.393191e-06	-3.059355e-07
	2.581916e-06	-1.33292e-06	-0.03063045	0.04016598	4.393191e-06	-3.059355e-07	-0.07646357	0.006768757
3.8e+08	-0.07598808	0.007811905	5.037936e-06	-1.192726e-06	-0.02587513	0.0459611	2.699408e-06	-1.498659e-06
	5.037936e-06	-1.192726e-06	-0.07580089	0.009018863	9.563334e-06	-4.442043e-06	-0.02502695	0.04863119
	-0.02587513	0.0459611	9.563334e-06	-4.442043e-06	-0.07665747	0.009035246	4.442589e-06	-8.157703e-07
	2.699408e-06	-1.498659e-06	-0.02502695	0.04863119	4.442589e-06	-8.157703e-07	-0.07637699	0.0101128
3.9e+08	-0.07569585	0.01142461	5.028469e-06	-1.725576e-06	-0.01910004	0.05358387	2.777589e-06	-1.696285e-06
	5.028469e-06	-1.725576e-06	-0.07545738	0.01265267	9.887664e-06	-4.934449e-06	-0.0181034	0.05620036
	-0.01910004	0.05358387	9.887664e-06	-4.934449e-06	-0.07630776	0.01276061	4.410547e-06	-1.33665e-06
	2.777589e-06	-1.696285e-06	-0.0181034	0.05620036	4.410547e-06	-1.33665e-06	-0.07595877	0.01385772
4e+08	-0.07495748	0.01542515	4.931229e-06	-2.264273e-06	-0.01114347	0.0601315	2.81155e-06	-1.918835e-06
	4.931229e-06	-2.264273e-06	-0.07465966	0.0166698	1.008477e-05	-5.524743e-06	-0.0100126	0.06266836
	-0.01114347	0.0601315	1.008477e-05	-5.524743e-06	-0.07549783	0.01686712	4.29606e-06	-1.856235e-06
	2.81155e-06	-1.918835e-06	-0.0100126	0.06266836	4.29606e-06	-1.856235e-06	-0.07507002	0.01797616
4.1e+08	-0.07363544	0.01975583	4.745873e-06	-2.795485e-06	-0.00218473	0.06542406	2.797522e-06	-2.158484e-06
	4.745873e-06	-2.795485e-06	-0.07327015	0.0210099	1.014112e-05	-6.189773e-06	-0.0009384282	0.06785742
	-0.00218473	0.06542406	1.014112e-05	-6.189773e-06	-0.07409064	0.02129456	4.099918e-06	-2.362106e-06
	2.797522e-06	-2.158484e-06	-0.0009384282	0.06785742	4.099918e-06	-2.362106e-06	-0.07357428	0.02240468
4.2e+08	-0.07159974	0.02432343	4.473964e-06	-3.305823e-06	0.007570605	0.06931312	2.733032e-06	-2.406718e-06
	4.473964e-06	-3.305823e-06	-0.07115959	0.02557692	1.004678e-05	-6.904475e-06	0.008909407	0.0716221
	0.007570605	0.06931312	1.004678e-05	-6.904475e-06	-0.07195768	0.02594741	3.824732e-06	-2.842018e-06
	2.733032e-06	-2.406718e-06	0.008909407	0.0716221	3.824732e-06	-2.842018e-06	-0.07134434	0.02704456
4.3e+08	-0.06873841	0.02900184	4.118979e-06	-3.78211e-06	0.01789687	0.0716844	2.61708e-06	-2.654621e-06
	4.118979e-06	-3.78211e-06	-0.06821736	0.03024201	9.795767e-06	-7.642677e-06	0.01930151	0.0738518
	0.01789687	0.0716844	9.795767e-06	-7.642677e-06	-0.06898872	0.03069794	3.474892e-06	-3.284187e-06
	2.61708e-06	-2.654621e-06	0.01930151	0.0738518	3.474892e-06	-3.284187e-06	-0.06827208	0.03176499
4.4e+08	-0.06496352	0.03363569	3.686377e-06	-4.211645e-06	0.02855332	0.0724604	2.450221e-06	-2.893129e-06
	3.686377e-06	-4.211645e-06	-0.06435766	0.03484721	9.386183e-06	-8.377557e-06	0.02999408	0.07447329
	0.02855332	0.0724604	9.386183e-06	-8.377557e-06	-0.06509751	0.03538874	3.056548e-06	-3.6775e-06
	2.450221e-06	-2.893129e-06	0.02999408	0.07447329	3.056548e-06	-3.6775e-06	-0.06427414	0.0364058
4.5e+08	-0.0602174	0.03804391	3.183558e-06	-4.582504e-06	0.03929042	0.07160212	2.234595e-06	-3.113321e-06
	3.183558e-06	-4.582504e-06	-0.0595256	0.03920929	8.820219e-06	-9.082257e-06	0.04073529	0.07345235
	0.03929042	0.07160212	8.820219e-06	-9.082257e-06	-0.06022868	0.0398375	2.577505e-06	-4.011835e-06
	2.234595e-06	-3.113321e-06	0.04073529	0.07345235	2.577505e-06	-4.011835e-06	-0.05929871	0.04078248
4.6e+08	-0.0544786	0.04202732	2.619787e-06	-4.883883e-06	0.04985575	0.06910904	1.9739e-06	-3.306762e-06
	2.619787e-06	-4.883883e-06	-0.05370312	0.04312734	8.104193e-06	-9.730617e-06	0.05127114	0.07079361
	0.04985575	0.06910904	8.104193e-06	-9.730617e-06	-0.05436344	0.04384452	2.047091e-06	-4.278302e-06
	1.9739e-06	-3.306762e-06	0.05127114	0.07079361	2.047091e-06	-4.278302e-06	-0.05333119	0.04469363
4.7e+08	-0.04776729	0.04537629	2.006072e-06	-5.106447e-06	0.06	0.06501925	1.673301e-06	-3.465794e-06
	2.006072e-06	-5.106447e-06	-0.04691425	0.04639076	7.248429e-06	-1.029775e-05	0.06135159	0.06654061
	0.06	0.06501925	7.248429e-06	-1.029775e-05	-0.04752372	0.04719873	1.475967e-06	-4.469516e-06
	1.673301e-06	-3.465794e-06	0.06135159	0.06654061	1.475967e-06	-4.469516e-06	-0.04639826	0.04792733
4.8e+08	-0.04014475	0.04787749	1.354918e-06	-5.242608e-06	0.06948167	0.05940822	1.339227e-06	-3.583803e-06
	1.354918e-06	-5.242608e-06	-0.03922447	0.04878587	6.266928e-06	-1.076061e-05	0.07073529	0.0607743
