# GHz S RI R 45
0.000     0.035705955000    0.000000000000    -0.000014878786    0.000000000000    0.000784800410    0.000000000000    -0.000003432132    0.000000000000
            -0.000014878808    0.000000000000    0.035295609000    0.000000000000    -0.000001459138    0.000000000000    0.000590381190    0.000000000000
            0.000784800360    0.000000000000    -0.000001459104    0.000000000000    0.035697805000    0.000000000000    -0.000007283571    0.000000000000
            -0.000003432116    0.000000000000    0.000590381880    0.000000000000    -0.000007283599    0.000000000000    0.035122757000    0.000000000000
0.025     0.041560320707    0.005704749987    -0.000018957717    -0.000010496642    0.003219945904    0.011620825751    -0.000015713267    -0.000016997279
            -0.000018957716    -0.000010496637    0.040816897283    0.006095761168    -0.000015981091    -0.000017344272    0.002940653166    0.012194677728
            0.003219820756    0.011620657042    -0.000015981097    -0.000017344267    0.041490594999    0.005732463155    -0.000012514977    -0.000013372243
            -0.000015713270    -0.000016997275    0.002940528748    0.012194509198    -0.000012514977    -0.000013372243    0.040802378832    0.006154125580
0.050     0.045719746373    0.004226420599    -0.000022502324    -0.000017459719    0.009590678769    0.020696190869    -0.000022314319    -0.000021935211
            -0.000022502322    -0.000017459718    0.044656040718    0.005440405987    -0.000023192557    -0.000020204886    0.009171697051    0.022033720322
            0.009590708868    0.020696179125    -0.000023192557    -0.000020204886    0.045633269813    0.004313202920    -0.000016775668    -0.000021964830
            -0.000022314320    -0.000021935212    0.009171726277    0.022033709240    -0.000016775668    -0.000021964830    0.044612892693    0.005411923096
0.075     0.046987305515    0.000433371447    -0.000026324933    -0.000023953014    0.017792891030    0.025656489907    -0.000026157348    -0.000027493863
            -0.000026324932    -0.000023953013    0.045772281367    0.002840509301    -0.000026680971    -0.000024053183    0.017340624325    0.028031501496
            0.017792897217    0.025656489267    -0.000026680929    -0.000024053187    0.046908322429    0.000603465880    -0.000020981430    -0.000030206204
            -0.000026157349    -0.000027493864    0.017340629818    0.028031501626    -0.000020981430    -0.000030206205    0.045620275221    0.002837809797
0.100     0.044463667119    -0.004188160799    -0.000030694823    -0.000030177074    0.025285365374    0.026443828445    -0.000029819722    -0.000033757432
            -0.000030694821    -0.000030177073    0.043527570033    -0.000274092109    -0.000029702741    -0.000028841303    0.025126950169    0.030085778595
            0.025285365374    0.026443828445    -0.000029702742    -0.000028841304    0.044432965031    -0.003928768778    -0.000025702129    -0.000038404734
            -0.000029819822    -0.000033757415    0.025126950810    0.030085779362    -0.000025702231    -0.000038404712    0.043301887709    -0.000152714424
0.125     0.037728134609    -0.007349168462    -0.000035871533    -0.000036228059    0.029965709018    0.024392644244    -0.000034114312    -0.000040764014
            -0.000035871532    -0.000036228058    0.037721630775    -0.001852901761    -0.000033144837    -0.000034527634    0.030591360715    0.029356294715
            0.029965709018    0.024392644244    -0.000033144837    -0.000034527634    0.037791354972    -0.007023362461    -0.000031387776    -0.000046787619
            -0.000034114314    -0.000040764017    0.030591362158    0.029356296100    -0.000031387778    -0.000046787621    0.037514825904    -0.001563100083
0.150     0.027689857788    -0.006573839917    -0.000042136948    -0.000042291953    0.030835010448    0.021770528885    -0.000039701319    -0.000048545642
            -0.000042136948    -0.000042291953    0.029323371460    0.000208681784    -0.000037679693    -0.000041093969    0.032781794524    0.027845074167
            0.030835010448    0.021770528885    -0.000037679690    -0.000041093967    0.027880226732    -0.006227702006    -0.000038588339    -0.000055522853
            -0.000039701321    -0.000048545644    0.032781787378    0.027845077947    -0.000038588340    -0.000055522855    0.029239525590    0.000647542794
0.175     0.016662255736    -0.000050412908    -0.000050087198    -0.000048138855    0.028324575622    0.021045129826    -0.000047525340    -0.000056727149
            -0.000050087240    -0.000048138844    0.020468958344    0.007342458412    -0.000044228823    -0.000048187449    0.032012548599    0.027745164470
            0.028324575622    0.021045129826    -0.000044228775    -0.000048187465    0.016983244753    0.000246737807    -0.000048158937    -0.000064248720
            -0.000047525342    -0.000056727152    0.032012552590    0.027745165973    -0.000048158938    -0.000064248722    0.020585561886    0.007842894759
0.200     0.007801389107    0.012640847373    -0.000060187160    -0.000053163934    0.024219724289    0.024065591247    -0.000058244440    -0.000064414550
            -0.000060187151    -0.000053163945    0.013926963390    0.019722977632    -0.000053439048    -0.000054960390    0.029800168002    0.030719503050
            0.024219724289    0.024065591247    -0.000053439045    -0.000054960387    0.008212443147    0.012820517129    -0.000060737975    -0.000072048462
            -0.000058244442    -0.000064414553    0.029800162481    0.030719507013    -0.000060738073    -0.000072048425    0.014254704742    0.020160061609
0.225     0.004282876630    0.030143123709    -0.000072537296    -0.000056248298    0.021113414733    0.031369940334    -0.000072081913    -0.000070155883
            -0.000072537297    -0.000056248299    0.012374253484    0.035998038427    -0.000065554558    -0.000060026593    0.028382642352    0.037293934356
            0.021113415281    0.031369939965    -0.000065554558    -0.000060026593    0.004705071446    0.030165869055    -0.000076415539    -0.000077423637
            -0.000072081925    -0.000070155870    0.028382646818    0.037293933471    -0.000076415553    -0.000077423623    0.012845780776    0.036255003612
0.250     0.008287348489    0.049489775165    -0.000086460618    -0.000056236013    0.021528857660    0.041924021683    -0.000088253056    -0.000072454997
            -0.000086460618    -0.000056236013    0.017549579066    0.053493125358    -0.000079834298    -0.000061958866    0.029961439690    0.046629149292
            0.021528857660    0.041924021683    -0.000079834290    -0.000061958859    0.008623496746    0.049366413555    -0.000094285982    -0.000078856822
            -0.000088253063    -0.000072455003    0.029961444300    0.046629147519    -0.000094285982    -0.000078856822    0.018034101238    0.053508921022
0.275     0.020201390400    0.066820298926    -0.000100541584    -0.000052390859    0.027028195162    0.053414712034    -0.000105141946    -0.000070325479
            -0.000100541584    -0.000052390859    0.029614496174    0.068856627426    -0.000094750962    -0.000059821931    0.035928732459    0.056764879790
            0.027028195162    0.053414712034    -0.000094750914    -0.000059821970    0.020368835630    0.066617766341    -0.000112530348    -0.000075426796
            -0.000105141987    -0.000070325453    0.035928736422    0.056764877282    -0.000112530361    -0.000075426776    0.029959750561    0.068654437914
0.300     0.038349231837    0.078502973486    -0.000113048529    -0.000044975726    0.037671367458    0.063017158593    -0.000120693566    -0.000063943201
            -0.000113048529    -0.000044975726    0.046979387291    0.079024962011    -0.000108358560    -0.000053806747    0.046395615431    0.065273287814
            0.037671367458    0.063017158593    -0.000108358541    -0.000053806762    0.038310383492    0.078329865610    -0.000128964132    -0.000067446730
            -0.000120693566    -0.000063943201    0.046395618829    0.065273282945    -0.000128964153    -0.000067446712    0.047063788972    0.078714368829
0.325     0.059406151976    0.082191389732    -0.000122641954    -0.000035204962    0.052009992345    0.068286577550    -0.000133304267    -0.000054595977
            -0.000122642036    -0.000035204893    0.066699204438    0.082101654360    -0.000119172787    -0.000045155025    0.060169343157    0.070022255803
            0.052009992345    0.068286577550    -0.000119172787    -0.000045155025    0.059186813430    0.082168578328    -0.000141896167    -0.000056424632
            -0.000133304351    -0.000054595903    0.060169345520    0.070022251136    -0.000141896205    -0.000056424589    0.066475816063    0.081849971148
0.350     0.079307710767    0.077491982559    -0.000128923307    -0.000024859784    0.067554817686    0.067865246096    -0.000142397657    -0.000044275467
            -0.000128923378    -0.000024859728    0.085281182460    0.077890595592    -0.000126694800    -0.000035759274    0.075145656944    0.069793055117
            0.067554817686    0.067865246096    -0.000126694800    -0.000035759274    0.078997570684    0.077717135230    -0.000150795553    -0.000044566668
            -0.000142397745    -0.000044275385    0.075145660599    0.069793051182    -0.000150795553    -0.000044566668    0.084799909903    0.077874707957
0.375     0.094311845190    0.066024606835    -0.000132518504    -0.000015568355    0.081461718480    0.061802110216    -0.000148595137    -0.000034841074
            -0.000132518539    -0.000015568312    0.099594577425    0.067897579369    -0.000131565753    -0.000027350600    0.088891687699    0.064566630394
            0.081461718480    0.061802110216    -0.000131565763    -0.000027350602    0.094045553340    0.066540702519    -0.000156405739    -0.000033925029
            -0.000148595127    -0.000034841071    0.088891688826    0.064566628843    -0.000156405739    -0.000033925029    0.098996112611    0.068251917865
0.400     0.101905804327    0.051007276034    -0.000134800030    -0.000008336778    0.091240908083    0.051536424670    -0.000153399937    -0.000027494465
            -0.000134800104    -0.000008336712    0.107632704664    0.054927875126    -0.000135232805    -0.000021016526    0.099266546915    0.055517368605
            0.091240908083    0.051536424670    -0.000135232731    -0.000021016611    0.101831827376    0.051784214689    -0.000160427056    -0.000025795338
            -0.000153399927    -0.000027494464    0.099266547884    0.055517366873    -0.000160427056    -0.000025795338    0.107117333707    0.055701743566
0.425     0.101393021463    0.036499857851    -0.000137410704    -0.000003291918    0.095356994466    0.039590684790    -0.000158687666    -0.000022420985
            -0.000137410734    -0.000003291895    0.108964930513    0.042398185389    -0.000139464105    -0.000016876641    0.104936485451    0.044740690633
            0.095356994466    0.039590684790    -0.000139464105    -0.000016876641    0.101634804879    0.037432569421    -0.000164948427    -0.000020377709
            -0.000158687666    -0.000022420985    0.104936486232    0.044740688802    -0.000164948497    -0.000020377630    0.108743688433    0.043532690707
0.450     0.094126085594    0.026499010903    -0.000141882194    0.000000274623    0.093694701280    0.029048771672    -0.000166242772    -0.000018824473
            -0.000141882194    0.000000274623    0.104868067941    0.033552835128    -0.000145911628    -0.000014143152    0.105766685136    0.034796407692
            0.093694701280    0.029048771672    -0.000145911628    -0.000014143152    0.094744447359    0.027425003097    -0.000171951978    -0.000016778051
            -0.000166242838    -0.000018824421    0.105766685743    0.034796405846    -0.000171951968    -0.000016778050    0.105105506919    0.034883488265
0.475     0.083336647610    0.023954252974    -0.000149278044    0.000003838616    0.087775183391    0.022792229652    -0.000177316054    -0.000014966347
            -0.000149278044    0.000003838616    0.098099698484    0.030658594015    -0.000155717466    -0.000011165136    0.102973059792    0.028059051086
            0.087775183391    0.022792229652    -0.000155717476    -0.000011165136    0.084303261381    0.024690256098    -0.000182821415    -0.000013084853
            -0.000177316347    -0.000014965966    0.102973060282    0.028059049289    -0.000182821415    -0.000013084853    0.098862205460    0.031947766291
0.500     0.073503961443    0.029870933927    -0.000159866281    0.000009453371    0.080569882928    0.022609411366    -0.000192202421    -0.000008414190
            -0.000159866281    0.000009453371    0.092314176533    0.034331017224    -0.000169122296    -0.000005661782    0.098944641026    0.025996516191
            0.080569882928    0.022609411366    -0.000169122296    -0.000005661782    0.074695164065    0.030263025889    -0.000197873677    -0.000006630044
            -0.000192202421    -0.000008414190    0.098944641026    0.025996516191    -0.000197873677    -0.000006630044    0.093537345234    0.035325464660
0.525     0.069212413787    0.042750084301    -0.000172664140    0.000019378280    0.075745413497    0.028419600810    -0.000209708596    0.000003493931
            -0.000172664140    0.000019378280    0.091109419397    0.043170541892    -0.000184985357    0.000004854738    0.096612079019    0.028565673522
            0.075745413497    0.028419600810    -0.000184985367    0.000004854739    0.070433977985    0.042724415035    -0.000215812113    0.000005466702
            -0.000209708586    0.000003493930    0.096612080016    0.028565670150    -0.000215812363    0.000005467086    0.092600816087    0.043675294646
0.550     0.073726116349    0.058753353349    -0.000185281705    0.000035243038    0.076470018859    0.038064187592    -0.000227003585    0.000022657010
            -0.000185281705    0.000035243038    0.096917113331    0.053982260572    -0.000200622337    0.000022144128    0.098504893457    0.034068798545
            0.076470018859    0.038064187592    -0.000200622337    0.000022144128    0.074764617091    0.058347948560    -0.000233572561    0.000025240014
            -0.000227003585    0.000022657010    0.098504895241    0.034068793387    -0.000233572561    0.000025240014    0.098401539051    0.053925179459
0.575     0.087794310764    0.072747426550    -0.000194361561    0.000057058147    0.084233968674    0.047910170294    -0.000240156161    0.000049087652
            -0.000194361561    0.000057058147    0.110115839980    0.062650890423    -0.000212326936    0.000046179128    0.105823300923    0.039631689377
            0.084233968674    0.047910170294    -0.000212326936    0.000046179128    0.088482413964    0.072109430342    -0.000246949161    0.000052675615
            -0.000240156161    0.000049087652    0.105823304382    0.039631680142    -0.000246949161    0.000052675615    0.111313737357    0.062113811367
0.600     0.109317432137    0.079935294607    -0.000196889816    0.000082711326    0.098314675515    0.054100270510    -0.000245635025    0.000080365200
            -0.000196889816    0.000082711326    0.128832240881    0.065434989621    -0.000216789913    0.000074626523    0.118014476809    0.042179311182
            0.098314675515    0.054100270510    -0.000216789913    0.000074626523    0.109586185487    0.079279881768    -0.000252183007    0.000085166048
            -0.000245635025    0.000080365200    0.118014481226    0.042179298824    -0.000252183007    0.000085166048    0.129542552795    0.064634230234
0.625     0.134043812728    0.077342674954    -0.000191532223    0.000108560488    0.116110025564    0.053802258755    -0.000241812011    0.000112309322
            -0.000191532393    0.000108560938    0.149528553870    0.060124532806    -0.000212532280    0.000103498025    0.133003262766    0.039426264456
            0.116110025564    0.053802258755    -0.000212532289    0.000103497983    0.133943751364    0.076891492999    -0.000247564297    0.000118239675
            -0.000241812021    0.000112309275    0.133003264142    0.039426259813    -0.000247564630    0.000118240577    0.149687642566    0.059348910287
0.650     0.156935921455    0.064555252412    -0.000179273101    0.000130851023    0.134083871724    0.045927757918    -0.000229690708    0.000140567505
            -0.000179273122    0.000130850942    0.168118362298    0.046603618437    -0.000200591903    0.000128677226    0.147928265247    0.030479632459
            0.134083871724    0.045927757918    -0.000200591903    0.000128677226    0.156620579091    0.064476382861    -0.000234184705    0.000147246837
            -0.000229690733    0.000140567465    0.147928258113    0.030479617531    -0.000234184705    0.000147246837    0.167814404181    0.046135873811
0.675     0.173526742137    0.043579985874    -0.000162878600    0.000147055657    0.148745442633    0.031169982050    -0.000212326936    0.000162121272
            -0.000162878600    0.000147055657    0.181068302111    0.026713621806    -0.000183949063    0.000147363135    0.159930627804    0.015912950068
            0.148745433389    0.031169977403    -0.000183949063    0.000147363135    0.173213894989    0.043946533154    -0.000215339924    0.000168961468
            -0.000212326928    0.000162121265    0.159930618437    0.015912943217    -0.000215339903    0.000168961512    0.180516089846    0.026758267661
0.700     0.180876292184    0.018145786471    -0.000145840209    0.000156532285    0.157370478336    0.011647035383    -0.000193680960    0.000176055517
            -0.000145840209    0.000156532285    0.186183548398    0.003643728115    -0.000166401365    0.000158790049    0.166784051508    -0.002502183553
            0.157370478336    0.011647035383    -0.000166401365    0.000158790049    0.180794606556    0.018919406926    -0.000195295256    0.000182400132
            -0.000193680960    0.000176055517    0.166784051507    -0.002502183612    -0.000195295256    0.000182400132    0.185671680596    0.004279820750
0.725     0.178018707740    -0.007174941235    -0.000131271837    0.000160370394    0.158400415788    -0.009577700034    -0.000177379470    0.000183432555
            -0.000131271824    0.000160370379    0.182950381584    -0.018835283405    -0.000151374002    0.000164083400    0.167255174963    -0.022205166990
            0.158400415788    -0.009577700034    -0.000151374002    0.000164083400    0.178358572058    -0.006139545954    -0.000177987947    0.000188716856
            -0.000177379464    0.000183432548    0.167255174692    -0.022205169033    -0.000177987947    0.000188716856    0.182776368825    -0.017675293080
0.750     0.166081063480    -0.027822855748    -0.000121294314    0.000160869796    0.151717705350    -0.028969910105    -0.000166011188    0.000186766389
            -0.000121294314    0.000160869796    0.172577142541    -0.037122668564    -0.000141243522    0.000165726318    0.161349673896    -0.040287470790
            0.151717705350    -0.028969910105    -0.000141243522    0.000165726318    0.166948180612    -0.026750271197    -0.000166249452    0.000190646378
            -0.000166011188    0.000186766389    0.161349673896    -0.040287470790    -0.000166249452    0.000190646378    0.172981134743    -0.035641621719
0.775     0.148161123145    -0.040069113958    -0.000116759478    0.000160910420    0.138833811983    -0.043094834033    -0.000160748289    0.000189359062
            -0.000116759444    0.000160910432    0.157793287049    -0.048462980309    -0.000136999062    0.000166888575    0.150413830921    -0.054012390660
            0.138833811983    -0.043094834033    -0.000136999081    0.000166888598    0.149543051554    -0.039221306973    -0.000161378090    0.000191815505
            -0.000160748282    0.000189359055    0.150413821509    -0.054012387280    -0.000161378070    0.000191815482    0.158897960422    -0.046965987064
