# GHz S RI R 45
0.000     0.035937962000    0.000000000000    0.000080023544    -0.000000000000    0.000744450560    0.000000000000    0.000059099403    -0.000000000000
            0.000080023545    -0.000000000000    0.035295609000    0.000000000000    0.000049903916    -0.000000000000    0.000590381190    0.000000000000
            0.000744451010    0.000000000000    0.000049903891    -0.000000000000    0.035919451000    0.000000000000    0.000059768312    -0.000000000000
            0.000059099431    -0.000000000000    0.000590381880    0.000000000000    0.000059768235    -0.000000000000    0.035122757000    0.000000000000
0.025     0.042214827222    0.006438661750    0.000097770341    0.000035920505    0.003488821877    0.012730960766    0.000096627087    0.000047510589
            0.000097770341    0.000035920504    0.040816897283    0.006095761168    0.000100170108    0.000057017939    0.002940653166    0.012194677728
            0.003488697195    0.012730791708    0.000100170176    0.000057017920    0.042114630901    0.006368239962    0.000091857565    0.000044474972
            0.000096627106    0.000047510573    0.002940528748    0.012194509198    0.000091857474    0.000044474977    0.040802378832    0.006154125580
0.050     0.046739365514    0.005332501665    0.000114592193    0.000056148945    0.010519437227    0.022542769764    0.000119927198    0.000058819711
            0.000114592184    0.000056148940    0.044656040718    0.005440405987    0.000128905338    0.000064586299    0.009171697051    0.022033720322
            0.010519466794    0.022542758173    0.000128905365    0.000064586312    0.046533266603    0.005252726948    0.000112928970    0.000058419411
            0.000119927226    0.000058819722    0.009171726277    0.022033709240    0.000112928970    0.000058419411    0.044612892693    0.005411923096
0.075     0.048244965627    0.001667873799    0.000133620653    0.000072805304    0.019430485251    0.027781572072    0.000137849391    0.000069370657
            0.000133620644    0.000072805299    0.045772281367    0.002840509301    0.000148279054    0.000072474798    0.017340624325    0.028031501496
            0.019430490850    0.027781571817    0.000148279089    0.000072474818    0.047927564307    0.001672856880    0.000130487301    0.000071180838
            0.000137849415    0.000069370676    0.017340629818    0.028031501626    0.000130487301    0.000071180838    0.045620275221    0.002837809797
0.100     0.045650056550    -0.002900873729    0.000155827005    0.000085214133    0.027359627438    0.028488315247    0.000157001276    0.000078037813
            0.000155827005    0.000085214133    0.043527570033    -0.000274092109    0.000168002105    0.000079113624    0.025126950169    0.030085778595
            0.027359628131    0.028488315968    0.000168002151    0.000079113645    0.045282626631    -0.002730712107    0.000149789258    0.000081756528
            0.000157001319    0.000078037838    0.025126950810    0.030085779362    0.000149789258    0.000081756528    0.043301887709    -0.000152714424
0.125     0.038510861218    -0.005738116044    0.000180464281    0.000092245013    0.032008985855    0.026315754048    0.000177803653    0.000083301219
            0.000180464270    0.000092245011    0.037721630775    -0.001852901761    0.000188913248    0.000082709200    0.030591360715    0.029356294715
            0.032008986628    0.026315754683    0.000188913304    0.000082709221    0.038197842034    -0.005377444949    0.000171058603    0.000088704666
            0.000177803709    0.000083301241    0.030591362158    0.029356296100    0.000171058603    0.000088704666    0.037514825904    -0.001563100083
0.150     0.027926407655    -0.004123686052    0.000206348822    0.000094113719    0.032440451762    0.023937356289    0.000199707204    0.000084916317
            0.000206348821    0.000094113722    0.029323371460    0.000208681784    0.000210626484    0.000082873915    0.032781794524    0.027845074167
            0.032440453789    0.023937356911    0.000210626554    0.000082873930    0.027783414661    -0.003616829023    0.000193627579    0.000091849991
            0.000199707285    0.000084916331    0.032781787378    0.027845077947    0.000193627579    0.000091849991    0.029239525590    0.000647542794
0.175     0.016642279149    0.003925701502    0.000232511439    0.000090585581    0.029429106739    0.024130113815    0.000222145961    0.000082473895
            0.000232511438    0.000090585585    0.020468958344    0.007342458412    0.000232651448    0.000079201507    0.032012548599    0.027745164470
            0.029429109481    0.024130115203    0.000232651531    0.000079201513    0.016739450747    0.004465279548    0.000216888137    0.000090812439
            0.000222146034    0.000082473900    0.032012552590    0.027745165973    0.000216888146    0.000090812443    0.020585561886    0.007842894759
0.200     0.008322461250    0.018666295274    0.000258144668    0.000081909844    0.025284179740    0.028775586513    0.000244580375    0.000075953577
            0.000258144678    0.000081909847    0.013926963390    0.019722977632    0.000254526059    0.000071651963    0.029800168002    0.030719503050
            0.025284174216    0.028775591367    0.000254526126    0.000071651948    0.008649618647    0.019094179653    0.000240288196    0.000085614295
            0.000244580461    0.000075953570    0.029800162481    0.030719507013    0.000240288205    0.000085614298    0.014254704742    0.020160061609
0.225     0.006503400155    0.038231779388    0.000282073830    0.000068081027    0.023088807097    0.038077072129    0.000266116857    0.000065101806
            0.000282073829    0.000068081032    0.012374253484    0.035998038427    0.000275417885    0.000059957782    0.028382642352    0.037293934356
            0.023088810939    0.038077070969    0.000275417952    0.000059957756    0.006962154933    0.038427320479    0.000262958954    0.000076008600
            0.000266116945    0.000065101783    0.028382646818    0.037293933471    0.000262958515    0.000076008821    0.012845780776    0.036255003612
0.250     0.013356808077    0.058944051363    0.000303240770    0.000049577556    0.025574787251    0.050376272563    0.000285803817    0.000050073330
            0.000303240780    0.000049577555    0.017549579066    0.053493125358    0.000294418746    0.000044246981    0.029961439690    0.046629149292
            0.025574791647    0.050376270331    0.000294418812    0.000044246944    0.013787615623    0.058860898940    0.000283979089    0.000062124366
            0.000285803895    0.000050073290    0.029961444300    0.046629147519    0.000283979101    0.000062124358    0.018034101238    0.053508921022
0.275     0.028803088617    0.076308265496    0.000320286220    0.000027274797    0.034085344409    0.062683695524    0.000302347173    0.000031405621
            0.000320286220    0.000027274799    0.029614496174    0.068856627426    0.000310260893    0.000025029980    0.035928732459    0.056764879790
            0.034085348307    0.062683692266    0.000310260947    0.000025029936    0.029038479838    0.076001304112    0.000302061474    0.000044433318
            0.000302347238    0.000031405569    0.035928736422    0.056764877282    0.000302061486    0.000044433309    0.029959750561    0.068654437914
0.300     0.050368815760    0.086423985883    0.000332489052    0.000002640877    0.048084467273    0.071729379499    0.000314889767    0.000010282326
            0.000332489062    0.000002640869    0.046979387291    0.079024962011    0.000322100005    0.000003470356    0.046395615431    0.065273287814
            0.048084468663    0.071729376159    0.000322100056    0.000003470314    0.050294735345    0.086038640629    0.000316309081    0.000024055102
            0.000314889829    0.000010282263    0.046395618829    0.065273282945    0.000316309092    0.000024055093    0.047063788972    0.078714368829
0.325     0.073886570187    0.087177746465    0.000339580091    -0.000022507399    0.065364885058    0.075028624958    0.000322999298    -0.000011693575
            0.000339580101    -0.000022507407    0.066699204438    0.082101654360    0.000329516596    -0.000018842597    0.060169343157    0.070022255803
            0.065364887020    0.075028621922    0.000329516643    -0.000018842645    0.073484830178    0.086907098601    0.000326216166    0.000002548415
            0.000322999345    -0.000011693643    0.060169345520    0.070022251136    0.000326216176    0.000002548403    0.066475816063    0.081849971148
0.350     0.094701080531    0.078838237375    0.000342348399    -0.000046543340    0.082770293070    0.071593930994    0.000327218874    -0.000032956238
            0.000342348398    -0.000046543349    0.085281182460    0.077890595592    0.000333064377    -0.000040354824    0.075145656944    0.069793055117
            0.082770288006    0.071593921563    0.000333064422    -0.000040354869    0.094062990615    0.078863995062    0.000332238859    -0.000018513194
            0.000327218908    -0.000032956298    0.075145660599    0.069793051182    0.000332238868    -0.000018513209    0.084799909903    0.077874707957
0.375     0.108903955029    0.063904016150    0.000342046169    -0.000068327461    0.097060954165    0.062132388400    0.000328631766    -0.000052348728
            0.000342046158    -0.000068327465    0.099594577425    0.067897579369    0.000333839331    -0.000059925534    0.088891687699    0.064566630394
            0.097060955250    0.062132386706    0.000333839365    -0.000059925571    0.108210334882    0.064340240538    0.000335389545    -0.000037930825
            0.000328631798    -0.000052348786    0.088891688826    0.064566628843    0.000335389554    -0.000037930836    0.098996112611    0.068251917865
0.400     0.114277057536    0.046453584167    0.000340310343    -0.000087623630    0.105715188102    0.048871711091    0.000328755476    -0.000069507698
            0.000340310342    -0.000087623636    0.107632704664    0.054927875126    0.000333366481    -0.000077216141    0.099266546915    0.055517368605
            0.105715188955    0.048871709246    0.000333366513    -0.000077216179    0.113754088619    0.047306238369    0.000337150416    -0.000055265961
            0.000328755496    -0.000069507750    0.099266547884    0.055517366873    0.000337150404    -0.000055265972    0.107117333707    0.055701743566
0.425     0.110818325426    0.031188332670    0.000338464267    -0.000104862108    0.107560965959    0.035089633259    0.000328926192    -0.000084759699
            0.000338464257    -0.000104862105    0.108964930513    0.042398185389    0.000332972470    -0.000092584079    0.104936485451    0.044740690633
            0.107560965959    0.035089633259    0.000332972510    -0.000092584121    0.110677184801    0.032342098562    0.000338869484    -0.000070773210
            0.000328926220    -0.000084759749    0.104936486232    0.044740688802    0.000338869483    -0.000070773216    0.108743688433    0.043532690707
0.450     0.100869073443    0.022361786121    0.000337407808    -0.000121100791    0.103237869540    0.024406532871    0.000330133478    -0.000099076753
            0.000337407798    -0.000121100788    0.104868067941    0.033552835128    0.000333616657    -0.000107019909    0.105766685136    0.034796407692
            0.103237869540    0.024406532871    0.000333616694    -0.000107019959    0.101241852166    0.023595686542    0.000341591003    -0.000085362548
            0.000330133516    -0.000099076801    0.105766685743    0.034796405846    0.000341591001    -0.000085362554    0.105105506919    0.034883488265
0.475     0.088763550380    0.022636405060    0.000337336445    -0.000137514936    0.095310425533    0.019792135901    0.000332725669    -0.000113690275
            0.000337336445    -0.000137514936    0.098099698484    0.030658594015    0.000335604327    -0.000121744195    0.102973059792    0.028059051086
            0.095310426512    0.019792136104    0.000335604657    -0.000121744633    0.089651036678    0.023674815542    0.000345750832    -0.000100257215
            0.000332725707    -0.000113690320    0.102973060282    0.028059049289    0.000345750832    -0.000100257215    0.098862205460    0.031947766291
0.500     0.079891365267    0.032091055926    0.000337856679    -0.000155299252    0.087807545186    0.022475260658    0.000336415974    -0.000129944032
            0.000337856679    -0.000155299252    0.092314176533    0.034331017224    0.000338617891    -0.000138059462    0.098944641026    0.025996516191
            0.087807545186    0.022475260658    0.000338617933    -0.000138059520    0.081141318594    0.032682801441    0.000351145923    -0.000116855336
            0.000336415470    -0.000129943284    0.098944641026    0.025996516191    0.000351145931    -0.000116855345    0.093537345234    0.035325464660
0.525     0.079129735265    0.047778426116    0.000337977977    -0.000175246669    0.085014372357    0.031176814008    0.000340204750    -0.000148902304
            0.000337977980    -0.000175246663    0.091109419397    0.043170541892    0.000341670060    -0.000156963116    0.096612079019    0.028565673522
            0.085014376806    0.031176810589    0.000341670095    -0.000156963183    0.080466477682    0.047783166497    0.000356817517    -0.000136339419
            0.000340204790    -0.000148902364    0.096612080016    0.028565670150    0.000356817524    -0.000136339428    0.092600816087    0.043675294646
0.550     0.089091908203    0.064347631773    0.000336288681    -0.000197647701    0.089872449071    0.042276645071    0.000342503109    -0.000171079673
            0.000336288690    -0.000197647706    0.096917113331    0.053982260572    0.000343226338    -0.000178922327    0.098504893457    0.034068798545
            0.089872449071    0.042276645071    0.000343226357    -0.000178922398    0.090195216179    0.063794416476    0.000361129082    -0.000159354525
            0.000342503147    -0.000171079752    0.098504895241    0.034068793387    0.000361129091    -0.000159354529    0.098401539051    0.053925179459
0.575     0.109007939559    0.075752599624    0.000331249465    -0.000221854095    0.102758475535    0.051051266377    0.000341466311    -0.000195965970
            0.000331249490    -0.000221854129    0.110115839980    0.062650890423    0.000341522743    -0.000203420418    0.105823300923    0.039631689377
            0.102758475535    0.051051266377    0.000341522745    -0.000203420492    0.109617209960    0.074840921690    0.000362109815    -0.000185488413
            0.000341466346    -0.000195966069    0.105823304382    0.039631680142    0.000362109826    -0.000185488435    0.111313737357    0.062113811367
0.600     0.134958003049    0.077345742646    0.000321770212    -0.000246355777    0.121397560280    0.053419581203    0.000335667754    -0.000221976799
            0.000321770198    -0.000246355730    0.128832240881    0.065434989621    0.000335204196    -0.000228918839    0.118014476809    0.042179311182
            0.121397564009    0.053419572727    0.000335204198    -0.000228918909    0.134955803357    0.076383379742    0.000358162082    -0.000213160354
            0.000335667775    -0.000221976931    0.118014481226    0.042179298824    0.000358161725    -0.000213159507    0.129542552795    0.064634230234
0.625     0.161292826247    0.067299992231    0.000307795801    -0.000269052625    0.141831515345    0.047224638543    0.000324791849    -0.000246811070
            0.000307795798    -0.000269052613    0.149528553870    0.060124532806    0.000323989477    -0.000253184585    0.133003262766    0.039426264456
            0.141831517817    0.047224631117    0.000323989461    -0.000253184655    0.160736697729    0.066608613240    0.000348818175    -0.000239981113
            0.000324791839    -0.000246811116    0.133003264142    0.039426259813    0.000348818004    -0.000239980708    0.149687642566    0.059348910287
0.650     0.182447961271    0.046846283366    0.000290464572    -0.000288090530    0.159787518118    0.032583760923    0.000309868306    -0.000268302270
            0.000290464550    -0.000288090609    0.168118362298    0.046603618437    0.000308907949    -0.000274125754    0.147928265247    0.030479632459
            0.159787518687    0.032583758134    0.000308907945    -0.000274125818    0.181545813132    0.046674206169    0.000335031375    -0.000263631017
            0.000309868308    -0.000268302329    0.147928258113    0.030479617531    0.000335031410    -0.000263630940    0.167814404181    0.046135873811
0.675     0.194307302561    0.019574297248    0.000271806138    -0.000302460026    0.171711437440    0.011493857877    0.000292960178    -0.000285152279
            0.000271806130    -0.000302460060    0.181068302111    0.026713621806    0.000291994820    -0.000290509494    0.159930627804    0.015912950068
            0.171711437440    0.011493857877    0.000291994805    -0.000290509581    0.193360109780    0.020036731026    0.000318872038    -0.000282652966
            0.000292960187    -0.000285152298    0.159930618437    0.015912943217    0.000318872038    -0.000282652996    0.180516089846    0.026758267661
0.700     0.194907440921    -0.009622179763    0.000254055754    -0.000312370240    0.175347020747    -0.012794671130    0.000276472866    -0.000297333973
            0.000254055773    -0.000312370186    0.186183548398    0.003643728115    0.000275601666    -0.000302360056    0.166784051508    -0.002502183553
            0.175347020747    -0.012794671130    0.000275601648    -0.000302360099    0.194237062015    -0.008565914308    0.000302825737    -0.000296890750
            0.000276472891    -0.000297334032    0.166784051507    -0.002502183612    0.000302825787    -0.000296890756    0.185671680596    0.004279820750
0.725     0.184603184648    -0.035543714148    0.000239039437    -0.000319101627    0.169989514693    -0.036357620943    0.000262469014    -0.000306017648
            0.000239039409    -0.000319101636    0.182950381584    -0.018835283405    0.000261720388    -0.000310873798    0.167255174963    -0.022205166990
            0.169989514058    -0.036357623910    0.000261720371    -0.000310873878    0.184480527875    -0.034085652409    0.000289075972    -0.000307445118
            0.000262468933    -0.000306017717    0.167255174692    -0.022205169033    0.000289075924    -0.000307445122    0.182776368825    -0.017675293080
0.750     0.166000321181    -0.053565941633    0.000227675209    -0.000324647385    0.156709811440    -0.055150527725    0.000252145361    -0.000313205809
            0.000227675152    -0.000324647400    0.172577142541    -0.037122668564    0.000251452744    -0.000318047936    0.161349673896    -0.040287470790
            0.156709811440    -0.055150527725    0.000251452678    -0.000318048001    0.166580810727    -0.052014037670    0.000278958728    -0.000316308154
            0.000252145296    -0.000313205874    0.161349673896    -0.040287470790    0.000278958780    -0.000316308134    0.172981134743    -0.035641621719
0.775     0.143697578251    -0.060515950455    0.000219819059    -0.000331158627    0.138490417106    -0.065753061891    0.000245586698    -0.000321218865
            0.000219819064    -0.000331158636    0.157793287049    -0.048462980309    0.000244796561    -0.000326135205    0.150413830921    -0.054012390660
            0.138490417106    -0.065753061891    0.000244796516    -0.000326135263    0.144968820490    -0.059234892316    0.000272690101    -0.000325861294
            0.000245586655    -0.000321218936    0.150413821509    -0.054012387280    0.000272690101    -0.000325861294    0.158897960422    -0.046965987064
0.800     0.123689277609    -0.055658440020    0.000214318949    -0.000340415825    0.120049019137    -0.066418066602    0.000241769174    -0.000332128096
