# GHz S RI R 45
0.000     0.036078663000    0.000000000000    0.000002049167    -0.000000000000    0.000841175860    0.000000000000    0.000012182726    -0.000000000000
            0.000002049262    -0.000000000000    0.035295609000    0.000000000000    0.000007027725    -0.000000000000    0.000590381190    0.000000000000
            0.000841254010    0.000000000000    0.000007027856    -0.000000000000    0.036055453000    0.000000000000    0.000005086904    0.000000000000
            0.000012182823    -0.000000000000    0.000590381880    0.000000000000    0.000005086777    0.000000000000    0.035122757000    0.000000000000
0.025     0.041998523496    0.005651436089    -0.000001779403    -0.000003896447    0.003381822584    0.011767050731    -0.000000859900    -0.000010618623
            -0.000001779305    -0.000003896457    0.040816897283    0.006095761168    0.000004505739    -0.000003504414    0.002940653166    0.012194677728
            0.003381779097    0.011766876984    0.000004505874    -0.000003504420    0.041949384535    0.005703825168    0.000004816781    -0.000003098487
            -0.000000859813    -0.000010618627    0.002940528748    0.012194509198    0.000004816650    -0.000003098481    0.040802378832    0.006154125580
0.050     0.046235358662    0.004042657011    -0.000002819361    -0.000004038368    0.010029650319    0.020826751607    -0.000005147435    -0.000008048774
            -0.000002819265    -0.000004038379    0.044656040718    0.005440405987    0.000003700283    -0.000004387273    0.009171697051    0.022033720322
            0.010029758501    0.020826731697    0.000003700412    -0.000004387286    0.046216295202    0.004170344150    0.000004609063    -0.000005941067
            -0.000005147346    -0.000008048783    0.009171726277    0.022033709240    0.000004608928    -0.000005941051    0.044612892693    0.005411923096
0.075     0.047537941927    -0.000002642497    -0.000002527721    -0.000005057983    0.018508458874    0.025497468081    -0.000005055088    -0.000007497767
            -0.000002527626    -0.000005057999    0.045772281367    0.002840509301    0.000003991969    -0.000005798212    0.017340624325    0.028031501496
            0.018508542751    0.025497455387    0.000003992102    -0.000005798231    0.047590706764    0.000177560253    0.000004606556    -0.000009015073
            -0.000005055000    -0.000007497781    0.017340629818    0.028031501626    0.000004606432    -0.000009015052    0.045620275221    0.002837809797
0.100     0.044890468454    -0.004958850044    -0.000002043185    -0.000006879214    0.026065682703    0.025758858851    -0.000004013476    -0.000008654985
            -0.000002043091    -0.000006879236    0.043527570033    -0.000274092109    0.000004583042    -0.000007923854    0.025126950169    0.030085778595
            0.026065757984    0.025758842425    0.000004583169    -0.000007923878    0.045034135904    -0.004768436185    0.000004559318    -0.000012587175
            -0.000004013388    -0.000008655003    0.025126950810    0.030085779362    0.000004559196    -0.000012587148    0.043301887709    -0.000152714424
0.125     0.037809896948    -0.008406673847    -0.000001804911    -0.000009466773    0.030448031532    0.023121099257    -0.000002963236    -0.000011362121
            -0.000001804873    -0.000009466744    0.037721630775    -0.001852901761    0.000005097460    -0.000010939395    0.030591360715    0.029356294715
            0.030448107681    0.023121080000    0.000005097597    -0.000010939427    0.038039544485    -0.008254952630    0.000004212567    -0.000016893043
            -0.000002963169    -0.000011362097    0.030591362158    0.029356296100    0.000004212438    -0.000016893007    0.037514825904    -0.001563100083
0.150     0.027231525973    -0.007717399698    -0.000002081437    -0.000012714821    0.030642670588    0.020104869378    -0.000002481810    -0.000015356121
            -0.000002081348    -0.000012714852    0.029323371460    0.000208681784    0.000005059333    -0.000014866885    0.032781794524    0.027845074167
            0.030642744892    0.020104845450    0.000005059468    -0.000014866923    0.027520932972    -0.007644580983    0.000003077000    -0.000021980791
            -0.000002481725    -0.000015356147    0.032781787378    0.027845077947    0.000003076884    -0.000021980752    0.029239525590    0.000647542794
0.175     0.015618530419    -0.000948471786    -0.000003263141    -0.000016511844    0.027234311025    0.019410945636    -0.000003247954    -0.000020421803
            -0.000003263053    -0.000016511879    0.020468958344    0.007342458412    0.000003949089    -0.000019573965    0.032012548599    0.027745164470
            0.027234384460    0.019410918412    0.000003949215    -0.000019574007    0.015919901027    -0.000980292764    0.000000628769    -0.000027678134
            -0.000003247872    -0.000020421833    0.032012552590    0.027745165973    0.000000628650    -0.000027678090    0.020585561886    0.007842894759
0.200     0.006347906415    0.012332673135    -0.000005652956    -0.000020527376    0.022295934318    0.022997733559    -0.000005701112    -0.000025998006
            -0.000005652866    -0.000020527413    0.013926963390    0.019722977632    0.000001287933    -0.000024589868    0.029800168002    0.030719503050
            0.022296004890    0.022997702745    0.000001288057    -0.000024589919    0.006602060826    0.012198439506    -0.000003606826    -0.000033442432
            -0.000005701038    -0.000025998040    0.029800162481    0.030719507013    -0.000003606938    -0.000033442385    0.014254704742    0.020160061609
0.225     0.002803841026    0.030632661324    -0.000009485432    -0.000024230208    0.018745883068    0.031316905588    -0.000010171077    -0.000031317936
            -0.000009485350    -0.000024230248    0.012374253484    0.035998038427    -0.000003133193    -0.000029192811    0.028382642352    0.037293934356
            0.018745951193    0.031316871802    -0.000003133067    -0.000029192869    0.002957065597    0.030431336971    -0.000009781114    -0.000038465276
            -0.000010171003    -0.000031317970    0.028382646818    0.037293933471    -0.000009781222    -0.000038465224    0.012845780776    0.036255003612
0.250     0.007263255694    0.050727216130    -0.000014600393    -0.000026939064    0.019338955608    0.043055673126    -0.000016411729    -0.000035462547
            -0.000014600314    -0.000026939108    0.017549579066    0.053493125358    -0.000009074792    -0.000032544377    0.029961439690    0.046629149292
            0.019339021875    0.043055635687    -0.000009074675    -0.000032544440    0.007285653457    0.050521074531    -0.000017546357    -0.000041844623
            -0.000016411651    -0.000035462589    0.029961444300    0.046629147519    -0.000017546462    -0.000041844566    0.018034101238    0.053508921022
0.275     0.020034082701    0.068469496397    -0.000020469253    -0.000028118001    0.025670124685    0.055519971741    -0.000023756037    -0.000037743959
            -0.000020469202    -0.000028118086    0.029614496174    0.068856627426    -0.000015816609    -0.000034061669    0.035928732459    0.056764879790
            0.025670192615    0.055519930418    -0.000015816491    -0.000034061742    0.019933088638    0.068332317843    -0.000026036611    -0.000042993841
            -0.000023755956    -0.000037744005    0.035928736422    0.056764877282    -0.000026036716    -0.000042993777    0.029959750561    0.068654437914
0.300     0.039198873221    0.080029926640    -0.000026283699    -0.000027645031    0.037607097843    0.065539066110    -0.000031192290    -0.000038000179
            -0.000026283620    -0.000027645083    0.046979387291    0.079024962011    -0.000022415419    -0.000033669349    0.046395615431    0.065273287814
            0.037607161699    0.065539023704    -0.000022415309    -0.000033669427    0.039022542194    0.080024324192    -0.000034170021    -0.000041912564
            -0.000031192218    -0.000038000226    0.046395618829    0.065273282945    -0.000034170123    -0.000041912494    0.047063788972    0.078714368829
0.325     0.061114358972    0.083033428664    -0.000031339425    -0.000025885559    0.053346324798    0.070477171734    -0.000037865453    -0.000036661897
            -0.000031339344    -0.000025885620    0.066699204438    0.082101654360    -0.000028073168    -0.000031860432    0.060169343157    0.070022255803
            0.053346385674    0.070477126909    -0.000028073068    -0.000031860509    0.060940034315    0.083190003373    -0.000041066248    -0.000039236025
            -0.000037865384    -0.000036661945    0.060169345520    0.070022251136    -0.000041066352    -0.000039235947    0.066475816063    0.081849971148
0.350     0.081430331073    0.077233787366    -0.000035293766    -0.000023534892    0.069991092412    0.068996782890    -0.000043355331    -0.000034558659
            -0.000035293692    -0.000023534950    0.085281182460    0.077890595592    -0.000032460359    -0.000029448931    0.075145656944    0.069793055117
            0.069991151807    0.068996735459    -0.000032460261    -0.000029449018    0.081344955339    0.077538781529    -0.000046401223    -0.000035942591
            -0.000043355267    -0.000034558707    0.075145660599    0.069793051182    -0.000046401312    -0.000035942517    0.084799909903    0.077874707957
0.375     0.096231864795    0.064523848045    -0.000038268554    -0.000021305603    0.084345809005    0.061369288212    -0.000047813909    -0.000032537087
            -0.000038268479    -0.000021305667    0.099594577425    0.067897579369    -0.000035760342    -0.000027243816    0.088891687699    0.064566630394
            0.084345874447    0.061369232262    -0.000035760249    -0.000027243903    0.096307903921    0.064917711711    -0.000050450144    -0.000032975998
            -0.000047813844    -0.000032537141    0.088891688826    0.064566628843    -0.000050450239    -0.000032975909    0.098996112611    0.068251917865
0.400     0.102985164187    0.048448121457    -0.000040751521    -0.000019698748    0.093709700867    0.049410766492    -0.000051841429    -0.000031183336
            -0.000040751457    -0.000019698813    0.107632704664    0.054927875126    -0.000038561549    -0.000025770277    0.099266546915    0.055517368605
            0.093709700005    0.049410768127    -0.000038561456    -0.000025770371    0.103257820502    0.048837181818    -0.000053949385    -0.000030925996
            -0.000051841361    -0.000031183406    0.099266547884    0.055517366873    -0.000053949447    -0.000030925931    0.107117333707    0.055701743566
0.425     0.101129627823    0.033379708088    -0.000043412338    -0.000018869555    0.096537334965    0.036103644242    -0.000056262288    -0.000030643114
            -0.000043412274    -0.000018869627    0.108964930513    0.042398185389    -0.000041621546    -0.000025160064    0.104936485451    0.044740690633
            0.096537394571    0.036103570506    -0.000041621466    -0.000025160154    0.101581092698    0.033657133941    -0.000057819512    -0.000029901930
            -0.000056262220    -0.000030643192    0.104936486232    0.044740688802    -0.000057819574    -0.000029901859    0.108743688433    0.043532690707
0.450     0.092302711026    0.023550096092    -0.000046957896    -0.000018601532    0.092945223839    0.024978098790    -0.000061927148    -0.000030586200
            -0.000046957833    -0.000018601611    0.104868067941    0.033552835128    -0.000045705670    -0.000025117370    0.105766685136    0.034796407692
            0.092945286539    0.024978023454    -0.000045705613    -0.000025117442    0.092857670380    0.023625480210    -0.000062960951    -0.000029499939
            -0.000061927092    -0.000030586267    0.105766685743    0.034796405846    -0.000062961006    -0.000029499871    0.105105506919    0.034883488265
0.475     0.080140995034    0.021989448372    -0.000051963505    -0.000018284652    0.084923723683    0.019215824938    -0.000069479484    -0.000030195617
            -0.000051963452    -0.000018284725    0.098099698484    0.030658594015    -0.000051390807    -0.000024940780    0.102973059792    0.028059051086
            0.084923781509    0.019215746095    -0.000051390751    -0.000024940852    0.080678780358    0.021819910670    -0.000070019496    -0.000028841670
            -0.000069479427    -0.000030195693    0.102973060282    0.028059049289    -0.000070019580    -0.000028841561    0.098862205460    0.031947766291
0.500     0.069566917293    0.029549833148    -0.000058678316    -0.000016929725    0.076062685674    0.020615265915    -0.000079114925    -0.000028229092
            -0.000058678267    -0.000016929800    0.092314176533    0.034331017224    -0.000058871561    -0.000023555336    0.098944641026    0.025996516191
            0.076062739701    0.020615185079    -0.000058871502    -0.000023555419    0.069950442520    0.029163259007    -0.000079155423    -0.000026641142
            -0.000079114869    -0.000028229181    0.098944641026    0.025996516191    -0.000079155476    -0.000026641068    0.093537345234    0.035325464660
0.525     0.065491766698    0.044317310260    -0.000066714822    -0.000013340128    0.070600121763    0.028732798667    -0.000090240400    -0.000023270486
            -0.000066714778    -0.000013340204    0.091109419397    0.043170541892    -0.000067663229    -0.000019732706    0.096612079019    0.028565673522
            0.070600169409    0.028732716081    -0.000067663176    -0.000019732793    0.065610394504    0.043816830037    -0.000089727703    -0.000021485078
            -0.000090240376    -0.000023270530    0.096612080016    0.028565670150    -0.000089727750    -0.000021485007    0.092600816087    0.043675294646
0.550     0.071215863733    0.061874142909    -0.000074890467    -0.000006561497    0.071985566283    0.040747032096    -0.000101354181    -0.000014267762
            -0.000074890428    -0.000006561573    0.096917113331    0.053982260572    -0.000076482933    -0.000012544943    0.098504893457    0.034068798545
            0.071985609739    0.040746947204    -0.000076482883    -0.000012545031    0.071026948588    0.061415856638    -0.000100196184    -0.000012362299
            -0.000101354129    -0.000014267845    0.098504895241    0.034068793387    -0.000100196235    -0.000012362217    0.098401539051    0.053925179459
0.575     0.087161839349    0.076568164399    -0.000081434166    0.000003516404    0.081554597823    0.052302522876    -0.000110332817    -0.000001197891
            -0.000081434127    0.000003516317    0.110115839980    0.062650890423    -0.000083497326    -0.000001967621    0.105823300923    0.039631689377
            0.081554638842    0.052302436688    -0.000083497281    -0.000001967708    0.086713438120    0.076315744674    -0.000108443566    0.000000678673
            -0.000110332797    -0.000001197930    0.105823304382    0.039631680142    -0.000108443606    0.000000678749    0.111313737357    0.062113811367
0.600     0.110655481323    0.083371984615    -0.000084705656    0.000015862041    0.098054519296    0.059042783736    -0.000115274051    0.000014648376
            -0.000084705620    0.000015861958    0.128832240881    0.065434989621    -0.000087065441    0.000010869836    0.118014476809    0.042179311182
            0.098054556071    0.059042703277    -0.000087065364    0.000010869657    0.110078260600    0.083445201472    -0.000112620286    0.000016284593
            -0.000115274051    0.000014648376    0.118014481226    0.042179298824    -0.000112620314    0.000016284678    0.129542552795    0.064634230234
0.625     0.136863208763    0.079448948613    -0.000083935888    0.000028600886    0.118201260251    0.058014549742    -0.000115311191    0.000031041655
            -0.000083935854    0.000028600809    0.149528553870    0.060124532806    -0.000086475107    0.000024015562    0.133003262766    0.039426264456
            0.118201273550    0.058014499950    -0.000086475058    0.000024015418    0.136335349291    0.079885189248    -0.000111954963    0.000032202467
            -0.000115311178    0.000031041587    0.133003264142    0.039426259813    -0.000111955012    0.000032202587    0.149687642566    0.059348910287
0.650     0.160365046568    0.064788523178    -0.000079566449    0.000039789142    0.137856520823    0.048357242604    -0.000110978169    0.000045701186
            -0.000079566420    0.000039789058    0.168118362298    0.046603618437    -0.000082249726    0.000035502374    0.147928265247    0.030479632459
            0.137856543458    0.048357147864    -0.000082249705    0.000035502263    0.160063784596    0.065532045369    -0.000107075969    0.000046184134
            -0.000110978145    0.000045701086    0.147928258113    0.030479617531    -0.000107075992    0.000046184232    0.167814404181    0.046135873811
0.675     0.176581915824    0.041889695489    -0.000072958359    0.000048102186    0.153134503013    0.031212278470    -0.000103862436    0.000057065200
            -0.000072958333    0.000048102096    0.181068302111    0.026713621806    -0.000075826432    0.000044029834    0.159930627804    0.015912950068
            0.153134512274    0.031212233034    -0.000075826401    0.000044029692    0.176639469595    0.042802295123    -0.000099639174    0.000056747174
            -0.000103862411    0.000057065162    0.159930618437    0.015912943217    -0.000099639202    0.000056747306    0.180516089846    0.026758267661
0.700     0.182685779830    0.014922732018    -0.000065839797    0.000053167867    0.161150557653    0.009243137022    -0.000095987225    0.000064673709
            -0.000065839767    0.000053167786    0.186183548398    0.003643728115    -0.000068977419    0.000049285572    0.166784051508    -0.002502183553
            0.161150567394    0.009243141813    -0.000068977409    0.000049285474    0.183155882871    0.015814471269    -0.000091683235    0.000063528122
            -0.000095987201    0.000064673619    0.166784051507    -0.002502183612    -0.000091683251    0.000063528205    0.185671680596    0.004279820750
0.725     0.177969114671    -0.011204821239    -0.000059762883    0.000055463416    0.160413647311    -0.013921929224    -0.000089187572    0.000069058239
            -0.000059762864    0.000055463320    0.182950381584    -0.018835283405    -0.000063261399    0.000051817845    0.167255174963    -0.022205166990
            0.160413663470    -0.013921974349    -0.000063261384    0.000051817703    0.178808958837    -0.010538423874    -0.000085015336    0.000067147017
            -0.000089187564    0.000069058134    0.167255174692    -0.022205169033    -0.000085015347    0.000067147099    0.182776368825    -0.017675293080
0.750     0.163915528804    -0.031712112599    -0.000055813168    0.000056068112    0.151108632212    -0.034224470481    -0.000084771735    0.000071481155
            -0.000055813151    0.000056068017    0.172577142541    -0.037122668564    -0.000059731403    0.000052770955    0.161349673896    -0.040287470790
            0.151108641760    -0.034224564140    -0.000059731393    0.000052770872    0.164982936332    -0.031441835178    -0.000080882206    0.000068921709
            -0.000084771719    0.000071481066    0.161349673896    -0.040287470790    -0.000080882224    0.000068921797    0.172981134743    -0.035641621719
0.775     0.144071265369    -0.042781538395    -0.000054488828    0.000056366430    0.135300157368    -0.047841414628    -0.000083348630    0.000073597736
            -0.000054488829    0.000056366352    0.157793287049    -0.048462980309    -0.000058823464    0.000053571588    0.150413830921    -0.054012390660
            0.135300165855    -0.047841510613    -0.000058823456    0.000053571449    0.145142241410    -0.042998502412    -0.000079822570    0.000070529450
            -0.000083348636    0.000073597638    0.150413821509    -0.054012387280    -0.000079822566    0.000070529545    0.158897960422    -0.046965987064
