# GHz S RI R 45
0.000     0.034403932000    0.000000000000    -0.000000695880    0.000000000000    0.000805175550    -0.000000000000    -0.000007481913    0.000000000000
            -0.000000695765    0.000000000000    0.035295609000    0.000000000000    0.000000876915    -0.000000000000    0.000590381190    0.000000000000
            0.000805195400    -0.000000000000    0.000000876946    -0.000000000000    0.034393036000    0.000000000000    0.000002812568    -0.000000000000
            -0.000007481807    0.000000000000    0.000590381880    0.000000000000    0.000002812549    -0.000000000000    0.035122757000    0.000000000000
0.025     0.042083849854    0.004846550224    -0.000000667591    -0.000001664631    0.004406252369    0.009807623381    0.000004371821    0.000004516740
            -0.000000667476    -0.000001664658    0.040816897283    0.006095761168    0.000005406082    0.000000885163    0.002940653166    0.012194677728
            0.004406258833    0.009807664328    0.000005406109    0.000000885157    0.042028997437    0.004817401618    0.000002673789    -0.000001491845
            0.000004371915    0.000004516719    0.002940528748    0.012194509198    0.000002673771    -0.000001491842    0.040802378832    0.006154125580
0.050     0.050987406648    0.000263786284    -0.000002561145    -0.000003229324    0.013797840883    0.015329317614    0.000005743091    -0.000003260928
            -0.000002561052    -0.000003229374    0.044656040718    0.005440405987    0.000005805064    -0.000002978653    0.009171697051    0.022033720322
            0.013797846234    0.015329315488    0.000005805090    -0.000002978666    0.050923179644    0.000240169889    0.000001708809    -0.000002859777
            0.000005743183    -0.000003260977    0.009171726277    0.022033709240    0.000001708793    -0.000002859768    0.044612892693    0.005411923096
0.075     0.058098351493    -0.010912172825    -0.000005225016    -0.000003338019    0.025380393721    0.013740492426    0.000001892702    -0.000007589903
            -0.000005224931    -0.000003338094    0.045772281367    0.002840509301    0.000004014446    -0.000005598101    0.017340624325    0.028031501496
            0.025380393081    0.013740478905    0.000004014470    -0.000005598122    0.058053297726    -0.010917535623    0.000000300346    -0.000003698220
            0.000001892781    -0.000007589975    0.017340629818    0.028031501626    0.000000300337    -0.000003698210    0.045620275221    0.002837809797
0.100     0.059677284429    -0.027713709932    -0.000007862657    -0.000001960343    0.034612565958    0.004785103880    -0.000003288651    -0.000008694785
            -0.000007862592    -0.000001960434    0.043527570033    -0.000274092109    0.000001452007    -0.000007109125    0.025126950169    0.030085778595
            0.034612563360    0.004785086159    0.000001452026    -0.000007109153    0.059690620861    -0.027704160073    -0.000001350359    -0.000004020532
            -0.000003288593    -0.000008694870    0.025126950810    0.030085779362    -0.000001350368    -0.000004020517    0.043301887709    -0.000152714424
0.125     0.052444186072    -0.046711725053    -0.000009863161    0.000000663104    0.037460749913    -0.009284820187    -0.000008207298    -0.000007116172
            -0.000009863120    0.000000662996    0.037721630775    -0.001852901761    -0.000001512018    -0.000007605805    0.030591360715    0.029356294715
            0.037460739876    -0.009284835743    -0.000001512007    -0.000007605832    0.052562463496    -0.046715940876    -0.000003181293    -0.000003805021
            -0.000008207263    -0.000007116265    0.030591362158    0.029356296100    -0.000003181299    -0.000003805004    0.037514825904    -0.001563100083
0.150     0.035327785196    -0.062929488120    -0.000010838531    0.000004231532    0.031633723824    -0.024291783562    -0.000012012454    -0.000003397805
            -0.000010838516    0.000004231419    0.029323371460    0.000208681784    -0.000004677889    -0.000006984053    0.032781794524    0.027845074167
            0.031633708890    -0.024291793159    -0.000004677884    -0.000006984082    0.035565614800    -0.063008734848    -0.000005121103    -0.000002875873
            -0.000012012441    -0.000003397908    0.032781787378    0.027845077947    -0.000005121105    -0.000002875856    0.029239525590    0.000647542794
0.175     0.010091835566    -0.070991802507    -0.000010448805    0.000008376123    0.017350450561    -0.035270790833    -0.000014015104    0.000001807157
            -0.000010448817    0.000008376013    0.020468958344    0.007342458412    -0.000007667123    -0.000005055402    0.032012548599    0.027745164470
            0.017350433138    -0.035270792717    -0.000007667125    -0.000005055432    0.010435983413    -0.071217425722    -0.000006884867    -0.000001015921
            -0.000014015115    0.000001807059    0.032012552590    0.027745165973    -0.000006884865    -0.000001015910    0.020585561886    0.007842894759
0.200     -0.018662850070    -0.066897584444    -0.000008411589    0.000012628917    -0.002499764669    -0.037874226243    -0.000013734680    0.000007761448
            -0.000008411628    0.000012628817    0.013926963390    0.019722977632    -0.000009867165    -0.000001777108    0.029800168002    0.030719503050
            -0.002499781592    -0.037874221117    -0.000009867176    -0.000001777147    -0.018267518099    -0.067336513721    -0.000007942878    0.000001836191
            -0.000013734713    0.000007761357    0.029800162481    0.030719507013    -0.000007942862    0.000001836203    0.014254704742    0.020160061609
0.225     -0.044531560718    -0.049374721524    -0.000004581957    0.000016296354    -0.022963688493    -0.029723869182    -0.000010939463    0.000013467263
            -0.000004582022    0.000016296260    0.012374253484    0.035998038427    -0.000010573015    0.000002485885    0.028382642352    0.037293934356
            -0.022963703445    -0.029723856367    -0.000010573029    0.000002485859    -0.044180971869    -0.050061755974    -0.000007692947    0.000005342015
            -0.000010939519    0.000013467178    0.028382646818    0.037293933471    -0.000007692937    0.000005342029    0.012845780776    0.036255003612
0.250     -0.060911807771    -0.020604144533    0.000000849536    0.000018563561    -0.038295937008    -0.011309029583    -0.000005826463    0.000017858960
            0.000000849452    0.000018563486    0.017549579066    0.053493125358    -0.000009311074    0.000006943781    0.029961439690    0.046629149292
            -0.038295944848    -0.011309010098    -0.000009311102    0.000006943753    -0.060721364465    -0.021518259919    -0.000005769452    0.000008776274
            -0.000005826532    0.000017858897    0.029961444300    0.046629147519    -0.000005769439    0.000008776286    0.018034101238    0.053508921022
0.275     -0.062834407920    0.014015403445    0.000007230460    0.000018688281    -0.043563854412    0.013914452632    0.000000863519    0.000019985571
            0.000007230378    0.000018688237    0.029614496174    0.068856627426    -0.000006136462    0.000010582244    0.035928732459    0.056764879790
            -0.043563855271    0.013914469664    -0.000006136489    0.000010582228    -0.062904938426    0.012960007675    -0.000002318887    0.000011245579
            0.000000863438    0.000019985525    0.035928736422    0.056764877282    -0.000002318874    0.000011245584    0.029959750561    0.068654437914
0.300     -0.048475599499    0.047032018139    0.000013557631    0.000016333401    -0.036106926205    0.040298318898    0.000008021745    0.000019374423
            0.000013557541    0.000016333377    0.046979387291    0.079024962011    -0.000001661058    0.000012573728    0.046395615431    0.065273287814
            -0.036106916809    0.040298336715    -0.000001661091    0.000012573720    -0.048857964516    0.045974213825    0.000002017204    0.000012084464
            0.000008021652    0.000019374399    0.046395618829    0.065273282945    0.000002017225    0.000012084468    0.047063788972    0.078714368829
0.325     -0.019846256069    0.070758213998    0.000018750905    0.000011716824    -0.016368398632    0.061425532837    0.000014451267    0.000016155978
            0.000018750812    0.000011716824    0.066699204438    0.082101654360    0.000003166458    0.000012579372    0.060169343157    0.070022255803
            -0.016368389971    0.061425543424    0.000003166429    0.000012579368    -0.020514942092    0.069859160741    0.000006344070    0.000011121125
            0.000014451175    0.000016155976    0.060169345520    0.070022251136    0.000006344085    0.000011121127    0.066475816063    0.081849971148
0.350     0.017515997219    0.079189303684    0.000022020569    0.000005545826    0.012108757393    0.071741854644    0.000019269206    0.000010972454
            0.000022020476    0.000005545849    0.085281182460    0.077890595592    0.000007466920    0.000010809657    0.075145656944    0.069793055117
            0.012108757393    0.071741854644    0.000007466888    0.000010809664    0.016669991276    0.078590659108    0.000009911092    0.000008682095
            0.000019269117    0.000010972474    0.075145660599    0.069793051182    0.000009911097    0.000008682096    0.084799909903    0.077874707957
0.375     0.055751239159    0.069485694361    0.000023042300    -0.000001249950    0.043467871261    0.067918285336    0.000022052083    0.000004695157
            0.000023042176    -0.000001249892    0.099594577425    0.067897579369    0.000010694583    0.000007828997    0.088891687699    0.064566630394
            0.043467871261    0.067918285336    0.000010694556    0.000007829010    0.054905512376    0.069267801440    0.000012338111    0.000005364859
            0.000022052001    0.000004695196    0.088891688826    0.064566628843    0.000012338127    0.000005364851    0.098996112611    0.068251917865
0.400     0.086389758775    0.042712058274    0.000021958485    -0.000007830686    0.070823422164    0.049674268876    0.000022828982    -0.000001901378
            0.000021958416    -0.000007830624    0.107632704664    0.054927875126    0.000012732833    0.000004235875    0.099266546915    0.055517368605
            0.070823493445    0.049674222973    0.000012732805    0.000004235890    0.085756293842    0.042862699582    0.000013651831    0.000001711209
            0.000022828911    -0.000001901321    0.099266547884    0.055517366873    0.000013651846    0.000001711202    0.107117333707    0.055701743566
0.425     0.102168890140    0.003721899454    0.000019182898    -0.000013636419    0.087724726639    0.019937996497    0.000021858282    -0.000008298904
            0.000019182841    -0.000013636347    0.108964930513    0.042398185389    0.000013742988    0.000000432758    0.104936485451    0.044740690633
            0.087724748991    0.019937961323    0.000013742969    0.000000432781    0.101946568248    0.004123323622    0.000014092962    -0.000001992581
            0.000021858227    -0.000008298832    0.104936486232    0.044740688802    0.000014092973    -0.000001992594    0.108743688433    0.043532690707
0.450     0.098625328263    -0.039703531046    0.000015166052    -0.000018438408    0.089560642488    -0.015603156975    0.000019394745    -0.000014266138
            0.000015166016    -0.000018438325    0.104868067941    0.033552835128    0.000013928929    -0.000003485491    0.105766685136    0.034796407692
            0.089560655389    -0.015603240235    0.000013928916    -0.000003485467    0.098948237091    -0.039264385596    0.000013855298    -0.000005772609
            0.000019394711    -0.000014266053    0.105766685743    0.034796405846    0.000013855309    -0.000005772627    0.105105506919    0.034883488265
0.475     0.075194896077    -0.078325109804    0.000010199746    -0.000022210021    0.074679251133    -0.049513919344    0.000015519404    -0.000019683379
            0.000010199728    -0.000022209931    0.098099698484    0.030658594015    0.000013296944    -0.000007607620    0.102973059792    0.028059051086
            0.074679228729    -0.049514000185    0.000013296940    -0.000007607593    0.076087042943    -0.078120598895    0.000012866974    -0.000009790725
            0.000015519386    -0.000019683290    0.102973060282    0.028059049289    0.000012866981    -0.000009790771    0.098862205460    0.031947766291
0.500     0.035629694754    -0.103324839358    0.000004351006    -0.000024919342    0.045038487024    -0.074090701177    0.000010122222    -0.000024327108
            0.000004351010    -0.000024919252    0.092314176533    0.034331017224    0.000011543268    -0.000011971974    0.098944641026    0.025996516191
            0.045038487024    -0.074090701177    0.000011543272    -0.000011971881    0.036978948820    -0.103629963076    0.000010728164    -0.000014071285
            0.000010122224    -0.000024327016    0.098944641026    0.025996516191    0.000010728159    -0.000014071282    0.093537345234    0.035325464660
0.525     -0.012474898660    -0.108302613235    -0.000002406165    -0.000026311200    0.006124631082    -0.083103952768    0.000003101955    -0.000027669010
            -0.000002406139    -0.000026311114    0.091109419397    0.043170541892    0.000008195023    -0.000016253251    0.096612079019    0.028565673522
            0.006124556487    -0.083103989349    0.000008195049    -0.000016253160    -0.010912395550    -0.109325304926    0.000006917638    -0.000018204478
            0.000003101980    -0.000027668923    0.096612080016    0.028565670150    0.000006917629    -0.000018204517    0.092600816087    0.043675294646
0.550     -0.059111868739    -0.090966342658    -0.000009919317    -0.000025863004    -0.034011487453    -0.073451527344    -0.000005329603    -0.000028901229
            -0.000009919272    -0.000025862927    0.096917113331    0.053982260572    0.000002953718    -0.000019651470    0.098504893457    0.034068798545
            -0.034011487453    -0.073451527344    0.000002953761    -0.000019651391    -0.057671165254    -0.092783145585    0.000001180407    -0.000021287242
            -0.000005329558    -0.000028901152    0.098504895241    0.034068793387    0.000001180407    -0.000021287241    0.098401539051    0.053925179459
0.575     -0.094073853791    -0.053975836834    -0.000017592639    -0.000023000971    -0.066530929523    -0.046177853743    -0.000014388312    -0.000027233912
            -0.000017592574    -0.000023000911    0.110115839980    0.062650890423    -0.000003886565    -0.000021100262    0.105823300923    0.039631689377
            -0.066530931166    -0.046177854883    -0.000003886527    -0.000021100222    -0.093107674302    -0.056494187867    -0.000006070514    -0.000022210500
            -0.000014388218    -0.000027233816    0.105823304382    0.039631680142    -0.000006070509    -0.000022210498    0.111313737357    0.062113811367
0.600     -0.109417340994    -0.004558091661    -0.000024393271    -0.000017491056    -0.083972379082    -0.006452830691    -0.000022796313    -0.000022340508
            -0.000024393197    -0.000017491010    0.128832240881    0.065434989621    -0.000011340495    -0.000019767358    0.118014476809    0.042179311182
            -0.083972379082    -0.006452830691    -0.000011340491    -0.000019767351    -0.109208930745    -0.007520090371    -0.000013716563    -0.000020199330
            -0.000022796237    -0.000022340457    0.118014481226    0.042179298824    -0.000013716568    -0.000020199329    0.129542552795    0.064634230234
0.625     -0.101426183106    0.047119417187    -0.000029169633    -0.000009731245    -0.082111781684    0.037603295625    -0.000029176317    -0.000014650763
            -0.000029169550    -0.000009731217    0.149528553870    0.060124532806    -0.000018013909    -0.000015518419    0.133003262766    0.039426264456
            -0.082111781684    0.037603295625    -0.000018013865    -0.000015518403    -0.102114386504    0.044087860569    -0.000020298861    -0.000015259128
            -0.000029176234    -0.000014650734    0.133003264142    0.039426259813    -0.000020298897    -0.000015259144    0.149687642566    0.059348910287
0.650     -0.071473264068    0.090342153854    -0.000031104894    -0.000000705983    -0.060946161438    0.076864268415    -0.000032563355    -0.000005250284
            -0.000031104806    -0.000000705975    0.168118362298    0.046603618437    -0.000022666605    -0.000009004144    0.147928265247    0.030479632459
            -0.060946162060    0.076864269198    -0.000022666594    -0.000009004231    -0.073009843557    0.087649882029    -0.000024614819    -0.000008196158
            -0.000032563267    -0.000005250276    0.147928258113    0.030479617531    -0.000024614818    -0.000008196158    0.167814404181    0.046135873811
0.675     -0.025572416307    0.116258064055    -0.000029994662    0.000008342311    -0.024547872103    0.103265728108    -0.000032683847    0.000004505970
            -0.000029994577    0.000008342299    0.181068302111    0.026713621806    -0.000024627001    -0.000001385310    0.159930627804    0.015912950068
            -0.024547872103    0.103265728108    -0.000024626999    -0.000001385310    -0.027724991123    0.114258585793    -0.000026119978    -0.000000267105
            -0.000032683761    0.000004505958    0.159930618437    0.015912943217    -0.000026119976    -0.000000267109    0.180516089846    0.026758267661
0.700     0.027086039774    0.119669974147    -0.000026230995    0.000016317665    0.019971597839    0.111437428787    -0.000029909321    0.000013444888
            -0.000026230943    0.000016317607    0.186183548398    0.003643728115    -0.000023913897    0.000006136637    0.166784051508    -0.002502183553
            0.019971597839    0.111437428787    -0.000023913765    0.000006136612    0.024690845436    0.118583297397    -0.000024986748    0.000007326296
            -0.000029909240    0.000013444858    0.166784051507    -0.002502183612    -0.000024986746    0.000007326295    0.185671680596    0.004279820750
0.725     0.076098933599    0.099887539705    -0.000020573091    0.000022521228    0.063978030211    0.099595306095    -0.000024983524    0.000020827362
            -0.000020572982    0.000022521155    0.182950381584    -0.018835283405    -0.000021061769    0.000012658450    0.167255174963    -0.022205166990
            0.063978030211    0.099595306095    -0.000021061733    0.000012658423    0.073905380193    0.099750536190    -0.000021868172    0.000013774231
            -0.000024983452    0.000020827316    0.167255174692    -0.022205169033    -0.000021868172    0.000013774230    0.182776368825    -0.017675293080
0.750     0.111837428503    0.060685000628    -0.000013855784    0.000026717561    0.098922641292    0.069747312641    -0.000018698523    0.000026398406
            -0.000013855722    0.000026717499    0.172577142541    -0.037122668564    -0.000016821094    0.000017760636    0.161349673896    -0.040287470790
            0.098922641292    0.069747312641    -0.000016821092    0.000017760633    0.110275013141    0.061334733365    -0.000017550213    0.000018797396
            -0.000018698463    0.000026398342    0.161349673896    -0.040287470790    -0.000017550269    0.000018797457    0.172981134743    -0.035641621719
0.775     0.127151734431    0.009539091314    -0.000006760725    0.000029038136    0.117815182281    0.027313286683    -0.000011657693    0.000030251227
            -0.000006760686    0.000029038059    0.157793287049    -0.048462980309    -0.000011866929    0.000021465008    0.150413830921    -0.054012390660
            0.117815218179    0.027313264670    -0.000011866908    0.000021464970    0.126550431036    0.010631954597    -0.000012647435    0.000022552707
            -0.000011657652    0.000030251151    0.150413821509    -0.054012387280    -0.000012647433    0.000022552703    0.158897960422    -0.046965987064
