# GHz S RI R 45
0.000     0.035585674000    0.000000000000    -0.000057021774    0.000000000000    0.000624528960    0.000000000000    -0.000028495689    0.000000000000
            -0.000057022013    0.000000000000    0.035295609000    0.000000000000    -0.000040037201    0.000000000000    0.000590381190    0.000000000000
            0.000624528610    0.000000000000    -0.000040037195    0.000000000000    0.035560253000    0.000000000000    -0.000028210560    0.000000000000
            -0.000028495363    0.000000000000    0.000590381880    0.000000000000    -0.000028210550    0.000000000000    0.035122757000    0.000000000000
0.025     0.041689065506    0.006427708663    -0.000011112494    0.000031817816    0.003285604465    0.012582929727    -0.000020737950    0.000010982348
            -0.000011112499    0.000031817812    0.040816897283    0.006095761168    -0.000017954696    0.000017595126    0.002940653166    0.012194677728
            0.003285480345    0.012582761632    -0.000017954695    0.000017595125    0.041595542863    0.006452159986    -0.000017549549    0.000015685614
            -0.000020737947    0.000010982346    0.002940528748    0.012194509198    -0.000017549554    0.000015685607    0.040802378832    0.006154125580
0.050     0.046024325580    0.005482686661    0.000002619577    0.000016198117    0.010020978660    0.022391030329    -0.000019808831    0.000014060630
            0.000002619557    0.000016198125    0.044656040718    0.005440405987    -0.000012475158    0.000012229405    0.009171697051    0.022033720322
            0.010021008769    0.022391017950    -0.000012475160    0.000012229404    0.045903717274    0.005593784538    -0.000015135111    0.000020507625
            -0.000019808736    0.000014060619    0.009171726277    0.022033709240    -0.000015135023    0.000020507611    0.044612892693    0.005411923096
0.075     0.047397989172    0.002197006072    -0.000000925891    0.000007715763    0.018624942253    0.027936528636    -0.000022982011    0.000019829058
            -0.000000925905    0.000007715785    0.045772281367    0.002840509301    -0.000017015650    0.000010961282    0.017340624325    0.028031501496
            0.018624948238    0.027936527049    -0.000017015603    0.000010961273    0.047291159596    0.002423702005    -0.000017668340    0.000028203710
            -0.000022982012    0.000019829058    0.017340629818    0.028031501626    -0.000017668303    0.000028203695    0.045620275221    0.002837809797
0.100     0.044914122635    -0.001830679736    -0.000009404027    0.000005549335    0.026484351137    0.029211742316    -0.000027208231    0.000028832157
            -0.000009404009    0.000005549345    0.043527570033    -0.000274092109    -0.000025299534    0.000014333502    0.025126950169    0.030085778595
            0.026484350465    0.029211741576    -0.000025299536    0.000014333503    0.044876965584    -0.001483289493    -0.000021497669    0.000039369083
            -0.000027208236    0.000028832153    0.025126950810    0.030085779362    -0.000021497590    0.000039369054    0.043301887709    -0.000152714424
0.125     0.038241219702    -0.004157852675    -0.000019858770    0.000009936066    0.031466428442    0.027664866373    -0.000031050899    0.000041517696
            -0.000019858749    0.000009936073    0.037721630775    -0.001852901761    -0.000035188385    0.000023372964    0.030591360715    0.029356294715
            0.031466427691    0.027664865713    -0.000035188392    0.000023372960    0.038332478611    -0.003720916084    -0.000025012152    0.000054651438
            -0.000031050899    0.000041517697    0.030591362158    0.029356296100    -0.000025012171    0.000054651429    0.037514825904    -0.001563100083
0.150     0.028449807744    -0.002311857255    -0.000029723712    0.000020233570    0.032637143056    0.025683636042    -0.000032851815    0.000057759426
            -0.000029723687    0.000020233575    0.029323371460    0.000208681784    -0.000044349860    0.000038452240    0.032781794524    0.027845074167
            0.032637140699    0.025683634187    -0.000044349864    0.000038452243    0.028718901844    -0.001848656279    -0.000026336605    0.000074022933
            -0.000032851825    0.000057759419    0.032781787378    0.027845077947    -0.000026336631    0.000074022926    0.029239525590    0.000647542794
0.175     0.018075851665    0.005484620849    -0.000036635469    0.000036110848    0.030585092670    0.025791592685    -0.000031018330    0.000077103587
            -0.000036635442    0.000036110846    0.020468958344    0.007342458412    -0.000050146047    0.000059624020    0.032012548599    0.027745164470
            0.030585099151    0.025791588102    -0.000050146050    0.000059624023    0.018529782648    0.005880449796    -0.000023496978    0.000097120565
            -0.000031018345    0.000077103583    0.032012552590    0.027745165973    -0.000023497013    0.000097120560    0.020585561886    0.007842894759
0.200     0.010460866415    0.019445175955    -0.000038350112    0.000056066927    0.027287152672    0.029768558159    -0.000023995836    0.000098155191
            -0.000038350091    0.000056066917    0.013926963390    0.019722977632    -0.000049705542    0.000085494048    0.029800168002    0.030719503050
            0.027287149761    0.029768558113    -0.000049705559    0.000085494042    0.011049899119    0.019679917874    -0.000014595044    0.000122364289
            -0.000023995836    0.000098155191    0.029800162481    0.030719507013    -0.000014595082    0.000122364285    0.014254704742    0.020160061609
0.225     0.008825328767    0.037878773758    -0.000033305372    0.000077725200    0.025467914700    0.037945113412    -0.000010949845    0.000118843294
            -0.000033305434    0.000077725233    0.012374253484    0.035998038427    -0.000040920215    0.000113321199    0.028382642352    0.037293934356
            0.025467910831    0.037945114805    -0.000040920215    0.000113321199    0.009448282714    0.037893800353    0.000001518929    0.000147355142
            -0.000010949851    0.000118843293    0.028382646818    0.037293933471    0.000001518975    0.000147355111    0.012845780776    0.036255003612
0.250     0.015178032644    0.057465110395    -0.000021223605    0.000097955616    0.027628918554    0.049001472934    0.000007820558    0.000136586872
            -0.000021223667    0.000097955654    0.017549579066    0.053493125358    -0.000023204579    0.000139254082    0.029961439690    0.046629149292
            0.027628915989    0.049001474381    -0.000023204586    0.000139254091    0.015708131613    0.057264293722    0.000024595299    0.000169008001
            0.000007820553    0.000136586873    0.029961444300    0.046629147519    0.000024595268    0.000169008016    0.018034101238    0.053508921022
0.275     0.029523015184    0.074118078285    -0.000003627443    0.000113898751    0.035124929919    0.060378946674    0.000030531565    0.000149309186
            -0.000003627463    0.000113898761    0.029614496174    0.068856627426    0.000001754132    0.000159594250    0.035928732459    0.056764879790
            0.035124930973    0.060378946061    0.000001754127    0.000159594260    0.029846400444    0.073776497674    0.000052685965    0.000184783919
            0.000030531557    0.000149309188    0.035928736422    0.056764877282    0.000052685925    0.000184783951    0.029959750561    0.068654437914
0.300     0.049701283487    0.084232371760    0.000016734009    0.000124012445    0.047681962327    0.069165003570    0.000054545116    0.000156231946
            0.000016734028    0.000124012422    0.046979387291    0.079024962011    0.000030613105    0.000172099784    0.046395615431    0.065273287814
            0.047681959273    0.069165006890    0.000030613105    0.000172099784    0.049757343891    0.083880435506    0.000082737337    0.000193578542
            0.000054545105    0.000156231950    0.046395618829    0.065273282945    0.000082737318    0.000193578572    0.047063788972    0.078714368829
0.325     0.071975445259    0.085764169262    0.000036811351    0.000128626002    0.063512438286    0.073032090449    0.000077291359    0.000158289211
            0.000036811334    0.000128626017    0.066699204438    0.082101654360    0.000059407413    0.000176796315    0.060169343157    0.070022255803
            0.063512437049    0.073032094175    0.000059407450    0.000176796292    0.071779069825    0.085552625174    0.000111708760    0.000196258795
            0.000077291353    0.000158289225    0.060169345520    0.070022251136    0.000111708739    0.000196258830    0.066475816063    0.081849971148
0.350     0.092089935209    0.078813174122    0.000054616092    0.000129607587    0.079902431057    0.070907987864    0.000097437182    0.000157595053
            0.000054616106    0.000129607570    0.085281182460    0.077890595592    0.000085199279    0.000175722230    0.075145656944    0.069793055117
            0.079902429819    0.070907989258    0.000085199353    0.000175722172    0.091734685352    0.078870416166    0.000137837223    0.000195100305
            0.000097437176    0.000157595056    0.075145660599    0.069793051182    0.000137837278    0.000195100267    0.084799909903    0.077874707957
0.375     0.106396750766    0.065532134216    0.000069627483    0.000129404912    0.093959653214    0.063204122759    0.000115149230    0.000156492467
            0.000069627497    0.000129404894    0.099594577425    0.067897579369    0.000106703174    0.000171954991    0.088891687699    0.064566630394
            0.093959652111    0.063204124399    0.000106703208    0.000171954959    0.106034151051    0.065926579883    0.000161032579    0.000192761869
            0.000115149230    0.000156492479    0.088891688826    0.064566628843    0.000161032602    0.000192761862    0.098996112611    0.068251917865
0.400     0.112744222699    0.049563913140    0.000082879968    0.000130067024    0.103335193380    0.051707054742    0.000131967856    0.000156588584
            0.000082879909    0.000130067073    0.107632704664    0.054927875126    0.000124602116    0.000168458807    0.099266546915    0.055517368605
            0.103335193380    0.051707054742    0.000124602110    0.000168458812    0.112548230596    0.050280486856    0.000182759819    0.000191219789
            0.000131967859    0.000156588594    0.099266547884    0.055517366873    0.000182759809    0.000191219812    0.107117333707    0.055701743566
0.425     0.110981320558    0.035172174796    0.000096214448    0.000132659957    0.106798899148    0.039190289544    0.000149971686    0.000158303686
            0.000096214429    0.000132659971    0.108964930513    0.042398185389    0.000140867926    0.000167297751    0.104936485451    0.044740690633
            0.106798899148    0.039190289544    0.000140867924    0.000167297753    0.111104466834    0.036107601876    0.000205209708    0.000191231888
            0.000149971683    0.000158303689    0.104936486232    0.044740688802    0.000205209702    0.000191231909    0.108743688433    0.043532690707
0.450     0.103082356485    0.026262834701    0.000111875210    0.000137049999    0.104666863744    0.028817438211    0.000171259131    0.000160784823
            0.000111875226    0.000137049974    0.104868067941    0.033552835128    0.000158395137    0.000169150911    0.105766685136    0.034796407692
            0.104666863744    0.028817438211    0.000158395131    0.000169150916    0.103611549927    0.027242980330    0.000230745929    0.000192187512
            0.000171259131    0.000160784823    0.105766685743    0.034796405846    0.000230745929    0.000192187512    0.105105506919    0.034883488265
0.475     0.092831791307    0.025361537748    0.000131844470    0.000141931271    0.098930907000    0.023300470610    0.000197294847    0.000162132195
            0.000131844415    0.000141931336    0.098099698484    0.030658594015    0.000180183953    0.000173104930    0.102973059792    0.028059051086
            0.098930907000    0.023300470610    0.000180183941    0.000173104943    0.093755460099    0.026181254686    0.000261216423    0.000192259327
            0.000197294842    0.000162132202    0.102973060282    0.028059049289    0.000261216426    0.000192259322    0.098862205460    0.031947766291
0.500     0.085009715849    0.032743466549    0.000157506098    0.000144779325    0.092923753493    0.023968879064    0.000228626198    0.000159558294
            0.000157506060    0.000144779367    0.092314176533    0.034331017224    0.000208780184    0.000176401762    0.098944641026    0.025996516191
            0.092923750170    0.023968879937    0.000208780196    0.000176401779    0.086207685880    0.033222325783    0.000297583012    0.000188492743
            0.000228626198    0.000159558294    0.098944641026    0.025996516191    0.000297582984    0.000188492769    0.093537345234    0.035325464660
0.525     0.084053637863    0.046022314706    0.000188720574    0.000142125679    0.090361188644    0.030067224335    0.000264200405    0.000149831754
            0.000188720571    0.000142125666    0.091109419397    0.043170541892    0.000244959034    0.000174696800    0.096612079019    0.028565673522
            0.090361185697    0.030067226858    0.000244959051    0.000174696793    0.085321599014    0.046064036856    0.000339086026    0.000177226615
            0.000264200399    0.000149831745    0.096612080016    0.028565670150    0.000339085998    0.000177226646    0.092600816087    0.043675294646
0.550     0.092546754417    0.060615574044    0.000223176507    0.000130404369    0.094017925401    0.038780832247    0.000301010275    0.000130126198
            0.000223176498    0.000130404385    0.096917113331    0.053982260572    0.000286730718    0.000163077636    0.098504893457    0.034068798545
            0.094017925401    0.038780832247    0.000286730721    0.000163077651    0.093653313376    0.060245226698    0.000382722981    0.000155031185
            0.000301010284    0.000130126202    0.098504895241    0.034068793387    0.000382722997    0.000155031145    0.098401539051    0.053925179459
0.575     0.110168085787    0.071132147265    0.000256214579    0.000107706302    0.104616831384    0.046149313724    0.000334217884    0.000099557778
            0.000256214588    0.000107706305    0.110115839980    0.062650890423    0.000328942533    0.000138251470    0.105823300923    0.039631689377
            0.104616831384    0.046149313724    0.000328942533    0.000138251470    0.110927161439    0.070495305177    0.000423286592    0.000120463203
            0.000334217875    0.000099557775    0.105823304382    0.039631680142    0.000423286588    0.000120463218    0.111313737357    0.062113811367
0.600     0.133736967483    0.073180505542    0.000282402882    0.000075211031    0.120589510898    0.048501850984    0.000358783252    0.000060265018
            0.000282402896    0.000075210977    0.128832240881    0.065434989621    0.000364960200    0.000100432510    0.118014476809    0.042179311182
            0.120589516790    0.048501863134    0.000364960221    0.000100432433    0.134065085820    0.072498598015    0.000455080554    0.000075376644
            0.000358783262    0.000060265017    0.118014481226    0.042179298824    0.000455080543    0.000075376707    0.129542552795    0.064634230234
0.625     0.158312517476    0.064731147496    0.000297756401    0.000037323603    0.138741852089    0.043634294674    0.000371528183    0.000017236092
            0.000297756388    0.000037323622    0.149528553870    0.060124532806    0.000389217752    0.000053827256    0.133003262766    0.039426264456
            0.138741851328    0.043634297095    0.000389217752    0.000053827251    0.158251441207    0.064234499670    0.000474212140    0.000024872218
            0.000371528191    0.000017236123    0.133003264142    0.039426259813    0.000474212138    0.000024872250    0.149687642566    0.059348910287
0.650     0.178774217655    0.046511413860    0.000301592227    -0.000000117167    0.155380047370    0.031267680847    0.000372702524    -0.000023584366
            0.000301592247    -0.000000117161    0.168118362298    0.046603618437    0.000399564095    0.000004889436    0.147928265247    0.030479632459
            0.155380047370    0.031267680847    0.000399564085    0.000004889435    0.178473629710    0.046377633865    0.000480406716    -0.000024662592
            0.000372702559    -0.000023584282    0.147928258113    0.030479617531    0.000480406740    -0.000024662516    0.167814404181    0.046135873811
0.675     0.191132023584    0.021522398109    0.000296515623    -0.000032047161    0.167253155935    0.012831318081    0.000365732602    -0.000057455826
            0.000296515617    -0.000032047118    0.181068302111    0.026713621806    0.000397603260    -0.000040065577    0.159930627804    0.015912950068
            0.167253155464    0.012831324211    0.000397603276    -0.000040065620    0.190808153594    0.021832742135    0.000476856833    -0.000067902475
            0.000365732576    -0.000057455862    0.159930618437    0.015912943217    0.000476856823    -0.000067902480    0.180516089846    0.026758267661
0.700     0.193296973828    -0.005875508311    0.000287190728    -0.000055923141    0.172146555025    -0.009033854746    0.000355861767    -0.000082451999
            0.000287190758    -0.000055923142    0.186183548398    0.003643728115    0.000387705817    -0.000076944845    0.166784051508    -0.002502183553
            0.172146555025    -0.009033854746    0.000387705817    -0.000076944845    0.193178983916    -0.005152280906    0.000468856140    -0.000102370154
            0.000355861809    -0.000082451950    0.166784051507    -0.002502183612    0.000468856140    -0.000102370154    0.185671680596    0.004279820750
0.725     0.185320605989    -0.030911253300    0.000278477655    -0.000072002376    0.169157615262    -0.030988769986    0.000348222415    -0.000099632793
            0.000278477647    -0.000072002405    0.182950381584    -0.018835283405    0.000375155431    -0.000104475920    0.167255174963    -0.022205166990
            0.169157625098    -0.030988771788    0.000375155394    -0.000104475903    0.185599655429    -0.029914300429    0.000461754644    -0.000128687939
            0.000348222422    -0.000099632769    0.167255174692    -0.022205169033    0.000461754696    -0.000128687901    0.182776368825    -0.017675293080
0.750     0.169355077895    -0.049268833860    0.000274082797    -0.000082841134    0.158914146065    -0.049488857278    0.000346443475    -0.000112435706
            0.000274082741    -0.000082841143    0.172577142541    -0.037122668564    0.000364748910    -0.000124031389    0.161349673896    -0.040287470790
            0.158914156476    -0.049488857478    0.000364748988    -0.000124031408    0.170137908691    -0.048216971838    0.000459517819    -0.000149979937
            0.000346443475    -0.000112435706    0.161349673896    -0.040287470790    0.000459517786    -0.000149979909    0.172981134743    -0.035641621719
0.775     0.149387826532    -0.057902230034    0.000275819247    -0.000092095989    0.143695636330    -0.061413496825    0.000351845069    -0.000125355696
            0.000275819238    -0.000092096018    0.157793287049    -0.048462980309    0.000359853196    -0.000138670674    0.150413830921    -0.054012390660
            0.143695636330    -0.061413496825    0.000359853163    -0.000138670648    0.150662501867    -0.057050856796    0.000463899291    -0.000170549243
            0.000351845054    -0.000125355677    0.150413821509    -0.054012387280    0.000463899316    -0.000170549234    0.158897960422    -0.046965987064
0.800     0.130689963017    -0.055885060011    0.000283696928    -0.000103637548    0.127328879486    -0.064929222509    0.000363519544    -0.000142845047
