# GHz S RI R 45
0.000     0.036169034000    0.000000000000    -0.000075284924    0.000000000000    0.000683209260    0.000000000000    -0.000041492859    0.000000000000
            -0.000075284437    0.000000000000    0.035295609000    0.000000000000    -0.000054170565    0.000000000000    0.000590381190    0.000000000000
            0.000683183800    0.000000000000    -0.000054170436    0.000000000000    0.036120481000    0.000000000000    -0.000049257136    0.000000000000
            -0.000041492496    0.000000000000    0.000590381880    0.000000000000    -0.000049257508    0.000000000000    0.035122757000    0.000000000000
0.025     0.042377160907    0.006374850671    -0.000110495495    -0.000035041600    0.003365246459    0.012833473312    -0.000098434977    -0.000047488927
            -0.000110495495    -0.000035041600    0.040816897283    0.006095761168    -0.000115323929    -0.000051092611    0.002940653166    0.012194677728
            0.003365095460    0.012833300976    -0.000115323938    -0.000051092591    0.042304373403    0.006364717676    -0.000087713026    -0.000035957335
            -0.000098434844    -0.000047488926    0.002940528748    0.012194509198    -0.000087713222    -0.000035957308    0.040802378832    0.006154125580
0.050     0.047011494895    0.005162108530    -0.000129424663    -0.000035838127    0.010653896935    0.022733526957    -0.000124671147    -0.000037966020
            -0.000129424663    -0.000035838127    0.044656040718    0.005440405987    -0.000143653819    -0.000040848935    0.009171697051    0.022033720322
            0.010653901107    0.022733517272    -0.000143653838    -0.000040848940    0.046890842682    0.005199366236    -0.000107545501    -0.000034037905
            -0.000124671167    -0.000037966026    0.009171726277    0.022033709240    -0.000107546497    -0.000034037807    0.044612892693    0.005411923096
0.075     0.048568139812    0.001181473145    -0.000141627124    -0.000037508075    0.019861113792    0.027734297219    -0.000136095446    -0.000032258466
            -0.000141626146    -0.000037508213    0.045772281367    0.002840509301    -0.000155915586    -0.000034580385    0.017340624325    0.028031501496
            0.019861093062    0.027734300994    -0.000155915609    -0.000034580419    0.048427817930    0.001313515473    -0.000119167770    -0.000033487752
            -0.000136095470    -0.000032258497    0.017340629818    0.028031501626    -0.000119167780    -0.000033487755    0.045620275221    0.002837809797
0.100     0.045770713501    -0.003818238334    -0.000154335346    -0.000038571492    0.027855452316    0.027944118890    -0.000145872615    -0.000028247507
            -0.000154335337    -0.000038571489    0.043527570033    -0.000274092109    -0.000166247972    -0.000030213426    0.025126950169    0.030085778595
            0.027855427531    0.027944125240    -0.000166248012    -0.000030213433    0.045671458156    -0.003567538795    -0.000130779779    -0.000032680385
            -0.000145871677    -0.000028247722    0.025126950810    0.030085779362    -0.000130779788    -0.000032680388    0.043301887709    -0.000152714424
0.125     0.038089409103    -0.006991429404    -0.000168128190    -0.000037234241    0.032177095452    0.025231649069    -0.000155782178    -0.000023655740
            -0.000168127709    -0.000037234381    0.037721630775    -0.001852901761    -0.000176646999    -0.000025428063    0.030591360715    0.029356294715
            0.032177072105    0.025231656155    -0.000176646566    -0.000025428189    0.038103913812    -0.006644854074    -0.000143087981    -0.000029736081
            -0.000155782213    -0.000023655774    0.030591362158    0.029356296100    -0.000143087991    -0.000029736083    0.037514825904    -0.001563100083
0.150     0.026702016181    -0.005372869120    -0.000182319859    -0.000032777550    0.031900752277    0.022553589074    -0.000165712896    -0.000017244765
            -0.000182319859    -0.000032777550    0.029323371460    0.000208681784    -0.000187135016    -0.000018955125    0.032781794524    0.027845074167
            0.031900725435    0.022553599324    -0.000187134121    -0.000018955430    0.026894622686    -0.005000303373    -0.000155428736    -0.000023858376
            -0.000165712945    -0.000017244770    0.032781787378    0.027845077947    -0.000155428746    -0.000023858377    0.029239525590    0.000647542794
0.175     0.014591683848    0.003189731381    -0.000195867203    -0.000024860799    0.027997222001    0.022927864117    -0.000174871094    -0.000008533441
            -0.000195867203    -0.000024860799    0.020468958344    0.007342458412    -0.000197044800    -0.000010231400    0.032012548599    0.027745164470
            0.027997201459    0.022927873418    -0.000197044380    -0.000010231585    0.014972739180    0.003478386323    -0.000166703247    -0.000014793850
            -0.000174870676    -0.000008533604    0.032012552590    0.027745165973    -0.000166703267    -0.000014793852    0.020585561886    0.007842894759
0.200     0.005758232464    0.018944696606    -0.000207747376    -0.000013933976    0.023111745868    0.028315814944    -0.000182401751    0.000002224079
            -0.000207747376    -0.000013933976    0.013926963390    0.019722977632    -0.000205575257    0.000000619464    0.029800168002    0.030719503050
            0.023111722306    0.028315826431    -0.000205575317    0.000000619464    0.006265681779    0.019039585438    -0.000175909430    -0.000003095878
            -0.000182401811    0.000002224080    0.029800162481    0.030719507013    -0.000175909440    -0.000003095878    0.014254704742    0.020160061609
0.225     0.004035139457    0.039795651643    -0.000217084879    -0.000000754476    0.020672793579    0.038770652585    -0.000187609380    0.000014322487
            -0.000217084428    -0.000000754702    0.012374253484    0.035998038427    -0.000211991111    0.000013053988    0.028382642352    0.037293934356
            0.020672774632    0.038770662688    -0.000211991169    0.000013054029    0.004542130838    0.039633525551    -0.000182260628    0.000010317436
            -0.000187609004    0.000014322294    0.028382646818    0.037293933471    -0.000182260648    0.000010317437    0.012845780776    0.036255003612
0.250     0.011708870197    0.061666352219    -0.000223626068    0.000013492106    0.023614577501    0.052280647795    -0.000190391167    0.000026714802
            -0.000223625205    0.000013491623    0.017549579066    0.053493125358    -0.000216056886    0.000026112202    0.029961439690    0.046629149292
            0.023614562812    0.052280656624    -0.000216056936    0.000026112208    0.012061010397    0.061266600492    -0.000185685048    0.000024200086
            -0.000190391247    0.000026714813    0.029961444300    0.046629147519    -0.000185685073    0.000024200122    0.018034101238    0.053508921022
0.275     0.028548111376    0.079646785106    -0.000227589084    0.000027744174    0.033231206629    0.065432363214    -0.000191138920    0.000038490655
            -0.000227588662    0.000027743921    0.029614496174    0.068856627426    -0.000218002213    0.000038880199    0.035928732459    0.056764879790
            0.033231184694    0.065432376597    -0.000218002255    0.000038880246    0.028616253808    0.079118996751    -0.000186600464    0.000037498345
            -0.000191138979    0.000038490667    0.035928736422    0.056764877282    -0.000186601330    0.000037498857    0.029959750561    0.068654437914
0.300     0.051704476854    0.089575110308    -0.000229794551    0.000041284213    0.048696838055    0.074629131960    -0.000190732281    0.000049159018
            -0.000229794551    0.000041284213    0.046979387291    0.079024962011    -0.000218594629    0.000050757655    0.046395615431    0.065273287814
            0.048696824484    0.074629139622    -0.000218593852    0.000050757153    0.051435744102    0.089091864516    -0.000185977764    0.000049638168
            -0.000190732331    0.000049159066    0.046395618829    0.065273282945    -0.000185977774    0.000049638206    0.047063788972    0.078714368829
0.325     0.076548567246    0.089329512098    -0.000231083521    0.000053981019    0.067380556122    0.077274000415    -0.000190015884    0.000058802480
            -0.000231083521    0.000053981019    0.066699204438    0.082101654360    -0.000218657915    0.000061692218    0.060169343157    0.070022255803
            0.067380514484    0.077274023454    -0.000218657564    0.000061691954    0.075991185383    0.089075937592    -0.000184709470    0.000060649804
            -0.000190015514    0.000058802256    0.060169345520    0.070022251136    -0.000184709873    0.000060650114    0.066475816063    0.081849971148
0.350     0.098031262885    0.079413139399    -0.000232204769    0.000066217088    0.085708266979    0.072502292607    -0.000189624692    0.000067977589
            -0.000232204759    0.000066217086    0.085281182460    0.077890595592    -0.000218894337    0.000072124661    0.075145656944    0.069793055117
            0.085708269510    0.072502289616    -0.000218893611    0.000072124083    0.097329939407    0.079531099867    -0.000183484160    0.000071087444
            -0.000189624709    0.000067977632    0.075145660599    0.069793051182    -0.000183484157    0.000071087479    0.084799909903    0.077874707957
0.375     0.112019320713    0.062723060350    -0.000233400851    0.000078634148    0.100132751190    0.061335024771    -0.000189667748    0.000077424913
            -0.000233400131    0.000078633497    0.099594577425    0.067897579369    -0.000219526552    0.000082756202    0.088891687699    0.064566630394
            0.100132711655    0.061335051025    -0.000219526566    0.000082756251    0.111381813684    0.063264322421    -0.000182406176    0.000081665223
            -0.000189667772    0.000077424961    0.088891688826    0.064566628843    -0.000182406534    0.000081665574    0.098996112611    0.068251917865
0.400     0.116283116332    0.043801208635    -0.000234530700    0.000091917243    0.108001942517    0.046435935435    -0.000189839760    0.000087837407
            -0.000234530690    0.000091917239    0.107632704664    0.054927875126    -0.000220370074    0.000094313637    0.099266546915    0.055517368605
            0.108001942517    0.046435935435    -0.000220370120    0.000094313657    0.115928167956    0.044703265330    -0.000181168291    0.000093056537
            -0.000189839772    0.000087837453    0.099266547884    0.055517366873    -0.000181168300    0.000093056542    0.107117333707    0.055701743566
0.425     0.111032462916    0.027791357599    -0.000235000046    0.000106514511    0.108236225137    0.031565335058    -0.000189429615    0.000099597012
            -0.000234999710    0.000106514161    0.108964930513    0.042398185389    -0.000220795199    0.000107292167    0.104936485451    0.044740690633
            0.108236225137    0.031565335058    -0.000220795244    0.000107292189    0.111129317718    0.028879438427    -0.000179046064    0.000105565385
            -0.000189429624    0.000099597059    0.104936486232    0.044740688802    -0.000179046726    0.000105566112    0.108743688433    0.043532690707
0.450     0.099040332010    0.019267574879    -0.000234009547    0.000122529145    0.101824607698    0.020767278622    -0.000187574375    0.000112675491
            -0.000234009538    0.000122529141    0.104868067941    0.033552835128    -0.000219947100    0.000121817068    0.105766685136    0.034796407692
            0.101824607698    0.020767278622    -0.000219947144    0.000121817092    0.099651255308    0.020287827240    -0.000175200295    0.000119090585
            -0.000187574389    0.000112675544    0.105766685743    0.034796405846    -0.000175200304    0.000119090590    0.105105506919    0.034883488265
0.475     0.085245299109    0.020966402906    -0.000230672117    0.000139526285    0.091919909191    0.017221602556    -0.000183429804    0.000126493115
            -0.000230672109    0.000139526280    0.098099698484    0.030658594015    -0.000216883668    0.000137473163    0.102973059792    0.028059051086
            0.091919910174    0.017221602740    -0.000216883710    0.000137473190    0.086287819247    0.021650196423    -0.000168842103    0.000132947774
            -0.000183429823    0.000126493176    0.102973060282    0.028059049289    -0.000168842103    0.000132947774    0.098862205460    0.031947766291
0.500     0.075663380934    0.032670829265    -0.000224386672    0.000156568722    0.083239477165    0.021990118870    -0.000176532835    0.000140001245
            -0.000224386672    0.000156568722    0.092314176533    0.034331017224    -0.000210944049    0.000153304828    0.098944641026    0.025996516191
            0.083239477165    0.021990118870    -0.000210944063    0.000153304894    0.076911395783    0.032819242095    -0.000159605915    0.000146024246
            -0.000176532867    0.000140001270    0.098944641026    0.025996516191    -0.000159606470    0.000146025062    0.093537345234    0.035325464660
0.525     0.075558435101    0.050761596402    -0.000215134678    0.000172317344    0.080582176352    0.033201501729    -0.000167076885    0.000151868111
            -0.000215134409    0.000172316944    0.091109419397    0.043170541892    -0.000202066728    0.000167942605    0.096612079019    0.028565673522
            0.080582176352    0.033201501729    -0.000202066738    0.000167942672    0.076697646372    0.050324446465    -0.000147818039    0.000156938108
            -0.000167076903    0.000151868181    0.096612080016    0.028565670150    -0.000147818046    0.000156938115    0.092600816087    0.043675294646
0.550     0.087446085420    0.069056948091    -0.000203752644    0.000185546695    0.086948746306    0.046403782549    -0.000156082758    0.000161006704
            -0.000203752636    0.000185546689    0.096917113331    0.053982260572    -0.000191076064    0.000180102157    0.098504893457    0.034068798545
            0.086948750500    0.046403778938    -0.000191076161    0.000180102185    0.088172482656    0.068165744247    -0.000134642790    0.000164620250
            -0.000156082870    0.000161006706    0.098504895241    0.034068793387    -0.000134642803    0.000164620265    0.098401539051    0.053925179459
0.575     0.109957615361    0.080892967885    -0.000191739557    0.000195664662    0.102253407341    0.056166813306    -0.000145127721    0.000167069092
            -0.000191739337    0.000195664233    0.110115839980    0.062650890423    -0.000179496334    0.000189151124    0.105823300923    0.039631689377
            0.102253370031    0.056166902000    -0.000179496328    0.000189151184    0.110080947732    0.079828028794    -0.000121800083    0.000168783782
            -0.000145127523    0.000167068747    0.105823304382    0.039631680142    -0.000121800101    0.000168783807    0.111313737357    0.062113811367
0.600     0.138341154119    0.081491765993    -0.000180716673    0.000203120051    0.123459332599    0.058126906419    -0.000135757112    0.000170737291
            -0.000180716666    0.000203120044    0.128832240881    0.065434989621    -0.000169000748    0.000195515620    0.118014476809    0.042179311182
            0.123459330653    0.058126887076    -0.000169000747    0.000195515687    0.137847839784    0.080593455135    -0.000110930735    0.000170243580
            -0.000135757119    0.000170737362    0.118014481226    0.042179298824    -0.000110930722    0.000170243625    0.129542552795    0.064634230234
0.625     0.166244219248    0.069378293578    -0.000171725213    0.000209199973    0.145883110275    0.050307999200    -0.000128837005    0.000173455519
            -0.000171725213    0.000209199973    0.149528553870    0.060124532806    -0.000160683922    0.000200511018    0.133003262766    0.039426264456
            0.145883110275    0.050307999200    -0.000160683959    0.000200511065    0.165296336060    0.068942991565    -0.000102935236    0.000170586796
            -0.000128836846    0.000173455115    0.133003264142    0.039426259813    -0.000102935405    0.000170587278    0.149687642566    0.059348910287
0.650     0.187740233856    0.046393333049    -0.000164871302    0.000215538376    0.164779286199    0.033301010643    -0.000124267632    0.000176892580
            -0.000164871018    0.000215537460    0.168118362298    0.046603618437    -0.000154688385    0.000205825453    0.147928265247    0.030479632459
            0.164779277560    0.033301002911    -0.000154688119    0.000205824577    0.186623126475    0.046597629612    -0.000097667002    0.000171624983
            -0.000124267317    0.000176891738    0.147928258113    0.030479617531    -0.000097667293    0.000171625911    0.167814404181    0.046135873811
0.675     0.198696375539    0.016758762096    -0.000159356308    0.000223477693    0.176408802820    0.009673311782    -0.000121078001    0.000182341970
            -0.000159356059    0.000223476765    0.181068302111    0.026713621806    -0.000150212798    0.000212879157    0.159930627804    0.015912950068
            0.176408790337    0.009673356803    -0.000150212821    0.000212879189    0.197744932085    0.017619522933    -0.000094067604    0.000174731283
            -0.000121077954    0.000182342037    0.159930618437    0.015912943217    -0.000094067871    0.000174732218    0.180516089846    0.026758267661
0.700     0.197378096904    -0.014107529779    -0.000153825024    0.000233735998    0.178563892663    -0.016766586075    -0.000117793763    0.000190412308
            -0.000153824820    0.000233735066    0.186183548398    0.003643728115    -0.000145866712    0.000222459068    0.166784051508    -0.002502183553
            0.178563860827    -0.016766497255    -0.000145866690    0.000222459119    0.196899545378    -0.012733287535    -0.000090551214    0.000180532319
            -0.000117793740    0.000190412345    0.166784051507    -0.002502183612    -0.000090551415    0.000180533270    0.185671680596    0.004279820750
0.725     0.184529090722    -0.040617802454    -0.000146749526    0.000246215850    0.170787519013    -0.041583670920    -0.000112825250    0.000200876722
            -0.000146749468    0.000246215361    0.182950381584    -0.018835283405    -0.000140049780    0.000234527875    0.167255174963    -0.022205166990
            0.170787499744    -0.041583580976    -0.000140049621    0.000234526957    0.184734774575    -0.039009668964    -0.000085456345    0.000188759342
            -0.000112825230    0.000200876768    0.167255174692    -0.022205169033    -0.000085456345    0.000188759342    0.182776368825    -0.017675293080
0.750     0.163282073159    -0.057905355743    -0.000136814220    0.000260085013    0.154614872436    -0.060309741084    -0.000104853347    0.000212753153
            -0.000136814216    0.000260085005    0.172577142541    -0.037122668564    -0.000131352074    0.000248275342    0.161349673896    -0.040287470790
            0.154614865696    -0.060309648290    -0.000131351893    0.000248274476    0.164230580512    -0.056425623734    -0.000077426573    0.000198361453
            -0.000104853314    0.000212753180    0.161349673896    -0.040287470790    -0.000077426703    0.000198362401    0.172981134743    -0.035641621719
0.775     0.138905892006    -0.062772747289    -0.000123232128    0.000273886158    0.133732009567    -0.069304973356    -0.000093157504    0.000224443161
            -0.000123232079    0.000273885664    0.157793287049    -0.048462980309    -0.000118870970    0.000262230724    0.150413830921    -0.054012390660
            0.133732001076    -0.069304924542    -0.000118870983    0.000262230751    0.140464806523    -0.061790550123    -0.000065763692    0.000207670773
            -0.000093157504    0.000224442718    0.150413821509    -0.054012387280    -0.000065763695    0.000207670782    0.158897960422    -0.046965987064
