# GHz S RI R 45
0.000     0.036289087000    0.000000000000    0.000014964779    0.000000000000    0.000578174090    0.000000000000    0.000023937085    0.000000000000
            0.000014964677    0.000000000000    0.035295609000    0.000000000000    0.000043122136    0.000000000000    0.000590381190    0.000000000000
            0.000578149040    0.000000000000    0.000043121945    0.000000000000    0.036223221000    0.000000000000    0.000023253468    0.000000000000
            0.000023936795    0.000000000000    0.000590381880    0.000000000000    0.000023253476    0.000000000000    0.035122757000    0.000000000000
0.025     0.042809802269    0.006698141966    -0.000045414628    -0.000021513691    0.003470564668    0.013149634827    -0.000028163309    -0.000017975035
            -0.000045414730    -0.000021513681    0.040816897283    0.006095761168    -0.000041801000    -0.000033474185    0.002940653166    0.012194677728
            0.003470413542    0.013149466831    -0.000041801184    -0.000033474165    0.042697211958    0.006682143606    -0.000020911051    -0.000009568953
            -0.000028163586    -0.000017975012    0.002940528748    0.012194509198    -0.000020911048    -0.000009568947    0.040802378832    0.006154125580
0.050     0.047860443778    0.005365327069    -0.000057248095    0.000020884366    0.011144917921    0.023054111255    -0.000037704931    0.000019253692
            -0.000057248195    0.000020884380    0.044656040718    0.005440405987    -0.000059668085    0.000022681856    0.009171697051    0.022033720322
            0.011144921715    0.023054101646    -0.000059668276    0.000022681881    0.047701080592    0.005384464922    -0.000025445120    0.000028474637
            -0.000037705221    0.000019253724    0.009171726277    0.022033709240    -0.000025445114    0.000028474640    0.044612892693    0.005411923096
0.075     0.049660581530    0.000931233968    -0.000042946298    0.000050160763    0.020668478946    0.027733673720    -0.000025001354    0.000044934605
            -0.000042946408    0.000050160768    0.045772281367    0.002840509301    -0.000042494474    0.000061436620    0.017340624325    0.028031501496
            0.020668458563    0.027733677686    -0.000042494658    0.000061436656    0.049483772718    0.001041220175    -0.000009649716    0.000054760555
            -0.000025001583    0.000044934647    0.017340629818    0.028031501626    -0.000009649707    0.000054760561    0.045620275221    0.002837809797
0.100     0.046734798594    -0.004688156950    -0.000020241787    0.000067588391    0.028692202024    0.027396189138    -0.000004782874    0.000060344166
            -0.000020241895    0.000067588408    0.043527570033    -0.000274092109    -0.000013764891    0.000084828394    0.025126950169    0.030085778595
            0.028692175874    0.027396194804    -0.000013765070    0.000084828440    0.046610421454    -0.004463665487    0.000013761961    0.000070313440
            -0.000004783155    0.000060344230    0.025126950810    0.030085779362    0.000013761982    0.000070313444    0.043301887709    -0.000152714424
0.125     0.038474539334    -0.008371241807    0.000004918268    0.000074847616    0.032630639821    0.024141329991    0.000017597373    0.000066873853
            0.000004918174    0.000074847637    0.037721630775    -0.001852901761    0.000018388908    0.000095044361    0.030591360715    0.029356294715
            0.032630611868    0.024141337510    0.000018388727    0.000095044414    0.038485268762    -0.008062713951    0.000039238712    0.000076277169
            0.000017597120    0.000066873929    0.030591362158    0.029356296100    0.000039238721    0.000076277174    0.037514825904    -0.001563100083
0.150     0.026175476256    -0.006850157926    0.000029766707    0.000073608529    0.031601720619    0.021210527592    0.000039859669    0.000065934353
            0.000029766614    0.000073608557    0.029323371460    0.000208681784    0.000050465139    0.000094241732    0.032781794524    0.027845074167
            0.031601693547    0.021210537423    0.000050464973    0.000094241798    0.026389479462    -0.006543048443    0.000064332011    0.000074065115
            0.000039859403    0.000065934446    0.032781787378    0.027845077947    0.000064332028    0.000074065118    0.029239525590    0.000647542794
0.175     0.013114962052    0.002216232070    0.000052104121    0.000065357188    0.026802542522    0.021846019995    0.000059997048    0.000058790741
            0.000052104020    0.000065357223    0.020468958344    0.007342458412    0.000079463868    0.000084352580    0.032012548599    0.027745164470
            0.026802524870    0.021846027407    0.000079463707    0.000084352649    0.013538081139    0.002393197785    0.000086824658    0.000065100288
            0.000059996836    0.000058790826    0.032012552590    0.027745165973    0.000086824680    0.000065100292    0.020585561886    0.007842894759
0.200     0.003687309223    0.019057230015    0.000070683819    0.000051483679    0.021229237608    0.028059000260    0.000076969368    0.000046644043
            0.000070683715    0.000051483721    0.013926963390    0.019722977632    0.000103846758    0.000067219371    0.029800168002    0.030719503050
            0.021229211950    0.028059012148    0.000103846603    0.000067219445    0.004242175495    0.018976938205    0.000105659167    0.000050805798
            0.000076969213    0.000046644118    0.029800162481    0.030719507013    0.000105659189    0.000050805798    0.014254704742    0.020160061609
0.225     0.002066697498    0.041300451986    0.000084369097    0.000033585801    0.018651741356    0.039714726908    0.000089725957    0.000030855092
            0.000084369002    0.000033585849    0.012374253484    0.035998038427    0.000122152133    0.000044896608    0.028382642352    0.037293934356
            0.018651716828    0.039714739532    0.000122151978    0.000044896684    0.002602472550    0.040890673971    0.000119781883    0.000032705351
            0.000089725714    0.000030855215    0.028382646818    0.037293933471    0.000119781906    0.000032705346    0.012845780776    0.036255003612
0.250     0.010659990432    0.064407723252    0.000092658923    0.000013210654    0.022176399702    0.054418589721    0.000097857665    0.000012749411
            0.000092658835    0.000013210705    0.017549579066    0.053493125358    0.000133864076    0.000019312407    0.029961439690    0.046629149292
            0.022176375190    0.054418602949    0.000133864098    0.000019312395    0.010994036349    0.063690719630    0.000128905045    0.000012231559
            0.000097857426    0.000012749544    0.029961444300    0.046629147519    0.000128905066    0.000012231551    0.018034101238    0.053508921022
0.275     0.029049540291    0.082998376291    0.000095415688    -0.000007893205    0.033003473054    0.068328231067    0.000101157783    -0.000006182072
            0.000095415638    -0.000007893177    0.029614496174    0.068856627426    0.000138771543    -0.000007425017    0.035928732459    0.056764879790
            0.033003457986    0.068328239456    0.000138771136    -0.000007424759    0.029028448872    0.082099584268    0.000132858855    -0.000009084079
            0.000101157551    -0.000006181931    0.035928736422    0.056764877282    0.000132858865    -0.000009084087    0.029959750561    0.068654437914
0.300     0.053950668799    0.092626235830    0.000093108518    -0.000028331169    0.049977475788    0.077547380250    0.000100015916    -0.000024733124
            0.000093108433    -0.000028331110    0.046979387291    0.079024962011    0.000137450708    -0.000033665782    0.046395615431    0.065273287814
            0.049977477953    0.077547377665    0.000137450725    -0.000033665796    0.053506139347    0.091742535315    0.000132109968    -0.000030039552
            0.000100015686    -0.000024732972    0.046395618829    0.065273282945    0.000132109986    -0.000030039565    0.047063788972    0.078714368829
0.325     0.080210179031    0.091175349030    0.000086541298    -0.000046926702    0.070030426190    0.079411995964    0.000095026065    -0.000041847612
            0.000086541299    -0.000046926703    0.066699204438    0.082101654360    0.000130740903    -0.000057973407    0.060169343157    0.070022255803
            0.070030383540    0.079412020242    0.000130740911    -0.000057973414    0.079386684232    0.090519750722    0.000127225282    -0.000049565851
            0.000095025290    -0.000041847039    0.060169345520    0.070022251136    0.000127225298    -0.000049565865    0.066475816063    0.081849971148
0.350     0.102339416117    0.079428360390    0.000076668922    -0.000063108964    0.089185815936    0.073223614921    0.000087009456    -0.000056977287
            0.000076668915    -0.000063108962    0.085281182460    0.077890595592    0.000119746079    -0.000079611373    0.075145656944    0.069793055117
            0.089185817214    0.073223613365    0.000119746085    -0.000079611381    0.101288377544    0.079167738553    0.000119040263    -0.000067107892
            0.000087009469    -0.000056977304    0.075145660599    0.069793051182    0.000119040269    -0.000067107901    0.084799909903    0.077874707957
0.375     0.115960736289    0.060741935495    0.000064385120    -0.000076591094    0.103623688343    0.060341790459    0.000076699047    -0.000069781540
            0.000064385111    -0.000076591089    0.099594577425    0.067897579369    0.000105454146    -0.000098105661    0.088891687699    0.064566630394
            0.103623689396    0.060341788650    0.000105453804    -0.000098105339    0.114904865542    0.060947310919    0.000108251036    -0.000082260311
            0.000076698704    -0.000069781219    0.088891688826    0.064566628843    0.000108251038    -0.000082260324    0.098996112611    0.068251917865
0.400     0.118842601460    0.040192078070    0.000050327375    -0.000087427966    0.110599526127    0.043871935251    0.000064713287    -0.000080246415
            0.000050327380    -0.000087427975    0.107632704664    0.054927875126    0.000088675064    -0.000113414734    0.099266546915    0.055517368605
            0.110599526127    0.043871935251    0.000088675076    -0.000113414750    0.118020429536    0.040811710226    0.000095506621    -0.000094961243
            0.000064712607    -0.000080245743    0.099266547884    0.055517366873    0.000095506633    -0.000094961258    0.107117333707    0.055701743566
0.425     0.111453163400    0.023430780339    0.000034933009    -0.000095662537    0.109162418857    0.028049019337    0.000051477743    -0.000088344361
            0.000034932938    -0.000095662467    0.108964930513    0.042398185389    0.000069980985    -0.000125467772    0.104936485451    0.044740690633
            0.109162388226    0.028049058180    0.000069980999    -0.000125467787    0.111054729517    0.024291476876    0.000081257705    -0.000105098585
            0.000051477417    -0.000088344030    0.104936486232    0.044740688802    0.000081257710    -0.000105098595    0.108743688433    0.043532690707
0.450     0.097085750680    0.015396990722    0.000018422676    -0.000101296513    0.100688626666    0.017320347274    0.000037304069    -0.000094095255
            0.000018422610    -0.000101296444    0.104868067941    0.033552835128    0.000049775136    -0.000134242237    0.105766685136    0.034796407692
            0.100688626605    0.017320347625    0.000049775150    -0.000134242253    0.097190389031    0.016236921662    0.000065900310    -0.000112663403
            0.000037303458    -0.000094094529    0.105766685743    0.034796405846    0.000065900325    -0.000112663429    0.105105506919    0.034883488265
0.475     0.081402403956    0.018888432888    0.000001057676    -0.000104125428    0.088956900171    0.015031160423    0.000022481951    -0.000097367104
            0.000001057613    -0.000104125349    0.098099698484    0.030658594015    0.000028462059    -0.000139501378    0.102973059792    0.028059051086
            0.088956900171    0.015031160423    0.000028461775    -0.000139501017    0.081936342391    0.019425021019    0.000049802725    -0.000117495924
            0.000022481813    -0.000097366923    0.102973060282    0.028059049289    0.000049802730    -0.000117495932    0.098862205460    0.031947766291
0.500     0.071152510663    0.033295941633    -0.000016774522    -0.000103859105    0.079386188928    0.021994854978    0.000007402325    -0.000098040711
            -0.000016774578    -0.000103859015    0.092314176533    0.034331017224    0.000006588302    -0.000141010504    0.098944641026    0.025996516191
            0.079386193167    0.021994854661    0.000006588311    -0.000141010524    0.071888082105    0.033316864476    0.000033443682    -0.000119527966
            0.000007402170    -0.000098040483    0.098944641026    0.025996516191    0.000033443687    -0.000119527975    0.093537345234    0.035325464660
0.525     0.072014672072    0.054166848491    -0.000034385102    -0.000100279752    0.077237053848    0.035649716231    -0.000007404438    -0.000096036838
            -0.000034385167    -0.000100279656    0.091109419397    0.043170541892    -0.000015059691    -0.000138596418    0.096612079019    0.028565673522
            0.077237031214    0.035649758112    -0.000015059923    -0.000138596011    0.072628901904    0.053615245791    0.000017397307    -0.000118728332
            -0.000007404539    -0.000096036579    0.096612080016    0.028565670150    0.000017397312    -0.000118728352    0.092600816087    0.043675294646
0.550     0.086318164842    0.074336762707    -0.000050965342    -0.000093473323    0.085440404612    0.050662002128    -0.000021347220    -0.000091527735
            -0.000050965383    -0.000093473243    0.096917113331    0.053982260572    -0.000035592832    -0.000132443617    0.098504893457    0.034068798545
            0.085440404612    0.050662002128    -0.000035593280    -0.000132442792    0.086499207752    0.073346247774    0.000002258866    -0.000115363307
            -0.000021347349    -0.000091527494    0.098504895241    0.034068793387    0.000002258870    -0.000115363317    0.098401539051    0.053925179459
0.575     0.111930780138    0.086465413349    -0.000065768252    -0.000083902541    0.103300596833    0.060952653618    -0.000033957957    -0.000084884408
            -0.000065768269    -0.000083902502    0.110115839980    0.062650890423    -0.000054248713    -0.000123059080    0.105823300923    0.039631689377
            0.103300583105    0.060952696561    -0.000054248797    -0.000123058922    0.111486559585    0.085322098366    -0.000011548599    -0.000109839957
            -0.000033958050    -0.000084884210    0.105823304382    0.039631680142    -0.000011548593    -0.000109839978    0.111313737357    0.062113811367
0.600     0.143119021228    0.085697743518    -0.000078386378    -0.000072230320    0.126946141879    0.062025271051    -0.000044997577    -0.000076592648
            -0.000078386411    -0.000072230225    0.128832240881    0.065434989621    -0.000070599811    -0.000111161243    0.118014476809    0.042179311182
            0.126946145126    0.062025264404    -0.000070599899    -0.000111161080    0.142039056218    0.084744712179    -0.000023850012    -0.000102668289
            -0.000044997673    -0.000076592414    0.118014481226    0.042179298824    -0.000023849998    -0.000102668312    0.129542552795    0.064634230234
0.625     0.172748497130    0.071019022750    -0.000088727522    -0.000059106960    0.151010247383    0.052242020037    -0.000054453696    -0.000067032648
            -0.000088727557    -0.000059106872    0.149528553870    0.060124532806    -0.000084550547    -0.000097385494    0.133003262766    0.039426264456
            0.151010247383    0.052242020037    -0.000084550620    -0.000097385338    0.171198098147    0.070550372609    -0.000034684410    -0.000094175874
            -0.000054453792    -0.000067032407    0.133003264142    0.039426259813    -0.000034684417    -0.000094175893    0.149687642566    0.059348910287
0.650     0.194517703922    0.044988172895    -0.000096902579    -0.000044962385    0.170395840862    0.032756212309    -0.000062362674    -0.000056433715
            -0.000096902608    -0.000044962275    0.168118362298    0.046603618437    -0.000096163944    -0.000082172500    0.147928265247    0.030479632459
            0.170395840862    0.032756212309    -0.000096164006    -0.000082172350    0.192780042873    0.045174354612    -0.000044104681    -0.000084537396
            -0.000062362767    -0.000056433463    0.147928258113    0.030479617531    -0.000044104689    -0.000084537411    0.167814404181    0.046135873811
0.675     0.204297598191    0.012544805682    -0.000103025767    -0.000030054441    0.181309608869    0.006707837506    -0.000068721761    -0.000044877540
            -0.000103025793    -0.000030054351    0.181068302111    0.026713621806    -0.000105499202    -0.000065757967    0.159930627804    0.015912950068
            0.181309608869    0.006707837506    -0.000105499260    -0.000065757798    0.202699727679    0.013398999640    -0.000052077675    -0.000073753898
            -0.000068721847    -0.000044877288    0.159930618437    0.015912943217    -0.000052077687    -0.000073753915    0.180516089846    0.026758267661
0.700     0.200620822212    -0.020293704371    -0.000107114726    -0.000014512558    0.181688955188    -0.021591757769    -0.000073369097    -0.000032453178
            -0.000107114748    -0.000014512466    0.186183548398    0.003643728115    -0.000112482204    -0.000048311705    0.166784051508    -0.002502183553
            0.181688944240    -0.021591765151    -0.000112482254    -0.000048311540    0.199457393897    -0.018913487468    -0.000058372536    -0.000061880973
            -0.000073369159    -0.000032453022    0.166784051507    -0.002502183612    -0.000058372553    -0.000061880992    0.185671680596    0.004279820750
0.725     0.184683795628    -0.047480764466    -0.000109095702    0.000001494605    0.171373893615    -0.047270856628    -0.000076086899    -0.000019319398
            -0.000109095721    0.000001494701    0.182950381584    -0.018835283405    -0.000116965217    -0.000030032869    0.167255174963    -0.022205166990
            0.171373885886    -0.047270809436    -0.000116965254    -0.000030032683    0.184153275228    -0.045845508148    -0.000062690024    -0.000049056761
            -0.000076086960    -0.000019319145    0.167255174692    -0.022205169033    -0.000062690039    -0.000049056772    0.182776368825    -0.017675293080
0.750     0.160252960398    -0.063855671466    -0.000108843998    0.000017734503    0.152389659204    -0.065507738485    -0.000076616426    -0.000005827577
            -0.000108844022    0.000017734604    0.172577142541    -0.037122668564    -0.000118734554    -0.000011255334    0.161349673896    -0.040287470790
            0.152389636095    -0.065507640317    -0.000118734571    -0.000011255147    0.160402431769    -0.062312667207    -0.000064676362    -0.000035686305
            -0.000076616474    -0.000005827325    0.161349673896    -0.040287470790    -0.000064676369    -0.000035686324    0.172981134743    -0.035641621719
0.775     0.133419194841    -0.066202220290    -0.000106303147    0.000033864711    0.129150732522    -0.072519661538    -0.000074862420    0.000007559988
            -0.000106303165    0.000033864818    0.157793287049    -0.048462980309    -0.000117693769    0.000007591360    0.150413830921    -0.054012390660
            0.129150732522    -0.072519661538    -0.000117693788    0.000007591526    0.134108416943    -0.065098220378    -0.000064185557    -0.000022285086
            -0.000074862454    0.000007560216    0.150413821509    -0.054012387280    -0.000064185565    -0.000022285101    0.158897960422    -0.046965987064
