# GHz S RI R 45
0.000     0.035202193000    0.000000000000    -0.000088826864    0.000000000000    0.000838806550    -0.000000000000    -0.000099259992    0.000000000000
            -0.000088826427    0.000000000000    0.035295609000    0.000000000000    -0.000059049403    0.000000000000    0.000590381190    0.000000000000
            0.000838803580    -0.000000000000    -0.000059048577    0.000000000000    0.035137501000    0.000000000000    -0.000061523438    0.000000000000
            -0.000099259325    0.000000000000    0.000590381880    0.000000000000    -0.000061523806    0.000000000000    0.035122757000    0.000000000000
0.025     0.043263160291    0.005837963888    -0.000120776609    -0.000177408768    0.004954770062    0.011107495905    -0.000088285638    -0.000120471530
            -0.000120776195    -0.000177408892    0.040816897283    0.006095761168    -0.000137373852    -0.000249505783    0.002940653166    0.012194677728
            0.004954755165    0.011107547444    -0.000137373011    -0.000249506007    0.043214351359    0.005825970948    -0.000110739211    -0.000189437536
            -0.000088285060    -0.000120471669    0.002940528748    0.012194509198    -0.000110739692    -0.000189437371    0.040802378832    0.006154125580
0.050     0.052957495453    0.001451148258    -0.000283252212    -0.000333586584    0.015490561582    0.017179852499    -0.000206437194    -0.000263423762
            -0.000283251875    -0.000333586778    0.044656040718    0.005440405987    -0.000351319447    -0.000430757131    0.009171697051    0.022033720322
            0.015490553606    0.017179867770    -0.000351318676    -0.000430757567    0.052922677936    0.001443299343    -0.000278620211    -0.000337161046
            -0.000206436626    -0.000263424079    0.009171726277    0.022033709240    -0.000278620621    -0.000337160824    0.044612892693    0.005411923096
0.075     0.060586271794    -0.010302041175    -0.000534244181    -0.000379789542    0.028183841661    0.015101445639    -0.000410797046    -0.000309384588
            -0.000534243768    -0.000379789950    0.045772281367    0.002840509301    -0.000658458262    -0.000487596210    0.017340624325    0.028031501496
            0.028183836035    0.015101454021    -0.000658457615    -0.000487596799    0.060595820943    -0.010308870156    -0.000524058817    -0.000379394070
            -0.000410796642    -0.000309384958    0.017340629818    0.028031501626    -0.000524059336    -0.000379393610    0.045620275221    0.002837809797
0.100     0.061806247619    -0.028205071140    -0.000812095834    -0.000300067133    0.037728705996    0.004781748557    -0.000637327867    -0.000248731101
            -0.000812095834    -0.000300067133    0.043527570033    -0.000274092109    -0.000999987801    -0.000398932425    0.025126950169    0.030085778595
            0.037728707680    0.004781751179    -0.000999987267    -0.000398933224    0.061892440412    -0.028232753052    -0.000792343852    -0.000303136479
            -0.000637327324    -0.000248731915    0.025126950810    0.030085779362    -0.000792344366    -0.000303135725    0.043301887709    -0.000152714424
0.125     0.052980737854    -0.048148040505    -0.001068614198    -0.000092729783    0.039539758941    -0.010875642604    -0.000844956830    -0.000084267604
            -0.001068614050    -0.000092730334    0.037721630775    -0.001852901761    -0.001323820564    -0.000159158633    0.030591360715    0.029356294715
            0.039539761439    -0.010875641064    -0.001323820409    -0.000159159083    0.053166890284    -0.048240402339    -0.001041347403    -0.000109222720
            -0.000844956696    -0.000084268037    0.030591362158    0.029356296100    -0.001041347403    -0.000109222720    0.037514825904    -0.001563100083
0.150     0.033143223173    -0.064289796510    -0.001260007464    0.000233259952    0.031258539051    -0.026756234132    -0.001000022460    0.000174638514
            -0.001260007464    0.000233259952    0.029323371460    0.000208681784    -0.001580130093    0.000227287263    0.032781794524    0.027845074167
            0.031258541504    -0.026756234341    -0.001580130014    0.000227286407    0.033424126851    -0.064511489303    -0.001235021887    0.000195465071
            -0.001000022416    0.000174637607    0.032781787378    0.027845077947    -0.001235021986    0.000195465087    0.029239525590    0.000647542794
0.175     0.004771815848    -0.070514006537    -0.001340896711    0.000659685252    0.013639945544    -0.036993162507    -0.001068035237    0.000513673203
            -0.001340896711    0.000659685252    0.020468958344    0.007342458412    -0.001713293148    0.000746619273    0.032012548599    0.027745164470
            0.013639947527    -0.036993163908    -0.001713293225    0.000746618595    0.005104371029    -0.070929449553    -0.001333692306    0.000600570104
            -0.001068035415    0.000513672141    0.032012552590    0.027745165973    -0.001333692188    0.000600570611    0.020585561886    0.007842894759
0.200     -0.026389837024    -0.062586367331    -0.001265526900    0.001151005207    -0.009354424611    -0.036745033634    -0.001012657224    0.000906621021
            -0.001265527281    0.001151004342    0.013926963390    0.019722977632    -0.001661663881    0.001363277871    0.029800168002    0.030719503050
            -0.009354418691    -0.036745037205    -0.001661664363    0.001363276811    -0.026088541188    -0.063237050437    -0.001290589173    0.001081742365
            -0.001012657476    0.000906620290    0.029800162481    0.030719507013    -0.001290589173    0.001081742365    0.014254704742    0.020160061609
0.225     -0.052709314177    -0.039746309992    -0.000997005346    0.001645800922    -0.031465360111    -0.023857724226    -0.000802150941    0.001305795013
            -0.000997005530    0.001645800577    0.012374253484    0.035998038427    -0.001369749975    0.002006406572    0.028382642352    0.037293934356
            -0.031465357541    -0.023857730926    -0.001369750506    0.002006405846    -0.052549049683    -0.040625539103    -0.001059766979    0.001586523278
            -0.000802151643    0.001305794112    0.028382646818    0.037293933471    -0.001059766979    0.001586523278    0.012845780776    0.036255003612
0.250     -0.066766783351    -0.005431805821    -0.000527212519    0.002060210600    -0.045897298715    0.000155165716    -0.000426836661    0.001643066058
            -0.000527213139    0.002060210028    0.017549579066    0.053493125358    -0.000815328698    0.002570828615    0.029961439690    0.046629149292
            -0.045897299742    0.000155157708    -0.000815329475    0.002570827950    -0.066853542355    -0.006469461920    -0.000619250171    0.002031892272
            -0.000426837420    0.001643065447    0.029961444300    0.046629147519    -0.000619249224    0.002031892979    0.018034101238    0.053508921022
0.275     -0.063624966949    0.033301194339    0.000107888401    0.002305654471    -0.047403878895    0.030276436945    0.000085908762    0.001843739933
            0.000107888401    0.002305654471    0.029614496174    0.068856627426    -0.000032732460    0.002938620707    0.035928732459    0.056764879790
            -0.047403879738    0.030276437483    -0.000032732868    0.002938620502    -0.064023941405    0.032234353133    0.000006660577    0.002320425841
            0.000085908436    0.001843739848    0.035928736422    0.056764877282    0.000006660780    0.002320426140    0.029959750561    0.068654437914
0.300     -0.042486489133    0.067537045375    0.000829348338    0.002318417516    -0.033970098310    0.059300830791    0.000670846377    0.001852696375
            0.000829347448    0.002318417198    0.046979387291    0.079024962011    0.000884060131    0.003017856343    0.046395615431    0.065273287814
            -0.033970098807    0.059300831659    0.000884051070    0.003017854308    -0.043189330527    0.066603240975    0.000741874861    0.002373739452
            0.000670845463    0.001852696175    0.046395618829    0.065273282945    0.000741874789    0.002373739369    0.047063788972    0.078714368829
0.325     -0.007105235767    0.088886549115    0.001536170994    0.002080685106    -0.007471578160    0.079820685836    0.001242102639    0.001654064554
            0.001536170994    0.002080685106    0.066699204438    0.082101654360    0.001805798914    0.002773897936    0.060169343157    0.070022255803
            -0.007471579646    0.079820686701    0.001805798914    0.002773897936    -0.008016616201    0.088238168469    0.001477752403    0.002161409830
            0.001242102696    0.001654064511    0.060169345520    0.070022251136    0.001477752403    0.002161409830    0.066475816063    0.081849971148
0.350     0.035079353103    0.091678302576    0.002136262488    0.001623841731    0.026790189136    0.086179001573    0.001720781125    0.001275476825
            0.002136262517    0.001623841694    0.085281182460    0.077890595592    0.002608344234    0.002238571528    0.075145656944    0.069793055117
            0.026790186424    0.086179003463    0.002608344273    0.002238571483    0.034131643991    0.091412508849    0.002108297249    0.001711110396
            0.001720781125    0.001275476825    0.075145660599    0.069793051182    0.002108297171    0.001711110333    0.084799909903    0.077874707957
0.375     0.074710288514    0.074328792363    0.002569270915    0.001011108378    0.061371172558    0.075817366039    0.002056113336    0.000773379583
            0.002569270915    0.001011108378    0.099594577425    0.067897579369    0.003206511456    0.001490881649    0.088891687699    0.064566630394
            0.061371172493    0.075817368665    0.003206511456    0.001490881649    0.073943172612    0.074450999764    0.002561200533    0.001093267168
            0.002056113336    0.000773379583    0.088891688826    0.064566628843    0.002561200533    0.001093267168    0.098996112611    0.068251917865
0.400     0.102582733647    0.039731876717    0.002813908693    0.000312389112    0.088316566968    0.049873222904    0.002233104944    0.000210257745
            0.002813908695    0.000312389097    0.107632704664    0.054927875126    0.003568454330    0.000623595853    0.099266546915    0.055517368605
            0.088316566098    0.049873224445    0.003568454329    0.000623595859    0.102210225505    0.040137436508    0.002812476088    0.000391529848
            0.002233104945    0.000210257733    0.099266547884    0.055517366873    0.002812476086    0.000391529863    0.107117333707    0.055701743566
0.425     0.111580391895    -0.005248016240    0.002877370544    -0.000417458674    0.100797256575    0.013068108342    0.002263703304    -0.000365850688
            0.002877370441    -0.000417458684    0.108964930513    0.042398185389    0.003704888979    -0.000289393046    0.104936485451    0.044740690633
            0.100797256393    0.013068109750    0.003704886372    -0.000289389193    0.111758957171    -0.004769170242    0.002878543483    -0.000327478062
            0.002263703402    -0.000365850708    0.104936486232    0.044740688802    0.002878543388    -0.000327478010    0.108743688433    0.043532690707
0.450     0.098267751459    -0.050968960804    0.002775783855    -0.001148010690    0.094627320042    -0.026988535547    0.002168889436    -0.000931385528
            0.002775783855    -0.001148010690    0.104868067941    0.033552835128    0.003642281369    -0.001210296340    0.105766685136    0.034796407692
            0.094627322437    -0.026988534444    0.003642281274    -0.001210296309    0.099044784833    -0.050702121232    0.002792534497    -0.001032258331
            0.002168889436    -0.000931385528    0.105766685743    0.034796405846    0.002792534403    -0.001032258296    0.105105506919    0.034883488265
0.475     0.063955187058    -0.086806704753    0.002512857881    -0.001866363892    0.069494240748    -0.061114591859    0.001957759348    -0.001482270099
            0.002512857881    -0.001866363892    0.098099698484    0.030658594015    0.003390099215    -0.002131518826    0.102973059792    0.028059051086
            0.069494244818    -0.061114593288    0.003390099177    -0.002131518885    0.065232652761    -0.087055222732    0.002573076830    -0.001723610897
            0.001957759348    -0.001482270099    0.102973060282    0.028059049289    0.002573076830    -0.001723610897    0.098862205460    0.031947766291
0.500     0.014989238146    -0.103461436634    0.002069539211    -0.002555885342    0.029631033863    -0.080517800708    0.001615593655    -0.002014589275
            0.002069539211    -0.002555885342    0.092314176533    0.034331017224    0.002921089266    -0.003046376503    0.098944641026    0.025996516191
            0.029631033863    -0.080517800708    0.002921089282    -0.003046376626    0.016516186682    -0.104469993940    0.002202669106    -0.002409181053
            0.001615593557    -0.002014589225    0.098944641026    0.025996516191    0.002202667932    -0.002409189985    0.093537345234    0.035325464660
0.525     -0.038146906443    -0.095439812279    0.001414227159    -0.003169571098    -0.016582889553    -0.079148880529    0.001110759361    -0.002498364109
            0.001414227188    -0.003169570866    0.091109419397    0.043170541892    0.002180242811    -0.003908506967    0.096612079019    0.028565673522
            -0.016582889963    -0.079148882486    0.002180242791    -0.003908507093    -0.036737405569    -0.097314914843    0.001631813080    -0.003064697270
            0.001110759187    -0.002498364187    0.096612080016    0.028565670150    0.001631811447    -0.003064701425    0.092600816087    0.043675294646
0.550     -0.083120104833    -0.062992003472    0.000535864708    -0.003618701383    -0.058403580802    -0.055774768399    0.000424151215    -0.002863574395
            0.000535864708    -0.003618701383    0.096917113331    0.053982260572    0.001128510803    -0.004608395303    0.098504893457    0.034068798545
            -0.058403576130    -0.055774783427    0.001128510723    -0.004608395322    -0.082229839802    -0.065645850493    0.000816611397    -0.003607747020
            0.000424151559    -0.002863574647    0.098504895241    0.034068793387    0.000816611422    -0.003607747425    0.098401539051    0.053925179459
0.575     -0.109009915165    -0.012542566612    -0.000519129277    -0.003793022496    -0.085604818421    -0.014762963822    -0.000414992290    -0.003015250244
            -0.000519129277    -0.003793022496    0.110115839980    0.062650890423    -0.000202044001    -0.004992254562    0.105823300923    0.039631689377
            -0.085604818421    -0.014762963822    -0.000202044088    -0.004992254558    -0.108968388897    -0.015690140863    -0.000229206894    -0.003909965770
            -0.000414992290    -0.003015250244    0.105823304382    0.039631680142    -0.000229206894    -0.003909965770    0.111313737357    0.062113811367
0.600     -0.109416633526    0.044858479405    -0.001635778200    -0.003608888847    -0.091429843170    0.034969788486    -0.001315199102    -0.002876119326
            -0.001635778241    -0.003608888938    0.128832240881    0.065434989621    -0.001681669231    -0.004923660082    0.118014476809    0.042179311182
            -0.091429852076    0.034969773600    -0.001681669231    -0.004923660082    -0.110384800301    0.041642284430    -0.001405491397    -0.003850315463
            -0.001315199102    -0.002876119326    0.118014481226    0.042179298824    -0.001405491397    -0.003850315463    0.129542552795    0.064634230234
0.625     -0.084122158928    0.096585258415    -0.002659929414    -0.003052944313    -0.074342390143    0.082503627240    -0.002146173394    -0.002428070559
            -0.002659929348    -0.003052944238    0.149528553870    0.060124532806    -0.003110424841    -0.004348771358    0.133003262766    0.039426264456
            -0.074342396837    0.082503634669    -0.003110424783    -0.004348771276    -0.086041201510    0.093764641480    -0.002545903795    -0.003375459407
            -0.002146173394    -0.002428070559    0.133003264142    0.039426259813    -0.002545903734    -0.003375459328    0.149687642566    0.059348910287
0.650     -0.038770481390    0.131721458386    -0.003450824702    -0.002192415018    -0.038032254971    0.117806224046    -0.002785310876    -0.001724515766
            -0.003450824702    -0.002192415018    0.168118362298    0.046603618437    -0.004284155290    -0.003324464630    0.147928265247    0.030479632459
            -0.038032258044    0.117806233562    -0.004284155211    -0.003324464568    -0.041370111618    0.129689159858    -0.003475087850    -0.002528586545
            -0.002785310876    -0.001724515766    0.147928258113    0.030479617531    -0.003475087850    -0.002528586545    0.167814404181    0.046135873811
0.675     0.016984959928    0.143389934884    -0.003922727018    -0.001148060784    0.009980862338    0.133862406125    -0.003156487385    -0.000868386548
            -0.003922727218    -0.001148060100    0.181068302111    0.026713621806    -0.005057497303    -0.001995763712    0.159930627804    0.015912950068
            0.009980831860    0.133862438481    -0.005057497210    -0.001995763675    0.014129157815    0.142380603067    -0.004065933927    -0.001432629482
            -0.003156487578    -0.000868386601    0.159930618437    0.015912943217    -0.004065933865    -0.001432630259    0.180516089846    0.026758267661
0.700     0.071874846345    0.129706729422    -0.004058036387    -0.000052354722    0.060241942524    0.127674588401    -0.003243837515    0.000024601102
            -0.004058036387    -0.000052354722    0.186183548398    0.003643728115    -0.005375946627    -0.000544875289    0.166784051508    -0.002502183553
            0.060241942334    0.127674599548    -0.005375946627    -0.000544875289    0.069256060728    0.129746554223    -0.004270533086    -0.000246477442
            -0.003243837515    0.000024601102    0.166784051507    -0.002502183612    -0.004270533086    -0.000246477442    0.185671680596    0.004279820750
0.725     0.115173230411    0.093609026126    -0.003894094898    0.000985186828    0.103102469514    0.100347439709    -0.003081844230    0.000857815470
            -0.003894094629    0.000985187483    0.182950381584    -0.018835283405    -0.005271636021    0.000861588553    0.167255174963    -0.022205166990
            0.103102476680    0.100347446683    -0.005271632820    0.000861585196    0.113261638046    0.094505630359    -0.004119317527    0.000882167459
            -0.003081844230    0.000857815470    0.167255174692    -0.022205169033    -0.004119317584    0.000882166719    0.182776368825    -0.017675293080
0.750     0.138365321297    0.042085008207    -0.003498730431    0.001896634023    0.130143023521    0.056751379951    -0.002734328104    0.001572031535
            -0.003498725229    0.001896627252    0.172577142541    -0.037122668564    -0.004836132889    0.002110482726    0.161349673896    -0.040287470790
            0.130143023521    0.056751379951    -0.004836132797    0.002110482686    0.137518441398    0.043449430832    -0.003698968001    0.001852532103
            -0.002734328104    0.001572031535    0.161349673896    -0.040287470790    -0.003698968001    0.001852532103    0.172981134743    -0.035641621719
0.775     0.136423497299    -0.014901983774    -0.002942752026    0.002659097117    0.135422788566    0.004937526707    -0.002269480595    0.002150785800
            -0.002942752026    0.002659097117    0.157793287049    -0.048462980309    -0.004179202431    0.003159639752    0.150413830921    -0.054012390660
            0.135422788566    0.004937526707    -0.004179202431    0.003159639752    0.136806633981    -0.013600478278    -0.003116237328    0.002629992940
            -0.002269480595    0.002150785800    0.150413821509    -0.054012387280    -0.003116237328    0.002629992940    0.158897960422    -0.046965987064
