# GHz S RI R 45
0.000     0.036600795000    0.000000000000    0.000023918173    -0.000000000000    0.000797481470    0.000000000000    -0.000002869571    0.000000000000
            0.000023918073    -0.000000000000    0.035295609000    0.000000000000    0.000002627006    0.000000000000    0.000590381190    0.000000000000
            0.000797399940    0.000000000000    0.000002626858    0.000000000000    0.036540418000    0.000000000000    0.000002066788    0.000000000000
            -0.000002869679    0.000000000000    0.000590381880    0.000000000000    0.000002066881    0.000000000000    0.035122757000    0.000000000000
0.025     0.042854977247    0.005984668733    -0.000009056444    -0.000018505015    0.003660014513    0.012293876682    0.000001121094    0.000004343002
            -0.000009056540    -0.000018505073    0.040816897283    0.006095761168    -0.000005759905    -0.000002910949    0.002940653166    0.012194677728
            0.003659806262    0.012293712267    -0.000005760049    -0.000002910942    0.042815799924    0.006026326793    -0.000002354062    -0.000001226046
            0.000001120984    0.000004343010    0.002940528748    0.012194509198    -0.000002353967    -0.000001226050    0.040802378832    0.006154125580
0.050     0.047661515855    0.004065829348    -0.000018717565    -0.000002693581    0.011003956229    0.021395761232    0.000003955033    0.000004712563
            -0.000018717686    -0.000002693568    0.044656040718    0.005440405987    -0.000006918219    0.000003183444    0.009171697051    0.022033720322
            0.011003905418    0.021395757003    -0.000006918366    0.000003183461    0.047672864279    0.004148149220    -0.000002407732    0.000002477473
            0.000003954922    0.000004712562    0.009171726277    0.022033709240    -0.000002407641    0.000002477465    0.044612892693    0.005411923096
0.075     0.049266939568    -0.000794786657    -0.000016314376    0.000008113673    0.020119528927    0.025486227596    0.000006475123    0.000004772867
            -0.000016314478    0.000008113684    0.045772281367    0.002840509301    -0.000004002249    0.000007100350    0.017340624325    0.028031501496
            0.020119454846    0.025486238937    -0.000004002393    0.000007100373    0.049359538226    -0.000716686924    0.000000169559    0.000004629538
            0.000006475017    0.000004772884    0.017340629818    0.028031501626    0.000000169650    0.000004629526    0.045620275221    0.002837809797
0.100     0.046315614015    -0.006841618939    -0.000010183586    0.000014594788    0.027811840891    0.024687996983    0.000009297960    0.000004095140
            -0.000010183685    0.000014594806    0.043527570033    -0.000274092109    0.000000306628    0.000008801866    0.025126950169    0.030085778595
            0.027811762767    0.024688012688    0.000000306485    0.000008801896    0.046484672952    -0.006827521963    0.000003713506    0.000004947538
            0.000009297846    0.000004095165    0.025126950810    0.030085779362    0.000003713596    0.000004947522    0.043301887709    -0.000152714424
0.125     0.038160186356    -0.011212479950    -0.000002694351    0.000017402083    0.031546050825    0.020923423080    0.000012187331    0.000002345211
            -0.000002694400    0.000017402070    0.037721630775    -0.001852901761    0.000004911439    0.000008453987    0.030591360715    0.029356294715
            0.031545973322    0.020923442234    0.000004911293    0.000008454024    0.038362360903    -0.011314751459    0.000007267585    0.000003520129
            0.000012187320    0.000002345283    0.030591362158    0.029356296100    0.000007267680    0.000003520107    0.037514825904    -0.001563100083
0.150     0.025895187493    -0.010753175628    0.000004930624    0.000016989863    0.030335089455    0.017256760066    0.000014696092    -0.000000591518
            0.000004930557    0.000016989915    0.029323371460    0.000208681784    0.000009132028    0.000006256613    0.032781794524    0.027845074167
            0.030335004508    0.017256786025    0.000009131886    0.000006256655    0.026062543641    -0.010991900265    0.000010169636    0.000000535670
            0.000014696000    -0.000000591487    0.032781787378    0.027845077947    0.000010169724    0.000000535646    0.029239525590    0.000647542794
0.175     0.012461854643    -0.003159983735    0.000011662724    0.000013847164    0.025141591225    0.016854940550    0.000016317421    -0.000004573966
            0.000011662659    0.000013847162    0.020468958344    0.007342458412    0.000012367641    0.000002589776    0.032012548599    0.027745164470
            0.025141516591    0.016854967474    0.000012367528    0.000002589821    0.012515789990    -0.003515973974    0.000011896871    -0.000003528521
            0.000016317333    -0.000004573931    0.032012552590    0.027745165973    0.000011896970    -0.000003528555    0.020585561886    0.007842894759
0.200     0.001915002311    0.012025094157    0.000016716400    0.000008591016    0.018680625671    0.021845929416    0.000016628619    -0.000009210152
            0.000016716301    0.000008591064    0.013926963390    0.019722977632    0.000014182086    -0.000002098413    0.029800168002    0.030719503050
            0.018680551850    0.021845959647    0.000014181997    -0.000002098375    0.001791121913    0.011615848961    0.000012130054    -0.000008141899
            0.000016628535    -0.000009210113    0.029800162481    0.030719507013    0.000012130150    -0.000008141939    0.014254704742    0.020160061609
0.225     -0.001728792666    0.032893366832    0.000019592207    0.000002155739    0.014549818885    0.032415758202    0.000015434375    -0.000013891352
            0.000019592117    0.000002155784    0.012374253484    0.035998038427    0.000014361409    -0.000007122313    0.028382642352    0.037293934356
            0.014549746155    0.032415793039    0.000014361272    -0.000007122251    -0.002054849163    0.032528828110    0.000010857799    -0.000012621105
            0.000015434291    -0.000013891309    0.028382646818    0.037293933471    0.000010857894    -0.000012621149    0.012845780776    0.036255003612
0.250     0.004105279552    0.055449961951    0.000020218751    -0.000004539144    0.015927066455    0.046588472407    0.000012895070    -0.000017982575
            0.000020218640    -0.000004539106    0.017549579066    0.053493125358    0.000012996217    -0.000011845960    0.029961439690    0.046629149292
            0.015926988368    0.046588514955    0.000012996036    -0.000011845863    0.003609472422    0.055235865372    0.000008341467    -0.000016410713
            0.000012894988    -0.000017982529    0.029961444300    0.046629147519    0.000008341559    -0.000016410763    0.018034101238    0.053508921022
0.275     0.019509406651    0.074695057855    0.000019006875    -0.000010644221    0.024361820016    0.060842795224    0.000009500137    -0.000021028625
            0.000019006790    -0.000010644169    0.029614496174    0.068856627426    0.000010527516    -0.000015740649    0.035928732459    0.056764879790
            0.024361752639    0.060842836206    0.000010527390    -0.000015740570    0.018932521800    0.074712070133    0.000005136950    -0.000019166855
            0.000009500057    -0.000021028576    0.035928736422    0.056764877282    0.000005137039    -0.000019166910    0.029959750561    0.068654437914
0.300     0.041879271070    0.086198924648    0.000016572853    -0.000015789083    0.039199973631    0.071336692534    0.000005868475    -0.000022970977
            0.000016572782    -0.000015789055    0.046979387291    0.079024962011    0.000007496749    -0.000018668423    0.046395615431    0.065273287814
            0.039199907760    0.071336737859    0.000007496667    -0.000018668372    0.041348257058    0.086473383899    0.000001795493    -0.000020939401
            0.000005868481    -0.000022970991    0.046395618829    0.065273282945    0.000001795501    -0.000020939402    0.047063788972    0.078714368829
0.325     0.066656839398    0.087461704007    0.000013568536    -0.000019961039    0.057829001906    0.075156178919    0.000002492058    -0.000024095740
            0.000013568459    -0.000019960977    0.066699204438    0.082101654360    0.000004398846    -0.000020786903    0.060169343157    0.070022255803
            0.057828938333    0.075156226574    0.000004398694    -0.000020786790    0.066302657886    0.087950299428    -0.000001275198    -0.000022061442
            0.000002491983    -0.000024095690    0.060169345520    0.070022251136    -0.000001275114    -0.000022061508    0.066475816063    0.081849971148
0.350     0.088648289122    0.078611081438    0.000010323961    -0.000023479183    0.076517811892    0.071144177418    -0.000000471278    -0.000024886632
            0.000010323886    -0.000023479127    0.085281182460    0.077890595592    0.000001423358    -0.000022462493    0.075145656944    0.069793055117
            0.076517752417    0.071144226699    0.000001423210    -0.000022462367    0.088570486898    0.079204869460    -0.000004030002    -0.000022985353
            -0.000000471425    -0.000024886512    0.075145660599    0.069793051182    -0.000004029998    -0.000022985358    0.084799909903    0.077874707957
0.375     0.103392610711    0.062283197924    0.000006926898    -0.000026683349    0.091426136912    0.060139521099    -0.000003173254    -0.000025764604
            0.000006926822    -0.000026683282    0.099594577425    0.067897579369    -0.000001466682    -0.000024034754    0.088891687699    0.064566630394
            0.091426068771    0.060139588297    -0.000001466753    -0.000024034692    0.103628160418    0.062827652997    -0.000006667320    -0.000024056596
            -0.000003173359    -0.000025764512    0.088891688826    0.064566628843    -0.000006667280    -0.000024056629    0.098996112611    0.068251917865
0.400     0.108221121104    0.042951539724    0.000003149813    -0.000029821486    0.099534378832    0.044786845468    -0.000006001672    -0.000026948611
            0.000003149675    -0.000029821394    0.107632704664    0.054927875126    -0.000004546909    -0.000025713081    0.099266546915    0.055517368605
            0.099534304834    0.044786912441    -0.000004546976    -0.000025713015    0.108725078936    0.043281047828    -0.000009581135    -0.000025402483
            -0.000006001742    -0.000026948548    0.099266547884    0.055517366873    -0.000009581062    -0.000025402556    0.107117333707    0.055701743566
0.425     0.102894111593    0.025923826247    -0.000001308510    -0.000032923154    0.099400658502    0.029016161463    -0.000009391161    -0.000028388419
            -0.000001308574    -0.000032923118    0.108964930513    0.042398185389    -0.000008147269    -0.000027506023    0.104936485451    0.044740690633
            0.099400586197    0.029016230726    -0.000008147399    -0.000027505880    0.103536662535    0.025902841335    -0.000013152873    -0.000026911919
            -0.000009391221    -0.000028388351    0.104936486232    0.044740688802    -0.000013152834    -0.000026911959    0.108743688433    0.043532690707
0.450     0.089833960685    0.016173200250    -0.000006830030    -0.000035772317    0.091740869033    0.017231174140    -0.000013739791    -0.000029771515
            -0.000006830084    -0.000035772225    0.104868067941    0.033552835128    -0.000012639871    -0.000029195066    0.105766685136    0.034796407692
            0.091740806219    0.017231248541    -0.000012639995    -0.000029194919    0.090417791222    0.015740518568    -0.000017719732    -0.000028246173
            -0.000013739848    -0.000029771448    0.105766685743    0.034796405846    -0.000017719665    -0.000028246253    0.105105506919    0.034883488265
0.475     0.073853911521    0.017024397528    -0.000013639269    -0.000037888823    0.079632391980    0.013127867208    -0.000019252656    -0.000030554968
            -0.000013639312    -0.000037888735    0.098099698484    0.030658594015    -0.000018259728    -0.000030321785    0.102973059792    0.028059051086
            0.079632363078    0.013127907271    -0.000018259806    -0.000030321675    0.074156773734    0.016228585922    -0.000023423787    -0.000028879849
            -0.000019252698    -0.000030554940    0.102973060282    0.028059049289    -0.000023423727    -0.000028879930    0.098862205460    0.031947766291
0.500     0.061185487355    0.028913819586    -0.000021723480    -0.000038559182    0.068018015294    0.018331236617    -0.000025840664    -0.000030028441
            -0.000021723479    -0.000038559180    0.092314176533    0.034331017224    -0.000025002073    -0.000030206264    0.098944641026    0.025996516191
            0.068017961372    0.018331321407    -0.000025002154    -0.000030206147    0.061023595528    0.027922969586    -0.000030142940    -0.000028138386
            -0.000025840719    -0.000030028357    0.098944641026    0.025996516191    -0.000030142887    -0.000028138464    0.093537345234    0.035325464660
0.525     0.057692486548    0.048723745912    -0.000030566362    -0.000037044421    0.062260039938    0.031382466650    -0.000032953520    -0.000027515251
            -0.000030566409    -0.000037044333    0.091109419397    0.043170541892    -0.000032390748    -0.000028141150    0.096612079019    0.028565673522
            0.062259988976    0.031382549981    -0.000032390825    -0.000028141028    0.056987909995    0.047796228174    -0.000037317096    -0.000025393029
            -0.000032953574    -0.000027515160    0.096612080016    0.028565670150    -0.000037317052    -0.000025393103    0.092600816087    0.043675294646
0.550     0.066748708380    0.070377822020    -0.000039202943    -0.000032899921    0.066135784907    0.047870130487    -0.000039624940    -0.000022675686
            -0.000039202991    -0.000032899857    0.096917113331    0.053982260572    -0.000039502883    -0.000023707256    0.098504893457    0.034068798545
            0.066135738625    0.047870216601    -0.000039502953    -0.000023707129    0.065572477247    0.069791094292    -0.000043999415    -0.000020338356
            -0.000039624981    -0.000022675590    0.098504895241    0.034068793387    -0.000043999374    -0.000020338440    0.098401539051    0.053925179459
0.575     0.087812051474    0.086799701922    -0.000046429509    -0.000026339908    0.080273350935    0.061937116477    -0.000044730950    -0.000015814374
            -0.000046429543    -0.000026339831    0.110115839980    0.062650890423    -0.000045195702    -0.000017122001    0.105823300923    0.039631689377
            0.080273306233    0.061937207152    -0.000045195765    -0.000017121872    0.086376456827    0.086763212899    -0.000049097627    -0.000013297322
            -0.000044730994    -0.000015814285    0.105823304382    0.039631680142    -0.000049097590    -0.000013297404    0.111313737357    0.062113811367
0.600     0.116606577358    0.092395914052    -0.000051350757    -0.000018231878    0.102000830766    0.068455977736    -0.000047485001    -0.000007857838
            -0.000051350779    -0.000018231795    0.128832240881    0.065434989621    -0.000048622763    -0.000009242056    0.118014476809    0.042179311182
            0.102000786499    0.068456061639    -0.000048622817    -0.000009241925    0.115206478734    0.092984173740    -0.000051859503    -0.000005186304
            -0.000047485042    -0.000007857743    0.118014481226    0.042179298824    -0.000051859469    -0.000005186383    0.129542552795    0.064634230234
0.625     0.146752059005    0.084760712759    -0.000053702057    -0.000009801326    0.126539718184    0.064629873789    -0.000047759336    -0.000000026849
            -0.000053702085    -0.000009801244    0.149528553870    0.060124532806    -0.000049562881    -0.000001261356    0.133003262766    0.039426264456
            0.126539684226    0.064629962262    -0.000049562930    -0.000001261227    0.145684292392    0.085891561387    -0.000052173898    0.000002800925
            -0.000047759375    -0.000000026749    0.133003264142    0.039426259813    -0.000052173866    0.000002800822    0.149687642566    0.059348910287
0.650     0.171851292517    0.064976506669    -0.000053916594    -0.000002109596    0.148677546331    0.050423104424    -0.000046100433    0.000006662887
            -0.000053916628    -0.000002109512    0.168118362298    0.046603618437    -0.000048467868    0.000005786719    0.147928265247    0.030479632459
            0.148677546331    0.050423104424    -0.000048467926    0.000005786897    0.171337457571    0.066434697843    -0.000050581091    0.000009682176
            -0.000046100463    0.000006662973    0.147928258113    0.030479617531    -0.000050581063    0.000009682079    0.167814404181    0.046135873811
0.675     0.187038637821    0.036831123793    -0.000052821246    0.000004219371    0.164019123901    0.028078004137    -0.000043426233    0.000011679748
            -0.000052821261    0.000004219483    0.181068302111    0.026713621806    -0.000046175528    0.000011302778    0.159930627804    0.015912950068
            0.164019116011    0.028078050226    -0.000046175562    0.000011302924    0.187176895774    0.038319519309    -0.000047969121    0.000014943317
            -0.000043426275    0.000011679832    0.159930618437    0.015912943217    -0.000047969101    0.000014943219    0.180516089846    0.026758267661
0.700     0.189757727616    0.005669025563    -0.000051330785    0.000009107676    0.169655582260    0.001378189699    -0.000040692718    0.000015047591
            -0.000051330813    0.000009107773    0.186183548398    0.003643728115    -0.000043608037    0.000015212864    0.166784051508    -0.002502183553
            0.169655561508    0.001378282247    -0.000043608070    0.000015213054    0.190499174456    0.006869413945    -0.000045260290    0.000018602134
            -0.000040692765    0.000015047770    0.166784051507    -0.002502183612    -0.000045260273    0.000018602035    0.185671680596    0.004279820750
0.725     0.179967764066    -0.022658871979    -0.000050188123    0.000012869501    0.164469250195    -0.025000192166    -0.000038646126    0.000017189233
            -0.000050188139    0.000012869608    0.182950381584    -0.018835283405    -0.000041532482    0.000017833597    0.167255174963    -0.022205166990
            0.164469234149    -0.025000098097    -0.000041532511    0.000017833781    0.181115988091    -0.022021669350    -0.000043178531    0.000021049512
            -0.000038646145    0.000017189322    0.167255174692    -0.022205169033    -0.000043178513    0.000021049419    0.182776368825    -0.017675293080
0.750     0.160149973553    -0.042699824057    -0.000049869985    0.000016102683    0.149432224612    -0.046081903297    -0.000037726781    0.000018779938
            -0.000049869988    0.000016102694    0.172577142541    -0.037122668564    -0.000040465991    0.000019767952    0.161349673896    -0.040287470790
            0.149432224612    -0.046081903297    -0.000040466021    0.000019768133    0.161383482418    -0.042791393541    -0.000042171949    0.000022923324
            -0.000037726801    0.000018780030    0.161349673896    -0.040287470790    -0.000042171939    0.000022923223    0.172981134743    -0.035641621719
0.775     0.135185277940    -0.050363361262    -0.000050535095    0.000019525978    0.127881386201    -0.057440300260    -0.000038045581    0.000020590962
            -0.000050535084    0.000019526075    0.157793287049    -0.048462980309    -0.000040618599    0.000021769709    0.150413830921    -0.054012390660
            0.127881375878    -0.057440250024    -0.000040618604    0.000021769803    0.136110030400    -0.051179378935    -0.000042383839    0.000024968879
            -0.000038045595    0.000020591099    0.150413821509    -0.054012387280    -0.000042383838    0.000024968818    0.158897960422    -0.046965987064
