# GHz S RI R 45
0.000     0.036392108000    0.000000000000    -0.000011156696    0.000000000000    0.000897145310    0.000000000000    -0.000014510745    0.000000000000
            -0.000011157186    0.000000000000    0.035295609000    0.000000000000    -0.000003145987    0.000000000000    0.000590381190    0.000000000000
            0.000897258370    0.000000000000    -0.000003146433    0.000000000000    0.036410783000    0.000000000000    -0.000005720142    0.000000000000
            -0.000014511143    0.000000000000    0.000590381880    0.000000000000    -0.000005719751    0.000000000000    0.035122757000    0.000000000000
0.025     0.042529251234    0.005789943499    -0.000035748138    -0.000021874171    0.003545968483    0.011973469153    -0.000028166822    -0.000014887680
            -0.000035748531    -0.000021874145    0.040816897283    0.006095761168    -0.000026112673    -0.000021347583    0.002940653166    0.012194677728
            0.003545961034    0.011973295104    -0.000026113120    -0.000021347545    0.042420907760    0.005717442718    -0.000020910818    -0.000016153592
            -0.000028167221    -0.000014887652    0.002940528748    0.012194509198    -0.000020910428    -0.000016153617    0.040802378832    0.006154125580
0.050     0.047087155074    0.004056717912    -0.000047118526    -0.000019019779    0.010523924475    0.021057186897    -0.000035459305    -0.000016282323
            -0.000047118914    -0.000019019735    0.044656040718    0.005440405987    -0.000036849553    -0.000019527487    0.009171697051    0.022033720322
            0.010524067919    0.021057163277    -0.000036850045    -0.000019527435    0.046880297739    0.003968640318    -0.000028506502    -0.000017162385
            -0.000035459696    -0.000016282285    0.009171726277    0.022033709240    -0.000028506116    -0.000017162430    0.044612892693    0.005411923096
0.075     0.048644458535    -0.000436955295    -0.000051905553    -0.000017833278    0.019331467489    0.025424922099    -0.000039766051    -0.000018096205
            -0.000051905984    -0.000017833203    0.045772281367    0.002840509301    -0.000041494150    -0.000019360582    0.017340624325    0.028031501496
            0.019331585857    0.025424903705    -0.000041494581    -0.000019360466    0.048331250145    -0.000456291154    -0.000032446353    -0.000019062731
            -0.000039766440    -0.000018096147    0.017340629818    0.028031501626    -0.000032445977    -0.000019062845    0.045620275221    0.002837809797
0.100     0.045934776886    -0.006080960134    -0.000055746011    -0.000017591391    0.026966238331    0.025117131586    -0.000043932777    -0.000020034415
            -0.000055746384    -0.000017591306    0.043527570033    -0.000274092109    -0.000045410312    -0.000020131548    0.025126950169    0.030085778595
            0.026966349897    0.025117107173    -0.000045410699    -0.000020131464    0.045566747857    -0.005957814710    -0.000036152287    -0.000021474892
            -0.000043933259    -0.000020034320    0.025126950810    0.030085779362    -0.000036151912    -0.000021474977    0.043301887709    -0.000152714424
0.125     0.038320258762    -0.010207065248    -0.000059520085    -0.000017614179    0.031011678544    0.021856607119    -0.000048388357    -0.000021717564
            -0.000059520498    -0.000017614064    0.037721630775    -0.001852901761    -0.000049477545    -0.000021127267    0.030591360715    0.029356294715
            0.031011786551    0.021856577116    -0.000049477924    -0.000021127174    0.037989716093    -0.009914165098    -0.000040244618    -0.000023944220
            -0.000048388834    -0.000021717443    0.030591362158    0.029356296100    -0.000040244251    -0.000023944325    0.037514825904    -0.001563100083
0.150     0.026771875199    -0.009859378387    -0.000063483910    -0.000017581224    0.030454180981    0.018454805596    -0.000053238986    -0.000023040475
            -0.000063484360    -0.000017581086    0.029323371460    0.000208681784    -0.000053928759    -0.000021965954    0.032781794524    0.027845074167
            0.030454291182    0.018454768457    -0.000053929232    -0.000021965807    0.026579493405    -0.009432075621    -0.000044922822    -0.000026237947
            -0.000053239361    -0.000023040362    0.032781787378    0.027845077947    -0.000044922463    -0.000026238074    0.029239525590    0.000647542794
0.175     0.013999982389    -0.002828348375    -0.000067805038    -0.000017306340    0.026068810033    0.017871178179    -0.000058614383    -0.000023837986
            -0.000067805479    -0.000017306176    0.020468958344    0.007342458412    -0.000058866738    -0.000022394925    0.032012548599    0.027745164470
            0.026068912636    0.017871138162    -0.000058867140    -0.000022394724    0.014009741278    -0.002362540561    -0.000050351034    -0.000028098370
            -0.000058614847    -0.000023837817    0.032012552590    0.027745165973    -0.000050350682    -0.000028098507    0.020585561886    0.007842894759
0.200     0.003780166388    0.011399421700    -0.000072592399    -0.000016585174    0.020267527885    0.022169991365    -0.000064590230    -0.000023918863
            -0.000072592830    -0.000016584993    0.013926963390    0.019722977632    -0.000064318235    -0.000022199509    0.029800168002    0.030719503050
            0.020267631210    0.022169944328    -0.000064318592    -0.000022199356    0.003987747696    0.011778994090    -0.000056579565    -0.000029252969
            -0.000064590592    -0.000023918715    0.029800162481    0.030719507013    -0.000056579220    -0.000029253117    0.014254704742    0.020160061609
0.225     -0.000093463878    0.031145352763    -0.000077852017    -0.000015077602    0.016337855626    0.031677675280    -0.000071104957    -0.000022910756
            -0.000077852442    -0.000015077402    0.012374253484    0.035998038427    -0.000070216315    -0.000021069444    0.028382642352    0.037293934356
            0.016337951732    0.031677626838    -0.000070216713    -0.000021069256    0.000230827908    0.031331675729    -0.000063530422    -0.000029291717
            -0.000071105310    -0.000022910596    0.028382646818    0.037293933471    -0.000063530111    -0.000029291924    0.012845780776    0.036255003612
0.250     0.004900364705    0.052762221544    -0.000083353422    -0.000012469106    0.017277579182    0.044737733571    -0.000077854168    -0.000020493238
            -0.000083353835    -0.000012468885    0.017549579066    0.053493125358    -0.000076300944    -0.000018743244    0.029961439690    0.046629149292
            0.017277667837    0.044737684325    -0.000076301375    -0.000018743011    0.005204533357    0.052710831010    -0.000070867029    -0.000027872382
            -0.000077854601    -0.000020493003    0.029961444300    0.046629147519    -0.000070866698    -0.000027872566    0.018034101238    0.053508921022
0.275     0.019022492555    0.071587203754    -0.000088646737    -0.000008566286    0.024679004369    0.058212143373    -0.000084280896    -0.000016495601
            -0.000088647034    -0.000008566049    0.029614496174    0.068856627426    -0.000082121164    -0.000015076232    0.035928732459    0.056764879790
            0.024679095034    0.058212088644    -0.000082121581    -0.000015075983    0.019159290768    0.071341100769    -0.000078030765    -0.000024808049
            -0.000084281274    -0.000016495370    0.035928736422    0.056764877282    -0.000078030450    -0.000024808234    0.029959750561    0.068654437914
0.300     0.040011880275    0.083378236750    -0.000093204252    -0.000003516377    0.038148113468    0.068555869249    -0.000089776227    -0.000011131019
            -0.000093204562    -0.000003516160    0.046979387291    0.079024962011    -0.000087170106    -0.000010242818    0.046395615431    0.065273287814
            0.038148198607    0.068555813863    -0.000087170429    -0.000010242609    0.039878002027    0.083061224737    -0.000084394811    -0.000020297267
            -0.000089776633    -0.000011130735    0.046395618829    0.065273282945    -0.000084394586    -0.000020297415    0.047063788972    0.078714368829
0.325     0.063705426185    0.085600773769    -0.000096643025    0.000002263967    0.055453857400    0.072961509806    -0.000093899296    -0.000004927381
            -0.000096643403    0.000002264246    0.066699204438    0.082101654360    -0.000091086114    -0.000004671954    0.060169343157    0.070022255803
            0.055453945140    0.072961448144    -0.000091086424    -0.000004671731    0.063279104778    0.085381427227    -0.000089515103    -0.000014847542
            -0.000093899608    -0.000004927150    0.060169345520    0.070022251136    -0.000089514802    -0.000014847765    0.066475816063    0.081849971148
0.350     0.085224571529    0.078145550386    -0.000098895693    0.000008188419    0.073244740114    0.070166358470    -0.000096595367    0.000001413447
            -0.000098895983    0.000008188651    0.085281182460    0.077890595592    -0.000093821683    0.000001053463    0.075145656944    0.069793055117
            0.073244831709    0.070166291768    -0.000093822055    0.000001053762    0.084580139599    0.078186212946    -0.000093320280    -0.000009149870
            -0.000096595742    0.000001413756    0.075145660599    0.069793051182    -0.000093319989    -0.000009150105    0.084799909903    0.077874707957
0.375     0.100262280802    0.063287554012    -0.000100208472    0.000013766037    0.087962853693    0.060731633275    -0.000098171284    0.000007298781
            -0.000100208787    0.000013766312    0.099594577425    0.067897579369    -0.000095634987    0.000006452583    0.088891687699    0.064566630394
            0.087962927389    0.060731561736    -0.000095635307    0.000006452889    0.099554602645    0.063694515709    -0.000096111605    -0.000003777176
            -0.000098171569    0.000007299043    0.088891688826    0.064566628843    -0.000096111330    -0.000003777434    0.098996112611    0.068251917865
0.400     0.106115487939    0.045105119665    -0.000101049791    0.000018709829    0.096715518612    0.046912040739    -0.000099197048    0.000012398354
            -0.000101050125    0.000018710164    0.107632704664    0.054927875126    -0.000096996765    0.000011256295    0.099266546915    0.055517368605
            0.096715593903    0.046911977171    -0.000096997038    0.000011256567    0.105542870686    0.045892288111    -0.000098445270    0.000000955432
            -0.000099197320    0.000012398634    0.099266547884    0.055517366873    -0.000098445006    0.000000955172    0.107117333707    0.055701743566
0.425     0.102324633376    0.028552310333    -0.000101942535    0.000023034550    0.097990204828    0.032200795579    -0.000100295652    0.000016730619
            -0.000101942846    0.000023034900    0.108964930513    0.042398185389    -0.000098418971    0.000015492365    0.104936485451    0.044740690633
            0.097990269806    0.032200725975    -0.000098419292    0.000015492732    0.102076599387    0.029626508526    -0.000100928612    0.000005092407
            -0.000100295872    0.000016730944    0.104936486232    0.044740688802    -0.000100928365    0.000005092130    0.108743688433    0.043532690707
0.450     0.090919755296    0.018368137227    -0.000103353903    0.000027006332    0.092201487273    0.020609087245    -0.000102015177    0.000020620438
            -0.000103354132    0.000027006604    0.104868067941    0.033552835128    -0.000100350208    0.000019431538    0.105766685136    0.034796407692
            0.092201548918    0.020609013163    -0.000100350523    0.000019431908    0.091121046869    0.019541907596    -0.000104081660    0.000008974515
            -0.000102015424    0.000020620729    0.105766685743    0.034796405846    -0.000104081424    0.000008974220    0.105105506919    0.034883488265
0.475     0.076196206406    0.017861785996    -0.000105571989    0.000031136688    0.081902632399    0.015621436794    -0.000104684966    0.000024660625
            -0.000105572244    0.000031137024    0.098099698484    0.030658594015    -0.000103063046    0.000023573373    0.102973059792    0.028059051086
            0.081902689031    0.015621358707    -0.000103063275    0.000023573671    0.076859401423    0.018894749665    -0.000108202043    0.000013208754
            -0.000104685188    0.000024660947    0.102973060282    0.028059049289    -0.000108201817    0.000013208458    0.098862205460    0.031947766291
0.500     0.063869728229    0.027766743584    -0.000108611340    0.000036090649    0.071404126329    0.018987039190    -0.000108312452    0.000029616630
            -0.000108611549    0.000036090971    0.092314176533    0.034331017224    -0.000106568852    0.000028566341    0.098944641026    0.025996516191
            0.071404177552    0.018986959406    -0.000106569062    0.000028566677    0.064873663516    0.028433172255    -0.000113264670    0.000018561706
            -0.000108312664    0.000029616952    0.098944641026    0.025996516191    -0.000113264465    0.000018561408    0.093537345234    0.035325464660
0.525     0.059510981013    0.045573948630    -0.000112062265    0.000042567252    0.065574010246    0.029766259984    -0.000112428825    0.000036270057
            -0.000112062323    0.000042567409    0.091109419397    0.043170541892    -0.000110469535    0.000035098098    0.096612079019    0.028565673522
            0.065574081180    0.029766137589    -0.000110469787    0.000035098496    0.060622055399    0.045739106055    -0.000118769238    0.000025817807
            -0.000112428984    0.000036270411    0.096612080016    0.028565670150    -0.000118769048    0.000025817505    0.092600816087    0.043675294646
0.550     0.066630727380    0.065935387123    -0.000115077911    0.000050992579    0.068098606568    0.044310412756    -0.000116079917    0.000045093158
            -0.000115077911    0.000050992555    0.096917113331    0.053982260572    -0.000113930295    0.000043600421    0.098504893457    0.034068798545
            0.068098647682    0.044310331235    -0.000113930517    0.000043600848    0.067568994994    0.065609793506    -0.000123726670    0.000035446458
            -0.000116080103    0.000045093509    0.098504895241    0.034068793387    -0.000123726537    0.000035446233    0.098401539051    0.053925179459
0.575     0.085264104701    0.082294684943    -0.000116557783    0.000061220624    0.080004950631    0.057436732123    -0.000118044466    0.000055912783
            -0.000116557991    0.000061221045    0.110115839980    0.062650890423    -0.000115851192    0.000053942562    0.105823300923    0.039631689377
            0.080005003502    0.057436615609    -0.000115851299    0.000053942784    0.085793517089    0.081640016671    -0.000126871158    0.000047266889
            -0.000118044674    0.000055913209    0.105823304382    0.039631680142    -0.000126870978    0.000047266569    0.111313737357    0.062113811367
0.600     0.111907117677    0.089123738291    -0.000115625650    0.000072419621    0.099319878620    0.064310512188    -0.000117352350    0.000067800555
            -0.000115625663    0.000072419601    0.128832240881    0.065434989621    -0.000115339013    0.000065300565    0.118014476809    0.042179311182
            0.099319899457    0.064310424811    -0.000115339381    0.000065301438    0.111910890017    0.088403082598    -0.000127186696    0.000060320692
            -0.000117352730    0.000067801457    0.118014481226    0.042179298824    -0.000127186317    0.000060319833    0.129542552795    0.064634230234
0.625     0.140810925516    0.083637305138    -0.000112023193    0.000083353526    0.121948938629    0.061989463872    -0.000113725509    0.000079386632
            -0.000112023193    0.000083353526    0.149528553870    0.060124532806    -0.000112115834    0.000076433565    0.133003262766    0.039426264456
            0.121948968664    0.061989382718    -0.000112115996    0.000076434020    0.140324775305    0.083134119461    -0.000124358921    0.000073184666
            -0.000113725518    0.000079386638    0.133003264142    0.039426259813    -0.000124358764    0.000073184223    0.149687642566    0.059348910287
0.650     0.165868701726    0.066308215440    -0.000106247709    0.000092871624    0.143132619504    0.050007163219    -0.000107715432    0.000089395036
            -0.000106247994    0.000092872528    0.168118362298    0.046603618437    -0.000106667812    0.000086169343    0.147928265247    0.030479632459
            0.143132657746    0.050007084079    -0.000106668104    0.000086170255    0.165063273212    0.066248533178    -0.000118936391    0.000084520944
            -0.000107715425    0.000089395030    0.147928258113    0.030479617531    -0.000118936393    0.000084520977    0.167814404181    0.046135873811
0.675     0.182166208930    0.040318664854    -0.000099284242    0.000100312581    0.158657121429    0.030081769803    -0.000100417923    0.000097089891
            -0.000099284252    0.000100312557    0.181068302111    0.026713621806    -0.000099984491    0.000093824258    0.159930627804    0.015912950068
            0.158657157506    0.030081633211    -0.000099984747    0.000093825154    0.181299068579    0.040816950333    -0.000112037124    0.000093539479
            -0.000100418049    0.000097090351    0.159930618437    0.015912943217    -0.000112036987    0.000093539065    0.180516089846    0.026758267661
0.700     0.186864028865    0.010540970995    -0.000092251075    0.000105634001    0.165579188409    0.005486753090    -0.000093075125    0.000102421055
            -0.000092251062    0.000105633986    0.186183548398    0.003643728115    -0.000093198673    0.000099345662    0.166784051508    -0.002502183553
            0.165579201516    0.005486659499    -0.000093198673    0.000099345662    0.186217428887    0.011576377835    -0.000104946387    0.000100160345
            -0.000093075319    0.000102421987    0.166784051507    -0.002502183612    -0.000104946394    0.000100160352    0.185671680596    0.004279820750
0.725     0.179502776543    -0.017484327890    -0.000086054536    0.000109313796    0.162572585499    -0.019567673865    -0.000086703270    0.000105913270
            -0.000086054586    0.000109314253    0.182950381584    -0.018835283405    -0.000087230637    0.000103205177    0.167255174963    -0.022205166990
            0.162572619192    -0.019567812348    -0.000087230728    0.000103205650    0.179321207613    -0.016065629640    -0.000098718634    0.000104905003
            -0.000086703344    0.000105913739    0.167255174692    -0.022205169033    -0.000098718623    0.000104905028    0.182776368825    -0.017675293080
0.750     0.162048301278    -0.038453967317    -0.000081243266    0.000112151761    0.150213168897    -0.040504959833    -0.000081927895    0.000108448236
            -0.000081243395    0.000112152680    0.172577142541    -0.037122668564    -0.000082642304    0.000106203983    0.161349673896    -0.040287470790
            0.150213200187    -0.040505151072    -0.000082642424    0.000106204941    0.162482361390    -0.036911016075    -0.000094008181    0.000108671719
            -0.000081928029    0.000108449162    0.161349673896    -0.040287470790    -0.000094008162    0.000108671735    0.172981134743    -0.035641621719
0.775     0.138777517072    -0.048221545955    -0.000077940858    0.000115066594    0.131217255408    -0.053136077529    -0.000078915212    0.000111054137
            -0.000077940867    0.000115066564    0.157793287049    -0.048462980309    -0.000079571421    0.000109262274    0.150413830921    -0.054012390660
            0.131217269293    -0.053136176452    -0.000079571415    0.000109262266    0.139835327039    -0.046870006016    -0.000090991094    0.000112508429
            -0.000078915280    0.000111055094    0.150413821509    -0.054012387280    -0.000090991051    0.000112507974    0.158897960422    -0.046965987064
