# GHz S RI R 45
0.000     0.035270957000    0.000000000000    -0.000005125761    0.000000000000    0.000866865920    -0.000000000000    -0.000008034744    0.000000000000
            -0.000005125590    0.000000000000    0.035295609000    0.000000000000    -0.000064223555    0.000000000000    0.000590381190    0.000000000000
            0.000866857970    -0.000000000000    -0.000064223460    0.000000000000    0.035133975000    0.000000000000    0.000004325915    0.000000000000
            -0.000008034551    0.000000000000    0.000590381880    0.000000000000    0.000004325845    0.000000000000    0.035122757000    0.000000000000
0.025     0.042838771140    0.005128915529    -0.000020189243    -0.000029822549    0.004543326110    0.010328907241    -0.000016814547    -0.000024495640
            -0.000020189088    -0.000029822645    0.040816897283    0.006095761168    -0.000063078664    -0.000011720868    0.002940653166    0.012194677728
            0.004543306383    0.010328960709    -0.000063078572    -0.000011720897    0.042783232767    0.005146779996    -0.000030771416    -0.000042937725
            -0.000016814377    -0.000024495694    0.002940528748    0.012194509198    -0.000030771453    -0.000042937714    0.040802378832    0.006154125580
0.050     0.051686592817    0.000643061195    -0.000048187700    -0.000043829003    0.014085448523    0.016212246227    -0.000038292474    -0.000041136916
            -0.000048187621    -0.000043829055    0.044656040718    0.005440405987    -0.000093228835    -0.000034879424    0.009171697051    0.022033720322
            0.014085437075    0.016212266771    -0.000093228731    -0.000034879478    0.051646054168    0.000703842767    -0.000065668340    -0.000050546658
            -0.000038292306    -0.000041137009    0.009171726277    0.022033709240    -0.000065668341    -0.000050546658    0.044612892693    0.005411923096
0.075     0.058453820552    -0.010517911021    -0.000080886766    -0.000040567302    0.025698955250    0.014781452907    -0.000068437784    -0.000045221477
            -0.000080886633    -0.000040567429    0.045772281367    0.002840509301    -0.000135168922    -0.000025169763    0.017340624325    0.028031501496
            0.025698949151    0.014781465516    -0.000135168850    -0.000025169823    0.058467905166    -0.010418671493    -0.000100915131    -0.000045077911
            -0.000068437676    -0.000045221646    0.017340629818    0.028031501626    -0.000100915165    -0.000045077884    0.045620275221    0.002837809797
0.100     0.059276170467    -0.027177976648    -0.000109654498    -0.000021975801    0.034651358785    0.005905084171    -0.000101322819    -0.000034845345
            -0.000109654440    -0.000021975889    0.043527570033    -0.000274092109    -0.000167162871    0.000008223825    0.025126950169    0.030085778595
            0.034651361935    0.005905089500    -0.000167162814    0.000008223764    0.059383315815    -0.027066243744    -0.000134795180    -0.000024745941
            -0.000101322720    -0.000034845509    0.025126950810    0.030085779362    -0.000134795237    -0.000024745854    0.043301887709    -0.000152714424
0.125     0.050919438857    -0.045594561918    -0.000130018918    0.000006647471    0.036832938404    -0.007903563384    -0.000131651511    -0.000009692209
            -0.000130018865    0.000006647331    0.037721630775    -0.001852901761    -0.000182887144    0.000052787454    0.030591360715    0.029356294715
            0.036832943142    -0.007903560366    -0.000182887124    0.000052787379    0.051146320333    -0.045518777945    -0.000162496284    0.000009569731
            -0.000131651448    -0.000009692389    0.030591362158    0.029356296100    -0.000162496319    0.000009569818    0.037514825904    -0.001563100083
0.150     0.032538067746    -0.060503492371    -0.000142032398    0.000040820082    0.030068381634    -0.022161532137    -0.000154473237    0.000029332074
            -0.000142032380    0.000040819889    0.029323371460    0.000208681784    -0.000185236139    0.000099752438    0.032781794524    0.027845074167
            0.030068387175    -0.022161531362    -0.000185236138    0.000099752312    0.032884194841    -0.060533000419    -0.000180162439    0.000055571350
            -0.000154473228    0.000029331960    0.032781787378    0.027845077947    -0.000180162439    0.000055571350    0.029239525590    0.000647542794
0.175     0.006368926173    -0.066381254724    -0.000147026865    0.000079769942    0.014906578924    -0.031680554082    -0.000164546153    0.000080367673
            -0.000147026873    0.000079769781    0.020468958344    0.007342458412    -0.000178954204    0.000148055419    0.032012548599    0.027745164470
            0.014906588667    -0.031680556129    -0.000178954225    0.000148055331    0.006794053135    -0.066586450722    -0.000184373400    0.000111100617
            -0.000164546192    0.000080367479    0.032012552590    0.027745165973    -0.000184373398    0.000111100659    0.020585561886    0.007842894759
0.200     -0.022421773170    -0.059385110354    -0.000143759596    0.000125398045    -0.005278633264    -0.032115556989    -0.000156380505    0.000139540468
            -0.000143759660    0.000125397880    0.013926963390    0.019722977632    -0.000164270607    0.000201757797    0.029800168002    0.030719503050
            -0.005278630387    -0.032115560502    -0.000164270669    0.000201757657    -0.021998188521    -0.059815064302    -0.000171076956    0.000173192201
            -0.000156380582    0.000139540292    0.029800162481    0.030719507013    -0.000171076924    0.000173192289    0.014254704742    0.020160061609
0.225     -0.046958521762    -0.038765716287    -0.000126536087    0.000178348476    -0.025052449211    -0.021420417408    -0.000125266925    0.000199869925
            -0.000126536202    0.000178348309    0.012374253484    0.035998038427    -0.000134062540    0.000263455635    0.028382642352    0.037293934356
            -0.025052444014    -0.021420428102    -0.000134062540    0.000263455635    -0.046645085699    -0.039424084806    -0.000135728311    0.000236614960
            -0.000125267033    0.000199869787    0.028382646818    0.037293933471    -0.000135728311    0.000236614960    0.012845780776    0.036255003612
0.250     -0.060505093202    -0.007525894996    -0.000087580656    0.000233830222    -0.038422104226    -0.000731818595    -0.000069734126    0.000251416842
            -0.000087580794    0.000233830095    0.017549579066    0.053493125358    -0.000077434891    0.000328065696    0.029961439690    0.046629149292
            -0.038422106226    -0.000731818633    -0.000077434891    0.000328065696    -0.060410547590    -0.008356296242    -0.000075558656    0.000292625649
            -0.000069734281    0.000251416716    0.029961444300    0.046629147519    -0.000075558659    0.000292625658    0.018034101238    0.053508921022
0.275     -0.058479934191    0.028053886431    -0.000022211496    0.000280442853    -0.040642370903    0.025717242058    0.000006390673    0.000283330757
            -0.000022211919    0.000280442649    0.029614496174    0.068856627426    0.000012719317    0.000380722263    0.035928732459    0.056764879790
            -0.040642375392    0.025717234964    0.000012719311    0.000380722264    -0.058678900811    0.027165537074    0.000007672601    0.000330174954
            0.000006390678    0.000283330767    0.035928736422    0.056764877282    0.000007672601    0.000330174954    0.029959750561    0.068654437914
0.300     -0.039965171743    0.059928305925    0.000066369688    0.000303732359    -0.029714062279    0.051677594003    0.000093828971    0.000287530850
            0.000066369693    0.000303732358    0.046979387291    0.079024962011    0.000132653817    0.000401684432    0.046395615431    0.065273287814
            -0.029714072295    0.051677590550    0.000132653817    0.000401684432    -0.040468576693    0.059131774881    0.000106162704    0.000339318087
            0.000093828971    0.000287530850    0.046395618829    0.065273282945    0.000106162704    0.000339318087    0.047063788972    0.078714368829
0.325     -0.008153582327    0.080395081009    0.000166203589    0.000292231235    -0.007035899421    0.070582499876    0.000180393973    0.000261550610
            0.000166203559    0.000292231241    0.066699204438    0.082101654360    0.000265980381    0.000374863349    0.060169343157    0.070022255803
            -0.007035903315    0.070582501498    0.000265980373    0.000374863379    -0.008892943036    0.079838841301    0.000207710960    0.000314895256
            0.000180393979    0.000261550618    0.060169345520    0.070022251136    0.000207710982    0.000314895241    0.066475816063    0.081849971148
0.350     0.030340416052    0.084092787485    0.000260234423    0.000242650482    0.022915787946    0.077275085272    0.000254960453    0.000209049015
            0.000260234424    0.000242650466    0.085281182460    0.077890595592    0.000388573145    0.000295640011    0.075145656944    0.069793055117
            0.022915784753    0.077275089348    0.000388573145    0.000295640011    0.029506876942    0.083882755862    0.000299378823    0.000258218675
            0.000254959606    0.000209049228    0.075145660599    0.069793051182    0.000299378827    0.000258218687    0.084799909903    0.077874707957
0.375     0.067022664479    0.069318793314    0.000332214942    0.000161193545    0.053657882476    0.069258856213    0.000310431547    0.000137501080
            0.000332214945    0.000161193539    0.099594577425    0.067897579369    0.000477018989    0.000173331146    0.088891687699    0.064566630394
            0.053657881299    0.069258862184    0.000477018595    0.000173331380    0.066283961108    0.069484069239    0.000371131347    0.000175755704
            0.000310431556    0.000137501084    0.088891688826    0.064566628843    0.000371131344    0.000175755686    0.098996112611    0.068251917865
0.400     0.093399251968    0.038473549119    0.000371994076    0.000061033282    0.078131997936    0.047297998516    0.000344470810    0.000054887622
            0.000371994077    0.000061033281    0.107632704664    0.054927875126    0.000516757750    0.000027901134    0.099266546915    0.055517368605
            0.078131999706    0.047298003315    0.000516757780    0.000027901132    0.092951079958    0.038946761846    0.000417519592    0.000076252128
            0.000344470811    0.000054887621    0.099266547884    0.055517366873    0.000417519587    0.000076252097    0.107117333707    0.055701743566
0.425     0.102787211893    -0.002341578915    0.000377890804    -0.000042704203    0.090178809420    0.015371662933    0.000357856448    -0.000032941068
            0.000377890783    -0.000042704204    0.108964930513    0.042398185389    0.000506105717    -0.000117385807    0.104936485451    0.044740690633
            0.090178812853    0.015371666596    0.000506105721    -0.000117385790    0.102783965627    -0.001723226200    0.000437104672    -0.000032213627
            0.000357856448    -0.000032941069    0.104936486232    0.044740688802    0.000437104662    -0.000032213622    0.108743688433    0.043532690707
0.450     0.091818642433    -0.044396166397    0.000355713245    -0.000138197101    0.085913290390    -0.019922857475    0.000351905582    -0.000123031578
            0.000355712951    -0.000138196258    0.104868067941    0.033552835128    0.000455207709    -0.000244133374    0.105766685136    0.034796407692
            0.085913295608    -0.019922857105    0.000455207691    -0.000244133386    0.092327609448    -0.043867749276    0.000430523133    -0.000143759110
            0.000351905619    -0.000123031564    0.105766685743    0.034796405846    0.000430523184    -0.000143759144    0.105105506919    0.034883488265
0.475     0.061442456806    -0.077975518969    0.000314615790    -0.000220405187    0.064831371670    -0.050524258435    0.000326047920    -0.000214109544
            0.000314615795    -0.000220405215    0.098099698484    0.030658594015    0.000380004351    -0.000344484612    0.102973059792    0.028059051086
            0.064831394970    -0.050524222031    0.000380004351    -0.000344484612    0.062409935743    -0.077797622631    0.000398086261    -0.000254593491
            0.000326047920    -0.000214109544    0.102973060282    0.028059049289    0.000398086266    -0.000254593484    0.098862205460    0.031947766291
0.500     0.017200259109    -0.094475254813    0.000261609781    -0.000291017813    0.030414955759    -0.068619113889    0.000276973798    -0.000303900725
            0.000261609783    -0.000291017784    0.092314176533    0.034331017224    0.000293901716    -0.000421658092    0.098944641026    0.025996516191
            0.030414958983    -0.068619117929    0.000293901839    -0.000421657201    0.018441568787    -0.094871118441    0.000338244360    -0.000361134092
            0.000276973843    -0.000303900752    0.098944641026    0.025996516191    0.000338244394    -0.000361134115    0.093537345234    0.035325464660
0.525     -0.031558041850    -0.088634578522    0.000197412295    -0.000354253781    -0.010179454697    -0.068684567956    0.000200108414    -0.000386108729
            0.000197412287    -0.000354253751    0.091109419397    0.043170541892    0.000201031432    -0.000484307888    0.096612079019    0.028565673522
            -0.010179453033    -0.068684573258    0.000201031609    -0.000484307479    -0.030332762732    -0.089722817449    0.000247931980    -0.000457134099
            0.000200108405    -0.000386108745    0.096612080016    0.028565670150    0.000247931815    -0.000457134519    0.092600816087    0.043675294646
0.550     -0.073667245699    -0.060292528164    0.000116861415    -0.000410631821    -0.047605717101    -0.049306341483    0.000093613938    -0.000449196827
            0.000116861408    -0.000410631823    0.096917113331    0.053982260572    0.000095686813    -0.000537511005    0.098504893457    0.034068798545
            -0.047605719879    -0.049306344361    0.000095686813    -0.000537511005    -0.072791255985    -0.062036620711    0.000125754255    -0.000531678664
            0.000093613930    -0.000449196828    0.098504895241    0.034068793387    0.000125754262    -0.000531678652    0.098401539051    0.053925179459
0.575     -0.099008801177    -0.014864633030    0.000014299048    -0.000452930075    -0.072768041102    -0.013945292579    -0.000037112726    -0.000478820265
            0.000014299041    -0.000452930075    0.110115839980    0.062650890423    -0.000031077719    -0.000575994462    0.105823300923    0.039631689377
            -0.072768044048    -0.013945293143    -0.000031077728    -0.000575994451    -0.098773577247    -0.017063129937    -0.000023472207    -0.000570498332
            -0.000037112724    -0.000478820245    0.105823304382    0.039631680142    -0.000023472217    -0.000570498311    0.111313737357    0.062113811367
0.600     -0.101313617142    0.037888356531    -0.000109526604    -0.000467949461    -0.079396033981    0.029837914886    -0.000177849031    -0.000463763227
            -0.000109526602    -0.000467949451    0.128832240881    0.065434989621    -0.000181783844    -0.000584847050    0.118014476809    0.042179311182
            -0.079396036789    0.029837915941    -0.000181783946    -0.000584847019    -0.101887235700    0.035564455795    -0.000186193504    -0.000561266216
            -0.000177849031    -0.000463763227    0.118014481226    0.042179298824    -0.000186193504    -0.000561266216    0.129542552795    0.064634230234
0.625     -0.079802100055    0.086462296338    -0.000244214767    -0.000442936253    -0.065690209051    0.072480874930    -0.000309062978    -0.000401680490
            -0.000244214757    -0.000442936236    0.149528553870    0.060124532806    -0.000346637402    -0.000547114395    0.133003262766    0.039426264456
            -0.065690225059    0.072480867170    -0.000346637407    -0.000547114403    -0.081179297609    0.084394615242    -0.000342601119    -0.000499633536
            -0.000309062149    -0.000401680283    0.133003264142    0.039426259813    -0.000342601136    -0.000499633561    0.149687642566    0.059348910287
0.650     -0.039122832677    0.120564265778    -0.000372190424    -0.000372253700    -0.034505705281    0.104936427461    -0.000412736887    -0.000300758023
            -0.000372189545    -0.000372253730    0.168118362298    0.046603618437    -0.000504987606    -0.000453090556    0.147928265247    0.030479632459
            -0.034505708405    0.104936436961    -0.000504987591    -0.000453090543    -0.041119967555    0.119096236264    -0.000473000587    -0.000391839525
            -0.000412736895    -0.000300758028    0.147928258113    0.030479617531    -0.000473000587    -0.000391839525    0.167814404181    0.046135873811
0.675     0.012138178214    0.133363797816    -0.000474577172    -0.000260177283    0.007730086244    0.120648355632    -0.000478133703    -0.000176190354
            -0.000474576756    -0.000260177378    0.181068302111    0.026713621806    -0.000632187431    -0.000305619104    0.159930627804    0.015912950068
            0.007730082672    0.120648365882    -0.000632187018    -0.000305619177    0.009845312828    0.132724685861    -0.000563895693    -0.000252055786
            -0.000478133703    -0.000176190354    0.159930618437    0.015912943217    -0.000563895684    -0.000252055782    0.180516089846    0.026758267661
0.700     0.063582358067    0.122576853993    -0.000536925227    -0.000119513728    0.052652330724    0.116587061080    -0.000503592682    -0.000044328790
            -0.000536924467    -0.000119514149    0.186183548398    0.003643728115    -0.000707620373    -0.000119889057    0.166784051508    -0.002502183553
            0.052652332805    0.116587071113    -0.000707620354    -0.000119889054    0.061393406512    0.122831621822    -0.000610486706    -0.000096987830
            -0.000503592692    -0.000044328791    0.166784051507    -0.002502183612    -0.000610486706    -0.000096987830    0.185671680596    0.004279820750
0.725     0.105050263592    0.090492370607    -0.000552487046    0.000032333290    0.091556486588    0.093444466087    -0.000494325375    0.000082248954
            -0.000552487046    0.000032333290    0.182950381584    -0.018835283405    -0.000720397622    0.000081006577    0.167255174963    -0.022205166990
            0.091556484957    0.093444467685    -0.000720397622    0.000081006577    0.103364164338    0.091524043807    -0.000615171785    0.000059091486
            -0.000494325375    0.000082248954    0.167255174692    -0.022205169033    -0.000615171785    0.000059091486    0.182776368825    -0.017675293080
0.750     0.128296143340    0.043346476816    -0.000523018380    0.000177912985    0.116751181326    0.055378271642    -0.000458435664    0.000196905861
            -0.000523018380    0.000177912985    0.172577142541    -0.037122668564    -0.000671708039    0.000272430247    0.161349673896    -0.040287470790
            0.116751181326    0.055378271642    -0.000671708039    0.000272430247    0.127433907424    0.044868678155    -0.000584146855    0.000206801489
            -0.000458435664    0.000196905861    0.161349673896    -0.040287470790    -0.000584146855    0.000206801489    0.172981134743    -0.035641621719
0.775     0.128292259129    -0.009681169503    -0.000457189204    0.000303864025    0.122738078331    0.009474929453    -0.000402896541    0.000298447705
            -0.000457189221    0.000303864036    0.157793287049    -0.048462980309    -0.000573408090    0.000434667799    0.150413830921    -0.054012390660
            0.122738065880    0.009474960816    -0.000573408066    0.000434667781    0.128428093889    -0.008083060718    -0.000523755122    0.000341689771
            -0.000402896541    0.000298447705    0.150413821509    -0.054012387280    -0.000523755122    0.000341689771    0.158897960422    -0.046965987064
