# GHz S RI R 45
0.000     0.034913229000    0.000000000000    -0.000005364186    0.000000000000    0.000840032460    -0.000000000000    -0.000002296555    0.000000000000
            -0.000005364164    0.000000000000    0.035295609000    0.000000000000    -0.000006168787    0.000000000000    0.000590381190    0.000000000000
            0.000840034480    -0.000000000000    -0.000006168765    0.000000000000    0.034833418000    0.000000000000    -0.000012816564    0.000000000000
            -0.000002296606    0.000000000000    0.000590381880    0.000000000000    -0.000012816570    0.000000000000    0.035122757000    0.000000000000
0.025     0.042479377730    0.005119401537    0.000001154591    -0.000005204767    0.004469332631    0.010086893714    0.000007009370    -0.000003406288
            0.000001154614    -0.000005204770    0.040816897283    0.006095761168    -0.000007378965    -0.000009227822    0.002940653166    0.012194677728
            0.004469322956    0.010086941751    -0.000007378934    -0.000009227832    0.042397061896    0.005020581540    -0.000002638941    -0.000001743214
            0.000007009398    -0.000003406296    0.002940528748    0.012194509198    -0.000002638948    -0.000001743216    0.040802378832    0.006154125580
0.050     0.051361692687    0.000725047530    -0.000005586772    -0.000017040885    0.013913876944    0.015820073418    0.000001878706    -0.000016586015
            -0.000005586763    -0.000017040889    0.044656040718    0.005440405987    -0.000016232113    -0.000017793345    0.009171697051    0.022033720322
            0.013913870750    0.015820084192    -0.000016232098    -0.000017793353    0.051246179298    0.000555225652    -0.000004192028    -0.000016398154
            0.000001878732    -0.000016586029    0.009171726277    0.022033709240    -0.000004192044    -0.000016398145    0.044612892693    0.005411923096
0.075     0.058325730956    -0.010304385041    -0.000019356390    -0.000021217473    0.025486823430    0.014357709075    -0.000010452234    -0.000022839264
            -0.000019356379    -0.000021217483    0.045772281367    0.002840509301    -0.000029965600    -0.000019928831    0.017340624325    0.028031501496
            0.025486818310    0.014357712051    -0.000029965587    -0.000019928845    0.058180035405    -0.010520720864    -0.000018021069    -0.000023540167
            -0.000010452214    -0.000022839283    0.017340629818    0.028031501626    -0.000018021085    -0.000023540153    0.045620275221    0.002837809797
0.100     0.059568242240    -0.026906650762    -0.000034327186    -0.000017227971    0.034562463842    0.005503953789    -0.000024878082    -0.000021823423
            -0.000034327178    -0.000017227982    0.043527570033    -0.000274092109    -0.000044779330    -0.000015022524    0.025126950169    0.030085778595
            0.034562463996    0.005503952824    -0.000044779279    -0.000015022602    0.059414054144    -0.027153356341    -0.000034590741    -0.000022246004
            -0.000024878064    -0.000021823446    0.025126950810    0.030085779362    -0.000034590749    -0.000022245993    0.043301887709    -0.000152714424
0.125     0.051834638078    -0.045504571378    -0.000046862887    -0.000006125521    0.037076769634    -0.008367348098    -0.000038189905    -0.000014160286
            -0.000046862884    -0.000006125529    0.037721630775    -0.001852901761    -0.000057915958    -0.000003339433    0.030591360715    0.029356294715
            0.037076768366    -0.008367349172    -0.000057915958    -0.000003339433    0.051700031135    -0.045783850494    -0.000050232418    -0.000013076392
            -0.000038189896    -0.000014160313    0.030591362158    0.029356296100    -0.000050232423    -0.000013076384    0.037514825904    -0.001563100083
0.150     0.034138402463    -0.060990760069    -0.000054617611    0.000010446008    0.030796396354    -0.022937622415    -0.000048194300    -0.000000780242
            -0.000054617611    0.000010445998    0.029323371460    0.000208681784    -0.000067157963    0.000014235851    0.032781794524    0.027845074167
            0.030796395151    -0.022937622355    -0.000067157952    0.000014235763    0.034047813683    -0.061332634048    -0.000062327683    0.000003045257
            -0.000048194298    -0.000000780276    0.032781787378    0.027845077947    -0.000062327686    0.000003045268    0.029239525590    0.000647542794
0.175     0.008471102668    -0.067909168789    -0.000055838296    0.000030388309    0.016097762239    -0.033138753181    -0.000052927876    0.000016853166
            -0.000055838301    0.000030388262    0.020468958344    0.007342458412    -0.000070428249    0.000036461651    0.032012548599    0.027745164470
            0.016097761224    -0.033138752562    -0.000070428249    0.000036461651    0.008423428364    -0.068358113848    -0.000068443319    0.000024678617
            -0.000052927879    0.000016853147    0.032012552590    0.027745165973    -0.000068443319    0.000024678617    0.020585561886    0.007842894759
0.200     -0.020295471469    -0.062327722963    -0.000049413878    0.000051346877    -0.003898169120    -0.034625758894    -0.000050804319    0.000036823187
            -0.000049413913    0.000051346787    0.013926963390    0.019722977632    -0.000065786596    0.000061455896    0.029800168002    0.030719503050
            -0.003898169613    -0.034625757833    -0.000065786627    0.000061455818    -0.020333455451    -0.062925426099    -0.000066431502    0.000049742173
            -0.000050804351    0.000036823102    0.029800162481    0.030719507013    -0.000066431496    0.000049742187    0.014254704742    0.020160061609
0.225     -0.045526736034    -0.043217925229    -0.000034906294    0.000070341022    -0.024004813290    -0.025180841332    -0.000040848932    0.000056347683
            -0.000034906294    0.000070341020    0.012374253484    0.035998038427    -0.000051691321    0.000086258659    0.028382642352    0.037293934356
            -0.024004816995    -0.025180836419    -0.000051691376    0.000086258579    -0.045616648018    -0.043982545114    -0.000054722979    0.000075029080
            -0.000040848962    0.000056347642    0.028382646818    0.037293933471    -0.000054722967    0.000075029091    0.012845780776    0.036255003612
0.250     -0.060547102037    -0.013153877053    -0.000013068752    0.000084160680    -0.038354244124    -0.005609711827    -0.000023285881    0.000072194409
            -0.000013068752    0.000084160679    0.017549579066    0.053493125358    -0.000027878943    0.000106976171    0.029961439690    0.046629149292
            -0.038354243135    -0.005609711682    -0.000027878943    0.000106976171    -0.060761399292    -0.014063232241    -0.000033131640    0.000096536318
            -0.000023285958    0.000072194346    0.029961444300    0.046629147519    -0.000033131640    0.000096536318    0.018034101238    0.053508921022
0.275     -0.060566590928    0.022034847819    0.000013775215    0.000089825463    -0.042105113442    0.020246891206    0.000000033462    0.000081248600
            0.000013775216    0.000089825461    0.029614496174    0.068856627426    0.000003941786    0.000119467919    0.035928732459    0.056764879790
            -0.042105113442    0.020246891206    0.000003941784    0.000119467919    -0.060962290816    0.021047536054    -0.000003471854    0.000110155301
            0.000000033421    0.000081248578    0.035928736422    0.056764877282    -0.000003471854    0.000110155301    0.029959750561    0.068654437914
0.300     -0.044199431072    0.054600435277    0.000042039909    0.000085698125    -0.032925989889    0.046441091437    0.000025941999    0.000081598767
            0.000042039819    0.000085698103    0.046979387291    0.079024962011    0.000040095901    0.000120711330    0.046395615431    0.065273287814
            -0.032925984097    0.046441100447    0.000040095898    0.000120711330    -0.044791989208    0.053634521726    0.000030611720    0.000113006136
            0.000025941909    0.000081598745    0.046395618829    0.065273282945    0.000030611720    0.000113006136    0.047063788972    0.078714368829
0.325     -0.014035542236    0.076843801978    0.000067664491    0.000071998739    -0.011738923462    0.066483273780    0.000050747980    0.000073073355
            0.000067664443    0.000071998736    0.066699204438    0.082101654360    0.000075827638    0.000109750048    0.060169343157    0.070022255803
            -0.011738911685    0.066483274844    0.000075827547    0.000109750050    -0.014782611522    0.076004191319    0.000064540270    0.000104257997
            0.000050747979    0.000073073353    0.060169345520    0.070022251136    0.000064540270    0.000104257997    0.066475816063    0.081849971148
0.350     0.023859397476    0.083076112891    0.000087375757    0.000050764936    0.017448712206    0.075023937362    0.000071406110    0.000057162278
            0.000087375757    0.000050764936    0.085281182460    0.077890595592    0.000106724792    0.000087928496    0.075145656944    0.069793055117
            0.017448711979    0.075023936388    0.000106724792    0.000087928496    0.023057401395    0.082440846472    0.000094201392    0.000085230902
            0.000071406107    0.000057162277    0.075145660599    0.069793051182    0.000094201390    0.000085230888    0.084799909903    0.077874707957
0.375     0.061320318455    0.071015734789    0.000099349680    0.000025044509    0.048477061239    0.069154275413    0.000086129790    0.000036260476
            0.000099349671    0.000025044505    0.099594577425    0.067897579369    0.000129776211    0.000058131520    0.088891687699    0.064566630394
            0.048477060665    0.069154274595    0.000129776136    0.000058131565    0.060602709126    0.070606953514    0.000116859231    0.000058600157
            0.000086129749    0.000036260503    0.088891688826    0.064566628843    0.000116859276    0.000058600136    0.098996112611    0.068251917865
0.400     0.089874734686    0.042373639381    0.000103424952    -0.000002142951    0.074388868287    0.049108597376    0.000094511375    0.000012726480
            0.000103424883    -0.000002142892    0.107632704664    0.054927875126    0.000143785856    0.000023649938    0.099266546915    0.055517368605
            0.074388867452    0.049108596825    0.000143785785    0.000023649998    0.089389301296    0.042139419206    0.000131461160    0.000027286668
            0.000094511372    0.000012726480    0.099266547884    0.055517366873    0.000131461160    0.000027286665    0.107117333707    0.055701743566
0.425     0.102543615512    0.002594399583    0.000100530367    -0.000028563665    0.088884647101    0.018317551156    0.000096969763    -0.000011759174
            0.000100530367    -0.000028563665    0.108964930513    0.042398185389    0.000148927240    -0.000012839465    0.104936485451    0.044740690633
            0.088884646442    0.018317549403    0.000148927250    -0.000012839464    0.102409290298    0.002407292462    0.000138103918    -0.000006443002
            0.000096969762    -0.000011759174    0.104936486232    0.044740688802    0.000138103918    -0.000006443005    0.108743688433    0.043532690707
0.450     0.095377794858    -0.040096130187    0.000091921285    -0.000053119906    0.087698122744    -0.017103399602    0.000094030727    -0.000036397778
            0.000091921285    -0.000053119906    0.104868067941    0.033552835128    0.000145879850    -0.000049766098    0.105766685136    0.034796407692
            0.087698120483    -0.017103400750    0.000145879849    -0.000049766100    0.095647003872    -0.040423171738    0.000137183618    -0.000041340742
            0.000094030727    -0.000036397778    0.105766685743    0.034796405846    0.000137183617    -0.000041340744    0.105105506919    0.034883488265
0.475     0.068512133856    -0.076223050974    0.000078360401    -0.000075507534    0.069708762555    -0.049413560798    0.000085643440    -0.000060857823
            0.000078360394    -0.000075507527    0.098099698484    0.030658594015    0.000134840032    -0.000086400434    0.102973059792    0.028059051086
            0.069708760877    -0.049413561436    0.000134840034    -0.000086400432    0.069141581722    -0.076901933750    0.000128481677    -0.000076790842
            0.000085643440    -0.000060857823    0.102973060282    0.028059049289    0.000128481677    -0.000076790842    0.098862205460    0.031947766291
0.500     0.026537267058    -0.097031403576    0.000059728434    -0.000095481835    0.037590370045    -0.070822866534    0.000070965080    -0.000084501385
            0.000059728429    -0.000095481827    0.092314176533    0.034331017224    0.000115005999    -0.000121948427    0.098944641026    0.025996516191
            0.037590369576    -0.070822865651    0.000115006010    -0.000121948431    0.027376127889    -0.098249159423    0.000110799082    -0.000111858700
            0.000070965089    -0.000084501299    0.098944641026    0.025996516191    0.000110799089    -0.000111858707    0.093537345234    0.035325464660
0.525     -0.022090717523    -0.096606770331    0.000035369682    -0.000111888081    -0.002349688485    -0.075386451665    0.000048875862    -0.000105514510
            0.000035369682    -0.000111888081    0.091109419397    0.043170541892    0.000084934464    -0.000154353253    0.096612079019    0.028565673522
            -0.002349688453    -0.075386450665    0.000084934464    -0.000154353253    -0.021285023918    -0.098469266877    0.000082491113    -0.000144144268
            0.000048875873    -0.000105514461    0.096612080016    0.028565670150    0.000082491113    -0.000144144268    0.092600816087    0.043675294646
0.550     -0.066735192360    -0.073636671874    0.000005164219    -0.000122275575    -0.041367948438    -0.060775186371    0.000019160655    -0.000120692500
            0.000005164219    -0.000122275565    0.096917113331    0.053982260572    0.000043938103    -0.000179702707    0.098504893457    0.034068798545
            -0.041367947875    -0.060775185545    0.000043938103    -0.000179702707    -0.066250524946    -0.076122708975    0.000042945860    -0.000169375925
            0.000019160705    -0.000120692431    0.098504895241    0.034068793387    0.000042945862    -0.000169375935    0.098401539051    0.053925179459
0.575     -0.097127861865    -0.032126068924    -0.000029234311    -0.000123542891    -0.070404039381    -0.029218151621    -0.000016300547    -0.000126298258
            -0.000029234311    -0.000123542891    0.110115839980    0.062650890423    -0.000006276653    -0.000192967567    0.105823300923    0.039631689377
            -0.070404037534    -0.029218150854    -0.000006276650    -0.000192967577    -0.097226627146    -0.035070614849    -0.000005825096    -0.000182340319
            -0.000016300514    -0.000126298232    0.105823304382    0.039631680142    -0.000005825096    -0.000182340319    0.111313737357    0.062113811367
0.600     -0.106056331497    0.019382083855    -0.000064092572    -0.000113513841    -0.082500986701    0.012868094830    -0.000053363778    -0.000119762656
            -0.000064092572    -0.000113513841    0.128832240881    0.065434989621    -0.000060957203    -0.000190003686    0.118014476809    0.042179311182
            -0.082500983737    0.012868094368    -0.000060957203    -0.000190003686    -0.106902320423    0.016263159414    -0.000058735794    -0.000179001969
            -0.000053363778    -0.000119762656    0.118014481226    0.042179298824    -0.000058735794    -0.000179001969    0.129542552795    0.064634230234
0.625     -0.091227627751    0.069944999886    -0.000094602442    -0.000092330810    -0.074615342135    0.056540310257    -0.000086813615    -0.000101065573
            -0.000094602442    -0.000092330810    0.149528553870    0.060124532806    -0.000113385666    -0.000169517772    0.133003262766    0.039426264456
            -0.074615342135    0.056540310257    -0.000113385666    -0.000169517772    -0.092834643542    0.066993898329    -0.000108905556    -0.000158400282
            -0.000086813604    -0.000101065596    0.133003264142    0.039426259813    -0.000108905556    -0.000158400282    0.149687642566    0.059348910287
0.650     -0.055687011461    0.108956509810    -0.000116653597    -0.000062666753    -0.048217471401    0.092620796000    -0.000112216681    -0.000072853538
            -0.000116653597    -0.000062666753    0.168118362298    0.046603618437    -0.000157052515    -0.000133726318    0.147928265247    0.030479632459
            -0.048217471401    0.092620796000    -0.000157052515    -0.000133726318    -0.057906590969    0.106493226194    -0.000149940767    -0.000123123296
            -0.000112216681    -0.000072853538    0.147928258113    0.030479617531    -0.000149940767    -0.000123123296    0.167814404181    0.046135873811
0.675     -0.006813295636    0.128529011006    -0.000128147566    -0.000028705673    -0.008639019693    0.113767285674    -0.000127229128    -0.000039304292
            -0.000128147566    -0.000028705673    0.181068302111    0.026713621806    -0.000187550991    -0.000087386135    0.159930627804    0.015912950068
            -0.008639019693    0.113767285674    -0.000187550991    -0.000087386135    -0.009362105581    0.126778421995    -0.000177764570    -0.000078158335
            -0.000127229109    -0.000039304286    0.159930618437    0.015912943217    -0.000177764575    -0.000078158299    0.180516089846    0.026758267661
0.700     0.045532541941    0.124931906997    -0.000129271989    0.000005348829    0.036320070388    0.115804437189    -0.000131809332    -0.000004611037
            -0.000129271949    0.000005348827    0.186183548398    0.003643728115    -0.000203318752    -0.000036073744    0.166784051508    -0.002502183553
            0.036320070388    0.115804437189    -0.000203318775    -0.000036073785    0.043015349885    0.123973403309    -0.000191223198    -0.000029080600
            -0.000131809332    -0.000004611037    0.166784051507    -0.002502183612    -0.000191223198    -0.000029080600    0.185671680596    0.004279820750
0.725     0.091041793840    0.098989777668    -0.000121879570    0.000036402496    0.077974990620    0.098221885745    -0.000127536390    0.000028136220
            -0.000121879570    0.000036402496    0.182950381584    -0.018835283405    -0.000205219441    0.000015381145    0.167255174963    -0.022205166990
            0.077974990620    0.098221885745    -0.000205219441    0.000015381145    0.088926313351    0.098737336827    -0.000191513398    0.000019496752
            -0.000127536390    0.000028136220    0.167255174692    -0.022205169033    -0.000191513398    0.000019496752    0.182776368825    -0.017675293080
0.750     0.120770080600    0.055709016614    -0.000108489718    0.000062973180    0.108214525095    0.064106719860    -0.000116603331    0.000057390235
            -0.000108489726    0.000062973185    0.172577142541    -0.037122668564    -0.000195520793    0.000063794227    0.161349673896    -0.040287470790
            0.108214525095    0.064106719860    -0.000195520793    0.000063794227    0.119364130166    0.055919142399    -0.000181072382    0.000064732094
            -0.000116602782    0.000057389561    0.161349673896    -0.040287470790    -0.000181072401    0.000064732100    0.172981134743    -0.035641621719
0.775     0.128596680046    0.003393602695    -0.000091305066    0.000085092091    0.120778591681    0.019680962327    -0.000100848271    0.000082988767
            -0.000091304862    0.000085091693    0.157793287049    -0.048462980309    -0.000176657441    0.000107825857    0.150413830921    -0.054012390660
            0.120778591681    0.019680962327    -0.000176657238    0.000107825479    0.128083535211    0.003698761631    -0.000162293636    0.000105641351
            -0.000100848271    0.000082988767    0.150413821509    -0.054012387280    -0.000162293636    0.000105641351    0.158897960422    -0.046965987064
