# GHz S RI R 45
0.000     0.035350424000    0.000000000000    0.964213620000    -0.000000000000    0.000834035450    -0.000000000000    -0.000968787330    0.000000000000
            0.964213620000    -0.000000000000    0.035295609000    0.000000000000    -0.000968938660    0.000000000000    0.000590381190    0.000000000000
            0.000834005830    -0.000000000000    -0.000968973710    0.000000000000    0.035314758000    0.000000000000    0.964275290000    -0.000000000000
            -0.000968822420    0.000000000000    0.000590381880    0.000000000000    0.964275290000    -0.000000000000    0.035122757000    0.000000000000
0.025     0.043642651716    0.006036647971    0.925097946768    -0.255541186306    0.005029342130    0.011391793735    -0.001481010625    -0.001749320912
            0.925097946768    -0.255541186306    0.040816897283    0.006095761168    -0.001477625233    -0.001748348880    0.002940653166    0.012194677728
            0.005029303024    0.011391856910    -0.001477662947    -0.001748400932    0.043565406343    0.005954333256    0.925223621170    -0.255258355412
            -0.001481148526    -0.001749376065    0.002940528748    0.012194509198    0.925223621170    -0.255258355412    0.040802378832    0.006154125580
0.050     0.053429680121    0.001652154216    0.823080727503    -0.486748245613    0.015719553478    0.017608443858    -0.003124861164    -0.003009608512
            0.823080727503    -0.486748245613    0.044656040718    0.005440405987    -0.003120874866    -0.003009991851    0.009171697051    0.022033720322
            0.015719527868    0.017608480126    -0.003120907735    -0.003009982548    0.053339221947    0.001519643263    0.823434676005    -0.486228256708
            -0.003124894140    -0.003009601374    0.009171726277    0.022033709240    0.823434684491    -0.486228242337    0.044612892693    0.005411923096
0.075     0.060999243939    -0.010210877726    0.665616905044    -0.682581717880    0.028497607257    0.015508090768    -0.005307221622    -0.003240781668
            0.665616905044    -0.682581717880    0.045772281367    0.002840509301    -0.005301102387    -0.003240737412    0.017340624325    0.028031501496
            0.028497595680    0.015508122503    -0.005301126127    -0.003240715066    0.060909398902    -0.010393073771    0.666321068865    -0.681953612608
            -0.005307245450    -0.003240759339    0.017340629818    0.028031501626    0.666321068865    -0.681953612608    0.045620275221    0.002837809797
0.100     0.061907847764    -0.028215143005    0.463528749324    -0.830076202415    0.037916818112    0.005083889037    -0.007556172733    -0.002546539407
            0.463528749324    -0.830076202415    0.043527570033    -0.000274092109    -0.007544202995    -0.002549188982    0.025126950169    0.030085778595
            0.037916822927    0.005083913329    -0.007544220808    -0.002549161259    0.061832437180    -0.028455935731    0.464643162115    -0.829502211398
            -0.007556191893    -0.002546513555    0.025126950810    0.030085779362    0.464643162115    -0.829502211398    0.043301887709    -0.000152714424
0.125     0.052508049632    -0.048049537122    0.230852949762    -0.919652532531    0.039330601207    -0.010580994709    -0.009729843715    -0.001057842933
            0.230852949762    -0.919652532531    0.037721630775    -0.001852901761    -0.009712609608    -0.001070770462    0.030591360715    0.029356294715
            0.039330617882    -0.010580971222    -0.009712622279    -0.001070735827    0.052453144204    -0.048371866832    0.232377086353    -0.919309309202
            -0.009729853401    -0.001057813057    0.030591362158    0.029356296100    0.232377086353    -0.919309309202    0.037514825904    -0.001563100083
0.150     0.031975037110    -0.063679697653    -0.016402805250    -0.945482797830    0.030452414805    -0.026159959452    -0.011793713641    0.001319877734
            -0.016402805250    -0.945482797830    0.029323371460    0.000208681784    -0.011779311900    0.001289780235    0.032781794524    0.027845074167
            0.030452435940    -0.026159947125    -0.011779315031    0.001289815947    0.031932117191    -0.064113489500    -0.014531578530    -0.945548292928
            -0.011793715615    0.001319905050    0.032781787378    0.027845077947    -0.014531578530    -0.945548292928    0.029239525590    0.000647542794
0.175     0.003054082983    -0.068876991519    -0.261222288455    -0.905969380757    0.012256764619    -0.035633237365    -0.013473136632    0.004899440486
            -0.261222288455    -0.905969380757    0.020468958344    0.007342458412    -0.013475433187    0.004853037953    0.032012548599    0.027745164470
            0.012256788960    -0.035633235337    -0.013475426127    0.004853075265    0.002989437934    -0.069451821085    -0.259130352530    -0.906601956609
            -0.013473130299    0.004899475457    0.032012552590    0.027745165973    -0.259130352530    -0.906601956609    0.020585561886    0.007842894759
0.200     -0.028166240218    -0.059484269862    -0.486496560096    -0.803976304454    -0.010975120646    -0.034162643049    -0.014050362368    0.009872833172
            -0.486496560096    -0.803976304454    0.013926963390    0.019722977632    -0.014080990238    0.009822249344    0.029800168002    0.030719503050
            -0.010975096796    -0.034162650711    -0.014080978910    0.009822274323    -0.028309999343    -0.060210056956    -0.484372272083    -0.805294891971
            -0.014050347418    0.009872866623    0.029800162481    0.030719507013    -0.484372272083    -0.805294891971    0.014254704742    0.020160061609
0.225     -0.053765218477    -0.035048583494    -0.676271231051    -0.646999240362    -0.032676834632    -0.019816751595    -0.012514614143    0.015872957257
            -0.676271231051    -0.646999240362    0.012374253484    0.035998038427    -0.012574275515    0.015837286052    0.028382642352    0.037293934356
            -0.032676811353    -0.019816776482    -0.012574252848    0.015837314263    -0.054056002714    -0.035899017361    -0.674352373282    -0.649056010414
            -0.012514591392    0.015872985381    0.028382646818    0.037293933471    -0.674352373282    -0.649056010414    0.012845780776    0.036255003612
0.250     -0.066247346505    0.000504833237    -0.817257667324    -0.446841872475    -0.045912082730    0.005472522613    -0.008075607705    0.021763716596
            -0.817257667324    -0.446841872475    0.017549579066    0.053493125358    -0.008150991332    0.021758770292    0.029961439690    0.046629149292
            -0.045912070701    0.005472496798    -0.008150964459    0.021758791038    -0.066739743762    -0.000400927065    -0.815808244196    -0.449600290539
            -0.008075580796    0.021763737247    0.029961444300    0.046629147519    -0.815808244196    -0.449600290539    0.018034101238    0.053508921022
0.275     -0.060918967204    0.039612534276    -0.900209255135    -0.218561034156    -0.045577369243    0.036209479048    -0.000748089980    0.025895049354
            -0.900209255135    -0.218561034156    0.029614496174    0.068856627426    -0.000818076091    0.025923474056    0.035928732459    0.056764879790
            -0.045577370082    0.036209466739    -0.000818051070    0.025923484851    -0.061626561296    0.038754321723    -0.899477978029    -0.221890694896
            -0.000748056939    0.025895064314    0.035928736422    0.056764877282    -0.899477978029    -0.221890694896    0.029959750561    0.068654437914
0.300     -0.037519588681    0.073045295430    -0.920730929746    0.021139338882    -0.030085175003    0.064846683882    0.008387837571    0.026773632954
            -0.920730939743    0.021139339111    0.046979387291    0.079024962011    0.008339892844    0.026822177992    0.046395615431    0.065273287814
            -0.030085174582    0.064846682975    0.008339929724    0.026822184328    -0.038396616929    0.072345559700    -0.920914017535    0.017460082204
            0.008387874429    0.026773639221    0.046395618829    0.065273282945    -0.920914017535    0.017460082204    0.047063788972    0.078714368829
0.325     -0.000470277434    0.092447581866    -0.879250166464    0.255644160889    -0.001889804960    0.083923825289    0.017484700593    0.023768709261
            -0.879250166464    0.255644160889    0.066699204438    0.082101654360    0.017460016063    0.023816740581    0.060169343157    0.070022255803
            -0.001889802008    0.083923824356    0.017460052653    0.023816737316    -0.001409478517    0.091990006560    -0.880464746500    0.251892224153
            0.017484737335    0.023768707062    0.060169345520    0.070022251136    -0.880464746500    0.251892224153    0.066475816063    0.081849971148
0.350     0.042215338507    0.092545694659    -0.780323677560    0.469796219421    0.033169074917    0.088052312338    0.024659191644    0.017441128295
            -0.780323677560    0.469796219421    0.085281182460    0.077890595592    0.024641823865    0.017474394706    0.075145656944    0.069793055117
            0.033169077285    0.088052309309    0.024641858585    0.017474383778    0.041364973807    0.092354232313    -0.782594015763    0.466271998738
            0.024659226347    0.017441117328    0.075145660599    0.069793051182    -0.782594015763    0.466271998738    0.084799909903    0.077874707957
0.375     0.080871612679    0.072404349179    -0.631638949288    0.650627105486    0.067303732885    0.075181263100    0.028756839952    0.009286603327
            -0.631638949288    0.650627105486    0.099594577425    0.067897579369    0.028723450945    0.009309801493    0.088891687699    0.064566630394
            0.067303690678    0.075181274042    0.028723477584    0.009309787413    0.080271506952    0.072423066387    -0.634905621513    0.647622581753
            0.028756870571    0.009286586611    0.088891688826    0.064566628843    -0.634905621513    0.647622581753    0.098996112611    0.068251917865
0.400     0.106321941421    0.035653001454    -0.443172773338    0.787588071834    0.092479725360    0.047069952966    0.029758928894    0.001039082074
            -0.443172773338    0.787588071834    0.107632704664    0.054927875126    0.029695737108    0.001077691832    0.099266546915    0.055517368605
            0.092479717269    0.047069946816    0.029695763053    0.001077666254    0.106103250790    0.035743322976    -0.447307249788    0.785371693298
            0.029758954807    0.001039056354    0.099266547884    0.055517366873    -0.447307249788    0.785371693298    0.107117333707    0.055701743566
0.425     0.111806253377    -0.010165065822    -0.226694037185    0.872541448338    0.102063156568    0.009069957037    0.028620059156    -0.006120082912
            -0.226694037185    0.872541448338    0.108964930513    0.042398185389    0.028537887603    -0.006031219132    0.104936485451    0.044740690633
            0.102063146750    0.009069954549    0.028537904391    -0.006031246095    0.112029340424    -0.010207995742    -0.231508852764    0.871352623624
            0.028620075863    -0.006120109991    0.104936486232    0.044740688802    -0.231508852764    0.871352623624    0.108743688433    0.043532690707
0.450     0.094539713901    -0.054897770423    0.004430195905    0.899890725055    0.092342440292    -0.030661051627    0.026616372864    -0.012053371703
            0.004430195905    0.899890725055    0.104868067941    0.033552835128    0.026554720987    -0.011890883468    0.105766685136    0.034796407692
            0.092342444150    -0.030660967018    0.026554732307    -0.011890916913    0.095160922624    -0.055309900740    -0.000818795672    0.899933307513
            0.026616384208    -0.012053404831    0.105766685743    0.034796405846    -0.000818795672    0.899933307513    0.105105506919    0.034883488265
0.475     0.056735684751    -0.087699885094    0.235369073147    0.867032087472    0.063764461661    -0.062591491505    0.024496115556    -0.017580346752
            0.235369073147    0.867032087472    0.098099698484    0.030658594015    0.024510483941    -0.017353088828    0.102973059792    0.028059051086
            0.063764457714    -0.062591489816    0.024510485896    -0.017353134524    0.057591177416    -0.088694368631    0.229996085545    0.868467959621
            0.024496117945    -0.017580393161    0.102973060282    0.028059049289    0.229996085545    0.868467959621    0.098862205460    0.031947766291
0.500     0.005795729503    -0.099499867326    0.450300689827    0.775166953100    0.021550334485    -0.077964686847    0.021892401363    -0.023782687682
            0.450300689827    0.775166953100    0.092314176533    0.034331017224    0.022027849444    -0.023539618157    0.098944641026    0.025996516191
            0.021550334485    -0.077964686847    0.022027849444    -0.023539618157    0.006613333428    -0.101204040970    0.445185415773    0.778083998568
            0.021892401363    -0.023782687682    0.098944641026    0.025996516191    0.445185415773    0.778083998568    0.093537345234    0.035325464660
0.525     -0.046836570702    -0.085627990976    0.633554880490    0.630096490699    -0.024921641149    -0.071342297427    0.017409992956    -0.031006857826
            0.633554873400    0.630096483647    0.091109419397    0.043170541892    0.017673173537    -0.030823722574    0.096612079019    0.028565673522
            -0.024921564381    -0.071342277636    0.017673174196    -0.030823718737    -0.046388589810    -0.088025642327    0.629137340622    0.634472625134
            0.017409956231    -0.031006936936    0.096612080016    0.028565670150    0.629137340622    0.634472625134    0.092600816087    0.043675294646
0.550     -0.088360994308    -0.047719406245    0.771440112833    0.442454918684    -0.064296593708    -0.042700747784    0.009491977550    -0.038175837016
            0.771440121508    0.442454923660    0.096917113331    0.053982260572    0.009838474196    -0.038123232521    0.098504893457    0.034068798545
            -0.064296591209    -0.042700746124    0.009838418491    -0.038123302667    -0.088592327285    -0.050623056251    0.768171845918    0.448111651077
            0.009491977550    -0.038175837016    0.098504895241    0.034068793387    0.768171845918    0.448111651077    0.098401539051    0.053925179459
0.575     -0.108247841781    0.006211847246    0.854221295300    0.226823766292    -0.086518418384    0.002090229398    -0.002374054886    -0.042961595944
            0.854221295300    0.226823766292    0.110115839980    0.062650890423    -0.002026780261    -0.043070542041    0.105823300923    0.039631689377
            -0.086518413385    0.002090229277    -0.002026851347    -0.043070595759    -0.109353736441    0.003136221929    0.852501323028    0.233421120179
            -0.002374090978    -0.042961622993    0.105823304382    0.039631680142    0.852501323028    0.233421120179    0.111313737357    0.062113811367
0.600     -0.101386741953    0.063919070301    0.877435854784    -0.000210358219    -0.085874668277    0.052885565863    -0.016902139539    -0.042861736814
            0.877435854784    -0.000210359429    0.128832240881    0.065434989621    -0.016639782599    -0.043106360056    0.118014476809    0.042179311182
            -0.085874627134    0.052885499181    -0.016639864034    -0.043106391864    -0.103380049577    0.061076729183    0.877532686034    0.006856262021
            -0.016902213549    -0.042861771051    0.118014481226    0.042179298824    0.877532686024    0.006856263247    0.129542552795    0.064634230234
0.625     -0.069344664920    0.112472209398    0.841924434752    -0.222340819287    -0.062406873923    0.098310113084    -0.031261398862    -0.036542132561
            0.841924434752    -0.222340819287    0.149528553870    0.060124532806    -0.031134638715    -0.036851387960    0.133003262766    0.039426264456
            -0.062406870725    0.098310032202    -0.031134678017    -0.036851395338    -0.072040918148    0.110238362363    0.843935120448    -0.215345652899
            -0.031261438147    -0.036542139749    0.133003264142    0.039426259813    0.843935120448    -0.215345652899    0.149687642566    0.059348910287
0.650     -0.019418107917    0.141642902278    0.752755196071    -0.425304809152    -0.021342988995    0.128779564882    -0.042208818670    -0.024627728337
            0.752755196071    -0.425304809152    0.168118362298    0.046603618437    -0.042213453504    -0.024918747135    0.147928265247    0.030479632459
            -0.021342984500    0.128779565627    -0.042213536392    -0.024918746389    -0.022474493265    0.140270559797    0.756604247479    -0.418912257789
            -0.042208902350    -0.024627727788    0.147928258113    0.030479617531    0.756604254791    -0.418912244584    0.167814404181    0.046135873811
0.675     0.037711129103    0.145924060666    0.617721140236    -0.597606859056    0.028754837517    0.138373564749    -0.047420825640    -0.009522567290
            0.617721140236    -0.597606859056    0.181068302111    0.026713621806    -0.047504508298    -0.009738980394    0.159930627804    0.015912950068
            0.028754807263    0.138373540396    -0.047504546964    -0.009738971042    0.034720545404    0.145487195916    0.623189585150    -0.592283619307
            -0.047420864259    -0.009522557824    0.159930618437    0.015912943217    0.623189585150    -0.592283619307    0.180516089846    0.026758267661
0.700     0.090530781147    0.125017894318    0.446108719254    -0.730431540233    0.078040642788    0.125435642961    -0.046360480708    0.005546445729
            0.446108719254    -0.730431540233    0.186183548398    0.003643728115    -0.046452228070    0.005410835049    0.166784051508    -0.002502183553
            0.078040642788    0.125435642961    -0.046452229064    0.005410835165    0.088028490920    0.125395561385    0.452883244166    -0.726550480166
            -0.046360480708    0.005546445729    0.166784051507    -0.002502183612    0.452883244166    -0.726550480166    0.185671680596    0.004279820750
0.725     0.128741754055    0.083296730318    0.248073615525    -0.817149764950    0.117036782281    0.092354135802    -0.040356418206    0.017758030876
            0.248073615525    -0.817149764950    0.182950381584    -0.018835283405    -0.040403992092    0.017659183524    0.167255174963    -0.022205166990
            0.117036783893    0.092354133759    -0.040403992092    0.017659183524    0.127067864185    0.084191209607    0.255779830888    -0.814995141370
            -0.040356449535    0.017758061477    0.167255174692    -0.022205169033    0.255779830888    -0.814995141370    0.182776368825    -0.017675293080
0.750     0.144721792972    0.028856019585    0.034545969940    -0.852937059898    0.137906759154    0.045093941664    -0.031955437731    0.025702217646
            0.034545969535    -0.852937049906    0.172577142541    -0.037122668564    -0.031955390318    0.025570726330    0.161349673896    -0.040287470790
            0.137906692742    0.045093983891    -0.031955391099    0.025570726954    0.144065438153    0.029836665617    0.042778371877    -0.852710932414
            -0.031955442996    0.025702212696    0.161349673896    -0.040287470790    0.042778386760    -0.852710931667    0.172981134743    -0.035641621719
0.775     0.134654528336    -0.027602541876    -0.182496355079    -0.834750391866    0.135631328838    -0.007414311166    -0.023801049104    0.029804559629
            -0.182496355079    -0.834750391866    0.157793287049    -0.048462980309    -0.023806551222    0.029585145689    0.150413830921    -0.054012390660
            0.135631318866    -0.007414310383    -0.023806551222    0.029585145689    0.135002951141    -0.027032917497    -0.174183963439    -0.836594100136
            -0.023801073640    0.029804643693    0.150413821509    -0.054012387280    -0.174183963439    -0.836594100136    0.158897960422    -0.046965987064
