!$
! Info: Touchstone file created by Circ.  Input file=Intel_C2M_200G_7p0in_202208016_staggered.circ
!$
# Hz S RI R 50
0	0.02450191	3.795975e-24	7.302416e-05	1.034758e-22	0.0001156971	2.949416e-22	7.295912e-05	1.032941e-22
	7.302416e-05	1.034758e-22	0.02451488	3.970146e-24	7.30074e-05	1.034126e-22	0.0001153171	2.927417e-22
	0.000115754	2.950669e-22	7.300739e-05	1.03414e-22	0.02449682	3.624285e-24	7.297225e-05	1.032343e-22
	7.295911e-05	1.032955e-22	0.000115374	2.928667e-22	7.297225e-05	1.032343e-22	0.02451285	3.759345e-24
1e+07	0.03001771	0.008328727	6.615301e-05	8.862875e-06	0.001623784	0.00627139	8.589308e-06	5.085759e-05
	6.615301e-05	8.862875e-06	0.02989695	0.008399347	6.375577e-05	4.269119e-05	0.001958527	0.006362284
	0.001623784	0.00627139	6.375577e-05	4.269119e-05	0.03057441	0.008193944	3.611446e-05	2.966972e-05
	8.589308e-06	5.085759e-05	0.001958527	0.006362284	3.611446e-05	2.966972e-05	0.02966256	0.008255754
2e+07	0.03580097	0.01193512	5.083346e-05	2.084421e-05	0.004000339	0.01167784	3.995016e-05	5.371393e-05
	5.083346e-05	2.084421e-05	0.03579451	0.01209537	7.822585e-05	3.252663e-05	0.004313642	0.0117209
	0.004000348	0.01167782	7.822585e-05	3.252663e-05	0.03606765	0.01154333	3.862758e-05	1.360291e-05
	3.995016e-05	5.371393e-05	0.004313651	0.01172089	3.862758e-05	1.360291e-05	0.0354319	0.01197066
3e+07	0.0406919	0.01309925	4.606317e-05	2.978549e-05	0.00749372	0.01645756	6.419943e-05	4.922386e-05
	4.606317e-05	2.978549e-05	0.0407776	0.01327058	9.031513e-05	2.59355e-05	0.00778972	0.01650287
	0.007493698	0.0164576	9.031513e-05	2.59355e-05	0.04073546	0.01268961	4.077612e-05	7.318435e-06
	6.419943e-05	4.922386e-05	0.007789698	0.01650291	4.077611e-05	7.318434e-06	0.04032451	0.01321851
4e+07	0.04478514	0.01303899	4.211833e-05	3.253293e-05	0.01199757	0.02027096	8.360553e-05	3.984683e-05
	4.211833e-05	3.253293e-05	0.04495208	0.01319559	9.992694e-05	1.687594e-05	0.01227571	0.02032619
	0.01199757	0.02027098	9.992694e-05	1.687594e-05	0.0446585	0.01268016	4.209481e-05	1.9776e-06
	8.360553e-05	3.984683e-05	0.01227571	0.02032622	4.209481e-05	1.9776e-06	0.04444493	0.01323347
5e+07	0.04823638	0.01226769	3.807343e-05	3.245494e-05	0.01727054	0.02297037	9.899682e-05	2.694339e-05
	3.807343e-05	3.245494e-05	0.04847762	0.01239203	0.000109774	2.228271e-06	0.01752835	0.02303822
	0.01727055	0.02297038	0.000109774	2.22827e-06	0.04798052	0.01199813	4.340317e-05	-4.419991e-06
	9.899682e-05	2.694339e-05	0.01752835	0.02303822	4.340317e-05	-4.419991e-06	0.04794277	0.01252871
6e+07	0.05112805	0.01104197	3.342868e-05	3.0976e-05	0.02306648	0.02442011	0.0001103701	1.121268e-05
	3.342868e-05	3.0976e-05	0.05143797	0.01111882	0.0001155591	-1.426853e-05	0.02330011	0.02450214
	0.02306649	0.02442009	0.0001155591	-1.426853e-05	0.05078055	0.01088532	4.325123e-05	-1.085182e-05
	0.0001103701	1.121268e-05	0.02330013	0.02450213	4.325123e-05	-1.085182e-05	0.05089879	0.01135803
7e+07	0.05353142	0.009560492	3.783974e-05	2.287482e-05	0.0291114	0.02453579	0.0001174579	-6.755701e-06
	3.783974e-05	2.287482e-05	0.05390431	0.009574824	0.0001168337	-3.20423e-05	0.02931602	0.02463384
	0.0291114	0.02453579	0.0001168337	-3.20423e-05	0.05312794	0.009530131	4.160199e-05	-1.701238e-05
	0.0001174579	-6.755701e-06	0.02931602	0.02463383	4.160199e-05	-1.701238e-05	0.05338228	0.00991605
8e+07	0.05554602	0.007973694	4.189791e-05	1.22829e-05	0.03512029	0.02328961	0.0001203461	-2.622795e-05
	4.189791e-05	1.22829e-05	0.05597477	0.007909515	0.0001138745	-5.007924e-05	0.03529018	0.02340636
	0.03512029	0.02328962	0.0001138745	-5.007924e-05	0.05512095	0.008075956	3.861225e-05	-2.262499e-05
	0.0001203461	-2.622795e-05	0.03529018	0.02340636	3.861225e-05	-2.262499e-05	0.05549021	0.008349569
9e+07	0.05729537	0.006380545	4.260006e-05	1.385669e-06	0.04080861	0.02071022	0.0001187923	-4.685856e-05
	4.260006e-05	1.385669e-06	0.05777006	0.006219298	0.0001066657	-6.774121e-05	0.04093767	0.02084987
	0.04080862	0.02071023	0.0001066657	-6.774121e-05	0.05688309	0.006617557	3.438783e-05	-2.744738e-05
	0.0001187923	-4.685856e-05	0.04093767	0.02084988	3.438783e-05	-2.744738e-05	0.05734281	0.006754115
1e+08	0.05896266	0.004866743	3.878225e-05	-9.789183e-06	0.04590467	0.01687723	0.0001106286	-7.008197e-05
	3.878225e-05	-9.789183e-06	0.05946475	0.004577909	9.364741e-05	-8.546891e-05	0.04598691	0.01704678
	0.04590467	0.01687723	9.364741e-05	-8.546891e-05	0.05861187	0.005248041	3.163526e-05	-2.823695e-05
	0.0001106286	-7.008197e-05	0.04598691	0.01704678	3.163526e-05	-2.823695e-05	0.0591241	0.005211757
1.1e+08	0.06066042	0.003043471	3.123072e-05	-1.41951e-05	0.05013644	0.01191661	9.290274e-05	-8.271307e-05
	3.123072e-05	-1.41951e-05	0.06112939	0.002642287	8.586751e-05	-8.345847e-05	0.05017164	0.01212293
	0.05013644	0.0119166	8.586751e-05	-8.345847e-05	0.06046507	0.003428894	2.978088e-05	-2.62082e-05
	9.290274e-05	-8.271307e-05	0.05017163	0.01212292	2.978088e-05	-2.62082e-05	0.06095374	0.00326076
1.2e+08	0.06215138	0.001141808	2.636517e-05	-1.656363e-05	0.05327082	0.006074275	8.135034e-05	-8.809227e-05
	2.636517e-05	-1.656363e-05	0.06258488	0.0006476763	7.985228e-05	-8.120147e-05	0.05325493	0.006322078
	0.05327082	0.006074273	7.985228e-05	-8.120147e-05	0.06201956	0.001515821	2.797067e-05	-2.527419e-05
	8.135034e-05	-8.809227e-05	0.05325493	0.006322076	2.797067e-05	-2.527419e-05	0.06249243	0.001240524
1.3e+08	0.06358216	-0.0008268579	2.280886e-05	-1.895364e-05	0.05515286	-0.0004263629	7.793826e-05	-8.707568e-05
	2.280886e-05	-1.895364e-05	0.06397344	-0.001406435	7.379178e-05	-7.963261e-05	0.0550821	-0.0001299695
	0.05515286	-0.0004263641	7.379178e-05	-7.963261e-05	0.06348913	-0.0004546103	2.615595e-05	-2.508426e-05
	7.793826e-05	-8.707568e-05	0.0550821	-0.0001299707	2.615595e-05	-2.508426e-05	0.06394353	-0.0008296027
1.4e+08	0.06500759	-0.002917278	2.008605e-05	-2.140179e-05	0.05566622	-0.007326665	7.394571e-05	-8.703234e-05
	2.008605e-05	-2.140179e-05	0.06534902	-0.003576305	6.781979e-05	-7.840377e-05	0.0555377	-0.006973023
	0.05566621	-0.007326665	6.781979e-05	-7.840377e-05	0.06494758	-0.002547594	2.441394e-05	-2.502351e-05
	7.394571e-05	-8.703234e-05	0.05553769	-0.006973024	2.441394e-05	-2.502351e-05	0.06537835	-0.003018162
1.5e+08	0.06644483	-0.005200055	1.745808e-05	-2.357697e-05	0.05474439	-0.01434731	6.946193e-05	-8.761797e-05
	1.745808e-05	-2.357697e-05	0.06672849	-0.005932563	6.196024e-05	-7.737678e-05	0.05455658	-0.01392641
	0.05474439	-0.01434731	6.196024e-05	-7.737678e-05	0.06641194	-0.004840592	2.2725e-05	-2.509385e-05
	6.946193e-05	-8.761797e-05	0.05455658	-0.01392641	2.2725e-05	-2.509385e-05	0.06681253	-0.005403732
1.6e+08	0.06787826	-0.007750727	1.483505e-05	-2.559845e-05	0.05237567	-0.02119921	6.449571e-05	-8.861569e-05
	1.483505e-05	-2.559845e-05	0.0680963	-0.008550298	5.61828e-05	-7.648239e-05	0.05212878	-0.02070002
	0.05237567	-0.0211992	5.61828e-05	-7.648239e-05	0.06786255	-0.007410521	2.104876e-05	-2.529823e-05
	6.449571e-05	-8.861569e-05	0.05212878	-0.02070002	2.104876e-05	-2.529823e-05	0.06822543	-0.008063418
1.7e+08	0.06926153	-0.0106417	1.212211e-05	-2.753377e-05	0.04860444	-0.0275946	5.902432e-05	-8.985718e-05
	1.212211e-05	-2.753377e-05	0.06940608	-0.01150096	5.04078e-05	-7.603976e-05	0.04830081	-0.02700536
	0.04860443	-0.0275946	5.04078e-05	-7.603976e-05	0.06924911	-0.01032691	1.931629e-05	-2.573059e-05
	5.902432e-05	-8.985718e-05	0.04830081	-0.02700536	1.931629e-05	-2.573059e-05	0.06956604	-0.01106647
1.8e+08	0.07051959	-0.01393394	9.224782e-06	-2.940972e-05	0.0435304	-0.03325804	5.30127e-05	-9.11893e-05
	9.224782e-06	-2.940972e-05	0.07058321	-0.01484455	4.442306e-05	-7.583543e-05	0.04317478	-0.0325667
	0.0435304	-0.03325804	4.442306e-05	-7.583543e-05	0.07049447	-0.013646	1.741841e-05	-2.642707e-05
	5.30127e-05	-9.11893e-05	0.04317478	-0.0325667	1.741841e-05	-2.642707e-05	0.07075633	-0.01446821
1.9e+08	0.07155194	-0.01766914	6.056895e-06	-3.121536e-05	0.03730575	-0.03793685	4.643257e-05	-9.246266e-05
	6.056895e-06	-3.121536e-05	0.07152772	-0.01862163	3.817542e-05	-7.548745e-05	0.03690544	-0.03713162
	0.03730575	-0.03793685	3.817542e-05	-7.548745e-05	0.07149805	-0.01740423	1.529461e-05	-2.716918e-05
	4.643257e-05	-9.246266e-05	0.03690544	-0.03713162	1.529461e-05	-2.716918e-05	0.07169513	-0.01830384
2e+08	0.07223796	-0.02186216	2.53524e-06	-3.290716e-05	0.03012954	-0.04141091	3.926428e-05	-9.35241e-05
	2.53524e-06	-3.290716e-05	0.07211971	-0.02284578	3.165596e-05	-7.49123e-05	0.02969455	-0.04048074
	0.03012954	-0.04141091	3.165596e-05	-7.49123e-05	0.07214116	-0.02161228	1.290683e-05	-2.791097e-05
	3.926428e-05	-9.35241e-05	0.02969455	-0.04048074	1.290683e-05	-2.791097e-05	0.07226352	-0.02258239
2.1e+08	0.072445	-0.0264952	-1.410701e-06	-3.440989e-05	0.02224106	-0.0435007	3.150598e-05	-9.421419e-05
	-1.410701e-06	-3.440989e-05	0.07222749	-0.02749794	2.48569e-05	-7.401755e-05	0.02178399	-0.04243604
	0.02224106	-0.0435007	2.48569e-05	-7.401755e-05	0.07229356	-0.02624846	1.022123e-05	-2.859495e-05
	3.150598e-05	-9.421419e-05	0.02178399	-0.04243604	1.022123e-05	-2.859495e-05	0.07233125	-0.02728031
2.2e+08	0.0720358	-0.03151462	-5.830066e-06	-3.562135e-05	0.01391136	-0.04407458	2.318069e-05	-9.436898e-05
	-5.830066e-06	-3.562135e-05	0.07171507	-0.03252307	1.778813e-05	-7.270524e-05	0.01344722	-0.0428679
	0.01391136	-0.04407458	1.778813e-05	-7.270524e-05	0.07182193	-0.03125639	7.212172e-06	-2.915175e-05
	2.318069e-05	-9.436898e-05	0.01344722	-0.0428679	7.212172e-06	-2.915175e-05	0.07176553	-0.03233905
2.3e+08	0.07087895	-0.03682903	-1.000619e-05	-3.656063e-05	0.005433627	-0.04305424	1.426226e-05	-9.379466e-05
	-1.000619e-05	-3.656063e-05	0.07045267	-0.03782848	1.039783e-05	-7.084485e-05	0.004979569	-0.04170063
	0.005433627	-0.04305424	1.039783e-05	-7.084485e-05	0.07059868	-0.03654362	3.871658e-06	-2.950351e-05
	1.426226e-05	-9.379466e-05	0.004979569	-0.04170063	3.871658e-06	-2.950351e-05	0.07043971	-0.0376638
2.4e+08	0.06885826	-0.04231019	-1.479342e-05	-3.703482e-05	-0.002886719	-0.0404177	4.922745e-06	-9.233384e-05
	-1.479342e-05	-3.703482e-05	0.06832609	-0.04328476	2.821286e-06	-6.833673e-05	-0.003311991	-0.03891546
	-0.002886719	-0.0404177	2.821286e-06	-6.833673e-05	0.06851132	-0.04198094	1.959053e-07	-2.956141e-05
	4.922745e-06	-9.233384e-05	-0.003311991	-0.03891546	1.959053e-07	-2.956141e-05	0.06824294	-0.04312303
2.5e+08	0.06588214	-0.04779597	-2.019548e-05	-3.685505e-05	-0.01074311	-0.0362009	-4.709962e-06	-8.984111e-05
	-2.019548e-05	-3.685505e-05	0.06524618	-0.04872874	-4.861731e-06	-6.508624e-05	-0.01111985	-0.03455193
	-0.01074311	-0.0362009	-4.861731e-06	-6.508624e-05	0.06547213	-0.04740706	-3.79344e-06	-2.923103e-05
	-4.709962e-06	-8.984111e-05	-0.01111985	-0.03455193	-3.79344e-06	-2.923103e-05	0.06508977	-0.0485532
2.6e+08	0.06189227	-0.05309619	-2.611232e-05	-3.584478e-05	-0.01783873	-0.03049762	-1.448119e-05	-8.618762e-05
	-2.611232e-05	-3.584478e-05	0.06115744	-0.05396966	-1.255432e-05	-6.100643e-05	-0.01814702	-0.02870778
	-0.01783873	-0.03049762	-1.255432e-05	-6.100643e-05	0.06142602	-0.05263252	-8.054124e-06	-2.841689e-05
	-1.448119e-05	-8.618762e-05	-0.01814702	-0.02870778	-8.054124e-06	-2.841689e-05	0.06092806	-0.05376287
2.7e+08	0.05687074	-0.05799986	-3.240394e-05	-3.384244e-05	-0.02389661	-0.02345619	-2.420641e-05	-8.126906e-05
	-3.240394e-05	-3.384244e-05	0.05604515	-0.05879639	-2.013794e-05	-5.602298e-05	-0.02411706	-0.02153546
	-0.02389661	-0.02345619	-2.013794e-05	-5.602298e-05	0.05635815	-0.05744801	-1.25222e-05	-2.702635e-05
	-2.420641e-05	-8.126906e-05	-0.02411706	-0.02153546	-1.25222e-05	-2.702635e-05	0.05574657	-0.05854136
2.8e+08	0.05084614	-0.06228392	-3.888943e-05	-3.071156e-05	-0.02867017	-0.01527572	-3.367288e-05	-7.501324e-05
	-3.888943e-05	-3.071156e-05	0.04994134	-0.06298628	-2.747393e-05	-5.007939e-05	-0.02878484	-0.01323809
	-0.02867017	-0.01527572	-2.747393e-05	-5.007939e-05	0.05029976	-0.06163299	-1.710943e-05	-2.497576e-05
	-3.367288e-05	-7.501324e-05	-0.02878484	-0.01323809	-1.710943e-05	-2.497576e-05	0.04958065	-0.06266731
2.9e+08	0.0438964	-0.06572437	-4.535445e-05	-2.634893e-05	-0.03195218	-0.006199777	-4.26463e-05	-6.73868e-05
	-4.535445e-05	-2.634893e-05	0.04292756	-0.06631657	-3.44038e-05	-4.314285e-05	-0.03194547	-0.004063163
	-0.03195218	-0.006199777	-3.44038e-05	-4.314285e-05	0.04333075	-0.06496555	-2.170667e-05	-2.21946e-05
	-4.26463e-05	-6.73868e-05	-0.03194547	-0.004063163	-2.170667e-05	-2.21946e-05	0.04251479	-0.06591897
3e+08	0.03615026	-0.06810711	-5.155862e-05	-2.069123e-05	-0.03358201	0.003491504	-5.087816e-05	-5.839866e-05
	-5.155862e-05	-2.069123e-05	0.03513616	-0.06857516	-4.075456e-05	-3.520861e-05	-0.03344148	0.005705777
	-0.03358201	0.003491504	-4.075456e-05	-3.520861e-05	0.03558132	-0.06723455	-2.618495e-05	-1.863102e-05
	-5.087816e-05	-5.839866e-05	-0.03344148	0.005705777	-2.618495e-05	-1.863102e-05	0.03468399	-0.06808631
3.1e+08	0.02778546	-0.06923957	-5.723942e-05	-1.372642e-05	-0.03345283	0.01349048	-5.811374e-05	-4.810572e-05
	-5.723942e-05	-1.372642e-05	0.02674825	-0.06957235	-4.634456e-05	-2.630046e-05	-0.03316993	0.01575823
	-0.03345283	0.01349048	-4.634456e-05	-2.630046e-05	0.02723046	-0.06824994	-3.039839e-05	-1.425758e-05
	-5.811374e-05	-4.810572e-05	-0.03316993	0.01575823	-3.039839e-05	-1.425758e-05	0.02627194	-0.06898146
3.2e+08	0.019025	-0.06896137	-6.212762e-05	-5.490578e-06	-0.03151569	0.02347211	-6.410063e-05	-3.661452e-05
	-6.212762e-05	-5.490578e-06	0.01798973	-0.06915143	-5.098582e-05	-1.648031e-05	-0.03108643	0.02576712
	-0.03151569	0.02347211	-5.098582e-05	-1.648031e-05	0.01850197	-0.06785526	-3.419005e-05	-9.072593e-06
	-6.410063e-05	-3.661452e-05	-0.03108643	0.02576712	-3.419005e-05	-9.072593e-06	0.01750692	-0.06845135
3.3e+08	0.01013023	-0.06715527	-6.595391e-05	3.923712e-06	-0.02778193	0.0331049	-6.859958e-05	-2.407946e-05
	-6.595391e-05	3.923712e-06	0.009124305	-0.06719967	-5.449371e-05	-5.84288e-06	-0.02720724	0.0353997
	-0.02778193	0.0331049	-5.449371e-05	-5.84288e-06	0.00965737	-0.06593608	-3.739565e-05	-3.107474e-06
	-6.859958e-05	-2.407946e-05	-0.02720724	0.0353997	-3.739565e-05	-3.107474e-06	0.008654315	-0.06638597
3.4e+08	0.001392669	-0.06375575	-6.846147e-05	1.437133e-05	-0.02232429	0.04206253	-7.139286e-05	-1.070563e-05
	-6.846147e-05	1.437133e-05	0.0004448394	-0.06365666	-5.668985e-05	5.478322e-06	-0.02161044	0.04432949
	-0.02232429	0.04206253	-5.668985e-05	5.478322e-06	0.0009872971	-0.06243057	-3.985118e-05	3.575636e-06
	-7.139286e-05	-1.070563e-05	-0.02161044	0.04432949	-3.985118e-05	3.575636e-06	7.780379e-06	-0.06272889
3.5e+08	-0.006877641	-0.05875595	-6.941614e-05	2.565206e-05	-0.01527485	0.05003466	-7.229429e-05	3.264085e-06
	-6.941614e-05	2.565206e-05	-0.00773818	-0.05852109	-5.741626e-05	1.731005e-05	-0.01443339	0.05224689
	-0.01527485	0.05003466	-5.741626e-05	1.731005e-05	-0.007198908	-0.05733462	-4.139815e-05	1.087946e-05
	-7.229429e-05	3.264085e-06	-0.01443339	0.05224689	-4.139815e-05	1.087946e-05	-0.008121391	-0.0574822
3.6e+08	-0.01436379	-0.05221192	-6.86142e-05	3.752383e-05	-0.006821868	0.05673818	-7.115633e-05	1.754387e-05
	-6.86142e-05	3.752383e-05	-0.01510866	-0.05185476	-5.653553e-05	2.94498e-05	-0.005869552	0.05887068
	-0.006821868	0.05673818	-5.653553e-05	2.94498e-05	-0.01458621	-0.05070796	-4.189187e-05	1.867257e-05
	-7.115633e-05	1.754387e-05	-0.005869552	0.05887068	-4.189187e-05	1.867257e-05	-0.01541753	-0.0507123
3.7e+08	-0.02075595	-0.04424509	-6.58971e-05	4.969676e-05	0.002796517	0.0619276	-6.787825e-05	3.181765e-05
	-6.58971e-05	4.969676e-05	-0.02135869	-0.0437848	-5.394242e-05	4.165688e-05	0.003838033	0.06395816
	0.002796517	0.0619276	-5.394242e-05	4.165688e-05	-0.02086709	-0.04267469	-4.120668e-05	2.679648e-05
	-6.787825e-05	3.181765e-05	0.003838033	0.06395816	-4.120668e-05	2.679648e-05	-0.02157384	-0.04255028
3.8e+08	-0.02576434	-0.03504044	-6.114973e-05	6.185254e-05	0.01329956	0.06540305	-6.241173e-05	4.574656e-05
	-6.114973e-05	6.185254e-05	-0.02620166	-0.03450161	-4.956829e-05	5.366876e-05	0.01440425	0.06731327
	0.01329956	0.06540305	-4.956829e-05	5.366876e-05	-0.02575433	-0.03342212	-3.924514e-05	3.506035e-05
	-6.241173e-05	4.574656e-05	0.01440425	0.06731327	-3.924514e-05	3.506035e-05	-0.0263053	-0.03319034
3.9e+08	-0.02913234	-0.02484382	-5.43142e-05	7.364431e-05	0.02437269	0.06701876	-5.476149e-05	5.898066e-05
	-5.43142e-05	7.364431e-05	-0.02938519	-0.02425581	-4.338844e-05	6.520155e-05	0.02551084	0.0687948
	0.02437269	0.06701876	-4.338844e-05	6.520155e-05	-0.0289955	-0.0231983	-3.593826e-05	4.325555e-05
	-5.476149e-05	5.898066e-05	0.02551084	0.0687948	-3.593826e-05	4.325555e-05	-0.02936308	-0.02288701
4e+08	-0.03065021	-0.01395419	-4.539192e-05	8.470749e-05	0.03567877	0.06668765	-4.499606e-05	7.115974e-05
	-4.539192e-05	8.470749e-05	-0.03070477	-0.01335034	-3.542753e-05	7.595696e-05	0.03681783	0.06832094
	0.03567877	0.06668765	-3.542753e-05	7.595696e-05	-0.03038409	-0.01230277	-3.125742e-05	5.115161e-05
	-4.499606e-05	7.115974e-05	0.03681783	0.06832094	-3.125742e-05	5.115161e-05	-0.03054562	-0.01194573
4.1e+08	-0.03016572	-0.00271405	-3.444309e-05	9.467422e-05	0.04686868	0.06438504	-3.323686e-05	8.193262e-05
	-3.444309e-05	9.467422e-05	-0.03001416	-0.002130762	-2.576126e-05	8.563416e-05	0.04797412	0.06587292
	0.04686868	0.06438504	-2.576126e-05	8.563416e-05	-0.02977173	-0.001078993	-2.520894e-05	5.851224e-05
	-3.323686e-05	8.193262e-05	0.04797412	0.06587292	-2.520894e-05	5.851224e-05	-0.02971068	-0.0007148496
4.2e+08	-0.02759222	0.008500103	-2.15926e-05	0.000103176	0.05759357	0.06015026	-1.967141e-05	9.096044e-05
	-2.15926e-05	0.000103176	-0.02723333	0.009024588	-1.451907e-05	9.394173e-05	0.05863003	0.06149627
	0.05759357	0.06015026	-1.451907e-05	9.394173e-05	-0.0270761	0.01009693	-1.784312e-05	6.509447e-05
	-1.967141e-05	9.096044e-05	0.05863003	0.06149627	-1.784312e-05	6.509447e-05	-0.02678301	0.01042571
4.3e+08	-0.02291667	0.01929345	-7.029002e-06	0.0001098581	0.06751662	0.05408466	-4.541181e-06	9.792892e-05
	-7.029002e-06	0.0001098581	-0.02235613	0.01972019	-1.881082e-06	0.0001005979	0.06844898	0.0552988
	0.06751662	0.05408466	-1.881082e-06	0.0001005979	-0.0222879	0.02083154	-9.252247e-06	7.066081e-05
	-4.541181e-06	9.792892e-05	0.06844898	0.0552988	-9.252247e-06	7.066081e-05	-0.02176124	0.02108006
4.4e+08	-0.0162025	0.02926656	8.994552e-06	0.0001143905	0.076324	0.04634901	1.186207e-05	0.0001025582
	8.994552e-06	0.0001143905	-0.01545309	0.02955717	1.192182e-05	0.0001053506	0.07711855	0.04744771
	0.076324	0.04634901	1.192182e-05	0.0001053506	-0.0154743	0.03072681	4.290837e-07	7.498338e-05
	1.186207e-05	0.0001025582	0.07711855	0.04744771	4.290837e-07	7.498338e-05	-0.0147209	0.03084911
4.5e+08	-0.007591222	0.03802942	2.616843e-05	0.0001164738	0.0837358	0.03715777	2.919047e-05	0.0001046085
	2.616843e-05	0.0001164738	-0.006672704	0.03814729	2.661234e-05	0.0001079816	0.08436147	0.03816379
	0.0837358	0.03715777	2.661234e-05	0.0001079816	-0.006780058	0.03939541	1.103079e-05	7.785253e-05
	2.919047e-05	0.0001046085	0.08436147	0.03816379	1.103079e-05	7.785253e-05	-0.005815417	0.039346
4.6e+08	0.0027001	0.04521795	4.412431e-05	0.0001158519	0.08951483	0.02677178	4.705458e-05	0.0001038901
	4.412431e-05	0.0001158519	0.003761204	0.04512942	4.187989e-05	0.0001083116	0.08994437	0.02771368
	0.08951483	0.02677178	4.187989e-05	0.0001083116	0.003575265	0.0464768	2.234053e-05	7.908287e-05
	4.705458e-05	0.0001038901	0.08994437	0.02771368	2.234053e-05	7.908287e-05	0.004726913	0.04621224
4.7e+08	0.01438348	0.05050994	6.244466e-05	0.000112322	0.09347462	0.01548912	6.503362e-05	0.0001002716
	6.244466e-05	0.000112322	0.01555434	0.05018553	5.737364e-05	0.0001062084	0.09368563	0.01640065
	0.09347462	0.01548912	5.737364e-05	0.0001062084	0.01530153	0.05165116	3.411173e-05	7.85172e-05
	6.503362e-05	0.0001002716	0.09368563	0.01640065	3.411173e-05	7.85172e-05	0.01660749	0.05113161
4.8e+08	0.02710905	0.05363553	8.066313e-05	0.0001057446	0.09548422	0.003635683	8.26691e-05	9.368531e-05
	8.066313e-05	0.0001057446	0.02835112	0.05305091	7.272298e-05	0.0001015926	0.09546024	0.004554944
