!$
! Info: Touchstone file created by Circ.  Input file=Intel_C2M_200G_7p0in_202208016_staggered.circ
!$
# Hz S RI R 50
0	0.02450197	3.622692e-24	7.274827e-05	1.03271e-22	0.0001157191	2.950737e-22	7.274124e-05	1.030956e-22
	7.274827e-05	1.03271e-22	0.02451488	3.970146e-24	7.275273e-05	1.033628e-22	0.0001153171	2.927417e-22
	0.000115776	2.951991e-22	7.275272e-05	1.033641e-22	0.02449688	3.786058e-24	7.274364e-05	1.031758e-22
	7.274123e-05	1.030969e-22	0.000115374	2.928667e-22	7.274364e-05	1.031758e-22	0.02451285	3.759345e-24
1e+07	0.0296306	0.008222072	7.414712e-06	3.08712e-05	0.001952771	0.006305835	1.149964e-05	2.39633e-05
	7.414714e-06	3.087121e-05	0.02989695	0.008399347	7.373211e-06	5.185418e-05	0.001958527	0.006362284
	0.001952771	0.006305835	7.373211e-06	5.185418e-05	0.0298732	0.008447441	7.485782e-06	3.198523e-05
	1.149964e-05	2.39633e-05	0.001958527	0.006362284	7.485782e-06	3.198523e-05	0.02966256	0.008255754
2e+07	0.03538379	0.01191114	1.306723e-05	2.604802e-05	0.004301104	0.01161006	6.509759e-06	1.81957e-05
	1.306724e-05	2.604805e-05	0.03579451	0.01209537	4.661204e-05	6.065238e-05	0.004313642	0.0117209
	0.004301113	0.01161005	4.661204e-05	6.065238e-05	0.03577605	0.01219328	1.425687e-05	2.780792e-05
	6.509759e-06	1.81957e-05	0.004313651	0.01172089	1.425687e-05	2.780792e-05	0.0354319	0.01197066
3e+07	0.04025988	0.01313082	2.29697e-05	2.187543e-05	0.007767207	0.01634117	8.855743e-06	1.620922e-05
	2.29697e-05	2.187543e-05	0.0407776	0.01327058	7.676168e-05	5.501606e-05	0.00778972	0.01650287
	0.007767185	0.0163412	7.676169e-05	5.501606e-05	0.04076375	0.01342557	2.501756e-05	2.36747e-05
	8.855746e-06	1.620922e-05	0.007789698	0.01650291	2.501756e-05	2.36747e-05	0.04032451	0.01321851
4e+07	0.04435374	0.0131257	3.033373e-05	1.618575e-05	0.01224149	0.02011816	1.348922e-05	1.26605e-05
	3.033373e-05	1.618575e-05	0.04495208	0.01319559	9.975375e-05	4.165509e-05	0.01227571	0.02032619
	0.01224149	0.02011818	9.975375e-05	4.165509e-05	0.04495448	0.01340325	3.309191e-05	1.780317e-05
	1.348922e-05	1.26605e-05	0.01227571	0.02032622	3.309191e-05	1.780317e-05	0.04444493	0.01323347
5e+07	0.04782084	0.0124079	3.542886e-05	9.362516e-06	0.01748215	0.02278896	1.674825e-05	8.510039e-06
	3.542886e-05	9.362515e-06	0.04847762	0.01239203	0.0001164788	2.345746e-05	0.01752835	0.02303822
	0.01748216	0.02278896	0.0001164788	2.345746e-05	0.04850192	0.01264704	3.878435e-05	1.064929e-05
	1.674825e-05	8.510039e-06	0.01752835	0.02303822	3.878435e-05	1.064929e-05	0.04794277	0.01252871
6e+07	0.05074282	0.01123092	3.838416e-05	1.858193e-06	0.02324335	0.024217	1.865636e-05	4.008107e-06
	3.838416e-05	1.858194e-06	0.05143797	0.01111882	0.0001273058	2.154919e-06	0.02330011	0.02450214
	0.02324336	0.02421698	0.0001273058	2.15492e-06	0.05148818	0.0114151	4.223839e-05	2.696073e-06
	1.865636e-05	4.008107e-06	0.02330013	0.02450213	4.223839e-05	2.696074e-06	0.05089879	0.01135803
7e+07	0.05318961	0.009790114	3.929297e-05	-5.919863e-06	0.02925182	0.02431791	1.927594e-05	-5.921541e-07
	3.929297e-05	-5.919863e-06	0.05390431	0.009574824	0.000132362	-2.103351e-05	0.02931602	0.02463384
	0.02925182	0.02431791	0.000132362	-2.103351e-05	0.05398261	0.009905041	4.355351e-05	-5.634504e-06
	1.927594e-05	-5.921538e-07	0.02931602	0.02463383	4.355351e-05	-5.634504e-06	0.05338228	0.00991605
8e+07	0.05525877	0.008232853	3.825311e-05	-1.362475e-05	0.0352234	0.02306403	1.867532e-05	-5.060575e-06
	3.825311e-05	-1.362475e-05	0.05597477	0.007909515	0.0001317031	-4.514904e-05	0.03529018	0.02340636
	0.0352234	0.02306403	0.0001317031	-4.514904e-05	0.05608129	0.008265882	4.280549e-05	-1.399682e-05
	1.867532e-05	-5.060576e-06	0.03529018	0.02340636	4.280549e-05	-1.399682e-05	0.05549021	0.008349569
9e+07	0.05707192	0.006655233	3.529105e-05	-2.101248e-05	0.04087463	0.0204843	1.689552e-05	-9.21197e-06
	3.529105e-05	-2.101248e-05	0.05777006	0.006219298	0.0001251424	-6.957396e-05	0.04093767	0.02084987
	0.04087464	0.02048431	0.0001251424	-6.957396e-05	0.05790216	0.006594326	4.000203e-05	-2.215325e-05
	1.689552e-05	-9.211971e-06	0.04093767	0.02084988	4.000203e-05	-2.215325e-05	0.05734281	0.006754115
1e+08	0.05881372	0.005139403	2.972495e-05	-2.829513e-05	0.04593522	0.01665949	1.358407e-05	-1.305824e-05
	2.972495e-05	-2.829513e-05	0.05946475	0.004577909	0.0001101536	-9.541451e-05	0.04598691	0.01704678
	0.04593522	0.01665949	0.0001101536	-9.541451e-05	0.05961703	0.00496547	3.437005e-05	-3.04036e-05
	1.358407e-05	-1.305824e-05	0.04598691	0.01704678	3.437005e-05	-3.04036e-05	0.0591241	0.005211757
1.1e+08	0.06057584	0.003276986	2.159312e-05	-3.06561e-05	0.0501398	0.01171309	9.176557e-06	-1.39703e-05
	2.159312e-05	-3.06561e-05	0.06112939	0.002642287	8.476245e-05	-0.0001066106	0.05017164	0.01212293
	0.0501398	0.01171308	8.476245e-05	-0.0001066106	0.06132976	0.002987439	2.567099e-05	-3.34251e-05
	9.176557e-06	-1.397029e-05	0.05017163	0.01212292	2.567099e-05	-3.34251e-05	0.06095374	0.00326076
1.2e+08	0.06211057	0.001327383	1.525846e-05	-3.112844e-05	0.05325142	0.005886757	5.885067e-06	-1.384589e-05
	1.525846e-05	-3.112844e-05	0.06258488	0.0006476763	6.664001e-05	-0.0001096958	0.05325493	0.006322078
	0.05325141	0.005886755	6.664001e-05	-0.0001096958	0.06276975	0.0009728406	1.884018e-05	-3.433823e-05
	5.885067e-06	-1.384589e-05	0.05325493	0.006322076	1.884018e-05	-3.433823e-05	0.06249243	0.001240524
1.3e+08	0.06356954	-0.000694502	1.13587e-05	-2.999593e-05	0.05511505	-0.0005959346	3.086603e-06	-1.340679e-05
	1.13587e-05	-2.999593e-05	0.06397344	-0.001406435	6.027933e-05	-0.0001046858	0.0550821	-0.0001299695
	0.05511505	-0.0005959358	6.027933e-05	-0.0001046858	0.06413051	-0.00107274	1.494821e-05	-3.321525e-05
	3.086603e-06	-1.340679e-05	0.0550821	-0.0001299707	1.494821e-05	-3.321525e-05	0.06394353	-0.0008296027
1.4e+08	0.06500854	-0.002840197	9.482083e-06	-2.758012e-05	0.05561438	-0.007477019	6.573416e-07	-1.272036e-05
	9.482083e-06	-2.758012e-05	0.06534902	-0.003576305	5.360011e-05	-0.0001003572	0.0555377	-0.006973023
	0.05561438	-0.00747702	5.360011e-05	-0.0001003572	0.06548266	-0.003221087	1.291902e-05	-3.089171e-05
	6.573418e-07	-1.272036e-05	0.05553769	-0.006973024	1.291902e-05	-3.089171e-05	0.06537835	-0.003018162
1.5e+08	0.06644567	-0.005177325	7.856727e-06	-2.550366e-05	0.05468283	-0.0144779	-2.930364e-07	-1.119449e-05
	7.856727e-06	-2.550366e-05	0.06672849	-0.005932563	4.692702e-05	-9.614205e-05	0.05455658	-0.01392641
	0.05468283	-0.0144779	4.692702e-05	-9.614205e-05	0.06684258	-0.005552588	1.101931e-05	-2.870665e-05
	-2.930363e-07	-1.119449e-05	0.05455658	-0.01392641	1.101931e-05	-2.870665e-05	0.06681253	-0.005403732
1.6e+08	0.06786654	-0.007778823	6.385541e-06	-2.345874e-05	0.05230848	-0.02131024	-8.159171e-07	-9.67687e-06
	6.385542e-06	-2.345874e-05	0.0680963	-0.008550298	4.042303e-05	-9.187078e-05	0.05212878	-0.02070002
	0.05230848	-0.02131024	4.042303e-05	-9.187078e-05	0.06819084	-0.008145746	9.336692e-06	-2.67105e-05
	-8.15917e-07	-9.67687e-06	0.05212878	-0.02070002	9.336692e-06	-2.67105e-05	0.06822543	-0.008063418
1.7e+08	0.06922643	-0.01071492	5.107806e-06	-2.142244e-05	0.04853544	-0.02768695	-1.152536e-06	-8.396391e-06
	5.107806e-06	-2.142244e-05	0.06940608	-0.01150096	3.420406e-05	-8.745268e-05	0.04830081	-0.02700536
	0.04853544	-0.02768695	3.420406e-05	-8.745268e-05	0.06947797	-0.01107114	7.826906e-06	-2.472262e-05
	-1.152536e-06	-8.396391e-06	0.04830081	-0.02700536	7.826907e-06	-2.472262e-05	0.06956604	-0.01106647
1.8e+08	0.07045185	-0.01404434	4.047222e-06	-1.94062e-05	0.04346301	-0.03333315	-1.361418e-06	-7.156877e-06
	4.047222e-06	-1.94062e-05	0.07058321	-0.01484455	2.835775e-05	-8.284792e-05	0.04317478	-0.0325667
	0.04346301	-0.03333315	2.835775e-05	-8.284792e-05	0.0706279	-0.01438606	6.516947e-06	-2.274515e-05
	-1.361418e-06	-7.156877e-06	0.04317478	-0.0325667	6.516947e-06	-2.274515e-05	0.07075633	-0.01446821
1.9e+08	0.07144441	-0.01780725	3.214638e-06	-1.742571e-05	0.0372429	-0.03799669	-1.438741e-06	-5.96792e-06
	3.214638e-06	-1.742571e-05	0.07152772	-0.01862163	2.295284e-05	-7.804761e-05	0.03690544	-0.03713162
	0.0372429	-0.03799668	2.295284e-05	-7.804761e-05	0.07154118	-0.01812791	5.420972e-06	-2.078863e-05
	-1.438741e-06	-5.96792e-06	0.03690544	-0.03713162	5.420972e-06	-2.078863e-05	0.07169513	-0.01830384
2e+08	0.07208582	-0.02201735	2.61436e-06	-1.550211e-05	0.03007366	-0.04145781	-1.384661e-06	-4.841685e-06
	2.61436e-06	-1.550211e-05	0.07211971	-0.02284578	1.804407e-05	-7.306518e-05	0.02969455	-0.04048074
	0.03007365	-0.04145781	1.804407e-05	-7.306518e-05	0.07210038	-0.02230836	4.546293e-06	-1.886979e-05
	-1.384661e-06	-4.841685e-06	0.02969455	-0.04048074	4.546293e-06	-1.886979e-05	0.07226352	-0.02258239
2.1e+08	0.0722459	-0.02665625	2.241624e-06	-1.365871e-05	0.02219398	-0.04353731	-1.203172e-06	-3.791594e-06
	2.241624e-06	-1.365871e-05	0.07222749	-0.02749794	1.367374e-05	-6.793007e-05	0.02178399	-0.04243604
	0.02219398	-0.04353731	1.367374e-05	-6.793007e-05	0.07217639	-0.02690694	3.892052e-06	-1.700846e-05
	-1.203171e-06	-3.791594e-06	0.02178399	-0.04243604	3.892052e-06	-1.700846e-05	0.07233125	-0.02728031
2.2e+08	0.07178985	-0.03167015	2.086872e-06	-1.191949e-05	0.01387433	-0.04410371	-9.015182e-07	-2.831563e-06
	2.086872e-06	-1.191949e-05	0.07171507	-0.03252307	9.873758e-06	-6.268378e-05	0.01344722	-0.0428679
	0.01387433	-0.04410371	9.873758e-06	-6.268378e-05	0.071637	-0.03186861	3.452819e-06	-1.522609e-05
	-9.015182e-07	-2.831563e-06	0.01344722	-0.0428679	3.452819e-06	-1.522609e-05	0.07176553	-0.03233905
2.3e+08	0.07058872	-0.03696803	2.133273e-06	-1.030599e-05	0.005407313	-0.04307876	-4.89869e-07	-1.975453e-06
	2.133273e-06	-1.030599e-05	0.07045267	-0.03782848	6.657958e-06	-5.73747e-05	0.004979569	-0.04170063
	0.005407313	-0.04307876	6.657958e-06	-5.73747e-05	0.07035549	-0.0371024	3.218752e-06	-1.354452e-05
	-4.89869e-07	-1.975453e-06	0.004979569	-0.04170063	3.218752e-06	-1.354452e-05	0.07043971	-0.0376638
2.4e+08	0.06852858	-0.04242257	2.36426e-06	-8.841094e-06	-0.002902229	-0.04044045	1.858144e-08	-1.236218e-06
	2.36426e-06	-8.841094e-06	0.06832609	-0.04328476	4.046396e-06	-5.205945e-05	-0.003311991	-0.03891546
	-0.002902229	-0.04044045	4.046396e-06	-5.205945e-05	0.06822008	-0.04248072	3.174651e-06	-1.198476e-05
	1.858145e-08	-1.236218e-06	-0.003311991	-0.03891546	3.174651e-06	-1.198476e-05	0.06824294	-0.04312303
2.5e+08	0.06551991	-0.04787286	2.757308e-06	-7.544755e-06	-0.01074828	-0.0362246	6.081713e-07	-6.257009e-07
	2.757308e-06	-7.544755e-06	0.06524618	-0.04872874	2.036602e-06	-4.679709e-05	-0.01111985	-0.03455193
	-0.01074828	-0.0362246	2.036602e-06	-4.679709e-05	0.06514352	-0.04784398	3.300888e-06	-1.056451e-05
	6.081713e-07	-6.257009e-07	-0.01111985	-0.03455193	3.300888e-06	-1.056451e-05	0.06508977	-0.0485532
2.6e+08	0.06150608	-0.05313044	3.285891e-06	-6.433279e-06	-0.01783454	-0.03052472	1.260756e-06	-1.537673e-07
	3.285891e-06	-6.433279e-06	0.06115744	-0.05396966	6.248141e-07	-4.165306e-05	-0.01814702	-0.02870778
	-0.01783454	-0.03052472	6.248141e-07	-4.165306e-05	0.0610709	-0.05300448	3.577303e-06	-9.301998e-06
	1.260756e-06	-1.537673e-07	-0.01814702	-0.02870778	3.577303e-06	-9.301998e-06	0.06092806	-0.05376287
2.7e+08	0.05647056	-0.05798627	3.921107e-06	-5.519565e-06	-0.02388446	-0.02348887	1.956079e-06	1.719253e-07
	3.921107e-06	-5.519565e-06	0.05604515	-0.05879639	-2.073765e-07	-3.669304e-05	-0.02411706	-0.02153546
	-0.02388446	-0.02348887	-2.073765e-07	-3.669304e-05	0.0559873	-0.05775466	3.979662e-06	-8.212211e-06
	1.956079e-06	1.719253e-07	-0.02411706	-0.02153546	3.979662e-06	-8.212211e-06	0.05574657	-0.05854136
2.8e+08	0.0504428	-0.06221948	4.632062e-06	-4.812649e-06	-0.02865185	-0.01531577	2.672059e-06	3.464836e-07
	4.632062e-06	-4.812649e-06	0.04994134	-0.06298628	-4.898621e-07	-3.198129e-05	-0.02878484	-0.01323809
	-0.02865185	-0.01531577	-4.898621e-07	-3.198129e-05	0.04992354	-0.06187568	4.481057e-06	-7.306705e-06
	2.672059e-06	3.464836e-07	-0.02878484	-0.01323809	4.481057e-06	-7.306705e-06	0.04958065	-0.06266731
2.9e+08	0.04350117	-0.06560845	5.386406e-06	-4.317257e-06	-0.03192975	-0.006248563	3.385212e-06	3.682971e-07
	5.386406e-06	-4.317257e-06	0.04292756	-0.06631657	-2.627163e-07	-2.757881e-05	-0.03194547	-0.004063163
	-0.03192975	-0.006248563	-2.627162e-07	-2.757881e-05	0.04295893	-0.06514725	5.05269e-06	-6.593452e-06
	3.385212e-06	3.682971e-07	-0.03194547	-0.004063163	5.05269e-06	-6.593452e-06	0.04251479	-0.06591897
3e+08	0.03577437	-0.06794142	6.15083e-06	-4.033636e-06	-0.03355779	0.003433092	4.071147e-06	2.39406e-07
	6.15083e-06	-4.033636e-06	0.03513616	-0.06857516	4.242042e-07	-2.354171e-05	-0.03344148	0.005705777
	-0.03355779	0.003433092	4.242042e-07	-2.354171e-05	0.03522275	-0.06735965	5.664199e-06	-6.076519e-06
	4.071147e-06	2.39406e-07	-0.03344148	0.005705777	5.664199e-06	-6.07652e-06	0.03468399	-0.06808631
3.1e+08	0.0274396	-0.06902812	6.891814e-06	-3.957173e-06	-0.03342923	0.01342203	4.705279e-06	-3.408626e-08
	6.891814e-06	-3.957173e-06	0.02674825	-0.06957235	1.512245e-06	-1.991944e-05	-0.03316993	0.01575823
	-0.03342923	0.01342203	1.512245e-06	-1.991944e-05	0.02689287	-0.06832407	6.28441e-06	-5.755643e-06
	4.705279e-06	-3.408626e-08	-0.03316993	0.01575823	6.28441e-06	-5.755643e-06	0.02627194	-0.06898146
3.2e+08	0.01871883	-0.0687103	7.576288e-06	-4.078262e-06	-0.03149515	0.02339375	5.263564e-06	-4.418101e-07
	7.576288e-06	-4.078262e-06	0.01798973	-0.06915143	2.934608e-06	-1.675314e-05	-0.03108643	0.02576712
	-0.03149515	0.02339375	2.934608e-06	-1.675314e-05	0.0181918	-0.0678851	6.881744e-06	-5.625935e-06
	5.263564e-06	-4.418101e-07	-0.03108643	0.02576712	6.881744e-06	-5.625935e-06	0.01750692	-0.06845135
3.3e+08	0.009872055	-0.06687263	8.172338e-06	-4.382145e-06	-0.02776678	0.03301728	5.723333e-06	-9.690808e-07
	8.172338e-06	-4.382145e-06	0.009124305	-0.06719967	4.617924e-06	-1.407412e-05	-0.02720724	0.0353997
	-0.02776678	0.03301728	4.617924e-06	-1.407412e-05	0.009379641	-0.06592904	7.425013e-06	-5.677653e-06
	5.723333e-06	-9.690808e-07	-0.02720724	0.0353997	7.425013e-06	-5.677653e-06	0.008654315	-0.06638597
3.4e+08	0.001188983	-0.06345114	8.650214e-06	-4.848874e-06	-0.02231678	0.04196677	6.064291e-06	-1.59698e-06
	8.650214e-06	-4.848874e-06	0.0004448394	-0.06365666	6.483955e-06	-1.190233e-05	-0.02161044	0.04432949
	-0.02231678	0.04196677	6.483955e-06	-1.190233e-05	0.0007455079	-0.06239457	7.884372e-06	-5.895956e-06
	6.064291e-06	-1.59698e-06	-0.02161044	0.04432949	7.884372e-06	-5.895956e-06	7.780379e-06	-0.06272889
3.5e+08	-0.007022367	-0.05844013	8.983242e-06	-5.453527e-06	-0.01527687	0.04993234	6.269362e-06	-2.302738e-06
	8.983242e-06	-5.453527e-06	-0.00773818	-0.05852109	8.451335e-06	-1.024558e-05	-0.01443339	0.05224689
	-0.01527687	0.04993234	8.451335e-06	-1.024558e-05	-0.00740278	-0.05727777	8.232174e-06	-6.260991e-06
	6.269362e-06	-2.302738e-06	-0.01443339	0.05224689	8.232174e-06	-6.260991e-06	-0.008121391	-0.0574822
3.6e+08	-0.01444731	-0.05189637	9.148821e-06	-6.166478e-06	-0.006835023	0.0566313	6.325653e-06	-3.060287e-06
	9.148821e-06	-6.166478e-06	-0.01510866	-0.05185476	1.043793e-05	-9.098621e-06	-0.005869552	0.05887068
	-0.006835023	0.0566313	1.043793e-05	-9.098621e-06	-0.01475172	-0.05063828	8.444023e-06	-6.748006e-06
	6.325653e-06	-3.060287e-06	-0.005869552	0.05887068	8.444023e-06	-6.748006e-06	-0.01541753	-0.0507123
3.7e+08	-0.02077831	-0.04394156	9.129473e-06	-6.954087e-06	0.00277108	0.06181844	6.225167e-06	-3.84113e-06
	9.129473e-06	-6.954087e-06	-0.02135869	-0.0437848	1.236314e-05	-8.442918e-06	0.003838033	0.06395816
	0.00277108	0.06181844	1.236314e-05	-8.442918e-06	-0.02099522	-0.04259985	8.499828e-06	-7.327947e-06
	6.225167e-06	-3.84113e-06	0.003838033	0.06395816	8.499828e-06	-7.327947e-06	-0.02157384	-0.04255028
3.8e+08	-0.02572792	-0.03476047	8.913679e-06	-7.779481e-06	0.01326119	0.0652942	5.965362e-06	-4.615306e-06
	8.913679e-06	-7.779481e-06	-0.02620166	-0.03450161	1.415025e-05	-8.246971e-06	0.01440425	0.06731327
	0.01326119	0.0652942	1.415025e-05	-8.246971e-06	-0.0258474	-0.03334918	8.384688e-06	-7.968085e-06
	5.965362e-06	-4.615306e-06	0.01440425	0.06731327	8.384688e-06	-7.968085e-06	-0.0263053	-0.03319034
3.9e+08	-0.02904172	-0.0245983	8.496752e-06	-8.603713e-06	0.02432128	0.06691289	5.549553e-06	-5.352569e-06
	8.496752e-06	-8.603713e-06	-0.02938519	-0.02425581	1.572891e-05	-8.466701e-06	0.02551084	0.0687948
	0.02432128	0.06691289	1.572891e-05	-8.466701e-06	-0.02905695	-0.02313349	8.089869e-06	-8.632969e-06
	5.549553e-06	-5.352569e-06	0.02551084	0.0687948	8.089869e-06	-8.632969e-06	-0.02936308	-0.02288701
4e+08	-0.030512	-0.01375292	7.881292e-06	-9.387087e-06	0.03561479	0.06658746	4.986871e-06	-6.023673e-06
	7.881292e-06	-9.387087e-06	-0.03070477	-0.01335034	1.703743e-05	-9.046999e-06	0.03681783	0.06832094
	0.03561479	0.06658746	1.703743e-05	-9.046999e-06	-0.03041836	-0.01225135	7.613308e-06	-9.285787e-06
	4.986871e-06	-6.023673e-06	0.03681783	0.06832094	7.613308e-06	-9.285787e-06	-0.03054562	-0.01194573
4.1e+08	-0.02998829	-0.00256543	7.077482e-06	-1.009068e-05	0.04679314	0.06429315	4.292061e-06	-6.601613e-06
	7.077482e-06	-1.009068e-05	-0.03001416	-0.002130762	1.802492e-05	-9.923256e-06	0.04797412	0.06587292
	0.04679314	0.06429315	1.802492e-05	-9.923256e-06	-0.02978394	-0.001045039	6.960059e-06	-9.889595e-06
	4.292061e-06	-6.601613e-06	0.04797412	0.06587292	6.960059e-06	-9.889595e-06	-0.02971068	-0.0007148496
4.2e+08	-0.02738539	0.008589429	6.10286e-06	-1.06779e-05	0.05750805	0.06006907	3.484877e-06	-7.062789e-06
	6.10286e-06	-1.06779e-05	-0.02723333	0.009024588	1.865269e-05	-1.102326e-05	0.05863003	0.06149627
	0.05750805	0.06006907	1.865269e-05	-1.102326e-05	-0.02707183	0.01011053	6.142214e-06	-1.040888e-05
	3.484877e-06	-7.062789e-06	0.05863003	0.06149627	6.142214e-06	-1.040888e-05	-0.02678301	0.01042571
4.3e+08	-0.02269131	0.01931882	4.981828e-06	-1.111605e-05	0.06742321	0.05401623	2.5892e-06	-7.38804e-06
	4.981828e-06	-1.111605e-05	-0.02235613	0.01972019	1.889577e-05	-1.227e-05	0.06844898	0.0552988
	0.06742321	0.05401623	1.889577e-05	-1.227e-05	-0.02227298	0.0208232	5.178596e-06	-1.081105e-05
	2.5892e-06	-7.38804e-06	0.06844898	0.0552988	5.178596e-06	-1.081105e-05	-0.02176124	0.02108006
4.4e+08	-0.01597018	0.02922541	3.744816e-06	-1.137769e-05	0.07622518	0.04629496	1.632031e-06	-7.563373e-06
	3.744816e-06	-1.137769e-05	-0.01545309	0.02955717	1.874344e-05	-1.358401e-05	0.07711855	0.04744771
	0.07622518	0.04629496	1.874344e-05	-1.358401e-05	-0.01545449	0.03069619	4.094071e-06	-1.106774e-05
	1.632031e-06	-7.563373e-06	0.07711855	0.04744771	4.094071e-06	-1.106774e-05	-0.0147209	0.03084911
4.5e+08	-0.007363779	0.03792139	2.426974e-06	-1.144186e-05	0.0836344	0.03711924	6.422231e-07	-7.58045e-06
	2.426974e-06	-1.144186e-05	-0.006672704	0.03814729	1.81994e-05	-1.488601e-05	0.08436147	0.03816379
	0.0836344	0.03711924	1.81994e-05	-1.488601e-05	-0.0067608	0.03934331	2.918475e-06	-1.115604e-05
	6.422231e-07	-7.58045e-06	0.08436147	0.03816379	2.918475e-06	-1.115604e-05	-0.005815417	0.039346
4.6e+08	0.002910992	0.04504485	1.066736e-06	-1.129487e-05	0.08941392	0.02674928	-3.507783e-07	-7.436765e-06
	1.066736e-06	-1.129487e-05	0.003761204	0.04512942	1.728132e-05	-1.609978e-05	0.08994437	0.02771368
	0.08941392	0.02674928	1.728132e-05	-1.609978e-05	0.003589035	0.04640512	1.685378e-06	-1.10594e-05
	-3.507783e-07	-7.436765e-06	0.08994437	0.02771368	1.685378e-06	-1.10594e-05	0.004726913	0.04621224
4.7e+08	0.01456667	0.05027573	-2.957981e-07	-1.09309e-05	0.09337732	0.01548258	-1.3182e-06	-7.135492e-06
	-2.95798e-07	-1.09309e-05	0.01555434	0.05018553	1.602014e-05	-1.715465e-05	0.09368563	0.01640065
	0.09337732	0.01548258	1.602014e-05	-1.715465e-05	0.01530558	0.05156269	4.306128e-07	-1.076813e-05
	-1.3182e-06	-7.135492e-06	0.09368563	0.01640065	4.306128e-07	-1.076813e-05	0.01660749	0.05113161
4.8e+08	0.02725434	0.05334609	-1.620595e-06	-1.035191e-05	0.09539365	0.003644385	-2.233044e-06	-6.685022e-06
	-1.620595e-06	-1.035191e-05	0.02835112	0.05305091	1.445833e-05	-1.798752e-05	0.09546024	0.004554944
	0.09539365	0.003644385	1.445833e-05	-1.798752e-05	0.02803799	0.0545516	-8.091543e-07	-1.027971e-05
