!$
! Info: Touchstone file created by Circ.  Input file=Intel_C2M_200G_7p0in_202208016_staggered.circ
!$
# Hz S RI R 50
0	0.02451488	3.970146e-24	0.9752861	-6.828713e-24	0.0001153171	2.927417e-22	-0.0002455404	3.007003e-20
	0.9752861	-6.826011e-24	0.02506718	7.269305e-24	-0.0002455959	3.007682e-20	0.0003378476	8.63846e-22
	0.000115374	2.928667e-22	-0.0002457316	3.009344e-20	0.02451285	3.759345e-24	0.9752864	-6.949612e-24
	-0.0002456761	3.008664e-20	0.0003379141	8.64456e-22	0.9752864	-6.952323e-24	0.02506861	7.428756e-24
1e+07	0.02989695	0.008399347	0.964546	-0.1091251	0.001958527	0.006362284	-0.001312946	-0.0008431122
	0.964546	-0.1091251	0.03037512	0.008118195	-0.00131333	-0.0008427776	0.001815363	0.006408955
	0.001958527	0.006362284	-0.00131333	-0.0008427776	0.02966256	0.008255754	0.9647899	-0.108958
	-0.001312946	-0.0008431122	0.001815363	0.006408955	0.9647899	-0.108958	0.0301296	0.007982102
2e+07	0.03579451	0.01209537	0.9423344	-0.2121753	0.004313642	0.0117209	-0.001765917	-0.001018506
	0.9423344	-0.2121753	0.03773846	0.01123896	-0.001766573	-0.001017024	0.003714472	0.01198867
	0.004313651	0.01172089	-0.001766577	-0.001017133	0.0354319	0.01197066	0.9427294	-0.2120187
	-0.00176592	-0.00101861	0.003714562	0.01198856	0.9427294	-0.2120187	0.03734013	0.01115589
3e+07	0.0407776	0.01327058	0.9107545	-0.3101895	0.00778972	0.01650287	-0.002229787	-0.001084625
	0.9107545	-0.3101895	0.04445067	0.01099753	-0.002230113	-0.00108145	0.006608074	0.01704594
	0.007789698	0.01650291	-0.002230155	-0.001081446	0.04032451	0.01321851	0.9112558	-0.3101019
	-0.002229801	-0.001084629	0.00660805	0.01704591	0.9112558	-0.3101019	0.04396488	0.01102648
4e+07	0.04495208	0.01319559	0.8698294	-0.4034358	0.01227571	0.02032619	-0.002677744	-0.001018169
	0.8698294	-0.4034358	0.0508882	0.008934466	-0.002676771	-0.00101329	0.01029497	0.02145213
	0.01227571	0.02032622	-0.002676776	-0.001013285	0.04444493	0.01323347	0.8704037	-0.403446
	-0.002677744	-0.001018155	0.01029497	0.02145214	0.8704037	-0.403446	0.05035837	0.009102844
5e+07	0.04847762	0.01239203	0.8199413	-0.4912883	0.01752835	0.02303822	-0.003082092	-0.0008320605
	0.8199413	-0.4912883	0.05691873	0.005252569	-0.003078951	-0.0008260208	0.01465409	0.0250536
	0.01752835	0.02303822	-0.003078948	-0.0008260216	0.04794277	0.01252871	0.8205591	-0.4914148
	-0.003082089	-0.0008320617	0.0146541	0.02505361	0.8205591	-0.4914148	0.05638831	0.005571778
6e+07	0.05143797	0.01111882	0.7616343	-0.5730157	0.02330011	0.02450214	-0.003418255	-0.0005517315
	0.7616343	-0.5730157	0.06233298	0.0001725169	-0.003412334	-0.0005453604	0.01950866	0.02775092
	0.02330013	0.02450213	-0.003412332	-0.0005453614	0.05089879	0.01135803	0.7622659	-0.5732696
	-0.003418252	-0.0005517319	0.01950866	0.02775092	0.7622659	-0.5732696	0.06184326	0.0006419874
7e+07	0.05390431	0.009574824	0.6955529	-0.6478948	0.02931602	0.02463384	-0.003672069	-0.0002060657
	0.6955529	-0.6478948	0.06695977	-0.006104639	-0.003663038	-0.0002005414	0.0246701	0.02948444
	0.02931602	0.02463383	-0.003663001	-0.0002006002	0.05338228	0.00991605	0.6961675	-0.6482815
	-0.003672067	-0.0002060681	0.0246701	0.02948444	0.6961675	-0.6482815	0.06654836	-0.00549544
8e+07	0.05597477	0.007909515	0.6224207	-0.7152465	0.03529018	0.02340636	-0.003838092	0.0001763274
	0.6224207	-0.7152465	0.07064544	-0.01338886	-0.00382612	0.0001797113	0.02994351	0.03023298
	0.03529018	0.02340636	-0.00382612	0.0001797139	0.05549021	0.008349569	0.622989	-0.7157677
	-0.003838093	0.00017633	0.02994351	0.03023298	0.622989	-0.7157677	0.07034617	-0.01265848
9e+07	0.05777006	0.006219298	0.5430238	-0.7744576	0.04093767	0.02084987	-0.003918814	0.0005691751
	0.5430238	-0.7744576	0.07325826	-0.02147822	-0.003904594	0.0005691227	0.03513671	0.0300147
	0.04093767	0.02084988	-0.003904591	0.0005691317	0.05734281	0.006754115	0.5435114	-0.7751094
	-0.003918813	0.000569185	0.03513671	0.0300147	0.5435114	-0.7751094	0.07310188	-0.02065108
1e+08	0.05946475	0.004577909	0.4581393	-0.8250187	0.04598691	0.01704678	-0.003925423	0.0009523183
	0.4581393	-0.8250187	0.07474941	-0.03013608	-0.003910467	0.0009475204	0.04007075	0.02888269
	0.04598691	0.01704678	-0.003910467	0.0009475194	0.0591241	0.005211757	0.4584988	-0.8258005
	-0.003925423	0.0009523173	0.04007075	0.02888269	0.4584988	-0.8258005	0.07477627	-0.02924148
1.1e+08	0.06112939	0.002642287	0.3687036	-0.8660661	0.05017164	0.01212293	-0.00385137	0.001312881
	0.3687036	-0.8660661	0.0750107	-0.03943728	-0.003836889	0.001304857	0.04455702	0.02692002
	0.05017163	0.01212292	-0.003836889	0.001304855	0.06095374	0.00326076	0.3688975	-0.8668948
	-0.00385137	0.00131288	0.04455702	0.02692002	0.3688975	-0.8668948	0.07522417	-0.03855793
1.2e+08	0.06258488	0.0006476763	0.2760063	-0.897497	0.05325493	0.006322078	-0.003726504	0.001608389
	0.2760063	-0.897497	0.07374106	-0.04889212	-0.003713702	0.001596771	0.04845884	0.02427141
	0.05325493	0.006322076	-0.003713703	0.001596769	0.06249243	0.001240524	0.2760532	-0.8983409
	-0.003726505	0.001608387	0.04845884	0.02427141	0.2760532	-0.8983409	0.07410263	-0.04806888
1.3e+08	0.06397344	-0.001406435	0.1809565	-0.9191282	0.0550821	-0.0001299695	-0.003581666	0.001838151
	0.1809565	-0.9191282	0.07103972	-0.05819035	-0.003572008	0.001823461	0.05167128	0.02108347
	0.0550821	-0.0001299707	-0.003572009	0.00182346	0.06394353	-0.0008296027	0.1808647	-0.9199655
	-0.003581667	0.001838149	0.05167128	0.02108347	0.1808647	-0.9199655	0.07151828	-0.05744762
1.4e+08	0.06534902	-0.003576305	0.08453935	-0.9308292	0.0555377	-0.006973023	-0.003443157	0.002006094
	0.08453935	-0.9308292	0.06699458	-0.06707275	-0.003437358	0.001989942	0.05411954	0.0175212
	0.05553769	-0.006973024	-0.003437359	0.001989941	0.06537835	-0.003018162	0.08431834	-0.9316379
	-0.003443158	0.002006093	0.05411954	0.0175212	0.08431834	-0.9316379	0.06755942	-0.06642293
1.5e+08	0.06672849	-0.005932563	-0.01224712	-0.9325588	0.05455658	-0.01392641	-0.003333811	0.002123386
	-0.01224712	-0.9325588	0.06172574	-0.07530914	-0.003331823	0.002106986	0.05576501	0.01375921
	0.05455658	-0.01392641	-0.003331824	0.002106986	0.06681253	-0.005403732	-0.01258623	-0.9333215
	-0.003333812	0.002123385	0.05576501	0.01375921	-0.01258623	-0.9333215	0.06234883	-0.07475609
1.6e+08	0.0680963	-0.008550298	-0.1084043	-0.9243683	0.05212878	-0.02070002	-0.003271679	0.002207071
	-0.1084043	-0.9243683	0.05538548	-0.08269942	-0.003272991	0.002191459	0.05660615	0.009974803
	0.05212878	-0.02070002	-0.003272992	0.002191459	0.06822543	-0.008063418	-0.1088513	-0.9250711
	-0.003271679	0.002207071	0.05660615	0.009974803	-0.1088513	-0.9250711	0.05604192	-0.08224058
1.7e+08	0.06940608	-0.01150096	-0.2029465	-0.9064071	0.04830081	-0.02700536	-0.003268836	0.002278669
	-0.2029465	-0.9064071	0.04815445	-0.08907764	-0.003272727	0.002264575	0.05667798	0.006339329
	0.04830081	-0.02700536	-0.003272728	0.002264574	0.06956604	-0.01106647	-0.2034897	-0.9070371
	-0.003268837	0.002278669	0.05667798	0.006339329	-0.2034897	-0.9070371	0.04882361	-0.0887057
1.8e+08	0.07058321	-0.01484455	-0.2949097	-0.8789167	0.04317478	-0.0325667	-0.003330713	0.00236262
	-0.2949097	-0.8789167	0.04023678	-0.0943153	-0.003336384	0.002350313	0.05605056	0.003011394
	0.04317478	-0.0325667	-0.003336384	0.002350313	0.07075633	-0.01446821	-0.2955364	-0.8794632
	-0.003330713	0.00236262	0.05605056	0.003011394	-0.2955364	-0.8794632	0.0409016	-0.09401921
1.9e+08	0.07152772	-0.01862163	-0.3833567	-0.8422301	0.03690544	-0.03713162	-0.003455293	0.002484709
	-0.3833567	-0.8422301	0.03185256	-0.09832375	-0.003462048	0.002474151	0.05482521	0.0001304598
	0.03690544	-0.03713162	-0.003462048	0.00247415	0.07169513	-0.01830384	-0.3840537	-0.8426862
	-0.003455293	0.002484709	0.05482521	0.0001304599	-0.3840537	-0.8426862	0.03250107	-0.09809028
2e+08	0.07211971	-0.02284578	-0.4673895	-0.7967691	0.02969455	-0.04048074	-0.003633363	0.002669853
	-0.4673895	-0.7967691	0.02323219	-0.1010564	-0.003640772	0.002660653	0.05312932	-0.002190156
	0.02969455	-0.04048074	-0.003640772	0.002660653	0.07226352	-0.02258239	-0.4681441	-0.797126
	-0.003633363	0.002669853	0.05312932	-0.002190156	-0.4681441	-0.797126	0.02385563	-0.1008705
2.1e+08	0.07222749	-0.02749794	-0.5461577	-0.7430408	0.02178399	-0.04243604	-0.003849077	0.002940427
	-0.5461577	-0.7430408	0.01460712	-0.1025098	-0.003856744	0.002932357	0.05111157	-0.003867272
	0.02178399	-0.04243604	-0.003856744	0.002932357	0.07233125	-0.02728031	-0.5469556	-0.7432937
	-0.003849077	0.002940427	0.05111157	-0.003867272	-0.5469556	-0.7432937	0.01520228	-0.1023563
2.2e+08	0.07171507	-0.03252307	-0.6188629	-0.6816314	0.01344722	-0.0428679	-0.004079953	0.003315034
	-0.6188629	-0.6816314	0.006204348	-0.1027223	-0.004087925	0.003307586	0.04893391	-0.00485183
	0.01344722	-0.0428679	-0.004087925	0.003307586	0.07176553	-0.03233905	-0.6196905	-0.6817765
	-0.004079953	0.003315034	0.04893391	-0.00485183	-0.6196905	-0.6817765	0.006771299	-0.1025863
2.3e+08	0.07045267	-0.03782848	-0.684766	-0.6132038	0.004979569	-0.04170063	-0.004298917	0.003806381
	-0.684766	-0.6132038	-0.001762159	-0.1017729	-0.004307242	0.003799412	0.04676484	-0.005131167
	0.004979569	-0.04170063	-0.004307242	0.003799412	0.07043971	-0.0376638	-0.6856104	-0.6132383
	-0.004298917	0.003806381	0.04676484	-0.005131167	-0.6856104	-0.6132383	-0.00121949	-0.1016409
2.4e+08	0.06832609	-0.04328476	-0.7432005	-0.5384903	-0.003311991	-0.03891546	-0.004474493	0.0044213
	-0.7432005	-0.5384903	-0.009098752	-0.09977817	-0.004483653	0.004414476	0.0447717	-0.00472904
	-0.003311991	-0.03891546	-0.004483653	0.004414476	0.06824294	-0.04312303	-0.7440478	-0.5384148
	-0.004474493	0.0044213	0.0447717	-0.00472904	-0.7440478	-0.5384148	-0.008572832	-0.09963867
2.5e+08	0.06524618	-0.04872874	-0.7935718	-0.4582893	-0.01111985	-0.03455193	-0.004573142	0.005158763
	-0.7935718	-0.4582893	-0.01563726	-0.09688774	-0.004583551	0.005152019	0.0431127	-0.003705169
	-0.01111985	-0.03455193	-0.004583551	0.005152019	0.06508977	-0.0485532	-0.7944079	-0.4581025
	-0.004573142	0.005158762	0.0431127	-0.003705169	-0.7944079	-0.4581025	-0.0151181	-0.09673158
2.6e+08	0.06115744	-0.05396966	-0.8353676	-0.3734531	-0.01814702	-0.02870778	-0.004560847	0.006009848
	-0.8353676	-0.3734531	-0.02124223	-0.09327821	-0.004572779	0.006003511	0.04192968	-0.002152408
	-0.01814702	-0.02870778	-0.004572779	0.006003511	0.06092806	-0.05376287	-0.836178	-0.3731586
	-0.004560847	0.006009848	0.04192968	-0.002152408	-0.836178	-0.3731586	-0.02071752	-0.0931001
2.7e+08	0.05604515	-0.05879639	-0.8681611	-0.2848848	-0.02411706	-0.02153546	-0.004404318	0.006957527
	-0.8681611	-0.2848848	-0.02581375	-0.08914776	-0.004418425	0.006951967	0.04134154	-0.000192178
	-0.02411706	-0.02153546	-0.004418426	0.006951967	0.05574657	-0.05854136	-0.8689342	-0.284486
	-0.004404318	0.006957527	0.04134154	-0.000192178	-0.8689342	-0.284486	-0.02527042	-0.08894567
2.8e+08	0.04994134	-0.06298628	-0.8916208	-0.1935293	-0.02878484	-0.01323809	-0.004073417	0.007976587
	-0.8916208	-0.1935293	-0.02929172	-0.08470869	-0.004089756	0.007972566	0.0414387	0.002030102
	-0.02878484	-0.01323809	-0.004089756	0.007972566	0.04958065	-0.06266731	-0.892344	-0.1930313
	-0.004073417	0.007976587	0.0414387	0.002030102	-0.892344	-0.1930313	-0.02871633	-0.08448403
2.9e+08	0.04292756	-0.06631657	-0.9055125	-0.1003642	-0.03194547	-0.004063163	-0.003542119	0.009034418
	-0.9055125	-0.1003642	-0.0316579	-0.0801792	-0.003560981	0.009032879	0.04227822	0.004352396
	-0.03194547	-0.004063163	-0.003560981	0.009032879	0.04251479	-0.06591897	-0.906174	-0.09977322
	-0.003542119	0.009034418	0.04227822	0.004352396	-0.906174	-0.09977322	-0.03103744	-0.07993731
3e+08	0.03513616	-0.06857516	-0.9097022	-0.006387812	-0.03344148	0.005705777	-0.002791665	0.01009177
	-0.9097022	-0.006387812	-0.03293528	-0.07577589	-0.002812795	0.01009378	0.04388114	0.006602557
	-0.03344148	0.005705777	-0.002812796	0.01009378	0.03468399	-0.06808631	-0.9102899	-0.005710952
	-0.002791665	0.01009177	0.04388114	0.006602557	-0.9102899	-0.005710952	-0.03225817	-0.07552523
3.1e+08	0.02674825	-0.06957235	-0.904163	0.0873906	-0.03316993	0.01575823	-0.001810992	0.01110418
	-0.904163	0.0873906	-0.03318785	-0.07170564	-0.001833542	0.01111057	0.04623145	0.008607346
	-0.03316993	0.01575823	-0.001833542	0.01111057	0.02627194	-0.06898146	-0.9046649	0.08814273
	-0.001810992	0.01110418	0.04623145	0.008607346	-0.9046649	0.08814273	-0.03244479	-0.07145793
3.2e+08	0.01798973	-0.06915143	-0.8889728	0.1799585	-0.03108643	0.02576712	-0.0005983288	0.0120235
	-0.8889728	0.1799585	-0.03251746	-0.06815834	-0.000621241	0.0120352	0.04927582	0.01019918
	-0.03108643	0.02576712	-0.0006212411	0.0120352	0.01750692	-0.06845135	-0.8893807	0.1807779
	-0.0005983289	0.0120235	0.04927582	0.01019918	-0.8893807	0.1807779	-0.03170237	-0.06792742
3.3e+08	0.009124305	-0.06719967	-0.8643164	0.2703193	-0.02720724	0.0353997	0.0008380677	0.01279989
	-0.8643164	0.2703193	-0.03105999	-0.06529923	0.0008156571	0.0128178	0.05292575	0.01122469
	-0.02720724	0.0353997	0.0008156571	0.0128178	0.008654315	-0.06638597	-0.8646218	0.2711928
	0.0008380676	0.01279989	0.05292575	0.01122469	-0.8646218	0.2711928	-0.03016963	-0.06510079
3.4e+08	0.0004448394	-0.06365666	-0.8304868	0.3574961	-0.02161044	0.04432949	0.00247825	0.01338457
	-0.8304868	0.3574961	-0.02897966	-0.06326364	0.002458488	0.01340871	0.05706204	0.01155197
	-0.02161044	0.04432949	0.002458488	0.01340871	7.780379e-06	-0.06272889	-0.8306832	0.3584138
	0.00247825	0.01338457	0.05706204	0.01155197	-0.8306832	0.3584138	-0.02801501	-0.06311379
3.5e+08	-0.00773818	-0.05852109	-0.7878798	0.4405537	-0.01443339	0.05224689	0.004292313	0.01373174
	-0.7878798	0.4405537	-0.02646305	-0.06215122	0.004277018	0.01376184	0.06153906	0.01107599
	-0.01443339	0.05224689	0.004277018	0.01376184	-0.008121391	-0.0574822	-0.7879601	0.441498
	0.004292313	0.01373174	0.06153906	0.01107599	-0.7879601	0.441498	-0.02542828	-0.06206678
3.6e+08	-0.01510866	-0.05185476	-0.7369904	0.5186	-0.005869552	0.05887068	0.00623984	0.01380127
	-0.7369904	0.5186	-0.02371088	-0.06202373	0.006230727	0.01383683	0.06619159	0.009724589
	-0.005869552	0.05887068	0.006230727	0.01383683	-0.01541753	-0.0507123	-0.7369507	0.5195569
	0.00623984	0.01380127	0.06619159	0.009724589	-0.7369507	0.5195569	-0.02261418	-0.06201964
3.7e+08	-0.02135869	-0.0437848	-0.6784051	0.5908057	0.003838033	0.06395816	0.008271229	0.01356142
	-0.6784051	0.5908057	-0.02093064	-0.06290158	0.008270233	0.01360086	0.07084243	0.007461278
	0.003838033	0.06395816	0.008270233	0.01360086	-0.02157384	-0.04255028	-0.678244	0.591761
	0.008271229	0.01356142	0.07084243	0.007461278	-0.678244	0.591761	-0.01978373	-0.06299149
3.8e+08	-0.02620166	-0.03450161	-0.6127971	0.6564125	0.01440425	0.06731327	0.01033042	0.01298983
	-0.6127971	0.6564125	-0.01832818	-0.06476446	0.01033852	0.01303179	0.07530979	0.004286937
	0.01440425	0.06731327	0.01033852	0.01303179	-0.0263053	-0.03319034	-0.6125142	0.6573478
	0.01033042	0.01298983	0.07530979	0.004286937	-0.6125142	0.6573478	-0.01714549	-0.06495979
3.9e+08	-0.02938519	-0.02425581	-0.5409169	0.7147387	0.02551084	0.0687948	0.01235544	0.01207729
	-0.5409169	0.7147387	-0.01610025	-0.06755339	0.01237406	0.01211863	0.07941585	0.0002400711
	0.02551084	0.0687948	0.01237406	0.01211863	-0.02936308	-0.02288701	-0.5405166	0.7156403
	0.01235544	0.01207729	0.07941585	0.0002400711	-0.5405166	0.7156403	-0.01489885	-0.06786146
4e+08	-0.03070477	-0.01335034	-0.4635819	0.7651934	0.03681783	0.06832094	0.01428312	0.0108261
	-0.4635819	0.7651934	-0.01442638	-0.07117216	0.01431238	0.01086468	0.08299419	-0.004605227
	0.03681783	0.06832094	0.01431238	0.01086468	-0.03054562	-0.01194573	-0.4630667	0.7660445
	0.01428312	0.0108261	0.08299419	-0.004605227	-0.4630667	0.7660445	-0.01322449	-0.07159733
4.1e+08	-0.03001416	-0.002130762	-0.381658	0.8072803	0.04797412	0.06587292	0.01605092	0.009252435
	-0.381658	0.8072803	-0.01346226	-0.07549257	0.0160903	0.009285556	0.08589755	-0.01014232
	0.04797412	0.06587292	0.0160903	0.009285556	-0.02971068	-0.0007148496	-0.3810353	0.8080672
	0.01605092	0.009252435	0.08589755	-0.01014232	-0.3810353	0.8080672	-0.01227917	-0.07603507
4.2e+08	-0.02723333	0.009024588	-0.2960617	0.840602	0.05863003	0.06149627	0.01760018	0.007385949
	-0.2960617	0.840602	-0.0133349	-0.08036031	0.01764849	0.007410581	0.0880033	-0.01623787
	0.05863003	0.06149627	0.01764849	0.007410581	-0.02678301	0.01042571	-0.2953418	0.8413099
	0.01760018	0.007385949	0.0880033	-0.01623787	-0.2953418	0.8413099	-0.01218935	-0.08101631
4.3e+08	-0.02235613	0.01972019	-0.207734	0.8648634	0.06844898	0.0552988	0.01887936	0.005266909
	-0.207734	0.8648634	-0.01413742	-0.08560085	0.01893485	0.00528097	0.08921908	-0.02273658
	0.06844898	0.0552988	0.01893485	0.00528097	-0.02176124	0.02108006	-0.2069274	0.8654806
	0.01887936	0.005266909	0.08921908	-0.02273658	-0.2069274	0.8654806	-0.01304765	-0.08636266
4.4e+08	-0.01545309	0.02955717	-0.1176352	0.8798732	0.07711855	0.04744771	0.01984645	0.0029464
	-0.1176352	0.8798732	-0.01592715	-0.09102696	0.01990636	0.002947668	0.08948562	-0.02946928
	0.07711855	0.04744771	0.01990636	0.002947668	-0.0147209	0.03084911	-0.1167554	0.8803894
	0.01984645	0.0029464	0.08948562	-0.02946928	-0.1167554	0.8803894	-0.01490886	-0.09188326
4.5e+08	-0.006672704	0.03814729	-0.02673482	0.8855422	0.08436147	0.03816379	0.02047104	0.0004826266
	-0.02673482	0.8855422	-0.01872394	-0.09644612	0.02053236	0.0004698153	0.08877932	-0.03625942
	0.08436147	0.03816379	0.02053236	0.0004698153	-0.005815417	0.039346	-0.02579565	0.8859493
	0.02047104	0.0004826266	0.08877932	-0.03625942	-0.02579565	0.8859493	-0.01779028	-0.09738244
4.6e+08	0.003761204	0.04512942	0.06400451	0.8818831	0.08994437	0.02771368	0.02073566	-0.002062211
	0.06400451	0.8818831	-0.02251049	-0.101668	0.02079511	-0.002089221	0.087112	-0.04293132
	0.08994437	0.02771368	0.02079511	-0.002089221	0.004726913	0.04621224	0.0649895	0.8821747
	0.02073566	-0.002062211	0.087112	-0.04293132	0.0649895	0.8821747	-0.02167142	-0.1026673
4.7e+08	0.01555434	0.05018553	0.1536401	0.8690091	0.09368563	0.01640065	0.02063681	-0.004623596
	0.1536401	0.8690091	-0.02723421	-0.1065103	0.02069074	-0.004664674	0.08452976	-0.0493166
	0.09368563	0.01640065	0.02069074	-0.004664674	0.01660749	0.05113161	0.1546542	0.8691802
	0.02063681	-0.004623596	0.08452976	-0.0493166	0.1546542	0.8691802	-0.02649553	-0.1075542
4.8e+08	0.02835112	0.05305091	0.2412495	0.8471195	0.09546024	0.004554944	0.02018404	-0.007140643
	0.2412495	0.8471195	-0.03280946	-0.1108072	0.02022919	-0.007193968	0.08111019	-0.05526147
	0.09546024	0.004554944	0.02022919	-0.007193968	0.02946654	0.05384418	0.2422782	0.8471717
	0.02018404	-0.007140643	0.08111019	-0.05526147	0.2422782	0.8471717	-0.03217317	-0.1118761
4.9e+08	0.04174305	0.05352864	0.3259428	0.8165103	0.09520413	-0.007478021	0.01939965	-0.009556204
	0.3259428	0.8165103	-0.03912251	-0.1144128	0.01943288	-0.009620051	0.07695856	-0.06063227
	0.09520413	-0.007478021	0.01943288	-0.009620051	0.04289329	0.05415711	0.3269738	0.8164426
	0.01939965	-0.009556204	0.07695856	-0.06063227	0.3269738	0.8164426	-0.03858634	-0.1154877
5e+08	0.05528433	0.05150013	0.4068804	0.7775561	0.09291407	-0.01934847	0.01831554	-0.01182256
	0.4068804	0.7775561	-0.04603611	-0.1172073	0.0183348	-0.01189365	0.07220263	-0.06532032
	0.09291407	-0.01934847	0.0183348	-0.01189365	0.0564392	0.05195617	0.4078965	0.7773709
	0.01831554	-0.01182256	0.07220263	-0.06532032	0.4078965	0.7773709	-0.04559332	-0.1182699
5.1e+08	0.06850451	0.0469294	0.4832605	0.730707	0.08864781	-0.03071275	0.01697265	-0.01390099
	0.4832605	0.730707	-0.05339419	-0.1190995	0.01697631	-0.01397589	0.066987	-0.06924575
	0.08864781	-0.03071275	0.0169763	-0.01397589	0.069633	0.04721144	0.4842512	0.7304097
	0.01697265	-0.01390099	0.066987	-0.06924575	0.4842512	0.7304097	-0.05303453	-0.1201336
5.2e+08	0.08092555	0.03987114	0.5543396	0.6764872	0.08252075	-0.04124556	0.01541571	-0.01576524
	0.5543396	0.6764872	-0.06102871	-0.1200297	0.01540286	-0.01584047	0.06146723	-0.07235957
	0.08252075	-0.04124556	0.01540286	-0.01584047	0.08199611	0.03998234	0.555293	0.6760806
