!$
! Info: Touchstone file created by Circ.  Input file=Intel_C2M_200G_9p0in_202208016_staggered.circ
!$
# Hz S RI R 50
0	0.029316	4.721744e-24	0.970486	-8.055645e-24	0.0001301159	3.188218e-22	-0.0002596949	3.180346e-20
	0.970486	-8.052414e-24	0.02986634	8.481552e-24	-0.0002597506	3.181027e-20	0.0003513583	1.094769e-21
	0.0001301723	3.189463e-22	-0.0002598853	3.182677e-20	0.02931399	4.467657e-24	0.9704862	-8.221483e-24
	-0.0002598297	3.181996e-20	0.0003514234	1.095545e-21	0.9704862	-8.224719e-24	0.02986777	8.684204e-24
1e+07	0.03595255	0.009836883	0.9562464	-0.1296253	0.002455443	0.007205323	-0.001568954	-0.0008454142
	0.9562464	-0.1296253	0.03653839	0.009485227	-0.001569431	-0.0008449492	0.00225853	0.007273045
	0.002455443	0.007205323	-0.001569431	-0.0008449492	0.03565881	0.009651813	0.9565523	-0.1294171
	-0.001568954	-0.0008454142	0.00225853	0.007273045	0.9565523	-0.1294171	0.03623026	0.009310465
2e+07	0.04347935	0.0136926	0.9258023	-0.2510696	0.005563045	0.01305855	-0.002089438	-0.0008608917
	0.9258023	-0.2510696	0.04578418	0.01251511	-0.002090099	-0.0008588711	0.004769382	0.01343467
	0.005563052	0.01305854	-0.002090108	-0.0008589799	0.0430156	0.01353431	0.9263059	-0.2508847
	-0.002089445	-0.0008609943	0.004769473	0.01343456	0.9263059	-0.2508847	0.04527837	0.01241157
3e+07	0.04980845	0.01422192	0.8821196	-0.3651297	0.01011533	0.01795435	-0.002578974	-0.00072892
	0.8821196	-0.3651297	0.05411416	0.01116631	-0.002578824	-0.0007248018	0.008540696	0.01879911
	0.01011532	0.01795439	-0.002578866	-0.0007247941	0.04923104	0.01416257	0.8827579	-0.3650482
	-0.002578988	-0.0007289231	0.008540671	0.01879908	0.8827579	-0.3650482	0.05349936	0.01121426
4e+07	0.05504937	0.01307451	0.8255192	-0.4717141	0.01583388	0.02138626	-0.002988132	-0.0004360215
	0.8255192	-0.4717141	0.06180498	0.007305967	-0.002985801	-0.0004300853	0.01326235	0.02314736
	0.01583388	0.02138628	-0.002985805	-0.0004300801	0.05440883	0.01313685	0.8262432	-0.4717745
	-0.002988132	-0.0004360078	0.01326235	0.02314736	0.8262432	-0.4717745	0.0611456	0.007538965
5e+07	0.05935271	0.01091386	0.7568324	-0.5696817	0.02229263	0.0231456	-0.003277684	-2.123256e-05
	0.7568324	-0.5696817	0.06858056	0.0012949	-0.003272103	-1.4559e-05	0.0186859	0.02628177
	0.02229263	0.02314561	-0.0032721	-1.455996e-05	0.05868782	0.01110732	0.7575964	-0.5699067
	-0.003277681	-2.123397e-05	0.0186859	0.02628178	0.7575964	-0.5699067	0.06793908	0.00172198
6e+07	0.06279876	0.008100975	0.6771418	-0.6578262	0.02904431	0.02309636	-0.003422927	0.0004602583
	0.6771418	-0.6578262	0.07410485	-0.006483494	-0.003413582	0.0004661863	0.02449873	0.02809864
	0.02904432	0.02309634	-0.003413579	0.0004661848	0.06214361	0.008426233	0.677901	-0.6582267
	-0.003422924	0.0004602574	0.02449873	0.02809864	0.677901	-0.6582267	0.0735384	-0.005871662
7e+07	0.06547516	0.004911154	0.5877014	-0.7350204	0.0356172	0.0212171	-0.00342129	0.0009517903
	0.5877014	-0.7350204	0.07811363	-0.01564578	-0.003408309	0.0009551731	0.03037881	0.02857429
	0.0356172	0.02121709	-0.00340828	0.00095511	0.06485996	0.005361928	0.5884103	-0.7355975
	-0.003421288	0.0009517876	0.03037882	0.02857429	0.5884103	-0.7355975	0.07767123	-0.01487328
8e+07	0.06750793	0.001540787	0.4898997	-0.800267	0.04154878	0.01760255	-0.003288678	0.001403012
	0.4898997	-0.800267	0.08040374	-0.02580301	-0.003273016	0.001402153	0.03601119	0.02776189
	0.04154878	0.01760256	-0.003273016	0.001402155	0.06695966	0.002105977	0.490515	-0.8010148
	-0.003288678	0.001403015	0.03601119	0.02776189	0.490515	-0.8010148	0.08012553	-0.02490519
9e+07	0.06904472	-0.001894385	0.3852285	-0.8527287	0.04641313	0.0124568	-0.003055679	0.001774915
	0.3852285	-0.8527287	0.0808437	-0.03654776	-0.003039069	0.001768492	0.04110702	0.02578761
	0.04641313	0.0124568	-0.003039064	0.0017685	0.06858821	-0.001228257	0.3857026	-0.8536318
	-0.003055677	0.001774924	0.04110701	0.02578761	0.3857026	-0.8536318	0.08076125	-0.03556773
1e+08	0.07028548	-0.005330568	0.2751793	-0.8917606	0.0498455	0.006076739	-0.002763662	0.002046048
	0.2751793	-0.8917606	0.07944273	-0.0474545	-0.002748884	0.002033332	0.045422	0.02283766
	0.04984549	0.006076738	-0.002748884	0.002033331	0.06995685	-0.004570888	0.2754484	-0.8928011
	-0.002763662	0.002046047	0.045422	0.02283766	0.2754484	-0.8928011	0.07959352	-0.04644371
1.1e+08	0.07121628	-0.009134977	0.1615486	-0.9164126	0.0515383	-0.001157182	-0.002436538	0.002202278
	0.1615486	-0.9164126	0.07609963	-0.05841355	-0.002424642	0.002185659	0.04873703	0.01915656
	0.0515383	-0.001157184	-0.002424642	0.002185657	0.07105723	-0.008431662	0.1615836	-0.9174716
	-0.002436539	0.002202277	0.04873703	0.01915656	0.1615836	-0.9174716	0.07645629	-0.05747665
1.2e+08	0.07167392	-0.01300216	0.04638631	-0.9268148	0.05132509	-0.008738166	-0.00214449	0.002228652
	0.04638631	-0.9268148	0.07071577	-0.06866913	-0.00213715	0.002208911	0.05094648	0.01504821
	0.05132509	-0.008738167	-0.002137151	0.00220891	0.07159937	-0.01234576	0.04621975	-0.9278503
	-0.002144491	0.00222865	0.05094648	0.01504821	0.04621975	-0.9278503	0.07121703	-0.06784032
1.3e+08	0.07178494	-0.01694156	-0.06869663	-0.9229889	0.04916168	-0.01620308	-0.001935818	0.002159526
	-0.06869663	-0.9229889	0.06361601	-0.0777966	-0.001934096	0.00213843	0.05201019	0.01080788
	0.04916167	-0.01620308	-0.001934097	0.002138429	0.07177548	-0.01632173	-0.06904555	-0.9239698
	-0.001935819	0.002159525	0.05201019	0.01080788	-0.06904555	-0.9239698	0.06421477	-0.07709167
1.4e+08	0.07156006	-0.02099691	-0.1820205	-0.9051147	0.04511164	-0.02307813	-0.001843128	0.002038233
	-0.1820205	-0.9051147	0.05512958	-0.08546541	-0.001846713	0.002018023	0.05195985	0.0067325
	0.04511164	-0.02307812	-0.001846714	0.002018022	0.07160624	-0.02041964	-0.182531	-0.9060124
	-0.001843129	0.002038233	0.05195984	0.006732501	-0.182531	-0.9060124	0.05578364	-0.08488501
1.5e+08	0.07096109	-0.02520553	-0.2919306	-0.8735579	0.03934867	-0.02891209	-0.001881842	0.001916393
	-0.2919306	-0.8735579	0.04563135	-0.09143134	-0.001889755	0.001898337	0.05089939	0.003099574
	0.03934867	-0.02891209	-0.001889756	0.001898337	0.07104792	-0.02468111	-0.2925802	-0.874351
	-0.001881843	0.001916393	0.05089939	0.003099574	-0.2925802	-0.874351	0.04630586	-0.09096557
1.6e+08	0.06991355	-0.02958327	-0.3968213	-0.8288696	0.0321501	-0.03330321	-0.002048968	0.001848121
	-0.3968213	-0.8288696	0.03552969	-0.09554104	-0.002059984	0.001832916	0.04899801	0.0001506965
	0.0321501	-0.03330321	-0.002059985	0.001832916	0.07002013	-0.02911874	-0.3975891	-0.829541
	-0.002048969	0.001848121	0.04899801	0.0001506968	-0.3975891	-0.829541	0.0361975	-0.09517282
1.7e+08	0.06831744	-0.03411285	-0.4951645	-0.7717843	0.02388327	-0.0359227	-0.002323357	0.001884335
	-0.4951645	-0.7717843	0.0252485	-0.09773609	-0.002336379	0.001872212	0.04647894	-0.001924476
	0.02388327	-0.0359227	-0.00233638	0.001872212	0.0684204	-0.03370842	-0.4960275	-0.7723202
	-0.002323358	0.001884335	0.04647894	-0.001924476	-0.4960275	-0.7723202	0.02589133	-0.09744412
1.8e+08	0.0660606	-0.03873575	-0.5855265	-0.7032092	0.01498683	-0.03653462	-0.002667742	0.002067602
	-0.5855265	-0.7032092	0.0152083	-0.09805318	-0.002681931	0.00205833	0.04360562	-0.002999383
	0.01498683	-0.03653462	-0.002681931	0.00205833	0.06613723	-0.03838338	-0.5864613	-0.7035989
	-0.002667742	0.002067602	0.04360562	-0.002999383	-0.5864613	-0.7035989	0.01581572	-0.09781393
1.9e+08	0.06303291	-0.04334649	-0.6665863	-0.6242149	0.00594779	-0.03501092	-0.003031571	0.00242768
	-0.6665863	-0.6242149	0.005805758	-0.09661967	-0.003046453	0.002420892	0.04066451	-0.003018222
	0.00594779	-0.03501092	-0.003046453	0.002420892	0.06306437	-0.04303109	-0.6675698	-0.6244537
	-0.003031571	0.00242768	0.04066451	-0.003018222	-0.6675698	-0.6244537	0.006375887	-0.0964103
2e+08	0.0591431	-0.04779171	-0.7371581	-0.5360236	-0.002724678	-0.03134036	-0.003355793	0.002977938
	-0.7371581	-0.5360236	-0.002603839	-0.09364622	-0.003371347	0.00297321	0.03794623	-0.002000379
	-0.002724678	-0.03134036	-0.003371347	0.00297321	0.05911623	-0.04749395	-0.7381664	-0.536106
	-0.003355794	0.002977938	0.03794623	-0.002000379	-0.7381664	-0.536106	-0.002066982	-0.09344563
2.1e+08	0.05433583	-0.05187574	-0.7962094	-0.4399938	-0.01052668	-0.02563145	-0.003578085	0.003713508
	-0.7962094	-0.4399938	-0.00972546	-0.08941539	-0.00359423	0.003710794	0.03572777	-3.849263e-05
	-0.01052668	-0.02563145	-0.00359423	0.003710794	0.05424389	-0.05157303	-0.7972187	-0.43992
	-0.003578085	0.003713508	0.03572777	-3.849256e-05	-0.7972187	-0.43992	-0.009210958	-0.08920667
2.2e+08	0.04860549	-0.05536969	-0.8428752	-0.3376028	-0.01698738	-0.01810912	-0.003637455	0.004610911
	-0.8428752	-0.3376028	-0.01533613	-0.08426618	-0.003654487	0.004610267	0.0342533	0.002706994
	-0.01698738	-0.01810912	-0.003654487	0.004610267	0.04844885	-0.05503907	-0.8438628	-0.3373753
	-0.003637455	0.004610911	0.0342533	0.002706994	-0.8438628	-0.3373753	-0.01482965	-0.08403719
2.3e+08	0.04200867	-0.05802648	-0.8764743	-0.230429	-0.02169572	-0.009104956	-0.003480769	0.005628848
	-0.8764743	-0.230429	-0.01929695	-0.07857622	-0.003498601	0.005630784	0.03371875	0.006017938
	-0.02169572	-0.009104955	-0.003498601	0.005630784	0.04179371	-0.0576463	-0.8774186	-0.2300522
	-0.003480769	0.005628848	0.03371875	0.006017938	-0.8774186	-0.2300522	-0.01878146	-0.07832054
2.4e+08	0.03467138	-0.05959832	-0.8965275	-0.1201258	-0.02432364	0.0009584112	-0.003066079	0.006711242
	-0.8965275	-0.1201258	-0.02155945	-0.07274185	-0.003084776	0.006716315	0.03425879	0.009633103
	-0.02432364	0.0009584116	-0.003084776	0.006716315	0.03441041	-0.05914924	-0.8974077	-0.1196092
	-0.003066079	0.006711242	0.03425879	0.009633103	-0.8974077	-0.1196092	-0.02101692	-0.07245928
2.5e+08	0.02679147	-0.05985658	-0.9027639	-0.008401324	-0.02464603	0.01158829	-0.002367823	0.007790344
	-0.9027639	-0.008401324	-0.02216624	-0.0671573	-0.002386956	0.007799215	0.03593747	0.01326445
	-0.02464603	0.01158829	-0.002386956	0.007799215	0.02650114	-0.05932344	-0.9035588	-0.007754652
	-0.002367823	0.007790344	0.03593747	0.01326445	-0.9035588	-0.007754652	-0.02157952	-0.06685292
2.6e+08	0.01863463	-0.05861265	-0.8951285	0.1030144	-0.02255562	0.022247	-0.001379365	0.008791909
	-0.8951285	0.1030144	-0.02124889	-0.06219266	-0.001397878	0.008805243	0.03874399	0.01661601
	-0.02255562	0.022247	-0.001397878	0.008805243	0.01833542	-0.05798464	-0.8958197	0.1037755
	-0.001379365	0.008791909	0.03874399	0.01661601	-0.8958197	0.1037755	-0.02060319	-0.06187756
2.7e+08	0.01052527	-0.05573722	-0.8737869	0.2123938	-0.01807056	0.03237966	-0.0001139182	0.009640263
	-0.8737869	0.2123938	-0.01901853	-0.05817555	-0.0001308394	0.009658546	0.04259317	0.01940371
	-0.01807056	0.03237966	-0.0001308395	0.009658545	0.01024002	-0.055009	-0.8743595	0.2132541
	-0.0001139182	0.009640263	0.04259317	0.01940371	-0.8743595	0.2132541	-0.01830309	-0.05786467
2.8e+08	0.00283223	-0.05117764	-0.839127	0.3180447	-0.01133696	0.04144409	0.001394936	0.01026404
	-0.839127	0.3180447	-0.01575417	-0.05537338	0.001381341	0.01028728	0.04733102	0.02137291
	-0.01133696	0.04144409	0.001381341	0.01028728	0.002584624	-0.05034985	-0.8395673	0.3189857
	0.001394936	0.01026404	0.04733102	0.02137291	-0.8395673	0.3189857	-0.01496295	-0.05508447
2.9e+08	-0.004051461	-0.04497089	-0.7917511	0.4183392	-0.002623535	0.04894007	0.003095776	0.0106014
	-0.7917511	0.4183392	-0.01178647	-0.05397925	0.003087027	0.0106293	0.05274441	0.02231563
	-0.002623535	0.04894007	0.003087027	0.0106293	-0.004237654	-0.04404973	-0.7920482	0.4193404
	0.003095776	0.0106014	0.05274441	0.02231563	-0.7920482	0.4193404	-0.01091871	-0.05373184
3e+08	-0.009731115	-0.03725138	-0.7324638	0.5117439	0.007690696	0.05443668	0.004921261	0.01060544
	-0.7324638	0.5117439	-0.007477714	-0.05410314	0.004919052	0.01063699	0.05857523	0.02208287
	0.007690696	0.05443668	0.004919052	0.01063699	-0.009833789	-0.03624876	-0.7326092	0.5127835
	0.004921261	0.01060544	0.05857523	0.02208287	-0.7326092	0.5127835	-0.006538244	-0.05391646
3.1e+08	-0.01383561	-0.02825249	-0.662259	0.5968494	0.0191344	0.05759711	0.00679362	0.01024743
	-0.662259	0.5968494	-0.003201962	-0.05576723	0.006799434	0.01028067	0.06453735	0.02059495
	0.0191344	0.05759711	0.006799434	0.01028067	-0.01383493	-0.02718567	-0.6622484	0.5979022
	0.00679362	0.01024743	0.06453735	0.02059495	-0.6622484	0.5979022	-0.002201202	-0.05565899
3.2e+08	-0.01604221	-0.01830194	-0.5823007	0.6723889	0.03116758	0.05819775	0.008629733	0.009519255
	-0.5823007	0.6723889	0.0006760465	-0.05890676	0.008644494	0.009551926	0.07033442	0.01784459
	0.03116758	0.05819775	0.008644494	0.009551926	-0.01592298	-0.01719337	-0.5821329	0.6734338
	0.008629733	0.009519255	0.07033442	0.01784459	-0.5821329	0.6734338	0.001723001	-0.05889142
3.3e+08	-0.01610142	-0.007810396	-0.4938948	0.7372663	0.04320912	0.05614125	0.01034713	0.008433892
	-0.4938948	0.7372663	0.0038209	-0.0633754	0.01037077	0.008463876	0.07567845	0.01389717
	0.04320912	0.05614125	0.01037077	0.008463876	-0.01585311	-0.006686277	-0.4935741	0.7382787
	0.01034713	0.008433891	0.07567845	0.01389717	-0.4935741	0.7382787	0.004895548	-0.06346314
3.4e+08	-0.01385779	0.002745636	-0.3984708	0.7905672	0.05466708	0.05146381	0.01186932	0.007025479
	-0.3984708	0.7905672	0.005944295	-0.06895565	0.01190142	0.007049571	0.08030837	0.00888576
	0.05466708	0.05146381	0.01190142	0.007049571	-0.0134763	0.003856622	-0.3980026	0.7915269
	0.01186932	0.007025479	0.08030837	0.00888576	-0.3980026	0.7915269	0.007025494	-0.06915137
3.5e+08	-0.009266794	0.01284708	-0.2975456	0.8315764	0.06496896	0.04433373	0.01313222	0.005345192
	-0.2975456	0.8315764	0.006819139	-0.07537264	0.01317112	0.005360797	0.08400453	0.003000822
	0.06496896	0.04433373	0.01317112	0.005360797	-0.008754143	0.01391469	-0.2969416	0.8324586
	0.01313221	0.005345192	0.08400453	0.003000822	-0.2969416	0.8324586	0.007885211	-0.07567588
3.6e+08	-0.002405478	0.02195857	-0.1927017	0.859777	0.0735917	0.03504427	0.01408765	0.003457842
	-0.1927017	0.859777	0.006290574	-0.0823112	0.01413103	0.0034632	0.08660165	-0.003521493
	0.0735917	0.03504427	0.01413102	0.0034632	-0.001771226	0.0229529	-0.191975	0.8605635
	0.01408765	0.003457842	0.08660165	-0.003521493	-0.191975	0.8605635	0.007320525	-0.08271517
3.7e+08	0.006522429	0.02955835	-0.08555394	0.8748576	0.08008878	0.02399863	0.01470666	0.001436814
	-0.08555394	0.8748576	0.004281721	-0.0894332	0.01475146	0.001430335	0.08799742	-0.01041527
	0.08008878	0.02399863	0.01475146	0.001430335	0.007261915	0.03045139	-0.0847202	0.8755334
	0.01470666	0.001436814	0.08799742	-0.01041527	-0.0847202	0.8755334	0.005256729	-0.08992633
3.8e+08	0.01719017	0.035168	0.02227476	0.8767102	0.08411211	0.01168984	0.01498065	-0.0006432907
	0.02227476	0.8767102	0.000795523	-0.09639699	0.01502346	-0.0006612664	0.08815664	-0.01740117
	0.08411211	0.01168984	0.01502346	-0.0006612664	0.01801212	0.03593501	0.0231964	0.8772598
	0.01498065	-0.0006432906	0.08815664	-0.01740117	0.0231964	0.8772598	0.001700657	-0.09696311
3.9e+08	0.02915673	0.03838168	0.1291753	0.8654216	0.08543023	-0.001323303	0.01492083	-0.002710046
	0.1291753	0.8654216	-0.004088311	-0.1028758	0.01495799	-0.002739602	0.08711211	-0.02420318
	0.08543023	-0.001323303	0.01495799	-0.002739602	0.0300324	0.03900369	0.1301655	0.8658381
	0.01492083	-0.002710046	0.08711211	-0.02420318	0.1301655	0.8658381	-0.003263334	-0.1034949
4e+08	0.04188486	0.03889452	0.2335784	0.8412699	0.08393851	-0.01444478	0.01455533	-0.004701889
	0.2335784	0.8412699	-0.01021937	-0.1085736	0.01458391	-0.004740686	0.08496024	-0.03056457
	0.08393851	-0.01444478	0.01458391	-0.004740686	0.04278158	0.03935833	0.2346178	0.8415439
	0.01455533	-0.004701889	0.08496024	-0.03056457	0.2346178	0.8415439	-0.009479091	-0.1092238
4.1e+08	0.05476475	0.03652502	0.3339787	0.8047063	0.07966389	-0.02706954	0.01392564	-0.006570593
	0.3339787	0.8047063	-0.0173871	-0.1132395	0.01394318	-0.006615652	0.0818542	-0.03626206
	0.07966389	-0.02706954	0.01394318	-0.006615652	0.05564644	0.03682466	0.335048	0.8048351
	0.01392564	-0.006570593	0.0818542	-0.03626206	0.335048	0.8048351	-0.01673028	-0.1138985
4.2e+08	0.06714107	0.03123194	0.4289407	0.7563537	0.07276306	-0.03861283	0.01308142	-0.008284329
	0.4289407	0.7563537	-0.02533291	-0.1166798	0.01308623	-0.008332339	0.07799346	-0.04111877
	0.07276306	-0.03861283	0.01308623	-0.008332339	0.06797027	0.0313695	0.4300188	0.7563365
	0.01308142	-0.008284329	0.07799346	-0.04111877	0.4300188	0.7563365	-0.02475177	-0.1173263
4.3e+08	0.07834815	0.02312595	0.5171244	0.6969849	0.06351319	-0.04853721	0.01207349	-0.009830288
	0.5171244	0.6969849	-0.03376464	-0.1187657	0.01206563	-0.009877297	0.07361126	-0.04501164
	0.06351319	-0.04853721	0.01206563	-0.009877297	0.07908807	0.02311153	0.5181934	0.6968231
	0.01207349	-0.009830288	0.07361126	-0.04501164	0.5181934	0.6968231	-0.03324656	-0.119381
4.4e+08	0.08774466	0.01247176	0.597293	0.6275149	0.05229903	-0.05637635	0.0109489	-0.01121233
	0.597293	0.6275149	-0.04237238	-0.119438	0.01092902	-0.01125462	0.06896026	-0.04787889
	0.05229903	-0.05637635	0.01092902	-0.01125462	0.08836016	0.01232358	0.5983346	0.6272122
	0.0109489	-0.01121233	0.06896026	-0.04787889	0.5983346	0.6272122	-0.04189923	-0.1200077
4.5e+08	0.09474889	-0.0003164406	0.6683234	0.5489897	0.03959427	-0.06175598	0.009744564	-0.01244904
	0.6683234	0.5489897	-0.05084376	-0.1187093	0.009714839	-0.01248337	0.06429833	-0.04972158
	0.03959427	-0.06175598	0.009714839	-0.01248337	0.09520884	-0.0005726586	0.6693212	0.5485512
	0.009744564	-0.01244904	0.06429833	-0.04972158	0.6693212	0.5485512	-0.05039405	-0.1192242
4.6e+08	0.09887489	-0.01468952	0.7292204	0.4625709	0.02593977	-0.06440894	0.008482436	-0.01356904
	0.7292204	0.4625709	-0.05888015	-0.1166618	0.008446305	-0.01359291	0.05987279	-0.05060326
	0.02593977	-0.06440894	0.008446305	-0.01359291	0.09915392	-0.01502166	0.730159	0.4620015
	0.008482436	-0.01356904	0.05987279	-0.05060326	0.730159	0.4620015	-0.05843031	-0.1171185
4.7e+08	0.09976563	-0.02998575	0.7791303	0.3695228	0.01191949	-0.06418632	0.007168188	-0.01460444
	0.7791303	0.3695228	-0.06621183	-0.1134411	0.007129116	-0.01461668	0.05590612	-0.05064492
	0.01191949	-0.06418632	0.007129116	-0.01461668	0.09984419	-0.03035572	0.7799925	0.3688302
	0.007168188	-0.01460444	0.05590612	-0.05064492	0.7799925	0.3688302	-0.06573729	-0.1138434
4.8e+08	0.09721631	-0.04546088	0.817337	0.2712004	-0.001864004	-0.0610623	0.005788139	-0.01558502
	0.817337	0.2712004	-0.07260945	-0.1092496	0.005750526	-0.01558558	0.05258349	-0.05001821
	-0.001864004	-0.0610623	0.005750526	-0.01558558	0.09708393	-0.04582629	0.8181111	0.2703943
	0.005788139	-0.01558502	0.05258349	-0.05001821	0.8181111	0.2703943	-0.07208758	-0.1096079
4.9e+08	0.091197	-0.06032324	0.8432874	0.1690429	-0.01481564	-0.05513555	0.004313737	-0.01653026
	0.8432874	0.1690429	-0.07789791	-0.1043357	0.00428081	-0.01652072	0.05004103	-0.04893503
	-0.01481564	-0.05513555	0.00428081	-0.01652072	0.09085164	-0.06063965	0.8439588	0.1681302
	0.004313737	-0.01653026	0.05004103	-0.04893503	0.8439588	0.1681302	-0.07730872	-0.1046662
5e+08	0.08186301	-0.07377775	0.8565963	0.06454278	-0.02637151	-0.04662365	0.002702661	-0.01744357
	0.8565963	0.06454278	-0.08196422	-0.09897921	0.002677876	-0.01742672	0.0483575	-0.04763426
	-0.02637151	-0.04662365	0.002677876	-0.01742672	0.081312	-0.07399941	0.8571491	0.06353764
	0.002702661	-0.01744357	0.0483575	-0.04763426	0.8571491	0.06353764	-0.08129198	-0.09930438
5.1e+08	0.06955393	-0.08506689	0.857048	-0.04075352	-0.03602173	-0.03585582	0.0009083028	-0.01830786
	0.857048	-0.04075352	-0.08476253	-0.09347875	0.0008934274	-0.01828726	0.04754888	-0.04636796
	-0.03602173	-0.03585582	0.0008934274	-0.01828726	0.06881493	-0.08515017	0.857471	-0.0418391
	0.0009083028	-0.01830786	0.04754888	-0.04636796	0.857471	-0.0418391	-0.08399801	-0.09382452
5.2e+08	0.05478638	-0.09351716	0.844618	-0.1452742	-0.04333287	-0.02325923	-0.001115155	-0.01908227
	0.844618	-0.1452742	-0.08631841	-0.08813402	-0.001120066	-0.01906197	0.0475668	-0.04538512
	-0.04333287	-0.02325923	-0.001120066	-0.01906197	0.05388606	-0.0934215	0.8448958	-0.1464256
