!$
! Info: Touchstone file created by Circ.  Input file=Intel_C2M_200G_9p0in_202208016_staggered.circ
!$
# Hz S RI R 50
0	0.02930322	4.337089e-24	8.796389e-05	1.305383e-22	0.0001305144	3.216498e-22	8.795714e-05	1.303262e-22
	8.796389e-05	1.305383e-22	0.029316	4.721744e-24	8.796821e-05	1.306524e-22	0.0001301159	3.188218e-22
	0.0001305708	3.217739e-22	8.79682e-05	1.30654e-22	0.02929818	4.54356e-24	8.795942e-05	1.304265e-22
	8.795713e-05	1.303277e-22	0.0001301723	3.189463e-22	8.795942e-05	1.304265e-22	0.02931399	4.467657e-24
1e+07	0.03562551	0.009618895	1.00564e-05	3.746015e-05	0.00244962	0.007150157	1.456524e-05	2.863977e-05
	1.00564e-05	3.746015e-05	0.03595255	0.009836883	1.075757e-05	6.513768e-05	0.002455443	0.007205323
	0.00244962	0.007150157	1.075757e-05	6.513768e-05	0.0359293	0.009886172	1.019115e-05	3.893875e-05
	1.456524e-05	2.863977e-05	0.002455443	0.007205323	1.019115e-05	3.893875e-05	0.03565881	0.009651813
2e+07	0.04296482	0.01347729	1.768331e-05	3.121589e-05	0.00555042	0.01295064	8.750324e-06	2.158371e-05
	1.768331e-05	3.121591e-05	0.04347935	0.0136926	6.143563e-05	7.301042e-05	0.005563045	0.01305855
	0.005550428	0.01295063	6.143563e-05	7.301042e-05	0.04346236	0.01379297	1.937611e-05	3.346233e-05
	8.750323e-06	2.158371e-05	0.005563052	0.01305854	1.937611e-05	3.346233e-05	0.0430156	0.01353431
3e+07	0.04915968	0.01407973	3.00907e-05	2.473697e-05	0.01009304	0.01779795	1.202706e-05	1.857959e-05
	3.009071e-05	2.473696e-05	0.04980845	0.01422192	9.919692e-05	6.168538e-05	0.01011533	0.01795435
	0.01009303	0.01779799	9.919693e-05	6.168538e-05	0.04979945	0.01438039	3.295754e-05	2.689862e-05
	1.202707e-05	1.857959e-05	0.01011532	0.01795439	3.295755e-05	2.689862e-05	0.04923104	0.01416257
4e+07	0.05430627	0.01303928	3.870392e-05	1.619121e-05	0.01580116	0.02118674	1.740463e-05	1.344749e-05
	3.870392e-05	1.619121e-05	0.05504937	0.01307451	0.0001263805	4.041382e-05	0.01583388	0.02138626
	0.01580117	0.02118676	0.0001263805	4.041382e-05	0.05506089	0.01328448	4.250347e-05	1.794526e-05
	1.740463e-05	1.344749e-05	0.01583388	0.02138628	4.250348e-05	1.794526e-05	0.05440883	0.01313685
5e+07	0.05855031	0.01100514	4.385818e-05	6.364708e-06	0.02225089	0.02290864	2.073285e-05	7.668341e-06
	4.385818e-05	6.364707e-06	0.05935271	0.01091386	0.000144008	1.338318e-05	0.02229263	0.0231456
	0.0222509	0.02290865	0.000144008	1.338318e-05	0.0593905	0.01116761	4.83874e-05	7.500007e-06
	2.073285e-05	7.66834e-06	0.02229263	0.02314561	4.83874e-05	7.500005e-06	0.05868782	0.01110732
6e+07	0.06196932	0.008329375	4.579328e-05	-3.929278e-06	0.02899719	0.02282727	2.210512e-05	1.695435e-06
	4.579327e-05	-3.929276e-06	0.06279876	0.008100975	0.0001526301	-1.666044e-05	0.02904431	0.02309636
	0.02899719	0.02282725	0.00015263	-1.666044e-05	0.06286586	0.008389807	5.086187e-05	-3.568899e-06
	2.210512e-05	1.695436e-06	0.02904432	0.02309634	5.086187e-05	-3.568897e-06	0.06214361	0.008426233
7e+07	0.0646489	0.00528092	4.476906e-05	-1.397735e-05	0.03557047	0.02092007	2.169506e-05	-4.04532e-06
	4.476906e-05	-1.397735e-05	0.06547516	0.004911154	0.000152635	-4.763522e-05	0.0356172	0.0212171
	0.03557047	0.02092007	0.000152635	-4.763522e-05	0.0655716	0.005225433	5.01911e-05	-1.451433e-05
	2.169506e-05	-4.04532e-06	0.0356172	0.02121709	5.01911e-05	-1.451433e-05	0.06485996	0.005361928
8e+07	0.06671364	0.002051611	4.110389e-05	-2.31932e-05	0.04151003	0.01727995	1.971513e-05	-9.190118e-06
	4.110389e-05	-2.31932e-05	0.06750793	0.001540787	0.000144468	-7.783051e-05	0.04154878	0.01760255
	0.04151003	0.01727996	0.000144468	-7.783052e-05	0.06763055	0.001871126	4.666081e-05	-2.472766e-05
	1.971513e-05	-9.190118e-06	0.04154878	0.01760256	4.666081e-05	-2.472766e-05	0.06695966	0.002105977
9e+07	0.0683115	-0.001245443	3.506235e-05	-3.114829e-05	0.0463911	0.0121085	1.636879e-05	-1.345633e-05
	3.506235e-05	-3.114829e-05	0.06904472	-0.001894385	0.0001283836	-0.0001059657	0.04641313	0.0124568
	0.04639111	0.01210851	0.0001283836	-0.0001059657	0.06918684	-0.001555777	4.051016e-05	-3.376429e-05
	1.636879e-05	-1.345633e-05	0.04641313	0.0124568	4.051016e-05	-3.376429e-05	0.06858821	-0.001228257
1e+08	0.06965518	-0.004541303	2.606918e-05	-3.780269e-05	0.0498494	0.005699748	1.1425e-05	-1.671907e-05
	2.606918e-05	-3.780269e-05	0.07028548	-0.005330568	0.0001017496	-0.0001322197	0.0498455	0.006076739
	0.0498494	0.005699747	0.0001017496	-0.0001322197	0.07043757	-0.004988379	3.103137e-05	-4.164158e-05
	1.1425e-05	-1.671907e-05	0.04984549	0.006076738	3.103137e-05	-4.164158e-05	0.06995685	-0.004570888
1.1e+08	0.07073557	-0.008285609	1.563971e-05	-3.788027e-05	0.05157696	-0.001569345	6.14794e-06	-1.632932e-05
	1.563971e-05	-3.788027e-05	0.07121628	-0.009134977	6.700567e-05	-0.0001378132	0.0515383	-0.001157182
	0.05157696	-0.001569346	6.700567e-05	-0.0001378132	0.07137717	-0.008849345	1.957696e-05	-4.236884e-05
	6.14794e-06	-1.632932e-05	0.0515383	-0.001157184	1.957696e-05	-4.236884e-05	0.07105723	-0.008431662
1.2e+08	0.07131356	-0.01212624	7.993748e-06	-3.601546e-05	0.05140557	-0.009194647	2.522242e-06	-1.496554e-05
	7.993748e-06	-3.601546e-05	0.07167392	-0.01300216	4.303719e-05	-0.00013492	0.05132509	-0.008738166
	0.05140557	-0.009194648	4.303719e-05	-0.00013492	0.07179243	-0.01272447	1.105593e-05	-4.085818e-05
	2.522242e-06	-1.496554e-05	0.05132509	-0.008738167	1.105593e-05	-4.085818e-05	0.07159937	-0.01234576
1.3e+08	0.07152996	-0.0160559	3.652817e-06	-3.290332e-05	0.04928872	-0.01671555	-3.582293e-07	-1.333224e-05
	3.652818e-06	-3.290332e-05	0.07178494	-0.01694156	3.461073e-05	-0.000125753	0.04916168	-0.01620308
	0.04928871	-0.01671555	3.461073e-05	-0.000125753	0.07186209	-0.0166381	6.522952e-06	-3.77245e-05
	-3.58229e-07	-1.333224e-05	0.04916167	-0.01620308	6.522953e-06	-3.77245e-05	0.07177548	-0.01632173
1.4e+08	0.07139872	-0.02011258	2.141199e-06	-2.898439e-05	0.04528685	-0.02366011	-2.641923e-06	-1.149886e-05
	2.141199e-06	-2.898439e-05	0.07156006	-0.02099691	2.617006e-05	-0.0001169917	0.04511164	-0.02307813
	0.04528685	-0.02366011	2.617006e-05	-0.0001169917	0.07160613	-0.02065599	4.632265e-06	-3.380326e-05
	-2.641923e-06	-1.149886e-05	0.04511164	-0.02307812	4.632265e-06	-3.380326e-05	0.07160624	-0.02041964
1.5e+08	0.07088386	-0.02433008	9.310354e-07	-2.552822e-05	0.03956998	-0.02957822	-2.957176e-06	-9.267501e-06
	9.310357e-07	-2.552822e-05	0.07096109	-0.02520553	1.830811e-05	-0.0001081388	0.03934867	-0.02891209
	0.03956998	-0.02957822	1.830811e-05	-0.0001081388	0.07098166	-0.02482427	3.05943e-06	-3.010411e-05
	-2.957176e-06	-9.267501e-06	0.03934867	-0.02891209	3.05943e-06	-3.010411e-05	0.07104792	-0.02468111
1.6e+08	0.06991285	-0.02872208	9.368785e-08	-2.222197e-05	0.03241129	-0.03406814	-2.748285e-06	-7.259613e-06
	9.368804e-08	-2.222197e-05	0.06991355	-0.02958327	1.126796e-05	-9.912411e-05	0.0321501	-0.03330321
	0.03241129	-0.03406814	1.126796e-05	-9.912411e-05	0.06990932	-0.02915984	1.833281e-06	-2.670026e-05
	-2.748285e-06	-7.259613e-06	0.0321501	-0.03330321	1.833281e-06	-2.670026e-05	0.07002013	-0.02911874
1.7e+08	0.06838762	-0.03327062	-3.387792e-07	-1.908938e-05	0.02417389	-0.03680003	-2.391177e-06	-5.608669e-06
	-3.387791e-07	-1.908938e-05	0.06831744	-0.03411285	5.210548e-06	-8.99678e-05	0.02388327	-0.0359227
	0.02417389	-0.03680003	5.210548e-06	-8.99678e-05	0.06828749	-0.03364296	1.004677e-06	-2.343969e-05
	-2.391177e-06	-5.608669e-06	0.02388327	-0.0359227	1.004677e-06	-2.343969e-05	0.0684204	-0.03370842
1.8e+08	0.0661974	-0.0379164	-3.752731e-07	-1.618579e-05	0.01529235	-0.03753566	-1.835346e-06	-4.142017e-06
	-3.75273e-07	-1.618579e-05	0.0660606	-0.03873575	2.379296e-07	-8.074728e-05	0.01498683	-0.03653462
	0.01529235	-0.03753566	2.379296e-07	-8.074728e-05	0.06600505	-0.03821212	5.762932e-07	-2.037012e-05
	-1.835346e-06	-4.142017e-06	0.01498683	-0.03653462	5.762933e-07	-2.037012e-05	0.06613723	-0.03838338
1.9e+08	0.06323327	-0.04255437	-4.462561e-08	-1.356158e-05	0.006250173	-0.03614357	-1.101624e-06	-2.887069e-06
	-4.462556e-08	-1.356158e-05	0.06303291	-0.04334649	-3.592575e-06	-7.157359e-05	0.00594779	-0.03501092
	0.006250173	-0.03614357	-3.592575e-06	-7.157359e-05	0.06295511	-0.04275999	5.288127e-07	-1.753969e-05
	-1.101624e-06	-2.887069e-06	0.00594779	-0.03501092	5.288127e-07	-1.753969e-05	0.06306437	-0.04303109
2e+08	0.05940458	-0.04703226	6.089265e-07	-1.126558e-05	-0.002446211	-0.03260804	-2.202698e-07	-1.869915e-06
	6.089265e-07	-1.126558e-05	0.0591431	-0.04779171	-6.262628e-06	-6.25789e-05	-0.002724678	-0.03134036
	-0.002446211	-0.03260803	-6.262628e-06	-6.25789e-05	0.05905023	-0.04713413	8.270406e-07	-1.499668e-05
	-2.202698e-07	-1.869915e-06	-0.002724678	-0.03134036	8.270407e-07	-1.499668e-05	0.05911623	-0.04749395
2.1e+08	0.05465597	-0.05115571	1.526269e-06	-9.337309e-06	-0.01029445	-0.02703231	7.699754e-07	-1.1123e-06
	1.526269e-06	-9.337309e-06	0.05433583	-0.05187574	-7.790062e-06	-5.390547e-05	-0.01052668	-0.02563145
	-0.01029445	-0.02703231	-7.790062e-06	-5.390547e-05	0.0542385	-0.05114052	1.420894e-06	-1.278269e-05
	7.699754e-07	-1.1123e-06	-0.01052668	-0.02563145	1.420894e-06	-1.278269e-05	0.05424389	-0.05157303
2.2e+08	0.04898082	-0.05469737	2.639026e-06	-7.807069e-06	-0.01682388	-0.01963543	1.823285e-06	-6.295432e-07
	2.639026e-06	-7.807069e-06	0.04860549	-0.05536969	-8.225832e-06	-4.569808e-05	-0.01698738	-0.01810912
	-0.01682388	-0.01963543	-8.225832e-06	-4.569808e-05	0.04851712	-0.05455422	2.250201e-06	-1.093209e-05
	1.823285e-06	-6.295432e-07	-0.01698738	-0.01810912	2.250201e-06	-1.093209e-05	0.04844885	-0.05503907
2.3e+08	0.04243396	-0.05741128	3.871587e-06	-6.689275e-06	-0.02162212	-0.01074307	2.888399e-06	-4.284801e-07
	3.871587e-06	-6.689275e-06	0.04200867	-0.05802648	-7.656082e-06	-3.808891e-05	-0.02169572	-0.009104956
	-0.02162212	-0.01074307	-7.656082e-06	-3.808891e-05	0.04194324	-0.05713277	3.246532e-06	-9.469033e-06
	2.888399e-06	-4.284801e-07	-0.02169572	-0.009104955	3.246531e-06	-9.469033e-06	0.04179371	-0.0576463
2.4e+08	0.03513887	-0.05905034	5.144939e-06	-5.990784e-06	-0.02435817	-0.0007721696	3.910855e-06	-5.053822e-07
	5.144939e-06	-5.990784e-06	0.03467138	-0.05959832	-6.184248e-06	-3.121171e-05	-0.02432364	0.0009584112
	-0.02435817	-0.0007721696	-6.184248e-06	-3.121171e-05	0.03464243	-0.05863261	4.335255e-06	-8.404141e-06
	3.910855e-06	-5.053822e-07	-0.02432364	0.0009584116	4.335255e-06	-8.404141e-06	0.03441041	-0.05914924
2.5e+08	0.02729033	-0.05938569	6.377561e-06	-5.700624e-06	-0.02480241	0.009789664	4.835497e-06	-8.451571e-07
	6.377561e-06	-5.700624e-06	0.02679147	-0.05985658	-3.946742e-06	-2.517183e-05	-0.02464603	0.01158829
	-0.02480241	0.009789665	-3.946742e-06	-2.517183e-05	0.02680991	-0.05882962	5.44036e-06	-7.731959e-06
	4.835497e-06	-8.451571e-07	-0.02464603	0.01158829	5.44036e-06	-7.731959e-06	0.02650114	-0.05932344
2.6e+08	0.01915071	-0.05822747	7.490288e-06	-5.790828e-06	-0.02284179	0.02040862	5.609662e-06	-1.420459e-06
	7.490288e-06	-5.790828e-06	0.01863463	-0.05861265	-1.098417e-06	-2.006061e-05	-0.02255562	0.022247
	-0.02284179	0.02040862	-1.098417e-06	-2.006061e-05	0.01870804	-0.05753801	6.485546e-06	-7.436882e-06
	5.609662e-06	-1.420459e-06	-0.02255562	0.022247	6.485546e-06	-7.436882e-06	0.01833542	-0.05798464
2.7e+08	0.01104123	-0.05544395	8.409872e-06	-6.217966e-06	-0.0184876	0.0305323	6.186194e-06	-2.192181e-06
	8.409872e-06	-6.217966e-06	0.01052527	-0.05573722	2.186874e-06	-1.59372e-05	-0.01807056	0.03237966
	-0.0184876	0.0305323	2.186874e-06	-1.59372e-05	0.01065686	-0.05463047	7.397883e-06	-7.486492e-06
	6.186194e-06	-2.192181e-06	-0.01807056	0.03237966	7.397884e-06	-7.486492e-06	0.01024002	-0.055009
2.8e+08	0.003328089	-0.05097904	9.072653e-06	-6.923981e-06	-0.01187845	0.03961929	6.526704e-06	-3.110575e-06
	9.072653e-06	-6.923981e-06	0.00283223	-0.05117764	5.725116e-06	-1.282727e-05	-0.01133696	0.04144409
	-0.01187845	0.03961929	5.725116e-06	-1.282727e-05	0.003020164	-0.05005505	8.111915e-06	-7.833348e-06
	6.526704e-06	-3.110575e-06	-0.01133696	0.04144409	8.111915e-06	-7.833348e-06	0.002584624	-0.05034985
2.9e+08	-0.003597566	-0.04486522	9.428015e-06	-7.838069e-06	-0.003275294	0.04716826	6.604455e-06	-4.117416e-06
	9.428015e-06	-7.838069e-06	-0.004051461	-0.04497089	9.329814e-06	-1.072184e-05	-0.002623535	0.04894007
	-0.003275294	0.04716826	9.329814e-06	-1.072184e-05	-0.003813397	-0.04384748	8.57298e-06	-8.416971e-06
	6.604455e-06	-4.117416e-06	-0.002623535	0.04894007	8.57298e-06	-8.416971e-06	-0.004237654	-0.04404973
3e+08	-0.009341691	-0.0372318	9.441353e-06	-8.879552e-06	0.00695033	0.05274528	6.40651e-06	-5.148982e-06
	9.441353e-06	-8.879552e-06	-0.009731115	-0.03725138	1.281937e-05	-9.576813e-06	0.007690696	0.05443668
	0.00695033	0.05274528	1.281937e-05	-9.576813e-06	-0.0094535	-0.0361398	8.740311e-06	-9.166116e-06
	6.40651e-06	-5.148983e-06	0.007690696	0.05443668	8.740311e-06	-9.166116e-06	-0.009833789	-0.03624876
3.1e+08	-0.01353251	-0.02830669	9.096616e-06	-9.961704e-06	0.01833385	0.05600873	5.93516e-06	-6.139745e-06
	9.096616e-06	-9.961704e-06	-0.01383561	-0.02825249	1.602482e-05	-9.314528e-06	0.0191344	0.05759711
	0.01833385	0.05600873	1.602482e-05	-9.314528e-06	-0.0135319	-0.02716205	8.58974e-06	-1.000225e-05
	5.93516e-06	-6.139745e-06	0.0191344	0.05759711	8.58974e-06	-1.000225e-05	-0.01383493	-0.02718567
3.2e+08	-0.01584524	-0.01841216	8.39754e-06	-1.09961e-05	0.03034092	0.05672857	5.208095e-06	-7.026304e-06
	8.39754e-06	-1.09961e-05	-0.01604221	-0.01830194	1.879664e-05	-9.82649e-06	0.03116758	0.05819775
	0.03034092	0.05672857	1.879664e-05	-9.82649e-06	-0.01572889	-0.01723822	8.115185e-06	-1.084324e-05
	5.208095e-06	-7.026304e-06	0.03116758	0.05819775	8.115185e-06	-1.084324e-05	-0.01592298	-0.01719337
3.3e+08	-0.01602692	-0.007953815	7.367918e-06	-1.189736e-05	0.04239459	0.05479968	4.257433e-06	-7.751292e-06
	7.367918e-06	-1.189736e-05	-0.01610142	-0.007810396	2.101111e-05	-1.097827e-05	0.04320912	0.05614125
	0.04239459	0.05479968	2.101111e-05	-1.097827e-05	-0.01579572	-0.006774226	7.329341e-06	-1.160792e-05
	4.257433e-06	-7.751292e-06	0.04320912	0.05614125	7.329341e-06	-1.160792e-05	-0.01585311	-0.006686277
3.4e+08	-0.01391736	0.002596116	6.050578e-06	-1.258802e-05	0.05390526	0.05024949	3.127748e-06	-8.266965e-06
	6.050578e-06	-1.258802e-05	-0.01385779	0.002745636	2.257569e-05	-1.261563e-05	0.05466708	0.05146381
	0.05390526	0.05024949	2.257569e-05	-1.261563e-05	-0.01357738	0.00375851	6.263263e-06	-1.222063e-05
	3.127747e-06	-8.266966e-06	0.05466708	0.05146381	6.263263e-06	-1.222063e-05	-0.0134763	0.003856622
3.5e+08	-0.009466273	0.01272183	4.504919e-06	-1.300295e-05	0.06430079	0.04323697	1.873039e-06	-8.537855e-06
	4.504919e-06	-1.300295e-05	-0.009266794	0.01284708	2.343197e-05	-1.457149e-05	0.06496896	0.04433373
	0.06430079	0.04323697	2.343197e-05	-1.457149e-05	-0.009027562	0.01384549	4.964362e-06	-1.261545e-05
	1.873039e-06	-8.537855e-06	0.06496896	0.04433373	4.964362e-06	-1.261545e-05	-0.008754143	0.01391469
3.6e+08	-0.002744105	0.02189001	2.803525e-06	-1.309303e-05	0.07305631	0.03404594	5.53235e-07	-8.542622e-06
	2.803525e-06	-1.309303e-05	-0.002405478	0.02195857	2.355775e-05	-1.667368e-05	0.0735917	0.03504427
	0.07305631	0.03404594	2.355775e-05	-1.667368e-05	-0.002221422	0.02295598	3.493719e-06	-1.273991e-05
	5.532349e-07	-8.542622e-06	0.0735917	0.03504427	3.493719e-06	-1.273991e-05	-0.001771226	0.0229529
3.7e+08	0.006052626	0.02957951	1.027694e-06	-1.282774e-05	0.07972134	0.02307045	-7.697143e-07	-8.27464e-06
	1.027694e-06	-1.282774e-05	0.006522429	0.02955835	2.296678e-05	-1.875266e-05	0.08008878	0.02399863
	0.07972134	0.02307045	2.296678e-05	-1.875266e-05	0.006641077	0.03057223	1.922119e-06	-1.25577e-05
	-7.697144e-07	-8.27464e-06	0.08008878	0.02399863	1.922119e-06	-1.25577e-05	0.007261915	0.03045139
3.8e+08	0.01660463	0.03531105	-7.373192e-07	-1.219641e-05	0.08394174	0.01079532	-2.035463e-06	-7.741533e-06
	-7.373192e-07	-1.219641e-05	0.01719017	0.035168	2.170688e-05	-2.064885e-05	0.08411211	0.01168984
	0.08394174	0.01079532	2.170688e-05	-2.064885e-05	0.01723809	0.03621871	3.258564e-07	-1.205022e-05
	-2.035463e-06	-7.741533e-06	0.08411211	0.01168984	3.258564e-07	-1.205022e-05	0.01801212	0.03593501
3.9e+08	0.02847847	0.0386763	-2.40725e-06	-1.12083e-05	0.08547806	-0.002227645	-3.188537e-06	-6.963856e-06
	-2.40725e-06	-1.12083e-05	0.02915673	0.03838168	1.985687e-05	-2.221929e-05	0.08543023	-0.001323303
	0.08547806	-0.002227645	1.985687e-05	-2.221929e-05	0.029134	0.0394923	-1.217627e-06	-1.121709e-05
	-3.188537e-06	-6.963856e-06	0.08543023	-0.001323303	-1.217627e-06	-1.121709e-05	0.0300324	0.03900369
4e+08	0.04114417	0.03936614	-3.903445e-06	-9.891209e-06	0.08421603	-0.01540755	-4.180948e-06	-5.972875e-06
	-3.903445e-06	-9.891209e-06	0.04188486	0.03889452	1.752168e-05	-2.334334e-05	0.08393851	-0.01444478
	0.08421603	-0.01540755	1.752168e-05	-2.334334e-05	0.04179867	0.04008811	-2.634219e-06	-1.007525e-05
	-4.180948e-06	-5.972875e-06	0.08393851	-0.01444478	-2.634219e-06	-1.007525e-05	0.04278158	0.03935833
4.1e+08	0.05399862	0.03719318	-5.156842e-06	-8.289181e-06	0.08017173	-0.02814229	-4.97394e-06	-4.808101e-06
	-5.156842e-06	-8.289181e-06	0.05476475	0.03652502	1.482697e-05	-2.39273e-05	0.07966389	-0.02706954
	0.08017173	-0.02814229	1.482697e-05	-2.39273e-05	0.05462879	0.03782323	-3.856672e-06	-8.657277e-06
	-4.97394e-06	-4.808101e-06	0.07966389	-0.02706954	-3.856672e-06	-8.657277e-06	0.05564644	0.03682466
4.2e+08	0.06639219	0.03210837	-6.110998e-06	-6.459162e-06	0.0734902	-0.03984766	-5.538916e-06	-3.514555e-06
	-6.110998e-06	-6.459162e-06	0.06714107	0.03123194	1.191317e-05	-2.390708e-05	0.07276306	-0.03861283
	0.0734902	-0.03984766	1.191317e-05	-2.390708e-05	0.06697587	0.03265322	-4.827686e-06	-7.008762e-06
	-5.538916e-06	-3.514555e-06	0.07276306	-0.03861283	-4.827686e-06	-7.008762e-06	0.06797027	0.0313695
4.3e+08	0.07766346	0.02421298	-6.723995e-06	-4.467395e-06	0.0644369	-0.04998393	-5.85761e-06	-2.140162e-06
	-6.723995e-06	-4.467395e-06	0.07834815	0.02312595	8.928643e-06	-2.32504e-05	0.06351319	-0.04853721
	0.0644369	-0.04998393	8.928643e-06	-2.32504e-05	0.07818054	0.02468309	-5.501947e-06	-5.185288e-06
	-5.85761e-06	-2.140162e-06	0.06351319	-0.04853721	-5.501947e-06	-5.185288e-06	0.07908807	0.02311153
4.4e+08	0.08717327	0.0137608	-6.96941e-06	-2.385672e-06	0.05338533	-0.05807992	-5.921612e-06	-7.335795e-07
	-6.96941e-06	-2.385672e-06	0.08774466	0.01247176	6.023453e-06	-2.195697e-05	0.05229903	-0.05637635
	0.05338533	-0.05807992	6.023453e-06	-2.195697e-05	0.08760569	0.01417012	-5.847281e-06	-3.249299e-06
	-5.921612e-06	-7.335795e-07	0.05229903	-0.05637635	-5.847281e-06	-3.249299e-06	0.08836016	0.01232358
4.5e+08	0.09433962	0.001154034	-6.836103e-06	-2.876881e-07	0.04079912	-0.0637538	-5.731492e-06	6.576568e-07
	-6.836103e-06	-2.876881e-07	0.09474889	-0.0003164406	3.343273e-06	-2.005785e-05	0.03959427	-0.06175598
	0.04079912	-0.0637538	3.343273e-06	-2.005785e-05	0.09467223	0.001519349	-5.844971e-06	-1.266967e-06
	-5.731492e-06	6.576568e-07	0.03959427	-0.06175598	-5.844971e-06	-1.266967e-06	0.09520884	-0.0005726586
4.6e+08	0.09867324	-0.01307072	-6.327337e-06	1.75399e-06	0.02721084	-0.06672869	-5.295704e-06	1.988401e-06
	-6.327337e-06	1.75399e-06	0.09887489	-0.01468952	1.023279e-06	-1.761363e-05	0.02593977	-0.06440894
	0.02721084	-0.06672869	1.023279e-06	-1.761363e-05	0.09889441	-0.01273064	-5.48938e-06	6.944663e-07
	-5.295704e-06	1.988401e-06	0.02593977	-0.06440894	-5.48938e-06	6.944663e-07	0.09915392	-0.01502166
4.7e+08	0.09981042	-0.02826394	-5.459408e-06	3.670387e-06	0.01319844	-0.06684407	-4.629473e-06	3.216714e-06
	-5.459408e-06	3.670387e-06	0.09976563	-0.02998575	-8.172208e-07	-1.471179e-05	0.01191949	-0.06418632
	0.01319844	-0.06684407	-8.172208e-07	-1.471179e-05	0.0999108	-0.02792804	-4.787078e-06	2.568957e-06
	-4.629473e-06	3.216714e-06	0.01191949	-0.06418632	-4.787078e-06	2.568957e-06	0.09984419	-0.03035572
4.8e+08	0.09753626	-0.04369236	-4.25979e-06	5.397846e-06	-0.0006387908	-0.06406141	-3.753813e-06	4.304259e-06
	-4.25979e-06	5.397846e-06	0.09721631	-0.04546088	-2.079207e-06	-1.146306e-05	-0.001864004	-0.0610623
