!$
! Info: Touchstone file created by Circ.  Input file=Intel_C2M_200G_9p0in_202208016_staggered.circ
!$
# Hz S RI R 50
0	0.02986635	8.480854e-24	-0.0001095072	1.341076e-20	0.00035136	1.094763e-21	-0.0001052848	1.289366e-20
	-0.0001095073	1.341078e-20	0.029316	4.721744e-24	-0.0001165126	1.426868e-20	0.0001301159	3.188218e-22
	0.0003514252	1.095539e-21	-0.0001165127	1.426869e-20	0.02986758	8.686515e-24	-0.0001095323	1.341384e-20
	-0.0001052847	1.289366e-20	0.0001301723	3.189463e-22	-0.0001095322	1.341383e-20	0.02931399	4.467657e-24
1e+07	0.03735246	0.009125738	-0.001042027	-3.840742e-06	0.001856637	0.007249798	-8.408441e-05	-0.0001055133
	-0.001042027	-3.840742e-06	0.03595255	0.009836883	-0.0006299873	4.309524e-05	0.002455443	0.007205323
	0.001856637	0.007249798	-0.0006299873	4.309524e-05	0.03669187	0.009423893	-0.0004370657	-8.588238e-05
	-8.408441e-05	-0.0001055133	0.002455443	0.007205323	-0.0004370657	-8.588238e-05	0.03565881	0.009651813
2e+07	0.04597392	0.01174378	-0.0009563541	-0.0002608014	0.004415458	0.01354875	-0.0001186171	-0.0001381747
	-0.000956354	-0.0002608013	0.04347935	0.0136926	-0.0006561894	-0.0001725844	0.005563045	0.01305855
	0.004415549	0.01354864	-0.0006561894	-0.0001725844	0.04576248	0.01242413	-0.0004465341	-0.0001757115
	-0.0001186171	-0.0001381747	0.005563052	0.01305854	-0.0004465342	-0.0001757115	0.0430156	0.01353431
3e+07	0.05384213	0.01044027	-0.0009428146	-0.0003742454	0.00823609	0.01897952	-0.0001679219	-0.0001745061
	-0.0009428146	-0.0003742454	0.04980845	0.01422192	-0.0007111841	-0.0002414722	0.01011533	0.01795435
	0.008236065	0.0189795	-0.0007111841	-0.0002414722	0.05399125	0.01116597	-0.0004996567	-0.0002488939
	-0.0001679219	-0.0001745061	0.01011532	0.01795439	-0.0004996568	-0.0002488939	0.04923104	0.01416257
4e+07	0.06120069	0.006788592	-0.0009678182	-0.0004260284	0.01301164	0.02337304	-0.0002310787	-0.0001983336
	-0.0009678182	-0.0004260284	0.05504937	0.01307451	-0.0007833133	-0.0002621163	0.01583388	0.02138626
	0.01301163	0.02337304	-0.0007833133	-0.0002621163	0.06163198	0.007435743	-0.0005738098	-0.000281751
	-0.0002310787	-0.0001983336	0.01583388	0.02138628	-0.0005738099	-0.000281751	0.05440883	0.01313685
5e+07	0.06777173	0.001073944	-0.001014597	-0.0004376152	0.01849226	0.02653702	-0.000304132	-0.0002113283
	-0.001014597	-0.0004376152	0.05935271	0.01091386	-0.0008611156	-0.0002486109	0.02229263	0.0231456
	0.01849227	0.02653703	-0.0008611156	-0.0002486109	0.06840872	0.001568526	-0.0006582229	-0.0002813048
	-0.000304132	-0.0002113283	0.02229263	0.02314561	-0.0006582229	-0.0002813047	0.05868782	0.01110732
6e+07	0.0732171	-0.00636881	-0.001070746	-0.0004169935	0.02436316	0.0283693	-0.0003807786	-0.0002073573
	-0.001070746	-0.0004169935	0.06279876	0.008100975	-0.0009366828	-0.0002087447	0.02904431	0.02309636
	0.02436316	0.0283693	-0.0009366828	-0.0002087447	0.07398177	-0.006069813	-0.0007434637	-0.0002512785
	-0.0003807786	-0.0002073573	0.02904432	0.02309634	-0.0007434636	-0.0002512784	0.06214361	0.008426233
7e+07	0.07726665	-0.01519468	-0.001133763	-0.0003603856	0.03029974	0.0288472	-0.0004578597	-0.0001868449
	-0.001133763	-0.0003603856	0.06547516	0.004911154	-0.001004665	-0.0001489519	0.0356172	0.0212171
	0.03029975	0.0288472	-0.001004665	-0.0001489519	0.07808055	-0.01510961	-0.0008217699	-0.0001959119
	-0.0004578597	-0.0001868448	0.0356172	0.02121709	-0.0008217699	-0.0001959119	0.06485996	0.005361928
8e+07	0.07970756	-0.02504708	-0.001192902	-0.0002692325	0.03598479	0.02802503	-0.0005326926	-0.0001506537
	-0.001192902	-0.0002692325	0.06750793	0.001540787	-0.001062639	-7.516448e-05	0.04154878	0.01760255
	0.03598479	0.02802503	-0.001062639	-7.516448e-05	0.08049475	-0.02517247	-0.0008872383	-0.0001203967
	-0.0005326926	-0.0001506537	0.04154878	0.01760256	-0.0008872383	-0.0001203967	0.06695966	0.002105977
9e+07	0.08039767	-0.0355465	-0.001229602	-0.0001602041	0.04112726	0.02603038	-0.0006030898	-0.0001000042
	-0.001229602	-0.0001602041	0.06904472	-0.001894385	-0.001111275	7.870072e-06	0.04641313	0.0124568
	0.04112726	0.02603038	-0.001111275	7.870072e-06	0.08108579	-0.03585881	-0.0009373026	-2.718353e-05
	-0.0006030898	-0.0001000042	0.04641313	0.0124568	-0.0009373026	-2.718349e-05	0.06858821	-0.001228257
1e+08	0.07936238	-0.04629778	-0.001224332	-3.615871e-05	0.04548066	0.02305059	-0.0006675442	-3.668865e-05
	-0.001224332	-3.615871e-05	0.07028548	-0.005330568	-0.001153787	9.671628e-05	0.0498455	0.006076739
	0.04548066	0.02305059	-0.001153787	9.671628e-05	0.07986776	-0.046755	-0.0009671707	8.424772e-05
	-0.0006675442	-3.668865e-05	0.04984549	0.006076738	-0.0009671707	8.424772e-05	0.06995685	-0.004570888
1.1e+08	0.07635745	-0.0573476	-0.001211602	0.0001240743	0.04882145	0.01933521	-0.0007225189	3.513093e-05
	-0.001211602	0.0001240743	0.07121628	-0.009134977	-0.001183465	0.0001787545	0.0515383	-0.001157182
	0.04882145	0.01933521	-0.001183465	0.0001787545	0.07666891	-0.05778539	-0.0009796958	0.0001994371
	-0.000722519	3.513093e-05	0.0515383	-0.001157184	-0.0009796958	0.0001994371	0.07105723	-0.008431662
1.2e+08	0.07120441	-0.0677377	-0.001206434	0.0002743509	0.05104766	0.01519168	-0.0007695112	0.0001186871
	-0.001206434	0.0002743509	0.07167392	-0.01300216	-0.001207125	0.000264112	0.05132509	-0.008738166
	0.05104766	0.01519168	-0.001207125	0.000264112	0.07138007	-0.0681327	-0.0009843994	0.0003109498
	-0.0007695112	0.0001186871	0.05132509	-0.008738167	-0.0009843995	0.0003109498	0.07159937	-0.01234576
1.3e+08	0.06426994	-0.0770259	-0.001193609	0.000421315	0.05211952	0.01091656	-0.0008084999	0.0002130578
	-0.001193609	0.000421315	0.07178494	-0.01694156	-0.001229217	0.0003537141	0.04916168	-0.01620308
	0.05211952	0.01091656	-0.001229217	0.0003537141	0.06433707	-0.07736054	-0.0009804717	0.000419602
	-0.0008084999	0.0002130578	0.04916167	-0.01620308	-0.0009804718	0.000419602	0.07177548	-0.01632173
1.4e+08	0.05589271	-0.0848679	-0.001171331	0.0005667209	0.05206947	0.006808404	-0.0008368835	0.0003179612
	-0.001171331	0.0005667209	0.07156006	-0.02099691	-0.001251253	0.0004501737	0.04511164	-0.02307813
	0.05206947	0.006808404	-0.001251253	0.0004501737	0.05587327	-0.08512586	-0.0009703825	0.000526354
	-0.0008368835	0.0003179612	0.04511164	-0.02307812	-0.0009703825	0.000526354	0.07160624	-0.02041964
1.5e+08	0.04645425	-0.091008	-0.001138985	0.0007121292	0.05100256	0.003146161	-0.0008531127	0.000433009
	-0.001138985	0.0007121292	0.07096109	-0.02520553	-0.001272975	0.0005570163	0.03934867	-0.02891209
	0.05100256	0.003146161	-0.001272975	0.0005570163	0.04637034	-0.09117566	-0.0009560451	0.0006335454
	-0.0008531127	0.000433009	0.03934867	-0.02891209	-0.0009560451	0.0006335454	0.07104792	-0.02468111
1.6e+08	0.03636948	-0.09528345	-0.001095624	0.0008591093	0.04908925	0.0001725802	-0.0008552417	0.000557646
	-0.001095624	0.0008591093	0.06991355	-0.02958327	-0.001292137	0.000678237	0.0321501	-0.03330321
	0.04908925	0.0001725805	-0.001292137	0.000678237	0.03624388	-0.09535069	-0.0009380317	0.0007445168
	-0.0008552417	0.000557646	0.0321501	-0.03330321	-0.0009380317	0.0007445168	0.07002013	-0.02911874
1.7e+08	0.02606942	-0.09762855	-0.001039276	0.001007837	0.04655428	-0.00192187	-0.0008409014	0.0006911186
	-0.001039276	0.001007837	0.06831744	-0.03411285	-0.001281162	0.0008534482	0.02388327	-0.0359227
	0.04655428	-0.00192187	-0.001281162	0.0008534482	0.02592615	-0.09758911	-0.00091613	0.0008612538
	-0.0008409014	0.0006911186	0.02388327	-0.0359227	-0.00091613	0.0008612538	0.0684204	-0.03370842
1.8e+08	0.01598207	-0.09807448	-0.0009675783	0.001160404	0.04366263	-0.003010197	-0.0008072589	0.0008319446
	-0.0009675783	0.001160404	0.0660606	-0.03873575	-0.001251152	0.001040161	0.01498683	-0.03653462
	0.04366263	-0.003010197	-0.001251152	0.001040161	0.01584514	-0.0979267	-0.0008864155	0.0009895031
	-0.0008072589	0.0008319446	0.01498683	-0.03653462	-0.0008864155	0.0009895031	0.06613723	-0.03838338
1.9e+08	0.006511783	-0.09674506	-0.0008766941	0.001316592	0.04070232	-0.003036552	-0.000751336	0.0009779156
	-0.0008766941	0.001316592	0.06303291	-0.04334649	-0.001197133	0.001237973	0.00594779	-0.03501092
	0.04070232	-0.003036552	-0.001197133	0.001237973	0.006405603	-0.09649237	-0.0008433262	0.001131426
	-0.000751336	0.0009779156	0.00594779	-0.03501092	-0.0008433262	0.001131426	0.06306437	-0.04303109
2e+08	-0.001978465	-0.0938495	-0.0007624978	0.001474388	0.03796546	-0.002020603	-0.0006702169	0.001125774
	-0.0007624978	0.001474388	0.0591431	-0.04779171	-0.00110738	0.001450089	-0.002724678	-0.03134036
	0.03796546	-0.002020603	-0.00110738	0.001450089	-0.002031875	-0.09349914	-0.0007798508	0.001287034
	-0.0006702169	0.001125774	-0.002724678	-0.03134036	-0.0007798508	0.001287034	0.05911623	-0.04749395
2.1e+08	-0.009186456	-0.08967037	-0.0006204116	0.00163044	0.03573032	-5.56592e-05	-0.0005613724	0.001271238
	-0.0006204116	0.00163044	0.05433583	-0.05187574	-0.0009818423	0.001664912	-0.01052668	-0.02563145
	0.03573032	-5.565913e-05	-0.0009818423	0.001664912	-0.009165881	-0.08923459	-0.0006885064	0.001453811
	-0.0005613724	0.001271238	-0.01052668	-0.02563145	-0.0006885064	0.001453811	0.05424389	-0.05157303
2.2e+08	-0.01488275	-0.08454832	-0.0004467636	0.001779172	0.03424219	0.002696926	-0.0004230358	0.001408959
	-0.0004467636	0.001779172	0.04860549	-0.05536969	-0.0008162498	0.001876111	-0.01698738	-0.01810912
	0.03424219	0.002696926	-0.0008162498	0.001876111	-0.01477069	-0.08404309	-0.0005620489	0.001626247
	-0.0004230358	0.001408959	-0.01698738	-0.01810912	-0.0005620489	0.001626247	0.04844885	-0.05503907
2.3e+08	-0.01892294	-0.07886397	-0.0002393774	0.001913285	0.03369775	0.006017879	-0.0002546292	0.001532717
	-0.0002393774	0.001913285	0.04200867	-0.05802648	-0.0006078347	0.002075638	-0.02169572	-0.009104956
	0.03369775	0.006017879	-0.0006078347	0.002075638	-0.01870544	-0.07830858	-0.0003946899	0.001796006
	-0.0002546292	0.001532717	-0.02169572	-0.009104955	-0.0003946899	0.001796006	0.04179371	-0.0576463
2.4e+08	-0.02125424	-0.07301761	2.004813e-06	0.002024264	0.03423212	0.00964469	-5.707104e-05	0.001635715
	2.004813e-06	0.002024264	0.03467138	-0.05959832	-0.0003556659	0.002254196	-0.02432364	0.0009584112
	0.03423212	0.00964469	-0.0003556659	0.002254196	-0.02092149	-0.0724341	-0.0001830042	0.001952388
	-5.707104e-05	0.001635715	-0.02432364	0.0009584116	-0.0001830042	0.001952388	0.03441041	-0.05914924
2.5e+08	-0.02191623	-0.06740794	0.000275007	0.002103005	0.03590943	0.01328801	0.0001670413	0.001710988
	0.000275007	0.002103005	0.02679147	-0.05985658	-6.11247e-05	0.002401704	-0.02464603	0.01158829
	0.03590943	0.01328801	-6.11247e-05	0.002401704	-0.02146331	-0.06681949	7.3184e-05	0.002083198
	0.0001670413	0.001710988	-0.02464603	0.01158829	7.3184e-05	0.002083198	0.02650114	-0.05932344
2.6e+08	-0.02103888	-0.06240997	0.0005745998	0.002140629	0.03871856	0.01665068	0.0004131853	0.001751985
	0.0005745998	0.002140629	0.01863463	-0.05861265	0.0002718278	0.00250803	-0.02255562	0.022247
	0.03871856	0.01665068	0.0002718278	0.00250803	-0.02046587	-0.06184099	0.0003703538	0.002175758
	0.0004131853	0.001751985	-0.02255562	0.022247	0.0003703538	0.002175758	0.01833542	-0.05798464
2.7e+08	-0.01883297	-0.05835612	0.0008931141	0.002129394	0.04257378	0.01944751	0.0006751916	0.001753004
	0.0008931141	0.002129394	0.01052527	-0.05573722	0.0006365295	0.002563687	-0.01807056	0.03237966
	0.04257378	0.01944751	0.0006365295	0.002563687	-0.01814541	-0.05783006	0.0007011439	0.002218162
	0.0006751916	0.001753004	-0.01807056	0.03237966	0.0007011439	0.002218162	0.01024002	-0.055009
2.8e+08	-0.01557847	-0.05551828	0.001220616	0.002063515	0.04732022	0.02142301	0.0009452664	0.001709821
	0.001220616	0.002063515	0.00283223	-0.05117764	0.00102401	0.002560489	-0.01133696	0.04144409
	0.04732022	0.02142301	0.00102401	0.002560489	-0.01478682	-0.0550566	0.001054612	0.002200534
	0.0009452664	0.001709821	-0.01133696	0.04144409	0.001054612	0.002200534	0.002584624	-0.05034985
2.9e+08	-0.01160801	-0.05409331	0.0015455	0.00193983	0.05274372	0.02236868	0.001214581	0.001620074
	0.0015455	0.00193983	-0.004051461	-0.04497089	0.001423167	0.002492288	-0.002623535	0.04894007
	0.05274372	0.02236868	0.001423167	0.002492288	-0.01072705	-0.05371497	0.001417039	0.002116047
	0.001214581	0.001620074	-0.002623535	0.04894007	0.001417039	0.002116047	-0.004237654	-0.04404973
3e+08	-0.007286609	-0.05419426	0.001855411	0.001758235	0.05858504	0.02213532	0.001473776	0.001483558
	0.001855411	0.001758235	-0.009731115	-0.03725138	0.001821338	0.002355495	0.007690696	0.05443668
	0.05858504	0.02213532	0.001821338	0.002355495	-0.00633492	-0.05391401	0.001772851	0.001961795
	0.001473776	0.001483558	0.007690696	0.05443668	0.001772851	0.001961795	-0.009833789	-0.03624876
3.1e+08	-0.0029917	-0.05584526	0.002138174	0.00152186	0.06455694	0.02064334	0.001713584	0.001302254
	0.002138174	0.00152186	-0.01383561	-0.02825249	0.002205073	0.002149347	0.0191344	0.05759711
	0.06455694	0.02064334	0.002205073	0.002149347	-0.001990804	-0.05567335	0.00210593	0.001739288
	0.001713584	0.001302254	0.0191344	0.05759711	0.00210593	0.001739288	-0.01383493	-0.02718567
3.2e+08	0.0009084066	-0.05898252	0.002382718	0.001236819	0.07036207	0.01788588	0.001925381	0.001080394
	0.002382718	0.001236819	-0.01604221	-0.01830194	0.002560767	0.001876293	0.03116758	0.05819775
	0.07036207	0.01788588	0.002560767	0.001876293	0.001935428	-0.0589238	0.002401022	0.001454284
	0.001925381	0.001080394	0.03116758	0.05819775	0.002401022	0.001454284	-0.01592298	-0.01719337
3.3e+08	0.004074745	-0.06345958	0.002579976	0.0009117181	0.07571158	0.01392903	0.002101868	0.0008239832
	0.002579976	0.0009117181	-0.01610142	-0.007810396	0.002875631	0.001541598	0.04320912	0.05614125
	0.07571158	0.01392903	0.002875631	0.001541598	0.005104821	-0.06351344	0.002644987	0.001116445
	0.002101868	0.0008239832	0.04320912	0.05614125	0.002644987	0.001116445	-0.01585311	-0.006686277
3.4e+08	0.006215767	-0.06905792	0.00272452	0.0005549393	0.08034386	0.008906741	0.002237443	0.0005405096
	0.00272452	0.0005549393	-0.01385779	0.002745636	0.003138153	0.001153464	0.05466708	0.05146381
	0.08034386	0.00890674	0.003138153	0.001153464	0.007226575	-0.06921819	0.002827863	0.0007384658
	0.002237443	0.0005405096	0.05466708	0.05146381	0.002827863	0.0007384658	-0.0134763	0.003856622
3.5e+08	0.007101647	-0.07550075	0.002810997	0.0001799359	0.08403895	0.003010468	0.002328497	0.0002382202
	0.002810997	0.0001799359	-0.009266794	0.01284708	0.003339109	0.0007222732	0.06496896	0.04433373
	0.08403895	0.003010468	0.003339109	0.0007222732	0.008073607	-0.07575661	0.002943543	0.0003349924
	0.002328497	0.0002382202	0.06496896	0.04433373	0.002943543	0.0003349924	-0.008754143	0.01391469
3.6e+08	0.006575546	-0.08247044	0.002838821	-0.0002016996	0.08663156	-0.003522611	0.002373513	-7.43416e-05
	0.002838821	-0.0002016996	-0.002405478	0.02195857	0.00347171	0.0002599487	0.0735917	0.03504427
	0.08663156	-0.003522611	0.00347171	0.0002599487	0.007492465	-0.08280613	0.002990178	-7.875489e-05
	0.002373513	-7.43416e-05	0.0735917	0.03504427	0.002990178	-7.875489e-05	-0.001771226	0.0229529
3.7e+08	0.004559378	-0.08962594	0.002810105	-0.000579263	0.08801966	-0.0104256	0.002372898	-0.0003890723
	0.002810105	-0.000579263	0.006522429	0.02955835	0.003531996	-0.0002205385	0.08008878	0.02399863
	0.08801966	-0.0104256	0.003531996	-0.0002205385	0.005409511	-0.09002299	0.002969967	-0.0004883618
	0.002372898	-0.0003890723	0.08008878	0.02399863	0.002969967	-0.0004883618	0.007261915	0.03045139
3.8e+08	0.001055795	-0.09662257	0.002729253	-0.000943519	0.0881686	-0.01741834	0.002328743	-0.0006985625
	0.002729253	-0.000943519	0.01719017	0.035168	0.003518917	-0.0007059337	0.08411211	0.01168984
	0.0881686	-0.01741834	0.003518917	-0.0007059337	0.001832755	-0.09706042	0.002888634	-0.000881152
	0.002328743	-0.0006985625	0.08411211	0.01168984	0.002888634	-0.000881152	0.01801212	0.03593501
3.9e+08	-0.003854943	-0.1031306	0.002602223	-0.001287336	0.08711191	-0.02422408	0.002244395	-0.0009967089
	0.002602223	-0.001287336	0.02915673	0.03838168	0.003434229	-0.001183578	0.08543023	-0.001323303
	0.08711191	-0.02422408	0.003434229	-0.001183578	-0.003152186	-0.1035875	0.002754585	-0.001247314
	0.002244395	-0.0009967089	0.08543023	-0.001323303	0.002754585	-0.001247314	0.0300324	0.03900369
4e+08	-0.01002109	-0.1088514	0.002435739	-0.001605854	0.08494689	-0.03058572	0.002123991	-0.001278774
	0.002435739	-0.001605854	0.04188486	0.03889452	0.0032821	-0.001642047	0.08393851	-0.01444478
	0.08494689	-0.03058572	0.0032821	-0.001642047	-0.009387819	-0.1093065	0.002577722	-0.001580419
	0.002123991	-0.001278774	0.08393851	-0.01444478	0.002577722	-0.001580419	0.04278158	0.03935833
4.1e+08	-0.01723006	-0.113532	0.002236493	-0.001896462	0.08182767	-0.03627977	0.001971972	-0.001541495
	0.002236493	-0.001896462	0.05476475	0.03652502	0.003068846	-0.002071415	0.07966389	-0.02706954
	0.08182767	-0.03627977	0.003068846	-0.002071415	-0.0166566	-0.1139662	0.002368396	-0.001877422
	0.001971972	-0.001541495	0.07966389	-0.02706954	0.002368396	-0.001877422	0.05564644	0.03682466
4.2e+08	-0.02522083	-0.1169771	0.002010484	-0.002158447	0.07795472	-0.0411294	0.001792629	-0.001782944
	0.002010484	-0.002158447	0.06714107	0.03123194	0.002802032	-0.002464098	0.07276306	-0.03861283
	0.07795472	-0.0411294	0.002802032	-0.002464098	-0.02469229	-0.1173749	0.002136074	-0.002138692
	0.001792629	-0.001782944	0.07276306	-0.03861283	0.002136074	-0.002138692	0.06797027	0.0313695
4.3e+08	-0.03369845	-0.1190573	0.001762431	-0.002392549	0.07356221	-0.0450119	0.00158953	-0.002002352
	0.001762431	-0.002392549	0.07834815	0.02312595	0.002490173	-0.002814541	0.06351319	-0.04853721
	0.07356221	-0.0450119	0.002490173	-0.002814541	-0.03319691	-0.119407	0.001888379	-0.002367278
	0.00158953	-0.002002352	0.06351319	-0.04853721	0.001888379	-0.002367278	0.07908807	0.02311153
4.4e+08	-0.04235018	-0.1197134	0.001495487	-0.002600256	0.06890361	-0.04786598	0.001365517	-0.002199583
	0.001495487	-0.002600256	0.08774466	0.01247176	0.002141687	-0.003119631	0.05229903	-0.05637635
	0.06890361	-0.04786598	0.002141687	-0.003119631	-0.04185431	-0.1200087	0.001630524	-0.002567902
	0.001365517	-0.002199583	0.05229903	-0.05637635	0.001630524	-0.002567902	0.08836016	0.01232358
4.5e+08	-0.05086095	-0.1189588	0.001211137	-0.002783182	0.06423749	-0.0496935	0.00112242	-0.002374828
	0.001211137	-0.002783182	0.09474889	-0.0003164406	0.001764411	-0.00337829	0.03959427	-0.06175598
	0.06423749	-0.0496935	0.001764411	-0.00337829	-0.05034829	-0.119199	0.001364703	-0.002746145
	0.00112242	-0.002374828	0.03959427	-0.06175598	0.001364703	-0.002746145	0.09520884	-0.0005726586
4.6e+08	-0.05892981	-0.1168772	0.0009094488	-0.002942279	0.05981167	-0.05055885	0.0008609707	-0.002528144
	0.0009094488	-0.002942279	0.09887489	-0.01468952	0.001365233	-0.00359095	0.02593977	-0.06440894
	0.05981167	-0.05055885	0.001365233	-0.00359095	-0.05837789	-0.1170673	0.001089978	-0.002907172
	0.0008609707	-0.002528144	0.02593977	-0.06440894	0.001089978	-0.002907172	0.09915392	-0.01502166
4.7e+08	-0.0662851	-0.1136162	0.00058925	-0.003077407	0.05584883	-0.05058408	0.0005811573	-0.002658955
	0.00058925	-0.003077407	0.09976563	-0.02998575	0.0009493869	-0.003759199	0.01191949	-0.06418632
	0.05584883	-0.05058408	0.0009493869	-0.003759199	-0.06567251	-0.1137675	0.0008030751	-0.003054601
	0.0005811573	-0.002658955	0.01191949	-0.06418632	0.0008030751	-0.003054601	0.09984419	-0.03035572
4.8e+08	-0.07269618	-0.1093808	0.000248904	-0.00318683	0.05253417	-0.04994185	0.0002823449	-0.002765736
	0.000248904	-0.00318683	0.09721631	-0.04546088	0.0005202476	-0.003885072	-0.001864004	-0.0610623
	0.05253417	-0.04994185	0.0005202476	-0.003885072	-0.072005	-0.10951	0.0004985937	-0.003189664
	0.0002823449	-0.002765736	-0.001864004	-0.0610623	0.0004985937	-0.003189664	0.09708393	-0.04582629
4.9e+08	-0.07798746	-0.1044219	-0.0001129979	-0.003267012	0.05000349	-0.04884511	-3.614555e-05	-0.002845739
	-0.0001129979	-0.003267012	0.091197	-0.06032324	7.982255e-05	-0.003970157	-0.01481564	-0.05513555
	0.05000349	-0.04884511	7.982255e-05	-0.003970157	-0.07720364	-0.1045503	0.0001703093	-0.003310517
