!$
! Info: Touchstone file created by Circ.  Input file=Intel_C2M_200G_9p0in_202208016_staggered.circ
!$
# Hz S RI R 50
0	0.02930317	4.555888e-24	8.823689e-05	1.307885e-22	0.0001304926	3.214921e-22	8.81727e-05	1.30569e-22
	8.823689e-05	1.307885e-22	0.029316	4.721744e-24	8.822056e-05	1.30706e-22	0.0001301159	3.188218e-22
	0.000130549	3.216163e-22	8.822055e-05	1.307075e-22	0.02929812	4.339511e-24	8.818597e-05	1.304904e-22
	8.817269e-05	1.305706e-22	0.0001301723	3.189463e-22	8.818597e-05	1.304904e-22	0.02931399	4.467657e-24
1e+07	0.03609172	0.009730481	8.309839e-05	8.237136e-06	0.002047033	0.007115673	1.208705e-05	6.266374e-05
	8.309839e-05	8.237136e-06	0.03595255	0.009836883	7.908198e-05	5.130402e-05	0.002455443	0.007205323
	0.002047033	0.007115673	7.908198e-05	5.130402e-05	0.03677369	0.009535015	4.535447e-05	3.474341e-05
	1.208705e-05	6.266374e-05	0.002455443	0.007205323	4.535447e-05	3.474341e-05	0.03565881	0.009651813
2e+07	0.0434543	0.01347687	6.453764e-05	2.087113e-05	0.005186937	0.01304708	5.309249e-05	6.438943e-05
	6.453764e-05	2.087113e-05	0.04347935	0.0136926	9.81869e-05	3.417963e-05	0.005563045	0.01305855
	0.005186944	0.01304706	9.81869e-05	3.417963e-05	0.04375223	0.01295708	4.832195e-05	1.295857e-05
	5.309249e-05	6.438943e-05	0.005563052	0.01305854	4.832195e-05	1.295857e-05	0.0430156	0.01353431
3e+07	0.04965411	0.01400599	5.812961e-05	3.033496e-05	0.009769121	0.01795845	8.402092e-05	5.512355e-05
	5.812961e-05	3.033496e-05	0.04980845	0.01422192	0.0001131516	2.140867e-05	0.01011533	0.01795435
	0.009769105	0.01795849	0.0001131516	2.140867e-05	0.04966022	0.01346842	5.039626e-05	3.353695e-06
	8.402093e-05	5.512355e-05	0.01011532	0.01795439	5.039626e-05	3.353693e-06	0.04923104	0.01416257
4e+07	0.0547859	0.01289681	5.256963e-05	3.257361e-05	0.0155213	0.02139428	0.0001075064	3.900179e-05
	5.256963e-05	3.257361e-05	0.05504937	0.01307451	0.000123775	5.70746e-06	0.01583388	0.02138626
	0.01552131	0.02139431	0.000123775	5.707459e-06	0.05457178	0.01243281	5.090916e-05	-4.913764e-06
	0.0001075064	3.900178e-05	0.01583388	0.02138628	5.090916e-05	-4.913764e-06	0.05440883	0.01313685
5e+07	0.05899615	0.01080051	4.670494e-05	3.181917e-05	0.02201954	0.02315103	0.0001244438	1.826813e-05
	4.670494e-05	3.181917e-05	0.05935271	0.01091386	0.0001319622	-1.614769e-05	0.02229263	0.0231456
	0.02201955	0.02315103	0.0001319622	-1.614769e-05	0.05862052	0.01046014	5.042597e-05	-1.400654e-05
	0.0001244438	1.826813e-05	0.02229263	0.02314561	5.042597e-05	-1.400654e-05	0.05868782	0.01110732
6e+07	0.06236448	0.008073508	3.999868e-05	2.992729e-05	0.02881759	0.02309295	0.0001348313	-5.610318e-06
	3.999868e-05	2.992729e-05	0.06279876	0.008100975	0.0001339415	-3.937288e-05	0.02904431	0.02309636
	0.02881759	0.02309293	0.0001339415	-3.937288e-05	0.06188171	0.007884777	4.774354e-05	-2.255508e-05
	0.0001348313	-5.610318e-06	0.02904432	0.02309634	4.774354e-05	-2.255508e-05	0.06214361	0.008426233
7e+07	0.06497979	0.004989011	4.3175e-05	1.892352e-05	0.03544391	0.0211974	0.0001383369	-3.135778e-05
	4.3175e-05	1.892352e-05	0.06547516	0.004911154	0.0001292546	-6.276853e-05	0.0356172	0.0212171
	0.0354439	0.02119739	0.0001292546	-6.276853e-05	0.06444055	0.004964195	4.301881e-05	-3.004389e-05
	0.0001383369	-3.135778e-05	0.0356172	0.02121709	4.301881e-05	-3.004389e-05	0.06485996	0.005361928
8e+07	0.06697105	0.001742454	4.509515e-05	5.303581e-06	0.04143574	0.01755728	0.0001352946	-5.761075e-05
	4.509515e-05	5.303581e-06	0.06750793	0.001540787	0.0001186884	-8.474909e-05	0.04154878	0.01760255
	0.04143574	0.01755728	0.0001186884	-8.474909e-05	0.06642259	0.001882341	3.667519e-05	-3.607833e-05
	0.0001352946	-5.761075e-05	0.04154878	0.01760256	3.667519e-05	-3.607833e-05	0.06695966	0.002105977
9e+07	0.06849097	-0.00155034	4.266944e-05	-7.547982e-06	0.04636584	0.01237433	0.0001256691	-8.345353e-05
	4.266944e-05	-7.547981e-06	0.06904472	-0.001894385	0.0001026949	-0.0001042344	0.04641313	0.0124568
	0.04636585	0.01237434	0.0001026949	-0.0001042344	0.06797823	-0.001252656	2.909862e-05	-4.034954e-05
	0.0001256691	-8.345353e-05	0.04641313	0.0124568	2.909862e-05	-4.034954e-05	0.06858821	-0.001228257
1e+08	0.06975453	-0.004816505	3.496609e-05	-1.908009e-05	0.04986684	0.005942049	0.0001068522	-0.0001095728
	3.496609e-05	-1.908009e-05	0.07028548	-0.005330568	7.986502e-05	-0.0001210728	0.0498455	0.006076739
	0.04986684	0.005942048	7.986502e-05	-0.0001210728	0.0693382	-0.004365487	2.44931e-05	-3.976879e-05
	0.0001068522	-0.0001095728	0.04984549	0.006076738	2.44931e-05	-3.976879e-05	0.06995685	-0.004570888
1.1e+08	0.07078148	-0.008496453	2.472567e-05	-2.20517e-05	0.05162266	-0.001355763	7.932213e-05	-0.0001197152
	2.472567e-05	-2.20517e-05	0.07121628	-0.009134977	6.816e-05	-0.0001160941	0.0515383	-0.001157182
	0.05162266	-0.001355764	6.816e-05	-0.0001160941	0.07051581	-0.008071064	2.187345e-05	-3.644908e-05
	7.932213e-05	-0.0001197152	0.0515383	-0.001157184	2.187345e-05	-3.644908e-05	0.07105723	-0.008431662
1.2e+08	0.07133326	-0.01227065	1.793761e-05	-2.316183e-05	0.0514719	-0.009010432	6.081172e-05	-0.0001220454
	1.793761e-05	-2.316183e-05	0.07167392	-0.01300216	5.863453e-05	-0.0001110184	0.05132509	-0.008738166
	0.0514719	-0.009010433	5.863454e-05	-0.0001110184	0.07112315	-0.01186279	1.904147e-05	-3.44025e-05
	6.081172e-05	-0.0001220454	0.05132509	-0.008738167	1.904147e-05	-3.44025e-05	0.07159937	-0.01234576
1.3e+08	0.07154449	-0.01613553	1.231693e-05	-2.438979e-05	0.0493682	-0.01656106	5.327205e-05	-0.0001188952
	1.231693e-05	-2.438979e-05	0.07178494	-0.01694156	4.909426e-05	-0.000106372	0.04916168	-0.01620308
	0.0493682	-0.01656106	4.909426e-05	-0.000106372	0.07136858	-0.01573188	1.597331e-05	-3.310723e-05
	5.327205e-05	-0.0001188952	0.04916167	-0.01620308	1.597331e-05	-3.310723e-05	0.07177548	-0.01632173
1.4e+08	0.07142613	-0.02013348	7.403961e-06	-2.556267e-05	0.04537255	-0.02353447	4.493009e-05	-0.0001161933
	7.403961e-06	-2.556267e-05	0.07156006	-0.02099691	3.979091e-05	-0.0001017746	0.04511164	-0.02307813
	0.04537255	-0.02353447	3.979091e-05	-0.0001017746	0.07127569	-0.01973577	1.302185e-05	-3.18564e-05
	4.493009e-05	-0.0001161933	0.04511164	-0.02307812	1.302185e-05	-3.18564e-05	0.07160624	-0.02041964
1.5e+08	0.07093894	-0.02430206	2.74151e-06	-2.614301e-05	0.03965562	-0.02947929	3.601642e-05	-0.0001134922
	2.74151e-06	-2.614301e-05	0.07096109	-0.02520553	3.079395e-05	-9.706069e-05	0.03934867	-0.02891209
	0.03965562	-0.02947929	3.079395e-05	-9.706069e-05	0.0708016	-0.02391589	1.015257e-05	-3.063713e-05
	3.601642e-05	-0.0001134922	0.03934867	-0.02891209	1.015257e-05	-3.063713e-05	0.07104792	-0.02468111
1.6e+08	0.07000661	-0.02865764	-1.787182e-06	-2.623278e-05	0.03249157	-0.03399274	2.666711e-05	-0.0001104808
	-1.787182e-06	-2.623278e-05	0.06991355	-0.02958327	2.210621e-05	-9.212063e-05	0.0321501	-0.03330321
	0.03249157	-0.03399274	2.210621e-05	-9.212063e-05	0.06986579	-0.02828562	7.314608e-06	-2.942104e-05
	2.666711e-05	-0.0001104808	0.0321501	-0.03330321	7.314608e-06	-2.942104e-05	0.07002013	-0.02911874
1.7e+08	0.06852708	-0.03318387	-6.275012e-06	-2.58567e-05	0.02424458	-0.03674419	1.699866e-05	-0.0001069067
	-6.275012e-06	-2.58567e-05	0.06831744	-0.03411285	1.346995e-05	-8.710267e-05	0.02388327	-0.0359227
	0.02424458	-0.03674419	1.346995e-05	-8.710267e-05	0.06836494	-0.03282199	4.386633e-06	-2.821572e-05
	1.699866e-05	-0.0001069067	0.02388327	-0.0359227	4.386633e-06	-2.821572e-05	0.0684204	-0.03370842
1.8e+08	0.0663855	-0.03782272	-1.078057e-05	-2.498548e-05	0.01535036	-0.03749486	7.141965e-06	-0.0001025502
	-1.078057e-05	-2.498548e-05	0.0660606	-0.03873575	4.859758e-06	-8.167775e-05	0.01498683	-0.03653462
	0.01535036	-0.03749486	4.859758e-06	-8.167775e-05	0.06618638	-0.03746004	1.25259e-06	-2.695908e-05
	7.141965e-06	-0.0001025502	0.01498683	-0.03653462	1.25259e-06	-2.695908e-05	0.06613723	-0.03838338
1.9e+08	0.06346877	-0.04246895	-1.531892e-05	-2.355375e-05	0.006293662	-0.03611296	-2.739198e-06	-9.722513e-05
	-1.531892e-05	-2.355375e-05	0.06303291	-0.04334649	-3.467286e-06	-7.549645e-05	0.00594779	-0.03501092
	0.006293662	-0.03611296	-3.467286e-06	-7.549645e-05	0.06322187	-0.04208898	-1.981465e-06	-2.541947e-05
	-2.739198e-06	-9.722513e-05	0.00594779	-0.03501092	-1.981465e-06	-2.541947e-05	0.06306437	-0.04303109
2e+08	0.05968234	-0.04696912	-1.986413e-05	-2.147266e-05	-0.002417932	-0.03258276	-1.244563e-05	-9.077928e-05
	-1.986413e-05	-2.147266e-05	0.0591431	-0.04779171	-1.137865e-05	-6.848722e-05	-0.002724678	-0.03134036
	-0.002417932	-0.03258276	-1.137865e-05	-6.848722e-05	0.05938305	-0.04655275	-5.280316e-06	-2.351658e-05
	-1.244563e-05	-9.077928e-05	-0.002724678	-0.03134036	-5.280316e-06	-2.351658e-05	0.05911623	-0.04749395
2.1e+08	0.05496736	-0.05112686	-2.434257e-05	-1.864636e-05	-0.0102809	-0.02700769	-2.174024e-05	-8.310345e-05
	-2.434257e-05	-1.864636e-05	0.05433583	-0.05187574	-1.87184e-05	-6.059824e-05	-0.01052668	-0.02563145
	-0.0102809	-0.02700769	-1.87184e-05	-6.059824e-05	0.05461758	-0.05065366	-8.583788e-06	-2.117321e-05
	-2.174024e-05	-8.310345e-05	-0.01052668	-0.02563145	-8.583788e-06	-2.117321e-05	0.05424389	-0.05157303
2.2e+08	0.04931447	-0.05471196	-2.863191e-05	-1.499167e-05	-0.01682357	-0.01960729	-3.035248e-05	-7.414337e-05
	-2.863191e-05	-1.499167e-05	0.04860549	-0.05536969	-2.530459e-05	-5.181721e-05	-0.01698738	-0.01810912
	-0.01682357	-0.01960729	-2.530459e-05	-5.181721e-05	0.04892289	-0.05416301	-1.180568e-05	-1.832298e-05
	-3.035248e-05	-7.414337e-05	-0.01698738	-0.01810912	-1.180568e-05	-1.832298e-05	0.04844885	-0.05503907
2.3e+08	0.04277652	-0.05747515	-3.211557e-05	-1.079484e-05	-0.02163264	-0.01070781	-3.801951e-05	-6.382239e-05
	-3.211557e-05	-1.079484e-05	0.04200867	-0.05802648	-3.097073e-05	-4.208858e-05	-0.02169572	-0.009104956
	-0.02163264	-0.01070781	-3.097073e-05	-4.208858e-05	0.04235697	-0.05683477	-1.483459e-05	-1.492406e-05
	-3.801951e-05	-6.382239e-05	-0.02169572	-0.009104955	-1.483459e-05	-1.492406e-05	0.04179371	-0.0576463
2.4e+08	0.03547599	-0.05916563	-3.523374e-05	-5.673277e-06	-0.0243764	-0.0007269873	-4.436919e-05	-5.22989e-05
	-3.523374e-05	-5.673277e-06	0.03467138	-0.05959832	-3.544357e-05	-3.156999e-05	-0.02432364	0.0009584112
	-0.0243764	-0.0007269873	-3.544357e-05	-3.156999e-05	0.03504685	-0.05842203	-1.754344e-05	-1.095041e-05
	-4.436919e-05	-5.22989e-05	-0.02432364	0.0009584116	-1.754344e-05	-1.095041e-05	0.03441041	-0.05914924
2.5e+08	0.02760751	-0.05955071	-3.776142e-05	3.973949e-07	-0.02482471	0.009846588	-4.910429e-05	-3.974725e-05
	-3.776142e-05	3.973949e-07	0.02679147	-0.05985658	-3.852378e-05	-2.041254e-05	-0.02464603	0.01158829
	-0.02482471	0.009846588	-3.852378e-05	-2.041254e-05	0.0271898	-0.0586977	-1.978842e-05	-6.414237e-06
	-4.910429e-05	-3.974725e-05	-0.02464603	0.01158829	-1.978842e-05	-6.414237e-06	0.02650114	-0.05932344
2.6e+08	0.01943434	-0.05843684	-3.942475e-05	7.344974e-06	-0.02286427	0.02047808	-5.195929e-05	-2.640905e-05
	-3.942475e-05	7.344974e-06	0.01863463	-0.05861265	-4.003795e-05	-8.813162e-06	-0.02255562	0.022247
	-0.02286427	0.02047808	-4.003795e-05	-8.813162e-06	0.01905078	-0.05747353	-2.142215e-05	-1.364319e-06
	-5.195929e-05	-2.640905e-05	-0.02255562	0.022247	-2.142215e-05	-1.364319e-06	0.01833542	-0.05798464
2.7e+08	0.01127945	-0.05568901	-3.996292e-05	1.502748e-05	-0.01850629	0.0306141	-5.271426e-05	-1.259188e-05
	-3.996292e-05	1.502748e-05	0.01052527	-0.05573722	-3.984706e-05	2.985803e-06	-0.01807056	0.03237966
	-0.01850629	0.0306141	-3.984706e-05	2.985803e-06	0.01095279	-0.05462036	-2.230271e-05	4.113351e-06
	-5.271426e-05	-1.259188e-05	-0.01807056	0.03237966	-2.230271e-05	4.113351e-06	0.01024002	-0.055009
2.8e+08	0.003511505	-0.05124831	-3.914419e-05	2.323425e-05	-0.01188963	0.03971214	-5.120967e-05	1.339006e-06
	-3.914419e-05	2.323425e-05	0.00283223	-0.05117764	-3.785755e-05	1.470414e-05	-0.01133696	0.04144409
	-0.01188963	0.03971214	-3.785755e-05	1.470414e-05	0.003262849	-0.0500851	-2.230296e-05	9.894336e-06
	-5.120967e-05	1.339006e-06	-0.01133696	0.04144409	-2.230296e-05	9.894336e-06	0.002584624	-0.05034985
2.9e+08	-0.003475221	-0.04514516	-3.678183e-05	3.169659e-05	-0.003275723	0.04726997	-4.736e-05	1.497539e-05
	-3.678183e-05	3.169659e-05	-0.004051461	-0.04497089	-3.403012e-05	2.603149e-05	-0.002623535	0.04894007
	-0.003275723	0.04726997	-3.403012e-05	2.603149e-05	-0.003627046	-0.04390301	-2.131962e-05	1.582212e-05
	-4.736e-05	1.497539e-05	-0.002623535	0.04894007	-2.131962e-05	1.582212e-05	-0.004237654	-0.04404973
3e+08	-0.009283224	-0.03750762	-3.274537e-05	4.009968e-05	0.006963257	0.05285283	-4.116132e-05	2.788325e-05
	-3.274537e-05	4.009968e-05	-0.009731115	-0.03725138	-2.838703e-05	3.664059e-05	0.007690696	0.05443668
	0.006963257	0.05285283	-2.838703e-05	3.664059e-05	-0.009323309	-0.03620644	-1.92806e-05	2.171261e-05
	-4.116132e-05	2.788325e-05	0.007690696	0.05443668	-1.92806e-05	2.171261e-05	-0.009833789	-0.03624876
3.1e+08	-0.01353706	-0.02856325	-2.69731e-05	4.808937e-05	0.01836182	0.05611849	-3.26978e-05	3.961923e-05
	-2.69731e-05	4.808937e-05	-0.01383561	-0.02825249	-2.101274e-05	4.620234e-05	0.0191344	0.05759711
	0.01836182	0.05611849	-2.101274e-05	4.620234e-05	-0.01345462	-0.0272264	-1.61516e-05	2.736053e-05
	-3.26978e-05	3.961923e-05	0.0191344	0.05759711	-1.61516e-05	2.736053e-05	-0.01383493	-0.02718567
3.2e+08	-0.01590829	-0.01863484	-1.94739e-05	5.529317e-05	0.03038465	0.05683654	-2.214289e-05	4.974796e-05
	-1.94739e-05	5.529317e-05	-0.01604221	-0.01830194	-1.205993e-05	5.439383e-05	0.03116758	0.05819775
	0.03038465	0.05683654	-1.205993e-05	5.439383e-05	-0.01569858	-0.01728849	-1.19381e-05	3.254946e-05
	-2.214289e-05	4.974796e-05	0.03116758	0.05819775	-1.19381e-05	3.254946e-05	-0.01592298	-0.01719337
3.3e+08	-0.01614057	-0.00812937	-1.033596e-05	6.132865e-05	0.04245366	0.05490176	-9.756144e-06	5.786108e-05
	-1.033596e-05	6.132865e-05	-0.01610142	-0.007810396	-1.742e-06	6.091659e-05	0.04320912	0.05614125
	0.04245366	0.05490176	-1.742e-06	6.091659e-05	-0.01580423	-0.006800762	-6.690991e-06	3.70572e-05
	-9.756144e-06	5.786108e-05	0.04320912	0.05614125	-6.690991e-06	3.70572e-05	-0.01585311	-0.006686277
3.4e+08	-0.01407077	0.002478791	2.736782e-07	6.582028e-05	0.05397822	0.05034175	4.117619e-06	6.359162e-05
	2.736782e-07	6.582028e-05	-0.01385779	0.002745636	9.665931e-06	6.550461e-05	0.05466708	0.05146381
	0.05397822	0.05034175	9.665931e-06	6.550461e-05	-0.01361498	0.003762869	-5.036536e-07	4.066657e-05
	4.117619e-06	6.359162e-05	0.05466708	0.05146381	-5.036536e-07	4.066657e-05	-0.0134763	0.003856622
3.5e+08	-0.009646207	0.0126711	1.210397e-05	6.841259e-05	0.06438518	0.04331593	1.906371e-05	6.663207e-05
	1.210397e-05	6.841259e-05	-0.009266794	0.01284708	2.183511e-05	6.793891e-05	0.06496896	0.04433373
	0.06438518	0.04331593	2.183511e-05	6.793891e-05	-0.009083534	0.01388515	6.485174e-06	4.317091e-05
	1.906371e-05	6.663207e-05	0.06496896	0.04433373	6.485174e-06	4.317091e-05	-0.008754143	0.01391469
3.6e+08	-0.002935657	0.02191099	2.482908e-05	6.878508e-05	0.07314879	0.03410882	3.459748e-05	6.67455e-05
	2.482908e-05	6.878508e-05	-0.002405478	0.02195857	3.439623e-05	6.80547e-05	0.0735917	0.03504427
	0.07314879	0.03410882	3.439623e-05	6.80547e-05	-0.002284831	0.02303254	1.409282e-05	4.43837e-05
	3.459748e-05	6.67455e-05	0.0735917	0.03504427	1.409282e-05	4.43837e-05	-0.001771226	0.0229529
3.7e+08	0.005865236	0.02967384	3.803934e-05	6.667289e-05	0.07981796	0.02311536	5.018114e-05	6.378096e-05
	3.803934e-05	6.667289e-05	0.006522429	0.02955835	4.693765e-05	6.575098e-05	0.08008878	0.02399863
	0.07981796	0.02311536	4.693765e-05	6.575098e-05	0.006580793	0.03068461	2.20998e-05	4.414521e-05
	5.018114e-05	6.378096e-05	0.08008878	0.02399863	2.20998e-05	4.414521e-05	0.007261915	0.03045139
3.8e+08	0.01643726	0.03547673	5.125935e-05	6.187688e-05	0.0840381	0.0108214	6.523729e-05	5.768467e-05
	5.125935e-05	6.187688e-05	0.01719017	0.035168	5.902714e-05	6.099643e-05	0.08411211	0.01168984
	0.0840381	0.0108214	5.902714e-05	6.099643e-05	0.01719042	0.03636333	3.024439e-05	4.233204e-05
	6.523729e-05	5.768467e-05	0.08411211	0.01168984	3.024439e-05	4.233204e-05	0.01801212	0.03593501
3.9e+08	0.02834623	0.03890778	6.394895e-05	5.428852e-05	0.08556964	-0.002220093	7.91679e-05	4.850659e-05
	6.394895e-05	5.428852e-05	0.02915673	0.03838168	7.021721e-05	5.38351e-05	0.08543023	-0.001323303
	0.08556964	-0.002220093	7.021721e-05	5.38351e-05	0.0291069	0.03966359	3.823635e-05	3.886046e-05
	7.91679e-05	4.850659e-05	0.08543023	-0.001323303	3.823635e-05	3.886046e-05	0.0300324	0.03900369
4e+08	0.04106062	0.03965459	7.551942e-05	4.390602e-05	0.0842985	-0.01541716	9.136451e-05	3.641567e-05
	7.551942e-05	4.390602e-05	0.04188486	0.03889452	8.005639e-05	4.43909e-05	0.08393851	-0.01444478
	0.0842985	-0.01541716	8.005639e-05	4.43909e-05	0.04179815	0.04027894	4.57528e-05	3.370096e-05
	9.136451e-05	3.641567e-05	0.08393851	-0.01444478	4.57528e-05	3.370096e-05	0.04278158	0.03935833
4.1e+08	0.05397514	0.03752684	8.535764e-05	3.084701e-05	0.08024115	-0.02816668	0.0001012381	2.169363e-05
	8.535764e-05	3.084701e-05	0.05476475	0.03652502	8.810477e-05	3.28685e-05	0.07966389	-0.02706954
	0.08024115	-0.02816668	8.810477e-05	3.28685e-05	0.05465864	0.03802551	5.24541e-05	2.687769e-05
	0.0001012381	2.169363e-05	0.07966389	-0.02706954	5.24541e-05	2.687769e-05	0.05564644	0.03682466
4.2e+08	0.06643729	0.03247319	9.284413e-05	1.536624e-05	0.07354332	-0.03988353	0.0001082365	4.74987e-06
	9.284413e-05	1.536624e-05	0.06714107	0.03123194	9.394927e-05	1.955496e-05	0.07276306	-0.03861283
	0.07354332	-0.03988353	9.394927e-05	1.955496e-05	0.06703757	0.03285849	5.798526e-05	1.848304e-05
	0.0001082365	4.74987e-06	0.07276306	-0.03861283	5.798526e-05	1.848304e-05	0.06797027	0.0313695
4.3e+08	0.07778234	0.02459327	9.73872e-05	-2.137618e-06	0.06447131	-0.05002731	0.0001118712	-1.389101e-05
	9.73872e-05	-2.137618e-06	0.07834815	0.02312595	9.720833e-05	4.817818e-06	0.06351319	-0.04853721
	0.06447131	-0.05002731	9.720833e-05	4.817818e-06	0.07827336	0.02488312	6.199177e-05	8.681804e-06
	0.0001118712	-1.389101e-05	0.06351319	-0.04853721	6.199177e-05	8.681804e-06	0.07908807	0.02311153
4.4e+08	0.08736756	0.01413996	9.845811e-05	-2.111886e-05	0.0533996	-0.05812636	0.000111743	-3.35967e-05
	9.845811e-05	-2.111886e-05	0.08774466	0.01247176	9.755636e-05	-1.089547e-05	0.05229903	-0.05637635
	0.0533996	-0.05812636	9.755636e-05	-1.089547e-05	0.08772685	0.0143575	6.413065e-05	-2.281758e-06
	0.000111743	-3.35967e-05	0.05229903	-0.05637635	6.413065e-05	-2.281758e-06	0.08836016	0.01232358
4.5e+08	0.09460717	0.001515379	9.562225e-05	-4.089604e-05	0.04079285	-0.06379865	0.0001075671	-5.362995e-05
	9.562225e-05	-4.089604e-05	0.09474889	-0.0003164406	9.473589e-05	-2.706131e-05	0.03959427	-0.06175598
	0.04079285	-0.06379865	9.473589e-05	-2.706131e-05	0.09481729	0.001687847	6.408786e-05	-1.408516e-05
	0.0001075671	-5.362995e-05	0.03959427	-0.06175598	6.408786e-05	-1.408516e-05	0.09520884	-0.0005726586
4.6e+08	0.09900821	-0.01274305	8.857993e-05	-6.06627e-05	0.02718476	-0.06676729	9.919946e-05	-7.317613e-05
	8.857993e-05	-6.06627e-05	0.09887489	-0.01468952	8.856988e-05	-4.30922e-05	0.02593977	-0.06440894
	0.02718476	-0.06676729	8.856988e-05	-4.30922e-05	0.09905763	-0.0125856	6.159922e-05	-2.631817e-05
	9.919946e-05	-7.317613e-05	0.02593977	-0.06440894	6.159922e-05	-2.631817e-05	0.09915392	-0.01502166
4.7e+08	0.1002035	-0.02798418	7.720001e-05	-7.951719e-05	0.01315427	-0.06687205	8.66582e-05	-9.137234e-05
	7.720001e-05	-7.951719e-05	0.09976563	-0.02998575	7.898498e-05	-5.83339e-05	0.01191949	-0.06418632
	0.01315427	-0.06687205	7.898498e-05	-5.83339e-05	0.1000857	-0.02780931	5.647028e-05	-3.849048e-05
	8.66582e-05	-9.137234e-05	0.01191949	-0.06418632	5.647028e-05	-3.849048e-05	0.09984419	-0.03035572
4.8e+08	0.09797504	-0.0434724	6.155244e-05	-9.649343e-05	-0.0006984147	-0.06407492	7.014626e-05	-0.0001073271
	6.155244e-05	-9.649343e-05	0.09721631	-0.04546088	6.602891e-05	-7.209198e-05	-0.001864004	-0.0610623
	-0.0006984147	-0.06407492	6.602891e-05	-7.209198e-05	0.09769101	-0.04324653	4.860067e-05	-5.004707e-05
