!$
! Info: Touchstone file created by Circ.  Input file=Intel_C2M_200G_8p0in_202208016_staggered.circ
!$
# Hz S RI R 50
0	0.02270127	8.090871e-24	-0.0001041339	1.275272e-20	0.0003482045	7.510422e-22	-9.984833e-05	1.222789e-20
	-0.000104134	1.275273e-20	0.022148	4.463397e-24	-0.000111243	1.362334e-20	0.0001250441	3.1051e-22
	0.0003482716	7.51571e-22	-0.0001112431	1.362335e-20	0.02270249	8.280461e-24	-0.0001041592	1.275583e-20
	-9.984831e-05	1.222789e-20	0.0001251013	3.106352e-22	-0.0001041591	1.275582e-20	0.02214596	4.224422e-24
1e+07	0.02745533	-0.003587982	-0.0006186306	-4.536725e-05	0.001518283	0.006951298	-6.012614e-05	-0.0001095984
	-0.0006186306	-4.536725e-05	0.02706474	-0.004118486	-0.0008755837	0.0001366251	0.002006289	0.006912321
	0.001518283	0.006951298	-0.0008755837	0.0001366251	0.0271147	-0.003460851	-0.0004546603	-6.650127e-05
	-6.012614e-05	-0.0001095984	0.002006289	0.006912321	-0.0004546603	-6.650127e-05	0.02689603	-0.004088345
2e+07	0.02964916	-0.01184897	-0.0005655926	-0.0003478299	0.003821724	0.01315763	-8.737741e-05	-0.0001761116
	-0.0005655925	-0.0003478298	0.02984042	-0.01290154	-0.0008160795	-0.0001140499	0.004836936	0.01274628
	0.003821809	0.01315753	-0.0008160795	-0.0001140499	0.02948642	-0.01151791	-0.0004429135	-0.0002560996
	-8.73774e-05	-0.0001761116	0.004836944	0.01274627	-0.0004429135	-0.0002560996	0.02971755	-0.01278098
3e+07	0.02803402	-0.02168119	-0.0005661244	-0.0004813895	0.007305378	0.01860453	-0.0001320491	-0.0002350097
	-0.0005661244	-0.0004813896	0.02962298	-0.02347107	-0.0007756457	-0.000192438	0.009034537	0.01774931
	0.007305354	0.0186045	-0.0007756457	-0.000192438	0.02802773	-0.02128911	-0.0004735926	-0.0003605566
	-0.0001320491	-0.0002350097	0.009034519	0.01774935	-0.0004735927	-0.0003605565	0.02954066	-0.02329678
4e+07	0.02348698	-0.03093664	-0.0006040891	-0.0005686579	0.01170924	0.02316163	-0.0002064947	-0.0002754007
	-0.0006040891	-0.0005686579	0.02666821	-0.03422482	-0.0007514441	-0.0002473851	0.01438743	0.02146529
	0.01170924	0.02316164	-0.0007514441	-0.0002473851	0.02361387	-0.03053443	-0.0005323314	-0.0004274641
	-0.0002064947	-0.0002754007	0.01438743	0.02146532	-0.0005323315	-0.0004274641	0.02663377	-0.03401637
5e+07	0.01651534	-0.03885677	-0.0006675034	-0.000623937	0.0168329	0.02664702	-0.0002907214	-0.0003000524
	-0.0006675034	-0.000623937	0.02136637	-0.04432345	-0.0007434115	-0.0002998015	0.02053369	0.02369413
	0.0168329	0.02664703	-0.0007434115	-0.0002998015	0.01675496	-0.03847835	-0.0006100812	-0.0004654549
	-0.0002907214	-0.0003000524	0.02053369	0.02369414	-0.0006100812	-0.0004654549	0.02138071	-0.0440956
6e+07	0.00765373	-0.04482245	-0.0007476297	-0.0006512548	0.02241114	0.02895584	-0.0003816788	-0.0003081312
	-0.0007476297	-0.0006512548	0.01408226	-0.05324032	-0.0007553901	-0.0003555296	0.02709288	0.02428851
	0.02241114	0.02895584	-0.0007553901	-0.0003555296	0.00798426	-0.04449258	-0.0006994681	-0.0004768964
	-0.0003816788	-0.0003081312	0.02709289	0.02428849	-0.0006994681	-0.0004768964	0.01414419	-0.05300592
7e+07	-0.002460601	-0.04841325	-0.0008815436	-0.0006079767	0.02816822	0.03005074	-0.0004755204	-0.0002983118
	-0.0008815436	-0.0006079767	0.005212082	-0.06057002	-0.0007912379	-0.0004133259	0.03365693	0.02319633
	0.02816822	0.03005074	-0.0007912379	-0.0004133259	-0.002063372	-0.04814974	-0.0007940584	-0.0004631407
	-0.0004755204	-0.0002983118	0.03365692	0.02319632	-0.0007940584	-0.0004631407	0.005318395	-0.0603412
8e+07	-0.01315039	-0.04940726	-0.001053031	-0.0004735001	0.03383318	0.029959	-0.0005687617	-0.0002705292
	-0.001053031	-0.0004735001	-0.004793699	-0.0660275	-0.0008544411	-0.0004683422	0.03981987	0.0204632
	0.03383318	0.029959	-0.0008544411	-0.0004683422	-0.01271279	-0.04922186	-0.0008879879	-0.0004255557
	-0.0005687617	-0.0002705292	0.03981987	0.02046321	-0.0008879879	-0.0004255557	-0.004648302	-0.06581543
9e+07	-0.02373659	-0.04775636	-0.001190135	-0.0003030995	0.03915666	0.02876838	-0.0006599357	-0.0002249299
	-0.001190135	-0.0003030995	-0.01545359	-0.06945292	-0.000947698	-0.0005132086	0.04520089	0.01622651
	0.03915666	0.02876838	-0.000947698	-0.0005132086	-0.02328678	-0.0476541	-0.0009861036	-0.0003485484
	-0.0006599357	-0.0002249299	0.0452009	0.01622652	-0.0009861036	-0.0003485484	-0.01527733	-0.06926738
1e+08	-0.03352397	-0.04355068	-0.001272397	-9.725562e-05	0.04392684	0.02661555	-0.0007443509	-0.0001616737
	-0.001272397	-9.725562e-05	-0.02624141	-0.07077881	-0.001066613	-0.0005377594	0.04946574	0.01070311
	0.04392684	0.02661555	-0.001066613	-0.0005377594	-0.0330987	-0.04353381	-0.001083275	-0.0002021818
	-0.0007443509	-0.0001616737	0.04946574	0.01070311	-0.001083275	-0.0002021818	-0.02604552	-0.07062778
1.1e+08	-0.04193967	-0.03731787	-0.001299717	6.308982e-05	0.04794859	0.02366745	-0.0008229216	-8.646735e-05
	-0.001299717	6.308982e-05	-0.03675969	-0.07038863	-0.001219367	-0.0005227214	0.0523221	0.004160002
	0.04794859	0.02366745	-0.001219367	-0.0005227214	-0.04156894	-0.0373223	-0.001145112	-7.167955e-05
	-0.0008229216	-8.646735e-05	0.0523221	0.00416	-0.001145112	-7.167957e-05	-0.03653996	-0.07032994
1.2e+08	-0.04873448	-0.02922704	-0.001331768	0.0002223681	0.05109677	0.02015903	-0.0008975051	5.723089e-06
	-0.001331768	0.0002223681	-0.04684748	-0.06817472	-0.001396952	-0.0004712902	0.05355166	-0.002994608
	0.05109677	0.02015903	-0.001396952	-0.0004712902	-0.04840217	-0.02924622	-0.001203291	6.539714e-05
	-0.0008975051	5.723089e-06	0.05355166	-0.002994609	-0.001203291	6.539712e-05	-0.04666201	-0.0681686
1.3e+08	-0.05344298	-0.01968498	-0.001352067	0.000389117	0.05330937	0.01631621	-0.0009682357	0.0001147236
	-0.001352067	0.000389117	-0.05609	-0.06430796	-0.001586398	-0.0003739299	0.05305879	-0.0103878
	0.05330937	0.01631621	-0.001586398	-0.0003739299	-0.0531485	-0.01971336	-0.001248657	0.0002127391
	-0.0009682357	0.0001147236	0.05305878	-0.0103878	-0.001248657	0.0002127391	-0.05594461	-0.06432309
1.4e+08	-0.05576778	-0.009207367	-0.001355938	0.0005635981	0.05457254	0.0123675	-0.001024	0.000241596
	-0.001355938	0.0005635981	-0.06419871	-0.0590463	-0.001774902	-0.0002254647	0.05082408	-0.01762863
	0.05457254	0.0123675	-0.001774902	-0.0002254647	-0.05551225	-0.009236078	-0.001278463	0.0003696891
	-0.001024	0.000241596	0.05082408	-0.01762863	-0.001278463	0.0003696891	-0.06408755	-0.05907204
1.5e+08	-0.05554902	0.001638649	-0.00134014	0.0007447654	0.05492198	0.008532426	-0.001061475	0.0003842199
	-0.00134014	0.0007447654	-0.07096431	-0.05268871	-0.001948668	-2.443258e-05	0.04691059	-0.02432966
	0.05492198	0.008532427	-0.001948668	-2.443258e-05	-0.05533229	0.001620607	-0.001290718	0.0005351605
	-0.001061475	0.0003842199	0.04691059	-0.02432966	-0.001290718	0.0005351605	-0.07088587	-0.05272419
1.6e+08	-0.05276444	0.01226881	-0.001302083	0.0009306454	0.0544386	0.005012793	-0.001077565	0.0005398017
	-0.001302083	0.0009306454	-0.07625416	-0.04555721	-0.002093802	0.0002266619	0.04146239	-0.0301248
	0.0544386	0.005012793	-0.002093802	0.0002266619	-0.05258364	0.01227367	-0.001283705	0.0007077539
	-0.001077565	0.0005398017	0.04146239	-0.0301248	-0.001283705	0.0007077539	-0.0762129	-0.0456035
1.7e+08	-0.04752588	0.02211399	-0.001239604	0.001118652	0.05324269	0.001983678	-0.001069534	0.000705005
	-0.001239604	0.001118652	-0.08001105	-0.0379812	-0.00219744	0.0005215313	0.03469838	-0.03468563
	0.05324269	0.001983678	-0.00219744	0.0005215313	-0.0473748	0.02215351	-0.001255734	0.0008858029
	-0.001069534	0.0007050051	0.03469838	-0.03468562	-0.001255734	0.0008858029	-0.08001541	-0.03803643
1.8e+08	-0.04006951	0.03064924	-0.001151043	0.001305577	0.05148778	-0.0004123334	-0.001035168	0.0008759233
	-0.001151043	0.001305577	-0.08225043	-0.03028067	-0.002248654	0.0008507201	0.02690346	-0.03773564
	0.05148778	-0.0004123332	-0.002248654	0.0008507201	-0.03993924	0.03073361	-0.001205246	0.001067337
	-0.001035168	0.0008759233	0.02690346	-0.03773564	-0.001205246	0.001067337	-0.08231011	-0.03033868
1.9e+08	-0.03074221	0.03741865	-0.001035215	0.001487738	0.04935324	-0.002070467	-0.0009729224	0.001048218
	-0.001035215	0.001487738	-0.08305455	-0.02275189	-0.002239084	0.001202572	0.0184171	-0.03906319
	0.04935324	-0.002070467	-0.002239084	0.001202572	-0.03062139	0.03755618	-0.001130638	0.001249969
	-0.0009729224	0.001048218	0.0184171	-0.03906319	-0.001130638	0.001249969	-0.08317809	-0.02280189
2e+08	-0.01998131	0.0420583	-0.0008915914	0.001659407	0.04703564	-0.002928581	-0.000882036	0.001217233
	-0.0008915914	0.001659407	-0.08256349	-0.0156525	-0.00213386	0.00159824	0.009619243	-0.03853125
	0.04703564	-0.002928581	-0.00213386	0.00159824	-0.0198565	0.04225504	-0.00103145	0.001429473
	-0.000882036	0.001217233	0.009619243	-0.03853125	-0.00103145	0.001429473	-0.08275652	-0.01568122
2.1e+08	-0.008292958	0.04431376	-0.0007207732	0.001817858	0.04474131	-0.002969561	-0.0007625198	0.001378023
	-0.0007207732	0.001817858	-0.08096255	-0.009192066	-0.001955356	0.001979447	0.0009147086	-0.03608504
	0.04474131	-0.002969561	-0.001955356	0.001979447	-0.008148841	0.04457202	-0.000905892	0.00160452
	-0.0007625198	0.001378023	0.0009147085	-0.03608504	-0.000905892	0.00160452	-0.08122722	-0.009183167
2.2e+08	0.003776093	0.04405134	-0.0005236707	0.001958637	0.04267559	-0.002223086	-0.0006153266	0.001525675
	-0.0005236707	0.001958637	-0.07846952	-0.003522552	-0.001707791	0.002331429	-0.007283912	-0.03175631
	0.04267559	-0.002223086	-0.001707791	0.002331429	0.003955012	0.04437027	-0.0007529068	0.001771441
	-0.0006153266	0.001525675	-0.007283912	-0.03175631	-0.0007529068	0.001771441	-0.07880325	-0.003458936
2.3e+08	0.01566514	0.04126444	-0.0003020802	0.002077254	0.04103362	-0.0007653176	-0.0004423429	0.001655469
	-0.0003020802	0.002077254	-0.07531804	0.00126537	-0.001398862	0.002641058	-0.01457471	-0.02566465
	0.04103362	-0.0007653176	-0.001398862	0.002641058	0.01589465	0.04163961	-0.0005719798	0.001926042
	-0.0004423429	0.001655469	-0.01457471	-0.02566465	-0.0005719798	0.001926042	-0.07571418	0.001400108
2.4e+08	0.02683044	0.03607373	-5.851864e-05	0.002169435	0.03998998	0.001283718	-0.0002463006	0.001763054
	-5.851864e-05	0.002169435	-0.07174174	0.0051427	-0.00103879	0.002897825	-0.02058442	-0.01801452
	0.03998998	0.001283718	-0.00103879	0.002897825	0.0271252	0.03649724	-0.0003632245	0.002063636
	-0.0002463006	0.001763054	-0.02058442	-0.01801452	-0.0003632245	0.002063636	-0.0721895	0.005363972
2.5e+08	0.03677307	0.02871908	0.0002035379	0.002231206	0.03968849	0.003764643	-3.061978e-05	0.001844624
	0.0002035379	0.002231206	-0.06795841	0.0081386	-0.0006394601	0.003094237	-0.02498677	-0.009088572
	0.03968849	0.003764643	-0.0006394601	0.003094237	0.03714637	0.02917928	-0.0001276572	0.002179214
	-3.061978e-05	0.001844624	-0.02498677	-0.009088572	-0.0001276572	0.002179214	-0.0684436	0.008458946
2.6e+08	0.04506548	0.01954587	0.0004799017	0.002259101	0.04023322	0.00648615	0.0002005789	0.001897087
	0.0004799017	0.002259101	-0.06415618	0.01033199	-0.0002134582	0.00322608	-0.02751938	0.0007629145
	0.04023322	0.00648615	-0.0002134582	0.00322608	0.04552766	0.02002825	0.000132731	0.002267578
	0.0002005789	0.001897087	-0.02751938	0.0007629145	0.000132731	0.002267578	-0.0646616	0.01076131
2.7e+08	0.0513742	0.008984929	0.0007656993	0.002250364	0.04168126	0.009235293	0.0004428683	0.001918091
	0.0007656993	0.002250364	-0.06048189	0.01184063	0.0002268229	0.003292234	-0.02799707	0.01113668
	0.04168126	0.009235293	0.0002268229	0.003292234	0.05193305	0.00947275	0.0004148371	0.002323603
	0.0004428683	0.001918091	-0.02799707	0.01113668	0.0004148371	0.002323603	-0.06098816	0.01238504
2.8e+08	0.05547709	-0.00247187	0.001055522	0.00220309	0.04403778	0.01178827	0.0006914496	0.001906124
	0.001055522	0.00220309	-0.05703275	0.0128069	0.0006702412	0.003294201	-0.02632338	0.02159411
	0.04403778	0.01178827	0.0006702412	0.003294201	0.05613645	-0.001996929	0.0007143595	0.002342531
	0.0006914496	0.001906124	-0.02632338	0.02159411	0.0007143595	0.002342531	-0.05751924	0.01346814
2.9e+08	0.05727333	-0.01429964	0.001343568	0.002116327	0.04725406	0.0139242	0.0009415135	0.001860498
	0.001343568	0.002116327	-0.05385348	0.01338177	0.001107294	0.003235481	-0.02249707	0.03168101
	0.04725406	0.0139242	0.001107294	0.003235481	0.0580331	-0.01385714	0.00102596	0.002320235
	0.0009415135	0.001860498	-0.02249707	0.03168101	0.00102596	0.002320235	-0.05429889	0.01415767
3e+08	0.05678771	-0.02597155	0.00162394	0.001990155	0.05122956	0.0154377	0.001188344	0.001781289
	0.00162394	0.001990155	-0.05093703	0.01370887	0.001530433	0.003120779	-0.01661331	0.04094865
	0.05122956	0.0154377	0.001530433	0.003120779	0.05764341	-0.02558073	0.001343274	0.002253535
	0.001188344	0.001781289	-0.01661331	0.04094865	0.001343274	0.002253535	-0.05132055	0.01459292
3.1e+08	0.05416605	-0.03698759	0.001890849	0.001825724	0.05581736	0.0161523	0.001427475	0.001669192
	0.001890849	0.001825724	-0.04823055	0.01390956	0.001934175	0.002955127	-0.008861445	0.04897506
	0.05581736	0.0161523	0.001934175	0.002955127	0.05510876	-0.0366665	0.001659147	0.002140519
	0.001427475	0.001669192	-0.008861445	0.04897506	0.001659147	0.002140519	-0.04853216	0.01489123
3.2e+08	0.04966373	-0.04690206	0.002138844	0.00162511	0.06083211	0.01592994	0.001654657	0.001525542
	0.002138844	0.00162511	-0.04564472	0.01407048	0.002314632	0.002743393	0.000483215	0.05538449
	0.06083211	0.01592994	0.002314632	0.002743393	0.05068117	-0.04666693	0.001966038	0.001980577
	0.001654657	0.001525542	0.000483215	0.05538449	0.001966038	0.001980577	-0.04584676	0.01513448
3.3e+08	0.04362899	-0.05534773	0.002363007	0.001391247	0.06606083	0.01467973	0.001866072	0.001352055
	0.002363007	0.001391247	-0.04306741	0.01423395	0.002669282	0.002489494	0.01107129	0.05986441
	0.06606083	0.01467973	0.002669282	0.002489494	0.04470542	-0.05521146	0.002256285	0.001774585
	0.001866072	0.001352055	0.01107129	0.05986441	0.002256285	0.001774585	-0.04315465	0.01536164
3.4e+08	0.03648078	-0.06205343	0.0025591	0.00112775	0.07127623	0.01236277	0.002058273	0.001150818
	0.0025591	0.00112775	-0.04037822	0.01439309	0.002996058	0.002196461	0.0224944	0.06218035
	0.07127623	0.01236277	0.002996058	0.002196461	0.03759781	-0.06202546	0.00252247	0.001524862
	0.002058273	0.001150818	0.0224944	0.06218035	0.00252247	0.001524862	-0.04033954	0.0155626
3.5e+08	0.02868313	-0.06685707	0.002723619	0.0008386839	0.07624877	0.008992668	0.002228099	0.0009241556
	0.002723619	0.0008386839	-0.03746478	0.01449174	0.003292955	0.001866262	0.03430275	0.06218513
	0.07624877	0.008992668	0.003292955	0.001866262	0.02982066	-0.06694261	0.002757666	0.001235098
	0.002228099	0.0009241556	0.03430275	0.06218513	0.002757666	0.001235098	-0.03729264	0.01567886
3.6e+08	0.02071843	-0.06971131	0.002853894	0.0005283469	0.08075956	0.004634629	0.002372743	0.0006745989
	0.002853894	0.0005283469	-0.03423742	0.01442855	0.003557384	0.001499966	0.04602402	0.059826
	0.08075956	0.004634629	0.003557384	0.001499966	0.02185585	-0.06991068	0.002955821	0.0009101198
	0.002372743	0.0006745989	0.04602402	0.059826	0.002955821	0.0009101198	-0.03392953	0.01560716
3.7e+08	0.01306038	-0.07068251	0.002947918	0.0002010134	0.08461178	-0.0006001404	0.002489652	0.0004047137
	0.002947918	0.0002010134	-0.03064336	0.01406538	0.003785745	0.001098426	0.05718331	0.05514636
	0.08461178	-0.0006001404	0.003785745	0.001098426	0.0141775	-0.07099187	0.003111894	0.0005555529
	0.002489652	0.0004047137	0.05718331	0.05514636	0.003111894	0.0005555529	-0.03020247	0.01520871
3.8e+08	0.006148819	-0.06994459	0.003004279	-0.0001390426	0.08763947	-0.006561536	0.002576417	0.0001173397
	0.003004279	-0.0001390426	-0.02667627	0.01323897	0.003973252	0.0006628403	0.06732155	0.04828381
	0.08763947	-0.006561536	0.003973252	0.0006628403	0.007226949	-0.07035587	0.00322191	0.0001777902
	0.002576417	0.0001173397	0.06732155	0.04828381	0.00322191	0.0001777902	-0.02611011	0.01432039
3.9e+08	0.0003660452	-0.06776775	0.003022006	-0.0004877725	0.08971524	-0.01306902	0.002630782	-0.000184624
	0.003022006	-0.0004877725	-0.02238399	0.01177422	0.004114064	0.0001952241	0.07601411	0.03946596
	0.08971524	-0.01306902	0.004114064	0.0001952241	0.001388966	-0.06826818	0.003283093	-0.0002164688
	0.002630782	-0.000184624	0.07601411	0.03946596	0.003283093	-0.0002164688	-0.02170636	0.01276888
4e+08	-0.003981788	-0.06450115	0.003000404	-0.0008413056	0.0907543	-0.01992157	0.002650584	-0.0004980135
	0.003000404	-0.0008413056	-0.01787162	0.009501436	0.004201486	-0.0003010371	0.08288749	0.02900092
	0.0907543	-0.01992157	0.004201486	-0.0003010371	-0.003026777	-0.0650753	0.003293732	-0.0006204456
	0.002650584	-0.0004980135	0.08288749	0.02900092	0.003293732	-0.0006204456	-0.01710057	0.01038682
4.1e+08	-0.006680011	-0.06055369	0.002938912	-0.001195919	0.09071737	-0.02690731	0.002633777	-0.000819385
	0.002938912	-0.001195919	-0.0132999	0.006272079	0.004228597	-0.0008204275	0.08763383	0.01726701
	0.09071737	-0.02690731	0.004228597	-0.0008204275	-0.005801736	-0.06118352	0.003253197	-0.001027274
	0.002633777	-0.000819385	0.08763383	0.01726701	0.003253197	-0.001027274	-0.01245835	0.007028799
4.2e+08	-0.007616515	-0.05637184	0.002837049	-0.001547871	0.08961053	-0.03381409	0.002578484	-0.001144891
	0.002837049	-0.001547871	-0.008880961	0.001972648	0.004188749	-0.001355606	0.09002425	0.004698797
	0.08961053	-0.03381409	0.004188749	-0.001355606	-0.006819006	-0.0570378	0.003161737	-0.001430466
	0.002578484	-0.001144891	0.09002425	0.004698797	0.003161737	-0.001430466	-0.007995899	0.002585813
4.3e+08	-0.006786184	-0.05241531	0.002694351	-0.001893336	0.08748393	-0.04043763	0.002482937	-0.001470347
	0.002694351	-0.001893336	-0.004868309	-0.003459069	0.004076488	-0.001896807	0.08991823	-0.008229029
	0.08748393	-0.04043763	0.004076488	-0.001896807	-0.006069075	-0.0530976	0.003020351	-0.001823877
	0.002482937	-0.001470347	0.08991823	-0.008229029	0.003020351	-0.001823877	-0.003969559	-0.002999092
4.4e+08	-0.004291857	-0.04913284	0.002510428	-0.002228189	0.08442813	-0.04659115	0.002345807	-0.001790907
	0.002510428	-0.002228189	-0.001544492	-0.01002347	0.003888078	-0.002432616	0.08727102	-0.02101876
	0.08442813	-0.04659115	0.003888078	-0.002432616	-0.003649481	-0.0498125	0.00283076	-0.002201567
	0.002345807	-0.001790907	0.08727102	-0.02101876	0.00283076	-0.002201567	-0.0006643894	-0.009720747
4.5e+08	-0.00033924	-0.04693829	0.002285083	-0.002547957	0.08057038	-0.05211255	0.002166275	-0.002101212
	0.002285083	-0.002547957	0.0007928183	-0.01765048	0.003622227	-0.002950229	0.08213775	-0.03316932
	0.08057038	-0.05211255	0.003622227	-0.002950229	0.0002385324	-0.04759829	0.002595183	-0.002558151
	0.002166275	-0.002101212	0.08213775	-0.03316932	0.002595183	-0.002558151	0.001621057	-0.01750272
4.6e+08	0.004773503	-0.04618811	0.002018508	-0.002847602	0.07606779	-0.05687166	0.001944136	-0.002395449
	0.002018508	-0.002847602	0.00184944	-0.02619423	0.003280663	-0.003435989	0.07467306	-0.04419608
	0.07606779	-0.05687166	0.003280663	-0.003435989	0.005300908	-0.04681444	0.002316104	-0.002888678
	0.001944136	-0.002395449	0.07467306	-0.04419608	0.002316104	-0.002888678	0.002593289	-0.02619257
4.7e+08	0.01067154	-0.04716039	0.00171135	-0.003121724	0.07110056	-0.06077532	0.001680146	-0.00266732
	0.00171135	-0.003121724	0.001354312	-0.03543123	0.002868143	-0.003876553	0.06512716	-0.05365141
	0.07110056	-0.06077532	0.002868143	-0.003876553	0.01116585	-0.04774345	0.001996583	-0.003188394
	0.001680146	-0.00266732	0.06512716	-0.05365141	0.001996583	-0.003188394	0.001981771	-0.03556067
4.8e+08	0.01692153	-0.05004097	0.001365098	-0.00336443	0.06586383	-0.06377217	0.001376031	-0.002910321
	0.001365098	-0.00336443	-0.0009235742	-0.04506639	0.002392347	-0.004259777	0.0538376	-0.06114336
	0.06586383	-0.06377217	0.002392347	-0.004259777	0.01740255	-0.05057507	0.001639782	-0.003452936
	0.001376031	-0.002910321	0.0538376	-0.06114336	0.001639782	-0.003452936	-0.0004410793	-0.04530471
4.9e+08	0.02305487	-0.05490865	0.0009823012	-0.003569477	0.06055846	-0.06585532	0.001034769	-0.003117903
	0.0009823012	-0.003569477	-0.005155608	-0.05473806	0.00186384	-0.004575232	0.04121651	-0.06635437
