!$
! Info: Touchstone file created by Circ.  Input file=Intel_C2M_200G_8p0in_202208016_staggered.circ
!$
# Hz S RI R 50
0	0.02213497	4.292258e-24	8.254486e-05	1.208431e-22	0.0001254262	3.124838e-22	8.247963e-05	1.206498e-22
	8.254486e-05	1.208431e-22	0.022148	4.463397e-24	8.252818e-05	1.207586e-22	0.0001250441	3.1051e-22
	0.0001254834	3.126097e-22	8.252817e-05	1.207601e-22	0.02212985	4.092003e-24	8.2493e-05	1.205685e-22
	8.247962e-05	1.206513e-22	0.0001251013	3.106352e-22	8.2493e-05	1.205685e-22	0.02214596	4.224422e-24
1e+07	0.0273628	-0.00385762	1.609138e-05	8.027206e-06	0.001705337	0.00684014	3.234927e-06	2.149275e-05
	1.609138e-05	8.027206e-06	0.02706474	-0.004118486	5.115988e-05	7.426946e-06	0.002006289	0.006912321
	0.001705337	0.00684014	5.115988e-05	7.426946e-06	0.02771722	-0.003873995	2.153946e-05	2.535087e-05
	3.234927e-06	2.149275e-05	0.002006289	0.006912321	2.153946e-05	2.535087e-05	0.02689603	-0.004088345
2e+07	0.0303651	-0.01261608	7.731525e-06	2.345664e-05	0.004571534	0.01271603	4.171445e-06	6.715544e-06
	7.731525e-06	2.345663e-05	0.02984042	-0.01290154	3.56957e-05	2.362696e-05	0.004836936	0.01274628
	0.004571543	0.01271601	3.56957e-05	2.362696e-05	0.03058231	-0.01273925	1.63371e-05	2.11419e-05
	4.171445e-06	6.715543e-06	0.004836944	0.01274627	1.63371e-05	2.11419e-05	0.02971755	-0.01278098
3e+07	0.03031974	-0.02325142	2.492204e-05	2.720548e-05	0.008794478	0.01770621	5.816253e-06	3.159856e-06
	2.492204e-05	2.720548e-05	0.02962298	-0.02347107	2.743208e-05	3.615666e-05	0.009034537	0.01774931
	0.008794459	0.01770625	2.743207e-05	3.615666e-05	0.03043999	-0.02335039	1.373958e-05	2.167893e-05
	5.816254e-06	3.159856e-06	0.009034519	0.01774935	1.373958e-05	2.167893e-05	0.02954066	-0.02329678
4e+07	0.02749753	-0.03411689	3.865707e-05	2.412282e-05	0.01416722	0.02139924	7.712085e-06	2.077666e-06
	3.865707e-05	2.412282e-05	0.02666821	-0.03422482	2.219306e-05	4.319368e-05	0.01438743	0.02146529
	0.01416723	0.02139927	2.219307e-05	4.319368e-05	0.02755858	-0.03416199	1.236047e-05	2.240131e-05
	7.712086e-06	2.077665e-06	0.01438743	0.02146532	1.236047e-05	2.240131e-05	0.02663377	-0.03401637
5e+07	0.02229141	-0.04435756	4.892183e-05	1.693217e-05	0.02033	0.02360243	9.938416e-06	1.983874e-06
	4.892183e-05	1.693217e-05	0.02136637	-0.04432345	3.692135e-05	3.670319e-05	0.02053369	0.02369413
	0.02033001	0.02360244	3.692135e-05	3.670319e-05	0.02232125	-0.04433691	1.777162e-05	1.888373e-05
	9.938416e-06	1.983874e-06	0.02053369	0.02369414	1.777162e-05	1.888373e-05	0.02138071	-0.0440956
6e+07	0.01506648	-0.0534364	5.594205e-05	7.416966e-06	0.02690443	0.02417162	1.173938e-05	1.141531e-06
	5.594205e-05	7.416966e-06	0.01408226	-0.05324032	4.765353e-05	2.700583e-05	0.02709288	0.02428851
	0.02690443	0.0241716	4.765353e-05	2.700583e-05	0.01508932	-0.05334777	2.208836e-05	1.431065e-05
	1.173938e-05	1.141532e-06	0.02709289	0.02428849	2.208836e-05	1.431065e-05	0.01414419	-0.05300592
7e+07	0.006218919	-0.06093968	5.978128e-05	-3.402235e-06	0.03348447	0.02305615	1.31101e-05	-1.880138e-07
	5.978128e-05	-3.402235e-06	0.005212082	-0.06057002	5.438091e-05	1.530627e-05	0.03365693	0.02319633
	0.03348446	0.02305614	5.438091e-05	1.530627e-05	0.006255099	-0.06078798	2.49486e-05	9.14554e-06
	1.31101e-05	-1.880142e-07	0.03365692	0.02319632	2.49486e-05	9.14554e-06	0.005318395	-0.0603412
8e+07	-0.003801154	-0.06657546	6.052449e-05	-1.478463e-05	0.03966629	0.02030194	1.404466e-05	-1.848561e-06
	6.052449e-05	-1.478463e-05	-0.004793699	-0.0660275	5.711965e-05	2.516815e-06	0.03981987	0.0204632
	0.03966629	0.02030194	5.711965e-05	2.516815e-06	-0.003735198	-0.06637015	2.635794e-05	3.650622e-06
	1.404466e-05	-1.848562e-06	0.03981987	0.02046321	2.635794e-05	3.650622e-06	-0.004648302	-0.06581543
9e+07	-0.01451399	-0.07017856	5.819339e-05	-2.616003e-05	0.0450713	0.01604619	1.453533e-05	-3.683878e-06
	5.819339e-05	-2.616003e-05	-0.01545359	-0.06945292	5.594587e-05	-1.043302e-05	0.04520089	0.01622651
	0.04507131	0.01604619	5.594587e-05	-1.043302e-05	-0.01440535	-0.0699313	2.629064e-05	-1.895659e-06
	1.453533e-05	-3.683878e-06	0.0452009	0.01622652	2.629064e-05	-1.895659e-06	-0.01527733	-0.06926738
1e+08	-0.02540825	-0.07168337	5.183549e-05	-3.753028e-05	0.04936672	0.01050531	1.449027e-05	-5.570653e-06
	5.183549e-05	-3.753028e-05	-0.02624141	-0.07077881	4.971955e-05	-2.348675e-05	0.04946574	0.01070311
	0.04936672	0.01050531	4.971955e-05	-2.348675e-05	-0.0252408	-0.07140296	2.432707e-05	-7.432997e-06
	1.449027e-05	-5.570653e-06	0.04946574	0.01070311	2.432707e-05	-7.432997e-06	-0.02604552	-0.07062778
1.1e+08	-0.03608099	-0.07138242	4.228386e-05	-4.22979e-05	0.05226724	0.003944508	1.4476e-05	-6.91661e-06
	4.228386e-05	-4.22979e-05	-0.03675969	-0.07038863	3.951465e-05	-2.855692e-05	0.0523221	0.004160002
	0.05226724	0.003944506	3.951465e-05	-2.855692e-05	-0.03582531	-0.07117661	2.099666e-05	-1.021445e-05
	1.4476e-05	-6.91661e-06	0.0523221	0.00416	2.099666e-05	-1.021445e-05	-0.03653996	-0.07032994
1.2e+08	-0.04629373	-0.06922463	3.50089e-05	-4.512362e-05	0.05355212	-0.003236667	1.508348e-05	-8.341897e-06
	3.500891e-05	-4.512362e-05	-0.04684748	-0.06817472	3.197239e-05	-3.100716e-05	0.05355166	-0.002994608
	0.05355212	-0.003236668	3.197239e-05	-3.100716e-05	-0.04602783	-0.06907329	1.84811e-05	-1.227153e-05
	1.508348e-05	-8.341897e-06	0.05355166	-0.002994609	1.84811e-05	-1.227153e-05	-0.04666201	-0.0681686
1.3e+08	-0.0556491	-0.06539669	3.041356e-05	-4.651784e-05	0.05312323	-0.01066774	1.532599e-05	-1.032975e-05
	3.041356e-05	-4.651784e-05	-0.05609	-0.06430796	2.546078e-05	-3.235489e-05	0.05305879	-0.0103878
	0.05312323	-0.01066774	2.546078e-05	-3.235489e-05	-0.05539038	-0.06527774	1.61615e-05	-1.402763e-05
	1.532599e-05	-1.032975e-05	0.05305878	-0.0103878	1.61615e-05	-1.402763e-05	-0.05594461	-0.06432309
1.4e+08	-0.06386218	-0.06016096	2.80375e-05	-4.728544e-05	0.05095854	-0.01796039	1.506626e-05	-1.278884e-05
	2.80375e-05	-4.728544e-05	-0.06419871	-0.0590463	1.957089e-05	-3.302439e-05	0.05082408	-0.01762863
	0.05095854	-0.01796039	1.957089e-05	-3.302439e-05	-0.06361475	-0.06006899	1.387547e-05	-1.558438e-05
	1.506626e-05	-1.278884e-05	0.05082408	-0.01762863	1.387547e-05	-1.558438e-05	-0.06408755	-0.05907204
1.5e+08	-0.07072528	-0.05381866	2.506767e-05	-4.838942e-05	0.04711786	-0.02472924	1.428611e-05	-1.548094e-05
	2.506767e-05	-4.838942e-05	-0.07096431	-0.05268871	1.418763e-05	-3.309735e-05	0.04691059	-0.02432966
	0.04711786	-0.02472924	1.418763e-05	-3.309735e-05	-0.07049659	-0.05375519	1.151943e-05	-1.699667e-05
	1.428611e-05	-1.548094e-05	0.04691059	-0.02432966	1.151943e-05	-1.699667e-05	-0.07088587	-0.05272419
1.6e+08	-0.07610657	-0.04669313	2.147392e-05	-4.9657e-05	0.04174143	-0.03060955	1.290153e-05	-1.831229e-05
	2.147392e-05	-4.9657e-05	-0.07625416	-0.04555721	9.186702e-06	-3.272223e-05	0.04146239	-0.0301248
	0.04174143	-0.03060955	9.186702e-06	-3.272223e-05	-0.07590899	-0.04665939	9.014296e-06	-1.826868e-05
	1.290153e-05	-1.831229e-05	0.04146239	-0.0301248	9.014296e-06	-1.826868e-05	-0.0762129	-0.0456035
1.7e+08	-0.07994906	-0.03911455	1.711246e-05	-5.095352e-05	0.03504393	-0.03527331	1.081851e-05	-2.116762e-05
	1.711246e-05	-5.095352e-05	-0.08001105	-0.0379812	5.536783e-06	-3.197925e-05	0.03469838	-0.03468563
	0.03504393	-0.03527331	5.536783e-06	-3.197925e-05	-0.07979781	-0.03910719	6.532969e-06	-1.94044e-05
	1.081851e-05	-2.116762e-05	0.03469838	-0.03468562	6.532969e-06	-1.94044e-05	-0.08001541	-0.03803643
1.8e+08	-0.08226801	-0.03140352	1.198789e-05	-5.203093e-05	0.02730581	-0.03844345	7.977241e-06	-2.389151e-05
	1.198789e-05	-5.203093e-05	-0.08225043	-0.03028067	2.376922e-06	-3.106302e-05	0.02690346	-0.03773564
	0.02730581	-0.03844344	2.376922e-06	-3.106302e-05	-0.08217836	-0.03141349	4.036074e-06	-2.034948e-05
	7.977241e-06	-2.389151e-05	0.02690346	-0.03773564	4.036075e-06	-2.034948e-05	-0.08231011	-0.03033868
1.9e+08	-0.08314523	-0.02385693	6.185358e-06	-5.265898e-05	0.01886211	-0.03990662	4.403139e-06	-2.630237e-05
	6.185358e-06	-5.265898e-05	-0.08305455	-0.02275189	-1.079311e-06	-2.992072e-05	0.0184171	-0.03906319
	0.01886211	-0.03990662	-1.079311e-06	-2.992072e-05	-0.08312991	-0.02386966	1.10379e-06	-2.099968e-05
	4.403139e-06	-2.630237e-05	0.0184171	-0.03906319	1.10379e-06	-2.099968e-05	-0.08317809	-0.02280189
2e+08	-0.08272013	-0.01673318	-2.388146e-07	-5.263809e-05	0.01008865	-0.03952302	1.167373e-07	-2.8228e-05
	-2.388146e-07	-5.263809e-05	-0.08256349	-0.0156525	-4.780889e-06	-2.845347e-05	0.009619243	-0.03853125
	0.01008865	-0.03952301	-4.780889e-06	-2.845347e-05	-0.08278756	-0.01673103	-2.212649e-06	-2.125432e-05
	1.167373e-07	-2.8228e-05	0.009619243	-0.03853125	-2.212649e-06	-2.125432e-05	-0.08275652	-0.01568122
2.1e+08	-0.08117728	-0.01024281	-7.192928e-06	-5.177724e-05	0.001386702	-0.03723393	-4.822214e-06	-2.949109e-05
	-7.192928e-06	-5.177724e-05	-0.08096255	-0.009192066	-8.681545e-06	-2.658471e-05	0.0009147086	-0.03608504
	0.001386702	-0.03723393	-8.681545e-06	-2.658471e-05	-0.08133107	-0.0102049	-5.845863e-06	-2.102029e-05
	-4.822214e-06	-2.949109e-05	0.0009147085	-0.03608504	-5.845863e-06	-2.102029e-05	-0.08122722	-0.009183167
2.2e+08	-0.07873385	-0.004539063	-1.453524e-05	-4.989462e-05	-0.006833844	-0.03306629	-1.031221e-05	-2.992002e-05
	-1.453524e-05	-4.989462e-05	-0.07846952	-0.003522552	-1.271442e-05	-2.423695e-05	-0.007283912	-0.03175631
	-0.006833844	-0.03306629	-1.271442e-05	-2.423695e-05	-0.07897159	-0.004443896	-9.713699e-06	-2.021604e-05
	-1.031221e-05	-2.992002e-05	-0.007283912	-0.03175631	-9.713699e-06	-2.021604e-05	-0.07880325	-0.003458936
2.3e+08	-0.07562307	0.0002858499	-2.20788e-05	-4.683292e-05	-0.01417268	-0.02713403	-1.62114e-05	-2.935707e-05
	-2.20788e-05	-4.683292e-05	-0.07531804	0.00126537	-1.680212e-05	-2.134016e-05	-0.01457471	-0.02566465
	-0.01417268	-0.02713403	-1.680212e-05	-2.134016e-05	-0.07593718	0.0004586946	-1.371928e-05	-1.877242e-05
	-1.62114e-05	-2.935707e-05	-0.01457471	-0.02566465	-1.371928e-05	-1.877242e-05	-0.07571418	0.001400108
2.4e+08	-0.07207852	0.004201215	-2.95949e-05	-4.247066e-05	-0.02025678	-0.0196355	-2.233619e-05	-2.767025e-05
	-2.95949e-05	-4.247066e-05	-0.07174174	0.0051427	-2.085122e-05	-1.783568e-05	-0.02058442	-0.01801452
	-0.02025678	-0.0196355	-2.085122e-05	-1.783568e-05	-0.07245641	0.004470511	-1.775379e-05	-1.663424e-05
	-2.233619e-05	-2.767025e-05	-0.02058442	-0.01801452	-1.775379e-05	-1.663424e-05	-0.0721895	0.005363972
2.5e+08	-0.06831849	0.007234418	-3.682037e-05	-3.673286e-05	-0.0247586	-0.010847	-2.846886e-05	-2.476169e-05
	-3.682037e-05	-3.673286e-05	-0.06795841	0.0081386	-2.475523e-05	-1.367623e-05	-0.02498677	-0.009088572
	-0.0247586	-0.010847	-2.475523e-05	-1.367623e-05	-0.06874346	0.007615296	-2.169495e-05	-1.37625e-05
	-2.846886e-05	-2.476169e-05	-0.02498677	-0.009088572	-2.169495e-05	-1.37625e-05	-0.0684436	0.008458946
2.6e+08	-0.06453202	0.009462793	-4.346696e-05	-2.959947e-05	-0.02741296	-0.001112727	-3.436349e-05	-2.057655e-05
	-4.346696e-05	-2.959947e-05	-0.06415618	0.01033199	-2.839278e-05	-8.830232e-06	-0.02751938	0.0007629145
	-0.02741296	-0.001112727	-2.839278e-05	-8.830232e-06	-0.06498404	0.009966811	-2.541008e-05	-1.01356e-05
	-3.436349e-05	-2.057655e-05	-0.02751938	0.0007629145	-2.541008e-05	-1.01356e-05	-0.0646616	0.01076131
2.7e+08	-0.06086744	0.01100275	-4.923418e-05	-2.1111e-05	-0.02803034	0.009169597	-3.975561e-05	-1.510912e-05
	-4.923418e-05	-2.1111e-05	-0.06048189	0.01184063	-3.162848e-05	-3.284079e-06	-0.02799707	0.01113668
	-0.02803034	0.009169597	-3.162848e-05	-3.284079e-06	-0.0613241	0.01163683	-2.875648e-05	-5.751501e-06
	-3.975561e-05	-1.510912e-05	-0.02799707	0.01113668	-2.875648e-05	-5.751501e-06	-0.06098816	0.01238504
2.8e+08	-0.05742371	0.01199586	-5.382058e-05	-1.137414e-05	-0.0265086	0.0195658	-4.437108e-05	-8.408872e-06
	-5.382058e-05	-1.137414e-05	-0.05703275	0.0128069	-3.431416e-05	2.953305e-06	-0.02632338	0.02159411
	-0.0265086	0.0195658	-3.431416e-05	2.953305e-06	-0.05786153	0.0127617	-3.158212e-05	-6.335146e-07
	-4.437108e-05	-8.408872e-06	-0.02632338	0.02159411	-3.158212e-05	-6.335146e-07	-0.05751924	0.01346814
2.9e+08	-0.05424762	0.01259297	-5.693898e-05	-5.597913e-07	-0.02283965	0.02962487	-4.793851e-05	-5.828676e-07
	-5.693898e-05	-5.597913e-07	-0.05385348	0.01338177	-3.629063e-05	9.843183e-06	-0.02249707	0.03168101
	-0.02283965	0.02962487	-3.629063e-05	9.843183e-06	-0.05464273	0.0134876	-3.372983e-05	5.168295e-06
	-4.793851e-05	-5.828676e-07	-0.02249707	0.03168101	-3.372983e-05	5.168295e-06	-0.05429889	0.01415767
3e+08	-0.05133408	0.01293825	-5.83294e-05	1.1101e-05	-0.01711114	0.03889963	-5.020008e-05	8.205548e-06
	-5.83294e-05	1.1101e-05	-0.05093703	0.01370887	-3.739375e-05	1.731265e-05	-0.01661331	0.04094865
	-0.01711114	0.03889963	-3.739375e-05	1.731265e-05	-0.05166367	0.01395376	-3.504108e-05	1.157224e-05
	-5.020008e-05	8.205548e-06	-0.01661331	0.04094865	-3.504108e-05	1.157224e-05	-0.05132055	0.01459292
3.1e+08	-0.04863197	0.01315431	-5.777135e-05	2.331539e-05	-0.009504497	0.04696784	-5.092364e-05	1.773726e-05
	-5.777135e-05	2.331539e-05	-0.04823055	0.01390956	-3.745971e-05	2.525374e-05	-0.008861445	0.04897506
	-0.009504497	0.04696784	-3.745971e-05	2.525374e-05	-0.04887463	0.01427842	-3.536242e-05	1.846085e-05
	-5.092364e-05	1.773726e-05	-0.008861445	0.04897506	-3.536242e-05	1.846085e-05	-0.04853216	0.01489123
3.2e+08	-0.04605318	0.01332964	-5.509418e-05	3.574517e-05	-0.0002871977	0.0534517	-4.991314e-05	2.774094e-05
	-5.509418e-05	3.574517e-05	-0.04564472	0.01407048	-3.633534e-05	3.351312e-05	0.000483215	0.05538449
	-0.0002871977	0.0534517	-3.633534e-05	3.351312e-05	-0.04619055	0.01454513	-3.455234e-05	2.568185e-05
	-4.991314e-05	2.774094e-05	0.000483215	0.05538449	-3.455234e-05	2.568185e-05	-0.04584676	0.01513448
3.3e+08	-0.04348609	0.0135089	-5.018771e-05	4.800832e-05	0.01019862	0.05803489	-4.701869e-05	3.79011e-05
	-5.018771e-05	4.800832e-05	-0.04306741	0.01423395	-3.388623e-05	4.189884e-05	0.01107129	0.05986441
	0.01019862	0.05803489	-3.388623e-05	4.189884e-05	-0.04350296	0.01479526	-3.249151e-05	3.304372e-05
	-4.701869e-05	3.79011e-05	0.01107129	0.05986441	-3.249151e-05	3.304372e-05	-0.04315465	0.01536164
3.4e+08	-0.04080996	0.01368763	-4.300903e-05	5.969275e-05	0.021551	0.06047746	-4.214821e-05	4.786124e-05
	-4.300903e-05	5.969275e-05	-0.04037822	0.01439309	-3.000895e-05	5.017622e-05	0.0224944	0.06218035
	0.021551	0.06047746	-3.000895e-05	5.017622e-05	-0.04069581	0.01502142	-2.90906e-05	4.032187e-05
	-4.214821e-05	4.786124e-05	0.0224944	0.06218035	-2.90906e-05	4.032187e-05	-0.04033954	0.0155626
3.5e+08	-0.03791121	0.01381213	-3.359288e-05	7.036484e-05	0.03332526	0.06062554	-3.527061e-05	5.723982e-05
	-3.359288e-05	7.036484e-05	-0.03746478	0.01449174	-2.464432e-05	5.807383e-05	0.03430275	0.06218513
	0.03332526	0.06062554	-2.464432e-05	5.807383e-05	-0.03765964	0.01516799	-2.430127e-05	4.726085e-05
	-3.527061e-05	5.723982e-05	0.03430275	0.06218513	-2.430127e-05	4.726085e-05	-0.03729264	0.01567886
3.6e+08	-0.03469806	0.01378312	-2.204873e-05	7.958501e-05	0.0450527	0.05841855	-2.642992e-05	6.563295e-05
	-2.204873e-05	7.958501e-05	-0.03423742	0.01442855	-1.778219e-05	6.529476e-05	0.04602402	0.059826
	0.0450527	0.05841855	-1.778219e-05	6.529476e-05	-0.03430824	0.01513442	-1.812553e-05	5.358192e-05
	-2.642992e-05	6.563295e-05	0.04602402	0.059826	-1.812553e-05	5.358192e-05	-0.03392953	0.01560716
3.7e+08	-0.03111489	0.01346394	-8.577774e-06	8.691797e-05	0.05626042	0.05389141	-1.574867e-05	7.263148e-05
	-8.577774e-06	8.691797e-05	-0.03064336	0.01406538	-9.47978e-06	7.152159e-05	0.05718331	0.05514636
	0.05626042	0.05389141	-9.47978e-06	7.152159e-05	-0.03059113	0.01478407	-1.061844e-05	5.89954e-05
	-1.574867e-05	7.263148e-05	0.05718331	0.05514636	-1.061844e-05	5.89954e-05	-0.03020247	0.01520871
3.8e+08	-0.02715193	0.01269202	6.538719e-06	9.194825e-05	0.06648951	0.04717288	-3.432736e-06	7.783512e-05
	6.538719e-06	9.194825e-05	-0.02667627	0.01323897	1.419063e-07	7.643539e-05	0.06732155	0.04828381
	0.06648951	0.04717288	1.419063e-07	7.643539e-05	-0.02650343	0.01395525	-1.901488e-06	6.32088e-05
	-3.432736e-06	7.783512e-05	0.06732155	0.04828381	-1.901488e-06	6.32088e-05	-0.02611011	0.01432039
3.9e+08	-0.0228532	0.01129199	2.292717e-05	9.429725e-05	0.07531374	0.03848174	1.023029e-05	8.086753e-05
	2.292717e-05	9.429725e-05	-0.02238399	0.01177422	1.088938e-05	7.972747e-05	0.07601411	0.03946596
	0.07531374	0.03848174	1.088938e-05	7.972747e-05	-0.02209485	0.01247502	7.845281e-06	6.594249e-05
	1.023029e-05	8.086753e-05	0.07601411	0.03946596	7.845281e-06	6.594249e-05	-0.02170636	0.01276888
4e+08	-0.01831985	0.009092746	4.012629e-05	9.364088e-05	0.08235619	0.02811765	2.486012e-05	8.139578e-05
	4.012629e-05	9.364088e-05	-0.01787162	0.009501436	2.249557e-05	8.111583e-05	0.08288749	0.02900092
	0.08235619	0.02811765	2.249557e-05	8.111583e-05	-0.01747017	0.01017523	1.837195e-05	6.694338e-05
	2.486012e-05	8.139578e-05	0.08288749	0.02900092	1.837195e-05	6.694338e-05	-0.01710057	0.01038682
4.1e+08	-0.01370877	0.005943318	5.759802e-05	8.972924e-05	0.0873039	0.01645113	4.000214e-05	7.914634e-05
	5.759802e-05	8.972924e-05	-0.0132999	0.006272079	3.46265e-05	8.036194e-05	0.08763383	0.01726701
	0.0873039	0.01645113	3.46265e-05	8.036194e-05	-0.0127904	0.006908354	2.937453e-05	6.599806e-05
	4.000214e-05	7.914634e-05	0.08763383	0.01726701	2.937453e-05	6.599806e-05	-0.01245835	0.007028799
4.2e+08	-0.00922866	0.001726551	7.472954e-05	8.240666e-05	0.08992138	0.003909996	5.512364e-05	7.393194e-05
	7.472954e-05	8.240666e-05	-0.008880961	0.001972648	4.688973e-05	7.728854e-05	0.09002425	0.004698797
	0.08992138	0.003909996	4.688973e-05	7.728854e-05	-0.00826734	0.002561953	4.049139e-05	6.29476e-05
	5.512364e-05	7.393194e-05	0.09002425	0.004698797	4.049139e-05	6.29476e-05	-0.007995899	0.002585813
4.3e+08	-0.005130279	-0.003624416	9.085277e-05	7.163336e-05	0.09006002	-0.009036482	6.963558e-05	6.566514e-05
	9.085277e-05	7.163336e-05	-0.004868309	-0.003459069	5.883833e-05	7.178741e-05	0.08991823	-0.008229029
	0.09006002	-0.009036482	5.883833e-05	7.178741e-05	-0.004153525	-0.002925825	5.131823e-05	5.770102e-05
	6.963558e-05	6.566514e-05	0.08991823	-0.008229029	5.131823e-05	5.770102e-05	-0.003969559	-0.002999092
4.4e+08	-0.001694308	-0.01011566	0.0001052658	5.750573e-05	0.08766597	-0.02189452	8.291288e-05	5.437534e-05
	0.0001052658	5.750573e-05	-0.001544492	-0.01002347	6.999155e-05	6.383959e-05	0.08727102	-0.02101876
	0.08766597	-0.02189452	6.999155e-05	6.383959e-05	-0.0007311891	-0.009555924	6.141769e-05	5.024542e-05
	8.291288e-05	5.437534e-05	0.08727102	-0.02101876	6.141769e-05	5.024542e-05	-0.0006643894	-0.009720747
4.5e+08	0.0007821933	-0.01768359	0.00011726	4.026399e-05	0.08278436	-0.03416504	9.431137e-05	4.022972e-05
	0.00011726	4.026399e-05	0.0007928183	-0.01765048	7.984797e-05	5.352349e-05	0.08213775	-0.03316932
	0.08278436	-0.03416504	7.984797e-05	5.352349e-05	0.001702685	-0.01725924	7.033839e-05	4.065177e-05
	9.431137e-05	4.022972e-05	0.08213775	-0.03316932	7.033839e-05	4.065177e-05	0.001621057	-0.01750272
4.6e+08	0.002004248	-0.02618944	0.0001261523	2.030662e-05	0.07555933	-0.04536345	0.0001032041	2.353554e-05
	0.0001261523	2.030662e-05	0.00184944	-0.02619423	8.790587e-05	4.101482e-05	0.07467306	-0.04419608
	0.07555933	-0.04536345	8.790587e-05	4.101482e-05	0.002854481	-0.02589151	7.762714e-05	2.908871e-05
	0.0001032041	2.353554e-05	0.07467306	-0.04419608	7.762714e-05	2.908871e-05	0.002593289	-0.02619257
4.7e+08	0.001698213	-0.03541713	0.0001313243	-1.813169e-06	0.06623059	-0.05504002	0.0001090162	4.738491e-06
	0.0001313243	-1.813169e-06	0.001354312	-0.03543123	9.367908e-05	2.660331e-05	0.06512716	-0.05365141
	0.06623059	-0.05504002	9.367908e-05	2.660331e-05	0.002451454	-0.03523195	8.284908e-05	1.582098e-05
	0.0001090162	4.738491e-06	0.06512716	-0.05365141	8.284908e-05	1.582098e-05	0.001981771	-0.03556067
4.8e+08	-0.0003714012	-0.04507888	0.0001322584	-2.539098e-05	0.05512555	-0.06279849	0.0001112527	-1.557293e-05
	0.0001322584	-2.539098e-05	-0.0009235742	-0.04506639	9.672772e-05	1.068177e-05	0.0538376	-0.06114336
