!$
! Info: Touchstone file created by Circ.  Input file=Intel_C2M_200G_8p0in_202208016_staggered.circ
!$
# Hz S RI R 50
0	0.02213503	4.089874e-24	8.226774e-05	1.206362e-22	0.0001254483	3.126014e-22	8.226081e-05	1.204483e-22
	8.226774e-05	1.206362e-22	0.022148	4.463397e-24	8.227217e-05	1.207356e-22	0.0001250441	3.1051e-22
	0.0001255056	3.127274e-22	8.227215e-05	1.207371e-22	0.02212991	4.28081e-24	8.226316e-05	1.205375e-22
	8.22608e-05	1.204498e-22	0.0001251013	3.106352e-22	8.226316e-05	1.205375e-22	0.02214596	4.224422e-24
1e+07	0.02687182	-0.004091176	4.697293e-06	2.5718e-05	0.00199978	0.006852712	1.313112e-05	2.50766e-05
	4.697294e-06	2.5718e-05	0.02706474	-0.004118486	2.641745e-06	6.96738e-06	0.002006289	0.006912321
	0.00199978	0.006852712	2.641745e-06	6.96738e-06	0.02704899	-0.004054204	4.557433e-06	2.453955e-05
	1.313112e-05	2.50766e-05	0.002006289	0.006912321	4.557433e-06	2.453955e-05	0.02689603	-0.004088345
2e+07	0.02969293	-0.0127775	5.384713e-06	1.414899e-05	0.004820138	0.01263067	8.587668e-06	1.725594e-05
	5.38472e-06	1.4149e-05	0.02984042	-0.01290154	1.572571e-05	1.443501e-05	0.004836936	0.01274628
	0.004820146	0.01263065	1.572572e-05	1.443501e-05	0.02985387	-0.01277584	3.956479e-06	1.243048e-05
	8.587668e-06	1.725594e-05	0.004836944	0.01274627	3.956478e-06	1.243048e-05	0.02971755	-0.01278098
3e+07	0.02953328	-0.02329145	8.458335e-06	1.024896e-05	0.009004196	0.01758344	5.935478e-06	1.619774e-05
	8.458336e-06	1.024896e-05	0.02962298	-0.02347107	2.864575e-05	1.5329e-05	0.009034537	0.01774931
	0.009004177	0.01758348	2.864575e-05	1.5329e-05	0.02967883	-0.02328496	6.088748e-06	8.71552e-06
	5.935479e-06	1.619774e-05	0.009034519	0.01774935	6.088748e-06	8.715519e-06	0.02954066	-0.02329678
4e+07	0.02664908	-0.03400928	1.059474e-05	6.945013e-06	0.01434224	0.0212555	9.981423e-06	1.318189e-05
	1.059474e-05	6.945013e-06	0.02666821	-0.03422482	3.809437e-05	1.07835e-05	0.01438743	0.02146529
	0.01434224	0.02125553	3.809437e-05	1.07835e-05	0.02678896	-0.03399492	7.532684e-06	5.876954e-06
	9.981424e-06	1.318189e-05	0.01438743	0.02146532	7.532684e-06	5.876954e-06	0.02663377	-0.03401637
5e+07	0.02142728	-0.04409143	1.183972e-05	3.733576e-06	0.02047453	0.02344716	1.306185e-05	9.680525e-06
	1.183972e-05	3.733576e-06	0.02136637	-0.04432345	4.438453e-05	3.459196e-06	0.02053369	0.02369413
	0.02047454	0.02344717	4.438453e-05	3.459196e-06	0.02156513	-0.0440694	8.311003e-06	3.283433e-06
	1.306185e-05	9.680525e-06	0.02053369	0.02369414	8.311003e-06	3.283433e-06	0.02138071	-0.0440956
6e+07	0.01422844	-0.05301208	1.222967e-05	6.10388e-07	0.02702299	0.02401085	1.502183e-05	5.886243e-06
	1.222967e-05	6.103885e-07	0.01408226	-0.05324032	4.772201e-05	-5.296828e-06	0.02709288	0.02428851
	0.027023	0.02401083	4.772201e-05	-5.296828e-06	0.01436674	-0.05298414	8.452931e-06	8.654075e-07
	1.502183e-05	5.886244e-06	0.02709289	0.02428849	8.45293e-06	8.65408e-07	0.01414419	-0.05300592
7e+07	0.005444254	-0.06036601	1.182065e-05	-2.313213e-06	0.03358182	0.02289349	1.590853e-05	1.984693e-06
	1.182065e-05	-2.313212e-06	0.005212082	-0.06057002	4.826384e-05	-1.460408e-05	0.03365693	0.02319633
	0.03358182	0.02289349	4.826384e-05	-1.460408e-05	0.005584108	-0.06033557	7.999967e-06	-1.321267e-06
	1.590853e-05	1.984693e-06	0.03365692	0.02319632	7.999967e-06	-1.321267e-06	0.005318395	-0.0603412
8e+07	-0.004479503	-0.06586749	1.068832e-05	-4.903295e-06	0.03974704	0.02013902	1.577523e-05	-1.845264e-06
	1.068832e-05	-4.903295e-06	-0.004793699	-0.0660275	4.618008e-05	-2.381082e-05	0.03981987	0.0204632
	0.03974704	0.02013902	4.618008e-05	-2.381082e-05	-0.004338434	-0.06583874	7.016567e-06	-3.18367e-06
	1.577523e-05	-1.845264e-06	0.03981987	0.02046321	7.016567e-06	-3.18367e-06	-0.004648302	-0.06581543
9e+07	-0.01506608	-0.06935509	8.91374e-06	-7.037634e-06	0.04513926	0.01588256	1.465464e-05	-5.462068e-06
	8.91374e-06	-7.037634e-06	-0.01545359	-0.06945292	4.158888e-05	-3.246714e-05	0.04520089	0.01622651
	0.04513927	0.01588256	4.158888e-05	-3.246714e-05	-0.01492595	-0.06933216	5.579913e-06	-4.628277e-06
	1.465464e-05	-5.462068e-06	0.0452009	0.01622652	5.579913e-06	-4.628278e-06	-0.01527733	-0.06926738
1e+08	-0.02579408	-0.07075878	6.395773e-06	-8.659126e-06	0.04942512	0.01033833	1.225573e-05	-8.909057e-06
	6.395773e-06	-8.659126e-06	-0.02624141	-0.07077881	3.371263e-05	-4.068318e-05	0.04946574	0.01070311
	0.04942512	0.01033833	3.371263e-05	-4.068318e-05	-0.0256583	-0.07074478	3.652705e-06	-5.583319e-06
	1.225573e-05	-8.909057e-06	0.04946574	0.01070311	3.652706e-06	-5.583319e-06	-0.02604552	-0.07062778
1.1e+08	-0.03626649	-0.07045525	3.672378e-06	-8.537261e-06	0.05231251	0.003769456	8.806629e-06	-9.974412e-06
	3.672378e-06	-8.537261e-06	-0.03675969	-0.07038863	2.310197e-05	-4.244326e-05	0.0523221	0.004160002
	0.05231251	0.003769454	2.310197e-05	-4.244326e-05	-0.03612249	-0.07051213	1.747248e-06	-5.285749e-06
	8.806629e-06	-9.974412e-06	0.0523221	0.00416	1.747248e-06	-5.285749e-06	-0.03653996	-0.07032994
1.2e+08	-0.04632268	-0.0683363	1.699147e-06	-7.948514e-06	0.05358131	-0.003418186	6.248962e-06	-1.01531e-05
	1.699147e-06	-7.948514e-06	-0.04684748	-0.06817472	1.651404e-05	-4.116124e-05	0.05355166	-0.002994608
	0.0535813	-0.003418187	1.651404e-05	-4.116124e-05	-0.04622789	-0.06842507	4.027012e-07	-4.714979e-06
	6.248963e-06	-1.01531e-05	0.05355166	-0.002994609	4.027013e-07	-4.714979e-06	-0.04666201	-0.0681686
1.3e+08	-0.05555006	-0.06456952	1.087329e-07	-7.222852e-06	0.05313437	-0.01085404	4.174115e-06	-9.869209e-06
	1.08733e-07	-7.222852e-06	-0.05609	-0.06430796	1.404563e-05	-3.807273e-05	0.05305879	-0.0103878
	0.05313437	-0.01085404	1.404563e-05	-3.807273e-05	-0.05550825	-0.06465847	-6.673345e-07	-4.109285e-06
	4.174115e-06	-9.869209e-06	0.05305878	-0.0103878	-6.673344e-07	-4.109285e-06	-0.05594461	-0.06432309
1.4e+08	-0.06366072	-0.05940914	-1.02543e-06	-6.248686e-06	0.05095006	-0.01814926	2.502758e-06	-9.299093e-06
	-1.02543e-06	-6.248686e-06	-0.06419871	-0.0590463	1.170622e-05	-3.515103e-05	0.05082408	-0.01762863
	0.05095005	-0.01814926	1.170622e-05	-3.515103e-05	-0.06366379	-0.05948725	-1.439779e-06	-3.336851e-06
	2.502758e-06	-9.299093e-06	0.05082408	-0.01762863	-1.439779e-06	-3.336851e-06	-0.06408755	-0.05907204
1.5e+08	-0.07044513	-0.05315041	-1.12304e-06	-5.050616e-06	0.04708857	-0.02491791	1.150125e-06	-8.585352e-06
	-1.12304e-06	-5.050616e-06	-0.07096431	-0.05268871	9.576583e-06	-3.232996e-05	0.04691059	-0.02432966
	0.04708857	-0.02491791	9.576583e-06	-3.232996e-05	-0.07048922	-0.05321659	-1.924971e-06	-2.473378e-06
	1.150125e-06	-8.585352e-06	0.04691059	-0.02432966	-1.924971e-06	-2.473378e-06	-0.07088587	-0.05272419
1.6e+08	-0.07576957	-0.04611186	-1.078299e-06	-3.93683e-06	0.04169071	-0.03079482	2.960804e-07	-7.761146e-06
	-1.078299e-06	-3.93683e-06	-0.07625416	-0.04555721	7.71343e-06	-2.956643e-05	0.04146239	-0.0301248
	0.04169071	-0.03079482	7.71343e-06	-2.956643e-05	-0.07585675	-0.04616721	-1.733478e-06	-1.564465e-06
	2.960804e-07	-7.761146e-06	0.04146239	-0.0301248	-1.733478e-06	-1.564465e-06	-0.0762129	-0.0456035
1.7e+08	-0.07957503	-0.03861969	-9.277594e-07	-2.93173e-06	0.03497187	-0.0354516	1.518244e-07	-6.899701e-06
	-9.277594e-07	-2.93173e-06	-0.08001105	-0.0379812	6.167361e-06	-2.684242e-05	0.03469838	-0.03468563
	0.03497187	-0.0354516	6.167361e-06	-2.684242e-05	-0.07971139	-0.03866266	-1.457555e-06	-7.606856e-07
	1.518245e-07	-6.899701e-06	0.03469838	-0.03468562	-1.457555e-06	-7.606856e-07	-0.08001541	-0.03803643
1.8e+08	-0.08187446	-0.03099126	-6.369637e-07	-2.023991e-06	0.02721334	-0.03861105	7.888264e-08	-6.099831e-06
	-6.369637e-07	-2.023991e-06	-0.08225043	-0.03028067	4.956112e-06	-2.418553e-05	0.02690346	-0.03773564
	0.02721334	-0.03861105	4.956112e-06	-2.418553e-05	-0.08206744	-0.03101627	-1.065116e-06	-4.900173e-08
	7.888266e-08	-6.099831e-06	0.02690346	-0.03773564	-1.065116e-06	-4.900175e-08	-0.08231011	-0.03033868
1.9e+08	-0.08274717	-0.02352085	-2.192043e-07	-1.235615e-06	0.01875104	-0.04005991	7.658737e-08	-5.36438e-06
	-2.192043e-07	-1.235615e-06	-0.08305455	-0.02275189	4.081226e-06	-2.163086e-05	0.0184171	-0.03906319
	0.01875104	-0.04005991	4.081226e-06	-2.163086e-05	-0.08300313	-0.02351804	-5.676012e-07	5.498096e-07
	7.658738e-08	-5.36438e-06	0.0184171	-0.03906319	-5.676012e-07	5.498096e-07	-0.08317809	-0.02280189
2e+08	-0.08232999	-0.01646527	3.066157e-07	-5.875602e-07	0.009961647	-0.03965869	1.418426e-07	-4.69853e-06
	3.066157e-07	-5.875602e-07	-0.08256349	-0.0156525	3.530189e-06	-1.921279e-05	0.009619243	-0.03853125
	0.009961646	-0.03965869	3.530189e-06	-1.921279e-05	-0.08265242	-0.0164218	1.522656e-08	1.018719e-06
	1.418426e-07	-4.69853e-06	0.009619243	-0.03853125	1.522657e-08	1.018719e-06	-0.08275652	-0.01568122
2.1e+08	-0.08080482	-0.01003315	9.143846e-07	-9.600031e-08	0.0012472	-0.03734925	2.676839e-07	-4.107498e-06
	9.143846e-07	-9.600032e-08	-0.08096255	-0.009192066	3.277565e-06	-1.697066e-05	0.0009147086	-0.03608504
	0.0012472	-0.03734925	3.277565e-06	-1.697066e-05	-0.08119387	-0.009934509	6.595131e-07	1.342571e-06
	2.676839e-07	-4.107498e-06	0.0009147085	-0.03608504	6.595131e-07	1.342571e-06	-0.08122722	-0.009183167
2.2e+08	-0.07838601	-0.004376841	1.574342e-06	2.28084e-07	-0.006981793	-0.03315924	4.450898e-07	-3.59622e-06
	1.574342e-06	2.28084e-07	-0.07846952	-0.003522552	3.291438e-06	-1.493734e-05	-0.007283912	-0.03175631
	-0.006981793	-0.03315924	3.291438e-06	-1.493734e-05	-0.07883749	-0.004208154	1.337692e-06	1.512169e-06
	4.450898e-07	-3.59622e-06	-0.007283912	-0.03175631	1.337692e-06	1.512169e-06	-0.07880325	-0.003458936
2.3e+08	-0.07530396	0.0004117723	2.254419e-06	3.797726e-07	-0.01432457	-0.02720356	6.633124e-07	-3.168792e-06
	2.254419e-06	3.797726e-07	-0.07531804	0.00126537	3.533242e-06	-1.314102e-05	-0.01457471	-0.02566465
	-0.01432457	-0.02720356	3.533242e-06	-1.314102e-05	-0.07581026	0.0006643477	2.020192e-06	1.523996e-06
	6.633124e-07	-3.168792e-06	-0.01457471	-0.02566465	2.020192e-06	1.523996e-06	-0.07571418	0.001400108
2.4e+08	-0.07178962	0.00430174	2.921788e-06	3.605275e-07	-0.02040793	-0.01968153	9.10246e-07	-2.828063e-06
	2.921788e-06	3.605275e-07	-0.07174174	0.0051427	3.959181e-06	-1.160391e-05	-0.02058442	-0.01801452
	-0.02040793	-0.01968153	3.959181e-06	-1.160391e-05	-0.07233964	0.004650889	2.676802e-06	1.380516e-06
	9.10246e-07	-2.828063e-06	-0.02058442	-0.01801452	2.676802e-06	1.380516e-06	-0.0721895	0.005363972
2.5e+08	-0.06805875	0.007319689	3.544286e-06	1.781739e-07	-0.02490444	-0.01087048	1.172668e-06	-2.575266e-06
	3.544286e-06	1.781739e-07	-0.06795841	0.0081386	4.521422e-06	-1.034131e-05	-0.02498677	-0.009088572
	-0.02490444	-0.01087048	4.521422e-06	-1.034131e-05	-0.06863877	0.007775274	3.278049e-06	1.090182e-06
	1.172668e-06	-2.575266e-06	-0.02498677	-0.009088572	3.278049e-06	1.090182e-06	-0.0684436	0.008458946
2.6e+08	-0.06429825	0.009541674	4.09183e-06	-1.534005e-07	-0.02754923	-0.001115553	1.436613e-06	-2.409693e-06
	4.09183e-06	-1.534005e-07	-0.06415618	0.01033199	5.169561e-06	-9.360658e-06	-0.02751938	0.0007629145
	-0.02754923	-0.001115553	5.169561e-06	-9.360658e-06	-0.06489234	0.01011115	3.796501e-06	6.671785e-07
	1.436613e-06	-2.409693e-06	-0.02751938	0.0007629145	3.796501e-06	6.671785e-07	-0.0646616	0.01076131
2.7e+08	-0.0606547	0.01108251	4.53751e-06	-6.148825e-07	-0.02815329	0.009184656	1.68773e-06	-2.328378e-06
	4.53751e-06	-6.148825e-07	-0.06048189	0.01184063	5.85207e-06	-8.660953e-06	-0.02799707	0.01113668
	-0.02815329	0.009184656	5.85207e-06	-8.660953e-06	-0.06124534	0.01177003	4.20788e-06	1.308268e-07
	1.68773e-06	-2.328378e-06	-0.02799707	0.01113668	4.20788e-06	1.308268e-07	-0.06098816	0.01238504
2.8e+08	-0.05722581	0.01208183	4.858658e-06	-1.18227e-06	-0.02661523	0.01959532	1.911765e-06	-2.325879e-06
	4.858658e-06	-1.18227e-06	-0.05703275	0.0128069	6.517887e-06	-8.232432e-06	-0.02632338	0.02159411
	-0.02661523	0.01959532	6.517887e-06	-8.232432e-06	-0.05779482	0.01288786	4.492087e-06	-4.95152e-07
	1.911765e-06	-2.325879e-06	-0.02632338	0.02159411	4.492087e-06	-4.95152e-07	-0.05751924	0.01346814
2.9e+08	-0.05405762	0.01268832	5.037611e-06	-1.827825e-06	-0.02292775	0.0296649	2.095132e-06	-2.394119e-06
	5.037611e-06	-1.827825e-06	-0.05385348	0.01338177	7.118209e-06	-8.056439e-06	-0.02249707	0.03168101
	-0.02292775	0.0296649	7.118209e-06	-8.056439e-06	-0.05458638	0.0136102	4.633989e-06	-1.183572e-06
	2.095132e-06	-2.394119e-06	-0.02249707	0.03168101	4.633989e-06	-1.183572e-06	-0.05429889	0.01415767
3e+08	-0.05114487	0.01304404	5.062232e-06	-2.521098e-06	-0.01717942	0.03894594	2.225513e-06	-2.522384e-06
	5.062232e-06	-2.521098e-06	-0.05093703	0.01370887	7.608214e-06	-8.105809e-06	-0.01661331	0.04094865
	-0.01717942	0.03894594	7.608214e-06	-8.105809e-06	-0.05161541	0.01407561	4.623942e-06	-1.904836e-06
	2.225513e-06	-2.522384e-06	-0.01661331	0.04094865	4.623942e-06	-1.904836e-06	-0.05132055	0.01459292
3.1e+08	-0.04843681	0.01326956	4.926361e-06	-3.230005e-06	-0.009552574	0.04701611	2.292575e-06	-2.697491e-06
	4.926361e-06	-3.230005e-06	-0.04823055	0.01390956	7.948824e-06	-8.345609e-06	-0.008861445	0.04897506
	-0.009552574	0.04701611	7.948824e-06	-8.345609e-06	-0.04883175	0.01440152	4.458205e-06	-2.628056e-06
	2.292575e-06	-2.697491e-06	-0.008861445	0.04897506	4.458205e-06	-2.628056e-06	-0.04853216	0.01489123
3.2e+08	-0.04584618	0.01345155	4.629928e-06	-3.921898e-06	-0.0003156036	0.05349772	2.288579e-06	-2.904145e-06
	4.629928e-06	-3.921898e-06	-0.04564472	0.01407048	8.10824e-06	-8.734162e-06	0.000483215	0.05538449
	-0.0003156036	0.05349772	8.10824e-06	-8.734162e-06	-0.04615011	0.0146706	4.13904e-06	-3.322189e-06
	2.288579e-06	-2.904145e-06	0.000483215	0.05538449	4.13904e-06	-3.322189e-06	-0.04584676	0.01513448
3.3e+08	-0.04326262	0.01363316	4.178966e-06	-4.564663e-06	0.01018858	0.05807469	2.208941e-06	-3.125499e-06
	4.178966e-06	-4.564663e-06	-0.04306741	0.01423395	8.063239e-06	-9.224604e-06	0.01107129	0.05986441
	0.01018858	0.05807469	8.063239e-06	-9.224604e-06	-0.04346199	0.01492333	3.674596e-06	-3.957161e-06
	2.208941e-06	-3.125499e-06	0.01107129	0.05986441	3.674596e-06	-3.957161e-06	-0.04315465	0.01536164
3.4e+08	-0.04056688	0.0138089	3.585527e-06	-5.127819e-06	0.02155723	0.06050756	2.052704e-06	-3.343878e-06
	3.585527e-06	-5.127819e-06	-0.04037822	0.01439309	7.800314e-06	-9.766567e-06	0.0224944	0.06218035
	0.02155723	0.06050756	7.800314e-06	-9.766567e-06	-0.04065155	0.0151515	3.078692e-06	-4.505013e-06
	2.052704e-06	-3.343878e-06	0.0224944	0.06218035	3.078692e-06	-4.505013e-06	-0.04033954	0.0155626
3.5e+08	-0.03764713	0.01392442	2.867281e-06	-5.583573e-06	0.03334508	0.06064299	1.8227e-06	-3.541636e-06
	2.867281e-06	-5.583573e-06	-0.03746478	0.01449174	7.316123e-06	-1.03082e-05	0.03430275	0.06218513
	0.03334508	0.06064299	7.316123e-06	-1.03082e-05	-0.03760969	0.0152987	2.370294e-06	-4.940878e-06
	1.8227e-06	-3.541636e-06	0.03430275	0.06218513	2.370294e-06	-4.940878e-06	-0.03729264	0.01567886
3.6e+08	-0.03441337	0.01388031	2.047069e-06	-5.907868e-06	0.04508296	0.05842107	1.525584e-06	-3.702069e-06
	2.047069e-06	-5.907868e-06	-0.03423742	0.01442855	6.617774e-06	-1.079825e-05	0.04602402	0.059826
	0.04508296	0.05842107	6.617774e-06	-1.079825e-05	-0.03425079	0.01526375	1.572905e-06	-5.243981e-06
	1.525584e-06	-3.702069e-06	0.04602402	0.059826	1.572905e-06	-5.243981e-06	-0.03392953	0.01560716
3.7e+08	-0.03081165	0.01354016	1.152142e-06	-6.081384e-06	0.05629757	0.05387744	1.171524e-06	-3.810327e-06
	1.152142e-06	-6.081384e-06	-0.03064336	0.01406538	5.722472e-06	-1.118809e-05	0.05718331	0.05514636
	0.05629757	0.05387744	5.722472e-06	-1.118809e-05	-0.03052505	0.01490957	7.136641e-07	-5.398451e-06
	1.171524e-06	-3.810327e-06	0.05718331	0.05514636	7.136641e-07	-5.398451e-06	-0.03020247	0.01520871
3.8e+08	-0.02683377	0.01274212	2.132644e-07	-6.090354e-06	0.06652984	0.04714165	7.736948e-07	-3.854203e-06
	2.132644e-07	-6.090354e-06	-0.02667627	0.01323897	4.65678e-06	-1.143375e-05	0.06732155	0.04828381
	0.06652984	0.04714165	4.65678e-06	-1.143375e-05	-0.02642837	0.01407419	-1.776126e-07	-5.393938e-06
	7.736948e-07	-3.854203e-06	0.06732155	0.04828381	-1.776126e-07	-5.393938e-06	-0.02611011	0.01432039
3.9e+08	-0.02252508	0.01131186	-7.363894e-07	-5.927337e-06	0.07535354	0.03843327	3.475855e-07	-3.824789e-06
	-7.363894e-07	-5.927337e-06	-0.02238399	0.01177422	3.45561e-06	-1.149757e-05	0.07601411	0.03946596
	0.07535354	0.03843328	3.45561e-06	-1.149757e-05	-0.02201127	0.01258461	-1.069553e-06	-5.226158e-06
	3.475855e-07	-3.824789e-06	0.07601411	0.03946596	-1.069553e-06	-5.226158e-06	-0.02170636	0.01276888
4e+08	-0.01798774	0.009079596	-1.66258e-06	-5.591631e-06	0.08239186	0.02805276	-8.991595e-08	-3.71691e-06
	-1.66258e-06	-5.591631e-06	-0.01787162	0.009501436	2.160649e-06	-1.134984e-05	0.08288749	0.02900092
	0.08239186	0.02805276	2.160649e-06	-1.134984e-05	-0.01737936	0.01027286	-1.930517e-06	-4.897047e-06
	-8.991595e-08	-3.71691e-06	0.08288749	0.02900092	-1.930517e-06	-4.897047e-06	-0.01710057	0.01038682
4.1e+08	-0.01337932	0.005895901	-2.531427e-06	-5.089509e-06	0.08733221	0.01637136	-5.214532e-07	-3.5293e-06
	-2.531427e-06	-5.089509e-06	-0.0132999	0.006272079	8.186913e-07	-1.096987e-05	0.08763383	0.01726701
	0.08733221	0.01637136	8.186913e-07	-1.096987e-05	-0.01269432	0.006991804	-2.729836e-06	-4.414767e-06
	-5.214532e-07	-3.5293e-06	0.08763383	0.01726701	-2.729836e-06	-4.414767e-06	-0.01245835	0.007028799
4.2e+08	-0.008908829	0.001645276	-3.310901e-06	-4.434047e-06	0.08993952	0.003817582	-9.301208e-07	-3.264479e-06
	-3.310901e-06	-4.434047e-06	-0.008880961	0.001972648	-5.20125e-07	-1.034672e-05	0.09002425	0.004698797
	0.08993952	0.003817582	-5.20125e-07	-1.034672e-05	-0.008168597	0.002629479	-3.439082e-06	-3.79337e-06
	-9.301208e-07	-3.264479e-06	0.09002425	0.004698797	-3.439082e-06	-3.79337e-06	-0.007995899	0.002585813
4.3e+08	-0.004826892	-0.003737455	-3.972281e-06	-3.644572e-06	0.09006579	-0.009138852	-1.30037e-06	-2.928437e-06
	-3.972281e-06	-3.644572e-06	-0.004868309	-0.003459069	-1.804468e-06	-9.479668e-06	0.08991823	-0.008229029
	0.09006579	-0.009138852	-1.804468e-06	-9.479668e-06	-0.004055154	-0.002875303	-4.03327e-06	-3.052173e-06
	-1.30037e-06	-2.928437e-06	0.08991823	-0.008229029	-4.03327e-06	-3.052173e-06	-0.003969559	-0.002999092
4.4e+08	-0.001413709	-0.01025669	-4.491451e-06	-2.745845e-06	0.08765789	-0.02200373	-1.61867e-06	-2.530064e-06
	-4.491451e-06	-2.745845e-06	-0.001544492	-0.01002347	-2.983628e-06	-8.378184e-06	0.08727102	-0.02101876
	0.08765789	-0.02200373	-2.983628e-06	-8.378184e-06	-0.0006364615	-0.009522703	-4.491805e-06	-2.214934e-06
	-1.61867e-06	-2.530064e-06	0.08727102	-0.02101876	-4.491805e-06	-2.214934e-06	-0.0006643894	-0.009720747
4.5e+08	0.001034563	-0.01784732	-4.849958e-06	-1.766856e-06	0.08276171	-0.03427783	-1.873982e-06	-2.08046e-06
	-4.849958e-06	-1.766856e-06	0.0007928183	-0.01765048	-4.009386e-06	-7.061525e-06	0.08213775	-0.03316932
	0.08276171	-0.03427783	-4.009386e-06	-7.061525e-06	0.00179036	-0.01724287	-4.799304e-06	-1.308772e-06
	-1.873982e-06	-2.08046e-06	0.08213775	-0.03316932	-4.799304e-06	-1.308772e-06	0.001621057	-0.01750272
4.6e+08	0.002224214	-0.02636927	-5.035751e-06	-7.394053e-07	0.07552221	-0.04547657	-2.058031e-06	-1.592185e-06
	-5.035751e-06	-7.394053e-07	0.00184944	-0.02619423	-4.837895e-06	-5.558137e-06	0.07467306	-0.04419608
	0.07552221	-0.04547657	-4.837895e-06	-5.558137e-06	0.002931817	-0.02589078	-4.946084e-06	-3.62969e-07
	-2.058031e-06	-1.592185e-06	0.07467306	-0.04419608	-4.946084e-06	-3.62969e-07	0.002593289	-0.02619257
4.7e+08	0.001883154	-0.03560544	-5.043537e-06	3.034059e-07	0.0661798	-0.05515041	-2.165302e-06	-1.078553e-06
	-5.043537e-06	3.034059e-07	0.001354312	-0.03543123	-5.431255e-06	-3.904707e-06	0.06512716	-0.05365141
	0.0661798	-0.05515041	-5.431255e-06	-3.904707e-06	0.002515454	-0.0352449	-4.928374e-06	5.922993e-07
	-2.165302e-06	-1.078553e-06	0.06512716	-0.05365141	-4.928374e-06	5.922993e-07	0.001981771	-0.03556067
4.8e+08	-0.0002222703	-0.04526747	-4.874649e-06	1.328727e-06	0.05506255	-0.0629035	-2.19283e-06	-5.529877e-07
