! Created Fri Mar  3 09:15:26 2023
# ghz S ma R 45
! 4 Port Network Data from SP1.SP block
! freq  magS11  angS11  magS12  angS12  magS13  angS13  magS14  angS14  
!       magS21  angS21  magS22  angS22  magS23  angS23  magS24  angS24  
!       magS31  angS31  magS32  angS32  magS33  angS33  magS34  angS34  
!       magS41  angS41  magS42  angS42  magS43  angS43  magS44  angS44  
!     
0      0.080449833    -2.3522432e-13     2.1894546e-06               180      0.0043420095     -3.875119e-12     1.9039131e-05               180
                  1.9360476e-06              -180        0.08150463     6.7139261e-13     2.5948022e-05               180      0.0043383119    -1.7457405e-12
                   0.0051849264     1.1894769e-11     3.0202878e-05    -2.4199073e-11       0.081004337    -1.8765267e-14     2.9123712e-05               180
                  3.0920348e-05    -8.9757924e-13      0.0054014739     8.3731446e-12     3.1376809e-05               180       0.081719875    -4.3845276e-13

0.025       0.16488963        -8.9667685     2.7961535e-05           167.949       0.097944901         8.7738311     2.1317052e-05         116.17525
                  2.7497537e-05         171.10891        0.16525855         -9.369053     2.9654245e-05         127.09887       0.098116238         8.4531219
                    0.098357052         8.3565977     3.2075002e-05        -132.40507        0.16534288        -8.7617057     2.4594221e-05         95.615835
                  2.9142214e-05        -122.86418        0.09862881         7.9400049      2.670879e-05         97.531726        0.16536785         -9.155887

0.05      0.051002538        -57.545956     1.3046036e-05         30.489661       0.016098037        -35.458915     1.9569987e-05        -36.218961
                   1.148387e-05         46.818524       0.048380252        -56.161662     2.2504941e-05        -39.724829       0.014419717        -30.067192
                    0.016301139        -38.513466     7.8249261e-06        -174.57477       0.051530104        -57.780847     3.1195776e-05        -65.315952
                  1.2823964e-05         138.20882       0.014593657        -34.274402     3.0440308e-05        -61.101499       0.048941954        -56.496788

0.075       0.18382372         15.294189      1.374263e-05        -171.28495        0.15026616         21.177555     2.6873083e-05         166.95948
                  9.9894361e-06         179.29158        0.18636181         14.174058     3.2768038e-05         167.76821        0.15208936         20.129501
                     0.14959319         21.197524     1.0314009e-05         -162.7072        0.18399571         15.430321     4.0080571e-05         163.39309
                  5.3577971e-06        -15.201355         0.1512335          20.14189     3.8950549e-05         164.47501          0.186287         14.315353

0.1       0.20629613         -49.38389     2.9756406e-05        -21.771109        0.15825066        -49.235077     3.6497186e-05         12.796792
                  3.1412907e-05        -28.309809        0.20295912        -50.593136     4.7202695e-05        -2.9716788        0.15580154        -50.622335
                     0.15757747        -49.405308     3.4625193e-05        -73.370467        0.20662892        -49.221746     4.6213954e-05         1.5071965
                  2.7425097e-05        -88.424015        0.15494943            -50.83     4.6701851e-05         1.9347869        0.20375906        -50.411171

0.125      0.077992499        -22.157622     7.1007816e-05         -131.8574       0.052789928        -12.923062     6.7608432e-05        -118.96808
                  6.9903669e-05        -134.45462       0.081270611        -19.911271     9.6718032e-05        -123.67349       0.055463608        -10.457776
                    0.052903093        -12.137721     8.3769465e-05        -162.16423       0.078459286        -22.308296     8.8492035e-05        -124.17697
                  5.7356199e-05        -175.13831       0.055655904        -9.5909278     8.8791829e-05        -122.73782       0.081300637        -20.797718

0.15        0.2159945        -36.956543     1.3965763e-05         119.94525        0.14876226        -37.479138     3.3763026e-05         133.11312
                  1.1614962e-05         106.28912         0.2145447        -38.941171     3.1442223e-05         137.46509        0.14749384        -39.547985
                     0.14915902        -37.152817      3.946943e-05          57.79651        0.21704724        -37.297822     3.8920083e-05         134.25472
                  3.5344915e-05         53.650718        0.14788568        -39.152226     3.8623856e-05         139.08299        0.21520844        -39.304946

0.175       0.14871611         -99.15138     9.6310391e-05        -112.77367       0.095611341        -107.74062     4.7377992e-05        -94.187091
                  9.9936956e-05        -113.17918        0.13999006        -100.73981      9.529099e-05        -110.36311       0.088652272        -110.28538
                    0.095594413        -107.36695     0.00011864313        -106.07752        0.14840322        -99.050521     6.4041679e-05        -98.563531
                  7.4622844e-05        -104.08059       0.088562229        -109.76016     6.3289321e-05        -101.31196        0.14101878        -100.76336

0.2      0.065206382        -39.004793     0.00011851109         153.39091       0.034960293        -28.147978     7.6741408e-05         163.99691
                  0.00012024265         153.03838       0.067865524        -40.086012     0.00012090617         160.37991       0.036909878        -29.391178
                    0.035700312        -28.452679     0.00013146816         151.94301       0.067969442         -40.08993     9.0002759e-05         168.78155
                  9.2529069e-05         145.30953       0.037803124        -29.864398     8.9683881e-05          166.9752        0.06886731        -41.872469

0.225       0.11328765        -84.559838     2.4922641e-05        -57.803938       0.045262114        -92.086417     7.1430443e-06        -174.42754
                  2.4523028e-05        -57.333147        0.10485235        -86.261867     2.3164865e-05        -113.53024       0.038050607        -94.212905
                    0.046288474        -92.301443     4.6097089e-05        -49.935269        0.11382293        -85.973229     2.4559026e-05        -150.97394
                  3.8361071e-05        -21.152485       0.039212822        -94.551216     2.3590104e-05        -149.96364        0.10540623        -87.836364

0.25      0.042269718        -58.742259      0.0001333074         175.84298       0.051355204        -5.3399321     7.7361851e-05         158.91339
                  0.00013326679         175.77188       0.046084016        -53.557913     0.00013695412         166.51438       0.057092772        -7.9248717
                     0.05035056        -5.7310448     0.00015905008        -173.77153       0.042344219        -55.977912     9.7508466e-05         158.68901
                   9.836844e-05        -168.66769       0.055960013        -8.3599465     9.7420324e-05         158.21311       0.045140145        -53.141753

0.275       0.10876279        -75.601262     6.5117946e-05         80.148503       0.085665409        -77.089718     2.6602124e-05         47.104842
                  6.5799972e-05         81.254005        0.10324785        -78.608987     4.6940994e-05         63.548217       0.080847498        -80.762922
                    0.084901007         -77.46457     7.4659418e-05         107.08027        0.11106922        -76.151031     1.7464415e-05         25.108415
                  5.4119269e-05         109.46198       0.079966791        -81.259042     2.0242073e-05         23.170912        0.10445458        -79.182113

0.3      0.039636828        -78.391451     9.8978372e-05        -158.10883       0.016946461        -20.412438     0.00010199988        -172.60134
                  9.6138466e-05        -158.73341       0.039512806         -67.33643       0.000142361        -166.98464       0.023708142        -11.635252
                    0.016719626        -17.418067     0.00010970828        -173.41366       0.038029109        -77.182158     0.00014103034        -175.18377
                  6.5552133e-05        -177.17399       0.023665105        -9.0817446      0.0001398022        -173.16343       0.038046851        -68.328987

0.325        0.1630371        -65.523679     0.00010392211         110.21144        0.12934931        -65.737128     0.00010000919         87.598712
                  0.00010086574         109.67683        0.16230579        -69.865891     0.00013305402         97.010698        0.12814585        -70.473096
                     0.12921168        -65.395065     0.00011419342         105.33873        0.16693161        -65.152083     0.00012259779         85.738397
                  7.1890634e-05         105.68208        0.12795254        -70.074723     0.00012088307         88.118922        0.16387601        -69.594488

0.35       0.18154694        -128.02457     4.9945165e-05        -135.29551        0.12398656        -137.98368     5.6809417e-05         -108.2664
                  5.1876302e-05        -136.30377        0.17196936        -132.95985     7.9904952e-05        -116.52988         0.1164161        -143.84071
                     0.12336542        -137.79252     5.8102567e-05        -148.79363        0.18323507          -128.005     8.4390833e-05        -111.36997
                  3.9778024e-05        -171.51146        0.11567336        -143.59233     8.1562531e-05        -113.03823        0.17442232         -132.9776

0.375      0.062706817        -118.94919     0.00017558852          132.7361       0.023670421        -132.70524     0.00016972536         134.41897
                  0.00017446226         132.33494       0.061432957        -119.98353     0.00022945884          136.0514       0.022487141        -131.39398
                     0.02433935        -129.07251     0.00019594232         123.53725        0.06495575        -115.96389     0.00021185176         135.78188
                  0.00014023141         114.55674       0.023484048        -127.47919     0.00021040051         135.75053       0.063067728        -120.37423

0.4       0.17379416        -116.96996        5.7575e-05         38.529156       0.094147347        -129.05653     8.4388255e-05         33.843395
                  5.4858865e-05         37.975873        0.16782684        -122.75562     9.4630767e-05         36.435475       0.088828196        -135.95035
                    0.095429399        -128.89337     7.0539507e-05         6.0135125        0.17852145        -117.59942     0.00010014568         33.920038
                  5.9081538e-05       -0.28076228       0.090197408        -135.75736     9.9321461e-05         36.117181        0.17078702        -123.47307

0.425       0.16412645         174.86353     0.00016472265         159.14715       0.073525059         156.98074     0.00010632186         170.37415
                  0.00016752875         158.73161        0.15674717         167.71302     0.00017339893         167.27434       0.068817435         148.38382
                    0.074442716         157.24504     0.00020491225         166.02769        0.16351787         174.74481     0.00013066997         174.38241
                  0.00013604027         163.31349       0.069773467         148.76147     0.00012709485         172.39455        0.15878432         167.39227

0.45      0.018536925         136.34368     0.00021919592         72.222569      0.0042025685         -148.9923     0.00016184957         79.214763
                  0.00022077514         72.029311       0.016588747         121.67902     0.00023995579         78.645492      0.0026300127        -168.99951
                   0.0044694982        -156.13214     0.00025240211          74.80189       0.017915788         152.42833     0.00019050871         83.806425
                  0.00017396888         68.500469      0.0031318278        -179.84145     0.00018702285         82.238556       0.017764518         128.53251

0.475      0.083066072        -163.35005     3.6879994e-05        -147.03638       0.029521275         170.13155     2.0895878e-05         149.40608
                  3.6126787e-05        -147.47728       0.078192545        -170.36664     2.7732477e-05         171.62978       0.025842669         159.48028
                    0.030063034         168.77922     4.8492843e-05        -146.37967       0.083291348        -165.53364     2.8455606e-05         129.82644
                  4.7199994e-05        -137.33238       0.026426016         157.73962     2.7234275e-05         138.31696       0.078633568         -172.9912

0.5      0.028279631         171.65087     0.00024804447         94.152009       0.028387721         -88.86791      0.0001715939         85.068883
                  0.00024815098         93.803492       0.025325947         168.00986       0.000259316         89.818337       0.029649955         -95.94249
                    0.027429908        -87.472806      0.0002925047         97.813777       0.025407411        -178.35562     0.00019509626         84.969851
                  0.00020481659         99.003599       0.028679767        -94.424245     0.00019514697         85.586867       0.023614501         169.22925

0.525       0.09351436        -157.67444     0.00013074434          5.267191       0.082521486        -168.17836     5.2130838e-05        -3.5974306
                  0.00013172677         4.8338205       0.093353793        -166.24576     0.00011285443         3.5255956       0.082236646         -177.4463
                    0.081400613        -167.95059     0.00016024289         15.955395        0.09718177        -158.43494     5.7466751e-05         1.3048191
                  9.8920993e-05         19.269718       0.081036465        -177.20127     5.7240514e-05        0.38769678       0.094959302        -167.18464

0.55      0.048474132         155.07993     0.00016768153         114.48431       0.032109154         129.80013     0.00018478183         102.18985
                  0.00016568732         114.80457       0.045276116         146.31825     0.00022437189         106.48742       0.030644037         120.82248
                    0.030965046         130.18012     0.00017811699         104.55695        0.04235559         158.95627     0.00021930595         100.67714
                  0.00013917193         101.80513       0.029413126         121.33078     0.00021960431         101.92559       0.041838154         147.26232

0.575       0.15137418        -148.74346      0.0002119212         21.704778        0.10050168        -163.70026     0.00018259676         4.1505861
                   0.0002101909         21.753784         0.1561675        -158.19495      0.0002604561         11.752055         0.1041909          -173.646
                     0.10122467        -163.29178     0.00023452861         16.060148        0.16027768        -148.08619     0.00022665769         4.1532132
                  0.00015375214         14.323882        0.10497565        -173.24191     0.00022652596         5.9454835        0.16051685        -157.84745

0.6       0.22900984         144.02592     4.0841359e-05         146.82948        0.14196519          128.5858     7.4996287e-05         160.49097
                  4.2123428e-05         146.79305         0.2305562          133.7941     7.9366318e-05         169.84946         0.1436069         118.54604
                     0.14210173         128.80589     5.2156825e-05          151.3556        0.22983739         143.81634     8.6112468e-05         169.91729
                  4.9954507e-05         121.85306         0.1437618         118.78451     7.9965704e-05         168.09131        0.23212906         133.49514

0.625      0.081438988         86.845164     0.00029239511         52.064163       0.048329292         75.183785     0.00026710669         51.549049
                  0.00029167555         52.227785       0.074307742         79.006981     0.00036408317         53.424262       0.043610936         68.808975
                    0.048023387         76.531194     0.00032621874         48.733938        0.07376391          90.19287     0.00032470097         52.549916
                  0.00022844981         41.754204       0.043470265         70.475237      0.0003213605         51.930398       0.072077032         80.931216

0.65       0.16641586         155.28667     0.00012672263        -51.336963        0.10049439         137.17845     0.00011292357        -63.738575
                   0.0001247885        -50.455198        0.17623243         144.24531     0.00017579188        -53.880394        0.10796447         126.88438
                      0.1017629         136.86296     0.00014346982        -65.057518        0.17356092         154.47425     0.00016063065        -56.172405
                  9.0617574e-05        -87.122295         0.1091949          126.5142     0.00015947527        -55.756527        0.18044348          143.1709

0.675       0.19887946         87.271402     0.00023070116         80.546504       0.098118086         70.744239      0.0001805715         87.156767
                  0.00023159462         79.993559        0.19531692         76.529704     0.00025439268         86.469927       0.095060707         60.713467
                    0.099224679         70.436575     0.00028896961         85.192966        0.19631869         86.363969     0.00019856205         90.075894
                  0.00021180484         84.175321       0.096133073         60.343328     0.00019421607         89.179568        0.19642388         75.542862

0.7      0.037346856          45.16033     0.00035221351        -12.420696       0.020534775         142.72805     0.00023760738         -9.741224
                  0.00035327258        -12.644661       0.029510251         63.621772     0.00038880865        -7.8579197       0.034548222         141.77054
                    0.019772821         141.63696     0.00041582968        -9.5412861       0.033768076         51.169402     0.00030283171        -6.4820677
                   0.0002595328        -14.555543       0.033669016         141.39531     0.00029738461        -7.3892076        0.03081811         63.103478

0.725      0.088695749         99.867789     5.4044384e-05         133.29005       0.074443478         91.822114      7.140501e-05         91.857064
                  5.3639688e-05         133.87638        0.09446163         88.457075     4.2397439e-05         94.463224       0.078088782         81.555182
                    0.073967215          91.39605     5.0380441e-05         130.77426       0.085924647         97.870318     5.1576607e-05         73.637652
                  8.5577243e-05         120.70184       0.077473442          81.17857     5.4333693e-05         79.121186       0.092197174          86.09815

0.75      0.037749937          148.4645     0.00038779061         2.7362313       0.038458124         154.58372     0.00028390352        -6.5099038
                  0.00038862961         2.5683713       0.056472032         148.92283     0.00042348621        -1.8848106       0.055545365         149.54998
                    0.037982132         155.69962      0.0004475052         3.1869893       0.042237564         157.97267     0.00034131404        -6.4390174
                  0.00030951375         3.4597706       0.055288566         150.41625     0.00034202403        -5.5834167       0.057184747         150.58658

0.775       0.16367329         113.48905     0.00018766506        -87.003965        0.13628067         103.28651     7.2949706e-05        -116.87632
