! Created Fri Mar  3 09:16:09 2023
# ghz S ma R 45
! 4 Port Network Data from SP1.SP block
! freq  magS11  angS11  magS12  angS12  magS13  angS13  magS14  angS14  
!       magS21  angS21  magS22  angS22  magS23  angS23  magS24  angS24  
!       magS31  angS31  magS32  angS32  magS33  angS33  magS34  angS34  
!       magS41  angS41  magS42  angS42  magS43  angS43  magS44  angS44  
!     
0      0.080449833    -2.3522432e-13     4.7051317e-05     1.5925799e-12      0.0043420095     -3.875119e-12     7.3895582e-05    -7.4169594e-13
                  2.1382744e-05               180       0.082891129    -5.1079114e-13     4.2129042e-05               180      0.0036662696     4.5548904e-12
                   0.0051849264     1.1894769e-11     3.1163169e-05               180       0.081004337    -1.8765267e-14     7.1351928e-05    -9.2992532e-13
                  5.7418975e-05              -180      0.0040980249      8.169471e-12     1.3723971e-05     2.7622551e-11       0.081700401    -5.2434458e-13

0.025       0.16488963        -8.9667685     6.7288115e-05        -36.086822       0.097944901         8.7738311     6.6723365e-05         -95.09499
                  3.5636385e-05         29.260056        0.16439611        -9.7180854     3.6444878e-05          51.18058       0.098438412         8.7615617
                    0.098357052         8.3565977     2.5426576e-05         63.563682        0.16534288        -8.7617057     7.0415028e-05        -105.46491
                  5.5677996e-05         66.197795       0.098423206         8.5218441     1.8257349e-05        -93.383936        0.16402683          -9.19741

0.05      0.051002538        -57.545956     8.2448736e-05         117.84585       0.016098037        -35.458915      0.0001937817         109.69038
                  0.00010112273         92.266211       0.048147925        -56.535541      9.584139e-05         93.478522       0.015915963        -34.619727
                    0.016301139        -38.513466      0.0001128255         95.257414       0.051530104        -57.780847     0.00018511473         110.36454
                  0.00011228084         78.386467       0.015579023        -35.301427     0.00013662163         100.33982       0.047590139         -55.71604

0.075       0.18382372         15.294189     9.0811915e-05        -1.7887701        0.15026616         21.177555     0.00020960055         4.0007713
                  0.00011181075         5.0771556        0.18611202         14.352039     0.00011323103          7.863999        0.14999091         20.388736
                     0.14959319         21.197524     0.00012567826         8.1172001        0.18399571         15.430321     0.00020298406          3.782216
                  0.00010665994        0.45330046        0.15008622           20.3735     0.00015710861          1.255685        0.18776955         14.468959

0.1       0.20629613         -49.38389     0.00015312737         143.04375        0.15825066        -49.235077     0.00010197277         177.89895
                  0.00012200498         129.54949        0.20464119        -50.596049      7.794652e-05         127.26526        0.15634734        -50.171397
                     0.15757747        -49.405308     6.2632364e-05         124.54494        0.20662892        -49.221746     8.0329569e-05        -154.94956
                  0.00013326378         115.67544        0.15603708        -50.330115     7.3456187e-05         165.69412        0.20624062        -50.423875

0.125      0.077992499        -22.157622     0.00033332623         45.608862       0.052789928        -12.923062     0.00031758384         49.406775
                  0.00030114936         31.993393       0.079519272        -21.550252     0.00026835965         28.913813       0.053616091        -12.845069
                    0.052903093        -12.137721     0.00025582698         29.957137       0.078459286        -22.308296     0.00025090579         50.844982
                  0.00032901037         22.175959       0.053867018        -12.315299     0.00026200694         36.039784       0.080002683        -22.256718

0.15        0.2159945        -36.956543     2.9596817e-05        -49.574917        0.14876226        -37.479138     8.0625416e-05        -48.203045
                  6.2465031e-05        -128.54096        0.21472774        -38.331552     8.8995812e-05        -99.813956        0.14649875        -39.346921
                     0.14915902        -37.152817     8.3928072e-05        -99.071746        0.21704724        -37.297822     9.5737183e-05        -43.867683
                  0.00011621274        -123.38303        0.14733656        -39.257182     9.4801477e-05        -76.970038        0.21603068        -39.051829

0.175       0.14871611         -99.15138     0.00040371039         65.253693       0.095611341        -107.74062      0.0003330356         69.116326
                  0.00041167371         71.846149         0.1452142        -100.66667     0.00032931261         74.920994       0.091402665        -109.96475
                    0.095594413        -107.36695     0.00031846611         73.752901        0.14840322        -99.050521     0.00024416489         68.799391
                  0.00042806658         73.444319       0.091864814        -109.98235     0.00029048328         74.668087        0.14565731        -101.46158

0.2      0.065206382        -39.004793     0.00035710493        -25.895489       0.034960293        -28.147978     0.00028912384        -20.937386
                  0.00033211013        -22.343109       0.063203891        -41.215449     0.00032080527        -22.739523       0.034673653        -30.099001
                    0.035700312        -28.452679     0.00030243849        -22.788561       0.067969442         -40.08993     0.00025938663        -22.015542
                  0.00037077961        -25.196565       0.034786973        -30.102485     0.00030810297        -22.059246       0.063747869        -41.448673

0.225       0.11328765        -84.559838     0.00022428699          89.47991       0.045262114        -92.086417     0.00029373967         77.429936
                  0.00026796881         88.397748        0.10677357        -85.768447     0.00019572239         91.114985       0.041074697        -95.272327
                    0.046288474        -92.301443     0.00020796555           88.8911        0.11382293        -85.973229     0.00022842567         73.548027
                  0.00025810202          95.36192       0.041660674        -95.422617     0.00019354898         81.007891        0.10670342        -86.839464

0.25      0.042269718        -58.742259     0.00047824178        -5.5458355       0.051355204        -5.3399321     0.00057684583        -10.309183
                   0.0005306256        -1.8861854       0.043274043        -59.991935     0.00050474122        -2.0085364       0.051639261        -6.9064378
                     0.05035056        -5.7310448     0.00051117652        -2.2245379       0.042344219        -55.977912     0.00055247058        -12.693263
                  0.00057013781        0.87832729       0.050670377        -7.0413784     0.00053222027        -8.1792253       0.042573369        -57.262564

0.275       0.10876279        -75.601262     6.7567473e-05        -173.55713       0.085665409        -77.089718     0.00010074592        -143.99291
                  5.1250626e-05        -100.24383        0.10161997        -78.619756     0.00011975554        -80.147609        0.08117985        -80.021229
                    0.084901007         -77.46457     0.00012667165        -79.454935        0.11106922        -76.151031     0.00016302105        -114.89544
                  9.6181217e-05        -71.230527       0.079970772        -80.063941     0.00014739818        -97.960272         0.1037342        -78.274056

0.3      0.039636828        -78.391451     0.00053599757         18.865124       0.016946461        -20.412438     0.00061622101         15.414945
                  0.00049762224         12.311398       0.038175728        -74.251627     0.00046810954         7.6489862       0.017222215        -19.642751
                    0.016719626        -17.418067      0.0004639739         7.8189031       0.038029109        -77.182158     0.00053295965         13.157055
                  0.00053178371         8.1381574       0.018142372        -17.507465     0.00050844717         8.0552321       0.038805096        -74.131059

0.325        0.1630371        -65.523679     0.00029524671        -76.199201        0.12934931        -65.737128     0.00047300407        -81.366909
                  0.00029904585        -84.107738        0.15898714        -69.143811     0.00039281237        -81.123715        0.12327243         -69.53044
                     0.12921168        -65.395065     0.00039067876         -80.02802        0.16693161        -65.152083     0.00052640377        -79.606592
                  0.00038235075        -83.261537        0.12372217        -69.567149     0.00049317271        -82.622474        0.16171516        -69.509754

0.35       0.18154694        -128.02457     0.00033235399         48.535817        0.12398656        -137.98368     0.00027153086         70.239057
                  0.00030890485          53.73377        0.17621256        -132.59524     0.00020559129         52.932152         0.1195767        -142.83052
                     0.12336542        -137.79252     0.00019192098         50.986373        0.18323507          -128.005     0.00016314121         82.163408
                  0.00028782507         51.265049        0.11901283        -142.86382     0.00018652101         71.029372        0.17785337         -133.0201

0.375      0.062706817        -118.94919     0.00059270267        -45.419574       0.023670421        -132.70524     0.00063118537        -39.722578
                  0.00052642986        -45.704461       0.059964658        -126.33047     0.00058690385        -48.302314       0.023445128        -149.33841
                     0.02433935        -129.07251     0.00056795354         -48.80358        0.06495575        -115.96389     0.00062595079        -41.172088
                  0.00062011289        -50.287611       0.024203983        -144.27106     0.00064593634        -45.286069       0.061340205        -125.13265

0.4       0.17379416        -116.96996     0.00013875207        -177.55421       0.094147347        -129.05653     0.00017955183         -156.5834
                  0.00011857473         147.79861        0.16752327           -121.63     0.00017077794        -165.66587       0.088033506        -135.45968
                    0.095429399        -128.89337     0.00015855627         -168.6338        0.17852145        -117.59942     0.00023098148        -137.69917
                  0.00019589074          170.3502       0.089765566        -135.76535     0.00023586305        -150.07219        0.17036473        -122.62681

0.425       0.16412645         174.86353     0.00050221687        -10.889071       0.073525059         156.98074     0.00055280723        -8.4600638
                  0.00056654855         -9.703337         0.1661088         168.38933     0.00056394667        -12.377014       0.075472261         149.93978
                    0.074442716         157.24504     0.00057023201        -13.005157        0.16351787         174.74481     0.00054523154        -15.484578
                  0.00063948457        -7.2929461       0.076681558         149.50532      0.0005800717        -12.187989        0.16505962         167.51192

0.45      0.018536925         136.34368     0.00049691062        -106.04621      0.0042025685         -148.9923     0.00058773416        -98.187077
                  0.00052717539        -101.30553       0.024185379         109.11636     0.00063769526        -100.28879      0.0052697254         115.04708
                   0.0044694982        -156.13214     0.00063756358        -100.57611       0.017915788         152.42833     0.00068339863        -100.15459
                  0.00065627848         -100.1129      0.0054732462         110.09983     0.00071985673        -99.211916       0.020455314         114.00261

0.475      0.083066072        -163.35005     0.00020949802         23.464927       0.029521275         170.13155     0.00023876298        -2.6917126
                  0.00019869588          9.781373       0.081523725        -170.16803     0.00019009573         -5.812623       0.031576332         159.32281
                    0.030063034         168.77922     0.00019070809        -4.3682399       0.083291348        -165.53364     0.00022981123        -15.198759
                  0.00021322211         12.612444       0.031909553         158.83247     0.00020604144        -14.256836       0.082967775         -171.6016

0.5      0.028279631         171.65087     0.00064703271        -85.892763       0.028387721         -88.86791     0.00084921583        -90.993656
                  0.00069072603        -89.427508       0.030587488         149.24777     0.00083526222        -89.807599       0.019603322        -93.547183
                    0.027429908        -87.472806     0.00083951665        -88.833359       0.025407411        -178.35562     0.00097293233        -92.650953
                  0.00085027952        -85.767912       0.018636668        -91.776613     0.00096209724        -91.486259       0.027452238         152.52955

0.525       0.09351436        -157.67444     0.00027512043         171.17184       0.082521486        -168.17836     0.00038727752         170.20714
                  0.00034752068         172.08764       0.090511346        -165.79603     0.00037861499         -176.3388         0.0814669        -176.38429
                    0.081400613        -167.95059     0.00039388788        -173.43584        0.09718177        -158.43494     0.00044358261         176.28505
                  0.00041000172        -177.37854       0.079893361        -175.94449     0.00043764681         -179.9247       0.093646251        -165.89678

0.55      0.048474132         155.07993     0.00052669059        -68.194212       0.032109154         129.80013      0.0006640268        -67.297631
                  0.00044552629        -68.404948       0.052782346         140.50632     0.00060899962        -73.963051       0.041662852         116.14091
                    0.030965046         130.18012     0.00058312386        -74.813643        0.04235559         158.95627     0.00074562769        -68.630314
                  0.00058326755        -71.897608       0.040071944         117.79388      0.0007345161        -71.645847       0.050254028          140.8717

0.575       0.15137418        -148.74346      0.0007094919        -172.24159        0.10050168        -163.70026     0.00089932384        -171.75816
                  0.00065922224        -175.42583        0.14883782        -156.75428     0.00076398215        -170.48305       0.096783355        -172.99729
                     0.10122467        -163.29178     0.00074092654        -170.33684        0.16027768        -148.08619     0.00092601656        -167.13359
                  0.00081772189        -172.72722       0.098047201        -173.29977     0.00091125702        -169.25281        0.15389302        -157.03195

0.6       0.22900984         144.02592     0.00016977149         41.275019        0.14196519          128.5858     0.00029427426         37.669817
                  0.00020682635         36.592338        0.23678507            135.16     0.00019112793         2.1324775        0.14876708         120.29044
                     0.14210173         128.80589     0.00017921928        -2.9470305        0.22983739         143.81634     0.00023789082         11.303393
                  0.00024222575         28.262264        0.14863104         120.16013     0.00025990912         7.9250143        0.23638077         134.34861

0.625      0.081438988         86.845164     0.00083075857        -129.52338       0.048329292         75.183785      0.0010072715        -121.33502
                  0.00080445625        -125.51058       0.087997265         76.038493     0.00097396378        -125.97085        0.05584367         66.554364
                    0.048023387         76.531194     0.00095824554        -127.19206        0.07376391          90.19287      0.0011118637         -122.1258
                  0.00098383271        -125.63018       0.054978925         68.083417      0.0011249911         -122.9844        0.08142843         77.414837

0.65       0.16641586         155.28667     0.00064558148         119.76532        0.10049439         137.17845     0.00066332878         124.86632
                  0.00056847393         123.13648        0.17437872         145.85576     0.00048058485          124.5748        0.10772512         127.54633
                      0.1017629         136.86296     0.00046431696         122.15809        0.17356092         154.47425     0.00051665349         129.03559
                   0.0006332464         119.07429          0.109495          126.9107     0.00051606093          126.0499        0.17947206         144.89443

0.675       0.19887946         87.271402     0.00050411123        -85.250471       0.098118086         70.744239     0.00067679735        -86.469483
                  0.00054551076        -91.804227        0.20962709         78.129733     0.00074289469        -96.519722        0.10675978         62.855976
                    0.099224679         70.436575     0.00076411688        -96.394891        0.19631869         86.363969     0.00084338623        -95.851684
                   0.0007365619        -87.007492        0.10787166         62.094069     0.00086703736        -94.773605        0.20689118          76.92195

0.7      0.037346856          45.16033      0.0011645825         167.31354       0.020534775         142.72805      0.0012987895         170.82674
                   0.0012260065         167.08899       0.036912074         44.201915      0.0012111417         170.11247       0.026792215         131.91012
                    0.019772821         141.63696      0.0012348941         170.28969       0.033768076         51.169402      0.0012770717         170.71402
                   0.0013536056         170.28264       0.025664974         132.68454      0.0012933289         171.30024       0.033504438         50.693269

0.725      0.088695749         99.867789     0.00014276158         47.553143       0.074443478         91.822114     5.2114106e-05         -1.360916
                  0.00016610956         65.595773        0.10172238         89.587725     0.00010388901        -83.343128       0.087181269         81.497489
                    0.073967215          91.39605     8.3290698e-05        -72.969054       0.085924647         97.870318     0.00022703075        -80.925528
                  9.4966384e-05          18.90622       0.086789063          81.61142     0.00022171027        -84.378459        0.10150858         87.754091

0.75      0.037749937          148.4645      0.0013118874         176.49458       0.038458124         154.58372      0.0015161679         175.29379
                   0.0013073133         173.99608       0.042576659         137.30894      0.0013914688         175.66977       0.040888349         142.55301
                    0.037982132         155.69962      0.0013794526         176.99398       0.042237564         157.97267      0.0015521821          176.5804
                   0.0015039099          177.3469       0.040375203         142.65814      0.0015559502         176.07191       0.044138341           142.253

0.775       0.16367329         113.48905     0.00088951202          92.48736        0.13628067         103.28651      0.0009201337          85.30799
