! Created Fri Mar  3 09:03:23 2023
# ghz S ma R 45
! 4 Port Network Data from SP1.SP block
! freq  magS11  angS11  magS12  angS12  magS13  angS13  magS14  angS14  
!       magS21  angS21  magS22  angS22  magS23  angS23  magS24  angS24  
!       magS31  angS31  magS32  angS32  magS33  angS33  magS34  angS34  
!       magS41  angS41  magS42  angS42  magS43  angS43  magS44  angS44  
!     
0      0.080449833    -2.3522432e-13     1.1955937e-05              -180      0.0043420095     -3.875119e-12     5.5278357e-06               180
                  1.7856203e-05               180       0.082994622     1.8265268e-13     2.4831865e-05              -180      0.0043179558    -3.9661791e-12
                   0.0051849264     1.1894769e-11     3.5032166e-07               180       0.081004337    -1.8765267e-14     1.4608246e-05     4.3658081e-12
                  4.2233917e-07               180      0.0052677654    -3.7909621e-12     1.7251394e-05               180        0.08160848     -2.056242e-13

0.025       0.16488963        -8.9667685     1.5013987e-05         149.37116       0.097944901         8.7738311     1.0281835e-05         115.21055
                   2.225436e-05         140.97122        0.16517099        -9.1682152     3.5596141e-05         136.54576       0.098684251         8.9049321
                    0.098357052         8.3565977     1.8325106e-05        -161.34831        0.16534288        -8.7617057     1.7064227e-05        -144.67296
                  4.5286471e-06        -110.39943       0.098146781         8.5132708      2.542791e-05         133.28612        0.16519569        -9.2542543

0.05      0.051002538        -57.545956     5.2945726e-05          95.29628       0.016098037        -35.458915     3.9501238e-05         92.430979
                  6.0550954e-05         86.019769       0.050068592        -56.916794     6.3142882e-05         75.668048       0.016092521        -35.131374
                    0.016301139        -38.513466     5.9788466e-05         109.00343       0.051530104        -57.780847     4.5540353e-05         119.38019
                  5.1257453e-05         105.90111       0.015187707        -33.665559     5.2266063e-05         80.991464       0.049225482        -57.195897

0.075       0.18382372         15.294189     5.5583473e-05        -33.686351        0.15026616         21.177555     5.7377227e-05        -68.092747
                  6.6442309e-05        -36.656182        0.18498805         15.029964     7.2351927e-05        -19.245315        0.15043334         21.087524
                     0.14959319         21.197524     6.3080908e-05        0.28534065        0.18399571         15.430321     3.4687654e-05        -2.1361059
                  6.1415349e-05        -64.749441        0.15126354          20.96333     5.8884108e-05        -37.319878         0.1862958          15.04515

0.1       0.20629613         -49.38389     2.9107271e-05        -24.812218        0.15825066        -49.235077     2.9280748e-05         53.490334
                  2.9227257e-05        -50.709393        0.20509897        -49.645062     6.6321699e-05         -75.24085        0.15683271        -49.233837
                     0.15757747        -49.405308     6.1153281e-05         -43.69628        0.20662892        -49.221746     5.3566307e-05        -11.330554
                  3.6674581e-05         62.019748        0.15707014        -49.543334     2.9268589e-05        -52.221552        0.20604697        -49.793707

0.125      0.077992499        -22.157622     8.6045521e-05        -147.42874       0.052789928        -12.923062     6.2930544e-05        -178.83139
                  8.9480526e-05        -155.92685       0.079553842        -20.390134     0.00010589783        -160.00458        0.05432502        -10.767758
                    0.052903093        -12.137721     0.00011602062        -136.36973       0.078459286        -22.308296     8.7679743e-05        -138.73841
                  5.6730171e-05        -165.40897       0.054507669        -10.238423     7.9671444e-05        -160.86292       0.079783093        -20.661796

0.15        0.2159945        -36.956543     4.3423438e-05         130.03444        0.14876226        -37.479138     6.3779937e-05        -24.404175
                  4.4805939e-05         117.05336        0.21678325        -37.299315     8.3622557e-05         119.70102        0.14852105        -37.875396
                     0.14915902        -37.152817     0.00010307295         136.43449        0.21704724        -37.297822     3.9358684e-05         165.16401
                  5.0755261e-05         -25.06337        0.14939673        -37.682188     2.8416925e-05         121.83038        0.21848091        -37.429856

0.175       0.14871611         -99.15138     0.00012231727         84.756238       0.095611341        -107.74062     0.00010723626         114.99328
                  0.00011885297         81.344164        0.14515778        -99.196983      0.0001273176         66.426278       0.091226308        -107.76607
                    0.095594413        -107.36695     0.00014471435         72.737128        0.14840322        -99.050521     0.00014534273         95.546496
                  0.00010621769         113.90006       0.092180338         -107.8544     0.00011942242         86.707103        0.14640961        -99.331993

0.2      0.065206382        -39.004793     0.00013376488          -24.7133       0.034960293        -28.147978      8.662719e-05        -51.145309
                  0.00013525806        -27.046888        0.06882221        -38.407043     0.00016098497        -28.947616       0.039216714        -28.052402
                    0.035700312        -28.452679     0.00017538863          -21.2853       0.067969442         -40.08993     0.00014718296         -16.40539
                  8.1019611e-05        -45.406259       0.038458281        -27.528466     0.00012904672         -26.63757       0.069525299        -39.060507

0.225       0.11328765        -84.559838     0.00014794243        -91.079014       0.045262114        -92.086417     6.0212301e-05        -68.534023
                  0.00015126639        -93.467936        0.11120667        -84.816486     0.00016730259         -101.2631       0.043457522        -93.221989
                    0.046288474        -92.301443     0.00018633283        -96.487616        0.11382293        -85.973229     0.00015798807        -82.950694
                  7.2837585e-05        -67.960047       0.043426624        -92.179111     0.00013981451        -89.224396         0.1118612        -85.463957

0.25      0.042269718        -58.742259     0.00017130846         167.86065       0.051355204        -5.3399321     0.00011660616         152.88315
                  0.00017792616         165.98474        0.04557869        -53.319268     0.00020961606         171.27781       0.056633075        -4.7140943
                     0.05035056        -5.7310448     0.00022214446         174.88693       0.042344219        -55.977912     0.00018214475         177.59874
                  0.00012202384         154.06649       0.056122666         -5.638661     0.00017002334         169.48315       0.045839403          -53.0005

0.275       0.10876279        -75.601262     0.00013417276          106.4559       0.085665409        -77.089718     2.5654554e-05         78.491984
                   0.0001399001         103.08497        0.10937238        -76.239548     0.00019500696         92.466347       0.086654078        -77.411377
                    0.084901007         -77.46457      0.0002077337         97.450654        0.11106922        -76.151031     0.00015247952         113.11926
                  2.9221332e-05         94.164245        0.08547362        -77.726652      0.0001304933         106.44418        0.11018252        -76.855863

0.3      0.039636828        -78.391451     0.00021553795         15.267734       0.016946461        -20.412438     0.00012474155        -4.7070443
                  0.00022371148          12.78496       0.039613119        -69.388933      0.0002489375         12.738646       0.021406107         -11.99896
                    0.016719626        -17.418067      0.0002684747         16.100131       0.038029109        -77.182158     0.00022606245         21.417817
                  0.00013710881        -1.4400562       0.022607529        -10.573138     0.00020909244         17.050328       0.038754661        -67.562249

0.325        0.1630371        -65.523679     0.00011133502        -75.802715        0.12934931        -65.737128     9.8698154e-05         159.81136
                  0.00011848096         -80.49291        0.16798745         -66.21551     0.00022168476        -78.177252        0.13269432        -66.045843
                     0.12921168        -65.395065     0.00023582203        -75.428282        0.16693161        -65.152083     0.00012485984        -61.515461
                   9.984038e-05         165.56543        0.13348039        -66.327536     0.00010992343          -71.6405        0.17116453        -66.212934

0.35       0.18154694        -128.02457     0.00018935662        -107.41042        0.12398656        -137.98368     0.00016082212        -58.118985
                  0.00018763551         -110.1532        0.17825769         -128.6245     0.00020560916        -140.22938        0.12021276        -138.11813
                     0.12336542        -137.79252      0.0002194978        -136.98535        0.18323507          -128.005     0.00022392767        -105.93329
                  0.00016119481        -56.574586        0.12004854        -138.55823     0.00019322509        -106.48791         0.1795223        -128.94021

0.375      0.062706817        -118.94919     0.00023839406         148.20137       0.023670421        -132.70524     0.00010033514         137.21335
                  0.00024267458         146.10536       0.065193773         -112.3148     0.00028059243         135.61643       0.025551782        -115.62122
                     0.02433935        -129.07251     0.00030565705         138.25627        0.06495575        -115.96389     0.00026279964         150.15542
                  0.00010679486         143.34092       0.025808319        -112.97197     0.00023498077          149.6292       0.067547588        -109.95853

0.4       0.17379416        -116.96996     0.00019722853          80.42044       0.094147347        -129.05653     0.00010606817         173.64986
                  0.00019822325         77.284092        0.17572661        -117.98006     0.00025245322         50.845469       0.094460744        -129.88277
                    0.095429399        -128.89337     0.00028027694         51.095747        0.17852145        -117.59942     0.00021510215         85.048762
                  9.9001651e-05         164.15987       0.095778923        -129.71744     0.00019914137         86.238612         0.1801913         -118.5082

0.425       0.16412645         174.86353     0.00029357754         4.7594453       0.073525059         156.98074     0.00028904111         19.057477
                  0.00029302447         3.2254136        0.15671167         174.23821     0.00029444789        -13.382192       0.065496863         155.97881
                    0.074442716         157.24504     0.00031076902        -15.309521        0.16351787         174.74481      0.0003356177         8.5887466
                  0.00028854114         16.780599       0.066693515         155.73221     0.00031632453         8.4044417        0.15728876         173.85194

0.45      0.018536925         136.34368     0.00025819374        -82.192474      0.0042025685         -148.9923     0.00021332376        -111.67283
                  0.00026228157        -83.533408       0.014694911         157.17725     0.00037373748        -100.79385       0.010234688        -121.44903
                   0.0044694982        -156.13214     0.00038706057        -101.43903       0.017915788         152.42833     0.00030051068        -79.852615
                  0.00021476972        -111.32582      0.0093301068        -119.06899     0.00027635877        -79.563288       0.015165473          169.0999

0.475      0.083066072        -163.35005     0.00019973958        -162.57135       0.029521275         170.13155     0.00016379626        -158.44936
                  0.00020612944        -165.18556       0.078835293        -163.16048     0.00036052225         179.20004       0.024992787         166.87092
                    0.030063034         168.77922     0.00037562167         178.28137       0.083291348        -165.53364     0.00022541274        -158.37504
                  0.00017553126        -159.79793        0.02489886          168.6884     0.00020671403        -156.60333       0.079591962        -164.82766

0.5      0.028279631         171.65087     0.00019883732         86.671116       0.028387721         -88.86791     0.00018793857         88.915188
                  0.00020782685         84.813992       0.026860955         -166.3109     0.00040136585         97.207703       0.038532807        -87.217234
                    0.027429908        -87.472806     0.00041292991         95.947071       0.025407411        -178.35562     0.00022937495          93.31791
                  0.00019853531         86.848893       0.037683215        -88.379354     0.00021199157         92.084634       0.026114602        -160.82684

0.525       0.09351436        -157.67444     0.00020000426         14.913664       0.082521486        -168.17836     9.8191236e-05         44.730516
                  0.00020918217         13.336619        0.09523728        -158.36124     0.00037619123         11.877407       0.083395029        -168.28113
                    0.081400613        -167.95059      0.0003861772         11.162243        0.09718177        -158.43494     0.00023243129         18.768804
                  0.00010147463         42.239633       0.081870085        -168.51976     0.00021209202         18.772513       0.096242363        -158.93029

0.55      0.048474132         155.07993      0.0002992332        -69.757584       0.032109154         129.80013     0.00019445206        -63.754592
                  0.00031290155        -71.298044       0.040310082         165.25817      0.0004288952        -64.020755       0.022983112          135.0834
                    0.030965046         130.18012     0.00044363847        -65.096381        0.04235559         158.95627     0.00033036183        -65.686764
                   0.0002096921        -64.943635       0.021656809         137.86926     0.00031394559        -64.983989       0.036106877           169.386

0.575       0.15137418        -148.74346     0.00023603927        -159.21275        0.10050168        -163.70026     4.4899265e-05        -28.065147
                  0.00024576155         -161.7943        0.16093131        -150.01688     0.00042558154        -159.42785        0.10682284        -163.49477
                     0.10122467        -163.29178     0.00043844186        -161.14538        0.16027768        -148.08619     0.00026349727        -153.34557
                  2.5440893e-05         -21.43889        0.10785882        -163.86457     0.00025122841        -153.94609        0.16713758        -149.98708

0.6       0.22900984         144.02592     0.00025970639         145.27186        0.14196519          128.5858     0.00033448055        -170.25255
                  0.00026327484         143.62318        0.22472366         142.81982     0.00031052242         132.60277        0.13679338         128.07075
                     0.14210173         128.80589      0.0003128324         130.77068        0.22983739         143.81634      0.0003059899         148.21174
                  0.00032322466        -169.68023        0.13665421         127.69775     0.00028602958         148.56009        0.22459428         142.27969

0.625      0.081438988         86.845164     0.00036913392         56.981071       0.048329292         75.183785     0.00030769502         56.127151
                  0.00037976381         55.974989       0.068591476         90.554542     0.00047637217         60.680798       0.037292918         81.190978
                    0.048023387         76.531194     0.00048611893         59.770981        0.07376391          90.19287     0.00041585462          56.95191
                  0.00031230512         58.211598       0.036175501         81.655638      0.0003931401         58.400729       0.062964941          94.24204

0.65       0.16641586         155.28667     0.00032400707        -28.815867        0.10049439         137.17845     0.00019327634         23.674911
                  0.00033421271        -30.687665        0.16922406         153.65411     0.00042865175        -35.921761        0.10104021         135.85143
                      0.1017629         136.86296     0.00044466615         -38.03418        0.17356092         154.47425     0.00034122666        -26.430373
                  0.00020310044         17.721294        0.10242532         135.94552     0.00033182178        -24.307709        0.17507342         152.76971

0.675       0.19887946         87.271402     0.00037151735        -100.26992       0.098118086         70.744239     0.00043848798        -85.782953
                  0.00037659408        -101.60288        0.18605697          85.61444     0.00042632298        -94.578355       0.085781378         68.304106
                    0.099224679         70.436575     0.00042402937        -97.757034        0.19631869         86.363969     0.00041960418        -96.168138
                  0.00043795645        -88.523568       0.087071115         68.082933     0.00041110333        -95.401389        0.18531605         84.600019

0.7      0.037346856          45.16033     0.00042274169          171.9304       0.020534775         142.72805     0.00032893294         160.32736
                  0.00043243506         171.33891       0.028618396         58.118553     0.00059160691         175.55263       0.029922906         152.60613
                    0.019772821         141.63696     0.00058732126         173.83355       0.033768076         51.169402     0.00047648599          172.8813
                   0.0003290631         158.95444       0.028750148         153.24545     0.00046168846         173.70711       0.027614377         62.595604

0.725      0.088695749         99.867789     0.00042988166          91.94322       0.074443478         91.822114     0.00030010338         96.742989
                  0.00044251054         90.825551       0.079713441         99.518778     0.00054545745         92.247391        0.06596707         89.985574
                    0.073967215          91.39605     0.00054493115         90.357561       0.085924647         97.870318     0.00047391361         94.140793
                  0.00030885117         94.786958       0.065748416         90.725665     0.00046376311         95.353253       0.077753617         97.421977

0.75      0.037749937          148.4645     0.00045826161         3.0713423       0.038458124         154.58372     0.00027808018        -5.1861907
                     0.00046825         2.0251215       0.053062502         160.74296     0.00065195825         6.1963554       0.052561068         164.16027
                    0.037982132         155.69962     0.00064756248         4.3703914       0.042237564         157.97267     0.00051702554         4.5996371
                  0.00028282797        -8.8563779       0.052044052          163.0646     0.00050488281         5.1758737       0.055442407         163.73121

0.775       0.16367329         113.48905     0.00038440571        -73.723495        0.13628067         103.28651     0.00023595074        -51.284994
