! Created Fri Mar  3 09:16:51 2023
# ghz S ma R 45
! 4 Port Network Data from SP1.SP block
! freq  magS11  angS11  magS12  angS12  magS13  angS13  magS14  angS14  
!       magS21  angS21  magS22  angS22  magS23  angS23  magS24  angS24  
!       magS31  angS31  magS32  angS32  magS33  angS33  magS34  angS34  
!       magS41  angS41  magS42  angS42  magS43  angS43  magS44  angS44  
!     
0      0.080449833    -2.3522432e-13     1.9295555e-05     5.9634493e-12      0.0043420095     -3.875119e-12      8.163448e-06               180
                  4.6040421e-06    -5.6453707e-12       0.081836707     1.8574706e-13     1.9079898e-05              -180        0.00388116    -4.4080958e-12
                   0.0051849264     1.1894769e-11     5.1925372e-05     5.7553838e-12       0.081004337    -1.8765267e-14     3.9497479e-05              -180
                  3.8751497e-05     9.3763996e-12      0.0048317706    -4.1381542e-12     2.5511836e-05              -180        0.08249328    -2.0352468e-13

0.025       0.16488963        -8.9667685     2.1306857e-05        -125.96487       0.097944901         8.7738311     4.5981239e-05         36.467301
                  2.1379557e-05        -167.22823        0.16517342        -9.1683951     1.7050772e-05         106.77622       0.098684587         8.9076035
                    0.098357052         8.3565977     4.4692495e-05        -85.997549        0.16534288        -8.7617057     3.2373324e-05         71.352483
                  1.9452521e-05        -38.121095       0.098147088         8.5161708     2.1040066e-05         101.24495        0.16519229        -9.2482814

0.05      0.051002538        -57.545956     7.7173752e-05         103.09998       0.016098037        -35.458915     0.00020293821         97.777271
                  8.6836382e-05         96.660987       0.050068009        -56.918122     6.6176376e-05         87.942653       0.016092347        -35.132273
                    0.016301139        -38.513466      7.244683e-05         117.31772       0.051530104        -57.780847     3.9161963e-05         79.943251
                  0.00024640721         101.53281       0.015188211        -33.669009     5.8816106e-05         87.423246       0.049226146        -57.192472

0.075       0.18382372         15.294189     6.8274948e-05         3.2815736        0.15026616         21.177555     0.00020102056         28.254038
                  7.1412198e-05         4.0178219        0.18498787         15.030569      6.392076e-05         11.229354        0.15043316         21.087709
                     0.14959319         21.197524      7.938444e-05         3.0132316        0.18399571         15.430321     3.1086228e-05         15.457608
                  0.00023837633         22.702169        0.15126336         20.963517     4.6933584e-05         14.959794        0.18629753         15.043662

0.1       0.20629613         -49.38389      1.795809e-05        -172.44826        0.15825066        -49.235077     0.00026163398         112.83199
                  9.0441743e-06         147.04395         0.2050979        -49.645571     3.3511854e-05         98.207004        0.15683265        -49.233969
                     0.15757747        -49.405308     5.1974751e-05        -174.60336        0.20662892        -49.221746     3.8913096e-05         87.304801
                  0.00023368557         120.48762        0.15707009        -49.543466        3.1182e-05         66.148624         0.2060484        -49.791428

0.125      0.077992499        -22.157622     9.6587352e-05         44.759195       0.052789928        -12.923062     0.00053829172         42.068949
                  9.7266088e-05         32.083161       0.079541569        -20.397139      0.0001266185         24.545439        0.05444496        -10.785078
                    0.052903093        -12.137721       0.000145315         58.931375       0.078459286        -22.308296     0.00011231538         17.361184
                  0.00053975716         46.827478        0.05462634        -10.255825      9.368765e-05         14.056561       0.079796355         -20.65766

0.15        0.2159945        -36.956543     2.2618063e-05        -11.984327        0.14876226        -37.479138     0.00010087388         108.58459
                  2.1786464e-05        -50.228947        0.21675946        -37.299457     4.1418445e-05        -83.899336        0.14881527        -37.905417
                     0.14915902        -37.152817     6.1919553e-05        -13.002743        0.21704724        -37.297822     3.0365955e-05         -130.3364
                  0.00010456721         87.148133        0.14969065        -37.712387     1.7624928e-05        -161.51739        0.21844933        -37.430254

0.175       0.14871611         -99.15138     9.1303275e-05         70.968384       0.095611341        -107.74062     0.00077554943         64.946278
                  8.7410567e-05         76.432798        0.14515735        -99.193501     0.00014141483         73.843479       0.091338924        -107.84526
                    0.095594413        -107.36695     0.00012204617         64.103788        0.14840322        -99.050521     0.00014044601         76.122877
                  0.00073600312         64.533518       0.092293144        -107.93267     0.00012707204         66.909425         0.1463774        -99.306568

0.2      0.065206382        -39.004793     6.9777003e-05         -12.91196       0.034960293        -28.147978     0.00037775967        -6.9999356
                  6.2064453e-05        -11.383754       0.068821662        -38.410296     0.00014353971        -22.044104       0.039196115        -28.024135
                    0.035700312        -28.452679     0.00014376293        -16.685913       0.067969442         -40.08993     0.00011886525        -22.750011
                  0.00034489286        -1.4248838       0.038437844        -27.499351     9.0009726e-05        -30.169883       0.069555731        -39.069731

0.225       0.11328765        -84.559838      0.0001193114          63.24803       0.045262114        -92.086417      0.0007529575         79.813685
                  0.00012254457         66.793561        0.11120958        -84.823853     9.9956888e-05         88.901353       0.043458208        -93.230294
                    0.046288474        -92.301443     8.9396677e-05         63.475113        0.11382293        -85.973229     9.5871614e-05         85.813044
                   0.0007777968         76.358436       0.043427212        -92.187413     0.00012708874         81.744029         0.1118529        -85.423818

0.25      0.042269718        -58.742259     0.00018385963        -17.599135       0.051355204        -5.3399321     0.00083612064         7.3400831
                  0.00018102548        -14.084113       0.045566966        -53.319671      0.0002584449        0.20524387       0.056629032        -4.7099277
                     0.05035056        -5.7310448     0.00024114189        -13.498463       0.042344219        -55.977912      0.0001958364       -0.15324548
                  0.00082692961          3.858612       0.056118539         -5.634507     0.00021729754        -4.4499784       0.045922243        -53.017578

0.275       0.10876279        -75.601262     1.0497186e-05         90.145168       0.085665409        -77.089718     0.00045201203         85.828539
                  2.1747096e-05          53.08601        0.10937116        -76.247741     7.7701981e-05        -71.598424       0.086654589        -77.412171
                    0.084901007         -77.46457     6.3500571e-05         -122.6625        0.11106922        -76.151031     5.0425721e-05        -21.542533
                  0.00047386388         90.430205       0.085474162        -77.727435     4.1682866e-05        -42.473282        0.11018311        -76.818663

0.3      0.039636828        -78.391451     0.00021661258        0.96982281       0.016946461        -20.412438      0.0011595158          21.48902
                  0.00022799567        -1.7075419       0.039588784        -69.402968      0.0002402826         10.641769       0.021397283         -11.98974
                    0.016719626        -17.418067     0.00026691093         18.122212       0.038029109        -77.182158     0.00019253882        -5.4420566
                   0.0012007872         21.366875       0.022598734        -10.563862      0.0001927181       -0.25531756       0.038902877        -67.512647

0.325        0.1630371        -65.523679     0.00012421321        -80.144634        0.12934931        -65.737128     0.00017536401          8.582505
                  0.00013087914        -82.642089        0.16798374        -66.220619      0.0002395688        -69.614869        0.13269174        -66.043087
                     0.12921168        -65.395065     0.00025345132        -70.583324        0.16693161        -65.152083     9.7682856e-05        -73.630719
                  0.00016061485        -6.7967472        0.13347779        -66.324777     0.00011524601        -66.437894         0.1711868         -66.20481

0.35       0.18154694        -128.02457     5.3878387e-05         48.510044        0.12398656        -137.98368       0.001190283         39.076785
                   5.171812e-05          45.93808        0.17826356        -128.64015     5.2115895e-05         59.065755        0.12021858        -138.12113
                     0.12336542        -137.79252     8.1335237e-05         81.176174        0.18323507          -128.005     7.8603609e-05         15.048661
                   0.0011757002         41.592574        0.12005447        -138.56121     5.3691467e-05       -0.31414314        0.17952925        -128.87326

0.375      0.062706817        -118.94919     0.00017523779        -43.138356       0.023670421        -132.70524     0.00076674197        -29.404015
                  0.00017718073        -46.441564       0.065176803        -112.32435     0.00029569103        -44.174675       0.025540227        -115.62555
                     0.02433935        -129.07251     0.00033340026        -35.676602        0.06495575        -115.96389     0.00018962511        -58.646827
                  0.00078883507        -25.570048         0.0257966        -112.97505     0.00015446221        -56.289054       0.067655164        -109.94857

0.4       0.17379416        -116.96996     5.1208377e-05        -76.554609       0.094147347        -129.05653     0.00092956667         52.834666
                   4.429656e-05        -93.334768        0.17573829        -117.99756     0.00012392195        -137.45374       0.094467093        -129.88325
                    0.095429399        -128.89337     0.00016234253        -121.01584        0.17852145        -117.59942     8.2700512e-06        -119.15405
                  0.00090206666         50.594334       0.095785355        -129.71789      2.861235e-05        -20.455862        0.18019458        -118.44469

0.425       0.16412645         174.86353     0.00013272018        -21.303852       0.073525059         156.98074      0.0012727037        -11.877502
                  0.00012956508        -15.575119        0.15672838         174.21886     0.00025335915        -10.219593       0.065507918         155.96734
                    0.074442716         157.24504     0.00021850737        -13.053317        0.16351787         174.74481     0.00018838276        -16.803133
                   0.0012351479        -11.604425        0.06670465         155.72092     0.00018092465        -24.856464        0.15728486         173.93685

0.45      0.018536925         136.34368     0.00014357084        -78.346108      0.0042025685         -148.9923     0.00032893745         44.659513
                  0.00014222851        -74.756086       0.014725187         157.19515     0.00032776859        -95.354834       0.010235136        -121.42532
                   0.0044694982        -156.13214     0.00031452118        -94.600702       0.017915788         152.42833     0.00019112048        -89.711423
                  0.00037591211         42.939895       0.009330792        -119.04281     0.00016406124        -91.713345       0.015063947         169.22619

0.475      0.083066072        -163.35005     0.00015780823        -54.877278       0.029521275         170.13155      0.0014642341         1.5597551
                  0.00016045892        -53.746319       0.078833917         -163.2088     9.5194086e-05        -15.939895       0.025010248         166.83989
                    0.030063034         168.77922     9.6006565e-05        -30.033594       0.083291348        -165.53364     0.00012112005        -46.293659
                   0.0014727202       -0.74958615       0.024915955         168.65582     0.00014888852         -40.55381       0.079645277        -164.61566

0.5      0.028279631         171.65087     0.00023553787        -101.18308       0.028387721         -88.86791     0.00050464472        -52.749068
                  0.00023479878        -99.986783       0.026854092        -166.29214     0.00044878721        -83.715342       0.038526095        -87.194636
                    0.027429908        -87.472806     0.00042273523        -88.320301       0.025407411        -178.35562     0.00026507267        -88.602156
                  0.00046315645        -58.449856       0.037676283        -88.356334     0.00029010889        -92.211313       0.026163668        -160.76451

0.525       0.09351436        -157.67444     8.1170104e-05         -126.6697       0.082521486        -168.17836      0.0012545309         15.642512
                  8.3162543e-05        -119.53086         0.0952548        -158.38847     0.00021952884        -163.31003       0.083412015        -168.28761
                    0.081400613        -167.95059     0.00018124921         -173.0951        0.09718177        -158.43494     0.00014065653        -126.23627
                   0.0012908047         17.421022       0.081887221        -168.52635     0.00013677622        -137.30432       0.096246258        -158.75963

0.55      0.048474132         155.07993      0.0002059161        -88.698528       0.032109154         129.80013      0.0010679684        -49.992814
                  0.00022018918        -90.908752       0.040274439         165.22641     0.00033268562        -67.168689       0.022989926         135.01121
                    0.030965046         130.18012     0.00037323211        -64.702859        0.04235559         158.95627     0.00018976113        -93.789726
                   0.0011106635        -50.426338       0.021662099          137.7915     0.00018168767        -86.837631       0.036239024         169.64032

0.575       0.15137418        -148.74346     0.00020368104        -154.39252        0.10050168        -163.70026     0.00078892862         25.596498
                  0.00021044682        -157.81296        0.16091791        -150.02289     0.00045072542        -155.68338        0.10683312        -163.49056
                     0.10122467        -163.29178      0.0004746315        -156.14256        0.16027768        -148.08619     0.00019109823        -150.38364
                   0.0007560097         28.075545        0.10786922        -163.86035     0.00020656495        -146.18477        0.16716679        -149.91692

0.6       0.22900984         144.02592     3.2950782e-05         98.165671        0.14196519          128.5858      0.0013540584         -32.03584
                  3.5836591e-05          93.51176        0.22468224         142.80495     7.6033053e-05         36.623668         0.1368195         128.06238
                     0.14210173         128.80589     9.7189852e-05         37.599555        0.22983739         143.81634     1.9243978e-05         179.10775
                   0.0013626357        -29.727251        0.13668048         127.68939     3.9688493e-05         155.05715        0.22461265         142.36484

0.625      0.081438988         86.845164     0.00026597404        -110.04201       0.048329292         75.183785     0.00026397646        -33.548181
                  0.00026902017        -111.17735       0.068612567         90.563022     0.00050530249        -118.28113       0.037290763         81.171315
                    0.048023387         76.531194     0.00053230051        -115.87573        0.07376391          90.19287      0.0002753642        -120.58895
                  0.00032747807        -37.100249       0.036173072         81.635382     0.00025338146        -115.66889       0.062865189         94.231271

0.65       0.16641586         155.28667     0.00018537844         172.84348        0.10049439         137.17845      0.0013673949        -17.548016
                  0.00018561149         168.43303          0.169194         153.60731     0.00028852558         141.91632        0.10107109         135.84573
                      0.1017629         136.86296     0.00031843237         146.12166        0.17356092         154.47425      0.0001496048         163.54903
                   0.0013229158        -18.979418        0.10245634         135.93981     0.00015016087          174.8055        0.17505662         152.91593

0.675       0.19887946         87.271402     0.00015358957         -91.68749       0.098118086         70.744239     0.00079804664         -70.97265
                  0.00015344865        -86.985115          0.186059         85.597796     0.00036130612        -90.207986       0.085800374         68.290595
                    0.099224679         70.436575     0.00032766802        -90.157863        0.19631869         86.363969     0.00022491681        -91.720262
                  0.00076100704        -69.850493       0.087090057         68.069603     0.00021425774        -97.380977        0.18524569         84.651183

0.7      0.037346856          45.16033     0.00034374233        -168.57317       0.020534775         142.72805     0.00092277865         -4.308432
                  0.00034214318         -166.8455       0.028753123         58.200867     0.00059535424         178.98821       0.029944945         152.60311
                    0.019772821         141.63696     0.00056830684         179.82905       0.033768076         51.169402      0.0004085897        -174.54232
                  0.00095403127        -6.0442891       0.028772299         153.24164     0.00039076372        -175.47246       0.027221875         62.293049

0.725      0.088695749         99.867789     0.00012429442          175.6452       0.074443478         91.822114      0.0011583196        -66.124915
                  0.00012758541         177.90493       0.079712647         99.426066     5.2153833e-05        -90.167115       0.065999957         89.959291
                    0.073967215          91.39605     6.8175683e-05        -109.29915       0.085924647         97.870318     8.6286498e-05         170.16401
                   0.0011468443        -68.907029       0.065780803         90.698789      8.886182e-05        -179.24258       0.077657992         97.694573

0.75      0.037749937          148.4645     0.00037393535         177.08082       0.038458124         154.58372     0.00037588398         -3.609856
                  0.00037394648          177.0492       0.053081132         160.64066     0.00070380697        -174.46935        0.05256346         164.17388
                    0.037982132         155.69962     0.00069449863        -176.95204       0.042237564         157.97267     0.00042662527         -176.8858
                  0.00038687071         6.7714811       0.052046418         163.07838     0.00044033454        -178.57276       0.055371124         164.01645

0.775       0.16367329         113.48905     0.00025612152         111.17879        0.13628067         103.28651      0.0012020148        -49.379183
