! Created Fri Mar  3 09:19:17 2023
# ghz S ma R 45
! 4 Port Network Data from SP1.SP block
! freq  magS11  angS11  magS12  angS12  magS13  angS13  magS14  angS14  
!       magS21  angS21  magS22  angS22  magS23  angS23  magS24  angS24  
!       magS31  angS31  magS32  angS32  magS33  angS33  magS34  angS34  
!       magS41  angS41  magS42  angS42  magS43  angS43  magS44  angS44  
!     
0      0.080449833    -2.3522432e-13     1.4562115e-06     7.8656277e-14      0.0043420095     -3.875119e-12     1.1013644e-06     1.0884697e-13
                  1.4575044e-06     -5.534103e-14       0.081152644     1.8795887e-13     2.4494584e-06     4.1981737e-15      0.0038448043    -4.4520851e-12
                   0.0051849264     1.1894769e-11     2.4443958e-06    -2.1769042e-14       0.081004337    -1.8765267e-14     1.9724986e-06     7.0263638e-15
                  1.1004519e-06     1.0563038e-14      0.0047665301    -4.1990905e-12     1.9704606e-06     7.3222973e-14       0.082288848    -2.0407174e-13

0.025       0.16488963        -8.9667685     5.8626251e-06        -25.863384       0.097944901         8.7738311     3.8838405e-06        -35.973287
                  5.8665367e-06        -26.019402        0.16512561        -8.8413809     8.7317692e-06        -21.231068       0.098631972         9.1990917
                    0.098357052         8.3565977     8.7268083e-06        -21.300748        0.16534288        -8.7617057     6.7494803e-06        -25.340746
                  3.8833867e-06        -36.164192       0.098114364         8.8103331     6.7398711e-06        -25.295607        0.16491466        -8.9813031

0.05      0.051002538        -57.545956     3.5976846e-05         101.45541       0.016098037        -35.458915     2.2749487e-05         101.20071
                  3.6009104e-05         101.54018       0.051143977        -57.565991     5.5185526e-05         101.09963       0.016850352        -36.753752
                    0.016301139        -38.513466     5.5226637e-05         101.10086       0.051530104        -57.780847     4.1389569e-05          101.2576
                  2.2795919e-05         101.21787       0.015930806        -35.521717     4.1395527e-05         101.18231       0.050294666        -57.695913

0.075       0.18382372         15.294189     4.3131065e-05         2.5303773        0.15026616         21.177555     2.6205612e-05        -6.4153999
                  4.3181353e-05          2.566016        0.18424398         15.974625     6.7022288e-05         6.5679587        0.14999046         21.946219
                     0.14959319         21.197524     6.7033595e-05         6.5489343        0.18399571         15.430321     5.0250132e-05         3.5544569
                  2.6223576e-05        -6.4431401        0.15082419         21.822855     5.0208857e-05         3.5024752        0.18548884         15.965372

0.1       0.20629613         -49.38389     2.5549118e-05         153.27462        0.15825066        -49.235077     1.7117166e-05         162.13074
                  2.5587645e-05         153.27685        0.20696705        -48.627899     3.9852328e-05         146.37289        0.15834868         -48.04739
                     0.15757747        -49.405308     3.9923965e-05         146.38548        0.20662892        -49.221746     2.9431887e-05          151.6661
                  1.7187235e-05         162.13128        0.15858773        -48.353875     2.9459418e-05         151.66484         0.2079529        -48.776203

0.125      0.077992499        -22.157622     9.1137457e-05         38.973908       0.052789928        -12.923062     5.5245398e-05         36.457644
                  9.1237259e-05         38.952732        0.07826803        -20.264868     0.00014084525         39.961848       0.053636052        -10.873419
                    0.052903093        -12.137721     0.00014093109         39.921705       0.078459286        -22.308296     0.00010558564         38.977912
                  5.5358724e-05         36.364014       0.053802766        -10.329142     0.00010558586         38.954556       0.078465958        -20.608271

0.15        0.2159945        -36.956543     3.0635212e-05        -71.540924        0.14876226        -37.479138     1.9475383e-05        -88.509016
                  3.0736843e-05        -71.602081        0.21873625        -35.649604     4.3904495e-05        -65.897673         0.1504725        -36.148251
                     0.14915902        -37.152817     4.3964502e-05        -66.026335        0.21704724        -37.297822     3.5668561e-05        -70.214581
                  1.9566593e-05        -88.698976        0.15134691         -35.95751     3.5649401e-05        -70.280582        0.22043169        -35.779617

0.175       0.14871611         -99.15138     0.00010250461         74.928205       0.095611341        -107.74062     6.3740013e-05         78.022349
                  0.00010251966         74.925127        0.14894773         -97.53942     0.00015921807         72.922999       0.094525219        -105.59451
                    0.095594413        -107.36695     0.00015923935         72.938095        0.14840322        -99.050521     0.00011877435         74.014955
                  6.3750876e-05          78.05549       0.095477745        -105.67898     0.00011876459         74.041837        0.15033722        -97.672246

0.2      0.065206382        -39.004793      0.0001169972         -19.35535       0.034960293        -28.147978     7.0211136e-05          -23.2147
                  0.00011700607        -19.425198       0.070141513        -36.172511     0.00017544898        -17.860316       0.040407338        -25.871982
                    0.035700312        -28.452679     0.00017548535        -17.883905       0.067969442         -40.08993     0.00013512405        -19.546208
                  7.0257184e-05        -23.282507       0.039648022        -25.370548      0.0001351557        -19.506347       0.070785716        -36.874759

0.225       0.11328765        -84.559838      5.397812e-05         86.455549       0.045262114        -92.086417     3.7852696e-05         89.029483
                   5.403937e-05         86.689728         0.1163899        -82.986342      8.492707e-05         85.033287        0.04789491        -90.621114
                    0.046288474        -92.301443     8.4949185e-05         85.098461        0.11382293        -85.973229     6.2526556e-05         86.233652
                  3.7889112e-05         89.205772       0.047858209        -89.678357     6.2470567e-05         86.114454        0.11719413        -83.601797

0.25      0.042269718        -58.742259     0.00017919122        -3.7343321       0.051355204        -5.3399321     0.00011176897        -8.4857102
                  0.00017932208        -3.6874823       0.045763056        -51.259639     0.00026962533        -1.6104149       0.056614793        -2.2475241
                     0.05035056        -5.7310448     0.00026958064        -1.5873517       0.042344219        -55.977912     0.00020770873        -3.5834238
                  0.00011172803        -8.4228264       0.056118278        -3.1804673     0.00020751656        -3.5955084       0.045999295        -51.208153

0.275       0.10876279        -75.601262     5.5272001e-05        -90.182523       0.085665409        -77.089718     3.0323406e-05        -108.17365
                  5.5287849e-05        -90.267946        0.11548239        -73.525608     7.9223846e-05         -84.94864       0.091898695        -74.143888
                    0.084901007         -77.46457     7.9082209e-05        -84.894238        0.11106922        -76.151031     6.4143879e-05        -89.442161
                  3.0184814e-05        -108.20163       0.090720038        -74.446508     6.3988682e-05        -89.315991        0.11636617        -74.131024

0.3      0.039636828        -78.391451     0.00017179325         13.216226       0.016946461        -20.412438     0.00011179099         9.7719806
                  0.00017208163         13.269962       0.040054441        -69.727521     0.00025834767         15.049733       0.020185811        -13.045839
                    0.016719626        -17.418067     0.00025855235         14.992802       0.038029109        -77.182158     0.00019971489         13.233372
                  0.00011206919         9.6667412       0.021344965        -11.257843     0.00019964293         13.131149        0.03922446        -68.412952

0.325        0.1630371        -65.523679     0.00016456006        -75.708043        0.12934931        -65.737128     9.7552879e-05        -87.435227
                  0.00016490258        -75.726015        0.17395954        -62.475386     0.00024626108        -71.794541        0.13788315          -62.0281
                     0.12921168        -65.395065     0.00024622944        -71.839025        0.16693161        -65.152083     0.00019231702         -75.14588
                  9.7619871e-05        -87.539203        0.13866852        -62.300748     0.00019200278        -75.180781        0.17707489        -62.519487

0.35       0.18154694        -128.02457     6.2150631e-05         63.087013        0.12398656        -137.98368     4.6441231e-05         67.103301
                  6.2184183e-05         63.152849        0.18372243        -124.27083     9.6324208e-05         59.824882        0.12445428        -132.99316
                     0.12336542        -137.79252     9.6503129e-05         59.763457        0.18323507          -128.005     7.2789888e-05         61.615643
                  4.6603091e-05         66.999385        0.12427708         -133.4176     7.2907744e-05         61.503727        0.18527973        -124.58618

0.375      0.062706817        -118.94919      0.0002375278        -41.246628       0.023670421        -132.70524     0.00014507594        -45.579013
                  0.00023760932        -41.303587       0.068751663        -104.20064     0.00035284568        -39.829859       0.028208885        -102.25955
                     0.02433935        -129.07251     0.00035283101        -39.921834        0.06495575        -115.96389     0.00027621798        -41.816495
                  0.00014514691        -45.802327        0.02864321        -99.964616     0.00027619059        -41.863493       0.071323317        -102.34844

0.4       0.17379416        -116.96996     8.5086906e-05        -137.85878       0.094147347        -129.05653     4.5779262e-05        -158.61249
                  8.5228981e-05        -138.07624        0.18327974        -113.09752     0.00012530942        -134.23344        0.10042909        -123.70995
                    0.095429399        -128.89337     0.00012517422         -134.4151        0.17852145        -117.59942     9.8250112e-05        -137.80163
                  4.5828532e-05        -159.12018        0.10174241        -123.56878     9.8090564e-05        -137.84087         0.1879282        -113.62545

0.425       0.16412645         174.86353     0.00020195314        -10.804923       0.073525059         156.98074     0.00012963892        -11.748214
                  0.00020205707        -10.755521        0.15543209        -179.21842     0.00030036519        -10.172189       0.062886383         163.36169
                    0.074442716         157.24504     0.00030041668        -10.143994        0.16351787         174.74481     0.00023714866        -11.506726
                  0.00012965865        -11.676285       0.064075187          163.0775     0.00023709156        -11.505259        0.15645105        -179.59368

0.45      0.018536925         136.34368     0.00025518603        -95.537403      0.0042025685         -148.9923       0.000150305        -101.02884
                  0.00025512569        -95.570284       0.017266396        -163.34345     0.00037411066        -94.039515       0.018387148        -107.36654
                   0.0044694982        -156.13214     0.00037407956        -94.033222       0.017915788         152.42833      0.0002940566        -96.180536
                  0.00015024582        -101.01988       0.017540377        -105.69218     0.00029409776        -96.139811       0.019434637        -156.15201

0.475      0.083066072        -163.35005      7.019777e-05        -11.413509       0.029521275         170.13155      5.876739e-05        -7.3799974
                  7.0477269e-05        -11.106374       0.079930003        -155.99192     9.8584826e-05        -10.802577       0.024523207         177.40306
                    0.030063034         168.77922     9.8737636e-05        -10.774751       0.083291348        -165.53364     8.5637523e-05         -11.35904
                  5.8973544e-05        -7.3102683       0.024484728         179.28437     8.5476536e-05        -11.566528       0.081169506        -157.66277

0.5      0.028279631         171.65087     0.00032807795        -85.737399       0.028387721         -88.86791     0.00020921643        -92.760016
                  0.00032863004        -85.712106       0.031818719        -142.10926     0.00047659937        -83.426036       0.047792468        -81.226575
                    0.027429908        -87.472806      0.0004765661        -83.406474       0.025407411        -178.35562      0.0003824659        -86.017803
                  0.00020924764        -92.713114       0.046937742        -82.175627     0.00038191241        -86.015585       0.032119339        -138.13031

0.525       0.09351436        -157.67444     0.00013602561        -168.43722       0.082521486        -168.17836     7.1703554e-05         172.58911
                  0.00013617481        -168.49893       0.099119114        -150.99251     0.00020818655        -164.09666       0.086434923        -160.07186
                    0.081400613        -167.95059      0.0002080281        -163.98857        0.09718177        -158.43494     0.00015498012        -167.79288
                  7.1464272e-05         172.78668       0.084892554         -160.2732     0.00015469514        -167.61743        0.10106892        -151.79684

0.55      0.048474132         155.07993     0.00026535298        -67.635569       0.032109154         129.80013     0.00018052248        -71.010204
                  0.00026578055        -67.642491       0.037529052        -173.52596     0.00037726776        -66.254271       0.015705096         160.70808
                    0.030965046         130.18012     0.00037738757        -66.386509        0.04235559         158.95627     0.00031276962        -67.705448
                  0.00018076928        -71.272531       0.014838728         166.26259     0.00031251285         -67.82583       0.034766572         -166.8745

0.575       0.15137418        -148.74346     0.00030154302        -158.85625        0.10050168        -163.70026     0.00018030814        -172.45644
                  0.00030202534        -158.94784        0.16762569         -142.1456     0.00045101846        -155.02564        0.11125112        -154.00864
                     0.10122467        -163.29178     0.00045062786        -155.09044        0.16027768        -148.08619     0.00034794392        -158.26646
                  0.00018012788        -172.64645        0.11225186        -154.37868     0.00034727192        -158.27269        0.17394488        -141.90613

0.6       0.22900984         144.02592     6.8012194e-05         -6.805256        0.14196519          128.5858     6.4042994e-05        -10.568275
                  6.8206124e-05        -6.6806786        0.21891053         151.72483     8.2913586e-05        -1.2955439        0.12997959         136.98884
                     0.14210173         128.80589     8.2996426e-05        -1.4907516        0.22983739         143.81634     8.1566291e-05        -10.234418
                  6.4153388e-05        -10.758232        0.12982815         136.59851     8.1530913e-05        -10.475393        0.21962946         151.43022

0.625      0.081438988         86.845164     0.00039008473        -117.56864       0.048329292         75.183785     0.00024450847        -122.42875
                  0.00038995837        -117.61042        0.06082725         104.51438     0.00056730486        -116.80004       0.028827067         95.770728
                    0.048023387         76.531194     0.00056703912        -116.88199        0.07376391          90.19287     0.00045387448        -118.77946
                  0.00024428229        -122.61904       0.027757798         96.626585      0.0004538417        -118.82458       0.056114633         109.43863

0.65       0.16641586         155.28667     0.00017115856         142.41635        0.10049439         137.17845     8.9726191e-05         119.65676
                  0.00017095516         142.25283        0.16503221         163.41604     0.00027638934         147.73589       0.095540225         145.83255
                      0.1017629         136.86296     0.00027572536         147.64568        0.17356092         154.47425     0.00019259022         142.89673
                  8.9300056e-05         119.25544       0.096935202         145.92051     0.00019232748         142.88663        0.17154082          162.5681

0.675       0.19887946         87.271402     0.00028727738        -91.162059       0.098118086         70.744239      0.0001957703        -93.364387
                  0.00028771817        -91.122318        0.17521855          95.39683     0.00040304088        -90.718767       0.075304323         76.383707
                    0.099224679         70.436575       0.000403089        -90.687373        0.19631869         86.363969     0.00033930282        -92.348667
                  0.00019577905        -93.290107       0.076621133         76.135158     0.00033899348        -92.346952        0.17495744         94.446908

0.7      0.037346856          45.16033      0.0004234245        -178.87889       0.020534775         142.72805      0.0002538246          172.8591
                  0.00042346465        -178.89099       0.026496812         62.503245      0.0006317578        -176.71727       0.027949616         166.90058
                    0.019772821         141.63696     0.00063176894        -176.66907       0.033768076         51.169402     0.00048246231        -179.18729
                   0.0002537552         172.97727       0.026810897         167.85128     0.00048245342        -179.12567       0.024994632          67.79698

0.725      0.088695749         99.867789     7.7255263e-05        -93.306774       0.074443478         91.822114      8.432953e-05        -82.655918
                  7.7832747e-05        -93.181198       0.066767562         112.31704     8.0620057e-05        -109.63414       0.053855046         100.23647
                    0.073967215          91.39605     8.0878299e-05        -109.92422       0.085924647         97.870318     9.9437153e-05        -96.917304
                  8.4442526e-05        -82.973023       0.053667356         101.15212     9.9021002e-05        -97.219798       0.065394597         110.38273

0.75      0.037749937          148.4645     0.00050244587        -173.64408       0.038458124         154.58372     0.00033323337         177.53759
                  0.00050334058        -173.69079       0.054711528         174.53757     0.00072640627        -171.14694       0.053393999         178.39014
                    0.037982132         155.69962     0.00072616792        -171.14231       0.042237564         157.97267     0.00057922971        -173.96478
                  0.00033312507         177.53496       0.052790662         177.37295     0.00057824958        -173.92418       0.057382971         177.22493

0.775       0.16367329         113.48905     0.00021269751         99.413028        0.13628067         103.28651      0.0001152283         72.451218
