! Created Fri Mar  3 09:17:56 2023
# ghz S ma R 45
! 4 Port Network Data from SP1.SP block
! freq  magS11  angS11  magS12  angS12  magS13  angS13  magS14  angS14  
!       magS21  angS21  magS22  angS22  magS23  angS23  magS24  angS24  
!       magS31  angS31  magS32  angS32  magS33  angS33  magS34  angS34  
!       magS41  angS41  magS42  angS42  magS43  angS43  magS44  angS44  
!     
0      0.080449833    -2.3522432e-13     6.7242259e-08               180      0.0043420095     -3.875119e-12      2.132338e-07              -180
                   6.898148e-08              -180       0.081545473     6.7089877e-13     1.4084901e-05     1.6511416e-14      0.0042656798    -1.7723694e-12
                   0.0051849264     1.1894769e-11     1.4084486e-05      1.673581e-14       0.081004337    -1.8765267e-14      3.030947e-07              -180
                  2.1365584e-07               180      0.0053761724     8.4164329e-12     3.0861988e-07              -180       0.081260934    -4.4154824e-13

0.025       0.16488963        -8.9667685     5.1686245e-06         148.91407       0.097944901         8.7738311     3.4747874e-06         145.08556
                  5.1456387e-06         149.04087        0.16504971        -9.1050889     2.1757213e-05         33.466104        0.09802223         8.7466247
                    0.098357052         8.3565977     2.1765334e-05         33.486579        0.16534288        -8.7617057     5.5848984e-06         149.82374
                   3.476267e-06         144.73977       0.098499255         8.2274441     5.5627441e-06         149.90279        0.16539646        -8.8306627

0.05      0.051002538        -57.545956      1.542265e-05        -67.094991       0.016098037        -35.458915     1.6151088e-05        -75.195961
                  1.5349803e-05        -67.222206       0.049775234         -56.68414     0.00016782961         99.399382       0.015201728        -32.480307
                    0.016301139        -38.513466     0.00016780801         99.386585       0.051530104        -57.780847      1.800294e-05        -68.616388
                  1.6183585e-05        -75.076306       0.015428931         -36.37213     1.7930306e-05        -68.715957       0.050347945        -57.161771

0.075       0.18382372         15.294189     3.6239418e-05        -176.94158        0.15026616         21.177555     2.5164624e-05         172.45634
                  3.6113226e-05        -176.84487        0.18539955         15.050365      0.0001610924         35.954763        0.15157867         20.975841
                     0.14959319         21.197524     0.00016105564         35.954346        0.18399571         15.430321     3.9761524e-05        -176.34526
                  2.5171204e-05         172.57454        0.15071803         20.986838     3.9630083e-05        -176.23892         0.1853972          15.21397

0.1       0.20629613         -49.38389      2.128112e-05         12.507474        0.15825066        -49.235077     1.6513692e-05        -5.4057585
                  2.1107711e-05         12.565884        0.20519295         -49.60417     0.00021974526         109.66648        0.15741709        -49.455349
                     0.15757747        -49.405308     0.00021971903         109.66028        0.20662892        -49.221746      2.255767e-05         8.3791488
                  1.6514343e-05        -5.5669433        0.15656827        -49.661013     2.2370009e-05         8.4010452        0.20595009        -49.425354

0.125      0.077992499        -22.157622     5.1585991e-05         -136.4968       0.052789928        -12.923062     4.3796054e-05          -143.173
                   5.142258e-05        -136.35954        0.07975777        -20.077951     0.00040421635         46.741451       0.054530074        -10.614335
                    0.052903093        -12.137721     0.00040414983         46.748801       0.078459286        -22.308296     5.8730621e-05        -136.95689
                  4.3913934e-05        -143.23538       0.054691723        -9.7240341     5.8565889e-05        -136.82459        0.07985955        -20.925066

0.15        0.2159945        -36.956543     4.9575669e-05         100.00477        0.14876226        -37.479138     2.4274765e-05         88.452269
                  4.9578465e-05         100.24429         0.2168699        -37.333051      0.0001500205         99.156085        0.14926409        -37.838857
                     0.14915902        -37.152817     0.00015010631         99.146932        0.21704724        -37.297822     5.1642003e-05         100.32669
                  2.4497586e-05         88.449186        0.14965854        -37.446547      5.167956e-05         100.57584        0.21751765        -37.690656

0.175       0.14871611         -99.15138     5.5977209e-05         -95.84719       0.095611341        -107.74062     5.1345989e-05        -104.14052
                  5.5761967e-05        -95.709003        0.14451987        -99.205391     0.00060539164         61.990998       0.092010407        -108.08111
                    0.095594413        -107.36695     0.00060537948         61.990391        0.14840322        -99.050521      6.361616e-05        -97.871507
                    5.13583e-05        -104.04528       0.091922169        -107.57738     6.3408005e-05        -97.742128        0.14538713        -99.225902

0.2      0.065206382        -39.004793     9.6985688e-05         159.80307       0.034960293        -28.147978     6.7313399e-05         155.99435
                  9.6944924e-05         159.94166       0.069342366        -37.972223     0.00019971609         9.9595894       0.038204038        -27.362198
                    0.035700312        -28.452679     0.00019976277         9.9902596       0.067969442         -40.08993     0.00010577218         159.60046
                  6.7349284e-05         155.89505       0.039102258        -27.804304     0.00010574642         159.70771        0.07044699        -39.658985

0.225       0.11328765        -84.559838     2.3543056e-05        -2.7133222       0.045262114        -92.086417     2.0324421e-05        -85.160874
                  2.3469248e-05        -2.1089093        0.11084687        -84.665421     0.00068084923          77.19599       0.042642146        -91.969887
                    0.046288474        -92.301443     0.00068083286         77.181079        0.11382293        -85.973229     2.3608173e-05        -14.251618
                  2.0452495e-05        -84.598377        0.04380985         -92.25858     2.3534531e-05        -13.750974        0.11129643        -86.172271

0.25      0.042269718        -58.742259      0.0001314407        -177.54247       0.051355204        -5.3399321     0.00010049396         171.17518
                  0.00013115099        -177.41205       0.046335888        -51.847257     0.00056637534         11.588405       0.057178731        -5.5099316
                     0.05035056        -5.7310448     0.00056626311         11.576085       0.042344219        -55.977912     0.00014583389        -178.23875
                  0.00010055285         171.31263       0.056050688        -5.9550266     0.00014557671        -178.12186       0.045466191        -51.151504

0.275       0.10876279        -75.601262     9.9741728e-05         79.940206       0.085665409        -77.089718     4.0867909e-05         76.775634
                  9.9801606e-05         80.205281        0.11020859        -76.079659     0.00054623508         87.277747       0.086250691         -77.60357
                    0.084901007         -77.46457     0.00054623205         87.275126        0.11106922        -76.151031      0.0001030849         80.071096
                  4.0894628e-05         76.859278       0.085379204        -78.072105     0.00010315402         80.314328        0.11136801        -76.629411

0.3      0.039636828        -78.391451     0.00010435465        -148.61999       0.016946461        -20.412438     9.4336718e-05        -170.86168
                  0.00010403515        -148.45157       0.039935708        -68.347683     0.00092201854         24.573882       0.022517492        -11.816848
                    0.016719626        -17.418067     0.00092177978         24.574242       0.038029109        -77.182158     0.00011828818        -150.93431
                  9.4649603e-05        -170.79818       0.022399672        -9.1180671     0.00011801337        -150.78131       0.038433224        -68.992403

0.325        0.1630371        -65.523679     0.00018717693          99.63322        0.12934931        -65.737128     0.00010124266         89.922432
                  0.00018729775         99.798492        0.16906991        -66.218206     0.00028541479         62.821361        0.13356349        -66.504243
                     0.12921168        -65.395065     0.00028565427         62.839698        0.16693161        -65.152083     0.00020035536         99.407193
                   0.0001017669         89.896491        0.13337568        -66.122298     0.00020055269         99.558222        0.17075266        -65.946298

0.35       0.18154694        -128.02457      6.248474e-05        -72.337606        0.12398656        -137.98368     4.4456019e-05        -126.88154
                  6.2367594e-05        -71.762601        0.17809712        -128.61834      0.0010917906         37.938248        0.12045595        -138.67598
                     0.12336542        -137.79252      0.0010917447         37.934242        0.18323507          -128.005     6.5086409e-05        -77.370907
                  4.4469685e-05        -126.54782        0.11971912        -138.43576     6.4961949e-05        -76.825246        0.18025758        -128.62341

0.375      0.062706817        -118.94919     0.00021855356         141.80908       0.023670421        -132.70524     0.00014888533         133.10654
                  0.00021864564         141.93751       0.065238914        -111.12368     0.00044402988        -14.243187       0.024595381        -115.17206
                     0.02433935        -129.07251     0.00044417963        -14.206173        0.06495575        -115.96389     0.00023723002          140.8539
                  0.00014893665         132.98479       0.025878084        -112.08506     0.00023732858         140.95584       0.066964834        -111.35286

0.4       0.17379416        -116.96996     0.00013574778         24.241813       0.094147347        -129.05653     4.3300859e-05          27.80398
                  0.00013621165         24.257204        0.17608245        -117.88397      0.0010370179         49.675263       0.094511751        -129.68403
                    0.095429399        -128.89337      0.0010369143         49.655961        0.17852145        -117.59942     0.00013954387         24.286504
                  4.3226674e-05         26.877342       0.095886673         -129.5225     0.00013998357         24.257982        0.17888201        -118.56126

0.425       0.16412645         174.86353       0.000195419         173.77545       0.073525059         156.98074     0.00013641817         159.45043
                  0.00019547026         173.91559        0.15502304         174.37192     0.00094201994        -11.257535       0.065621941         155.68009
                    0.074442716         157.24504     0.00094184712        -11.266435        0.16351787         174.74481     0.00021131263         172.74446
                  0.00013679618         159.51674       0.066588663         156.04932     0.00021144045         172.85528        0.15670969         174.10023

0.45      0.018536925         136.34368     0.00028153468         75.912485      0.0042025685         -148.9923     0.00016070976         76.082342
                  0.00028193601         75.979895       0.013848974         165.38659     0.00070068023         63.038487      0.0096313225        -116.74541
                   0.0044694982        -156.13214     0.00070063897         63.033869       0.017915788         152.42833     0.00029969369         75.763568
                  0.00016073845         76.051482      0.0095426845        -121.16578     0.00030004153          75.80658        0.01609745         169.05848

0.475      0.083066072        -163.35005     7.8825081e-05        -117.06237       0.029521275         170.13155     5.5427158e-05         172.64747
                   7.903607e-05        -116.73691       0.078878311        -162.74406      0.0013531815         1.6132451       0.024261715         169.96298
                    0.030063034         168.77922      0.0013527022           1.60595       0.083291348        -165.53364     8.1281395e-05        -123.78627
                  5.5987494e-05         172.90879       0.024779573         167.99564     8.1472554e-05        -123.54241       0.078801082        -165.19537

0.5      0.028279631         171.65087     0.00033700076         94.743567       0.028387721         -88.86791     0.00021493386          83.78061
                  0.00033730931         94.846092        0.02738516        -161.77338     0.00030719532         21.263179       0.038919557        -89.459584
                    0.027429908        -87.472806     0.00030711179         21.365563       0.025407411        -178.35562     0.00036439487         93.995626
                  0.00021562233         83.859838       0.037953388        -88.314039     0.00036474983         94.073618       0.026084994        -158.54304

0.525       0.09351436        -157.67444     0.00018983196        -16.048677       0.082521486        -168.17836     6.6904957e-05         -9.587072
                  0.00019053015        -15.969758        0.09650132         -158.4008      0.0014645026         14.347551       0.083053246        -168.92677
                    0.081400613        -167.95059      0.0014645515         14.351952        0.09718177        -158.43494     0.00019518056        -15.354574
                  6.7128251e-05        -9.6258413       0.081856129        -168.66298     0.00019586012        -15.305492       0.097382734        -158.97955

0.55      0.048474132         155.07993      0.0002764987         122.00613       0.032109154         129.80013     0.00019191539         103.67714
                  0.00027681917         122.12189       0.039499501         166.43408     0.00070999681        -38.145725       0.022452878         136.48342
                    0.030965046         130.18012     0.00070990082        -38.097495        0.04235559         158.95627     0.00030029522         120.41733
                  0.00019251647         103.54398       0.021271969         137.71028     0.00030063601         120.50827       0.036456217         167.99489

0.575       0.15137418        -148.74346      0.0003411458         9.2432264        0.10050168        -163.70026     0.00016783612         5.6098925
                  0.00034188742         9.2235445        0.16221558        -149.84277      0.0012249919         21.747761        0.10722304         -164.1319
                     0.10122467        -163.29178      0.0012251545         21.721227        0.16027768        -148.08619     0.00036097393         8.9872016
                  0.00016807763         5.2663172        0.10802897        -163.75819      0.0003616482         8.9496354        0.16690609        -149.77614

0.6       0.22900984         144.02592     0.00014169562          170.4426        0.14196519          128.5858     7.8467628e-05         129.79575
                  0.00014216408         170.66087        0.22396644         142.93652      0.0012360671        -33.160804        0.13646198         127.54232
                     0.14210173         128.80589      0.0012359304        -33.162136        0.22983739         143.81634     0.00014549837         168.71182
                  7.8916101e-05         129.88396        0.13662423         127.79586     0.00014600077         168.88394        0.22533635         142.47755

0.625      0.081438988         86.845164     0.00040287883         55.745367       0.048329292         75.183785     0.00024889565         52.771882
                  0.00040357324         55.738824       0.066002614         91.310365     0.00066026139         31.535319       0.036193284         79.685508
                    0.048023387         76.531194     0.00066026034         31.476808        0.07376391          90.19287     0.00043501822         55.133643
                  0.00024871879         52.601407       0.036134085         81.713514     0.00043556265         55.115342       0.063974573         93.718873

0.65       0.16641586         155.28667     0.00016727787        -74.502234        0.10049439         137.17845     4.7849781e-05         -51.82066
                  0.00016748652        -74.687449        0.17033654          154.0015      0.0015635484        -22.642457        0.10110704         136.41032
                      0.1017629         136.86296      0.0015629647        -22.652844        0.17356092         154.47425     0.00017305101        -73.512481
                  4.7062733e-05        -52.268872        0.10232404         136.00237     0.00017303536         -73.68353        0.17418904         152.92017

0.675       0.19887946         87.271402     0.00032722499         83.379267       0.098118086         70.744239     0.00020114073         75.194736
                   0.0003275396         83.382793        0.18403571         85.864817     0.00041270682        -41.916702       0.085703495         68.550381
                    0.099224679         70.436575      0.0004123641        -41.904979        0.19631869         86.363969      0.0003516907         83.048185
                  0.00020126517         75.187661       0.086792743         68.147343     0.00035197158         83.027197        0.18499271         84.869109

0.7      0.037346856          45.16033     0.00038047506        -13.837647       0.020534775         142.72805     0.00022319737        -8.1453873
                   0.0003808138        -13.854514       0.026803256          63.84182      0.0015802669        -5.5914931       0.029941999         153.78622
                    0.019772821         141.63696      0.0015802341         -5.584939       0.033768076         51.169402     0.00040900377        -13.943848
                  0.00022313034        -8.1190855       0.029041758         153.44722     0.00040924027        -13.965939       0.028044981         63.239588

0.725      0.088695749         99.867789     0.00017272249         116.53543       0.074443478         91.822114     0.00011676849         79.479649
                  0.00017309586         116.61771       0.080149465         99.938594      0.0010095672        -63.911273       0.066083839         91.310326
                    0.073967215          91.39605      0.0010092509        -63.888681       0.085924647         97.870318     0.00018252144         113.25148
                   0.0001173099         79.384996       0.065460671         90.875845     0.00018284999          113.2954       0.077570711         97.432285

0.75      0.037749937          148.4645     0.00048678668        0.49804788       0.038458124         154.58372     0.00029976051        -5.3951008
                  0.00048744889        0.49201516       0.055233967         162.24407      0.0011718971       -0.61024929       0.053182456         162.34786
                    0.037982132         155.69962      0.0011723844       -0.62483534       0.042237564         157.97267     0.00052632618       -0.45018415
                   0.0003002876        -5.4958556       0.052963866          163.2661     0.00052690069       -0.47192638       0.055987829         163.94529

0.775       0.16367329         113.48905     0.00015184078        -130.64013        0.13628067         103.28651     3.8206083e-05        -100.82502
