! Created Fri Mar  3 09:20:10 2023
# ghz S ma R 45
! 4 Port Network Data from SP1.SP block
! freq  magS11  angS11  magS12  angS12  magS13  angS13  magS14  angS14  
!       magS21  angS21  magS22  angS22  magS23  angS23  magS24  angS24  
!       magS31  angS31  magS32  angS32  magS33  angS33  magS34  angS34  
!       magS41  angS41  magS42  angS42  magS43  angS43  magS44  angS44  
!     
0      0.080449833    -2.3522432e-13     2.5283593e-06     1.5581961e-13      0.0043420095     -3.875119e-12     3.4016107e-07               180
                  2.5537617e-06      1.036653e-13       0.080650063    -2.3342293e-13     1.4836851e-06     1.0761227e-13      0.0043183786    -3.8987622e-12
                   0.0051849264     1.1894769e-11     1.5194896e-06    -1.9635615e-14       0.081004337    -1.8765267e-14     3.3799466e-07     1.4267417e-13
                  3.3913919e-07              -180      0.0050801115     1.2145072e-11     3.4562328e-07    -2.2171138e-13       0.080157168    -1.9605783e-14

0.025       0.16488963        -8.9667685     2.9717934e-06          43.00475       0.097944901         8.7738311     2.9768175e-06         69.747784
                   2.964361e-06         43.078119        0.16457272        -8.7315997     7.5823548e-07        -32.812452       0.097927404         9.0621041
                    0.098357052         8.3565977     7.6687817e-07        -33.050835        0.16534288        -8.7617057     3.2025909e-07         59.691609
                  2.9726374e-06         69.689241       0.098386602         8.6531394     3.1081161e-07         60.187714        0.16546377        -8.4086242

0.05      0.051002538        -57.545956     2.9059382e-05         99.909982       0.016098037        -35.458915      1.077582e-05         100.87022
                  2.9070727e-05         99.935704       0.052079539        -57.894902     1.2953763e-05         96.545805       0.016849675        -36.997821
                    0.016301139        -38.513466     1.2966486e-05         96.582676       0.051530104        -57.780847     3.6664158e-06         92.528612
                  1.0791404e-05         100.91316       0.017085368        -39.975237     3.6813785e-06         92.769835       0.052656588        -58.412831

0.075       0.18382372         15.294189     2.1184101e-05         42.715236        0.15026616         21.177555     1.1995179e-05         74.842993
                  2.1192469e-05         42.748421        0.18300259         16.197336     7.2035897e-06         10.473213        0.14985567         22.031103
                     0.14959319         21.197524     7.2198323e-06         10.349485        0.18399571         15.430321     2.2282193e-06          60.58685
                  1.1987376e-05         74.727146        0.14918671         22.054387      2.239012e-06         60.791871        0.18327456         16.377553

0.1       0.20629613         -49.38389     4.2651778e-05          113.9776        0.15825066        -49.235077     1.8262144e-05         86.104823
                  4.2677787e-05         113.95272        0.20820828        -48.373454     1.6560301e-05         126.81188        0.15973402        -48.050918
                     0.15757747        -49.405308     1.6582449e-05         126.89468        0.20662892        -49.221746      3.943521e-06         80.932094
                  1.8262793e-05         86.218146        0.15906351        -48.219618     3.9750145e-06           81.0108         0.2084624        -48.205913

0.125      0.077992499        -22.157622      5.846072e-05         50.073694       0.052789928        -12.923062     2.5563219e-05          53.88504
                  5.8471067e-05         50.038883       0.076743532        -22.206551     2.1741299e-05           42.0164       0.052090461        -13.050185
                    0.052903093        -12.137721     2.1767987e-05         41.936935       0.078459286        -22.308296     7.1826526e-06         41.434594
                    2.55875e-05         53.800319       0.052181859         -12.25128     7.2070148e-06         41.071826       0.077269677        -22.241005

0.15        0.2159945        -36.956543     4.2638255e-05         120.83166        0.14876226        -37.479138     2.4329256e-05         83.168324
                  4.2588518e-05         120.84024        0.21801058        -35.317068     1.6256701e-05         142.07053        0.15043523        -35.733144
                     0.14915902        -37.152817     1.6285713e-05         142.13006        0.21704724        -37.297822     4.8664126e-06         69.964798
                  2.4328635e-05         83.243273        0.15082924        -35.410123     4.8319776e-06         69.685326        0.21897449        -35.644749

0.175       0.14871611         -99.15138     9.4524854e-05         67.420471       0.095611341        -107.74062     3.6916784e-05         52.690474
                  9.4487581e-05         67.416748        0.15275053        -97.492547     3.6822458e-05         75.322292       0.098725895        -105.47931
                    0.095594413        -107.36695     3.6848958e-05         75.279461        0.14840322        -99.050521     8.7569744e-06         60.484837
                  3.6952246e-05         52.665687        0.09870952         -105.1179     8.7242382e-06          60.36708        0.15217891        -97.378559

0.2      0.065206382        -39.004793     1.9988154e-05         115.16526       0.034960293        -28.147978     1.0505433e-05         76.832373
                  1.9967908e-05         115.32387       0.066438381        -36.849843     8.2539132e-06         139.96366       0.036220594        -26.017049
                    0.035700312        -28.452679     8.2460692e-06         140.25729       0.067969442         -40.08993     2.4182396e-06         28.790869
                   1.045945e-05         76.903071       0.036963666        -26.298184     2.3497952e-06         28.269763       0.069245574        -37.839347

0.225       0.11328765        -84.559838     0.00012539974         83.275674       0.045262114        -92.086417      4.724298e-05         69.221655
                  0.00012541112         83.314159        0.11870989        -82.704645     4.9115151e-05         85.774588       0.049658743        -89.509974
                    0.046288474        -92.301443     4.9156543e-05         85.778141        0.11382293        -85.973229     1.0380471e-05         69.187462
                  4.7278616e-05         69.244641       0.050690789        -89.701918     1.0380523e-05         69.616523        0.11900577        -84.051791

0.25      0.042269718        -58.742259     3.7984827e-05         34.778667       0.051355204        -5.3399321     1.8887923e-05          28.61643
                  3.8019333e-05         34.908701       0.042523044        -57.143497     9.5595685e-06         32.072418         0.0514284        -2.9646447
                     0.05035056        -5.7310448     9.5436914e-06         31.726228       0.042344219        -55.977912     5.8842899e-06         19.415327
                  1.8878808e-05         28.450033        0.05042681        -3.3648451      5.882076e-06         20.293551       0.042557234        -54.048418

0.275       0.10876279        -75.601262     0.00013685003         98.510636       0.085665409        -77.089718     4.9341049e-05         81.007936
                   0.0001369132         98.479852        0.11504184        -72.914455     5.3769676e-05         101.40255       0.090943845        -73.807046
                    0.084901007         -77.46457     5.3849601e-05         101.43389        0.11106922        -76.151031     9.1227228e-06         64.743836
                  4.9405937e-05            81.076       0.090187703        -74.161611     9.2309025e-06         64.634806         0.1171219        -73.422812

0.3      0.039636828        -78.391451     9.2848998e-05         35.520323       0.016946461        -20.412438     3.7503275e-05         28.639241
                  9.2922122e-05           35.4798       0.040780237        -79.088352     2.9001506e-05         30.675396       0.016129315        -23.343915
                    0.016719626        -17.418067     2.9023278e-05         30.492701       0.038029109        -77.182158     8.5184512e-06          15.73247
                  3.7535365e-05         28.507309       0.015795446        -20.283778     8.6078868e-06          15.36495       0.038895071        -77.581803

0.325        0.1630371        -65.523679     0.00012384342         109.19561        0.12934931        -65.737128     5.0321979e-05         76.320392
                  0.00012375797         109.18471        0.16907444        -61.842973     4.9622409e-05         119.41326        0.13470104        -61.708266
                     0.12921168        -65.395065     4.9710214e-05         119.44623        0.16693161        -65.152083     9.0983133e-06         42.608863
                  5.0357795e-05         76.401176         0.1345691        -61.379585      9.100676e-06         42.121266        0.17286323        -61.451244

0.35       0.18154694        -128.02457     0.00014677859         51.175468        0.12398656        -137.98368     5.5151066e-05         22.649603
                  0.00014671181         51.146891        0.18748801        -123.69181     5.2041994e-05         69.373554        0.12825716        -132.82904
                     0.12336542        -137.79252     5.2048669e-05         69.247239        0.18323507          -128.005      5.668918e-06         40.972703
                  5.5237648e-05         22.579255        0.12764164         -132.6447     5.6249499e-06         40.006651        0.18874389        -123.64615

0.375      0.062706817        -118.94919     8.5264795e-05         123.17286       0.023670421        -132.70524     2.0384443e-05         100.97334
                  8.5302067e-05         123.32041       0.065776224        -110.58461     4.5132584e-05         125.24097       0.025104233        -116.82657
                     0.02433935        -129.07251     4.5190303e-05          125.3674        0.06495575        -115.96389     4.6222653e-06         71.936134
                  2.0390918e-05         101.29049       0.026047257        -113.73707     4.4620748e-06         74.280316       0.068257121        -107.75118

0.4       0.17379416        -116.96996     0.00019159259         65.004684       0.094147347        -129.05653      6.896312e-05         35.661769
                  0.00019159993         65.060368         0.1817753        -112.12874     6.7928366e-05         75.682776        0.10027764        -122.81856
                    0.095429399        -128.89337     6.7928197e-05         75.643812        0.17852145        -117.59942     5.6042166e-06         20.675108
                  6.8981332e-05         35.635963        0.10156614        -122.68214     5.4954877e-06         21.855271        0.18608997        -112.70579

0.425       0.16412645         174.86353     4.5632017e-05          89.10309       0.073525059         156.98074      1.171443e-05        -85.687618
                  4.5779622e-05          89.09819        0.16333808        -178.66634     4.3025037e-05         97.313233       0.070931447         164.30006
                    0.074442716         157.24504     4.3030933e-05         97.395224        0.16351787         174.74481     7.3078229e-06         70.864683
                  1.1706255e-05        -85.957339       0.071856435         164.54896     7.4493897e-06          71.45161        0.16248617        -178.71968

0.45      0.018536925         136.34368     0.00022608708         82.695562      0.0042025685         -148.9923     7.0767709e-05         78.437053
                  0.00022617199         82.683033       0.017033005         173.83876     8.6514217e-05         74.900301       0.011849666        -110.88641
                   0.0044694982        -156.13214     8.6605893e-05         74.873328       0.017915788         152.42833     1.0735515e-05         31.991081
                  7.0853708e-05         78.405149       0.011769679        -113.80053     1.0842516e-05         32.165494       0.019218242        -172.36992

0.475      0.083066072        -163.35005     7.8974308e-05         37.020218       0.029521275         170.13155      2.411132e-05        -5.3420433
                  7.9120078e-05         37.003338        0.08473213        -156.28838     2.4963862e-05         77.586667       0.029099977        -179.60028
                    0.030063034         168.77922     2.4880317e-05         77.565271       0.083291348        -165.53364     2.8333036e-06         133.95073
                  2.4112352e-05        -5.5123029       0.029586697          178.9396     2.8069159e-06         131.51355       0.084446434        -158.30525

0.5      0.028279631         171.65087     0.00022477235         96.993786       0.028387721         -88.86791     6.9495913e-05         91.457386
                  0.00022463571         96.951959       0.029481818         -161.4258     9.4235589e-05         90.629167         0.0380123        -82.124668
                    0.027429908        -87.472806     9.4333055e-05         90.625187       0.025407411        -178.35562     1.3515916e-05          44.55995
                  6.9577363e-05         91.442685       0.037062989        -81.085874     1.3607068e-05         43.692159       0.028448991        -150.88157

0.525       0.09351436        -157.67444     0.00015527466         38.484048       0.082521486        -168.17836     4.5175515e-05         9.7836041
                  0.00015511716         38.425854       0.097883993        -150.22252      4.271211e-05         56.646247       0.084995246        -159.58766
                    0.081400613        -167.95059     4.2606136e-05         56.479467        0.09718177        -158.43494     5.4443504e-06        -145.02778
                  4.5184399e-05         9.5904116       0.083879398        -159.34846      5.599729e-06        -143.07481        0.10067353        -150.64209

0.55      0.048474132         155.07993     0.00019121186         110.17683       0.032109154         129.80013     6.0064581e-05         109.01247
                  0.00019117843         110.24045       0.043587128         173.01612     9.2141797e-05         103.43645       0.024143819          145.0082
                    0.030965046         130.18012     9.2269409e-05         103.47513        0.04235559         158.95627     1.4579124e-05         76.864957
                  6.0190194e-05         109.04996       0.023033015         145.94216     1.4444441e-05         77.528181       0.038447133         177.88775

0.575       0.15137418        -148.74346     0.00022222605          50.86753        0.10050168        -163.70026     6.6725447e-05         13.356266
                  0.00022217783          50.92056        0.15870407        -140.63351     7.1414639e-05          67.09415        0.10549128        -153.92689
                     0.10122467        -163.29178     7.1331193e-05         67.051291        0.16027768        -148.08619     8.3806799e-06        -137.05223
                  6.6697828e-05         13.280206         0.1062402        -153.55827        8.4868e-06        -138.18674        0.16749516         -140.3023

0.6       0.22900984         144.02592     0.00012511847         106.51802        0.14196519          128.5858        3.5686e-05         175.30097
                  0.00012524355         106.52321        0.22432892         153.20101     9.8633572e-05          88.56953        0.13574029         137.86167
                     0.14210173         128.80589     9.8742219e-05          88.62115        0.22983739         143.81634     2.0450955e-05         80.323373
                  3.5763636e-05         175.13355        0.13588314         138.09277     2.0568275e-05         80.533864        0.22508065         152.84448

0.625      0.081438988         86.845164     0.00028915805         67.761707       0.048329292         75.183785     8.1569271e-05         71.899149
                  0.00028938732         67.781506       0.072776005         99.411324     0.00010328921         53.054373       0.039148191         86.459346
                    0.048023387         76.531194     0.00010333357         52.980355        0.07376391          90.19287     8.9628486e-06        -22.631322
                  8.1570592e-05         71.806271       0.038919483         88.164296     8.8547916e-06        -21.185231       0.065993827         103.65881

0.65       0.16641586         155.28667     8.3838205e-05         83.881373        0.10049439         137.17845     2.2189291e-05        -166.05635
                  8.3996888e-05          83.69122        0.16308756         165.03598     7.6833239e-05         100.90746       0.095542716         147.23006
                      0.1017629         136.86296     7.6908509e-05         100.89414        0.17356092         154.47425      2.488963e-05         124.90356
                  2.2164555e-05        -166.22814        0.09679349         146.87706      2.487063e-05         124.22656        0.16986942         164.21038

0.675       0.19887946         87.271402     0.00029844072         83.191746       0.098118086         70.744239     9.6146707e-05         107.93526
                  0.00029826031         83.148631        0.18797315         96.952508     0.00012246197          58.29095       0.087555658         78.916642
                    0.099224679         70.436575     0.00012242625          58.25279        0.19631869         86.363969     1.4592943e-05         17.963737
                  9.6054747e-05         107.92382       0.088673706         78.577562      1.478406e-05         16.967938        0.18575114         96.101799

0.7      0.037346856          45.16033     0.00013322238         41.294398       0.020534775         142.72805     3.3307849e-05         71.957942
                  0.00013306035         41.240524       0.035125104          50.97849     2.0122838e-05         86.581958       0.018696335         159.44399
                    0.019772821         141.63696     2.0046207e-05           86.8275       0.033768076         51.169402     2.2803664e-05          177.6846
                  3.3224527e-05         72.075571       0.017880413         158.56797     2.2848805e-05         178.22796       0.031703788         56.494347

0.725      0.088695749         99.867789     0.00030228908         96.053516       0.074443478         91.822114     0.00010792113         100.18459
                  0.00030215501         96.076878       0.075596259         112.04524     0.00013969313         82.662595       0.062180694         101.91174
                    0.073967215          91.39605     0.00013977589         82.655389       0.085924647         97.870318      2.777132e-05         64.495964
                  0.00010798684         100.16128       0.061690805         101.41257     2.7616377e-05         64.529199       0.072941613         110.06054

0.75      0.037749937          148.4645     0.00022920547         41.534336       0.038458124         154.58372     4.9228198e-05         29.637253
                  0.00022900087         41.567872        0.03940264         165.18279     5.0979316e-05         48.347553       0.039311137         171.20081
                    0.037982132         155.69962     5.0852174e-05         48.327716       0.042237564         157.97267     2.0579755e-05        -158.37896
                  4.9101951e-05         29.594236       0.038923463         172.36104     2.0841463e-05        -158.42561       0.044216015         172.97727

0.775       0.16367329         113.48905     0.00024217959         104.36479        0.13628067         103.28651      9.230678e-05         125.26144
