! Created Fri Mar  3 09:04:07 2023
# ghz S ma R 45
! 4 Port Network Data from SP1.SP block
! freq  magS11  angS11  magS12  angS12  magS13  angS13  magS14  angS14  
!       magS21  angS21  magS22  angS22  magS23  angS23  magS24  angS24  
!       magS31  angS31  magS32  angS32  magS33  angS33  magS34  angS34  
!       magS41  angS41  magS42  angS42  magS43  angS43  magS44  angS44  
!     
0      0.080449833    -2.3522432e-13     6.8583378e-08    -1.9121003e-12      0.0043420095     -3.875119e-12     2.1235805e-07     1.3316729e-13
                  6.9997128e-08     1.2391905e-11       0.082702375     6.6211635e-13     1.4046548e-05              -180      0.0047021898    -1.6080126e-12
                   0.0051849264     1.1894769e-11     1.4045393e-05              -180       0.081004337    -1.8765267e-14     3.0824753e-07     2.0659746e-13
                  2.1315698e-07     2.3242264e-14      0.0058126965     7.7879743e-12     3.1062256e-07     1.2319672e-12       0.080376367    -4.4662704e-13

0.025       0.16488963        -8.9667685     1.2537491e-05         6.1720495       0.097944901         8.7738311     7.5191096e-06         0.1290735
                  1.2568174e-05         6.0504616        0.16504728        -9.1048883     2.3867709e-05          36.14935       0.098021899         8.7439534
                    0.098357052         8.3565977     2.3869252e-05         36.165657        0.16534288        -8.7617057      1.385863e-05         5.3299688
                  7.5221472e-06        0.21633118       0.098498961         8.2245667     1.3890977e-05         5.1848528        0.16539998        -8.8367327

0.05      0.051002538        -57.545956     2.1806931e-05        -75.553894       0.016098037        -35.458915     2.0116306e-05        -74.684121
                  2.1785466e-05        -75.779155       0.049775478        -56.684612     2.2214785e-05        -41.076546       0.015201703        -32.480175
                    0.016301139        -38.513466       2.22452e-05        -41.037406       0.051530104        -57.780847     2.4824399e-05        -75.407943
                  2.0138659e-05        -74.613194       0.015428189         -36.36965     2.4792966e-05        -75.638018       0.050348396        -57.161582

0.075       0.18382372         15.294189     4.2175953e-05        -154.28413        0.15026616         21.177555     2.4761564e-05          176.0665
                  4.2100493e-05        -154.31569        0.18539866         15.050485     7.4065507e-05        -124.36224        0.15157877         20.975861
                     0.14959319         21.197524     7.4112958e-05         -124.3705        0.18399571         15.430321      4.624621e-05        -155.35953
                  2.4807231e-05         176.24148        0.15071812         20.986856     4.6151583e-05        -155.40332        0.18539681         15.213951

0.1       0.20629613         -49.38389      5.064276e-05         109.27268        0.15825066        -49.235077     2.1539401e-05         134.37935
                  5.0520811e-05         109.23352        0.20519346        -49.604818     8.3150423e-05         116.80417        0.15741696        -49.455459
                     0.15757747        -49.405308      8.321622e-05         116.82404        0.20662892        -49.221746     5.4995583e-05         110.78524
                    2.16648e-05          134.3072        0.15656815        -49.661122     5.4836936e-05          110.7395        0.20595057        -49.425498

0.125      0.077992499        -22.157622     5.8785425e-05         39.854326       0.052789928        -12.923062     4.3995224e-05         36.755518
                  5.8823757e-05         40.041956       0.079761031        -20.068234     8.3317038e-05          64.05739       0.054409351        -10.596941
                    0.052903093        -12.137721     8.3363634e-05         64.003783       0.078459286        -22.308296     6.6015355e-05          40.45223
                  4.4136792e-05         36.684826       0.054572521        -9.7059366     6.6035596e-05         40.644463       0.079874698        -20.908161

0.15        0.2159945        -36.956543      7.855429e-05        -54.333999        0.14876226        -37.479138     3.1857543e-05        -58.920192
                  7.8697464e-05        -54.159768        0.21689772        -37.333471      0.0001513559        -36.747613        0.14896837        -37.808782
                     0.14915902        -37.152817     0.00015139018        -36.779003        0.21704724        -37.297822     8.5163439e-05        -53.431627
                  3.2012347e-05           -59.147        0.14936343        -37.415786     8.5306994e-05        -53.242796        0.21753984        -37.687798

0.175       0.14871611         -99.15138     6.2435711e-05        -138.30587       0.095611341        -107.74062     4.9759318e-05        -101.93218
                  6.2613794e-05        -138.20392        0.14451074        -99.212775     9.4758392e-05         -140.2543       0.091897229        -108.00436
                    0.095594413        -107.36695     9.4805727e-05        -140.28154        0.14840322        -99.050521     7.0014894e-05        -134.09409
                  4.9726548e-05        -102.07027       0.091810065        -107.49994     7.0235828e-05        -133.99044        0.14539248        -99.229181

0.2      0.065206382        -39.004793     8.6958946e-05         154.35925       0.034960293        -28.147978      6.854486e-05         155.78358
                  8.7295993e-05         154.37288       0.069350357        -37.963322     0.00013300661         176.61228       0.038222454        -27.388943
                    0.035700312        -28.452679     0.00013296809         176.58207       0.067969442         -40.08993     9.8736249e-05         155.14501
                  6.8565503e-05         155.69577       0.039120813        -27.830233     9.9108001e-05         155.13445       0.070433804        -39.660377

0.225       0.11328765        -84.559838     8.4655103e-05          64.34734       0.045262114        -92.086417     6.4243011e-05         81.100862
                  8.5006458e-05         64.128875        0.11083313        -84.661942     0.00014710826         73.116633       0.042642419        -91.965221
                    0.046288474        -92.301443     0.00014703213         73.122139        0.11382293        -85.973229     9.4660079e-05         67.044726
                  6.4146281e-05         81.060548       0.043810104        -92.254041     9.5003041e-05          66.81091         0.1113055        -86.175259

0.25      0.042269718        -58.742259     0.00011210322        -3.4512729       0.051355204        -5.3399321     8.8974931e-05        -8.3505263
                  0.00011188985        -3.6564009       0.046356394        -51.817131     0.00015223187         11.858802       0.057178678        -5.5084715
                     0.05035056        -5.7310448       0.000152288         11.901911       0.042344219        -55.977912     0.00012785238        -2.4625483
                  8.8943555e-05        -8.2419227       0.056050623        -5.9535348     0.00012759875         -2.671348       0.045441364        -51.184944

0.275       0.10876279        -75.601262     0.00012752461        -103.55774       0.085665409        -77.089718     7.0296351e-05        -94.462351
                  0.00012719744          -103.644         0.1102273        -76.075295     0.00019937998        -84.460185        0.08625113        -77.602983
                    0.084901007         -77.46457     0.00019951269         -84.42728        0.11106922        -76.151031     0.00014035596        -101.71497
                  7.0474351e-05        -94.319112        0.08537964        -78.071509     0.00013993361        -101.81777        0.11135671        -76.636927

0.3      0.039636828        -78.391451     0.00011995768        -172.05042       0.016946461        -20.412438     0.00010002264        -166.35401
                  0.00011963232        -171.92496       0.039949586        -68.310738     0.00018014002        -151.85412       0.022516255        -11.812649
                    0.016719626        -17.418067     0.00018039583         -151.8612       0.038029109        -77.182158     0.00013672986         -169.5112
                  0.00010039121        -166.30528       0.022398505        -9.1136863     0.00013631708        -169.37432       0.038410836        -69.063732

0.325        0.1630371        -65.523679     0.00018001809         90.237802        0.12934931        -65.737128     8.8179287e-05         80.929718
                  0.00017994293         90.361227        0.16913853        -66.211509     0.00030874239         114.42048        0.13356494        -66.504417
                     0.12921168        -65.395065     0.00030897512         114.39878        0.16693161        -65.152083       0.000196898         91.627706
                  8.8700732e-05         80.945065        0.13337714        -66.122471      0.0001967832         91.755778        0.17068383        -65.955188

0.35       0.18154694        -128.02457     0.00012928098        -11.671685        0.12398656        -137.98368     4.7246031e-05         45.145328
                  0.00012915876        -11.516443         0.1781688        -128.60757      0.0002412406         3.6618941        0.12045619        -138.67768
                     0.12336542        -137.79252     0.00024150078         3.6597938        0.18323507          -128.005     0.00013641966        -6.5595853
                  4.7400648e-05         44.671092        0.11971936        -138.43747     0.00013629876        -6.3896068        0.18021913        -128.64455

0.375      0.062706817        -118.94919     0.00014253281        -67.674393       0.023670421        -132.70524     0.00010280177         -45.65715
                  0.00014358097        -67.490816       0.065281501        -111.11166     0.00022829533        -45.233549       0.024595597        -115.16889
                     0.02433935        -129.07251     0.00022832376        -45.357134        0.06495575        -115.96389     0.00016239218         -63.89005
                  0.00010285832        -46.081191       0.025878365        -112.08202     0.00016353574        -63.761744       0.066904929        -111.38295

0.4       0.17379416        -116.96996     0.00018431808        -172.01664       0.094147347        -129.05653     6.5627937e-05        -148.01738
                  0.00018528897        -172.03052        0.17618933        -117.87258     0.00033216316        -147.89436       0.094515112        -129.68744
                    0.095429399        -128.89337     0.00033206213        -147.95271        0.17852145        -117.59942     0.00019582729        -169.02944
                  6.5430111e-05        -148.61303       0.095890047        -129.52588     0.00019680261        -169.06674        0.17880932        -118.58589

0.425       0.16412645         174.86353     0.00011948647         115.05819       0.073525059         156.98074     8.8721424e-05        -179.69902
                  0.00011975415         114.75016        0.15510981          174.3943     0.00015414529         107.99117       0.065621365         155.67641
                    0.074442716         157.24504     0.00015404529         107.94807        0.16351787         174.74481     0.00013175431         123.02571
                  8.8375473e-05        -179.57465       0.066588054         156.04568     0.00013194779         122.70958        0.15666699         174.05756

0.45      0.018536925         136.34368     0.00024340076         52.981271      0.0042025685         -148.9923     0.00013082823         73.443369
                  0.00024330752         52.898184       0.013862337         165.61008     0.00022068036         84.234933      0.0096355056        -116.77378
                   0.0044694982        -156.13214     0.00022065731         84.221917       0.017915788         152.42833     0.00026946913         54.279949
                  0.00013074742         73.449896      0.0095472524         -121.1924     0.00026927221         54.182014       0.016113108         168.90702

0.475      0.083066072        -163.35005     0.00027481708        -23.682001       0.029521275         170.13155     0.00011746354        -13.368773
                  0.00027440981        -23.778707       0.078956397        -162.70627     0.00026086876        -21.911771       0.024263915         169.94002
                    0.030063034         168.77922     0.00026090388        -21.895634       0.083291348        -165.53364     0.00029848892         -21.64018
                  0.00011742265        -13.291135         0.0247821         167.97326     0.00029791827        -21.718929       0.078768464        -165.30695

0.5      0.028279631         171.65087     0.00031666647         -88.05387       0.028387721         -88.86791     0.00016550368         -99.43149
                  0.00031600401        -87.975915       0.027408991        -161.45346     0.00028395859        -88.279409       0.038921927        -89.460351
                    0.027429908        -87.472806      0.0002843654        -88.248624       0.025407411        -178.35562     0.00035193537        -87.965331
                  0.00016599307        -99.291885       0.037955795        -88.314888     0.00035123936        -87.883012       0.026049412        -158.93195

0.525       0.09351436        -157.67444     0.00025968201         177.87565       0.082521486        -168.17836     0.00012194636         173.21403
                  0.00025955869         178.04703       0.096835157        -158.29003     0.00033787166         173.81982       0.083053472        -168.93619
                    0.081400613        -167.95059     0.00033846413         173.82952        0.09718177        -158.43494     0.00028405037          178.6657
                  0.00012277758         173.21499       0.081856296        -168.67257     0.00028390089         178.83159       0.097106442        -159.16312

0.55      0.048474132         155.07993     0.00024118824         113.54721       0.032109154         129.80013     0.00016429799          110.8393
                  0.00024199913         113.65266       0.039660108           166.554     0.00029385521         109.91243       0.022441791         136.47616
                    0.030965046         130.18012     0.00029438639         109.81655        0.04235559         158.95627     0.00027743986         114.37751
                  0.00016497225         110.57103       0.021260759         137.70334     0.00027827209          114.4707       0.036285386         167.72395

0.575       0.15137418        -148.74346     0.00027642344         3.5268818        0.10050168        -163.70026     0.00013998605        -6.6579892
                  0.00027728887         3.5187508        0.16262729        -149.83386     0.00048670092         7.7430559        0.10723039        -164.13892
                     0.10122467        -163.29178     0.00048697891         7.6809881        0.16027768        -148.08619     0.00030574616         4.3463523
                  0.00014043678        -7.0508946        0.10803628        -163.76522     0.00030657746         4.3334819         0.1665327        -149.82325

0.6       0.22900984         144.02592     9.3126361e-05        -77.418148        0.14196519          128.5858     7.2152838e-05        -19.670758
                  9.3452727e-05        -77.559264        0.22431068         142.94163     0.00028717716        -111.66827        0.13645448         127.53825
                     0.14210173         128.80589     0.00028747709        -111.69479        0.22983739         143.81634      0.0001136198        -68.521122
                   7.169572e-05        -19.762081        0.13661664         127.79179     0.00011390138        -68.672439        0.22506923         142.43128

0.625      0.081438988         86.845164     0.00023472615         -115.4115       0.048329292         75.183785     0.00019532472        -118.04657
                  0.00023498218        -115.64726       0.066065055         91.344895     0.00025263018        -119.64568       0.036193831         79.704679
                    0.048023387         76.531194     0.00025230941        -119.77638        0.07376391          90.19287     0.00027570561        -117.64923
                  0.00019470111        -118.20658       0.036135092         81.732794     0.00027580096        -117.85477        0.06395901         93.703621

0.65       0.16641586         155.28667     0.00019387361         121.79052        0.10049439         137.17845     0.00011378265         136.83583
                  0.00019364981         121.43569        0.17047099         153.97373     0.00039168311         112.12603        0.10109788         136.40128
                      0.1017629         136.86296     0.00039127504          112.0746        0.17356092         154.47425     0.00021726374          124.2807
                  0.00011279109         136.88913        0.10231491         135.99337     0.00021680061         123.99886        0.17414518         152.88065

0.675       0.19887946         87.271402     0.00016652698         99.572719       0.098118086         70.744239     0.00017779437         97.500824
                  0.00016578767         99.796424        0.18411185         85.856706     7.7987349e-05         48.720132        0.08569335         68.554179
                    0.099224679         70.436575      7.781038e-05         48.910457        0.19631869         86.363969     0.00020545774           96.7699
                  0.00017813369         97.695904       0.086782493         68.151071     0.00020475232           96.9596        0.18498477         84.855757

0.7      0.037346856          45.16033     0.00031848242         -7.833653       0.020534775         142.72805     0.00023714143        -10.969013
                  0.00031826255         -7.729311       0.026906716         64.022628     0.00037082379        -1.2904128       0.029934051         153.75067
                    0.019772821         141.63696     0.00037109958        -1.2829144       0.033768076         51.169402     0.00035967457        -9.1736964
                  0.00023764072        -10.916998       0.029033911         153.41037     0.00035940219        -9.0723257       0.028119908         63.315689

0.725      0.088695749         99.867789     0.00023532697        -93.950684       0.074443478         91.822114     0.00019674442         -86.35054
                    0.000235293        -93.827555       0.080220364         99.857795     0.00030697471        -97.859479       0.066062069         91.314125
                    0.073967215          91.39605     0.00030731352        -97.863673       0.085924647         97.870318     0.00027500397        -92.287558
                  0.00019726222        -86.373549       0.065438798          90.87957     0.00027503082        -92.165596       0.077600651          97.38179

0.75      0.037749937          148.4645     0.00034456526         178.86845       0.038458124         154.58372     0.00025503044         175.83479
                   0.0003449063           178.953       0.055283395         162.15157     0.00047502987        -177.64766       0.053186381          162.3235
                    0.037982132         155.69962     0.00047544274          -177.684       0.042237564         157.97267     0.00039496282         178.34771
                   0.0002557139         175.74059       0.052967455         163.24147     0.00039533493         178.41622       0.056007335         163.88966

0.775       0.16367329         113.48905     0.00021066713         75.900228        0.13628067         103.28651     0.00013477783         97.658214
