! Created Fri Mar  3 09:14:37 2023
# ghz S ma R 45
! 4 Port Network Data from SP1.SP block
! freq  magS11  angS11  magS12  angS12  magS13  angS13  magS14  angS14  
!       magS21  angS21  magS22  angS22  magS23  angS23  magS24  angS24  
!       magS31  angS31  magS32  angS32  magS33  angS33  magS34  angS34  
!       magS41  angS41  magS42  angS42  magS43  angS43  magS44  angS44  
!     
0      0.080449833    -2.3522432e-13     2.5350492e-06              -180      0.0043420095     -3.875119e-12     3.3623559e-07     1.1282043e-14
                  2.5408369e-06              -180       0.081808224    -2.2861386e-13     1.4886919e-06              -180      0.0047551696     -3.535328e-12
                   0.0051849264     1.1894769e-11     1.5078762e-06               180       0.081004337    -1.8765267e-14     3.3672524e-07              -180
                  3.5282768e-07     5.9372636e-13      0.0055172964     1.1180305e-11     3.3724674e-07               180       0.079271569    -2.0378856e-14

0.025       0.16488963        -8.9667685     3.4058899e-06         48.197298       0.097944901         8.7738311     1.1977534e-05         6.7456352
                  3.3981221e-06         48.286587        0.16457028        -8.7313988      5.264276e-06         170.27264       0.097927079         9.0594258
                    0.098357052         8.3565977      5.257905e-06         170.36771        0.16534288        -8.7617057     1.1657866e-06         164.21661
                  1.1982248e-05          6.719247       0.098386305         8.6502563     1.1717255e-06         164.55798        0.16546729        -8.4147002

0.05      0.051002538        -57.545956     1.7289329e-06         5.7548394       0.016098037        -35.458915     2.0888616e-05        -74.404533
                  1.7227245e-06          6.289344       0.052079797        -57.895343      1.307545e-05         99.349385       0.016849648        -36.997708
                    0.016301139        -38.513466     1.3081918e-05         99.399217       0.051530104        -57.780847     3.4971335e-06         100.99621
                  2.0878734e-05        -74.441913       0.017084576        -39.973195     3.5185796e-06          101.0532       0.052657033        -58.412633

0.075       0.18382372         15.294189     1.1132611e-05        -121.35894        0.15026616         21.177555     3.5503292e-05        -150.08354
                  1.1109513e-05        -121.29078        0.18300169         16.197461     1.2818618e-05         5.3860677        0.14985576         22.031124
                     0.14959319         21.197524     1.2826791e-05         5.3862575        0.18399571         15.430321     2.5284539e-06        -7.2247768
                  3.5490455e-05        -150.08145        0.14918681         22.054405     2.5460995e-06         -6.952639        0.18327417         16.377534

0.1       0.20629613         -49.38389     1.2254982e-05         88.285124        0.15825066        -49.235077     4.5744565e-05         120.58806
                  1.2226193e-05         88.194836        0.20820879        -48.374085      1.876232e-05        -37.913932         0.1597339        -48.051025
                     0.15757747        -49.405308     1.8781711e-05        -37.926705        0.20662892        -49.221746     4.5536769e-06        -19.660984
                  4.5721213e-05         120.58195        0.15906339        -48.219725     4.5935809e-06        -19.867072        0.20846288        -48.206053

0.125      0.077992499        -22.157622     6.2960339e-06         60.624793       0.052789928        -12.923062     5.3652712e-05         46.664007
                  6.2564886e-06         60.820097       0.076745704        -22.196382     2.6941451e-05        -137.68662        0.05196873        -13.042524
                    0.052903093        -12.137721     2.6933178e-05        -137.75169       0.078459286        -22.308296     6.4901469e-06         -135.2532
                  5.3658409e-05         46.698902       0.052061367         -12.24275     6.5500329e-06        -135.46315       0.077283544        -22.222755

0.15        0.2159945        -36.956543     2.0389292e-05        -59.757151        0.14876226        -37.479138     6.9088144e-05        -38.488716
                  2.0350976e-05        -59.772852        0.21803897        -35.317319     2.4620098e-05         157.62749        0.15013892        -35.703887
                     0.14915902        -37.152817     2.4572499e-05         157.61122        0.21704724        -37.297822      5.799876e-06         177.54786
                  6.9127329e-05        -38.472329        0.15053343        -35.380315     5.8103303e-06         177.25039        0.21899714        -35.641811

0.175       0.14871611         -99.15138     1.4430924e-05         148.16696       0.095611341        -107.74062     6.7770059e-05        -120.18238
                  1.4427017e-05         147.98485        0.15274241        -97.499787     4.4235253e-05         77.120933       0.098611944        -105.40821
                    0.095594413        -107.36695     4.4209444e-05         77.148052        0.14840322        -99.050521     1.2776841e-05         86.360603
                  6.7793343e-05        -120.18898       0.098596335        -105.04638     1.2817597e-05         86.292882        0.15218387        -97.381745

0.2      0.065206382        -39.004793     7.5453236e-06         162.84189       0.034960293        -28.147978      8.287883e-05         166.13384
                  7.4959814e-06         162.87708       0.066445889         -36.83998     4.3410653e-05        -15.338973       0.036239751        -26.044172
                    0.035700312        -28.452679     4.3375731e-05        -15.301302       0.067969442         -40.08993     1.0847301e-05        -11.019544
                  8.2914861e-05           166.118        0.03698291        -26.324623     1.0903699e-05        -11.122143        0.06923279        -37.841167

0.225       0.11328765        -84.559838     1.2699359e-05         10.955458       0.045262114        -92.086417     8.9404694e-05         82.168625
                  1.2680678e-05         10.685815        0.11869741        -82.701659     5.2283698e-05         -88.62028        0.04965891        -89.505956
                    0.046288474        -92.301443     5.2299618e-05        -88.540839        0.11382293        -85.973229     1.4111851e-05        -80.729743
                  8.9400542e-05         82.119686       0.050690943        -89.697985     1.4152607e-05        -80.801992         0.1190136        -84.054425

0.25      0.042269718        -58.742259     6.7162129e-06         3.3753263       0.051355204        -5.3399321      0.0001022408          6.179442
                  6.6372905e-06         3.4348424       0.042538329        -57.107833      5.326105e-05        -177.35636       0.051428516        -2.9628749
                     0.05035056        -5.7310448     5.3333461e-05          -177.321       0.042344219        -55.977912     1.2606733e-05        -171.73216
                  0.00010216032         6.1635667       0.050426914        -3.3630362     1.2679928e-05        -171.64784       0.042536757        -54.086801

0.275       0.10876279        -75.601262     1.8151694e-05        -135.05413       0.085665409        -77.089718     0.00011110421        -79.253155
                  1.8092953e-05          -135.266        0.11506196        -72.909906     5.9251566e-05         113.48881       0.090944396        -73.806432
                    0.084901007         -77.46457     5.9316093e-05         113.45023        0.11106922        -76.151031     1.6200097e-05         127.36012
                  0.00011102931        -79.239897       0.090188253        -74.160989     1.6309662e-05         127.17359        0.11710906        -73.430193

0.3      0.039636828        -78.391451     4.8321499e-06         175.46146       0.016946461        -20.412438     0.00011730996        -154.71517
                  4.7321577e-06         175.17525       0.040786979        -79.053563     6.6611173e-05         23.152202       0.016127732        -23.338316
                    0.016719626        -17.418067     6.6624958e-05         23.077151       0.038029109        -77.182158     1.7154384e-05         30.243667
                   0.0001172935        -154.67455       0.015793939        -20.277754      1.724858e-05          30.04743       0.038884135        -77.652762

0.325        0.1630371        -65.523679     3.3753728e-05         73.625014        0.12934931        -65.737128     0.00013417702         118.55741
                  3.3657247e-05         73.538233        0.16914251        -61.835737     6.2296624e-05        -42.074013        0.13470293        -61.708269
                     0.12921168        -65.395065     6.2231584e-05        -42.087398        0.16693161        -65.152083     1.8335377e-05        -23.976598
                  0.00013421592         118.57215          0.134571        -61.379587     1.8408894e-05        -24.187518        0.17279409        -61.460386

0.35       0.18154694        -128.02457     3.6509171e-05        -74.226828        0.12398656        -137.98368      0.0001195105         38.383951
                  3.6514487e-05        -74.410914        0.18756472        -123.68179      9.127375e-05        -124.82171        0.12825718        -132.83067
                     0.12336542        -137.79252     9.1236833e-05        -124.82243        0.18323507          -128.005      2.758351e-05        -117.53965
                   0.0001195318         38.395042        0.12764165        -132.64635     2.7706615e-05        -117.73282        0.18870052        -123.66593

0.375      0.062706817        -118.94919     9.6175828e-06        -133.99849       0.023670421        -132.70524     0.00013950126        -35.452885
                  9.5684593e-06        -134.73001       0.065814799        -110.57327     8.6015025e-05          146.5036       0.025103492        -116.82068
                     0.02433935        -129.07251      8.593015e-05         146.59342        0.06495575        -115.96389     2.3305201e-05         154.14604
                  0.00013958726        -35.501874       0.026046639        -113.73127     2.3395003e-05         153.84297       0.068200059        -107.77988

0.4       0.17379416        -116.96996     3.8352206e-05         139.35526       0.094147347        -129.05653     0.00014044389        -121.75928
                   3.829605e-05         139.19415        0.18188791        -112.11773     9.7630779e-05         73.815746        0.10028149        -122.82138
                    0.095429399        -128.89337     9.7711748e-05         73.889519        0.17852145        -117.59942     2.9226498e-05         81.550216
                  0.00014039138        -121.81372        0.10157002        -122.68493      2.927164e-05         81.393071        0.18601069        -112.72899

0.425       0.16412645         174.86353      3.624407e-05        -14.260923       0.073525059         156.98074     0.00013701357         167.73616
                  3.6328306e-05        -14.381319        0.16343643        -178.64695     0.00011085787        -17.714356       0.070929642         164.29566
                    0.074442716         157.24504      0.0001109861        -17.707263        0.16351787         174.74481     3.0234952e-05        -13.417004
                  0.00013688533         167.74197       0.071854604         164.54459     3.0340614e-05        -13.528593        0.16243239        -178.75952

0.45      0.018536925         136.34368     3.9405231e-06         172.31107      0.0042025685         -148.9923     0.00016500453         87.214851
                    4.01521e-06         173.70773       0.017049702         174.02675     9.8713863e-05        -97.261754       0.011855295        -110.89387
                   0.0044694982        -156.13214      9.879622e-05        -97.281066       0.017915788         152.42833     2.6319381e-05        -87.627647
                  0.00016493432         87.231715       0.011775413        -113.80659     2.6412101e-05        -87.860369       0.019219368        -172.51393

0.475      0.083066072        -163.35005     1.6476918e-05        -150.13107       0.029521275         170.13155     0.00016508472         6.1022392
                  1.6525319e-05        -150.54539       0.084829218        -156.26167     0.00011175826        -176.44584       0.029101424        -179.62004
                    0.030063034         168.77922     0.00011184994        -176.49623       0.083291348        -165.53364     2.9823591e-05        -169.36502
                  0.00016500168         6.1357992       0.029588402         178.92015     2.9890462e-05        -169.52147       0.084395496        -158.40104

0.5      0.028279631         171.65087     1.8917761e-06          174.3423       0.028387721         -88.86791     0.00018131897        -74.607043
                  1.8473184e-06         170.49896       0.029487018        -161.14823     0.00010739703         104.05376        0.03801836        -82.117428
                    0.027429908        -87.472806     0.00010734965         103.97504       0.025407411        -178.35562     2.9239182e-05         118.55077
                  0.00018135484        -74.561413       0.037069186        -81.078591     2.9354559e-05         118.39618       0.028409117        -151.21849

0.525       0.09351436        -157.67444     2.5569134e-05         61.169315       0.082521486        -168.17836     0.00017255672        -155.72656
                  2.5598168e-05         60.826628        0.09824093        -150.12745     0.00012764598         25.435694       0.084997868        -159.59488
                    0.081400613        -167.95059     0.00012752566         25.423147        0.09718177        -158.43494     3.7343675e-05          32.17611
                  0.00017267189        -155.71174       0.083881992        -159.35582     3.7483963e-05         31.943552        0.10037254        -150.80431

0.55      0.048474132         155.07993     9.2049053e-06        -85.119527       0.032109154         129.80013       0.000191694         127.67325
                  9.3742761e-06        -85.535015       0.043753902         173.09626     0.00012201249        -59.981497       0.024125971         144.99717
                    0.030965046         130.18012     0.00012191125        -59.943157        0.04235559         158.95627     3.2208593e-05        -53.268307
                  0.00019178058         127.64473       0.023015018         145.93136     3.2295409e-05        -53.562446       0.038263081         177.66912

0.575       0.15137418        -148.74346     4.5526818e-05        -89.955875        0.10050168        -163.70026     0.00017834487         41.665459
                  4.5463655e-05        -90.175987        0.15911587        -140.63248     0.00014210737        -133.66646        0.10550398        -153.93129
                     0.10122467        -163.29178     0.00014218154        -133.62476        0.16027768        -148.08619     4.4305212e-05        -130.55121
                  0.00017826446         41.636802        0.10625291        -153.56271     4.4394162e-05         -130.7461        0.16711775        -140.33915

0.6       0.22900984         144.02592     6.8421575e-05         118.93648        0.14196519          128.5858     0.00017611015        -24.991154
                  6.8549479e-05         118.83347        0.22468236         153.20045     0.00015060682         133.41746        0.13573227         137.85727
                     0.14210173         128.80589     0.00015066842         133.41994        0.22983739         143.81634     3.8528045e-05         131.60931
                  0.00017606467        -24.980065        0.13587504         138.08837     3.8660516e-05         131.36819        0.22480315         152.80242

0.625      0.081438988         86.845164     2.7380927e-05        -27.421447       0.048329292         75.183785     0.00021893762         -108.0025
                  2.7582014e-05        -27.340772       0.072845863          99.44273     0.00012642324         57.060201       0.039143655         86.475716
                    0.048023387         76.531194     0.00012658396         57.078798        0.07376391          90.19287     3.1647761e-05         67.186251
                  0.00021879368        -108.00036       0.038915283         88.181077     3.1653848e-05         66.779508       0.065967253         103.63623

0.65       0.16641586         155.28667     5.1023626e-05        -29.912708        0.10049439         137.17845     0.00019672559         171.44136
                  5.1022799e-05        -30.100939        0.16322179          165.0035     0.00015778296        -24.015898       0.095535144         147.22082
                      0.1017629         136.86296     0.00015791624        -24.090701        0.17356092         154.47425     4.1572544e-05        -24.369612
                  0.00019666006         171.50627       0.096785952         146.86785     4.1553772e-05        -24.570779        0.16982182          164.1727

0.675       0.19887946         87.271402     6.7023086e-05        -178.87933       0.098118086         70.744239     0.00023254152         97.227798
                  6.7117574e-05        -178.90419        0.18805317         96.942068     0.00013123665        -111.59414       0.087544312         78.919349
                    0.099224679         70.436575     0.00013116145        -111.68334        0.19631869         86.363969     2.7105891e-05        -101.78916
                  0.00023270434         97.262592       0.088662254         78.580204     2.7125224e-05        -101.96959        0.18574139         96.086562

0.7      0.037346856          45.16033     1.6520494e-05         47.627982       0.020534775         142.72805     0.00024122677          10.27325
                  1.6575372e-05         47.955775       0.035186287         51.167991     0.00013915784        -177.41842       0.018692006         159.38855
                    0.019772821         141.63696     0.00013902012        -177.42607       0.033768076         51.169402      3.899262e-05        -165.46467
                  0.00024137648         10.274119       0.017876384         158.50958     3.9013919e-05        -165.66188       0.031759341         56.591348

0.725      0.088695749         99.867789     3.1515381e-05         25.844059       0.074443478         91.822114     0.00024491643         -66.58268
                  3.1645907e-05         25.848729       0.075667807         111.95231     0.00014827094          94.79797       0.062158552         101.91412
                    0.073967215          91.39605     0.00014814662         94.797986       0.085924647         97.870318      3.510714e-05         102.40465
                  0.00024503238        -66.595502       0.061668558         101.41481     3.5136432e-05         102.21346       0.072970358         110.00311

0.75      0.037749937          148.4645      8.150598e-06         12.849613       0.038458124         154.58372     0.00024347918        -150.84088
                   8.220255e-06         11.829551       0.039455587         165.07332     0.00015838682         21.231853       0.039318482          171.1706
                    0.037982132         155.69962      0.0001583161         21.275455       0.042237564         157.97267       4.57778e-05         30.282303
                  0.00024351762        -150.86755        0.03893045          172.3302      4.584697e-05         30.082649       0.044233602         172.91346

0.775       0.16367329         113.48905      6.219866e-05        -112.17625        0.13628067         103.28651       0.000244062         137.68498
