! Created Fri Mar  3 09:05:05 2023
# ghz S ma R 45
! 4 Port Network Data from SP1.SP block
! freq  magS11  angS11  magS12  angS12  magS13  angS13  magS14  angS14  
!       magS21  angS21  magS22  angS22  magS23  angS23  magS24  angS24  
!       magS31  angS31  magS32  angS32  magS33  angS33  magS34  angS34  
!       magS41  angS41  magS42  angS42  magS43  angS43  magS44  angS44  
!     
0      0.080449833    -2.3522432e-13     1.4553231e-06              -180      0.0043420095     -3.875119e-12     1.1014846e-06              -180
                   1.455512e-06               180       0.082312115      1.848032e-13     2.4467654e-06               180      0.0042817981     -4.001744e-12
                   0.0051849264     1.1894769e-11     2.4420173e-06               180       0.081004337    -1.8765267e-14     1.9722612e-06               180
                   1.100754e-06              -180      0.0052027267    -3.8422682e-12     1.9705834e-06              -180       0.081401201    -2.0618953e-13

0.025       0.16488963        -8.9667685     1.4077077e-05         176.01121       0.097944901         8.7738311     8.6325702e-06         173.69595
                  1.4071894e-05         176.03884        0.16512321        -8.8411833     2.2769361e-05         176.34205        0.09863163         9.1964328
                    0.098357052         8.3565977     2.2773106e-05          176.3831        0.16534288        -8.7617057     1.6913297e-05         175.89874
                  8.6354534e-06         173.81655        0.09811405         8.8074458     1.6922851e-05         175.93048        0.16491823        -8.9874202

0.05      0.051002538        -57.545956     3.7580072e-05          102.7159       0.016098037        -35.458915     2.4684747e-05         102.26024
                  3.7600635e-05         102.78644       0.051143982        -57.565961     5.7407711e-05         102.48338       0.016850395        -36.753667
                    0.016301139        -38.513466     5.7451206e-05         102.48195       0.051530104        -57.780847     4.4040734e-05          102.5696
                  2.4732689e-05         102.26642       0.015930137        -35.519341     4.4060594e-05         102.50583       0.050296097        -57.693859

0.075       0.18382372         15.294189     4.2017137e-05        -1.5934894        0.15026616         21.177555      2.639963e-05        -9.0640957
                  4.2076146e-05        -1.5294082        0.18424386         15.974549     6.6818187e-05         2.8506358         0.1499904         21.946265
                     0.14959319         21.197524     6.6827865e-05         2.8444122        0.18399571         15.430321     5.0155416e-05        0.47280396
                  2.6413407e-05        -9.0664743        0.15082414         21.822899     5.0102314e-05        0.41688385        0.18548879         15.964492

0.1       0.20629613         -49.38389     4.2983954e-05        -45.493111        0.15825066        -49.235077     2.4194592e-05        -41.510452
                  4.3067808e-05        -45.506388        0.20696694        -48.628056     7.2349177e-05        -48.341027        0.15834864        -48.047487
                     0.15757747        -49.405308      7.242242e-05        -48.308139        0.20662892        -49.221746     5.2838291e-05        -46.995466
                  2.4274166e-05        -41.419204        0.15858769         -48.35397     5.2820438e-05        -46.943891        0.20795473        -48.775211

0.125      0.077992499        -22.157622     7.9547232e-05         -142.5177       0.052789928        -12.923062     5.0878307e-05        -144.63482
                  7.9641385e-05        -142.54336       0.078266332        -20.285517     0.00012359629        -141.55309       0.053513278        -10.858399
                    0.052903093        -12.137721     0.00012368419        -141.60083       0.078459286        -22.308296     9.4133138e-05        -142.23341
                  5.0990082e-05        -144.74049        0.05368126        -10.313939     9.4134619e-05        -142.25912       0.078488363        -20.609969

0.15        0.2159945        -36.956543     6.0453511e-05         131.32116        0.14876226        -37.479138     3.4004014e-05         125.96451
                  6.0521288e-05         131.26268        0.21876998        -35.653269     0.00010196291         133.98737        0.15017853        -36.118511
                     0.14915902        -37.152817     0.00010194222         133.90755        0.21704724        -37.297822     7.4331505e-05         132.44734
                  3.4006842e-05         125.72553        0.15105324        -35.927591     7.4261357e-05         132.39392        0.22046282        -35.774129

0.175       0.14871611         -99.15138     9.8122754e-05         77.628431       0.095611341        -107.74062     6.1924742e-05         80.311359
                  9.8144337e-05         77.586657        0.14899019         -97.55409      0.0001543096          75.18142       0.094412795        -105.52047
                    0.095594413        -107.36695     0.00015428017          75.18527        0.14840322        -99.050521     0.00011681919         76.167792
                  6.1900958e-05         80.323798       0.095365156        -105.60577     0.00011676388         76.208086        0.15037646        -97.660553

0.2      0.065206382        -39.004793     0.00012474173        -22.390562       0.034960293        -28.147978     8.0307099e-05        -24.955843
                  0.00012470825        -22.412107       0.070129603        -36.178108     0.00019238868        -21.273584       0.040426692        -25.893981
                    0.035700312        -28.452679     0.00019246018        -21.289626       0.067969442         -40.08993     0.00014682899        -22.239071
                   8.038485e-05        -24.988203       0.039667248        -25.393196     0.00014693448        -22.233474       0.070782533         -36.88657

0.225       0.11328765        -84.559838     0.00012369531        -96.237113       0.045262114        -92.086417     7.8312395e-05        -97.371342
                  0.00012367364        -96.183055         0.1164097        -82.994604      0.0001942951        -95.775638       0.047896457        -90.618979
                    0.046288474        -92.301443     0.00019423555        -95.802009        0.11382293        -85.973229     0.00014730979        -96.209852
                  7.8258973e-05        -97.422894       0.047859803        -89.676271      0.0001472913         -96.28604        0.11723483        -83.578435

0.25      0.042269718        -58.742259     0.00015740507         174.91526       0.051355204        -5.3399321     0.00010316879         170.38746
                  0.00015753771         174.96801       0.045760952        -51.282232      0.0002425112         177.06847       0.056614444        -2.2420624
                     0.05035056        -5.7310448     0.00024245072          177.0937       0.042344219        -55.977912     0.00018600825          175.3723
                  0.00010311483         170.45709       0.056117849        -3.1749379     0.00018581908         175.35682       0.046019167        -51.270953

0.275       0.10876279        -75.601262     0.00013789264          94.74062       0.085665409        -77.089718     8.3634414e-05         90.066698
                  0.00013803669         94.783596         0.1154995        -73.538607     0.00022133582         96.875969       0.091901397        -74.143166
                    0.084901007         -77.46457     0.00022156701         96.905295        0.11106922        -76.151031     0.00016543567          95.33612
                   8.386694e-05          90.17806       0.090722766        -74.445771     0.00016548541         95.343237        0.11639372        -74.107196

0.3      0.039636828        -78.391451     0.00018403874         16.321264       0.016946461        -20.412438     0.00012022587         12.520059
                  0.00018434009         16.363769       0.040057075        -69.758687     0.00028403308         18.155142       0.020180213        -13.032515
                    0.016719626        -17.418067     0.00028428103         18.103741       0.038029109        -77.182158     0.00021828069         16.620006
                  0.00012054096         12.422621       0.021339481        -11.244674     0.00021822645         16.537478       0.039305391        -68.490273

0.325        0.1630371        -65.523679     0.00015632214        -81.168607        0.12934931        -65.737128     9.7410447e-05        -91.449751
                  0.00015669319        -81.172138        0.17397989         -62.49053     0.00025023848        -75.863826        0.13788689        -62.026503
                     0.12921168        -65.395065     0.00025023572        -75.904449        0.16693161        -65.152083     0.00018739842        -79.584871
                  9.7491189e-05        -91.539994         0.1386723        -62.299147     0.00018707371        -79.624221        0.17706924        -62.508644

0.35       0.18154694        -128.02457     0.00013274499        -133.65749        0.12398656        -137.98368     7.3921738e-05        -134.30882
                  0.00013292465         -133.7401        0.18376349        -124.28838     0.00022465969        -133.91658        0.12445685        -132.99652
                     0.12336542        -137.79252     0.00022483221        -133.93035        0.18323507          -128.005     0.00016369855        -134.28019
                  7.4118234e-05        -134.35329        0.12427972        -133.42097     0.00016366934        -134.22946        0.18535285         -124.5488

0.375      0.062706817        -118.94919     0.00020528786         138.12043       0.023670421        -132.70524     0.00013021993         134.19188
                  0.00020536828         138.05006       0.068758746        -104.22714     0.00032146829         139.46262       0.028203558        -102.25089
                     0.02433935        -129.07251     0.00032146393         139.35657        0.06495575        -115.96389     0.00024401961         137.68507
                  0.00013028409         133.93295       0.028638027        -99.955544     0.00024400697         137.63257       0.071358542        -102.36985

0.4       0.17379416        -116.96996     0.00016400891          48.94993       0.094147347        -129.05653     9.5852709e-05         42.033428
                  0.00016403785          48.89862        0.18332088        -113.11883     0.00026935537         52.461117        0.10043683        -123.71314
                    0.095429399        -128.89337     0.00026898587         52.382746        0.17852145        -117.59942     0.00019752223         49.893396
                  9.5561367e-05           41.7974        0.10175021        -123.57196     0.00019724956         49.830243        0.18798203        -113.58688

0.425       0.16412645         174.86353     0.00019937506        -7.5182588       0.073525059         156.98074     0.00012452997        -8.4945147
                    0.000199394        -7.5189737        0.15548832        -179.23773       0.000318872        -8.2524533       0.062887612         163.35043
                    0.074442716         157.24504     0.00031867243        -8.2216271        0.16351787         174.74481     0.00024025152        -8.5774153
                  0.00012437397        -8.4138809       0.064076443         163.06642     0.00024004003         -8.548059        0.15650791        -179.54831

0.45      0.018536925         136.34368     0.00026345657        -100.36395      0.0042025685         -148.9923     0.00016915181         -105.1475
                  0.00026350025        -100.35118       0.017307096         -163.3794     0.00040649652        -98.779108       0.018393166        -107.36417
                   0.0044694982        -156.13214     0.00040661169        -98.783409       0.017915788         152.42833     0.00030965511        -100.69413
                  0.00016928701        -105.14762       0.017546467        -105.69033     0.00030970042        -100.70405       0.019408508        -155.94624

0.475      0.083066072        -163.35005     0.00024654568         177.85356       0.029521275         170.13155     0.00015650019         173.66554
                  0.00024673039         177.91191       0.079996818        -156.03497      0.0003876026         179.92037       0.024529414          177.3667
                    0.030063034         168.77922     0.00038749425         179.89192       0.083291348        -165.53364      0.0002937074          178.3033
                  0.00015645696         173.61794       0.024490409         179.24733     0.00029346716         178.22683       0.081244072        -157.56963

0.5      0.028279631         171.65087     0.00028950037         93.998735       0.028387721         -88.86791     0.00019018044         87.051273
                  0.00029002511         94.021509       0.031975307        -142.18292     0.00044715875         96.762811       0.047798843        -81.215344
                    0.027429908        -87.472806     0.00044704962         96.780949       0.025407411        -178.35562      0.0003428843         94.006056
                  0.00019017153         87.100871        0.04694404         -82.16407      0.0003422925         94.004825       0.032006308        -138.06804

0.525       0.09351436        -157.67444     0.00025200118         9.1794329       0.082521486        -168.17836     0.00015334987         1.0516408
                   0.0002524271         9.1563899       0.099741571        -151.26426      0.0004036651         12.935904        0.08644303        -160.08432
                    0.081400613        -167.95059     0.00040411568         12.942331        0.09718177        -158.43494     0.00030041865         10.120836
                  0.00015387043         1.0919321       0.084900747        -160.28592     0.00030036706         10.155522        0.10055691        -151.48045

0.55      0.048474132         155.07993     0.00030333375        -63.565357       0.032109154         129.80013     0.00019607259        -69.374443
                  0.00030384953        -63.594639       0.037520416        -172.41401     0.00047333139        -61.066569       0.015694166         160.52534
                    0.030965046         130.18012     0.00047356159        -61.165995        0.04235559         158.95627     0.00036276994        -63.871552
                  0.00019647416        -69.608171       0.014822908         166.07424     0.00036257408        -63.942812       0.034799278        -168.07702

0.575       0.15137418        -148.74346      0.0002806656        -164.47246        0.10050168        -163.70026     0.00017791531        -176.60738
                  0.00028119425        -164.55864        0.16760012         -141.8713     0.00044124642        -158.41973        0.11125822         -153.9994
                     0.10122467        -163.29178     0.00044085656        -158.49106        0.16027768        -148.08619     0.00033085309        -163.46768
                  0.00017775725        -176.81145        0.11225892        -154.36953     0.00033016739        -163.48652        0.17405365         -142.1468

0.6       0.22900984         144.02592     0.00018754792         140.36623        0.14196519          128.5858     0.00010113691         136.73588
                  0.00018752836         140.25054        0.21916731         151.92018     0.00032572113         141.80286        0.13000053         136.98217
                     0.14210173         128.80589     0.00032566492         141.79606        0.22983739         143.81634     0.00023404528         140.60532
                  0.00010111649         136.68671        0.12984915         136.59187     0.00023397958         140.68025        0.21946444         151.26691

0.625      0.081438988         86.845164     0.00034289495         63.703127       0.048329292         75.183785     0.00022148624         58.845501
                  0.00034276677         63.651324       0.060899293         104.57319     0.00052988997         64.580834       0.028812189         95.773953
                    0.048023387         76.531194     0.00052961515         64.495606        0.07376391          90.19287     0.00040453077         62.262452
                  0.00022124167          58.63846       0.027742881         96.630528     0.00040448913         62.217993       0.056003853         109.40848

0.65       0.16641586         155.28667     0.00027464648        -36.030211        0.10049439         137.17845     0.00016522654        -45.244675
                  0.00027451058        -36.050096        0.16514814          163.4072     0.00044152657        -31.357089       0.095561303         145.82526
                      0.1017629         136.86296     0.00044058464        -31.408285        0.17356092         154.47425     0.00032421663        -34.776519
                  0.00016439483        -45.401055       0.096956302         145.91325     0.00032364462        -34.840922        0.17149234         162.63009

0.675       0.19887946         87.271402     0.00029895815        -87.984613       0.098118086         70.744239     0.00019099315        -90.517901
                  0.00029909667        -87.961279        0.17525267          95.39435     0.00047270918        -88.340516       0.075309832         76.372303
                    0.099224679         70.436575     0.00047227335        -88.274444        0.19631869         86.363969     0.00036021559        -89.213826
                  0.00019070052        -90.360275       0.076626612         76.123955     0.00035964499        -89.162346        0.17492016         94.473985

0.7      0.037346856          45.16033     0.00042061804         176.78025       0.020534775         142.72805     0.00027809205         169.44265
                  0.00042085997         176.78474       0.026498719         62.548002     0.00063506903         179.63404       0.027963331         166.89784
                    0.019772821         141.63696     0.00063522512         179.65595       0.033768076         51.169402     0.00048813746         176.51559
                  0.00027831342         169.49507       0.026824631         167.84775     0.00048798657         176.54351        0.02483054         67.719945

0.725      0.088695749         99.867789     0.00037292339         94.937039       0.074443478         91.822114     0.00023941105         88.671247
                  0.00037341647         94.959151       0.066778274         112.31199     0.00058217508         97.946451        0.05386878         100.21606
                    0.073967215          91.39605     0.00058207573         97.914701       0.085924647         97.870318     0.00044396946         95.441009
                  0.00023948141         88.600561       0.053680686         101.13132     0.00044346063          95.39649       0.065394585         110.52515

0.75      0.037749937          148.4645     0.00045591915         6.4355784       0.038458124         154.58372      0.0003096025        -2.7332006
                  0.00045673405         6.3870146       0.054722808         174.53083     0.00068577706         10.565124       0.053399235         178.40186
                    0.037982132         155.69962     0.00068538334         10.573986       0.042237564         157.97267     0.00053124831         6.4049173
                  0.00030940647        -2.7336726       0.052795827         177.38484     0.00053018119         6.4500841       0.057383886          177.3441

0.775       0.16367329         113.48905     0.00032624628        -80.084229        0.13628067         103.28651     0.00019965372        -91.766578
