! Created Thu Mar  2 19:50:32 2023
# ghz S ma R 45
! 4 Port Network Data from SP1.SP block
! freq  magS11  angS11  magS12  angS12  magS13  angS13  magS14  angS14  
!       magS21  angS21  magS22  angS22  magS23  angS23  magS24  angS24  
!       magS31  angS31  magS32  angS32  magS33  angS33  magS34  angS34  
!       magS41  angS41  magS42  angS42  magS43  angS43  magS44  angS44  
!     
0      0.080449833    -2.3522432e-13     3.9208297e-05              -180      0.0043420095     -3.875119e-12     1.7312349e-05               180
                  3.2502547e-05               180       0.082663271     6.6258632e-13     1.2487937e-05              -180      0.0047746405     -1.586388e-12
                   0.0051849264     1.1894769e-11     1.5565816e-06    -2.0314771e-10       0.081004337    -1.8765267e-14     3.1682766e-06     -2.110754e-11
                  1.1058487e-05    -3.1789673e-11       0.005837836     7.7508555e-12     3.6170125e-06              -180       0.080832384    -4.4348492e-13

0.025       0.16488963        -8.9667685     3.5710073e-05         81.143258       0.097944901         8.7738311     1.9932662e-05         77.826381
                  2.9271746e-05         78.217734        0.16525615         -9.368854     1.8837214e-05         52.803123       0.098115909         8.4504546
                    0.098357052         8.3565977     1.6040212e-05         -20.95881        0.16534288        -8.7617057     1.1523757e-05          -5.14354
                  1.7521074e-05        -59.026354       0.098628517         7.9371329     1.1243148e-05         31.643219        0.16537126        -9.1620092

0.05      0.051002538        -57.545956     4.6462226e-05        -13.697439       0.016098037        -35.458915     3.3233268e-05        -32.459379
                  4.0020966e-05        -16.343264       0.048380259        -56.161631     4.2963275e-05        -49.879708       0.014419763        -30.067123
                    0.016301139        -38.513466     2.8006471e-05        -79.966967       0.051530104        -57.780847     3.2044332e-05        -77.037545
                  1.6765171e-05        -117.71102       0.014593019        -34.271696     3.1173646e-05        -63.043702       0.048943463        -56.494751

0.075       0.18382372         15.294189     4.6180725e-05        -110.46277        0.15026616         21.177555     2.8126281e-05        -137.86618
                  4.1885338e-05        -113.55256        0.18636169         14.173984     4.6402914e-05        -152.11382        0.15208931         20.129548
                     0.14959319         21.197524     3.8503191e-05        -167.19146        0.18399571         15.430321     3.6217505e-05        -178.12757
                  2.2455774e-05         167.92931        0.15123345         20.141933     3.2883721e-05        -166.16047        0.18628694         14.314482

0.1       0.20629613         -49.38389     6.3022837e-05         173.28422        0.15825066        -49.235077      4.086126e-05         169.19971
                  5.9074925e-05         170.07726        0.20295901        -50.593296       6.16193e-05         150.73059        0.15580151        -50.622434
                     0.15757747        -49.405308     5.1928654e-05         133.12621        0.20662892        -49.221746     4.1135081e-05         136.89658
                  2.6768503e-05         119.12742        0.15494939        -50.830097     4.2452448e-05         147.20491        0.20376095        -50.410156

0.125      0.077992499        -22.157622     7.7398832e-05         68.869703       0.052789928        -12.923062        6.7698e-05         59.219167
                  7.3390106e-05         65.275693       0.081267451        -19.931007     0.00010164823         50.792526       0.055342559        -10.435902
                    0.052903093        -12.137721     7.9944738e-05         34.807377       0.078459286        -22.308296      7.798859e-05          39.16481
                  4.7470226e-05         20.242405       0.055536376        -9.5684943     7.6427605e-05         44.684826       0.081322785        -20.800563

0.15        0.2159945        -36.956543     6.3845368e-05        -8.5889018        0.14876226        -37.479138      5.309837e-05        -34.091325
                  6.0355468e-05        -11.396355        0.21457795        -38.944943     8.9437776e-05        -37.931349        0.14720011        -39.517021
                     0.14915902        -37.152817     6.1750812e-05        -45.535245        0.21704724        -37.297822     6.4869847e-05        -52.873207
                  3.0420745e-05        -68.213444        0.14759256        -39.120556      6.239515e-05        -46.342197         0.2152396        -39.299253

0.175       0.14871611         -99.15138     0.00010538554        -84.360562       0.095611341        -107.74062     7.5065013e-05        -97.496353
                  0.00010192406         -86.52995        0.14003193        -100.75538     0.00012335359        -105.18469       0.088539602        -110.20663
                    0.095594413        -107.36695     0.00010282261        -104.61934        0.14840322        -99.050521     8.6963081e-05        -110.92157
                  5.3794527e-05        -108.14788       0.088450692        -109.68069     8.7003748e-05        -106.68835        0.14105902        -100.75132

0.2      0.065206382        -39.004793     0.00011460678         174.42343       0.034960293        -28.147978      9.298198e-05         163.37856
                  0.00011145651         171.81857       0.067853119        -40.092019     0.00014957305         159.64713       0.036928716        -29.416119
                    0.035700312        -28.452679     0.00012760027         155.65923       0.067969442         -40.08993     0.00011319945         154.08719
                  7.3332205e-05         146.22149       0.037822076        -29.888489     0.00011029522         156.96477       0.068864811        -41.883677

0.225       0.11328765        -84.559838     0.00011298741         99.541795       0.045262114        -92.086417     9.1648077e-05         83.842212
                  0.00010917121         97.497801        0.10487131        -86.270826     0.00015040579          81.24988         0.0380522        -94.210578
                    0.046288474        -92.301443     0.00012145853         80.427198        0.11382293        -85.973229     0.00011344284         75.556541
                   6.347788e-05         72.252983       0.039214423        -94.548906      0.0001101149         78.827578        0.10544875        -87.811496

0.25      0.042269718        -58.742259     0.00013656737         10.290301       0.051355204        -5.3399321     0.00010806626        -4.6922368
                  0.00013303795         8.4517877       0.046080837        -53.582107     0.00017724248        -4.9217752       0.057092567        -7.9193173
                     0.05035056        -5.7310448     0.00015343846        -4.4044816       0.042344219        -55.977912     0.00013555617         -10.51211
                  8.5595187e-05        -11.827645       0.055959733        -8.3542841     0.00013157293        -7.8085234       0.045155891        -53.204244

0.275       0.10876279        -75.601262     0.00012450477        -70.494267       0.085665409        -77.089718     9.9048468e-05        -84.648025
                  0.00012040515        -72.161911        0.10326288        -78.623001     0.00016853382         -85.25222       0.080850383        -80.762225
                    0.084901007         -77.46457      0.0001441957        -86.365423        0.11106922        -76.151031      0.0001274644        -90.657518
                  7.5541351e-05        -95.189145       0.079969669        -81.258294     0.00012316597        -87.702709        0.10448593         -79.15644

0.3      0.039636828        -78.391451     0.00015487155        -151.35481       0.016946461        -20.412438     0.00012907904        -166.69233
                  0.00015093799        -152.28366       0.039513951        -67.370546     0.00020775988        -165.89531       0.023703091        -11.621194
                    0.016719626        -17.418067     0.00017577212        -165.14258       0.038029109        -77.182158     0.00016090068        -171.27925
                    9.74277e-05        -171.07553       0.023660273        -9.0671973     0.00015659657        -168.64026       0.038117279        -68.420877

0.325        0.1630371        -65.523679     0.00013543904         118.04442        0.12934931        -65.737128     0.00010825983         96.412666
                  0.00013276786         116.87034        0.16232302        -69.881913      0.0001866017         102.61094        0.12814973        -70.471316
                     0.12921168        -65.395065     0.00015898787         104.52004        0.16693161        -65.152083      0.0001393136          94.95314
                  8.5473875e-05         92.786821        0.12795642        -70.072932     0.00013522631         97.592907        0.16387496        -69.582527

0.35       0.18154694        -128.02457     0.00013895975         56.153962        0.12398656        -137.98368     9.5485014e-05         42.364435
                  0.00013559782         55.258091        0.17201147        -132.97746     0.00017653965         39.986099        0.11641956        -143.84443
                     0.12336542        -137.79252      0.0001555252         42.318969        0.18323507          -128.005     0.00012634733         38.030305
                  7.5962652e-05         39.098537        0.11567684        -143.59607     0.00012445551         40.528044        0.17449578        -132.93929

0.375      0.062706817        -118.94919     0.00018286857        -34.919731       0.023670421        -132.70524     0.00014979515        -47.874353
                  0.00017911052        -35.678169       0.061442024        -120.01656     0.00024286559        -46.823449       0.022480194        -131.38941
                     0.02433935        -129.07251     0.00020845244        -46.304919        0.06495575        -115.96389     0.00018897108        -50.022966
                  0.00011637128        -52.652111       0.023477171         -127.4737     0.00018450722        -48.440628       0.063106966        -120.38717

0.4       0.17379416        -116.96996     0.00014857758        -119.16665       0.094147347        -129.05653      0.0001208011        -142.84606
                  0.00014512858        -119.75635         0.1678675        -122.77672     0.00020961094        -135.79637       0.088836173         -135.9539
                    0.095429399        -128.89337     0.00016953056        -131.60814        0.17852145        -117.59942     0.00015686051         -142.3024
                  8.2360627e-05        -143.24145       0.090205414        -135.76084      0.0001518323        -140.27481        0.17084301        -123.43265

0.425       0.16412645         174.86353     0.00019121725          177.2411       0.073525059         156.98074     0.00012869567         160.67281
                  0.00018813773         177.02818        0.15681377         167.69523     0.00022990323         160.74542       0.068820061         148.37321
                    0.074442716         157.24504     0.00020835466         168.57382        0.16351787         174.74481     0.00016717455         159.10959
                  0.00010822795         170.27602       0.069776062         148.75098     0.00016490421         160.97254        0.15882576         167.43676

0.45      0.018536925         136.34368     0.00023793987         83.042061      0.0042025685         -148.9923     0.00017647579         69.893853
                  0.00023460505         82.660019       0.016610836           121.745     0.00029347129         72.217262      0.0026328466         -168.9096
                   0.0044694982        -156.13214     0.00027077452         76.359287       0.017915788         152.42833     0.00022418864          70.63344
                  0.00015369485         72.492985      0.0031337955        -179.75693     0.00021950707         71.696211       0.017694726         128.59497

0.475      0.083066072        -163.35005     0.00021695859          1.175239       0.029521275         170.13155      0.0001637064        -14.698255
                  0.00021353148        0.95125717       0.078281951         -170.4015     0.00027781948        -11.084654       0.025849769          159.4449
                    0.030063034         168.77922     0.00024989584        -6.1530468       0.083291348        -165.53364      0.0002136584        -13.124563
                  0.00013365715        -10.565453       0.026433659         157.70552     0.00020794558        -11.758971       0.078679317        -172.89981

0.5      0.028279631         171.65087     0.00025289626        -81.491918       0.028387721         -88.86791      0.0001898623        -97.713615
                  0.00024974335        -81.633801       0.025460136         168.07523      0.0003142208        -92.829447       0.029655458        -95.921408
                    0.027429908        -87.472806     0.00029069867        -87.405397       0.025407411        -178.35562     0.00024423037        -95.663779
                   0.0001647474        -91.593013        0.02868554        -94.402634     0.00023894575         -94.42657       0.023518868         169.20183

0.525       0.09351436        -157.67444     0.00022661013        -167.16897       0.082521486        -168.17836     0.00016653103         175.88284
                  0.00022324756        -167.28313       0.094031333        -166.46091     0.00029103196        -177.75154       0.082244807         -177.4597
                    0.081400613        -167.95059     0.00026943585        -173.31655        0.09718177        -158.43494     0.00022182644         179.40587
                  0.00014386255         -179.7163       0.081044595        -177.21487     0.00021592322        -179.41526       0.094387221        -166.91835

0.55      0.048474132         155.07993     0.00026059623         118.96762       0.032109154         129.80013     0.00019884105         102.85258
                  0.00025714334         119.12734       0.044999329         147.41718     0.00032888931         107.94189       0.030664371         120.75418
                    0.030965046         130.18012     0.00030217754         112.86429        0.04235559         158.95627     0.00025958663         104.82776
                  0.00017013378          108.9915       0.029433136         121.25913     0.00025405664         106.11462       0.042190235         146.14637

0.575       0.15137418        -148.74346     0.00024311929         22.877533        0.10050168        -163.70026     0.00018636281       -0.42761977
                  0.00024087735         23.015006        0.15606388        -157.92602     0.00031378083         11.509264         0.1041998        -173.63925
                     0.10122467        -163.29178     0.00028636135         17.597384        0.16027768        -148.08619     0.00023958131         5.4909735
                  0.00015859404         7.4458119        0.10498468         -173.2352     0.00023472345         6.4955213        0.16070373        -158.08247

0.6       0.22900984         144.02592     0.00019651514         -36.83977        0.14196519          128.5858     0.00011563693        -54.198374
                  0.00019483877         -36.67099        0.23074887         133.99669      0.0002361804        -50.827231        0.14362882         118.54117
                     0.14210173         128.80589     0.00022910258        -43.827311        0.22983739         143.81634     0.00016892266        -50.696488
                  0.00011190879        -44.210006        0.14378372          118.7796     0.00016611929        -49.642041         0.2320183          133.3238

0.625      0.081438988         86.845164     0.00031057476         -119.2398       0.048329292         75.183785     0.00023027942        -131.06598
                  0.00030774759        -119.08288       0.074392097         79.035031     0.00037683861        -128.22283       0.043601011         68.808539
                    0.048023387         76.531194     0.00035700747        -124.45657        0.07376391          90.19287     0.00030065454        -129.30307
                  0.00021034849        -127.80401       0.043460275         70.475162     0.00029526464         -128.8124       0.071949612          80.91757

0.65       0.16641586         155.28667     0.00023844761          146.0069        0.10049439         137.17845     0.00017888135         123.05587
                  0.00023611995         146.46038        0.17635621         144.24314     0.00031188843         133.90229        0.10798591         126.87762
                      0.1017629         136.86296     0.00027907166         140.58573        0.17356092         154.47425     0.00023896143         129.43837
                   0.0001423713         131.39541        0.10921648         126.50758     0.00023229537         130.01811        0.18037739         143.22423

0.675       0.19887946         87.271402     0.00028440552         90.403513       0.098118086         70.744239     0.00018045487         76.291497
                  0.00028388435         90.766356        0.19535517         76.526881     0.00032053937         77.789891       0.095065866         60.704472
                    0.099224679         70.436575     0.00032108262         86.318015        0.19631869         86.363969     0.00024473915         77.624632
                  0.00018214255         89.374541       0.096138343         60.334421     0.00024059219         78.560777        0.19637674         75.565908

0.7      0.037346856          45.16033     0.00037655746        -7.0308005       0.020534775         142.72805     0.00026869719        -20.530825
                   0.0003747011         -6.834654        0.02951554         63.659981     0.00043925099        -14.435039       0.034562743         141.77018
                    0.019772821         141.63696     0.00043639314        -9.4721412       0.033768076         51.169402     0.00034687717        -16.261075
                  0.00026254078        -13.891646       0.033683567         141.39517     0.00034029518        -15.849448       0.030651702         63.107838

0.725      0.088695749         99.867789     0.00032551468        -87.186103       0.074443478         91.822114     0.00022883457        -102.07581
                  0.00032397748        -86.670332        0.09447362         88.454309     0.00039136795        -96.299494       0.078102602         81.540974
                    0.073967215          91.39605     0.00038282435        -90.591465       0.085924647         97.870318     0.00030754195        -97.700508
                  0.00021687412        -93.226559        0.07748742         81.164279     0.00030080862         -96.99522       0.092176698         86.194578

0.75      0.037749937          148.4645     0.00039909028        -175.43029       0.038458124         154.58372     0.00029331803         168.95081
                  0.00039895045        -175.06684       0.056484218         148.91768     0.00047001662         177.06512       0.055550255         149.56167
                    0.037982132         155.69962     0.00046630052        -177.78649       0.042237564         157.97267     0.00037638833          174.0696
                  0.00028695219         176.81528       0.055293636         150.42798     0.00037017864         174.61096       0.057166455            150.71

0.775       0.16367329         113.48905      0.0002939595         99.002423        0.13628067         103.28651     0.00020289499         81.135941
