!$
! Info: Touchstone file created by Circ.  Input file=C2M_PCB_100ohms_0p5in_20230620_v3.circ
!$
# Hz S RI R 50
0	0.003302067	1.596912e-24	0.9966674	-1.306326e-24	0.0001258389	5.63987e-23	-0.00012212	1.497933e-20
	0.9966674	-1.161045e-24	0.003121069	3.066243e-26	-0.0001194451	1.465184e-20	-1.894044e-05	8.198436e-21
	0.000125839	5.643325e-23	-0.0001194451	1.465163e-20	0.003305443	2.137756e-24	0.9966808	-1.327759e-24
	-0.0001221199	1.497935e-20	-1.894047e-05	8.19851e-21	0.9966808	-1.344562e-24	0.003134371	5.840702e-25
1e+07	0.004557545	0.001402353	0.9946637	-0.03655458	0.000236928	0.00210594	-0.0002022862	-0.0005834557
	0.9946637	-0.03655458	0.004487374	0.001471981	-0.0002002509	-0.0005839723	0.0001838193	0.002152271
	0.000236928	0.00210594	-0.0002002509	-0.0005839723	0.004629842	0.001404014	0.9946051	-0.03658922
	-0.0002022862	-0.0005834557	0.0001838194	0.002152271	0.9946051	-0.03658922	0.004559623	0.001473696
2e+07	0.00556487	0.001812521	0.9916377	-0.07197584	0.0004346174	0.0041706	-0.0002847887	-0.001134867
	0.9916377	-0.07197583	0.005708954	0.001869142	-0.0002833388	-0.001135124	0.0005330702	0.00419885
	0.0004346655	0.004170515	-0.0002833116	-0.00113517	0.005623621	0.001791877	0.9915811	-0.07201161
	-0.0002847592	-0.001134909	0.0005330902	0.004198849	0.9915811	-0.07201161	0.005768404	0.001848741
3e+07	0.006282495	0.001805949	0.9876127	-0.1068502	0.0007465588	0.006174778	-0.0004103236	-0.001635968
	0.9876127	-0.1068502	0.006709503	0.001798407	-0.0004090783	-0.001635926	0.001039202	0.006147691
	0.0007465499	0.006174767	-0.0004090866	-0.001635924	0.006330121	0.001778438	0.9875576	-0.1068983
	-0.0004103331	-0.001635965	0.001039194	0.006147708	0.9875576	-0.1068983	0.006759627	0.001771404
4e+07	0.0068098	0.001644422	0.9824994	-0.1413921	0.001165213	0.008146951	-0.0005715172	-0.00211681
	0.9824994	-0.1413921	0.007593613	0.001535907	-0.0005703133	-0.002116431	0.001698735	0.008040572
	0.001165213	0.008146953	-0.0005703152	-0.002116429	0.006847732	0.001614148	0.9824449	-0.1414553
	-0.0005715187	-0.002116808	0.001698731	0.008040573	0.9824449	-0.1414553	0.007636127	0.001505808
5e+07	0.007195402	0.001396619	0.9762611	-0.1756246	0.001691471	0.01008986	-0.0007690959	-0.002581701
	0.9762611	-0.1756246	0.008416219	0.001146114	-0.0007677965	-0.002580996	0.002516824	0.009875073
	0.001691471	0.01008987	-0.0007677983	-0.002580996	0.0072243	0.001365838	0.9762059	-0.1757048
	-0.0007690979	-0.002581701	0.002516821	0.009875073	0.9762059	-0.1757048	0.008452717	0.001114798
6e+07	0.007462878	0.001094972	0.9688887	-0.2095351	0.002316105	0.01200059	-0.0009944316	-0.003032056
	0.9688887	-0.2095351	0.009200062	0.0006512719	-0.0009929636	-0.003031101	0.003485366	0.01164424
	0.002316104	0.01200059	-0.0009929617	-0.0030311	0.007483706	0.001065593	0.9688316	-0.2096339
	-0.0009944298	-0.003032056	0.003485369	0.01164424	0.9688316	-0.2096339	0.009231437	0.0006196999
7e+07	0.007624585	0.0007604192	0.9603824	-0.2430997	0.003038633	0.01387486	-0.001247952	-0.00346709
	0.9603824	-0.2430997	0.009953921	6.242178e-05	-0.001246295	-0.003465969	0.004602442	0.01333735
	0.003038632	0.01387486	-0.001246292	-0.00346597	0.007637984	0.0007337251	0.9603214	-0.243218
	-0.00124795	-0.003467092	0.004602445	0.01333735	0.9603214	-0.243218	0.00998123	3.153762e-05
8e+07	0.007688591	0.0004095995	0.9507499	-0.2762905	0.003857614	0.01570816	-0.001529411	-0.003885781
	0.9507499	-0.2762905	0.01068023	-0.0006130764	-0.001527558	-0.00388453	0.00586386	0.01494376
	0.003857614	0.01570816	-0.00152756	-0.003884528	0.007695236	0.000386678	0.9506829	-0.2764291
	-0.001529413	-0.003885779	0.005863858	0.01494376	0.9506829	-0.2764291	0.01070443	-0.000642421
9e+07	0.007661772	5.711418e-05	0.9399995	-0.3090775	0.004771113	0.01749619	-0.001838271	-0.004286967
	0.9399995	-0.3090775	0.01137855	-0.001368619	-0.001836221	-0.004285638	0.007264051	0.01645317
	0.004771113	0.01749619	-0.001836226	-0.00428563	0.007662506	3.933238e-05	0.9399254	-0.3092373
	-0.001838274	-0.004286958	0.00726405	0.01645318	0.9399254	-0.3092373	0.01140048	-0.001395713
1e+08	0.007552948	-0.0002795483	0.9281428	-0.3414353	0.005776753	0.01923371	-0.002173766	-0.004668835
	0.9281428	-0.3414353	0.01204886	-0.002192963	-0.002171529	-0.004667495	0.008796271	0.01785503
	0.005776753	0.01923371	-0.002171529	-0.004667496	0.00754935	-0.0002896933	0.9280581	-0.3416179
	-0.002173765	-0.004668836	0.008796272	0.01785503	0.9280581	-0.3416179	0.0120694	-0.002216238
1.1e+08	0.007379579	-0.000601228	0.9151729	-0.3733065	0.006868266	0.02091886	-0.002533458	-0.005031227
	0.9151729	-0.3733065	0.01272197	-0.003125577	-0.002529512	-0.005030794	0.0104502	0.01914278
	0.006868266	0.02091886	-0.002529511	-0.005030795	0.007368545	-0.0005969604	0.9150735	-0.3735074
	-0.002533457	-0.005031228	0.0104502	0.01914277	0.9150735	-0.3735074	0.01281007	-0.003140149
1.2e+08	0.007126438	-0.0009122848	0.9011368	-0.4046575	0.008046631	0.02254856	-0.002916885	-0.00537614
	0.9011368	-0.4046575	0.01333253	-0.004123006	-0.002912945	-0.005376672	0.01222208	0.02030842
	0.00804663	0.02254856	-0.002912944	-0.005376674	0.007116058	-0.0008995161	0.9010224	-0.404877
	-0.002916884	-0.005376141	0.01222208	0.02030841	0.9010224	-0.404877	0.01343596	-0.0041646
1.3e+08	0.006797185	-0.001194905	0.8860515	-0.4354623	0.00930864	0.02411805	-0.003324817	-0.005702123
	0.8860515	-0.4354623	0.01389806	-0.005178801	-0.003321448	-0.00570302	0.01410328	0.02134274
	0.00930864	0.02411805	-0.003321447	-0.005703021	0.006789411	-0.001177864	0.8859182	-0.4356987
	-0.003324816	-0.005702124	0.01410329	0.02134274	0.8859182	-0.4356987	0.01398948	-0.005240431
1.4e+08	0.006396728	-0.001437009	0.8699324	-0.4656887	0.01065116	0.02562398	-0.003757214	-0.006007631
	0.8699324	-0.4656887	0.01442234	-0.006294675	-0.003754378	-0.006008446	0.0160849	0.02223825
	0.01065116	0.02562398	-0.003754377	-0.006008447	0.006390965	-0.00141817	0.8697806	-0.4659414
	-0.003757214	-0.006007632	0.0160849	0.02223825	0.8697806	-0.4659414	0.01449509	-0.006363247
1.5e+08	0.005931302	-0.001629346	0.8528033	-0.4953062	0.01207084	0.02706289	-0.004213514	-0.006291217
	0.8528033	-0.4953062	0.01490351	-0.007471233	-0.004210992	-0.006291765	0.01815732	0.0229877
	0.01207084	0.02706289	-0.004210992	-0.006291766	0.005926262	-0.001609449	0.8526308	-0.4955732
	-0.004213514	-0.006291218	0.01815732	0.0229877	0.8526308	-0.4955732	0.01496026	-0.007537813
1.6e+08	0.005408026	-0.001763741	0.8346839	-0.5242832	0.01356432	0.02843152	-0.004692965	-0.006551618
	0.8346839	-0.5242832	0.01533751	-0.008707279	-0.004690576	-0.006551899	0.02031072	0.02358481
	0.01356432	0.02843152	-0.004690576	-0.0065519	0.005402548	-0.00174267	0.8344897	-0.524563
	-0.004692965	-0.006551618	0.02031072	0.02358481	0.8344897	-0.524563	0.01538383	-0.008767622
1.7e+08	0.004834203	-0.001833986	0.8155969	-0.552587	0.01512796	0.02972675	-0.005194654	-0.006787623
	0.8155969	-0.552587	0.01571983	-0.01000026	-0.005192253	-0.006787717	0.02253473	0.02402381
	0.01512796	0.02972675	-0.005192253	-0.006787717	0.004827535	-0.001811019	0.8153802	-0.5528782
	-0.005194654	-0.006787624	0.02253473	0.02402381	0.8153802	-0.5528782	0.0157611	-0.01005361
1.8e+08	0.004217542	-0.001834138	0.7955664	-0.5801876	0.01675817	0.03094579	-0.005717769	-0.006998175
	0.7955664	-0.5801876	0.01604644	-0.01134657	-0.005715318	-0.006998197	0.02481877	0.02429968
	0.01675817	0.03094579	-0.005715318	-0.006998197	0.004209284	-0.001808601	0.7953272	-0.5804896
	-0.005717769	-0.006998176	0.02481877	0.02429968	0.7953272	-0.5804896	0.01608694	-0.01139413
1.9e+08	0.003565633	-0.001760019	0.774618	-0.6070549	0.01845127	0.03208619	-0.00626142	-0.00718218
	0.774618	-0.6070549	0.01631372	-0.01274236	-0.006258926	-0.007182247	0.02715211	0.02440827
	0.01845127	0.03208619	-0.006258926	-0.007182247	0.003555842	-0.001730874	0.7743538	-0.6073655
	-0.00626142	-0.007182181	0.02715211	0.02440827	0.7743538	-0.6073655	0.01635627	-0.01278625
2e+08	0.002886317	-0.001607464	0.7527755	-0.6331604	0.02020334	0.03314523	-0.006824747	-0.007338562
	0.7527755	-0.6331604	0.01651856	-0.01418355	-0.006822276	-0.007338767	0.02952348	0.02434573
	0.02020334	0.03314523	-0.006822276	-0.007338767	0.002875235	-0.00157409	0.7524869	-0.6334779
	-0.006824747	-0.007338563	0.02952348	0.02434572	0.7524869	-0.6334779	0.01656469	-0.01422628
2.1e+08	0.002187689	-0.001373271	0.7300682	-0.6584728	0.02201049	0.03412079	-0.00740682	-0.007466202
	0.7300682	-0.6584728	0.01665845	-0.01566592	-0.007404443	-0.007466603	0.03192152	0.0241092
	0.02201049	0.03412079	-0.007404443	-0.007466603	0.002175656	-0.001335096	0.7297533	-0.6587962
	-0.00740682	-0.007466202	0.03192152	0.0241092	0.7297533	-0.6587962	0.01670876	-0.01570968
2.2e+08	0.001477686	-0.001055093	0.7065229	-0.6829659	0.02386881	0.03501091	-0.00800674	-0.007564024
	0.7065229	-0.6829659	0.01673101	-0.01718554	-0.008004566	-0.007564637	0.03433508	0.02369673
	0.02386881	0.03501091	-0.008004566	-0.007564637	0.001465139	-0.001011664	0.7061817	-0.6832945
	-0.00800674	-0.007564024	0.03433508	0.02369673	0.7061817	-0.6832945	0.01678521	-0.01723236
2.3e+08	0.0007643027	-0.0006511404	0.6821684	-0.706614	0.0257741	0.03581347	-0.008623434	-0.007630813
	0.6821684	-0.706614	0.0167339	-0.0187386	-0.008621551	-0.00763163	0.03675191	0.02310635
	0.0257741	0.03581347	-0.008621551	-0.00763163	0.0007517865	-0.0006021223	0.681801	-0.7069454
	-0.008623434	-0.007630813	0.03675191	0.02310635	0.681801	-0.7069454	0.01679147	-0.01878982
2.4e+08	5.608252e-05	-0.0001599972	0.6570349	-0.7293872	0.02772227	0.03652694	-0.009255851	-0.007665412
	0.6570349	-0.7293872	0.01666538	-0.02032102	-0.009254346	-0.007666413	0.03916058	0.0223376
	0.02772227	0.03652694	-0.009254346	-0.007666413	4.397949e-05	-0.0001052193	0.6566394	-0.7297203
	-0.009255851	-0.007665412	0.03916058	0.0223376	0.6566394	-0.7297203	0.01672551	-0.02037758
2.5e+08	-0.0006390669	0.0004185224	0.6311527	-0.7512639	0.02970918	0.03714976	-0.009902776	-0.007666596
	0.6311527	-0.7512639	0.01652364	-0.02192895	-0.00990175	-0.007667703	0.0415494	0.02139046
	0.02970918	0.03714976	-0.009901749	-0.007667703	-0.0006502117	0.000479373	0.6307287	-0.7515972
	-0.009902776	-0.007666596	0.0415494	0.02139046	0.6307287	-0.7515972	0.01658533	-0.02199148
2.6e+08	-0.00131273	0.001084321	0.6045538	-0.772218	0.03173075	0.03768093	-0.01056309	-0.007633305
	0.6045538	-0.772218	0.01630671	-0.02355864	-0.0105626	-0.007634492	0.04390644	0.02026561
	0.03173075	0.03768093	-0.0105626	-0.007634492	-0.001322491	0.00115128	0.6041022	-0.7725498
	-0.01056309	-0.007633306	0.04390644	0.02026561	0.6041022	-0.7725498	0.01636938	-0.02362728
2.7e+08	-0.001956679	0.001836769	0.5772708	-0.7922277	0.03378264	0.03811909	-0.01123537	-0.007564272
	0.5772708	-0.7922277	0.01601328	-0.02520595	-0.0112354	-0.007565397	0.04622004	0.01896446
	0.03378264	0.03811909	-0.0112354	-0.007565397	-0.001964654	0.001910014	0.5767891	-0.7925573
	-0.01123537	-0.007564272	0.04622004	0.01896446	0.5767891	-0.7925573	0.01607615	-0.02528079
2.8e+08	-0.002562918	0.002674073	0.5493359	-0.8112704	0.03586083	0.0384636	-0.01191819	-0.007458363
	0.5493359	-0.8112704	0.01564183	-0.02686695	-0.01191887	-0.007459393	0.04847887	0.01748941
	0.03586083	0.0384636	-0.01191887	-0.007459393	-0.002568518	0.002753763	0.5488253	-0.8115948
	-0.01191818	-0.007458363	0.04847887	0.01748941	0.5488253	-0.8115948	0.01570464	-0.0269478
2.9e+08	-0.003123499	0.003594188	0.5207844	-0.8293255	0.03796087	0.0387136	-0.01260982	-0.007314276
	0.5207844	-0.8293255	0.01519095	-0.0285375	-0.01261116	-0.007315156	0.050671	0.01584313
	0.03796087	0.0387136	-0.01261116	-0.007315156	-0.003126429	0.00368019	0.5202447	-0.8296444
	-0.01260982	-0.007314276	0.050671	0.01584313	0.5202447	-0.8296444	0.01525324	-0.02862434
3e+08	-0.003630711	0.004594288	0.4916507	-0.8463747	0.0400787	0.03886873	-0.01330893	-0.00713122
	0.4916507	-0.8463747	0.01465951	-0.03021345	-0.01331088	-0.007131799	0.05278543	0.01402937
	0.0400787	0.03886873	-0.01331088	-0.007131799	-0.003630372	0.004686828	0.4910812	-0.8466859
	-0.01330893	-0.00713122	0.05278543	0.01402937	0.4910812	-0.8466859	0.0147211	-0.0303062
3.1e+08	-0.004076982	0.005670896	0.4619696	-0.8623976	0.04221015	0.03892872	-0.01401349	-0.00690792
	0.4619696	-0.8623976	0.01404671	-0.03189045	-0.01401605	-0.006908132	0.05481106	0.01205247
	0.04221015	0.03892872	-0.01401605	-0.006908132	-0.004072767	0.005770069	0.4613695	-0.8626986
	-0.01401349	-0.00690792	0.05481106	0.01205247	0.4613695	-0.8626986	0.01410767	-0.03198898
3.2e+08	-0.004455071	0.006820199	0.4317751	-0.8773782	0.04435101	0.03889345	-0.01472175	-0.006643486
	0.4317751	-0.8773782	0.01335182	-0.03356413	-0.01472502	-0.006643305	0.05673715	0.009917415
	0.04435101	0.03889345	-0.01472502	-0.006643305	-0.004446468	0.00692583	0.4311468	-0.8776669
	-0.01472175	-0.006643486	0.05673715	0.009917415	0.4311468	-0.8776669	0.01341192	-0.03366859
3.3e+08	-0.004758041	0.008037377	0.401108	-0.8912997	0.04649718	0.03876299	-0.01543161	-0.006336929
	0.401108	-0.8912997	0.01257445	-0.0352301	-0.01543551	-0.006336234	0.05855322	0.0076299
	0.04649718	0.03876299	-0.01543551	-0.006336234	-0.004744529	0.008149563	0.4004486	-0.8915754
	-0.01543161	-0.006336929	0.05855322	0.007629899	0.4004486	-0.8915754	0.01263354	-0.03534058
3.4e+08	-0.004979259	0.009317568	0.3700008	-0.9041483	0.0486447	0.03853765	-0.01614113	-0.00598751
	0.3700008	-0.9041483	0.01171424	-0.03688395	-0.01614567	-0.005986205	0.06024939	0.005196211
	0.0486447	0.03853765	-0.01614567	-0.005986205	-0.004960236	0.009436137	0.3693127	-0.9044091
	-0.01614113	-0.00598751	0.06024939	0.00519621	0.3693127	-0.9044091	0.0117722	-0.03700061
3.5e+08	-0.005112643	0.01065501	0.3384928	-0.9159103	0.05078933	0.03821791	-0.016848	-0.005594423
	0.3384928	-0.9159103	0.01077113	-0.03852114	-0.01685325	-0.005592486	0.06181561	0.002623304
	0.05078933	0.03821791	-0.01685325	-0.005592486	-0.00508751	0.01077993	0.3377755	-0.916155
	-0.016848	-0.005594423	0.06181561	0.002623304	0.3377755	-0.916155	0.01082785	-0.03864414
3.6e+08	-0.005152515	0.01204345	0.3066231	-0.9265739	0.05292727	0.03780437	-0.01755007	-0.005157147
	0.3066231	-0.9265739	0.009745511	-0.04013722	-0.01755594	-0.00515444	0.06324287	-8.126245e-05
	0.05292727	0.03780437	-0.01755594	-0.00515444	-0.005120606	0.01217447	0.3058773	-0.9267995
	-0.01755007	-0.005157147	0.06324287	-8.126252e-05	0.3058773	-0.9267995	0.009800658	-0.04026671
3.7e+08	-0.005093377	0.01347661	0.2744271	-0.9361277	0.05505456	0.03729774	-0.01824488	-0.004675067
	0.2744271	-0.9361277	0.008637792	-0.04172762	-0.01825134	-0.004671501	0.06452227	-0.002909479
	0.05505456	0.03729774	-0.01825134	-0.004671501	-0.005054133	0.0136136	0.2736529	-0.9363339
	-0.01824488	-0.004675067	0.06452227	-0.002909479	0.2736529	-0.9363339	0.008691059	-0.04186378
3.8e+08	-0.004930545	0.01494721	0.2419461	-0.9445617	0.05716747	0.03669906	-0.01893	-0.00414785
	0.2419461	-0.9445617	0.007448796	-0.04328793	-0.01893704	-0.004143334	0.06564546	-0.005852599
	0.05716747	0.03669906	-0.01893704	-0.004143334	-0.004883295	0.01508979	0.2411445	-0.9447456
	-0.01893	-0.00414785	0.06564546	-0.005852599	0.2411445	-0.9447456	0.007499869	-0.04343086
3.9e+08	-0.004659602	0.01644831	0.2092162	-0.9518692	0.05926224	0.03600946	-0.01960291	-0.003575188
	0.2092162	-0.9518692	0.006179415	-0.04481367	-0.01961039	-0.003569605	0.06660479	-0.008901558
	0.05926224	0.03600946	-0.01961039	-0.003569605	-0.004603775	0.01659618	0.208387	-0.9520295
	-0.01960291	-0.003575188	0.06660479	-0.008901558	0.208387	-0.9520295	0.00622792	-0.04496343
4e+08	-0.004276814	0.01797184	0.1762779	-0.9580425	0.06133525	0.03523018	-0.02026106	-0.00295701
	0.1762779	-0.9580425	0.004830955	-0.04630047	-0.02026896	-0.002950246	0.0673931	-0.01204688
	0.06133525	0.03523018	-0.02026896	-0.002950246	-0.00421177	0.01812466	0.1754218	-0.9581777
	-0.02026106	-0.00295701	0.0673931	-0.01204688	0.1754218	-0.9581777	0.004876517	-0.04645711
4.1e+08	-0.003779144	0.01950985	0.1431706	-0.9630772	0.0633828	0.03436275	-0.02090168	-0.002293333
	0.1431706	-0.9630772	0.003404834	-0.04774395	-0.02091	-0.002285354	0.06800362	-0.01527833
	0.0633828	0.03436275	-0.02091	-0.002285354	-0.003704286	0.01966719	0.1422894	-0.9631852
	-0.02090168	-0.002293333	0.06800362	-0.01527833	0.1422894	-0.9631852	0.003447094	-0.04790745
4.2e+08	-0.003163684	0.02105435	0.1099328	-0.9669673	0.06540157	0.03340847	-0.0215222	-0.001584377
	0.1099328	-0.9669673	0.001902651	-0.04913983	-0.02153081	-0.001575047	0.06843042	-0.01858555
	0.06540157	0.03340847	-0.02153081	-0.001575047	-0.003078441	0.02121559	0.1090264	-0.9670471
	-0.0215222	-0.001584377	0.06843042	-0.01858555	0.1090264	-0.9670471	0.001941311	-0.0493102
4.3e+08	-0.002428594	0.02259671	0.07660399	-0.9697111	0.06738829	0.03236922	-0.02211987	-0.0008304925
	0.07660399	-0.9697111	0.0003265984	-0.05048394	-0.02212859	-0.0008197046	0.06866798	-0.02195773
	0.06738829	0.03236922	-0.02212859	-0.0008197046	-0.002332421	0.02276138	0.07567452	-0.9697616
	-0.02211987	-0.0008304925	0.06866798	-0.02195773	0.07567452	-0.9697616	0.0003612051	-0.05066103
4.4e+08	-0.001572439	0.02412832	0.04322367	-0.9713081	0.06933967	0.03124676	-0.0226918	-3.217521e-05
	0.04322367	-0.9713081	-0.001321267	-0.0517721	-0.02270073	-1.991119e-05	0.06871176	-0.02538396
	0.06933967	0.03124676	-0.02270073	-1.991119e-05	-0.001464806	0.02429576	0.04227162	-0.9713261
	-0.0226918	-3.21752e-05	0.06871176	-0.02538396	0.04227162	-0.9713261	-0.001291052	-0.05195587
4.5e+08	-0.0005943405	0.02564026	0.009831902	-0.971758	0.07125261	0.03004286	-0.02323527	0.0008098485
	0.009831902	-0.971758	-0.003038509	-0.05300067	-0.02324421	0.0008236926	0.06855759	-0.02885265
	0.07125261	0.03004286	-0.02324421	0.0008236926	-0.0004747468	0.02580998	0.008858693	-0.971743
	-0.02323527	0.0008098486	0.06855759	-0.02885265	0.008858693	-0.971743	-0.003013017	-0.05319089
4.6e+08	0.000505947	0.02712396	-0.02353361	-0.9710606	0.07312402	0.0287598	-0.02374756	0.001694738
	-0.02353361	-0.9710606	-0.004822529	-0.05416529	-0.02375642	0.001710211	0.06820217	-0.03235245
	0.07312402	0.0287598	-0.02375642	0.001710211	0.0006380283	0.02729505	-0.02452702	-0.9710102
	-0.02374756	0.001694738	0.06820217	-0.03235245	-0.02452702	-0.9710102	-0.004802013	-0.05436202
4.7e+08	0.0017279	0.02857028	-0.05683262	-0.9692191	0.07495118	0.02739953	-0.02422585	0.002621333
	-0.05683262	-0.9692191	-0.006670408	-0.05526272	-0.02423441	0.002638543	0.06764266	-0.03587125
	0.07495118	0.02739953	-0.02423441	0.002638543	0.001872852	0.02874226	-0.0578455	-0.9691341
	-0.02422585	0.002621333	0.06764266	-0.03587125	-0.0578455	-0.9691341	-0.006655379	-0.05546566
4.8e+08	0.003070311	0.02997031	-0.09002512	-0.9662384	0.07673124	0.02596437	-0.02466727	0.003588451
	-0.09002512	-0.9662384	-0.008579216	-0.05628904	-0.02467541	0.003607429	0.06687717	-0.03939724
	0.07673124	0.02596437	-0.02467541	0.003607429	0.003228632	0.03014207	-0.09105559	-0.9661154
	-0.02466727	0.003588451	0.06687717	-0.03939724	-0.09105559	-0.9661154	-0.008569768	-0.05649816
4.9e+08	0.004531629	0.03131544	-0.1230743	-0.962125	0.07846169	0.02445674	-0.02506938	0.004594607
	-0.1230743	-0.962125	-0.01054555	-0.05724114	-0.02507697	0.004615405	0.06590447	-0.04291825
	0.07846169	0.02445674	-0.02507697	0.004615405	0.004703605	0.03148631	-0.1241209	-0.9619627
	-0.02506938	0.004594607	0.06590447	-0.04291825	-0.1241209	-0.9619627	-0.01054203	-0.05745612
5e+08	0.006109563	0.03259657	-0.1559394	-0.9568823	0.08013995	0.02287881	-0.02542939	0.00563823
	-0.1559394	-0.9568823	-0.01256613	-0.0581158	-0.02543628	0.005660844	0.06472382	-0.04642237
	0.08013995	0.02287881	-0.02543628	0.005660844	0.006295434	0.03276573	-0.1570015	-0.9566806
	-0.02542939	0.00563823	0.06472382	-0.04642237	-0.1570015	-0.9566806	-0.01256882	-0.05833643
5.1e+08	0.007800997	0.03380533	-0.1885849	-0.9505204	0.08176372	0.02123316	-0.02574466	0.006717505
	-0.1885849	-0.9505204	-0.0146371	-0.0589097	-0.02575072	0.006741982	0.06333534	-0.04989718
	0.08176372	0.02123316	-0.02575072	0.006741982	0.008001118	0.03397177	-0.1896601	-0.9502772
	-0.02574466	0.006717505	0.06333534	-0.04989718	-0.1896601	-0.9502772	-0.01464619	-0.05913591
