!$
! Info: Touchstone file created by Circ.  Input file=C2M_PCB_100ohms_2p0in_20230620_v3.circ
!$
# Hz S RI R 50
0	0.00484761	2.015982e-24	0.9951219	-1.749242e-24	0.0001336194	6.436038e-23	-0.0001299062	1.595905e-20
	0.9951219	-1.604176e-24	0.004666517	4.897075e-25	-0.0001272353	1.563201e-20	-1.114444e-05	8.241196e-21
	0.0001336194	6.43948e-23	-0.0001272353	1.56318e-20	0.004850976	2.538597e-24	0.9951353	-1.73614e-24
	-0.0001299062	1.595907e-20	-1.114446e-05	8.241271e-21	0.9951353	-1.752922e-24	0.004679861	1.0041e-24
1e+07	0.006763728	0.00242841	0.9917831	-0.05182025	0.0003690216	0.002354437	-0.0002794936	-0.0005965541
	0.9917831	-0.05182025	0.006732272	0.002472888	-0.0002774729	-0.0005971182	0.0002750556	0.002406854
	0.0003690216	0.002354437	-0.0002774729	-0.0005971182	0.006859352	0.002427684	0.9917005	-0.05185337
	-0.0002794936	-0.0005965541	0.0002750557	0.002406854	0.9917005	-0.05185337	0.006827869	0.002472592
2e+07	0.00834754	0.003356008	0.9862684	-0.1018585	0.0007327816	0.004670193	-0.0003697318	-0.001180922
	0.9862684	-0.1018585	0.00863769	0.003336446	-0.0003683189	-0.001181245	0.0006756494	0.004726162
	0.0007328243	0.004670106	-0.0003682928	-0.001181291	0.008423397	0.00332279	0.9861929	-0.101883
	-0.0003697034	-0.001180965	0.0006756696	0.00472616	0.9861929	-0.101883	0.008714255	0.003304116
3e+07	0.009513623	0.003636501	0.9786597	-0.150924	0.001333114	0.00686566	-0.0005241463	-0.001683442
	0.9786597	-0.150924	0.01025164	0.003466471	-0.0005229538	-0.001683475	0.001283148	0.00691019
	0.001333104	0.006865649	-0.0005229619	-0.001683473	0.009573301	0.003592505	0.9785891	-0.150957
	-0.0005241557	-0.001683439	0.001283139	0.006910206	0.9785891	-0.150957	0.0103137	0.003423815
4e+07	0.0104114	0.003667963	0.9688347	-0.19929	0.002158992	0.008974263	-0.0007351764	-0.002150023
	0.9688347	-0.19929	0.01172108	0.003263888	-0.0007340334	-0.002149725	0.002092698	0.009011742
	0.002158992	0.008974265	-0.0007340351	-0.002149722	0.01045698	0.00361913	0.9687669	-0.1993357
	-0.0007351778	-0.002150021	0.002092695	0.009011744	0.9687669	-0.1993357	0.01177087	0.003216185
5e+07	0.0111071	0.003558522	0.9567605	-0.2469402	0.003227307	0.01098587	-0.001022911	-0.002579519
	0.9567605	-0.2469402	0.0131099	0.002823136	-0.001021674	-0.002578901	0.003125514	0.01101515
	0.003227307	0.01098587	-0.001021676	-0.002578901	0.01113984	0.003508293	0.9566933	-0.2470013
	-0.001022913	-0.002579518	0.003125511	0.01101515	0.9566933	-0.2470013	0.01314942	0.002773347
6e+07	0.01163392	0.003364167	0.942445	-0.293807	0.004490916	0.01288903	-0.001346363	-0.002978832
	0.942445	-0.293807	0.0144409	0.002180766	-0.001344956	-0.002977972	0.004339212	0.01291821
	0.004490915	0.01288903	-0.001344954	-0.002977971	0.01165538	0.003315277	0.9423761	-0.2938856
	-0.001346361	-0.002978832	0.004339215	0.01291821	0.9423761	-0.2938856	0.01447141	0.002130654
7e+07	0.01201125	0.003122603	0.9259123	-0.339806	0.005941714	0.01466819	-0.001704612	-0.003346697
	0.9259123	-0.339806	0.01571925	0.001356468	-0.001703014	-0.003345675	0.005727521	0.01470671
	0.005941714	0.01466819	-0.001703011	-0.003345677	0.0120227	0.003077027	0.9258389	-0.339903
	-0.00170461	-0.003346699	0.005727523	0.01470671	0.9258389	-0.339903	0.01574221	0.001307622
8e+07	0.01225389	0.002863856	0.9071998	-0.384847	0.007569472	0.01630801	-0.002095895	-0.003681428
	0.9071998	-0.384847	0.01694227	0.0003641279	-0.002094094	-0.003680279	0.007281284	0.01636673
	0.007569472	0.01630801	-0.002094096	-0.003680277	0.01225667	0.002823256	0.9071189	-0.3849633
	-0.002095897	-0.003681426	0.007281282	0.01636673	0.9071189	-0.3849633	0.01695904	0.000317955
9e+07	0.01237601	0.002613756	0.8863497	-0.4288382	0.009362461	0.01779381	-0.002517972	-0.003981023
	0.8863497	-0.4288382	0.01810393	-0.0007837451	-0.002515963	-0.003979798	0.008989363	0.01788507
	0.00936246	0.01779381	-0.002515967	-0.003979789	0.01237177	0.002579966	0.8862591	-0.4289747
	-0.002517974	-0.003981014	0.008989362	0.01788508	0.8862591	-0.4289747	0.01811587	-0.000826018
1e+08	0.01239615	0.002400998	0.863409	-0.4716955	0.01130711	0.0191094	-0.002967505	-0.004241621
	0.863409	-0.4716955	0.01920077	-0.002068469	-0.002965299	-0.004240387	0.01083798	0.01924798
	0.01130711	0.0191094	-0.002965298	-0.004240388	0.01238778	0.00237698	0.8633039	-0.4718537
	-0.002967505	-0.004241622	0.01083798	0.01924798	0.8633039	-0.4718537	0.01920961	-0.002104609
1.1e+08	0.01234757	0.002218809	0.8384083	-0.5132856	0.01337986	0.02024942	-0.003435959	-0.004468943
	0.8384083	-0.5132856	0.02026179	-0.003539741	-0.003432242	-0.004468852	0.01280899	0.02045474
	0.01337986	0.02024942	-0.003432241	-0.004468853	0.01233644	0.002211737	0.8382831	-0.5134591
	-0.003435958	-0.004468944	0.01280899	0.02045474	0.8382831	-0.5134591	0.02033772	-0.003565993
1.2e+08	0.01220471	0.002071713	0.8114571	-0.553523	0.01557693	0.02120492	-0.003929634	-0.004664383
	0.8114571	-0.553523	0.02119977	-0.005141306	-0.003926106	-0.004665217	0.01489998	0.02149347
	0.01557693	0.02120492	-0.003926106	-0.004665219	0.01219716	0.002072778	0.8113114	-0.5537109
	-0.003929633	-0.004664384	0.01489998	0.02149347	0.8113114	-0.5537109	0.02129011	-0.005193812
1.3e+08	0.01198294	0.001986496	0.7826192	-0.5923301	0.01788188	0.02196308	-0.004447085	-0.004824116
	0.7826192	-0.5923301	0.02202895	-0.006857273	-0.004444193	-0.004825172	0.01709497	0.02235306
	0.01788188	0.02196308	-0.004444193	-0.004825173	0.01197962	0.001990646	0.7824493	-0.5925294
	-0.004447085	-0.004824117	0.01709497	0.02235306	0.7824493	-0.5925294	0.02210616	-0.006929099
1.4e+08	0.01169802	0.001979479	0.7519631	-0.6296225	0.02027825	0.02251503	-0.00498655	-0.004945772
	0.7519631	-0.6296225	0.02274814	-0.008681784	-0.00498416	-0.004946606	0.01937861	0.023026
	0.02027825	0.02251503	-0.00498416	-0.004946607	0.01169755	0.001984321	0.751769	-0.6298318
	-0.00498655	-0.004945773	0.01937861	0.023026	0.751769	-0.6298318	0.02280549	-0.008759799
1.5e+08	0.01136679	0.002061863	0.7195674	-0.6653209	0.02274881	0.0228532	-0.005545795	-0.005027441
	0.7195674	-0.6653209	0.02335088	-0.01060784	-0.005543642	-0.005027903	0.02173499	0.02350589
	0.02274881	0.0228532	-0.005543642	-0.005027904	0.01136776	0.00206702	0.7193473	-0.6655371
	-0.005545795	-0.005027442	0.02173499	0.02350589	0.7193473	-0.6655371	0.02339096	-0.01068302
1.6e+08	0.01100715	0.002241723	0.6855107	-0.6993468	0.02527602	0.02297146	-0.006122426	-0.005067573
	0.6855107	-0.6993468	0.02382891	-0.01262641	-0.006120319	-0.005067698	0.02414815	0.02378812
	0.02527602	0.02297146	-0.006120319	-0.005067698	0.01100858	0.002247665	0.6852636	-0.6995676
	-0.006122426	-0.005067574	0.02414815	0.02378812	0.6852636	-0.6995676	0.02385724	-0.01269438
1.7e+08	0.01063669	0.002523588	0.6498771	-0.7316244	0.02784174	0.02286511	-0.00671389	-0.005064831
	0.6498771	-0.7316244	0.02417412	-0.01472676	-0.00671169	-0.005064722	0.02660178	0.02386935
	0.02784174	0.02286511	-0.00671169	-0.005064723	0.01063834	0.002531212	0.6496026	-0.7318473
	-0.00671389	-0.005064831	0.02660178	0.02386935	0.6496026	-0.7318473	0.02419608	-0.01478663
1.8e+08	0.01027348	0.002909926	0.6127544	-0.7620836	0.03042782	0.02253098	-0.007317743	-0.005018092
	0.6127544	-0.7620836	0.02437961	-0.01689687	-0.007315428	-0.00501787	0.02907964	0.02374766
	0.03042782	0.02253098	-0.007315428	-0.00501787	0.01027544	0.002919945	0.6124524	-0.7623073
	-0.007317743	-0.005018093	0.02907964	0.02374766	0.6124524	-0.7623073	0.0243995	-0.01694969
1.9e+08	0.009934623	0.00340015	0.5742341	-0.7906579	0.03301601	0.02196743	-0.00793144	-0.004926316
	0.5742341	-0.7906579	0.0244396	-0.0191242	-0.007929034	-0.004926085	0.03156569	0.0234227
	0.03301601	0.02196743	-0.007929034	-0.004926086	0.009937643	0.003413347	0.5739028	-0.7908788
	-0.00793144	-0.004926316	0.03156569	0.0234227	0.5739028	-0.7908788	0.02446026	-0.01917192
2e+08	0.009637292	0.003992017	0.534408	-0.8172852	0.03558768	0.02117393	-0.008552454	-0.004788556
	0.534408	-0.8172852	0.02434957	-0.02139582	-0.008550031	-0.004788386	0.03404379	0.02289504
	0.03558768	0.02117393	-0.008550031	-0.004788386	0.009642099	0.004008676	0.5340486	-0.8175012
	-0.008552454	-0.004788556	0.03404379	0.02289504	0.5340486	-0.8175012	0.02437261	-0.02144075
2.1e+08	0.009398037	0.004680863	0.493376	-0.8419061	0.03812454	0.02015165	-0.009178154	-0.004603925
	0.493376	-0.8419061	0.0241065	-0.02369842	-0.009175785	-0.004603847	0.03649817	0.02216686
	0.03812454	0.02015165	-0.009175785	-0.004603847	0.009405445	0.004701122	0.492987	-0.8421147
	-0.009178154	-0.004603925	0.03649817	0.02216686	0.492987	-0.8421147	0.02413258	-0.02374261
2.2e+08	0.009232333	0.005460009	0.4512363	-0.8644684	0.04060849	0.0189031	-0.009805932	-0.004371656
	0.4512363	-0.8644684	0.02370828	-0.026019	-0.009803707	-0.004371651	0.03891384	0.02124172
	0.04060849	0.0189031	-0.009803707	-0.004371651	0.009243174	0.005483792	0.4508182	-0.8646682
	-0.009805932	-0.004371656	0.03891384	0.02124172	0.4508182	-0.8646682	0.02373723	-0.02606432
2.3e+08	0.009154754	0.006320994	0.4080905	-0.884925	0.04302135	0.01743204	-0.01043295	-0.004090993
	0.4080905	-0.884925	0.02315373	-0.0283447	-0.01043093	-0.004091022	0.04127536	0.02012367
	0.04302135	0.01743204	-0.01043093	-0.004091022	0.009169875	0.006348011	0.4076443	-0.8851131
	-0.01043295	-0.004090993	0.04127536	0.02012367	0.4076443	-0.8851131	0.02318518	-0.02839229
2.4e+08	0.009179324	0.007253476	0.3640443	-0.9032292	0.04534561	0.01574375	-0.01105639	-0.003761317
	0.3640443	-0.9032292	0.02244316	-0.03066234	-0.01105463	-0.003761333	0.0435687	0.01881868
	0.04534561	0.01574375	-0.01105463	-0.003761333	0.009199325	0.007283353	0.3635689	-0.903403
	-0.01105639	-0.003761317	0.0435687	0.01881868	0.3635689	-0.903403	0.02247641	-0.030713
2.5e+08	0.009317915	0.008245425	0.3192024	-0.9193457	0.04756413	0.01384469	-0.01167323	-0.003382099
	0.3192024	-0.9193457	0.02157766	-0.0329593	-0.01167178	-0.003381997	0.04578034	0.01733343
	0.04756413	0.01384469	-0.01167178	-0.003381997	0.00934359	0.008277744	0.3186982	-0.9195029
	-0.01167323	-0.003382099	0.04578034	0.01733343	0.3186982	-0.9195029	0.02161189	-0.03301349
2.6e+08	0.009581573	0.009283255	0.2736736	-0.9332397	0.04966059	0.01174277	-0.01228058	-0.002953031
	0.2736736	-0.9332397	0.02055905	-0.03522319	-0.01227946	-0.002952767	0.04789726	0.0156756
	0.04966059	0.01174277	-0.01227946	-0.002952767	0.009613417	0.009317423	0.2731426	-0.9333784
	-0.01228058	-0.002953031	0.04789726	0.0156756	0.2731426	-0.9333784	0.02059392	-0.03528092
2.7e+08	0.009979721	0.01035219	0.2275668	-0.9448845	0.05161884	0.009446843	-0.01287518	-0.002473826
	0.2275668	-0.9448845	0.01939068	-0.03744164	-0.01287429	-0.002473284	0.04990746	0.01385374
	0.05161884	0.009446843	-0.01287429	-0.002473284	0.01001827	0.01038769	0.2270074	-0.9450023
	-0.01287518	-0.002473826	0.04990746	0.01385374	0.2270074	-0.9450023	0.01942554	-0.03750289
2.8e+08	0.01051959	0.01143601	0.1809917	-0.9542567	0.053424	0.00696709	-0.01345382	-0.001944431
	0.1809917	-0.9542567	0.01807644	-0.03960285	-0.01345325	-0.001943543	0.05180008	0.0118775
	0.053424	0.00696709	-0.01345325	-0.001943543	0.01056547	0.01147215	0.1804066	-0.9543506
	-0.01345382	-0.001944431	0.05180008	0.0118775	0.1804066	-0.9543506	0.01811134	-0.03966728
2.9e+08	0.01120686	0.01251775	0.1340607	-0.9613397	0.05506146	0.00431477	-0.01401294	-0.00136488
	0.1340607	-0.9613397	0.01662122	-0.04169534	-0.01401264	-0.001363606	0.05356447	0.009756745
	0.05506146	0.00431477	-0.01401264	-0.001363606	0.01126025	0.0125538	0.1334504	-0.9614087
	-0.01401294	-0.00136488	0.05356447	0.009756745	0.1334504	-0.9614087	0.01665592	-0.04176289
3e+08	0.01204513	0.01357957	0.08688452	-0.966123	0.05651794	0.001502108	-0.01454955	-0.0007356321
	0.08688452	-0.966123	0.01503085	-0.04370823	-0.01454939	-0.000733872	0.05519172	0.007502369
	0.05651794	0.001502108	-0.01454939	-0.000733872	0.01210662	0.0136148	0.08624994	-0.9661641
	-0.01454955	-0.0007356321	0.05519172	0.007502369	0.08624994	-0.9661641	0.01506545	-0.04377872
3.1e+08	0.01303596	0.01460303	0.03957552	-0.9685982	0.057781	-0.001457705	-0.01505984	-5.711006e-05
	0.03957552	-0.9685982	0.01331223	-0.04563098	-0.01505977	-5.482495e-05	0.05667356	0.005125673
	0.057781	-0.001457705	-0.01505977	-5.482501e-05	0.01310598	0.01463657	0.03891779	-0.9686082
	-0.01505984	-5.711012e-05	0.05667356	0.005125673	0.03891779	-0.9686082	0.01334708	-0.0457042
3.2e+08	0.01417894	0.01556954	-0.007756291	-0.9687647	0.05883914	-0.004550617	-0.01554045	0.0006699118
	-0.007756291	-0.9687647	0.0114729	-0.04745381	-0.01554051	0.0006727522	0.05800292	0.002638314
	0.05883914	-0.004550617	-0.01554051	0.0006727522	0.01425764	0.0156004	-0.008433485	-0.9687421
	-0.01554045	0.0006699117	0.05800292	0.002638314	-0.008433485	-0.9687421	0.01150811	-0.04752992
3.3e+08	0.01547124	0.01646014	-0.05499513	-0.9666282	0.05968194	-0.007761811	-0.0159877	0.00144446
	-0.05499513	-0.9666282	0.009521443	-0.04916775	-0.01598774	0.001447901	0.05917376	5.231592e-05
	0.05968194	-0.007761811	-0.01598774	0.001447901	0.0155589	0.01648747	-0.05569312	-0.9665706
	-0.0159877	0.00144446	0.05917376	5.231582e-05	-0.05569312	-0.9665706	0.009557114	-0.04924682
3.4e+08	0.01690828	0.01725627	-0.102034	-0.9621972	0.06030028	-0.01107583	-0.01639818	0.002265295
	-0.102034	-0.9621972	0.007466766	-0.05076453	-0.01639815	0.002269385	0.06018126	-0.002620132
	0.06030028	-0.01107583	-0.01639815	0.002269385	0.01700495	0.01727897	-0.1027489	-0.9621034
	-0.01639818	0.002265295	0.06018126	-0.002620132	-0.1027489	-0.9621034	0.007503152	-0.0508468
3.5e+08	0.01848293	0.01793963	-0.1487607	-0.9554874	0.06068593	-0.01447635	-0.0167682	0.003130945
	-0.1487607	-0.9554874	0.00531865	-0.05223675	-0.01676814	0.0031357	0.06102118	-0.005366693
	0.06068593	-0.01447635	-0.01676814	0.0031357	0.01858872	0.01795667	-0.1494915	-0.9553558
	-0.0167682	0.003130945	0.06102118	-0.005366693	-0.1494915	-0.9553558	0.005355935	-0.05232244
3.6e+08	0.02018604	0.0184925	-0.1950648	-0.9465203	0.06083209	-0.01794686	-0.01709441	0.004039646
	-0.1950648	-0.9465203	0.003087614	-0.05357799	-0.01709416	0.004045097	0.06169092	-0.008175008
	0.06083209	-0.01794686	-0.01709416	0.004045097	0.02030081	0.01850266	-0.1958085	-0.9463482
	-0.01709441	0.004039646	0.06169092	-0.008175008	-0.1958085	-0.9463482	0.003125834	-0.05366734
3.7e+08	0.02200686	0.01889796	-0.2408403	-0.9353194	0.06073298	-0.02147025	-0.0173732	0.004989446
	-0.2408403	-0.9353194	0.0007843756	-0.05478261	-0.01737269	0.004995615	0.0621885	-0.0110329
	0.06073298	-0.02147025	-0.01737269	0.004995615	0.02213048	0.01890018	-0.2415957	-0.9351062
	-0.0173732	0.004989446	0.0621885	-0.0110329	-0.2415957	-0.9351062	0.0008235105	-0.05487596
3.8e+08	0.02393208	0.0191401	-0.2859779	-0.9219165	0.06038428	-0.02502916	-0.01760122	0.005978064
	-0.2859779	-0.9219165	-0.001579662	-0.05584622	-0.01760037	0.005984965	0.06251309	-0.01392819
	0.06038428	-0.02502916	-0.01760037	0.005984965	0.02406416	0.01913311	-0.2867416	-0.9216599
	-0.01760122	0.005978064	0.06251309	-0.01392819	-0.2867416	-0.9216599	-0.001539564	-0.05594382
3.9e+08	0.02594727	0.01920437	-0.3303756	-0.9063471	0.05978282	-0.02860588	-0.01777513	0.007003036
	-0.3303756	-0.9063471	-0.003993138	-0.05676529	-0.01777377	0.00701065	0.06266481	-0.01684914
	0.05978282	-0.02860588	-0.01777377	0.00701065	0.02608738	0.01918703	-0.3311463	-0.9060458
	-0.01777513	0.007003036	0.06266481	-0.01684914	-0.3311463	-0.9060458	-0.003952165	-0.0568674
4e+08	0.02803554	0.01907739	-0.373929	-0.8886519	0.05892669	-0.03218263	-0.01789177	0.008061592
	-0.373929	-0.8886519	-0.006444181	-0.05753745	-0.01788982	0.00806994	0.06264474	-0.0197844
	0.05892669	-0.03218263	-0.01788982	0.00806994	0.02818315	0.01904851	-0.3747038	-0.8883046
	-0.01789177	0.008061592	0.06264474	-0.0197844	-0.3747038	-0.8883046	-0.006402402	-0.05764437
4.1e+08	0.03017876	0.01874774	-0.4165375	-0.8688772	0.05781527	-0.03574135	-0.01794795	0.009150669
	-0.4165375	-0.8688772	-0.008921022	-0.05816137	-0.01794543	0.00915974	0.06245455	-0.02272275
	0.05781527	-0.03574135	-0.01794543	0.00915974	0.03033315	0.01870616	-0.417313	-0.8684831
	-0.01794795	0.009150669	0.06245455	-0.02272275	-0.417313	-0.8684831	-0.008878477	-0.05827338
4.2e+08	0.03235774	0.01820539	-0.4581028	-0.8470712	0.05644903	-0.0392644	-0.01794088	0.01026708
	-0.4581028	-0.8470712	-0.0114119	-0.05863672	-0.01793761	0.01027685	0.06209689	-0.02565363
	0.05644903	-0.0392644	-0.01793761	0.01027685	0.03251796	0.01814995	-0.4588772	-0.8466293
	-0.01794088	0.01026708	0.06209689	-0.02565363	-0.4588772	-0.8466293	-0.01136864	-0.05875411
4.3e+08	0.03455151	0.01744253	-0.4985295	-0.8232893	0.05483	-0.04273405	-0.01786777	0.01140732
	-0.4985295	-0.8232893	-0.01390482	-0.05896432	-0.01786357	0.01141772	0.06157494	-0.02856702
	0.05483	-0.04273405	-0.01786357	0.01141772	0.03471665	0.01737219	-0.4992993	-0.8228001
	-0.01786777	0.01140732	0.06157494	-0.02856702	-0.4992993	-0.8228001	-0.01386106	-0.05908735
4.4e+08	0.03673836	0.01645329	-0.5377253	-0.7975915	0.0529612	-0.04613273	-0.01772592	0.01256765
	-0.5377253	-0.7975915	-0.0163884	-0.05914595	-0.01772089	0.0125787	0.06089279	-0.03145366
	0.0529612	-0.04613273	-0.01772089	0.0125787	0.03690723	0.01636701	-0.538487	-0.7970527
	-0.01772592	0.01256765	0.06089279	-0.03145366	-0.538487	-0.7970527	-0.0163442	-0.0592749
4.5e+08	0.03889552	0.01523382	-0.5755998	-0.7700412	0.05084674	-0.04944325	-0.01751301	0.01374416
	-0.5755998	-0.7700412	-0.01885132	-0.05918483	-0.01750699	0.01375578	0.0600548	-0.03430454
	0.05084674	-0.04944325	-0.01750699	0.01375578	0.03906704	0.01513072	-0.5763507	-0.7694533
	-0.01751301	0.01374416	0.0600548	-0.03430454	-0.5763507	-0.7694533	-0.01880686	-0.05931992
4.6e+08	0.04100008	0.01378267	-0.6120666	-0.7407036	0.04849226	-0.05264856	-0.01722691	0.01493278
	-0.6120666	-0.7407036	-0.02128271	-0.05908424	-0.01721982	0.01494491	0.059066	-0.0371117
	0.04849226	-0.05264856	-0.01721982	0.01494491	0.04117271	0.0136618	-0.6128035	-0.7400656
	-0.01722691	0.01493278	0.059066	-0.0371117	-0.6128035	-0.7400656	-0.02123806	-0.05922595
4.7e+08	0.04302818	0.01210072	-0.6470423	-0.7096512	0.04590418	-0.05573241	-0.01686571	0.01612911
	-0.6470423	-0.7096512	-0.02367209	-0.0588495	-0.01685737	0.01614165	0.05793155	-0.03986741
	0.04590418	-0.05573241	-0.01685737	0.01614165	0.04320066	0.01196142	-0.6477637	-0.7089644
	-0.01686571	0.01612911	0.05793155	-0.03986741	-0.6477637	-0.7089644	-0.02362773	-0.05899802
4.8e+08	0.04495599	0.01019128	-0.6804468	-0.6769603	0.04309018	-0.05867875	-0.01642758	0.01732862
	-0.6804468	-0.6769603	-0.02600977	-0.05848603	-0.01641794	0.01734149	0.05665721	-0.04256504
	0.04309018	-0.05867875	-0.01641794	0.01734149	0.04512647	0.01003278	-0.6811481	-0.6762236
	-0.01642758	0.01732862	0.05665721	-0.04256504	-0.6811481	-0.6762236	-0.02596565	-0.05864178
4.9e+08	0.04676011	0.008059863	-0.7122068	-0.6427094	0.04005906	-0.06147233	-0.01591132	0.01852678
	-0.7122068	-0.6427094	-0.02828649	-0.05800057	-0.01590031	0.01853992	0.05524883	-0.04519836
	0.04005906	-0.06147233	-0.01590031	0.01853992	0.04692704	0.007881759	-0.7128847	-0.6419232
	-0.01591132	0.01852678	0.05524883	-0.04519836	-0.7128847	-0.6419232	-0.02824292	-0.05816375
5e+08	0.04841681	0.005714373	-0.7422463	-0.6069795	0.03682026	-0.06409837	-0.01531565	0.01971876
	-0.7422463	-0.6069795	-0.03049377	-0.05740049	-0.01530323	0.01973204	0.05371229	-0.04776224
	0.03682026	-0.06409837	-0.01530323	0.01973204	0.04857847	0.005516387	-0.7428991	-0.6061446
	-0.01531565	0.01971876	0.05371229	-0.04776224	-0.7428991	-0.6061446	-0.0304511	-0.05757137
5.1e+08	0.04990349	0.003165386	-0.7705009	-0.569856	0.03338446	-0.06654291	-0.01463966	0.02089958
	-0.7705009	-0.569856	-0.03262382	-0.05669343	-0.01462577	0.02091293	0.05205362	-0.05025166
	0.03338446	-0.06654291	-0.01462577	0.02091293	0.05005796	0.002947219	-0.7711241	-0.5689729
	-0.01463966	0.02089958	0.05205362	-0.05025166	-0.7711241	-0.5689729	-0.03258222	-0.05687249
5.2e+08	0.05119797	0.0004251892	-0.7969053	-0.5314281	0.02976325	-0.06879302	-0.01388281	0.02206424
	-0.7969053	-0.5314281	-0.03466993	-0.0558885	-0.01386734	0.02207749	0.05027912	-0.05266287
