!$
! Info: Touchstone file created by Circ.  Input file=C2M_PCB_100ohms_9p0in_20230620_v3.circ
!$
# Hz S RI R 50
0	0.01199721	3.912418e-24	0.9879726	-3.76715e-24	0.0001692789	1.007319e-22	-0.0001655925	2.044927e-20
	0.9879726	-3.62307e-24	0.01181568	2.593768e-24	-0.0001629398	2.012432e-20	2.458686e-05	8.438983e-21
	0.0001692789	1.007658e-22	-0.0001629398	2.012411e-20	0.01200053	4.35209e-24	0.9879858	-3.596053e-24
	-0.0001655925	2.04493e-20	2.458684e-05	8.439056e-21	0.9879858	-3.61274e-24	0.01182922	2.929385e-24
1e+07	0.01729643	0.006248363	0.9753984	-0.1218935	0.001071046	0.003438701	-0.0006392555	-0.0006094753
	0.9753984	-0.1218935	0.01743255	0.006161918	-0.0006373257	-0.0006102532	0.0007920316	0.003535488
	0.001071046	0.003438701	-0.0006373257	-0.0006102532	0.01749674	0.006226797	0.9752081	-0.1219097
	-0.0006392555	-0.0006094753	0.0007920316	0.003535488	0.9752081	-0.1219097	0.01763305	0.006142514
2e+07	0.02211391	0.008139683	0.9497144	-0.2373672	0.00246726	0.006685267	-0.0007943212	-0.001288365
	0.9497144	-0.2373672	0.02300377	0.007662041	-0.0007931283	-0.001288931	0.001729481	0.006988125
	0.002467276	0.006685174	-0.0007931084	-0.001288981	0.0222555	0.008036518	0.949563	-0.2373265
	-0.0007942985	-0.001288412	0.001729502	0.006988122	0.949563	-0.2373265	0.02314656	0.007562741
3e+07	0.02584751	0.007983719	0.9118457	-0.347336	0.004708438	0.009227348	-0.001085681	-0.001722662
	0.9118457	-0.347336	0.02776909	0.006741084	-0.001084779	-0.001722895	0.003231282	0.009980677
	0.004708425	0.009227343	-0.001084786	-0.001722891	0.02593974	0.007854017	0.9117229	-0.3472855
	-0.00108569	-0.001722658	0.003231273	0.009980694	0.9117229	-0.3472855	0.02786412	0.006616675
4e+07	0.02879439	0.00689416	0.8620233	-0.4513795	0.007632487	0.01100411	-0.001490274	-0.002023663
	0.8620233	-0.4513795	0.03190364	0.004443025	-0.001489407	-0.002023489	0.005224073	0.01255298
	0.007632488	0.01100411	-0.001489408	-0.002023486	0.02884342	0.006755941	0.8619218	-0.4513327
	-0.001490274	-0.00202366	0.005224069	0.01255298	0.8619218	-0.4513327	0.03195671	0.004310842
5e+07	0.03105241	0.005242787	0.8008641	-0.5484004	0.01114034	0.01183422	-0.002079999	-0.002127542
	0.8008641	-0.5484004	0.03536788	0.001095355	-0.002078929	-0.002126983	0.00769204	0.01455665
	0.01114034	0.01183422	-0.002078931	-0.002126982	0.03106418	0.005107552	0.8007764	-0.5483644
	-0.00208	-0.00212754	0.007692036	0.01455665	0.8007764	-0.5483644	0.03538502	0.0009663931
6e+07	0.03268576	0.00326709	0.7291963	-0.6372623	0.0148322	0.01168899	-0.00266909	-0.002116251
	0.7291963	-0.6372623	0.03807199	-0.003076815	-0.002667662	-0.002115418	0.01036886	0.01603964
	0.0148322	0.011689	-0.00266766	-0.002115419	0.03266726	0.003142771	0.729115	-0.6372414
	-0.002669089	-0.002116252	0.01036886	0.01603964	0.729115	-0.6372414	0.03805915	-0.003195007
7e+07	0.03375779	0.001140765	0.6480073	-0.7168864	0.01846471	0.01053952	-0.003245374	-0.002001276
	0.6480073	-0.7168864	0.03992407	-0.007868507	-0.00324349	-0.002000311	0.01314218	0.01698915
	0.01846471	0.01053952	-0.003243488	-0.002000313	0.03371605	0.001032718	0.6479245	-0.7168819
	-0.003245373	-0.002001279	0.01314218	0.01698914	0.6479245	-0.7168819	0.03988782	-0.007970294
8e+07	0.03434368	-0.001004677	0.5584172	-0.7862973	0.02179032	0.008413874	-0.003799165	-0.001792716
	0.5584172	-0.7862973	0.04085367	-0.01307354	-0.003796745	-0.001791759	0.01589857	0.01741735
	0.02179032	0.008413874	-0.003796746	-0.001791756	0.03428597	-0.001093229	0.558325	-0.7863087
	-0.003799165	-0.001792713	0.01589857	0.01741735	0.558325	-0.7863087	0.04080087	-0.01315503
9e+07	0.03453037	-0.003074428	0.4616525	-0.8446442	0.02457114	0.00539698	-0.004322445	-0.001498648
	0.4616525	-0.8446442	0.04082377	-0.01848167	-0.004319466	-0.001497882	0.01853008	0.01736138
	0.02457114	0.00539698	-0.004319464	-0.001497873	0.03446444	-0.003142137	0.4615439	-0.8446702
	-0.004322442	-0.00149864	0.01853008	0.01736139	0.4615439	-0.8446702	0.04076162	-0.01854067
1e+08	0.03442428	-0.005002862	0.3590128	-0.8912256	0.02658616	0.001623331	-0.004800876	-0.001122187
	0.3590128	-0.8912256	0.03985025	-0.02387944	-0.004797399	-0.001121817	0.02093445	0.01688064
	0.02658616	0.001623331	-0.004797399	-0.001121818	0.0343599	-0.005049955	0.3588768	-0.8912628
	-0.004800876	-0.001122188	0.02093445	0.01688064	0.3588768	-0.8912628	0.03978748	-0.02391456
1.1e+08	0.03410426	-0.006848008	0.2519131	-0.9253631	0.0276496	-0.00267699	-0.00523503	-0.0007140035
	0.2519131	-0.9253631	0.03796551	-0.02918018	-0.005230946	-0.0007156776	0.02305026	0.01609009
	0.0276496	-0.00267699	-0.005230946	-0.0007156789	0.03405647	-0.0068822	0.2517456	-0.9253922
	-0.00523503	-0.0007140049	0.02305026	0.01609008	0.2517456	-0.9253922	0.03797397	-0.02919538
1.2e+08	0.03356173	-0.008540963	0.1418985	-0.9467549	0.0276717	-0.007298524	-0.005661451	-0.0002447124
	0.1418985	-0.9467549	0.03514394	-0.03407288	-0.005657956	-0.0002473034	0.02484648	0.01504459
	0.02767171	-0.007298524	-0.005657956	-0.0002473047	0.03352136	-0.008574259	0.1417031	-0.9467701
	-0.005661451	-0.0002447137	0.02484648	0.01504459	0.1417031	-0.9467701	0.03516977	-0.03410456
1.3e+08	0.03288629	-0.01007636	0.03042939	-0.9551984	0.02656821	-0.01199728	-0.006067328	0.0002981258
	0.03042939	-0.9551984	0.03154051	-0.03837927	-0.006064311	0.0002953445	0.02628051	0.01383901
	0.02656821	-0.01199728	-0.006064312	0.0002953435	0.0328471	-0.01011106	0.03020814	-0.955191
	-0.006067328	0.0002981248	0.02628051	0.01383901	0.03020814	-0.955191	0.03155676	-0.03842054
1.4e+08	0.03213494	-0.01148076	-0.08100249	-0.9506456	0.02431978	-0.01650866	-0.006442587	0.000923152
	-0.08100249	-0.9506456	0.02731249	-0.04196188	-0.00643971	0.0009203048	0.02734211	0.01257508
	0.02431978	-0.01650866	-0.006439711	0.0009203041	0.03209386	-0.01151568	-0.08124577	-0.9506114
	-0.006442588	0.0009231513	0.02734211	0.01257508	-0.08124577	-0.9506114	0.02731363	-0.04200003
1.5e+08	0.03133992	-0.01279436	-0.1909085	-0.9332232	0.02096887	-0.02056544	-0.006773855	0.001637509
	-0.1909085	-0.9332232	0.02263374	-0.04471862	-0.006770936	0.001634422	0.02804716	0.01135219
	0.02096887	-0.02056544	-0.006770937	0.001634421	0.03129647	-0.01282811	-0.1911692	-0.9331561
	-0.006773855	0.001637509	0.02804716	0.01135218	-0.1911692	-0.9331561	0.02262368	-0.04474508
1.6e+08	0.03050981	-0.01406188	-0.297826	-0.9032205	0.0166188	-0.02391232	-0.007044082	0.002446026
	-0.297826	-0.9032205	0.01769114	-0.04658485	-0.007041168	0.002442485	0.02843588	0.01026197
	0.0166188	-0.02391232	-0.007041169	0.002442484	0.03046455	-0.01409383	-0.2980987	-0.9031161
	-0.007044083	0.002446026	0.02843588	0.01026197	-0.2980987	-0.9031161	0.0176768	-0.04659609
1.7e+08	0.02963093	-0.01532323	-0.4003345	-0.8610917	0.01143023	-0.02631922	-0.007232739	0.003349973
	-0.4003345	-0.8610917	0.0126786	-0.04753639	-0.007229999	0.003345801	0.02856974	0.009382372
	0.01143023	-0.02631922	-0.00723	0.003345801	0.02958453	-0.01535375	-0.4006132	-0.8609467
	-0.007232739	0.003349972	0.02856974	0.009382371	-0.4006132	-0.8609467	0.01266671	-0.04753267
1.8e+08	0.02867137	-0.01660799	-0.4970782	-0.8074494	0.005614459	-0.02759403	-0.007316739	0.004346004
	-0.4970782	-0.8074494	0.007789036	-0.0475903	-0.007314434	0.00434117	0.02852757	0.008772955
	0.005614459	-0.02759403	-0.007314435	0.00434117	0.02862397	-0.01663778	-0.4973572	-0.8072623
	-0.007316739	0.004346004	0.02852757	0.008772954	-0.4973572	-0.8072623	0.00778502	-0.04757414
1.9e+08	0.02758587	-0.01792853	-0.5867805	-0.7430564	-0.0005755853	-0.02759328	-0.007271466	0.005425029
	-0.5867805	-0.7430564	0.003205719	-0.04680412	-0.007269866	0.005419602	0.02840062	0.00847168
	-0.0005755853	-0.02759328	-0.007269866	0.005419602	0.02753688	-0.01795871	-0.5870524	-0.742824
	-0.007271466	0.005425029	0.02840062	0.00847168	-0.5870524	-0.742824	0.003213382	-0.04677905
2e+08	0.02632195	-0.01927805	-0.6682626	-0.6688126	-0.006856433	-0.02623009	-0.007072361	0.00657164
	-0.6682626	-0.6688126	-0.0009060824	-0.04527256	-0.0070717	0.006565817	0.02828646	0.008491868
	-0.006856433	-0.02623009	-0.0070717	0.006565817	0.02627022	-0.01930905	-0.6685203	-0.6685358
	-0.007072362	0.00657164	0.02828646	0.008491868	-0.6685203	-0.6685358	-0.0008844943	-0.04524288
2.1e+08	0.02482646	-0.02062772	-0.7404544	-0.5857508	-0.01292704	-0.02348106	-0.00669661	0.007763775
	-0.7404544	-0.5857508	-0.004406043	-0.04312306	-0.00669704	0.007757814	0.02828346	0.008822104
	-0.01292704	-0.02348106	-0.00669704	0.007757814	0.02477055	-0.02065948	-0.740691	-0.5854289
	-0.00669661	0.007763775	0.02828346	0.008822103	-0.740691	-0.5854289	-0.004369613	-0.04309271
2.2e+08	0.02305309	-0.02192705	-0.8024151	-0.4950153	-0.01848281	-0.01938899	-0.006125016	0.00897313
	-0.8024151	-0.4950153	-0.007186126	-0.04050932	-0.006126582	0.008967358	0.02848474	0.009426649
	-0.01848281	-0.01938899	-0.006126582	0.008967358	0.02299147	-0.02195887	-0.8026243	-0.4946504
	-0.006125016	0.00897313	0.02848474	0.009426649	-0.8026243	-0.4946504	-0.007135198	-0.0404823
2.3e+08	0.02096885	-0.02310631	-0.8533425	-0.3978513	-0.02322958	-0.01406287	-0.005343555	0.01016571
	-0.8533425	-0.3978513	-0.009175036	-0.03760386	-0.005346207	0.01016044	0.02897127	0.01024667
	-0.02322958	-0.01406287	-0.005346207	0.01016044	0.02090017	-0.02313679	-0.8535169	-0.3974466
	-0.005343555	0.01016571	0.02897127	0.01024667	-0.8535169	-0.3974466	-0.009110479	-0.0375834
2.4e+08	0.01855954	-0.02408028	-0.8925794	-0.2955895	-0.02689855	-0.007675389	-0.004345035	0.01130326
	-0.8925794	-0.2955895	-0.01034038	-0.03458907	-0.00434863	0.01129881	0.0298087	0.01120508
	-0.02689855	-0.007675389	-0.00434863	0.01129881	0.01848303	-0.02410751	-0.892712	-0.2951473
	-0.004345035	0.01130326	0.0298087	0.01120508	-0.892712	-0.2951473	-0.01026377	-0.03457776
2.5e+08	0.01583595	-0.0247538	-0.9196333	-0.1896242	-0.02925932	-0.0004564818	-0.003130148	0.01234475
	-0.9196333	-0.1896242	-0.01069111	-0.03164864	-0.003134409	0.01234137	0.03104186	0.01220982
	-0.02925932	-0.0004564818	-0.003134409	0.01234137	0.01575117	-0.02477552	-0.9197178	-0.1891491
	-0.003130148	0.01234475	0.03104186	0.01220982	-0.9197178	-0.1891491	-0.01060454	-0.0316487
2.6e+08	0.01283575	-0.02502866	-0.9341728	-0.08139991	-0.03013234	0.007315213	-0.00170826	0.01324852
	-0.9341728	-0.08139991	-0.01027595	-0.02895882	-0.001712899	0.01324641	0.03269215	0.01315952
	-0.03013234	0.007315213	-0.001712899	0.01324641	0.01274314	-0.02504235	-0.934204	-0.08089856
	-0.00170826	0.01324852	0.03269215	0.01315952	-0.934204	-0.08089856	-0.01018143	-0.02897172
2.7e+08	0.009625369	-0.02481142	-0.9360399	0.02761327	-0.02939809	0.01532386	-9.741526e-05	0.01397389
	-0.9360399	0.02761327	-0.009180224	-0.02667912	-0.0001020596	0.01397302	0.03475618	0.01394948
	-0.02939809	0.01532386	-0.0001020596	0.01397302	0.009525944	-0.02481463	-0.9360121	0.02813658
	-9.741534e-05	0.01397389	0.03475618	0.01394948	-0.9360121	0.02813658	-0.009080142	-0.02670581
2.8e+08	0.006299789	-0.02402132	-0.925247	0.1359373	-0.02700549	0.02322963	0.001675833	0.01448358
	-0.925247	0.1359373	-0.007521688	-0.02494544	0.001671578	0.01448402	0.03720584	0.01447773
	-0.02700549	0.02322963	0.001671578	0.01448402	0.006195235	-0.02401157	-0.9251556	0.1364734
	0.001675833	0.01448358	0.03720584	0.01447773	-0.9251556	0.1364734	-0.00741807	-0.02498642
2.9e+08	0.002978763	-0.02259828	-0.9019816	0.2421062	-0.02297559	0.03068321	0.003577339	0.0147452
	-0.9019816	0.2421062	-0.005444243	-0.02386333	0.003573812	0.01474681	0.03998852	0.01465037
	-0.02297559	0.03068321	0.003573812	0.01474681	0.00287173	-0.02257366	-0.9018242	0.2426481
	0.003577339	0.0147452	0.03998852	0.01465037	-0.9018242	0.2426481	-0.005339468	-0.02391872
3e+08	-0.0001976608	-0.0205099	-0.866601	0.3446903	-0.01740353	0.03734178	0.005566682	0.01473381
	-0.866601	0.3446903	-0.0031101	-0.02350316	0.005564203	0.01473628	0.04303141	0.01438777
	-0.01740353	0.03734178	0.005564203	0.01473628	-0.0003042497	-0.02046877	-0.8663742	0.3452293
	0.005566682	0.01473381	0.04303141	0.01438777	-0.8663742	0.3452293	-0.00300615	-0.02357264
3.1e+08	-0.003076059	-0.0177572	-0.8196245	0.4423115	-0.01045615	0.04288431	0.007598782	0.01443181
	-0.8196245	0.4423115	-0.0006913502	-0.02389722	0.007597585	0.01443482	0.04624425	0.01362849
	-0.01045615	0.04288431	0.007597585	0.01443482	-0.003178617	-0.01769856	-0.8193263	0.4428382
	0.007598782	0.01443181	0.04624425	0.01362849	-0.8193263	0.4428382	-0.0005898619	-0.02398004
3.2e+08	-0.005498263	-0.01437866	-0.7617296	0.5336679	-0.002366692	0.04702655	0.009625942	0.01383087
	-0.7617296	0.5336679	0.001638409	-0.02503862	0.009626229	0.01383413	0.04952456	0.01233299
	-0.002366692	0.04702655	0.009626229	0.01383413	-0.005592639	-0.01430252	-0.7613615	0.5341715
	0.009625942	0.01383087	0.04952456	0.01233299	-0.7613615	0.5341715	0.001735597	-0.02513396
3.3e+08	-0.007310193	-0.01045231	-0.6937435	0.6175452	0.006573557	0.04953479	0.0115997	0.01293152
	-0.6937435	0.6175452	0.003712968	-0.02688252	0.01160147	0.01293454	0.05276296	0.01048583
	0.006573557	0.04953479	0.01160147	0.01293454	-0.007392307	-0.0103595	-0.6933048	0.6180182
	0.0115997	0.01293152	0.05276296	0.01048583	-0.6933048	0.6180182	0.00380452	-0.02698908
3.4e+08	-0.008372489	-0.00609479	-0.6166208	0.6928425	0.01602655	0.05023754	0.01347307	0.01174343
	-0.6166208	0.6928425	0.005381776	-0.02934874	0.01347629	0.01174576	0.05584938	0.008096485
	0.01602655	0.05023754	0.01347629	0.01174576	-0.008438073	-0.005987212	-0.616116	0.6932742
	0.01347307	0.01174343	0.05584938	0.008096485	-0.616116	0.6932742	0.005466622	-0.0294651
3.5e+08	-0.008569829	-0.001458962	-0.5314401	0.7585782	0.0256208	0.04903434	0.01520211	0.01028413
	-0.5314401	0.7585782	0.006517123	-0.03232654	0.01520665	0.01028545	0.05867799	0.00519888
	0.0256208	0.04903434	0.01520665	0.01028545	-0.008614997	-0.00133946	-0.5308724	0.7589601
	0.01520211	0.01028413	0.05867799	0.00519888	-0.5308724	0.7589601	0.006594666	-0.03245108
3.6e+08	-0.007820294	0.003271899	-0.4393824	0.8139077	0.03496702	0.04590234	0.01674776	0.008578402
	-0.4393824	0.8139077	0.00702049	-0.03568079	0.01675327	0.008578285	0.06115394	0.00184945
	0.03496702	0.04590234	0.01675327	0.008578285	-0.007841533	0.003399353	-0.4387571	0.8142296
	0.01674776	0.008578402	0.06115394	0.00184945	-0.4387571	0.8142296	0.007090346	-0.03581186
3.7e+08	-0.006082988	0.007892223	-0.3417102	0.8581319	0.04367399	0.04089864	0.0180767	0.006656305
	-0.3417102	0.8581319	0.006826572	-0.03925913	0.01808281	0.006654478	0.06319723	-0.001876055
	0.04367399	0.04089864	0.01808281	0.006654478	-0.006077712	0.008022834	-0.3410337	0.8583869
	0.0180767	0.006656305	0.06319723	-0.001876055	-0.3410337	0.8583869	0.006888816	-0.03939509
3.8e+08	-0.003364154	0.01218279	-0.2397584	0.8907046	0.05136534	0.03416011	0.01916229	0.004551942
	-0.2397584	0.8907046	0.00590622	-0.04290015	0.01916857	0.004548239	0.0647471	-0.005886435
	0.05136534	0.03416011	0.01916857	0.004548239	-0.003330647	0.01231086	-0.2390384	0.8908839
	0.01916229	0.004551942	0.0647471	-0.005886435	-0.2390384	0.8908839	0.005961356	-0.04303945
3.9e+08	0.0002794742	0.01592307	-0.1349048	0.9112412	0.05769552	0.0258991	0.01998468	0.00230147
	-0.1349048	0.9112412	0.004266973	-0.04644151	0.01999057	0.00229583	0.06576503	-0.01008029
	0.05769552	0.0258991	0.01999057	0.00229583	0.0003416053	0.01604246	-0.1341493	0.9113385
	0.01998468	0.00230147	0.06576503	-0.01008029	-0.1341493	0.9113385	0.004315836	-0.04658276
4e+08	0.004739526	0.01890186	-0.02856022	0.9195166	0.06236501	0.01639615	0.02053065	-5.831698e-05
	-0.02856022	0.9195166	0.001952278	-0.0497283	0.02053569	-6.582349e-05	0.06623616	-0.01435134
	0.06236501	0.01639615	0.02053569	-6.582348e-05	0.004829394	0.01900616	-0.02777883	0.9195262
	0.02053065	-5.831697e-05	0.06623616	-0.01435134	-0.02777883	0.9195262	0.001996035	-0.04987043
4.1e+08	0.009857924	0.0209307	0.07785535	0.9154706	0.06513333	0.005990086	0.0207927	-0.002491527
	0.07785535	0.9154706	-0.000961661	-0.05262056	0.02079654	-0.002500657	0.06616956	-0.01859365
	0.06513333	0.005990086	0.02079654	-0.002500657	0.00997315	0.02101348	0.07865126	0.9153878
	0.0207927	-0.002491527	0.06616956	-0.01859365	0.07865126	0.9153878	-0.0009215569	-0.05276284
4.2e+08	0.01543242	0.02185519	0.1829303	0.8992015	0.06583026	-0.004935286	0.02076851	-0.004964219
	0.1829303	0.8992015	-0.00437025	-0.05500016	0.02077071	-0.004974692	0.06559762	-0.02270773
	0.06583026	-0.004935286	0.02077071	-0.004974692	0.01556907	0.0219103	0.1837305	0.8990234
	0.02076851	-0.004964219	0.06559762	-0.02270773	0.1837305	0.8990234	-0.004332144	-0.05514229
4.3e+08	0.02122327	0.02156545	0.2852778	0.8709689	0.06436403	-0.0159651	0.02045929	-0.007445084
	0.2852778	0.8709689	-0.008145899	-0.05677635	0.0204595	-0.0074565	0.06457351	-0.02660531
	0.06436403	-0.0159651	0.0204595	-0.0074565	0.02137606	0.02158761	0.28607	0.8706944
	0.02045929	-0.007445084	0.06457351	-0.02660531	0.28607	0.8706944	-0.008108225	-0.05691842
4.4e+08	0.02696418	0.02000523	0.3835537	0.8311855	0.06072618	-0.02666994	0.01986854	-0.009905634
	0.3835537	0.8311855	-0.01214558	-0.05788975	0.01986681	-0.009917587	0.06316837	-0.03021411
	0.06072618	-0.02666994	0.01986681	-0.009917587	0.02712648	0.01999011	0.3843257	0.8308126
	0.01986854	-0.009905634	0.06316837	-0.03021411	0.3843257	0.8308126	-0.01210667	-0.05803236
4.5e+08	0.0323743	0.01717813	0.4764711	0.7804106	0.05499351	-0.03662247	0.01900115	-0.01232002
	0.4764711	0.7804106	-0.01621772	-0.05831534	0.01899735	-0.01233207	0.06146653	-0.03348083
	0.05499351	-0.03662247	0.01899735	-0.01233207	0.03253853	0.01712287	0.477211	0.7799413
	0.01900115	-0.01232002	0.06146653	-0.03348083	0.477211	0.7799413	-0.01617614	-0.05845946
4.6e+08	0.0371724	0.01315146	0.5628174	0.7193408	0.04732711	-0.04541403	0.01786206	-0.01466444
	0.5628174	0.7193408	-0.02021028	-0.0580619	0.01785629	-0.0146762	0.05956105	-0.03637443
	0.04732711	-0.04541403	0.01785629	-0.0146762	0.03732993	0.01305459	0.5635127	0.7187769
	0.01786206	-0.01466444	0.05956105	-0.03637443	0.5635127	0.7187769	-0.02016471	-0.05820915
4.7e+08	0.04109083	0.008056321	0.641466	0.6488064	0.03796704	-0.05267152	0.01645567	-0.01691595
	0.641466	0.6488064	-0.02397826	-0.05717296	0.01644802	-0.01692707	0.05754788	-0.0388866
	0.03796704	-0.05267152	0.01644802	-0.01692707	0.04123292	0.007918426	0.6421065	0.6481531
	0.01645567	-0.01691595	0.05754788	-0.0388866	0.6421065	0.6481531	-0.02392814	-0.05732503
4.8e+08	0.04389084	0.002084728	0.7113915	0.5697585	0.02722507	-0.05807198	0.01478542	-0.01905148
	0.7113915	0.5697585	-0.02739137	-0.05572242	0.01477613	-0.0190617	0.05552094	-0.04103269
	0.02722507	-0.05807198	0.01477613	-0.0190617	0.04400823	0.001908142	0.7119638	0.5690202
	0.01478542	-0.01905148	0.05552094	-0.04103269	0.7119638	0.5690202	-0.02733603	-0.05588147
4.9e+08	0.04537672	-0.004517322	0.771684	0.4832558	0.01547389	-0.06135655	0.01285447	-0.02104671
	0.771684	0.4832558	-0.03034006	-0.05381156	0.0128438	-0.0210559	0.05356622	-0.04284976
	0.01547389	-0.06135655	0.0128438	-0.0210559	0.04546094	-0.00472805	0.772177	0.4824395
	0.01285447	-0.02104671	0.05356622	-0.04284976	0.772177	0.4824395	-0.03027964	-0.05397966
5e+08	0.0454074	-0.01145921	0.8215518	0.3904541	0.003133763	-0.06234133	0.01066577	-0.02287451
	0.8215518	0.3904541	-0.03274122	-0.05156298	0.01065397	-0.0228826	0.05175687	-0.0443948
	0.003133763	-0.06234133	0.01065397	-0.0228826	0.04545073	-0.01169763	0.8219564	0.3895684
	0.01066577	-0.02287451	0.05175687	-0.0443948	0.8219564	0.3895684	-0.03267641	-0.0517423
5.1e+08	0.04390781	-0.01841844	0.8603453	0.2925926	-0.009342041	-0.06092647	0.008223717	-0.02450426
	0.8603453	0.2925926	-0.03454201	-0.04911371	0.008210969	-0.02451132	0.05014905	-0.04574017
	-0.009342041	-0.06092647	0.008210969	-0.02451132	0.04390369	-0.01867641	0.8606507	0.2916474
	0.008223717	-0.02450426	0.05014905	-0.04574017	0.8606507	0.2916474	-0.0344738	-0.04930653
5.2e+08	0.0408749	-0.02505609	0.8875547	0.1909814	-0.0214844	-0.05710186	0.005535724	-0.02590149
	0.8875547	0.1909814	-0.03572279	-0.04660928	0.005522093	-0.02590751	0.04877877	-0.04697032
	-0.0214844	-0.05710186	0.005522093	-0.02590751	0.04081872	-0.02532378	0.8877524	0.189988
