!$
! Info: Touchstone file created by Circ.  Input file=C2M_PCB_100ohms_6p5in_20230620_v3.circ
!$
# Hz S RI R 50
0	0.009455609	3.246137e-24	0.9905141	-3.055616e-24	0.000156665	8.788835e-23	-0.0001529691	1.886094e-20
	0.9905141	-2.911187e-24	0.009274231	1.849453e-24	-0.0001503099	1.853525e-20	1.194744e-05	8.368677e-21
	0.000156665	8.792241e-23	-0.0001503099	1.853504e-20	0.009458943	3.71505e-24	0.9905274	-2.940356e-24
	-0.0001529691	1.886097e-20	1.194741e-05	8.36875e-21	0.9905274	-2.957077e-24	0.0092877	2.248295e-24
1e+07	0.01349769	0.005067746	0.9817993	-0.09709769	0.0008048581	0.003066227	-0.0005113846	-0.0006138775
	0.9817993	-0.09709769	0.01357652	0.005030506	-0.0005094182	-0.0006145809	0.0005907538	0.003144212
	0.0008048581	0.003066227	-0.0005094182	-0.0006145809	0.01366147	0.0050554	0.9816467	-0.09712173
	-0.0005113846	-0.0006138775	0.0005907538	0.003144212	0.9816467	-0.09712173	0.0137404	0.005019708
2e+07	0.01708812	0.006896007	0.9649009	-0.1897988	0.001788526	0.006029939	-0.000639829	-0.001270347
	0.9649009	-0.1897988	0.0177807	0.006599923	-0.0006385501	-0.001270838	0.001283541	0.006223303
	0.001788551	0.006029847	-0.0006385279	-0.001270887	0.01720903	0.006819693	0.9647742	-0.1897836
	-0.0006398042	-0.001270392	0.001283562	0.006223301	0.9647742	-0.1897836	0.01790255	0.006526423
3e+07	0.01987498	0.007241939	0.9403041	-0.2792094	0.003403709	0.008558984	-0.0008854604	-0.001742473
	0.9403041	-0.2792094	0.02143092	0.006434956	-0.0008844517	-0.001742663	0.002395764	0.008993178
	0.003403697	0.008558977	-0.0008844595	-0.001742659	0.01996018	0.007143911	0.9401959	-0.2791908
	-0.0008854693	-0.001742469	0.002395756	0.008993194	0.9401959	-0.2791908	0.02151859	0.006340816
4e+07	0.0221234	0.006943106	0.9079711	-0.3653831	0.005577746	0.01064379	-0.001233581	-0.002118291
	0.9079711	-0.3653831	0.02473149	0.005327412	-0.00123263	-0.002118117	0.003895734	0.01151063
	0.005577747	0.0106438	-0.001232632	-0.002118114	0.02217724	0.006836315	0.9078762	-0.3653707
	-0.001233582	-0.002118289	0.00389573	0.01151064	0.9078762	-0.3653707	0.0247891	0.005224872
5e+07	0.0239315	0.006255301	0.868108	-0.4478098	0.008301461	0.01217366	-0.001745315	-0.002360693
	0.868108	-0.4478098	0.02771071	0.003488676	-0.00174423	-0.002360165	0.005809258	0.013684
	0.008301461	0.01217366	-0.001744232	-0.002360164	0.02395765	0.006147869	0.8680209	-0.447809
	-0.001745316	-0.002360692	0.005809255	0.013684	0.8680209	-0.447809	0.02774223	0.003385295
6e+07	0.02535479	0.005331156	0.8210388	-0.5259064	0.01134301	0.01310523	-0.002283355	-0.00251423
	0.8210388	-0.5259064	0.03033883	0.001035586	-0.002282023	-0.002513429	0.007966821	0.01553304
	0.01134301	0.01310524	-0.002282021	-0.002513429	0.02535765	0.005228954	0.8209541	-0.5259206
	-0.002283353	-0.002514231	0.007966825	0.01553304	0.8209541	-0.5259206	0.03034775	0.0009365476
7e+07	0.02643721	0.004279321	0.7671666	-0.5990859	0.01458663	0.01338349	-0.00283827	-0.002581818
	0.7671666	-0.5990859	0.03256657	-0.001939583	-0.002836627	-0.002580838	0.01031411	0.01703271
	0.01458663	0.01338349	-0.002836625	-0.00258084	0.02642105	0.004186596	0.7670783	-0.5991165
	-0.002838269	-0.002581821	0.01031411	0.01703271	0.7670783	-0.5991165	0.03255681	-0.002030101
8e+07	0.02722472	0.003183566	0.7069602	-0.6667867	0.01790625	0.012974	-0.003400636	-0.002566157
	0.7069602	-0.6667867	0.03434258	-0.005348531	-0.003398618	-0.002565065	0.01279171	0.01816745
	0.01790625	0.012974	-0.00339862	-0.002565063	0.02719409	0.003103378	0.7068625	-0.6668338
	-0.003400636	-0.002566155	0.0127917	0.01816746	0.7068625	-0.6668338	0.03431821	-0.005427234
9e+07	0.02776927	0.00210823	0.6409402	-0.7284841	0.02117006	0.01186463	-0.003961131	-0.002469674
	0.6409402	-0.7284841	0.03562229	-0.00910007	-0.0039587	-0.002468571	0.01533772	0.01893217
	0.02117006	0.01186463	-0.0039587	-0.002468561	0.02772938	0.002042789	0.6408276	-0.7285477
	-0.003961129	-0.002469665	0.01533772	0.01893218	0.6408276	-0.7285477	0.03558775	-0.009164515
1e+08	0.02813834	0.001106972	0.5696636	-0.7837094	0.0242409	0.01006199	-0.004506085	-0.002291295
	0.5696636	-0.7837094	0.03638357	-0.01309284	-0.004503244	-0.002290309	0.01788572	0.01933077
	0.0242409	0.01006199	-0.004503244	-0.00229031	0.02809667	0.001058291	0.5695272	-0.7837886
	-0.004506085	-0.002291296	0.01788572	0.01933077	0.5695272	-0.7837886	0.03634471	-0.01314024
1.1e+08	0.02840056	0.0001378101	0.4937365	-0.8319377	0.02697467	0.007631911	-0.005022935	-0.002066926
	0.4937365	-0.8319377	0.03662272	-0.01733484	-0.005019119	-0.002067626	0.02038191	0.01941022
	0.02697467	0.007631911	-0.005019119	-0.002067627	0.02836992	0.0001058762	0.4935698	-0.8320181
	-0.005022935	-0.002066927	0.02038191	0.01941021	0.4935698	-0.8320181	0.03665166	-0.01736614
1.2e+08	0.02852754	-0.0007564099	0.4138994	-0.8728484	0.02928371	0.004626065	-0.005538556	-0.001786715
	0.4138994	-0.8728484	0.0362238	-0.02163748	-0.005535159	-0.00178822	0.02279935	0.01917327
	0.02928371	0.004626066	-0.005535159	-0.001788221	0.02850482	-0.0007849896	0.4137038	-0.8729256
	-0.005538556	-0.001786716	0.02279935	0.01917327	0.4137038	-0.8729256	0.03626676	-0.02168906
1.3e+08	0.02858459	-0.001553833	0.3308228	-0.9061502	0.03105414	0.001116866	-0.006044819	-0.001444464
	0.3308228	-0.9061502	0.0352264	-0.0258921	-0.006041868	-0.001445991	0.02508507	0.01864751
	0.03105414	0.001116866	-0.006041868	-0.001445992	0.02856554	-0.001583701	0.3305973	-0.906217
	-0.006044819	-0.001444465	0.02508507	0.01864751	0.3305973	-0.906217	0.03525589	-0.02595677
1.4e+08	0.02862294	-0.002260535	0.2452124	-0.9315991	0.03219065	-0.002798905	-0.006536766	-0.001037825
	0.2452124	-0.9315991	0.03366104	-0.03000619	-0.006533899	-0.001039123	0.0271988	0.01787155
	0.03219065	-0.002798905	-0.0065339	-0.001039124	0.02860433	-0.002292263	0.2449586	-0.9316519
	-0.006536767	-0.001037826	0.0271988	0.01787154	0.2449586	-0.9316519	0.03367085	-0.03007064
1.5e+08	0.0286836	-0.00289795	0.1577969	-0.9490204	0.03261596	-0.007007425	-0.007009184	-0.0005649706
	0.1577969	-0.9490204	0.031566	-0.03389296	-0.007006092	-0.000566128	0.02910958	0.01688977
	0.03261596	-0.007007425	-0.007006093	-0.0005661287	0.0286642	-0.002930701	0.1575163	-0.9490531
	-0.007009185	-0.0005649713	0.02910958	0.01688977	0.1575163	-0.9490531	0.03155939	-0.03394791
1.6e+08	0.02879684	-0.003498457	0.06931543	-0.9583006	0.03227345	-0.0113817	-0.007456325	-2.421654e-05
	0.06931543	-0.9583006	0.02899012	-0.03747196	-0.007452886	-2.544787e-05	0.03079651	0.01575102
	0.03227345	-0.0113817	-0.007452887	-2.54483e-05	0.02877662	-0.003531423	0.06901016	-0.9583086
	-0.007456326	-2.421698e-05	0.03079651	0.01575102	0.06901016	-0.9583086	0.02897343	-0.03751292
1.7e+08	0.02897976	-0.004101032	-0.01948457	-0.9593936	0.0311291	-0.01578505	-0.00787158	0.0005859706
	-0.01948457	-0.9593936	0.02599373	-0.04067151	-0.007867785	0.0005844212	0.03224885	0.01450613
	0.0311291	-0.01578505	-0.007867786	0.0005844209	0.0289594	-0.004134051	-0.01981146	-0.9593727
	-0.00787158	0.0005859703	0.03224885	0.01450612	-0.01981146	-0.9593727	0.02597332	-0.04069758
1.8e+08	0.02923693	-0.004748427	-0.1078569	-0.9523217	0.02917295	-0.02007549	-0.00824749	0.001266898
	-0.1078569	-0.9523217	0.02264788	-0.04343088	-0.008243461	0.001264854	0.03346632	0.01320594
	0.02917295	-0.02007549	-0.008243461	0.001264854	0.02921702	-0.00478186	-0.1082024	-0.9522692
	-0.008247491	0.001266898	0.03346632	0.01320594	-0.1082024	-0.9522692	0.02262902	-0.04344335
1.9e+08	0.0295591	-0.005482863	-0.1950609	-0.9371745	0.02641979	-0.02410982	-0.008575425	0.002019318
	-0.1950609	-0.9371745	0.0190322	-0.04570248	-0.008571327	0.002016656	0.03445886	0.01189966
	0.02641979	-0.02410982	-0.008571327	0.002016656	0.02954014	-0.005517831	-0.1954213	-0.9370849
	-0.008575425	0.002019318	0.03445886	0.01189966	-0.1954213	-0.9370849	0.01901874	-0.04570353
2e+08	0.02992497	-0.006343944	-0.2803699	-0.9141049	0.02290875	-0.02774729	-0.008845656	0.002843155
	-0.2803699	-0.9141049	0.01523265	-0.04745295	-0.008841692	0.002839835	0.03524551	0.01063217
	0.02290875	-0.02774729	-0.008841692	0.002839835	0.02990679	-0.006381607	-0.2807404	-0.9139766
	-0.008845656	0.002843155	0.03524551	0.01063217	-0.2807404	-0.9139766	0.01522726	-0.04744548
2.1e+08	0.03030144	-0.007365288	-0.3630704	-0.8833337	0.01870321	-0.03085442	-0.009047327	0.003737078
	-0.3630704	-0.8833337	0.01133958	-0.04866417	-0.009043684	0.003733111	0.03585403	0.009443165
	0.01870321	-0.03085442	-0.009043684	0.003733111	0.03028343	-0.007406818	-0.3634473	-0.883163
	-0.009047327	0.003737078	0.03585403	0.009443165	-0.3634473	-0.883163	0.01134385	-0.04865085
2.2e+08	0.03064563	-0.008571633	-0.4424774	-0.8451423	0.01388906	-0.0333087	-0.009168766	0.004698223
	-0.4424774	-0.8451423	0.007444018	-0.04933393	-0.009165612	0.004693697	0.03631958	0.00836534
	0.01388906	-0.0333087	-0.009165612	0.004693697	0.03062675	-0.008618046	-0.4428561	-0.8449281
	-0.009168766	0.004698223	0.03631958	0.00836534	-0.4428561	-0.8449281	0.007458626	-0.04931754
2.3e+08	0.03090713	-0.00997701	-0.5179342	-0.7998734	0.008572879	-0.03500184	-0.009197499	0.005721766
	-0.5179342	-0.7998734	0.003635321	-0.04947579	-0.009194973	0.00571679	0.03668209	0.007422383
	0.008572879	-0.03500184	-0.009194973	0.00571679	0.03088593	-0.01002905	-0.5183089	-0.7996147
	-0.009197499	0.005721766	0.03668209	0.007422383	-0.5183089	-0.7996147	0.003660701	-0.04945854
2.4e+08	0.03103011	-0.01158344	-0.5888135	-0.7479264	0.002879417	-0.03584394	-0.009120834	0.00680075
	-0.5888135	-0.7479264	-5.949709e-07	-0.04911795	-0.009119052	0.006795466	0.03698627	0.006629595
	0.002879417	-0.03584394	-0.009119053	0.006795466	0.03100502	-0.01164133	-0.5891794	-0.7476208
	-0.009120834	0.00680075	0.03698627	0.006629595	-0.5891794	-0.7476208	3.545998e-05	-0.04910171
2.5e+08	0.03095686	-0.01337854	-0.6545341	-0.6897556	-0.003051651	-0.03576577	-0.008926117	0.007925789
	-0.6545341	-0.6897556	-0.003385135	-0.04830305	-0.008925127	0.007920389	0.03727853	0.00599201
	-0.003051651	-0.03576577	-0.008925127	0.007920389	0.0309261	-0.01344235	-0.6548857	-0.6894029
	-0.008926117	0.007925789	0.03727853	0.00599201	-0.6548857	-0.6894029	-0.00333878	-0.04828959
2.6e+08	0.03063027	-0.01533626	-0.7145533	-0.625866	-0.009069132	-0.03472165	-0.008601438	0.009085158
	-0.7145533	-0.625866	-0.006448605	-0.0470865	-0.008601303	0.009079816	0.03760518	0.005504709
	-0.009069132	-0.03472165	-0.008601303	0.009079816	0.03059207	-0.01540539	-0.7148847	-0.6254678
	-0.008601438	0.009085158	0.03760518	0.005504709	-0.7148847	-0.6254678	-0.006392059	-0.04707725
2.7e+08	0.02999741	-0.01741655	-0.7683796	-0.5568093	-0.01501413	-0.03269039	-0.008135705	0.01026447
	-0.7683796	-0.5568093	-0.009131981	-0.04553428	-0.008136349	0.0102593	0.03801071	0.005152952
	-0.01501413	-0.03269039	-0.008136349	0.0102593	0.02995009	-0.01749018	-0.7686861	-0.5563644
	-0.008135705	0.01026447	0.03801071	0.005152952	-0.7686861	-0.5563644	-0.009065863	-0.04553052
2.8e+08	0.02901269	-0.01956565	-0.8155721	-0.4831783	-0.02072444	-0.02967741	-0.007519515	0.011447
	-0.8155721	-0.4831783	-0.01138914	-0.04372139	-0.007520938	0.01144228	0.03853611	0.004912936
	-0.02072444	-0.02967741	-0.007520938	0.01144228	0.0289545	-0.01964254	-0.8158466	-0.4826896
	-0.007519515	0.011447	0.03853611	0.004912936	-0.8158466	-0.4826896	-0.01131355	-0.04372435
2.9e+08	0.02764063	-0.02171842	-0.8557463	-0.4056054	-0.02603827	-0.02571442	-0.00674534	0.0126136
	-0.8557463	-0.4056054	-0.01318801	-0.04172933	-0.006747476	0.0126095	0.03921596	0.004752006
	-0.02603827	-0.02571442	-0.006747476	0.0126095	0.02757034	-0.02179675	-0.8559846	-0.4050751
	-0.00674534	0.0126136	0.03921596	0.004752006	-0.8559846	-0.4050751	-0.01310368	-0.04174034
3e+08	0.02585866	-0.02379991	-0.8885783	-0.3247538	-0.03079925	-0.02085974	-0.005808597	0.01374368
	-0.8885783	-0.3247538	-0.01451132	-0.03964347	-0.005811265	0.01374028	0.04007848	0.00463084
	-0.03079925	-0.02085974	-0.005811265	0.01374028	0.02577497	-0.02387781	-0.8887741	-0.324184
	-0.005808597	0.01374368	0.04007848	0.00463084	-0.8887741	-0.324184	-0.01441877	-0.0396637
3.1e+08	0.02365918	-0.02572809	-0.9138025	-0.2413138	-0.03486028	-0.01519707	-0.004707185	0.01481447
	-0.9138025	-0.2413138	-0.01535669	-0.03755034	-0.004710245	0.01481192	0.04114318	0.004504309
	-0.03486028	-0.01519707	-0.004710245	0.01481192	0.02356115	-0.02580323	-0.9139497	-0.2407077
	-0.004707185	0.01481447	0.04114318	0.004504308	-0.9139497	-0.2407077	-0.01525638	-0.03758091
3.2e+08	0.02105124	-0.02741717	-0.9312206	-0.1559954	-0.03808767	-0.008833962	-0.003442569	0.01580251
	-0.9312206	-0.1559954	-0.01573722	-0.03553504	-0.003445853	0.01580103	0.04242019	0.004323362
	-0.03808767	-0.008833962	-0.003445853	0.01580103	0.02093852	-0.02748682	-0.9313145	-0.1553594
	-0.003442569	0.01580251	0.04242019	0.004323362	-0.9313145	-0.1553594	-0.01563021	-0.03557737
3.3e+08	0.01806174	-0.02878048	-0.9407002	-0.06953026	-0.04036497	-0.001899597	-0.002019681	0.01668352
	-0.9407002	-0.06953026	-0.01568061	-0.03367903	-0.002022939	0.0166831	0.04390957	0.004036901
	-0.04036497	-0.001899597	-0.002022939	0.0166831	0.01793434	-0.02884194	-0.9407362	-0.06886623
	-0.002019681	0.01668352	0.04390957	0.004036901	-0.9407362	-0.06886623	-0.01556801	-0.03373403
3.4e+08	0.01473534	-0.02973477	-0.9421755	0.01734955	-0.04159659	0.005458099	-0.0004472889	0.01743349
	-0.9421755	0.01734955	-0.01522833	-0.03205673	-0.0004502424	0.01743419	0.04560135	0.003593861
	-0.04159659	0.005458099	-0.0004502424	0.01743419	0.01459386	-0.02978502	-0.94215	0.01803411
	-0.0004472889	0.01743349	0.04560135	0.003593861	-0.94215	0.01803411	-0.01511142	-0.03212551
3.5e+08	0.01113459	-0.03020339	-0.9356501	0.1039025	-0.04171031	0.01307563	0.001262084	0.01802883
	-0.9356501	0.1039025	-0.01443418	-0.03073402	0.001259698	0.01803071	0.04747481	0.002945086
	-0.04171031	0.01307563	0.001259698	0.01803071	0.01098011	-0.03023951	-0.9355597	0.1046027
	0.001262084	0.01802883	0.04747481	0.002945086	-0.9355597	0.1046027	-0.01431433	-0.03081729
3.6e+08	0.007338486	-0.0301201	-0.9211967	0.1893919	-0.0406602	0.02077822	0.003092066	0.01844752
	-0.9211967	0.1893919	-0.01336228	-0.02976591	0.003090555	0.01845043	0.0495002	0.002045279
	-0.0406602	0.02077822	0.003090555	0.01845043	0.007172772	-0.03013911	-0.9210375	0.1901003
	0.003092066	0.01844752	0.0495002	0.002045279	-0.9210375	0.1901003	-0.01324111	-0.0298643
3.7e+08	0.003440095	-0.02943244	-0.8989534	0.2730939	-0.03842795	0.02838361	0.005022755	0.01866924
	-0.8989534	0.2730939	-0.01208518	-0.02919472	0.005022412	0.01867302	0.05163867	0.0008548501
	-0.03842795	0.02838361	0.005022411	0.01867302	0.003265462	-0.02943174	-0.8987239	0.2738046
	0.005022755	0.01866924	0.05163867	0.00085485	-0.8987239	0.2738046	-0.01196444	-0.02930852
3.8e+08	-0.0004548981	-0.02810473	-0.8691282	0.3542963	-0.03502432	0.03570677	0.007030838	0.01867642
	-0.8691282	0.3542963	-0.01068151	-0.02904934	0.007031933	0.01868087	0.05384381	-0.0006584981
	-0.03502432	0.03570677	0.007031933	0.01868087	-0.0006354499	-0.02808187	-0.8688261	0.3550012
	0.007030838	0.01867642	0.05384381	-0.0006584982	-0.8688261	0.3550012	-0.01056287	-0.02917863
3.9e+08	-0.004232688	-0.02612059	-0.8319929	0.4323156	-0.03048923	0.04256433	0.009090141	0.01845461
	-0.8319929	0.4323156	-0.009233364	-0.02934378	0.009092869	0.01845935	0.05606325	-0.002518405
	-0.03048923	0.04256433	0.009092869	0.01845935	-0.004415688	-0.02607371	-0.831617	0.433008
	0.009090141	0.01845461	0.05606325	-0.002518405	-0.831617	0.433008	-0.009118519	-0.02948827
4e+08	-0.007773538	-0.02348477	-0.7878824	0.5064926	-0.0248914	0.04877942	0.01117203	0.01799309
	-0.7878824	0.5064926	-0.007823525	-0.03007744	0.01117658	0.01799777	0.05824023	-0.004739072
	-0.0248914	0.04877942	0.01117658	0.01799777	-0.007955067	-0.02341248	-0.7874327	0.5071647
	0.01117203	0.01799309	0.05824023	-0.004739072	-0.7874327	0.5071647	-0.007714124	-0.03023664
4.1e+08	-0.01095697	-0.02022466	-0.737192	0.5762056	-0.0183274	0.05418597	0.01324596	0.01728507
	-0.737192	0.5762056	-0.006533045	-0.03123482	0.01325246	0.0172894	0.06031524	-0.007323954
	-0.0183274	0.05418597	0.01325246	0.0172894	-0.01113269	-0.02012629	-0.7366697	0.5768487
	0.01324596	0.01728507	0.06031524	-0.007323954	-0.7366697	0.5768487	-0.006430621	-0.031408
4.2e+08	-0.01366583	-0.01638999	-0.6803702	0.6408722	-0.01091931	0.05863348	0.01528043	0.01632839
	-0.6803702	0.6408722	-0.005438469	-0.03278647	0.01528887	0.01633183	0.06222857	-0.01026612
	-0.01091931	0.05863348	0.01528887	0.01633183	-0.01383102	-0.01626563	-0.6797765	0.6414792
	0.01528043	0.01632839	0.06222857	-0.01026612	-0.6797765	0.6414792	-0.005344267	-0.03297266
4.3e+08	-0.01579003	-0.01205333	-0.6179196	0.6999568	-0.002812837	0.06199075	0.0172434	0.01512528
	-0.6179196	0.6999568	-0.004609177	-0.0346899	0.01725365	0.01512732	0.06392168	-0.01354796
	-0.002812837	0.06199075	0.01725365	0.01512732	-0.01594003	-0.01190389	-0.6172582	0.7005198
	0.0172434	0.01512528	0.06392168	-0.01354796	-0.6172582	0.7005198	-0.004524489	-0.03488785
4.4e+08	-0.01723143	-0.007308194	-0.5503894	0.7529748	0.005826394	0.06414932	0.01910313	0.01368251
	-0.5503894	0.7529748	-0.004105852	-0.03689106	0.01911513	0.01368285	0.06533982	-0.01714193
	0.005826394	0.06414932	0.01911513	0.01368285	-0.01736149	-0.007135472	-0.5496622	0.753485
	0.01910313	0.01368251	0.06533982	-0.01714193	-0.5496622	0.753485	-0.004031543	-0.03709956
4.5e+08	-0.01790747	-0.002267241	-0.4783697	0.7994946	0.0148165	0.06502664	0.02082905	0.01201148
	-0.4783697	0.7994946	-0.003978104	-0.03932676	0.02084248	0.01200963	0.06643316	-0.02101072
	0.0148165	0.06502664	0.02084248	0.01200963	-0.01801319	-0.002073842	-0.4775817	0.7999454
	0.02082905	0.01201148	0.06643316	-0.02101072	-0.4775817	0.7999454	-0.003914846	-0.03954426
4.6e+08	-0.01775538	0.002940726	-0.4024842	0.8391428	0.02396296	0.06456856	0.02239247	0.01012778
	-0.4024842	0.8391428	-0.004263165	-0.04192559	0.02240696	0.01012337	0.06715896	-0.02510935
	0.02396296	0.06456856	0.02240696	0.01012337	-0.0178324	0.003151228	-0.4016398	0.8395265
	0.02239247	0.01012778	0.06715896	-0.02510935	-0.4016398	0.8395265	-0.004211267	-0.04215084
4.7e+08	-0.01673464	0.008173752	-0.3233897	0.8716074	0.03306406	0.06275092	0.023767	0.008050912
	-0.3233897	0.8716074	-0.004984831	-0.04461201	0.02378205	0.008043562	0.06748242	-0.02938539
	0.03306406	0.06275092	0.02378205	0.008043562	-0.01677948	0.008397114	-0.3224951	0.8719194
	0.023767	0.008050912	0.06748242	-0.02938539	-0.3224951	0.8719194	-0.004944587	-0.04484333
4.8e+08	-0.01482997	0.01328121	-0.2417666	0.8966395	0.04191473	0.05958053	0.02492933	0.005803593
	-0.2417666	0.8966395	-0.006153024	-0.04730709	0.02494441	0.005793099	0.06737832	-0.03378173
	0.04191473	0.05958053	0.02494441	0.005793099	-0.01483936	0.01351221	-0.240828	0.8968718
	0.02492933	0.005803593	0.06737832	-0.03378173	-0.240828	0.8968718	-0.006124096	-0.04754325
4.9e+08	-0.0120529	0.01810867	-0.1583102	0.9140565	0.05031185	0.05509553	0.02585995	0.003411544
	-0.1583102	0.9140565	-0.00776318	-0.04993257	0.0258745	0.00339778	0.06683149	-0.03823762
	0.05031185	0.05509553	0.0258745	0.00339778	-0.01202481	0.01834162	-0.157335	0.9142039
	0.02585995	0.003411544	0.06683149	-0.03823762	-0.157335	0.9142039	-0.007745242	-0.05017216
5e+08	-0.008442346	0.02250179	-0.07372955	0.9237355	0.05805898	0.04936439	0.02654288	0.0009023446
	-0.07372955	0.9237355	-0.009797334	-0.05241257	0.02655629	0.0008853334	0.06583696	-0.04269122
	0.05805898	0.04936439	0.02655629	0.0008853334	-0.008375621	0.02273047	-0.07272501	0.9237944
	0.02654288	0.0009023445	0.06583696	-0.04269122	-0.07272501	0.9237944	-0.009789776	-0.05265439
5.1e+08	-0.004065431	0.02631226	0.01126408	0.9256256	0.06497082	0.04248528	0.02696621	-0.001694929
	0.01126408	0.9256256	-0.01222401	-0.05467578	0.02697789	-0.001715101	0.06440044	-0.04708058
	0.06497082	0.04248528	0.02697789	-0.001715101	-0.003959775	0.02653008	0.01228902	0.9255908
	0.02696621	-0.001694929	0.06440044	-0.04708058	0.01228902	0.9255908	-0.01222599	-0.05491903
5.2e+08	0.0009845833	0.02940228	0.09595704	0.9197373	0.07087794	0.03458378	0.02712224	-0.004350519
