!$
! Info: Touchstone file created by Circ.  Input file=C2M_PCB_100ohms_8p5in_20230620_v3.circ
!$
# Hz S RI R 50
0	0.01148994	3.780091e-24	0.9884798	-3.62563e-24	0.0001667668	9.8176e-23	-0.0001630785	2.013295e-20
	0.9884798	-3.48148e-24	0.01130843	2.445517e-24	-0.0001604245	1.980786e-20	2.206969e-05	8.424951e-21
	0.0001667668	9.820991e-23	-0.0001604245	1.980764e-20	0.01149326	4.225603e-24	0.9884931	-3.465655e-24
	-0.0001630785	2.013298e-20	2.206967e-05	8.425024e-21	0.9884931	-3.482349e-24	0.01132196	2.793714e-24
1e+07	0.01653414	0.006028589	0.9767267	-0.1169557	0.001016504	0.003365564	-0.0006137844	-0.0006111452
	0.9767267	-0.1169557	0.01665903	0.00595219	-0.0006118469	-0.0006119084	0.0007503559	0.003458334
	0.001016504	0.003365564	-0.0006118469	-0.0006119084	0.01672722	0.006009018	0.9765439	-0.1169737
	-0.0006137844	-0.0006111452	0.0007503559	0.003458334	0.9765439	-0.1169737	0.01685229	0.00593466
2e+07	0.02110275	0.007932666	0.9529369	-0.2279348	0.002326809	0.006560308	-0.0007634016	-0.001286546
	0.9529369	-0.2279348	0.02195478	0.007492785	-0.000762191	-0.001287098	0.001634517	0.006839471
	0.002326826	0.006560214	-0.0007621706	-0.001287148	0.02124046	0.007835011	0.9527901	-0.2278993
	-0.0007633785	-0.001286593	0.001634539	0.006839468	0.9527901	-0.2278993	0.02209364	0.007398787
3e+07	0.02465017	0.007907971	0.9179314	-0.3339151	0.004440829	0.009110133	-0.001046213	-0.001729467
	0.9179314	-0.3339151	0.02650423	0.006756416	-0.00104529	-0.001729694	0.003053207	0.00979432
	0.004440817	0.009110127	-0.001045298	-0.00172969	0.02474141	0.007784642	0.9178111	-0.3338711
	-0.001046222	-0.001729463	0.003053199	0.009794337	0.9178111	-0.3338711	0.02659818	0.006638102
4e+07	0.02746932	0.007010222	0.8718696	-0.4345948	0.007218406	0.01096531	-0.00144103	-0.002046398
	0.8718696	-0.4345948	0.03049227	0.004733112	-0.001440149	-0.002046228	0.004943507	0.01236706
	0.007218407	0.01096531	-0.00144015	-0.002046225	0.02751983	0.00687815	0.871769	-0.4345549
	-0.001441031	-0.002046396	0.004943503	0.01236706	0.871769	-0.4345549	0.03054673	0.004606721
5e+07	0.02965908	0.005585018	0.8152637	-0.5290136	0.01058365	0.01195794	-0.002018217	-0.002178995
	0.8152637	-0.5290136	0.03389548	0.001722303	-0.00201715	-0.002178445	0.007301099	0.01442082
	0.01058365	0.01195794	-0.002017152	-0.002178444	0.02967427	0.005454989	0.8151755	-0.5289846
	-0.002018218	-0.002178994	0.007301096	0.01442082	0.8151755	-0.5289846	0.03391599	0.001598101
6e+07	0.03128175	0.003850128	0.7488142	-0.6161608	0.0141743	0.01205248	-0.002601108	-0.002200753
	0.7488142	-0.6161608	0.03663686	-0.002078236	-0.002599709	-0.002199926	0.009880833	0.01599621
	0.0141743	0.01205248	-0.002599707	-0.002199926	0.03126802	0.003729655	0.7487316	-0.6161468
	-0.002601107	-0.002200754	0.009880837	0.01599621	0.7487316	-0.6161468	0.03662878	-0.002193184
7e+07	0.03239588	0.001963961	0.6733619	-0.695066	0.01777589	0.01120934	-0.003177659	-0.00212113
	0.6733619	-0.695066	0.03863192	-0.006492108	-0.003175836	-0.002120154	0.01258381	0.01707581
	0.01777589	0.01120934	-0.003175834	-0.002120156	0.03235963	0.001858209	0.6732773	-0.6950683
	-0.003177658	-0.002121133	0.01258381	0.0170758	0.6732773	-0.6950683	0.03860121	-0.00659243
8e+07	0.03306943	4.685123e-05	0.5898643	-0.7648406	0.02116677	0.009436921	-0.003737712	-0.001948658
	0.5898643	-0.7648406	0.03981094	-0.01134254	-0.003735385	-0.001947657	0.01530849	0.01766333
	0.02116677	0.009436921	-0.003735386	-0.001947655	0.03301733	-4.093092e-05	0.5897703	-0.7648588
	-0.003737713	-0.001948656	0.01530849	0.01766333	0.5897703	-0.7648588	0.03976382	-0.0114244
9e+07	0.03338088	-0.001813443	0.4993732	-0.8246969	0.02412951	0.006792322	-0.004272472	-0.001690449
	0.4993732	-0.8246969	0.04013041	-0.01644812	-0.004269609	-0.001689587	0.01795624	0.017784
	0.02412951	0.006792322	-0.004269608	-0.001689577	0.03332014	-0.001881652	0.499263	-0.82473
	-0.004272469	-0.00169044	0.01795624	0.01778401	0.499263	-0.82473	0.04007348	-0.0165092
1e+08	0.03342768	-0.003553956	0.4030055	-0.8739716	0.02645622	0.003375455	-0.004767342	-0.001349076
	0.4030055	-0.8739716	0.03959205	-0.02162138	-0.004763987	-0.001348541	0.02043083	0.01748245
	0.02645622	0.003375455	-0.004763987	-0.001348542	0.03336769	-0.003602274	0.4028684	-0.8740169
	-0.004767342	-0.001349077	0.02043083	0.01748245	0.4028684	-0.8740169	0.03953347	-0.02165986
1.1e+08	0.03328648	-0.005230522	0.3019799	-0.9120011	0.02796215	-0.0006246493	-0.005219538	-0.0009730903
	0.3019799	-0.9120011	0.03821347	-0.02679751	-0.005215488	-0.0009745247	0.02266981	0.01685711
	0.02796215	-0.0006246491	-0.005215488	-0.000974526	0.03324213	-0.005265028	0.3018114	-0.9120402
	-0.005219538	-0.0009730916	0.02266981	0.01685711	0.3018114	-0.9120402	0.03822523	-0.02681675
1.2e+08	0.0329428	-0.006779706	0.1976505	-0.9384575	0.02854854	-0.005039993	-0.005664365	-0.0005381636
	0.1976505	-0.9384575	0.0359408	-0.03168939	-0.005660852	-0.0005404867	0.02464009	0.01594956
	0.02854854	-0.005039993	-0.005660853	-0.000540488	0.03290609	-0.006812925	0.1974536	-0.9384847
	-0.005664365	-0.000538165	0.02464009	0.01594956	0.1974536	-0.9384847	0.03596902	-0.03172577
1.3e+08	0.03248131	-0.008192731	0.09129109	-0.9530924	0.02811249	-0.009665644	-0.006090666	-3.366529e-05
	0.09129109	-0.9530924	0.0328968	-0.03612938	-0.0060876	-3.614109e-05	0.02629247	0.01483918
	0.02811249	-0.009665644	-0.006087601	-3.614215e-05	0.03244628	-0.008227525	0.0910671	-0.9530994
	-0.006090667	-3.366638e-05	0.02629247	0.01483917	0.0910671	-0.9530994	0.03291442	-0.03617589
1.4e+08	0.03195816	-0.009492656	-0.0157882	-0.9557848	0.02660446	-0.01427191	-0.00649045	0.0005474118
	-0.0157882	-0.9557848	0.02920472	-0.03998318	-0.006487478	0.0005449251	0.02760545	0.01361441
	0.02660446	-0.01427191	-0.006487479	0.0005449243	0.0319216	-0.009528196	-0.01603591	-0.9557673
	-0.00649045	0.000547411	0.02760545	0.01361441	-0.01603591	-0.9557673	0.02920607	-0.04002692
1.5e+08	0.03140773	-0.01071733	-0.1222702	-0.9465617	0.02402643	-0.01861945	-0.006853295	0.001211188
	-0.1222702	-0.9465617	0.02500395	-0.04314339	-0.006850207	0.001208521	0.02857982	0.01236459
	0.02402643	-0.01861945	-0.006850207	0.001208521	0.03136898	-0.0107523	-0.1225377	-0.9465135
	-0.006853295	0.001211188	0.02857982	0.01236459	-0.1225377	-0.9465135	0.02499286	-0.04317557
1.6e+08	0.03084307	-0.01191136	-0.2268505	-0.925588	0.02043279	-0.02247111	-0.007165848	0.001962452
	-0.2268505	-0.925588	0.02044843	-0.04553162	-0.007162655	0.001959375	0.02923793	0.01117547
	0.02043279	-0.02247111	-0.007162656	0.001959375	0.03080257	-0.01194508	-0.2271332	-0.9255045
	-0.007165849	0.001962452	0.02923793	0.01117546	-0.2271332	-0.9255045	0.02043176	-0.04554844
1.7e+08	0.03025604	-0.01311772	-0.3282504	-0.8931698	0.01592914	-0.02560288	-0.007411713	0.002803731
	-0.3282504	-0.8931698	0.01570269	-0.04710182	-0.007408554	0.002800037	0.02962171	0.010124
	0.01592914	-0.02560288	-0.007408554	0.002800037	0.03021447	-0.01315045	-0.3285426	-0.8930475
	-0.007411713	0.00280373	0.02962171	0.010124	-0.3285426	-0.8930475	0.01568716	-0.04710324
1.8e+08	0.02962023	-0.0143726	-0.4252351	-0.8497511	0.01066866	-0.02781501	-0.007571965	0.003734432
	-0.4252351	-0.8497511	0.01093577	-0.04784206	-0.007569084	0.003730045	0.02979015	0.009274131
	0.01066866	-0.02781501	-0.007569084	0.003730045	0.02957783	-0.01440502	-0.4255318	-0.849588
	-0.007571965	0.003734432	0.02979015	0.00927413	-0.4255318	-0.849588	0.01092687	-0.04783032
1.9e+08	0.0288942	-0.01569865	-0.5166269	-0.7959075	0.004846407	-0.0289417	-0.007625673	0.004749794
	-0.5166269	-0.7959075	0.006314242	-0.04777517	-0.007623337	0.00474473	0.02981581	0.00867354
	0.004846407	-0.0289417	-0.007623337	0.00474473	0.02885057	-0.01573197	-0.5169214	-0.7956998
	-0.007625673	0.004749794	0.02981581	0.008673539	-0.5169214	-0.7956998	0.006315912	-0.04775349
2e+08	0.02802643	-0.01710254	-0.6013201	-0.7323363	-0.001308253	-0.02885887	-0.007550982	0.005840215
	-0.6013201	-0.7323363	0.00199519	-0.04695718	-0.007549442	0.005834612	0.02978017	0.0083503
	-0.001308253	-0.02885887	-0.007549442	0.005834612	0.02798054	-0.01713742	-0.6016056	-0.7320841
	-0.007550983	0.005840215	0.02978017	0.008350299	-0.6016056	-0.7320841	0.002009896	-0.04692958
2.1e+08	0.02696043	-0.01857131	-0.6782896	-0.6598553	-0.00754077	-0.02749177	-0.00732629	0.006990658
	-0.6782896	-0.6598553	-0.001879795	-0.04547498	-0.007325736	0.006984723	0.02976944	0.008312051
	-0.00754077	-0.02749177	-0.007325736	0.006984723	0.02691088	-0.01860803	-0.6785598	-0.6595572
	-0.00732629	0.006990658	0.02976944	0.008312051	-0.6785598	-0.6595572	-0.001850858	-0.04544518
2.2e+08	0.02564124	-0.02007141	-0.7466107	-0.5793855	-0.01358199	-0.02481932	-0.006931728	0.008180647
	-0.7466107	-0.5793855	-0.005191608	-0.04344221	-0.006932264	0.008174665	0.02986959	0.008545322
	-0.01358199	-0.02481932	-0.006932264	0.008174665	0.02558641	-0.02010965	-0.7468595	-0.5790428
	-0.006931728	0.008180647	0.02986959	0.008545321	-0.7468595	-0.5790428	-0.005148438	-0.04341403
2.3e+08	0.02402129	-0.02154945	-0.8054658	-0.4919448	-0.01915903	-0.02087644	-0.006350409	0.009384287
	-0.8054658	-0.4919448	-0.007848246	-0.04099415	-0.006352055	0.009378554	0.03016033	0.009015405
	-0.01915903	-0.02087644	-0.006352055	0.009378554	0.02395956	-0.02158824	-0.8056858	-0.4915596
	-0.00635041	0.009384287	0.03016033	0.009015405	-0.8056858	-0.4915596	-0.007791312	-0.04097071
2.4e+08	0.02206565	-0.02293429	-0.8541502	-0.3986355	-0.02400739	-0.01575488	-0.005569985	0.01057106
	-0.8541502	-0.3986355	-0.009787701	-0.03828106	-0.00557268	0.01056589	0.03071236	0.009669649
	-0.02400739	-0.01575488	-0.00557268	0.01056589	0.02199585	-0.02297207	-0.8543347	-0.398209
	-0.005569985	0.01057106	0.03071236	0.009669649	-0.8543347	-0.398209	-0.009718169	-0.03826497
2.5e+08	0.01975861	-0.02414033	-0.8920923	-0.3006285	-0.02788232	-0.009600569	-0.004583745	0.01170665
	-0.8920923	-0.3006285	-0.01098177	-0.03546185	-0.004587297	0.01170232	0.03158187	0.01043906
	-0.02788232	-0.009600569	-0.004587297	0.01170232	0.01967971	-0.02417517	-0.8922347	-0.3001642
	-0.004583745	0.01170665	0.03158187	0.01043906	-0.8922347	-0.3001642	-0.0109013	-0.03545542
2.6e+08	0.01710643	-0.02507278	-0.9188489	-0.1991531	-0.03057004	-0.00260947	-0.003391702	0.01275446
	-0.9188489	-0.1991531	-0.01143624	-0.03269699	-0.003395904	0.0127512	0.03280759	0.01124234
	-0.03057004	-0.00260947	-0.003395904	0.0127512	0.01701818	-0.02510227	-0.9189438	-0.1986565
	-0.003391702	0.01275446	0.03280759	0.01124234	-0.9189438	-0.1986565	-0.0113464	-0.0327019
2.7e+08	0.01414087	-0.02563362	-0.9341198	-0.09547786	-0.0318971	0.004979469	-0.002000984	0.01367663
	-0.9341198	-0.09547786	-0.01118998	-0.03014063	-0.002005514	0.01367453	0.03440851	0.01199031
	-0.0318971	0.004979469	-0.002005514	0.01367453	0.01404349	-0.02565529	-0.9341611	-0.09495214
	-0.002000984	0.01367663	0.03440851	0.01199031	-0.9341611	-0.09495214	-0.01109283	-0.03015811
2.8e+08	0.01092087	-0.02572811	-0.9377459	0.009103045	-0.03173976	0.01289266	-0.0004263118	0.0144361
	-0.9377459	0.009103045	-0.01031334	-0.02793442	-0.0004308253	0.01443532	0.03638283	0.01259078
	-0.03173976	0.01289266	-0.0004308254	0.01443532	0.01081516	-0.02573928	-0.9377281	0.009649987
	-0.0004263119	0.0144361	0.03638283	0.01259078	-0.9377281	0.009649987	-0.01021057	-0.02796537
2.9e+08	0.007531322	-0.02527218	-0.9297157	0.1132853	-0.03002977	0.02083213	0.001310262	0.0149978
	-0.9297157	0.1132853	-0.008904553	-0.02620096	0.0013061	0.01499832	0.03870655	0.01295284
	-0.03002977	0.02083213	0.0013061	0.01499832	0.007419095	-0.02527041	-0.9296356	0.1138475
	0.001310262	0.0149978	0.03870655	0.01295284	-0.9296356	0.1138475	-0.008798327	-0.02624599
3e+08	0.004081343	-0.02419913	-0.9101644	0.2157748	-0.02675969	0.02848734	0.003179769	0.01533119
	-0.9101644	0.2157748	-0.007084594	-0.02503838	0.003176318	0.01533282	0.04133609	0.01299263
	-0.02675969	0.02848734	0.003176318	0.01533282	0.003964676	-0.0241821	-0.9100175	0.2163447
	0.003179769	0.01533119	0.0413361	0.01299263	-0.9100175	0.2163447	-0.006976783	-0.02509769
3.1e+08	0.0007001693	-0.02246597	-0.8793685	0.3153001	-0.02198453	0.03554732	0.005147367	0.01541032
	-0.8793685	0.3153001	-0.004991269	-0.02451628	0.00514493	0.01541285	0.04420919	0.01263711
	-0.02198453	0.03554732	0.005144929	0.01541285	0.0005819043	-0.02243172	-0.8791514	0.3158693
	0.005147367	0.01541032	0.04420919	0.01263711	-0.8791514	0.3158693	-0.004883514	-0.02458969
3.2e+08	-0.002468639	-0.02005893	-0.837747	0.4106332	-0.01582137	0.04171334	0.007173507	0.01521619
	-0.837747	0.4106332	-0.002773086	-0.02467283	0.00717238	0.01521943	0.04724821	0.01182824
	-0.01582137	0.04171334	0.00717238	0.01521943	-0.002584864	-0.0200062	-0.8374595	0.4111913
	0.007173507	0.01521619	0.04724821	0.01182824	-0.8374595	0.4111913	-0.00266738	-0.02476011
3.3e+08	-0.005273486	-0.01699747	-0.7858566	0.5005987	-0.008446498	0.04671134	0.00921533	0.01473688
	-0.7858566	0.5005987	-0.0005820955	-0.02551378	0.009215669	0.01474041	0.05036386	0.01052599
	-0.008446498	0.04671134	0.009215669	0.01474041	-0.005383872	-0.0169257	-0.7854968	0.5011391
	0.00921533	0.01473688	0.05036386	0.01052599	-0.7854968	0.5011391	-0.0004800541	-0.02561412
3.4e+08	-0.007563444	-0.01333643	-0.7243759	0.5840995	-8.989271e-05	0.05030373	0.01122845	0.0139686
	-0.7243759	0.5840995	0.001433266	-0.02701218	0.01123037	0.01397199	0.05345988	0.008710509
	-8.98927e-05	0.05030373	0.01123037	0.01397199	-0.007663676	-0.01324591	-0.723946	0.5846117
	0.01122845	0.0139686	0.05345988	0.008710509	-0.723946	0.5846117	0.001530148	-0.02712468
3.5e+08	-0.009196077	-0.009166865	-0.6541049	0.6601205	0.00897241	0.0522994	0.01316838	0.0129152
	-0.6541049	0.6601205	0.003134826	-0.0291105	0.01317192	0.01291812	0.0564369	0.006383183
	0.00897241	0.0522994	0.01317192	0.01291812	-0.009281872	-0.009058775	-0.6536066	0.6605961
	0.01316838	0.0129152	0.0564369	0.006383183	-0.6536066	0.6605961	0.00322542	-0.02923391
3.6e+08	-0.01004638	-0.004614241	-0.5759504	0.7277471	0.01842836	0.05256302	0.01499247	0.01158846
	-0.5759504	0.7277471	0.004401261	-0.03172367	0.01499747	0.0115904	0.05919846	0.003566621
	0.01842836	0.05256302	0.01499747	0.0115904	-0.01011339	-0.004490832	-0.5753867	0.7281756
	0.01499247	0.01158846	0.05919846	0.00356662	-0.5753867	0.7281756	0.004484557	-0.03185662
3.7e+08	-0.01001504	0.0001656909	-0.4909085	0.7861748	0.02794103	0.05102114	0.01666108	0.0100068
	-0.4909085	0.7861748	0.005133095	-0.03474344	0.01666731	0.01000735	0.06165472	0.0003034537
	0.02794103	0.05102114	0.01666731	0.01000735	-0.01005941	0.000301185	-0.4902839	0.786549
	0.01666108	0.0100068	0.06165472	0.0003034537	-0.4902839	0.786549	0.005208473	-0.03488439
3.8e+08	-0.009035678	0.004991442	-0.4000607	0.8347173	0.03716121	0.04766689	0.01813898	0.0081948
	-0.4000607	0.8347173	0.005257127	-0.03804395	0.01814611	0.008193624	0.06372708	-0.003345567
	0.03716121	0.04766689	0.01814611	0.008193624	-0.009053959	0.00513474	-0.3993808	0.8350274
	0.01813898	0.0081948	0.06372708	-0.003345567	-0.3993808	0.8350274	0.005324361	-0.03819132
3.9e+08	-0.007081177	0.009664406	-0.3045487	0.8728181	0.04574057	0.04256137	0.01939628	0.006181659
	-0.3045487	0.8728181	0.004729237	-0.04148771	0.01940383	0.006178473	0.06535196	-0.007304853
	0.04574057	0.04256137	0.01940383	0.006178473	-0.007070873	0.009810413	-0.3038197	0.8730569
	0.01939628	0.006181659	0.06535196	-0.007304853	-0.3038197	0.8730569	0.004788448	-0.04163989
4e+08	-0.004167862	0.01397623	-0.2055682	0.90005	0.05334505	0.0358328	0.02040899	0.004000025
	-0.2055682	0.90005	0.003536115	-0.04493238	0.02041649	0.003994677	0.06648343	-0.01148769
	0.05334505	0.0358328	0.02041649	0.003994677	-0.004127415	0.01411918	-0.2047977	0.9002105
	0.02040899	0.004000025	0.06648343	-0.01148769	-0.2047977	0.9002105	0.003587793	-0.04508792
4.1e+08	-0.0003583771	0.01771976	-0.1043479	0.9161239	0.05966758	0.02767313	0.02115905	0.001684417
	-0.1043479	0.9161239	0.001695103	-0.04823728	0.02116606	0.001676942	0.06709504	-0.01580002
	0.05966758	0.02767313	0.02116606	0.001676942	-0.000287442	0.01785334	-0.1035456	0.9161996
	0.02115905	0.001684417	0.06709504	-0.01580002	-0.1035456	0.9161996	0.001740097	-0.04839489
4.2e+08	0.004238929	0.02069921	-0.002135204	0.9208858	0.06444043	0.01833161	0.02163457	-0.0007300265
	-0.002135204	0.9208858	-0.000747111	-0.05127003	0.02164053	-0.0007395643	0.06718111	-0.02014563
	0.06444043	0.01833161	0.02164053	-0.0007395643	0.004339326	0.02081676	-0.001309683	0.920872
	0.02163457	-0.0007300265	0.06718111	-0.02014563	-0.001309683	0.920872	-0.0007076054	-0.05142875
4.3e+08	0.009471287	0.02274006	0.09981782	0.9143219	0.06744563	0.008107213	0.0218289	-0.003208836
	0.09981782	0.9143219	-0.003716789	-0.05391253	0.02183326	-0.003220213	0.06675629	-0.02443034
	0.06744563	0.008107213	0.02183326	-0.003220213	0.009598723	0.02283514	0.1006552	0.9142153
	0.0218289	-0.003208836	0.06675629	-0.02443034	0.1006552	0.9142153	-0.003681518	-0.05407161
4.4e+08	0.0151467	0.02369955	0.2002699	0.8965544	0.06852367	-0.002661991	0.02173991	-0.00571913
	0.2002699	0.8965544	-0.007117756	-0.05606603	0.02174249	-0.005731994	0.06585488	-0.02856684
	0.06852367	-0.002661991	0.02174249	-0.005731994	0.01529729	0.02376598	0.2011087	0.8963505
	0.02173991	-0.00571913	0.06585488	-0.02856684	0.2011087	0.8963505	-0.007085201	-0.05622522
4.5e+08	0.02104049	0.02347528	0.2980041	0.8678377	0.06758038	-0.01361037	0.02136932	-0.008230245
	0.2980041	0.8678377	-0.01083571	-0.05765596	0.02136973	-0.008244202	0.06452825	-0.03247807
	0.06758038	-0.01361037	0.02136973	-0.008244202	0.02120907	0.02350769	0.2988329	0.867536
	0.02136932	-0.008230245	0.06452825	-0.03247807	0.2988329	0.867536	-0.01080433	-0.0578153
4.6e+08	0.02690437	0.02201309	0.3918432	0.828553	0.06459164	-0.02435696	0.02072139	-0.01071415
	0.3918432	0.828553	-0.01474407	-0.05863365	0.02071947	-0.01072873	0.0628424	-0.03610157
	0.06459164	-0.02435696	0.02071947	-0.01072873	0.02708437	0.0220068	0.3926503	0.8281525
	0.02072139	-0.01071415	0.0628424	-0.03610157	0.3926503	0.8281525	-0.01471228	-0.05879386
4.7e+08	0.03247636	0.01931199	0.4806593	0.779208	0.05960511	-0.03451962	0.01980186	-0.01314514
	0.4806593	0.779208	-0.01870986	-0.05898006	0.01979746	-0.0131599	0.06087392	-0.03939132
	0.05960511	-0.03451962	0.01979746	-0.0131599	0.03266036	0.01926392	0.4814343	0.7787114
	0.01980186	-0.01314514	0.06087392	-0.03939132	0.4814343	0.7787114	-0.01867655	-0.059142
4.8e+08	0.03749303	0.01542773	0.5633878	0.7204272	0.05273988	-0.04372772	0.01861697	-0.01549972
	0.5633878	0.7204272	-0.0226003	-0.05870449	0.01861016	-0.01551419	0.05870648	-0.04232059
	0.05273988	-0.04372772	0.01861016	-0.01551419	0.03767242	0.01533593	0.5641178	0.7198355
	0.01861697	-0.01549972	0.05870648	-0.04232059	0.5641178	0.7198355	-0.02256412	-0.05886958
4.9e+08	0.0417021	0.01047303	0.6390416	0.6529438	0.0441836	-0.05163586	0.01717322	-0.01775587
	0.6390416	0.6529438	-0.02628864	-0.05784497	0.01716414	-0.01776967	0.05642598	-0.04488219
	0.0441836	-0.05163586	0.01716414	-0.01776967	0.04186807	0.01033765	0.639715	0.6522611
	0.01717322	-0.01775587	0.05642598	-0.04488219	0.639715	0.6522611	-0.02624887	-0.05801473
5e+08	0.04487413	0.004615367	0.7067126	0.577591	0.03418667	-0.05793611	0.01547621	-0.01989197
	0.7067126	0.577591	-0.0296603	-0.05646548	0.01546511	-0.01990476	0.05411603	-0.04708906
	0.03418667	-0.05793611	0.01546511	-0.01990476	0.04501766	0.004438317	0.7073194	0.5768228
	0.01547621	-0.01989197	0.05411603	-0.04708906	0.7073194	0.5768228	-0.02961661	-0.05664172
5.1e+08	0.04681563	-0.001927614	0.7655941	0.4952957	0.0230554	-0.06236942	0.01353117	-0.02188585
	0.7655941	0.4952957	-0.03261784	-0.05465235	0.01351829	-0.02189742	0.05185381	-0.04897237
	0.0230554	-0.06236942	0.01351829	-0.02189742	0.04692784	-0.00214264	0.7661223	0.4944485
	0.01353117	-0.02188585	0.05185381	-0.04897237	0.7661223	0.4944485	-0.03257013	-0.05483721
5.2e+08	0.04737916	-0.00889669	0.814979	0.4070683	0.01114201	-0.06473573	0.01134326	-0.02371389
	0.814979	0.4070683	-0.03508582	-0.05251119	0.01132883	-0.02372405	0.0497061	-0.0505806
