!$
! Info: Touchstone file created by Circ.  Input file=C2M_PCB_100ohms_3p0in_20230620_v3.circ
!$
# Hz S RI R 50
0	0.005875312	2.292836e-24	0.9940943	-2.042433e-24	0.0001387788	6.963487e-23	-0.0001350695	1.660873e-20
	0.9940943	-1.897509e-24	0.005694155	7.941184e-25	-0.0001324012	1.628199e-20	-5.974672e-06	8.269629e-21
	0.0001387789	6.966921e-23	-0.0001324012	1.628178e-20	0.00587867	2.80339e-24	0.9941076	-2.006442e-24
	-0.0001350695	1.660875e-20	-5.974693e-06	8.269703e-21	0.9941076	-2.02321e-24	0.005707527	1.28264e-24
1e+07	0.008246214	0.003071919	0.9897375	-0.06195054	0.0004608384	0.00251705	-0.0003310577	-0.0006032421
	0.9897375	-0.06195054	0.008240038	0.003099036	-0.0003290477	-0.0006038376	0.0003398443	0.00257421
	0.0004608384	0.00251705	-0.0003290477	-0.0006038376	0.008357231	0.003069182	0.9896392	-0.06198222
	-0.0003310577	-0.0006032421	0.0003398443	0.00257421	0.9896392	-0.06198222	0.008351047	0.003096979
2e+07	0.01024394	0.004285292	0.9821966	-0.121633	0.0009471828	0.004991018	-0.0004280996	-0.001207146
	0.9821966	-0.121633	0.01062835	0.004210323	-0.0004267136	-0.001207509	0.000787848	0.005070592
	0.0009472218	0.004990929	-0.0004266884	-0.001207556	0.01033065	0.00424316	0.9821091	-0.1216494
	-0.0004280719	-0.001207189	0.0007878684	0.00507059	0.9821091	-0.1216494	0.01071579	0.00416951
3e+07	0.01174217	0.004685661	0.9716102	-0.179978	0.001755593	0.007292948	-0.0006026799	-0.001707391
	0.9716102	-0.179978	0.01267779	0.004392647	-0.0006015256	-0.001707468	0.001482584	0.007401944
	0.001755583	0.007292938	-0.0006015337	-0.001707465	0.01180892	0.004630176	0.97153	-0.1800002
	-0.0006026892	-0.001707389	0.001482575	0.007401961	0.97153	-0.1800002	0.01274688	0.004339062
4e+07	0.01292112	0.004764489	0.9578458	-0.2372674	0.002869311	0.009453894	-0.0008465646	-0.002159781
	0.9578458	-0.2372674	0.01455819	0.00413071	-0.0008454648	-0.002159525	0.002416814	0.009625903
	0.002869312	0.009453897	-0.0008454665	-0.002159523	0.01297045	0.004702937	0.9577702	-0.2373009
	-0.0008465659	-0.002159779	0.00241681	0.009625904	0.9577702	-0.2373009	0.01461153	0.004070955
5e+07	0.01385722	0.004658459	0.9408875	-0.2934293	0.004310885	0.01144838	-0.001191337	-0.00255738
	0.9408875	-0.2934293	0.01633448	0.003539981	-0.001190141	-0.002556804	0.00361936	0.01171434
	0.004310885	0.01144838	-0.001190143	-0.002556804	0.01389081	0.004595169	0.9408137	-0.2934772
	-0.001191339	-0.002557379	0.003619357	0.01171434	0.9408137	-0.2934772	0.01637439	0.003477857
6e+07	0.01458965	0.004441235	0.9207711	-0.3483313	0.006002973	0.01325712	-0.001574354	-0.002912501
	0.9207711	-0.3483313	0.01802512	0.002668169	-0.001572984	-0.00291168	0.005023425	0.01366861
	0.006002972	0.01325712	-0.001572982	-0.00291168	0.01460955	0.004379552	0.9206962	-0.3483958
	-0.001574353	-0.002912502	0.005023428	0.01366861	0.9206962	-0.3483958	0.01805319	0.00260607
7e+07	0.0151429	0.004163269	0.8975563	-0.401821	0.007926224	0.01485416	-0.001993232	-0.003223817
	0.8975563	-0.401821	0.01962889	0.001542895	-0.00199166	-0.00322283	0.006617332	0.01547142
	0.007926224	0.01485416	-0.001991657	-0.003222831	0.01515086	0.004105656	0.8974767	-0.4019034
	-0.00199323	-0.003223819	0.006617335	0.01547142	0.8974767	-0.4019034	0.01964691	0.001482914
8e+07	0.0155373	0.003864584	0.8713214	-0.4537418	0.01005768	0.01621497	-0.002444667	-0.003489553
	0.8713214	-0.4537418	0.02113614	0.0001851246	-0.002442875	-0.003488435	0.008385942	0.01710642
	0.01005768	0.01621497	-0.002442877	-0.003488433	0.01553522	0.003813072	0.8712335	-0.4538427
	-0.002444668	-0.00348955	0.00838594	0.01710642	0.8712335	-0.4538427	0.02114587	0.000129083
9e+07	0.01579345	0.003578945	0.8421553	-0.5039368	0.01237159	0.01731709	-0.00292478	-0.003707603
	0.8421553	-0.5039368	0.02253405	-0.00138547	-0.002922756	-0.003706406	0.01031162	0.01855876
	0.01237159	0.01731709	-0.002922759	-0.003706397	0.01578364	0.003535605	0.8420563	-0.5040572
	-0.002924781	-0.003707594	0.01031162	0.01855877	0.8420563	-0.5040572	0.02253732	-0.001435998
1e+08	0.0159386	0.00334193	0.8101544	-0.5522611	0.01483876	0.01813741	-0.003427861	-0.003873419
	0.8101544	-0.5522611	0.02381458	-0.003142001	-0.003425612	-0.003872215	0.012373	0.01981357
	0.01483876	0.01813741	-0.003425612	-0.003872215	0.01592488	0.003309834	0.8100385	-0.5524021
	-0.00342786	-0.00387342	0.012373	0.01981357	0.8100385	-0.5524021	0.02381383	-0.003184427
1.1e+08	0.01601604	0.003140809	0.7754052	-0.5985105	0.0174168	0.01867077	-0.003942068	-0.003998006
	0.7754052	-0.5985105	0.02500058	-0.005137169	-0.003938437	-0.003998073	0.01454532	0.02087548
	0.0174168	0.01867077	-0.003938437	-0.003998074	0.01600281	0.003126574	0.7752661	-0.5986643
	-0.003942067	-0.003998008	0.01454532	0.02087547	0.7752661	-0.5986643	0.02506668	-0.005168644
1.2e+08	0.01599602	0.002987695	0.7380885	-0.642551	0.02009078	0.01890579	-0.004478046	-0.004081608
	0.7380885	-0.642551	0.02599016	-0.007298927	-0.004474692	-0.004082555	0.016824	0.02173056
	0.02009078	0.01890579	-0.004474692	-0.004082556	0.01598799	0.002980852	0.737926	-0.6427159
	-0.004478045	-0.00408161	0.016824	0.02173056	0.737926	-0.6427159	0.02607013	-0.007355759
1.3e+08	0.01590434	0.002912813	0.6983312	-0.6842566	0.02282699	0.01882839	-0.005032475	-0.004119454
	0.6983312	-0.6842566	0.02679512	-0.009600364	-0.005029752	-0.004120525	0.01918562	0.0223688
	0.02282699	0.01882839	-0.005029752	-0.004120526	0.01590111	0.002907982	0.6981418	-0.6844284
	-0.005032475	-0.004119455	0.01918562	0.0223688	0.6981418	-0.6844284	0.0268613	-0.009675587
1.4e+08	0.01576587	0.002932224	0.6562701	-0.7234968	0.02559202	0.01843126	-0.005602308	-0.004109175
	0.6562701	-0.7234968	0.02741119	-0.01202528	-0.005600014	-0.004109945	0.02160842	0.0227853
	0.02559202	0.01843126	-0.005600014	-0.004109946	0.01576557	0.002927204	0.6560539	-0.7236736
	-0.005602308	-0.004109177	0.02160842	0.0227853	0.6560539	-0.7236736	0.02745687	-0.01210569
1.5e+08	0.0156059	0.00305469	0.6120556	-0.7601516	0.02835175	0.01771067	-0.00618415	-0.004049097
	0.6120556	-0.7601516	0.02782979	-0.01455619	-0.006181991	-0.004049453	0.02407061	0.02297732
	0.02835175	0.01771067	-0.006181991	-0.004049454	0.01560705	0.003049355	0.6118111	-0.7603297
	-0.00618415	-0.004049098	0.02407061	0.02297731	0.6118111	-0.7603297	0.02785755	-0.01463266
1.6e+08	0.01545015	0.003283809	0.565841	-0.7941063	0.03107204	0.01666636	-0.006774531	-0.003938017
	0.565841	-0.7941063	0.02804162	-0.01717339	-0.006772306	-0.003938023	0.02655084	0.02294475
	0.03107204	0.01666636	-0.006772307	-0.003938024	0.01545197	0.003278785	0.5655676	-0.7942826
	-0.006774531	-0.003938018	0.02655084	0.02294475	0.5655676	-0.7942826	0.02805704	-0.01724143
1.7e+08	0.015323	0.003618095	0.5177882	-0.8252542	0.03371866	0.01530164	-0.007369873	-0.003775034
	0.5177882	-0.8252542	0.02803875	-0.01985535	-0.007367451	-0.003774821	0.02902813	0.02268961
	0.03371866	0.01530164	-0.007367451	-0.003774822	0.01532557	0.003614241	0.5174859	-0.8254258
	-0.007369873	-0.003775035	0.02902813	0.02268961	0.5174859	-0.8254258	0.02804731	-0.01991396
1.8e+08	0.01524836	0.004052306	0.4680646	-0.8534998	0.03625812	0.01362321	-0.007966759	-0.003559492
	0.4680646	-0.8534998	0.02781571	-0.02257934	-0.007964125	-0.00355919	0.03148227	0.02221601
	0.03625812	0.01362321	-0.007964125	-0.003559191	0.01525205	0.004050186	0.4677337	-0.8536647
	-0.007966759	-0.003559493	0.03148227	0.02221601	0.4677337	-0.8536647	0.02782182	-0.02262946
1.9e+08	0.0152477	0.004577076	0.4168433	-0.8787567	0.03865784	0.01164118	-0.008561694	-0.003290873
	0.4168433	-0.8787567	0.02736946	-0.02532223	-0.008558879	-0.003290592	0.03389414	0.02153027
	0.03865784	0.01164118	-0.008558879	-0.003290592	0.01525356	0.004577074	0.4164828	-0.8789105
	-0.008561694	-0.003290874	0.03389414	0.02153027	0.4164828	-0.8789105	0.02737606	-0.02536568
2e+08	0.01534125	0.005180061	0.3642992	-0.9009481	0.04088589	0.009368692	-0.009151223	-0.002968786
	0.3642992	-0.9009481	0.02669942	-0.02806081	-0.009148301	-0.002968592	0.03624538	0.02064006
	0.04088589	0.009368692	-0.009148301	-0.002968592	0.01535014	0.005182051	0.3639108	-0.9010884
	-0.009151223	-0.002968786	0.03624538	0.02064006	0.3639108	-0.9010884	0.02670829	-0.02809983
2.1e+08	0.01554684	0.005845598	0.3106167	-0.9200066	0.04291212	0.00682211	-0.009731792	-0.00259295
	0.3106167	-0.9200066	0.02580786	-0.03077193	-0.00972883	-0.002592874	0.03851907	0.01955507
	0.04291212	0.00682211	-0.00972883	-0.002592874	0.01555964	0.005849244	0.3101997	-0.9201303
	-0.009731792	-0.00259295	0.03851907	0.01955507	0.3101997	-0.9201303	0.02581983	-0.03080847
2.2e+08	0.01587945	0.006555463	0.2559787	-0.9358772	0.04470806	0.004020653	-0.01029988	-0.002163236
	0.2559787	-0.9358772	0.0246991	-0.03343337	-0.01029696	-0.002163257	0.04070007	0.01828656
	0.04470806	0.004020653	-0.01029696	-0.002163257	0.01589695	0.006560183	0.2555342	-0.9359823
	-0.01029988	-0.002163236	0.04070007	0.01828656	0.2555342	-0.9359823	0.0247142	-0.03346925
2.3e+08	0.01635126	0.007289237	0.2005716	-0.9485159	0.04624682	0.0009863159	-0.01085173	-0.001679606
	0.2005716	-0.9485159	0.02337956	-0.0360238	-0.01084889	-0.001679691	0.04277386	0.01684637
	0.04624682	0.0009863159	-0.01084889	-0.001679691	0.01637415	0.00729421	0.2001016	-0.9485994
	-0.01085173	-0.001679606	0.04277386	0.01684637	0.2001016	-0.9485994	0.02339764	-0.03606012
2.4e+08	0.01697178	0.008024265	0.1445871	-0.9578854	0.04750408	-0.002256337	-0.0113836	-0.001142202
	0.1445871	-0.9578854	0.02185826	-0.03852239	-0.01138089	-0.001142312	0.04472843	0.01524821
	0.04750408	-0.002256337	-0.01138089	-0.001142312	0.01700044	0.008028669	0.1440914	-0.9579442
	-0.0113836	-0.001142202	0.04472843	0.01524821	0.1440914	-0.9579442	0.02187882	-0.03855992
2.5e+08	0.01774639	0.008736765	0.08821365	-0.9639652	0.04845777	-0.005680525	-0.01189157	-0.0005513472
	0.08821365	-0.9639652	0.02014589	-0.04090996	-0.011889	-0.0005513896	0.04655335	0.01350626
	0.04845777	-0.005680525	-0.011889	-0.0005513897	0.01778131	0.008739632	0.08769367	-0.9639965
	-0.01189157	-0.0005513473	0.04655335	0.01350626	0.08769367	-0.9639965	0.02016836	-0.04094917
2.6e+08	0.01867743	0.009401635	0.03164437	-0.9667414	0.04908877	-0.009257353	-0.01237183	9.239608e-05
	0.03164437	-0.9667414	0.01825482	-0.04316863	-0.01236942	9.244635e-05	0.04823976	0.01163537
	0.04908877	-0.009257353	-0.01236942	9.244627e-05	0.01871872	0.009401962	0.03110289	-0.9667436
	-0.01237183	9.2396e-05	0.04823976	0.01163537	0.03110289	-0.9667436	0.0182791	-0.04320958
2.7e+08	0.01976367	0.009993372	-0.02492989	-0.9662141	0.04938023	-0.01295613	-0.01282021	0.0007882899
	-0.02492989	-0.9662141	0.01619958	-0.04528182	-0.01281785	0.0007884989	0.04978079	0.009650746
	0.04938023	-0.01295613	-0.01281785	0.0007884988	0.01981145	0.009990191	-0.02549317	-0.9661839
	-0.01282021	0.0007882899	0.04978079	0.009650746	-0.02549317	-0.9661839	0.01622524	-0.04532453
2.8e+08	0.02099961	0.01048642	-0.08131825	-0.9623919	0.04931879	-0.01674476	-0.01323263	0.001535311
	-0.08131825	-0.9623919	0.0139959	-0.04723481	-0.01323037	0.00153574	0.05117171	0.007568046
	0.04931879	-0.01674476	-0.01323037	0.00153574	0.02105395	0.01047855	-0.08189937	-0.9623268
	-0.01323263	0.001535311	0.05117171	0.007568046	-0.08189937	-0.9623268	0.01402326	-0.04727906
2.9e+08	0.02237643	0.01085569	-0.1373298	-0.9552963	0.04889368	-0.02058963	-0.01360464	0.002332182
	-0.1373298	-0.9552963	0.01166087	-0.04901466	-0.01360245	0.002332834	0.05240884	0.005402389
	0.04889368	-0.02058963	-0.01360245	0.002332834	0.02243693	0.01084219	-0.1379274	-0.9551953
	-0.01360464	0.002332182	0.05240884	0.005402389	-0.1379274	-0.9551953	0.01168993	-0.0490605
3e+08	0.0238815	0.0110771	-0.1927775	-0.9449599	0.04809769	-0.02445649	-0.01393244	0.003177278
	-0.1927775	-0.9449599	0.009212814	-0.05061042	-0.01393018	0.003178189	0.05349096	0.003169039
	0.04809769	-0.02445649	-0.01393018	0.003178189	0.02394807	0.01105677	-0.1933893	-0.9448198
	-0.01393244	0.003177277	0.05349096	0.003169039	-0.1933893	-0.9448198	0.009243892	-0.05065784
3.1e+08	0.02549863	0.0111279	-0.2474748	-0.9314228	0.04692671	-0.02831032	-0.01421141	0.004068696
	-0.2474748	-0.9314228	0.00667122	-0.05201301	-0.01420906	0.004069868	0.05441823	0.0008826965
	0.04692671	-0.02831032	-0.01420906	0.004069867	0.02557092	0.01109955	-0.2480982	-0.9312409
	-0.01421141	0.004068696	0.05441823	0.0008826964	-0.2480982	-0.9312409	0.006704911	-0.05206197
3.2e+08	0.02720852	0.01098737	-0.3012409	-0.9147375	0.04537986	-0.03211577	-0.01443746	0.00500422
	-0.3012409	-0.9147375	0.00405608	-0.05321556	-0.01443506	0.005005673	0.05519245	-0.001442677
	0.04537986	-0.03211577	-0.01443506	0.005005673	0.02728579	0.01094987	-0.3018711	-0.9145132
	-0.01443746	0.00500422	0.05519245	-0.001442677	-0.3018711	-0.9145132	0.004092736	-0.0532665
3.3e+08	0.02898837	0.01063708	-0.3538933	-0.8949691	0.04345956	-0.03583747	-0.0146062	0.005981238
	-0.3538933	-0.8949691	0.001388238	-0.05421366	-0.01460364	0.005982954	0.05581688	-0.003793914
	0.04345956	-0.03583747	-0.01460364	0.005982954	0.02907002	0.01058938	-0.3545301	-0.8946996
	-0.0146062	0.005981238	0.05581688	-0.003793914	-0.3545301	-0.8946996	0.001428103	-0.05426687
3.4e+08	0.03081306	0.01006137	-0.4052604	-0.8721881	0.04117155	-0.03944044	-0.01471362	0.006996854
	-0.4052604	-0.8721881	-0.001311672	-0.05500491	-0.01471086	0.006998848	0.05629624	-0.006158853
	0.04117155	-0.03944044	-0.01471086	0.006998848	0.03089813	0.01000237	-0.405899	-0.8718734
	-0.01471362	0.006996854	0.05629624	-0.006158853	-0.405899	-0.8718734	-0.001268161	-0.05506093
3.5e+08	0.03265466	0.009247866	-0.4551705	-0.8464783	0.03852479	-0.04288993	-0.01475548	0.008047746
	-0.4551705	-0.8464783	-0.004022713	-0.05558929	-0.01475258	0.008050037	0.05663587	-0.008526447
	0.03852479	-0.04288993	-0.01475258	0.008050037	0.03274219	0.009176564	-0.4558087	-0.8461169
	-0.01475548	0.008047746	0.05663587	-0.008526447	-0.4558087	-0.8461169	-0.003975251	-0.05564867
3.6e+08	0.03448322	0.008187676	-0.5034579	-0.8179328	0.03553132	-0.04615243	-0.01472795	0.009130286
	-0.5034579	-0.8179328	-0.006724031	-0.05596917	-0.01472481	0.009132849	0.05684273	-0.0108869
	0.03553132	-0.04615243	-0.01472481	0.009132849	0.03457193	0.00810309	-0.5040911	-0.8175235
	-0.01472795	0.009130286	0.05684273	-0.0108869	-0.5040911	-0.8175235	-0.006672456	-0.05603248
3.7e+08	0.03626755	0.006875321	-0.5499646	-0.7866504	0.0322062	-0.04919532	-0.01462707	0.01024045
	-0.5499646	-0.7866504	-0.009395509	-0.05614885	-0.01462364	0.01024329	0.05692411	-0.0132318
	0.0322062	-0.04919532	-0.01462364	0.01024329	0.03635617	0.00677667	-0.5505906	-0.786193
	-0.01462707	0.01024045	0.05692411	-0.0132318	-0.5505906	-0.786193	-0.009339805	-0.05621681
3.8e+08	0.03797481	0.005309706	-0.5945351	-0.7527431	0.02856756	-0.05198756	-0.01444922	0.01137385
	-0.5945351	-0.7527431	-0.01201747	-0.05613518	-0.01444548	0.01137696	0.05688809	-0.01555402
	0.02856756	-0.05198756	-0.01444548	0.01137696	0.03806173	0.005196263	-0.5951492	-0.7522367
	-0.01444922	0.01137385	0.05688809	-0.01555402	-0.5951492	-0.7522367	-0.01195754	-0.05620843
3.9e+08	0.03957217	0.003493463	-0.6370256	-0.7163278	0.02463626	-0.05449964	-0.01419088	0.01252577
	-0.6370256	-0.7163278	-0.01457155	-0.05593679	-0.01418673	0.0125291	0.05674308	-0.01784799
	0.02463626	-0.05449964	-0.01418673	0.0125291	0.03965578	0.003364723	-0.6376251	-0.7157719
	-0.01419088	0.01252577	0.05674308	-0.01784799	-0.6376251	-0.7157719	-0.01450751	-0.05601596
4e+08	0.04102594	0.001433799	-0.6772952	-0.6775318	0.02043573	-0.05670401	-0.01384888	0.01369111
	-0.6772952	-0.6775318	-0.01704025	-0.05556447	-0.01384427	0.01369467	0.05649778	-0.02010971
	0.02043573	-0.05670401	-0.01384427	0.01369467	0.04110451	0.001289351	-0.6778763	-0.6769264
	-0.01384888	0.01369111	0.05649778	-0.02010971	-0.6778763	-0.6769264	-0.01697223	-0.05565026
4.1e+08	0.04230334	-0.0008577924	-0.7152124	-0.6364896	0.01599206	-0.05857508	-0.01342015	0.01486432
	-0.7152124	-0.6364896	-0.01940766	-0.0550307	-0.01341513	0.01486813	0.0561606	-0.02233633
	0.01599206	-0.05857508	-0.01341513	0.01486813	0.042375	-0.001018129	-0.7157706	-0.6358358
	-0.01342015	0.01486432	0.0561606	-0.02233633	-0.7157706	-0.6358358	-0.01933583	-0.05512384
4.2e+08	0.0433725	-0.003366077	-0.7506523	-0.593341	0.01133313	-0.06008975	-0.01290211	0.01603969
	-0.7506523	-0.593341	-0.02165943	-0.0543496	-0.01289658	0.01604371	0.05573995	-0.02452654
	0.01133313	-0.06008975	-0.01289658	0.01604371	0.0434352	-0.003542214	-0.7511848	-0.5926386
	-0.01290211	0.01603969	0.05573995	-0.02452654	-0.7511848	-0.5926386	-0.02158401	-0.05445074
4.3e+08	0.04420286	-0.006071088	-0.7834997	-0.5482344	0.006489268	-0.06122751	-0.01229239	0.01721105
	-0.7834997	-0.5482344	-0.0237827	-0.05353678	-0.01228623	0.01721519	0.05524362	-0.02668043
	0.006489268	-0.06122751	-0.01228623	0.01721519	0.04425467	-0.006262784	-0.7840026	-0.5474858
	-0.01229239	0.01721105	0.05524362	-0.02668043	-0.7840026	-0.5474858	-0.02370414	-0.05364661
4.4e+08	0.04476594	-0.008949132	-0.8136482	-0.5013246	0.001492426	-0.06197031	-0.01158891	0.01837182
	-0.8136482	-0.5013246	-0.02576691	-0.05260901	-0.01158223	0.01837621	0.0546791	-0.02879948
	0.001492426	-0.06197031	-0.01158223	0.01837621	0.04480477	-0.009155854	-0.8141166	-0.5005296
	-0.01158891	0.01837182	0.0546791	-0.02879948	-0.8141166	-0.5005296	-0.0256855	-0.05272821
4.5e+08	0.04503554	-0.01197267	-0.8409992	-0.452772	-0.003624008	-0.06230291	-0.01079011	0.01951524
	-0.8409992	-0.452772	-0.02760329	-0.05158452	-0.0107828	0.0195198	0.0540528	-0.03088597
	-0.003624008	-0.06230291	-0.0107828	0.0195198	0.04505948	-0.01219375	-0.8414301	-0.4519328
	-0.01079011	0.01951524	0.0540528	-0.03088597	-0.8414301	-0.4519328	-0.02751956	-0.05171365
4.6e+08	0.04498882	-0.01511088	-0.8654631	-0.4027399	-0.008824942	-0.06221312	-0.009894834	0.02063427
	-0.8654631	-0.4027399	-0.02928522	-0.05048137	-0.00988686	0.02063897	0.05337049	-0.03294358
	-0.008824942	-0.06221312	-0.00988686	0.02063897	0.04499565	-0.01534527	-0.8658522	-0.4018575
	-0.009894834	0.02063427	0.05337049	-0.03294358	-0.8658522	-0.4018575	-0.02919959	-0.05062125
4.7e+08	0.04460598	-0.01832941	-0.8869606	-0.3513996	-0.01407475	-0.06169173	-0.008902441	0.02172142
	-0.8869606	-0.3513996	-0.03080825	-0.04931928	-0.008893673	0.02172619	0.05263652	-0.03497635
	-0.01407475	-0.06169173	-0.008893673	0.02172619	0.04459396	-0.01857597	-0.8873065	-0.3504765
	-0.008902441	0.02172142	0.05263652	-0.03497635	-0.8873065	-0.3504765	-0.03072169	-0.04947033
4.8e+08	0.04387125	-0.02159118	-0.9054226	-0.2989266	-0.01933665	-0.06073262	-0.00781263	0.02276897
	-0.9054226	-0.2989266	-0.03217049	-0.04811741	-0.007803042	0.02277377	0.05185444	-0.03698953
	-0.01933665	-0.06073262	-0.007803042	0.02277377	0.0438382	-0.0218483	-0.9057197	-0.2979647
	-0.00781263	0.02276897	0.05185444	-0.03698953	-0.9057197	-0.2979647	-0.03208337	-0.04828036
4.9e+08	0.04277306	-0.02485719	-0.9207915	-0.2454978	-0.02457348	-0.05933294	-0.006625919	0.02376923
	-0.9207915	-0.2454978	-0.03337199	-0.0468954	-0.006615448	0.02377403	0.05102633	-0.03898847
	-0.02457348	-0.05933294	-0.006615448	0.02377403	0.04271737	-0.02512316	-0.9210366	-0.2444997
	-0.006625919	0.02376923	0.05102633	-0.03898847	-0.9210366	-0.2444997	-0.03328513	-0.04707066
5e+08	0.04130393	-0.02808609	-0.9330144	-0.1912953	-0.02974795	-0.0574927	-0.005343151	0.024714
	-0.9330144	-0.1912953	-0.03441518	-0.04567266	-0.005331764	0.02471875	0.05015292	-0.04097935
	-0.02974795	-0.0574927	-0.005331764	0.02471875	0.04122408	-0.02835891	-0.9332055	-0.1902634
	-0.005343151	0.024714	0.05015292	-0.04097935	-0.9332055	-0.1902634	-0.03432945	-0.04586062
5.1e+08	0.03946172	-0.03123545	-0.9420556	-0.1365012	-0.03482267	-0.05521541	-0.003965888	0.02559496
	-0.9420556	-0.1365012	-0.03530452	-0.04446752	-0.00395351	0.02559963	0.0492336	-0.04296783
	-0.03482267	-0.05521541	-0.00395351	0.02559963	0.03935613	-0.03151289	-0.9421883	-0.1354389
	-0.003965888	0.02559496	0.0492336	-0.04296783	-0.9421883	-0.1354389	-0.0352207	-0.04466877
5.2e+08	0.03724845	-0.03426212	-0.9478861	-0.081303	-0.03976076	-0.05250786	-0.002496395	0.02640378
