!$
! Info: Touchstone file created by Circ.  Input file=C2M_PCB_100ohms_7p0in_20230620_v3.circ
!$
# Hz S RI R 50
0	0.009964975	3.380354e-24	0.9900047	-3.198724e-24	0.0001591985	9.046993e-23	-0.0001555045	1.917996e-20
	0.9900047	-3.054365e-24	0.009783566	1.998942e-24	-0.0001528466	1.885442e-20	1.448606e-05	8.382767e-21
	0.0001591985	9.050395e-23	-0.0001528466	1.88542e-20	0.009968306	3.843391e-24	0.990018	-3.072246e-24
	-0.0001555045	1.917998e-20	1.448604e-05	8.382841e-21	0.990018	-3.088961e-24	0.009797048	2.385082e-24
1e+07	0.01425472	0.005320217	0.9805674	-0.102078	0.0008567748	0.00314207	-0.0005370508	-0.0006137897
	0.9805674	-0.102078	0.01434524	0.005273344	-0.0005350914	-0.0006145082	0.0006295754	0.003223557
	0.0008567748	0.00314207	-0.0005350914	-0.0006145082	0.01442588	0.005306181	0.9804072	-0.1021007
	-0.0005370508	-0.0006137897	0.0006295754	0.003223557	0.9804072	-0.1021007	0.01451652	0.00526098
2e+07	0.01808642	0.007186411	0.9620498	-0.199392	0.001919434	0.006167029	-0.0006706538	-0.001275744
	0.9620498	-0.199392	0.01882005	0.0068555	-0.0006693916	-0.001276252	0.001366854	0.006380471
	0.001919458	0.006166936	-0.0006693698	-0.001276301	0.01821173	0.007104873	0.9619179	-0.1993718
	-0.0006706294	-0.00127579	0.001366875	0.006380469	0.9619179	-0.1993718	0.01894635	0.006776988
3e+07	0.02106446	0.007462944	0.93501	-0.2930336	0.003657482	0.008708947	-0.0009259615	-0.001741405
	0.93501	-0.2930336	0.02269903	0.006572956	-0.0009249743	-0.001741605	0.00255154	0.009201514
	0.00365747	0.00870894	-0.000924982	-0.001741602	0.02115148	0.007358633	0.9348985	-0.2930087
	-0.0009259704	-0.001741401	0.002551532	0.009201531	0.9348985	-0.2930087	0.02278856	0.006472816
4e+07	0.0234625	0.007040128	0.8994474	-0.3829845	0.005984226	0.01074906	-0.001286824	-0.002103341
	0.8994474	-0.3829845	0.0261845	0.00526485	-0.001285893	-0.00210317	0.004145579	0.0117411
	0.005984227	0.01074906	-0.001285894	-0.002103167	0.0235159	0.006926934	0.8993506	-0.3829653
	-0.001286825	-0.002103338	0.004145575	0.0117411	0.8993506	-0.3829653	0.02624169	0.005156265
5e+07	0.02537963	0.006194258	0.8556292	-0.4686367	0.008877562	0.01216224	-0.001817172	-0.00231929
	0.8556292	-0.4686367	0.02929389	0.00316144	-0.001816096	-0.002318759	0.006169492	0.01389658
	0.008877563	0.01216224	-0.001816098	-0.002318758	0.02540347	0.006080938	0.8555413	-0.4686289
	-0.001817174	-0.002319289	0.006169489	0.01389658	0.8555413	-0.4686289	0.02932304	0.00305261
6e+07	0.02687312	0.005092447	0.8039556	-0.5493119	0.01207607	0.01290469	-0.002369496	-0.002440295
	0.8039556	-0.5493119	0.0319866	0.0003960246	-0.002368154	-0.002439488	0.008436172	0.01569186
	0.01207607	0.01290469	-0.002368152	-0.002439488	0.02687223	0.004985274	0.8038709	-0.549319
	-0.002369495	-0.002440296	0.008436176	0.01569186	0.8038709	-0.549319	0.03199162	0.000292593
7e+07	0.02799007	0.003854285	0.7449187	-0.6243354	0.01544211	0.0129218	-0.002933475	-0.002470634
	0.7449187	-0.6243354	0.03420432	-0.002922219	-0.002931796	-0.002469651	0.01088159	0.01710249
	0.01544212	0.0129218	-0.002931794	-0.002469653	0.02796921	0.003757751	0.7448308	-0.6243588
	-0.002933473	-0.002470637	0.01088159	0.01710249	0.7448308	-0.6243588	0.03418956	-0.003015766
8e+07	0.02878118	0.002571602	0.6790873	-0.6930686	0.01882759	0.0121851	-0.003499161	-0.002414316
	0.6790873	-0.6930686	0.0358896	-0.006687032	-0.003497077	-0.002413236	0.01343682	0.01811584
	0.01882759	0.0121851	-0.003497078	-0.002413234	0.02874539	0.002488852	0.6789899	-0.6931083
	-0.003499162	-0.002414313	0.01343682	0.01811585	0.6789899	-0.6931083	0.03585962	-0.006767225
9e+07	0.02930418	0.001313965	0.6070915	-0.7549216	0.02207969	0.010694	-0.004056997	-0.002274939
	0.6070915	-0.7549216	0.03699535	-0.01078849	-0.004054466	-0.002273876	0.01603119	0.0187321
	0.02207969	0.010694	-0.004054466	-0.002273866	0.02925916	0.001247114	0.6069789	-0.7549773
	-0.004056995	-0.00227493	0.01603118	0.01873211	0.6069789	-0.7549773	0.03695507	-0.01085286
1e+08	0.02963339	0.0001372292	0.5296041	-0.8093735	0.02504225	0.008471916	-0.004592752	-0.00205243
	0.5296041	-0.8093735	0.0375015	-0.01510673	-0.004589785	-0.002051527	0.01859043	0.01896275
	0.02504225	0.008471915	-0.004589785	-0.002051528	0.02958712	8.794263e-05	0.5294668	-0.809444
	-0.004592751	-0.002052431	0.01859043	0.01896275	0.5294668	-0.809444	0.03745736	-0.01515264
1.1e+08	0.02983962	-0.001004663	0.4473597	-0.8558564	0.02755718	0.005609082	-0.005095634	-0.001786306
	0.4473597	-0.8558564	0.03740512	-0.01963447	-0.005091753	-0.001787156	0.02105727	0.01886545
	0.02755718	0.005609082	-0.005091753	-0.001787158	0.02980565	-0.001037813	0.4471916	-0.8559263
	-0.005095634	-0.001786308	0.02105727	0.01886545	0.4471916	-0.8559263	0.03742926	-0.01966346
1.2e+08	0.02989681	-0.00206397	0.3612298	-0.8940349	0.0295288	0.002180494	-0.005594911	-0.00146391
	0.3612298	-0.8940349	0.03659899	-0.02415933	-0.005591469	-0.001465578	0.0234017	0.01845037
	0.0295288	0.002180494	-0.005591469	-0.001465579	0.0298708	-0.002094342	0.3610327	-0.8940994
	-0.005594911	-0.001463911	0.02340171	0.01845037	0.3610327	-0.8940994	0.03663758	-0.02420777
1.3e+08	0.02987526	-0.003021905	0.2720141	-0.9236119	0.03083833	-0.001713342	-0.006081984	-0.001078372
	0.2720141	-0.9236119	0.03513718	-0.02855698	-0.006078972	-0.001080086	0.02556905	0.01775611
	0.03083833	-0.001713342	-0.006078973	-0.001080088	0.02985245	-0.003053782	0.2717875	-0.9236635
	-0.006081985	-0.001078373	0.02556905	0.01775611	0.2717875	-0.9236635	0.03516281	-0.02861769
1.4e+08	0.02982799	-0.003889069	0.18055	-0.9443534	0.03139234	-0.005945685	-0.006551656	-0.0006265956
	0.18055	-0.9443534	0.03306698	-0.03272194	-0.006548706	-0.0006281366	0.02752037	0.01683254
	0.03139234	-0.005945684	-0.006548707	-0.0006281375	0.02980509	-0.003922685	0.1802959	-0.9443883
	-0.006551656	-0.0006265965	0.02752037	0.01683254	0.1802959	-0.9443883	0.03307359	-0.03278166
1.5e+08	0.02979514	-0.004691846	0.08769663	-0.9561106	0.03112219	-0.01037229	-0.00699815	-0.0001059201
	0.08769663	-0.9561106	0.030446	-0.03655802	-0.006994972	-0.0001074036	0.02922884	0.01573502
	0.03112219	-0.01037229	-0.006994973	-0.0001074043	0.02977103	-0.004726231	0.08741705	-0.9561225
	-0.00699815	-0.0001059207	0.02922884	0.01573502	0.08741705	-0.9561225	0.03043699	-0.03660755
1.6e+08	0.02980346	-0.005467249	-0.005679021	-0.9588112	0.0299868	-0.01483678	-0.007414732	0.0004861523
	-0.005679021	-0.9588112	0.0273443	-0.0399794	-0.007411233	0.0004844982	0.03068029	0.01452242
	0.0299868	-0.01483678	-0.007411234	0.0004844978	0.02977822	-0.005501608	-0.005981277	-0.9587955
	-0.007414732	0.0004861519	0.03068029	0.01452242	-0.005981277	-0.9587955	0.02732618	-0.04001435
1.7e+08	0.02986421	-0.006257594	-0.09870605	-0.9524663	0.02797447	-0.01917556	-0.007793336	0.001151794
	-0.09870605	-0.9524663	0.02384452	-0.04291341	-0.007789545	0.001149722	0.03187313	0.01325407
	0.02797447	-0.01917556	-0.007789546	0.001149722	0.02983855	-0.006291879	-0.09902739	-0.9524188
	-0.007793337	0.001151793	0.03187313	0.01325407	-0.09902739	-0.9524188	0.02382376	-0.04293305
1.8e+08	0.0299741	-0.007107102	-0.1905212	-0.9371701	0.02510382	-0.02322371	-0.008124595	0.001892628
	-0.1905212	-0.9371701	0.02004019	-0.04530301	-0.008120665	0.001889973	0.03281826	0.01198726
	0.02510382	-0.02322371	-0.008120665	0.001889973	0.02994852	-0.007141782	-0.1908581	-0.9370881
	-0.008124595	0.001892628	0.03281826	0.01198726	-0.1908581	-0.9370881	0.02002217	-0.04530881
1.9e+08	0.03011472	-0.008056793	-0.2802748	-0.9130977	0.02142379	-0.02682035	-0.008397579	0.002709226
	-0.2802748	-0.9130977	0.0160327	-0.04710892	-0.00839371	0.002705887	0.03353835	0.01077508
	0.02142379	-0.02682035	-0.00839371	0.002705887	0.03008952	-0.008093081	-0.2806228	-0.9129762
	-0.00839758	0.002709226	0.03353835	0.01077508	-0.2806228	-0.9129762	0.01602137	-0.04710326
2e+08	0.0302549	-0.009142112	-0.3671402	-0.8805016	0.01701228	-0.02981351	-0.008599994	0.003600707
	-0.3671402	-0.8805016	0.01192808	-0.04831052	-0.008596412	0.003596675	0.03406615	0.009663441
	0.01701228	-0.02981351	-0.008596413	0.003596675	0.03022965	-0.009181129	-0.3674939	-0.880339
	-0.008599994	0.003600707	0.03406615	0.009663441	-0.3674939	-0.880339	0.01192615	-0.04829658
2.1e+08	0.03035186	-0.01038913	-0.4503152	-0.839714	0.01197475	-0.03206602	-0.008718307	0.004564179
	-0.4503152	-0.839714	0.007834189	-0.04890666	-0.008715219	0.004559502	0.03444343	0.008689939
	0.01197475	-0.03206602	-0.008715219	0.004559502	0.03032569	-0.01043191	-0.4506703	-0.8395072
	-0.008718307	0.004564179	0.03444343	0.008689939	-0.4506703	-0.8395072	0.00784325	-0.04888734
2.2e+08	0.03035425	-0.01181163	-0.5290384	-0.791139	0.006441086	-0.03345991	-0.008738247	0.00559441
	-0.5290384	-0.791139	0.003856137	-0.04891564	-0.008735826	0.005589223	0.03471904	0.007882007
	0.006441086	-0.03345991	-0.008735826	0.005589222	0.03032585	-0.01185894	-0.5293898	-0.7908873
	-0.008738247	0.00559441	0.03471904	0.007882007	-0.5293898	-0.7908873	0.003876809	-0.048894
2.3e+08	0.03020527	-0.0134095	-0.6025903	-0.7352516	0.0005622147	-0.03390025	-0.008645041	0.006683355
	-0.6025903	-0.7352516	9.323226e-05	-0.04837444	-0.008643423	0.006677812	0.03494543	0.007254989
	0.0005622147	-0.03390025	-0.008643423	0.006677812	0.03017299	-0.01346172	-0.6029316	-0.7349546
	-0.008645041	0.006683355	0.03494543	0.007254989	-0.6029316	-0.7349546	0.0001258339	-0.04835296
2.4e+08	0.02984566	-0.01516772	-0.6702955	-0.6725925	-0.005494205	-0.03331944	-0.008424214	0.007820033
	-0.6702955	-0.6725925	-0.003363375	-0.04733679	-0.008423499	0.007814328	0.03517813	0.006812985
	-0.005494205	-0.03331944	-0.008423499	0.007814328	0.02980782	-0.01522464	-0.6706213	-0.6722486
	-0.008424214	0.007820033	0.03517813	0.006812985	-0.6706213	-0.6722486	-0.003319098	-0.04731759
2.5e+08	0.0292183	-0.01705475	-0.7315407	-0.6037635	-0.0115487	-0.03167944	-0.008062075	0.008990309
	-0.7315407	-0.6037635	-0.006435014	-0.04587193	-0.008062278	0.008984675	0.03547189	0.006547386
	-0.0115487	-0.03167944	-0.008062278	0.008984675	0.02917308	-0.01711592	-0.731845	-0.6033733
	-0.008062075	0.008990309	0.03547189	0.006547386	-0.731845	-0.6033733	-0.006379656	-0.045857
2.6e+08	0.0282712	-0.01902401	-0.7857674	-0.5294228	-0.01741524	-0.02897412	-0.007546604	0.01017715
	-0.7857674	-0.5294228	-0.009057264	-0.04406197	-0.007547744	0.0101718	0.03587847	0.006437698
	-0.01741524	-0.02897412	-0.007547744	0.0101718	0.02821697	-0.01908829	-0.7860444	-0.5289887
	-0.007546604	0.01017715	0.03587847	0.006437697	-0.7860444	-0.5289887	-0.008991216	-0.04405293
2.7e+08	0.02696165	-0.02101471	-0.8324863	-0.4502782	-0.02290655	-0.0252295	-0.006867731	0.01136044
	-0.8324863	-0.4502782	-0.01118176	-0.04199855	-0.006869686	0.01135552	0.03644436	0.006452353
	-0.02290655	-0.0252295	-0.006869686	0.01135552	0.02689694	-0.02108071	-0.8327306	-0.4498
	-0.006867731	0.01136044	0.03644436	0.006452353	-0.8327306	-0.4498	-0.01110594	-0.04199682
2.8e+08	0.02525978	-0.02295335	-0.8712762	-0.3670804	-0.02784023	-0.02050466	-0.006018313	0.01251761
	-0.8712762	-0.3670804	-0.0127782	-0.03978027	-0.006021005	0.01251342	0.03720895	0.00655018
	-0.02784023	-0.02050466	-0.006021006	0.01251342	0.02518321	-0.02301924	-0.8714807	-0.3665621
	-0.006018313	0.01251761	0.03720895	0.00655018	-0.8714807	-0.3665621	-0.01269307	-0.03978717
2.9e+08	0.02315114	-0.02475732	-0.901791	-0.2806189	-0.03204374	-0.01489016	-0.004994438	0.01362375
	-0.901791	-0.2806189	-0.0138351	-0.03750908	-0.004997726	0.01362045	0.03820141	0.006681444
	-0.03204374	-0.01489016	-0.004997726	0.01362045	0.02306205	-0.0248208	-0.9019516	-0.2800636
	-0.004994438	0.01362375	0.03820141	0.006681444	-0.9019516	-0.2800636	-0.01374176	-0.03752594
3e+08	0.02063929	-0.02633782	-0.9237634	-0.1917112	-0.03536058	-0.008506497	-0.0037964	0.01465298
	-0.9237634	-0.1917112	-0.01435985	-0.03528666	-0.003800036	0.01465066	0.03944084	0.006790843
	-0.03536058	-0.008506497	-0.003800036	0.01465066	0.02053702	-0.02639651	-0.9238739	-0.1911224
	-0.0037964	0.01465298	0.03944084	0.006790842	-0.9238739	-0.1911224	-0.0142592	-0.03531461
3.1e+08	0.01774724	-0.02760387	-0.9370031	-0.1011976	-0.0376549	-0.001501106	-0.002428364	0.01557794
	-0.9370031	-0.1011976	-0.01437803	-0.033211	-0.002432129	0.01557669	0.04093417	0.006819161
	-0.0376549	-0.001501106	-0.002432129	0.01557669	0.01763166	-0.02765504	-0.9370575	-0.1005798
	-0.002428364	0.01557794	0.04093417	0.006819161	-0.9370575	-0.1005798	-0.01427093	-0.03325102
3.2e+08	0.01451807	-0.02846679	-0.9414044	-0.009930825	-0.03881612	0.005955286	-0.0008991686	0.01637159
	-0.9414044	-0.009930825	-0.01393299	-0.03137304	-0.0009028051	0.01637157	0.0426759	0.006705939
	-0.03881612	0.005955286	-0.0009028052	0.01637157	0.01438984	-0.0285075	-0.9413987	-0.009291563
	-0.0008991686	0.01637159	0.0426759	0.006705939	-0.9413987	-0.009291563	-0.01382087	-0.03142632
3.3e+08	0.01101514	-0.02884416	-0.9369461	0.08122436	-0.03876286	0.01367308	0.0007778507	0.01700738
	-0.9369461	0.08122436	-0.01308385	-0.02985403	0.0007746398	0.0170085	0.04464796	0.006391983
	-0.03876286	0.01367308	0.0007746398	0.0170085	0.01087531	-0.02887166	-0.9368761	0.08188193
	0.0007778507	0.01700738	0.04464796	0.006391983	-0.9368761	0.08188193	-0.01296813	-0.0299212
3.4e+08	0.007320306	-0.02866475	-0.9236887	0.1714134	-0.03744622	0.02144897	0.002584833	0.01746058
	-0.9236887	0.1714134	-0.01190337	-0.02872197	0.00258237	0.01746278	0.0468205	0.005821973
	-0.03744622	0.02144897	0.00258237	0.01746278	0.007170656	-0.02867616	-0.9235518	0.1720807
	0.002584833	0.01746058	0.0468205	0.005821972	-0.9235518	0.1720807	-0.01178562	-0.02880376
3.5e+08	0.003532495	-0.02787226	-0.9017783	0.2597862	-0.03485168	0.02907116	0.004499687	0.01770856
	-0.9017783	0.2597862	-0.01047537	-0.02803008	0.004498268	0.0177118	0.04915201	0.004946711
	-0.03485168	0.02907116	0.004498268	0.0177118	0.003375311	-0.02786505	-0.9015719	0.2604571
	0.004499687	0.01770856	0.04915201	0.004946711	-0.9015719	0.2604571	-0.01035717	-0.02812678
3.6e+08	-0.0002355738	-0.0264292	-0.8714436	0.3455127	-0.03100069	0.03632594	0.00649645	0.01773215
	-0.8714436	0.3455127	-0.008891395	-0.02781475	0.006496357	0.01773613	0.05159193	0.003725272
	-0.03100069	0.03632594	0.006496357	0.01773613	-0.0003972669	-0.02640107	-0.8711651	0.3461787
	0.00649645	0.01773215	0.05159193	0.003725272	-0.8711651	0.3461787	-0.008774498	-0.02792651
3.7e+08	-0.003861545	-0.02431976	-0.8329903	0.4277924	-0.02595055	0.04300322	0.008545897	0.01751574
	-0.8329903	0.4277924	-0.007247678	-0.02809436	0.008547372	0.01752018	0.05408149	0.0021268
	-0.02595055	0.04300322	0.008547372	0.01752018	-0.004024296	-0.02426902	-0.8326395	0.4284468
	0.008545897	0.01751574	0.05408149	0.0021268	-0.8326395	0.4284468	-0.007133846	-0.02822094
3.8e+08	-0.00721682	-0.02155243	-0.7868048	0.5058555	-0.01979399	0.048903	0.01061612	0.01704833
	-0.7868048	0.5058555	-0.005641677	-0.02886914	0.01061935	0.01705287	0.05655625	0.0001319355
	-0.01979399	0.048903	0.01061935	0.01705287	-0.007376547	-0.02147789	-0.7863809	0.5064891
	0.01061612	0.01704833	0.05655625	0.0001319354	-0.7863809	0.5064891	-0.005532527	-0.02901011
3.9e+08	-0.01017266	-0.01816107	-0.733344	0.5789803	-0.01265702	0.053841	0.01267344	0.01632368
	-0.733344	0.5789803	-0.004168581	-0.03012092	0.01267849	0.01632785	0.05894853	-0.002266293
	-0.01265702	0.053841	0.01267849	0.01632785	-0.01032504	-0.01806235	-0.7328475	0.5795857
	0.01267344	0.01632368	0.05894853	-0.002266293	-0.7328475	0.5795857	-0.004065646	-0.03027547
4e+08	-0.01260396	-0.01420564	-0.6731344	0.6464904	-0.004696053	0.05765444	0.01468319	0.01534084
	-0.6731344	0.6464904	-0.002917878	-0.03181442	0.01469008	0.0153442	0.06118973	-0.005062227
	-0.004696053	0.05765444	0.01469008	0.0153442	-0.01274442	-0.01408311	-0.672567	0.6470594
	0.01468319	0.01534084	0.06118973	-0.005062227	-0.672567	0.6470594	-0.002822523	-0.03198157
4.1e+08	-0.01439571	-0.009771538	-0.6067651	0.7077684	0.003905586	0.06020684	0.01661052	0.01410395
	-0.6067651	0.7077684	-0.001970425	-0.03389833	0.01661922	0.01410614	0.06321271	-0.008237061
	0.003905586	0.06020684	0.01661922	0.01410614	-0.01451957	-0.009626482	-0.6061301	0.708292
	0.01661052	0.01410395	0.06321271	-0.008237061	-0.6061301	0.708292	-0.0018838	-0.03407688
4.2e+08	-0.01544764	-0.004967275	-0.5348793	0.7622571	0.01294288	0.06139254	0.01842168	0.01262254
	-0.5348793	0.7622571	-0.001395569	-0.03630762	0.01843195	0.01262304	0.06495469	-0.01176009
	0.01294288	0.06139254	0.01843195	0.01262304	-0.01555024	-0.004801956	-0.5341797	0.7627283
	0.01842168	0.01262254	0.06495469	-0.01176009	-0.5341797	0.7627283	-0.001318447	-0.03649622
4.3e+08	-0.01567886	7.72227e-05	-0.4581718	0.8094688	0.02219368	0.06114022	0.02008452	0.01091097
	-0.4581718	0.8094688	-0.00124852	-0.03896586	0.020096	0.01090931	0.06635904	-0.01558936
	0.02219368	0.06114022	0.020096	0.01090931	-0.01575597	0.0002596937	-0.4574134	0.8098797
	0.02008452	0.01091097	0.06635904	-0.01558936	-0.4574134	0.8098797	-0.001181622	-0.03916297
4.4e+08	-0.01503236	0.005215092	-0.3773794	0.8489869	0.031425	0.05941513	0.02156936	0.008988043
	-0.3773794	0.8489869	-0.00156924	-0.04178803	0.02158182	0.008983998	0.06737786	-0.01967347
	0.031425	0.05941513	0.02158182	0.008983998	-0.01508012	0.00541065	-0.3765663	0.8493292
	0.02156936	0.008988043	0.06737786	-0.01967347	-0.3765663	0.8493292	-0.001512826	-0.04199225
4.5e+08	-0.01347829	0.0102867	-0.293273	0.8804694	0.04039919	0.05622071	0.02284992	0.006876638
	-0.293273	0.8804694	-0.002380724	-0.04468426	0.02286282	0.006869875	0.06797305	-0.02395276
	0.04039919	0.05622071	0.02286282	0.006869875	-0.01349361	0.01049062	-0.2924123	0.8807371
	0.02284992	0.006876638	0.06797305	-0.02395276	-0.2924123	0.8807371	-0.002334788	-0.04489399
4.6e+08	-0.01101702	0.0151253	-0.2066481	0.9036506	0.04887983	0.05159945	0.02390378	0.004602808
	-0.2066481	0.9036506	-0.003688609	-0.04756181	0.02391659	0.004593164	0.06811809	-0.02836235
	0.04887983	0.05159945	0.02391659	0.004593164	-0.01099737	0.01533191	-0.2057465	0.903837
	0.02390378	0.004602808	0.06811809	-0.02836235	-0.2057465	0.903837	-0.003652777	-0.04777584
4.7e+08	-0.007680313	0.01956201	-0.1183219	0.9183457	0.0566389	0.04563174	0.02471255	0.002195154
	-0.1183219	0.9183457	-0.005481164	-0.05033011	0.02472464	0.002182501	0.06779838	-0.03283331
	0.0566389	0.04563174	0.02472464	0.002182501	-0.007624393	0.01976536	-0.117387	0.9184475
	0.02471255	0.002195154	0.06779838	-0.03283331	-0.117387	0.9184475	-0.005455042	-0.05054701
4.8e+08	-0.003532172	0.02343247	-0.0291221	0.9244499	0.06346217	0.03843463	0.02526229	-0.0003162421
	-0.0291221	0.9244499	-0.007730135	-0.05290221	0.02527307	-0.000331828	0.06701214	-0.03729618
	0.06346217	0.03843463	0.02527307	-0.000331828	-0.003439468	0.02362581	-0.02816253	0.9244603
	0.02526229	-0.0003162421	0.06701214	-0.03729618	-0.02816253	0.9244603	-0.007712738	-0.05312108
4.9e+08	0.001332178	0.02658324	0.06012354	0.9219391	0.06915548	0.03015908	0.02554385	-0.002900358
	0.06012354	0.9219391	-0.01039161	-0.05519932	0.02555275	-0.002918707	0.06577002	-0.04168264
	0.06915548	0.03015908	0.02555275	-0.002918707	0.001460702	0.02675995	0.06109872	0.9218546
	0.02554385	-0.002900358	0.06577002	-0.04168264	0.06109872	0.9218546	-0.01038202	-0.05541919
5e+08	0.006787981	0.02887683	0.1485882	0.9108635	0.07354977	0.02098605	0.02555201	-0.005526336
	0.1485882	0.9108635	-0.0134084	-0.05715251	0.0255585	-0.005547123	0.06409429	-0.04592847
	0.07354977	0.02098605	0.0255585	-0.005547123	0.006950174	0.02903025	0.1495703	0.9106824
	0.02555201	-0.005526336	0.06409429	-0.04592847	0.1495703	0.9106824	-0.01340553	-0.05737279
5.1e+08	0.01268366	0.03019857	0.2354614	0.8913565	0.07650586	0.01112282	0.02528563	-0.008163965
	0.2354614	0.8913565	-0.01671157	-0.05870497	0.02528926	-0.008186821	0.06201824	-0.04997482
	0.07650586	0.01112282	0.02528926	-0.008186821	0.01287627	0.03032219	0.2364397	0.8910759
	0.02528563	-0.008163965	0.06201824	-0.04997482	0.2364397	0.8910759	-0.01671416	-0.05892551
5.2e+08	0.01884573	0.03046076	0.3199474	0.8636242	0.07791846	0.0007975183	0.02474721	-0.01078439
	0.3199474	0.8636242	-0.02022383	-0.05981483	0.02474751	-0.01080882	0.05958486	-0.05377123
