!$
! Info: Touchstone file created by Circ.  Input file=C2M_PCB_100ohms_4p0in_20230620_v3.circ
!$
# Hz S RI R 50
0	0.006900893	2.567686e-24	0.9930687	-2.333966e-24	0.0001439164	7.488292e-23	-0.0001402109	1.725564e-20
	0.9930687	-2.189184e-24	0.006719673	1.097241e-24	-0.0001375452	1.692921e-20	-8.26843e-07	8.298002e-21
	0.0001439164	7.491718e-23	-0.0001375452	1.692899e-20	0.006904244	3.066253e-24	0.993082	-2.275194e-24
	-0.0001402109	1.725567e-20	-8.268647e-07	8.298076e-21	0.993082	-2.291949e-24	0.006733072	1.560002e-24
1e+07	0.009737249	0.003682913	0.9875925	-0.07204234	0.0005555858	0.002677166	-0.0003826414	-0.0006083016
	0.9875925	-0.07204234	0.009755919	0.003692203	-0.0003806429	-0.0006089283	0.0004077437	0.00273961
	0.0005555858	0.002677166	-0.0003806429	-0.0006089283	0.009863522	0.003677833	0.9874786	-0.07207225
	-0.0003826414	-0.0006083016	0.0004077437	0.00273961	0.9874786	-0.07207225	0.009882207	0.003688053
2e+07	0.01216944	0.005133698	0.9777352	-0.1412809	0.001173539	0.005301527	-0.0004875974	-0.001229749
	0.9777352	-0.1412809	0.01264546	0.004999765	-0.0004862402	-0.001230152	0.0009134044	0.005408729
	0.001173574	0.005301437	-0.0004862158	-0.001230199	0.01226653	0.005082254	0.9776359	-0.1412888
	-0.0004875706	-0.001229793	0.000913425	0.005408727	0.9776359	-0.1412888	0.01274332	0.00495007
3e+07	0.01402027	0.005594714	0.9637086	-0.20874	0.00220115	0.007692052	-0.0006826775	-0.001725127
	0.9637086	-0.20874	0.01514493	0.005167616	-0.0006815634	-0.001725242	0.00171029	0.007878496
	0.002201139	0.007692043	-0.0006815714	-0.001725239	0.0140933	0.005527398	0.9636195	-0.2087511
	-0.0006826867	-0.001725124	0.001710281	0.007878513	0.9636195	-0.2087511	0.0152203	0.005102768
4e+07	0.01549821	0.00565294	0.9453835	-0.2746808	0.003612135	0.009873043	-0.0009584719	-0.002159715
	0.9453835	-0.2746808	0.01744187	0.004765289	-0.000957416	-0.002159493	0.002787125	0.01020917
	0.003612136	0.009873046	-0.0009574176	-0.002159491	0.0155502	0.005578501	0.9453012	-0.2747016
	-0.0009584731	-0.002159713	0.002787121	0.01020918	0.9453012	-0.2747016	0.01749773	0.004693333
5e+07	0.01668833	0.005475642	0.9227776	-0.3389474	0.005429158	0.01179892	-0.00135676	-0.002519328
	0.9227776	-0.3389474	0.01959753	0.003931095	-0.001355604	-0.002518779	0.004177126	0.01235741
	0.005429159	0.01179893	-0.001355605	-0.002518779	0.01672142	0.005399379	0.9226984	-0.3389817
	-0.001356762	-0.002519327	0.004177123	0.01235741	0.9226984	-0.3389817	0.01963656	0.003856775
6e+07	0.01763529	0.005155937	0.8959735	-0.4013158	0.007539295	0.0134419	-0.001793264	-0.00282326
	0.8959735	-0.4013158	0.02162192	0.002726466	-0.00179192	-0.00282246	0.005787277	0.01432858
	0.007539294	0.0134419	-0.001791918	-0.00282246	0.01765208	0.005081855	0.895894	-0.4013661
	-0.001793262	-0.00282326	0.005787281	0.01432858	0.895894	-0.4013661	0.02164612	0.002652885
7e+07	0.01836887	0.004758403	0.8650885	-0.4615417	0.00990541	0.01476489	-0.002263745	-0.003070558
	0.8650885	-0.4615417	0.02350393	0.001190231	-0.002262182	-0.003069586	0.007597862	0.01610214
	0.00990541	0.01476489	-0.002262179	-0.003069587	0.01837172	0.004689471	0.8650044	-0.4616093
	-0.002263743	-0.00307056	0.007597865	0.01610214	0.8650044	-0.4616093	0.02351554	0.001120037
8e+07	0.01891572	0.004333923	0.8302674	-0.5193797	0.01248477	0.01573487	-0.002763076	-0.003259875
	0.8302674	-0.5193797	0.0252241	-0.0006456361	-0.002761263	-0.003258768	0.009585044	0.01765979
	0.01248477	0.01573487	-0.002761265	-0.003258766	0.01890713	0.004272519	0.8301745	-0.5194652
	-0.002763077	-0.003259872	0.009585042	0.01765979	0.8301745	-0.5194652	0.02522537	-0.0007101864
9e+07	0.019304	0.0039244	0.7916729	-0.5745886	0.01523028	0.01632381	-0.003285537	-0.003389586
	0.7916729	-0.5745886	0.02676074	-0.002749838	-0.003283454	-0.003388403	0.01172201	0.01898612
	0.01523028	0.01632381	-0.003283457	-0.003388393	0.01928703	0.003872757	0.7915676	-0.5746926
	-0.003285538	-0.003389577	0.01172201	0.01898613	0.7915676	-0.5746926	0.02675409	-0.002806843
1e+08	0.01957108	0.003571466	0.7494805	-0.6269455	0.01808958	0.01650556	-0.003822806	-0.003455216
	0.7494805	-0.6269455	0.02810004	-0.005082761	-0.003820456	-0.003454036	0.01397723	0.02006702
	0.01808958	0.01650556	-0.003820456	-0.003454036	0.01955059	0.003532594	0.749356	-0.6270689
	-0.003822805	-0.003455216	0.01397723	0.02006702	0.749356	-0.6270689	0.02808875	-0.005129387
1.1e+08	0.01976937	0.003254919	0.7038668	-0.6761618	0.02099531	0.01628106	-0.004360787	-0.003474126
	0.7038668	-0.6761618	0.02925601	-0.007694533	-0.004357176	-0.003474333	0.01631817	0.02091463
	0.02099531	0.01628106	-0.004357176	-0.003474334	0.01975258	0.003234232	0.7037166	-0.676295
	-0.004360787	-0.003474127	0.01631817	0.02091463	0.7037166	-0.676295	0.0293115	-0.007728927
1.2e+08	0.01986702	0.002995125	0.6551171	-0.7220472	0.02391491	0.01564239	-0.004914514	-0.003444844
	0.6551171	-0.7220472	0.03011421	-0.0104899	-0.004911239	-0.003445885	0.01873555	0.02151489
	0.02391491	0.01564239	-0.004911239	-0.003445886	0.01985668	0.002980808	0.654941	-0.7221877
	-0.004914514	-0.003444845	0.01873555	0.02151489	0.654941	-0.7221877	0.03018319	-0.01054846
1.3e+08	0.01990134	0.002823037	0.6034561	-0.7644208	0.02679151	0.01458261	-0.005478851	-0.003362163
	0.6034561	-0.7644208	0.03068596	-0.01342558	-0.005476167	-0.003363252	0.02119699	0.02186221
	0.02679151	0.01458261	-0.005476167	-0.003363253	0.01989596	0.002809604	0.6032512	-0.7645635
	-0.005478851	-0.003362164	0.02119699	0.02186221	0.6032512	-0.7645635	0.03074074	-0.01350127
1.4e+08	0.01990653	0.002751392	0.5491253	-0.8031039	0.02957009	0.01310573	-0.006049728	-0.003224064
	0.5491253	-0.8031039	0.03096679	-0.01646946	-0.006047371	-0.00322481	0.02367341	0.02195793
	0.02957009	0.01310573	-0.006047372	-0.003224811	0.01990373	0.002736957	0.548892	-0.8032464
	-0.006049728	-0.003224065	0.02367341	0.02195793	0.548892	-0.8032464	0.0310007	-0.01654899
1.5e+08	0.01991565	0.002783069	0.4923836	-0.8379374	0.03219629	0.01122287	-0.006622915	-0.003029364
	0.4923836	-0.8379374	0.03094986	-0.01958833	-0.006620565	-0.003029702	0.0261369	0.02180683
	0.03219629	0.01122287	-0.006620566	-0.003029703	0.01991396	0.002767769	0.4921209	-0.8380752
	-0.006622916	-0.003029365	0.0261369	0.02180683	0.4921209	-0.8380752	0.0309656	-0.01966246
1.6e+08	0.01996058	0.002913468	0.4334967	-0.8687757	0.03461752	0.008951811	-0.007194206	-0.002777377
	0.4334967	-0.8687757	0.03062972	-0.02274699	-0.007191665	-0.002777413	0.02856126	0.02141741
	0.03461752	0.008951811	-0.007191666	-0.002777413	0.01995942	0.002898032	0.4332046	-0.868905
	-0.007194206	-0.002777378	0.02856126	0.02141741	0.4332046	-0.868905	0.03063299	-0.02281115
1.7e+08	0.0200698	0.003131348	0.3727416	-0.8954908	0.03678345	0.006316904	-0.00775935	-0.002467724
	0.3727416	-0.8954908	0.03000441	-0.02590903	-0.007756498	-0.002467621	0.03092208	0.02080114
	0.03678345	0.006316904	-0.007756499	-0.002467622	0.02006951	0.003116497	0.3724207	-0.8956081
	-0.00775935	-0.002467724	0.03092208	0.02080114	0.3724207	-0.8956081	0.03000086	-0.02596211
1.8e+08	0.02026914	0.003420145	0.3104023	-0.9179749	0.03864709	0.003348483	-0.008314272	-0.002100219
	0.3104023	-0.9179749	0.02907653	-0.02903764	-0.008311111	-0.002100128	0.03319729	0.01997222
	0.03864709	0.003348483	-0.008311112	-0.002100128	0.0202703	0.003406201	0.3100535	-0.9180779
	-0.008314273	-0.002100219	0.03319729	0.01997222	0.3100535	-0.9180779	0.02907077	-0.02908054
1.9e+08	0.02057948	0.003758551	0.2467699	-0.9361393	0.04016541	8.251803e-05	-0.008854805	-0.001674804
	0.2467699	-0.9361393	0.02785311	-0.03209677	-0.008851382	-0.001674847	0.03536753	0.01894741
	0.04016541	8.251811e-05	-0.008851382	-0.001674847	0.02058323	0.003745407	0.2463932	-0.936223
	-0.008854805	-0.001674804	0.03536753	0.01894741	0.2463932	-0.936223	0.0278483	-0.03213124
2e+08	0.02101789	0.004121571	0.1821375	-0.9499138	0.04129932	-0.003439913	-0.009376776	-0.001191518
	0.1821375	-0.9499138	0.02634549	-0.03505163	-0.009373177	-0.00119177	0.03741593	0.01774498
	0.04129932	-0.003439913	-0.009373177	-0.001191771	0.02102501	0.004108656	0.1817355	-0.9499756
	-0.009376776	-0.001191518	0.03741593	0.01774498	0.1817355	-0.9499756	0.02634366	-0.03507991
2.1e+08	0.02159621	0.00448096	0.1168077	-0.9592483	0.04201515	-0.007173138	-0.009875843	-0.0006505301
	0.1168077	-0.9592483	0.02456958	-0.0378692	-0.009872149	-0.0006510314	0.03932879	0.01638504
	0.04201515	-0.007173138	-0.009872149	-0.0006510315	0.02160739	0.004467468	0.1163806	-0.9592844
	-0.009875843	-0.0006505302	0.03932879	0.01638504	0.1163806	-0.9592844	0.0245718	-0.03789324
2.2e+08	0.0223207	0.004806532	0.05107985	-0.9641135	0.04228468	-0.01106762	-0.01034762	-5.216159e-05
	0.05107985	-0.9641135	0.02254478	-0.04051922	-0.01034391	-5.28986e-05	0.04109585	0.01488883
	0.04228468	-0.01106762	-0.01034391	-5.289869e-05	0.02233639	0.004791431	0.05062968	-0.964122
	-0.01034762	-5.216168e-05	0.04109585	0.01488883	0.05062968	-0.964122	0.02255133	-0.04054092
2.3e+08	0.02319211	0.005066898	-0.01474453	-0.9645009	0.04208529	-0.01507035	-0.01078739	0.0006030859
	-0.01474453	-0.9645009	0.02029375	-0.04297446	-0.01078372	0.000602132	0.04270915	0.01327748
	0.04208529	-0.01507035	-0.01078372	0.000602132	0.02321253	0.005048968	-0.01521484	-0.9644788
	-0.01078739	0.0006030858	0.04270915	0.01327748	-0.01521484	-0.9644788	0.02030476	-0.04299502
2.4e+08	0.02420574	0.005229811	-0.08036108	-0.9604187	0.04140097	-0.01912585	-0.01119033	0.001314468
	-0.08036108	-0.9604187	0.01784278	-0.04521042	-0.01118676	0.001313325	0.04416475	0.01157307
	0.04140097	-0.01912585	-0.01118676	0.001313325	0.02423076	0.005207949	-0.08085031	-0.9603625
	-0.01119033	0.001314468	0.04416475	0.01157307	-0.08085031	-0.9603625	0.01785802	-0.04523072
2.5e+08	0.02535052	0.005264239	-0.1454726	-0.9518998	0.04022204	-0.02317682	-0.01155137	0.002080924
	-0.1454726	-0.9518998	0.01522033	-0.04720667	-0.01154792	0.002079668	0.04546167	0.009796908
	0.04022204	-0.02317682	-0.01154792	0.002079668	0.02538	0.005237172	-0.1459781	-0.9518069
	-0.01155137	0.002080924	0.04546167	0.009796908	-0.1459781	-0.9518069	0.01523946	-0.04722738
2.6e+08	0.0266101	0.00514015	-0.2097804	-0.9389935	0.0385458	-0.02716496	-0.01186547	0.002901062
	-0.2097804	-0.9389935	0.01245689	-0.04894659	-0.01186217	0.002899706	0.04660172	0.007969583
	0.0385458	-0.02716496	-0.01186217	0.002899706	0.02664346	0.005106766	-0.2102986	-0.9388626
	-0.01186547	0.002901062	0.04660172	0.007969583	-0.2102986	-0.9388626	0.01248006	-0.04896798
2.7e+08	0.0279628	0.004829999	-0.2729934	-0.9217709	0.03637586	-0.03103143	-0.01212712	0.00377307
	-0.2729934	-0.9217709	0.009585023	-0.05041737	-0.01212388	0.003771641	0.04758969	0.006110434
	0.03637586	-0.03103143	-0.01212388	0.003771641	0.02799945	0.00478923	-0.273523	-0.9215987
	-0.01212712	0.00377307	0.04758969	0.006110434	-0.273523	-0.9215987	0.009612001	-0.05043969
2.8e+08	0.02938148	0.004309752	-0.334825	-0.9003202	0.033723	-0.03471816	-0.01233085	0.004694685
	-0.334825	-0.9003202	0.006638067	-0.05161059	-0.01232777	0.004693254	0.04843325	0.004237489
	0.033723	-0.03471816	-0.01232777	0.004693254	0.02942062	0.004260423	-0.3353608	-0.9001051
	-0.01233085	0.004694685	0.04843325	0.004237489	-0.3353608	-0.9001051	0.006669392	-0.05163393
2.9e+08	0.03083486	0.003559283	-0.3949949	-0.8747504	0.03060444	-0.03816792	-0.01247082	0.00566308
	-0.3949949	-0.8747504	0.003649988	-0.05252212	-0.01246789	0.005661645	0.04914158	0.002366341
	0.03060444	-0.03816792	-0.01246789	0.005661645	0.03087535	0.003500669	-0.3955346	-0.8744914
	-0.01247082	0.00566308	0.04914158	0.002366341	-0.3955346	-0.8744914	0.003685781	-0.05254688
3e+08	0.03228768	0.002563346	-0.4532331	-0.8451882	0.02704406	-0.04132578	-0.0125418	0.006675009
	-0.4532331	-0.8451882	0.0006548058	-0.05315223	-0.01253892	0.006673576	0.04972656	0.0005107839
	0.02704406	-0.04132578	-0.01253892	0.006673576	0.03232847	0.002494441	-0.4537728	-0.8448831
	-0.0125418	0.006675009	0.04972656	0.0005107838	-0.4537728	-0.8448831	0.0006955211	-0.05317872
3.1e+08	0.03370151	0.001312066	-0.5092762	-0.8117756	0.02307193	-0.04413942	-0.0125378	0.00772646
	-0.5092762	-0.8117756	-0.002313651	-0.05350523	-0.01253498	0.007725035	0.05020133	-0.001317957
	0.02307193	-0.04413942	-0.01253498	0.007725035	0.03374126	0.00123203	-0.5098118	-0.8114224
	-0.0125378	0.007726459	0.05020133	-0.001317957	-0.5098118	-0.8114224	-0.002267338	-0.05353383
3.2e+08	0.03503583	-0.0001985808	-0.5628743	-0.7746723	0.01872404	-0.04655983	-0.01245337	0.008812943
	-0.5628743	-0.7746723	-0.005222866	-0.05358974	-0.0124507	0.008811594	0.05058025	-0.003111394
	0.01872404	-0.04655983	-0.0124507	0.008811594	0.03507292	-0.0002902173	-0.5634003	-0.7742721
	-0.01245337	0.008812943	0.05058025	-0.003111394	-0.5634003	-0.7742721	-0.005170592	-0.05362131
3.3e+08	0.03624844	-0.001966097	-0.6137845	-0.7340585	0.0140419	-0.04854204	-0.01228293	0.009929187
	-0.6137845	-0.7340585	-0.008041523	-0.05341871	-0.01228035	0.009927895	0.05087845	-0.004863801
	0.0140419	-0.04854204	-0.01228035	0.009927895	0.03628135	-0.002069772	-0.614299	-0.7336087
	-0.01228293	0.009929187	0.05087845	-0.004863801	-0.614299	-0.7336087	-0.007983076	-0.05345391
3.4e+08	0.03729704	-0.003981731	-0.6617818	-0.6901226	0.009072038	-0.05004585	-0.01202137	0.0110694
	-0.6617818	-0.6901226	-0.01074078	-0.05300851	-0.01201887	0.01106821	0.0511115	-0.006572262
	0.009072038	-0.05004585	-0.01201887	0.01106821	0.03732393	-0.004097599	-0.6622794	-0.6896249
	-0.01202137	0.0110694	0.0511115	-0.006572262	-0.6622794	-0.6896249	-0.01067584	-0.05304837
3.5e+08	0.03813975	-0.006229742	-0.7066507	-0.6430728	0.003865693	-0.05103592	-0.0116636	0.01222694
	-0.7066507	-0.6430728	-0.01329406	-0.05237927	-0.01166125	0.01222595	0.05129432	-0.008236711
	0.003865693	-0.05103592	-0.01166125	0.01222595	0.0381588	-0.006357822	-0.707128	-0.642527
	-0.0116636	0.01222694	0.05129432	-0.008236711	-0.707128	-0.642527	-0.01322247	-0.05242473
3.6e+08	0.03873627	-0.008687786	-0.748191	-0.5931307	-0.001522211	-0.05148282	-0.01120513	0.01339464
	-0.748191	-0.5931307	-0.01567757	-0.05155431	-0.01120287	0.01339385	0.0514419	-0.00985987
	-0.001522211	-0.05148282	-0.01120287	0.01339385	0.03874545	-0.008827757	-0.7486424	-0.5925372
	-0.01120513	0.01339464	0.0514419	-0.00985987	-0.7486424	-0.5925372	-0.01559938	-0.05160642
3.7e+08	0.03904898	-0.01132756	-0.7862183	-0.5405264	-0.007033343	-0.05136293	-0.01064169	0.01456451
	-0.7862183	-0.5405264	-0.01787102	-0.05055944	-0.01063948	0.01456398	0.05156778	-0.0114471
	-0.007033343	-0.05136293	-0.01063948	0.01456398	0.0390464	-0.01147887	-0.7866408	-0.5398864
	-0.01064169	0.01456451	0.05156778	-0.0114471	-0.7866408	-0.5398864	-0.01778652	-0.05061927
3.8e+08	0.0390437	-0.01411406	-0.8205622	-0.4855072	-0.01260674	-0.05065924	-0.00996967	0.01572795
	-0.8205622	-0.4855072	-0.01985759	-0.0494232	-0.009967484	0.01572774	0.05168431	-0.01300616
	-0.01260674	-0.05065924	-0.009967484	0.01572774	0.03902728	-0.01427579	-0.8209503	-0.484822
	-0.00996967	0.01572795	0.05168431	-0.01300616	-0.8209503	-0.484822	-0.01976702	-0.04949179
3.9e+08	0.03869094	-0.01700736	-0.8510725	-0.4283263	-0.01817946	-0.04936128	-0.009186016	0.01687571
	-0.8510725	-0.4283263	-0.02162465	-0.04817556	-0.009183759	0.01687581	0.05180202	-0.01454705
	-0.01817946	-0.04936128	-0.009183759	0.01687581	0.03865878	-0.01717834	-0.8514225	-0.427597
	-0.009186016	0.01687571	0.05180202	-0.01454705	-0.8514225	-0.427597	-0.02152851	-0.04825387
4e+08	0.03796624	-0.01996186	-0.8776129	-0.3692499	-0.02368742	-0.04746538	-0.008288471	0.01799793
	-0.8776129	-0.3692499	-0.02316337	-0.04684807	-0.008286065	0.0179984	0.05192945	-0.01608185
	-0.02368742	-0.04746538	-0.008286065	0.0179984	0.0379165	-0.02014064	-0.8779207	-0.3684786
	-0.008288471	0.01799793	0.05192945	-0.01608185	-0.8779207	-0.3684786	-0.02306227	-0.04693709
4.1e+08	0.03685165	-0.02292797	-0.9000676	-0.3085519	-0.02906585	-0.04497491	-0.00727548	0.01908401
	-0.9000676	-0.3085519	-0.02446944	-0.04547289	-0.007272917	0.01908498	0.05207247	-0.01762386
	-0.02906585	-0.04497491	-0.007272917	0.01908498	0.03678261	-0.02311278	-0.9003286	-0.3077418
	-0.00727548	0.01908401	0.05207247	-0.01762386	-0.9003286	-0.3077418	-0.02436407	-0.04557361
4.2e+08	0.03533565	-0.02585311	-0.9183364	-0.2465117	-0.03425065	-0.0419	-0.006146511	0.0201231
	-0.9183364	-0.2465117	-0.0255427	-0.04408239	-0.006143635	0.02012453	0.05223465	-0.01918771
	-0.03425065	-0.0419	-0.006143635	0.02012453	0.03524573	-0.02604175	-0.9185473	-0.245665
	-0.006146511	0.0201231	0.05223465	-0.01918771	-0.9185473	-0.245665	-0.02543382	-0.04419561
4.3e+08	0.03341426	-0.02868166	-0.932341	-0.1834168	-0.03917854	-0.03825805	-0.004901952	0.0211037
	-0.932341	-0.1834168	-0.02638712	-0.04270856	-0.004898615	0.02110555	0.05241649	-0.02078884
	-0.03917854	-0.03825805	-0.004898615	0.02110555	0.03330221	-0.02887185	-0.9324984	-0.1825378
	-0.004901952	0.0211037	0.05241649	-0.02078884	-0.9324984	-0.1825378	-0.02627582	-0.04283507
4.4e+08	0.03109117	-0.03135688	-0.9420223	-0.1195589	-0.04378799	-0.03407304	-0.003543244	0.02201389
	-0.9420223	-0.1195589	-0.02701122	-0.04138238	-0.003539406	0.02201634	0.05261595	-0.02244315
	-0.04378799	-0.03407304	-0.003539406	0.02201634	0.03095595	-0.03154596	-0.942121	-0.1186505
	-0.003543244	0.02201389	0.05261595	-0.02244315	-0.942121	-0.1186505	-0.0268984	-0.0415229
4.5e+08	0.02837798	-0.03382149	-0.9473397	-0.05523389	-0.04802	-0.02937544	-0.002073092	0.02284159
	-0.9473397	-0.05523389	-0.02742736	-0.04013379	-0.00206857	0.02284456	0.05282772	-0.02416605
	-0.04802	-0.02937544	-0.00206857	0.02284456	0.02821888	-0.03400679	-0.9473774	-0.05430025
	-0.002073092	0.02284159	0.05282772	-0.02416605	-0.9473774	-0.05430025	-0.0273142	-0.04028881
4.6e+08	0.02529443	-0.03601943	-0.9482719	0.009262381	-0.05181865	-0.02420243	-0.0004953749	0.02357461
	-0.9482719	0.009262381	-0.02765167	-0.03898982	-0.0004900352	0.02357808	0.0530439	-0.02597279
	-0.05181865	-0.02420243	-0.0004900352	0.02357808	0.025111	-0.03619776	-0.9482447	0.01021728
	-0.0004953749	0.02357461	0.0530439	-0.02597279	-0.9482447	0.01021728	-0.02753924	-0.03916002
4.7e+08	0.02186841	-0.03789607	-0.9448194	0.07363045	-0.05513213	-0.01859676	0.001184565	0.02420058
	-0.9448194	0.07363045	-0.02770381	-0.03797609	0.001190937	0.0242044	0.05325335	-0.02787706
	-0.05513213	-0.01859676	0.001190937	0.0242044	0.02166072	-0.03806453	-0.9447266	0.0746026
	0.001184565	0.02420058	0.05325335	-0.02787706	-0.9447266	0.0746026	-0.02759371	-0.03816158
4.8e+08	0.01813574	-0.03940008	-0.9370036	0.1375715	-0.05791288	-0.01260698	0.002960171	0.02470718
	-0.9370036	0.1375715	-0.02760691	-0.0371144	0.002967713	0.02471127	0.05344261	-0.02989159
	-0.05791288	-0.01260698	0.002967713	0.02471127	0.01790411	-0.03955516	-0.9368408	0.1385555
	0.002960171	0.02470718	0.05344261	-0.02989159	-0.9368408	0.1385555	-0.02750015	-0.03731562
4.9e+08	0.0141394	-0.04048461	-0.9248665	0.2007916	-0.0601186	-0.00628669	0.004823339	0.02508274
	-0.9248665	0.2007916	-0.02738641	-0.03642371	0.004832223	0.025087	0.05359565	-0.0320268
	-0.0601186	-0.00628669	0.004832223	0.025087	0.01388473	-0.04062321	-0.9246317	0.2017825
	0.00482334	0.02508274	0.05359565	-0.0320268	-0.9246317	0.2017825	-0.02728441	-0.03664062
5e+08	0.009929474	-0.0411075	-0.9084661	0.2629957	-0.06171237	0.0003062655	0.006764632	0.02531565
	-0.9084661	0.2629957	-0.02707027	-0.03591938	0.006774982	0.02531991	0.05369413	-0.0342914
	-0.06171237	0.0003062655	0.006774982	0.02531991	0.009653123	-0.04122644	-0.9081585	0.263989
	0.006764632	0.02531565	0.05369413	-0.0342914	-0.9081585	0.263989	-0.02697442	-0.03615184
5.1e+08	0.005562449	-0.04123347	-0.8878852	0.3238987	-0.06266352	0.007109845	0.008773089	0.02539497
	-0.8878852	0.3238987	-0.0266879	-0.03561216	0.00878507	0.02539907	0.05371798	-0.03669085
	-0.06266352	0.007109845	0.00878507	0.02539907	0.005266079	-0.0413295	-0.8875027	0.324888
	0.008773089	0.02539497	0.05371798	-0.03669085	-0.8875027	0.324888	-0.02659947	-0.03586021
5.2e+08	0.001099782	-0.04083386	-0.8632245	0.3832173	-0.06294807	0.01405888	0.01083635	0.02531072
