!$
! Info: Touchstone file created by Circ.  Input file=C2M_PCB_100ohms_6p0in_20230620_v3.circ
!$
# Hz S RI R 50
0	0.008945718	3.111431e-24	0.991024	-2.912101e-24	0.0001541261	8.530029e-23	-0.0001504283	1.854125e-20
	0.991024	-2.767602e-24	0.008764371	1.699647e-24	-0.0001477678	1.821541e-20	9.403419e-06	8.354571e-21
	0.0001541261	8.533439e-23	-0.0001477678	1.821519e-20	0.008949055	3.586239e-24	0.9910372	-2.808086e-24
	-0.0001504283	1.854127e-20	9.403397e-06	8.354645e-21	0.9910372	-2.824814e-24	0.008777826	2.111218e-24
1e+07	0.01274219	0.004807105	0.9830068	-0.09210695	0.000753618	0.002989721	-0.0004856834	-0.0006135661
	0.9830068	-0.09210695	0.01280922	0.00477939	-0.0004837102	-0.0006142543	0.000552663	0.003064334
	0.000753618	0.002989721	-0.0004837102	-0.0006142543	0.01289855	0.004796371	0.9828619	-0.09213233
	-0.0004856834	-0.0006135661	0.0005526631	0.003064334	0.9828619	-0.09213233	0.01296565	0.004770081
2e+07	0.0160941	0.006584841	0.967658	-0.1801677	0.001660168	0.005889924	-0.0006090942	-0.001264044
	0.967658	-0.1801677	0.01674485	0.006322807	-0.000607799	-0.001264519	0.001203261	0.006064143
	0.001660196	0.005889832	-0.0006077763	-0.001264568	0.0162105	0.00651367	0.9675365	-0.1801572
	-0.0006090689	-0.00126409	0.001203282	0.006064141	0.9675365	-0.1801572	0.01686215	0.006254239
3e+07	0.01869021	0.006984649	0.945396	-0.2652915	0.003154027	0.008401062	-0.000844854	-0.00174205
	0.945396	-0.2652915	0.0201649	0.006258437	-0.000843824	-0.001742227	0.002245999	0.008779743
	0.003154016	0.008401055	-0.0008438318	-0.001742224	0.01877338	0.006892867	0.9452913	-0.265279
	-0.000844863	-0.001742046	0.002245991	0.00877976	0.9452913	-0.265279	0.0202505	0.00617026
4e+07	0.02078612	0.00679235	0.9161533	-0.3475932	0.005174835	0.01052206	-0.001179591	-0.002131101
	0.9161533	-0.3475932	0.02327375	0.005331933	-0.00117862	-0.002130921	0.003654701	0.01126977
	0.005174836	0.01052206	-0.001178621	-0.002130918	0.02084013	0.006691999	0.9160604	-0.3475876
	-0.001179592	-0.002131099	0.003654697	0.01126977	0.9160604	-0.3475876	0.02333152	0.005235476
5e+07	0.02247841	0.006244308	0.8800834	-0.4266514	0.007723998	0.01215637	-0.001671272	-0.002399097
	0.8800834	-0.4266514	0.02610916	0.003737503	-0.001670177	-0.00239857	0.005459087	0.01345318
	0.007723998	0.01215637	-0.001670179	-0.002398569	0.02250658	0.006142901	0.8799972	-0.4266578
	-0.001671274	-0.002399096	0.005459084	0.01345318	0.8799972	-0.4266578	0.02614276	0.00363971
6e+07	0.02382075	0.005479674	0.8374447	-0.5019705	0.01059725	0.0132623	-0.002192972	-0.002584588
	0.8374447	-0.5019705	0.02865136	0.001577632	-0.002191645	-0.002583792	0.007506411	0.01534611
	0.01059725	0.0132623	-0.002191643	-0.002583792	0.02382705	0.005382686	0.8373604	-0.5019919
	-0.00219297	-0.002584589	0.007506414	0.0153461	0.8373604	-0.5019919	0.02866393	0.001483241
7e+07	0.02485406	0.00459699	0.7885633	-0.5730446	0.01369865	0.01378615	-0.002736246	-0.002689331
	0.7885633	-0.5730446	0.03085986	-0.00106992	-0.002734632	-0.002688354	0.009751103	0.0169236
	0.01369866	0.01378615	-0.002734629	-0.002688356	0.02484233	0.004508417	0.7884751	-0.5730825
	-0.002736245	-0.002689333	0.009751106	0.01692359	0.7884751	-0.5730825	0.03085489	-0.001157046
8e+07	0.02561994	0.003672556	0.733821	-0.6393853	0.01692258	0.0136901	-0.003292354	-0.002714866
	0.733821	-0.6393853	0.03268984	-0.00413231	-0.003290395	-0.002713766	0.0121425	0.01816814
	0.01692258	0.0136901	-0.003290397	-0.002713764	0.02559426	0.003595352	0.7337234	-0.63944
	-0.003292355	-0.002714863	0.0121425	0.01816814	0.7337234	-0.63944	0.03267097	-0.004209063
9e+07	0.02616496	0.002765807	0.673643	-0.7005312	0.02015718	0.0129538	-0.003852423	-0.002662527
	0.673643	-0.7005312	0.03410039	-0.007534634	-0.003850083	-0.002661394	0.01462699	0.01907065
	0.02015718	0.0129538	-0.003850084	-0.002661384	0.02613008	0.002702244	0.6735309	-0.7006027
	-0.003852422	-0.002662518	0.01462699	0.01907066	0.6735309	-0.7006027	0.03407158	-0.007598632
1e+08	0.02655007	0.001928206	0.6084849	-0.7560658	0.02328424	0.01157095	-0.004403552	-0.002530289
	0.6084849	-0.7560658	0.03506907	-0.01119189	-0.004400832	-0.002529238	0.01714588	0.01962896
	0.02328424	0.01157095	-0.004400832	-0.002529239	0.02651295	0.001880595	0.6083498	-0.7561537
	-0.004403552	-0.00253029	0.01714588	0.01962896	0.6083498	-0.7561537	0.03503564	-0.01124025
1.1e+08	0.02684142	0.00112209	0.5388395	-0.8055104	0.0261749	0.009587143	-0.004931911	-0.002350301
	0.5388395	-0.8055104	0.03559356	-0.0151251	-0.004928156	-0.002350872	0.01964934	0.01988074
	0.0261749	0.009587144	-0.004928155	-0.002350873	0.02681398	0.00109174	0.5386749	-0.8056014
	-0.00493191	-0.002350303	0.01964934	0.01988074	0.5386749	-0.8056014	0.03562755	-0.01515817
1.2e+08	0.0270089	0.0003855668	0.4653309	-0.848565	0.02875154	0.007034806	-0.005461932	-0.00211506
	0.4653309	-0.848565	0.03555289	-0.01916807	-0.00545858	-0.002116428	0.02211398	0.01982283
	0.02875154	0.007034806	-0.00545858	-0.00211643	0.02698928	0.0003591735	0.4651376	-0.8486549
	-0.005461932	-0.002115061	0.02211398	0.01982283	0.4651376	-0.8486549	0.0356006	-0.01922225
1.3e+08	0.02711262	-0.0002567203	0.3885142	-0.8849515	0.03090857	0.003962311	-0.005985933	-0.001818796
	0.3885142	-0.8849515	0.03497578	-0.02322742	-0.005983052	-0.001820172	0.02448977	0.01947325
	0.03090857	0.003962311	-0.005983052	-0.001820173	0.02709706	-0.0002840996	0.3882908	-0.8850337
	-0.005985934	-0.001818797	0.02448977	0.01947325	0.3882908	-0.8850337	0.03500961	-0.02329554
1.4e+08	0.02720144	-0.0008063723	0.3089768	-0.9144265	0.03255354	0.0004399525	-0.006499072	-0.00145962
	0.3089768	-0.9144265	0.03387975	-0.02722399	-0.006496308	-0.001460718	0.02673672	0.01886054
	0.03255354	0.0004399529	-0.006496309	-0.001460719	0.02718685	-0.0008356239	0.3087246	-0.9144974
	-0.006499072	-0.001459621	0.02673672	0.01886054	0.3087246	-0.9144974	0.0338934	-0.0272927
1.5e+08	0.02731649	-0.001279604	0.2273292	-0.9368018	0.0336064	-0.0034463	-0.006996425	-0.001036273
	0.2273292	-0.9368018	0.03228766	-0.03108171	-0.006993459	-0.001037154	0.0288218	0.01801891
	0.0336064	-0.0034463	-0.006993459	-0.001037155	0.02730153	-0.001310032	0.227049	-0.9368555
	-0.006996426	-0.001036274	0.0288218	0.01801891	0.227049	-0.9368555	0.03228423	-0.0311417
1.6e+08	0.02749057	-0.001703465	0.1441931	-0.9519369	0.03400193	-0.007597501	-0.007472842	-0.0005477029
	0.1441931	-0.9519369	0.03023083	-0.03472781	-0.007469524	-0.0005485627	0.03071971	0.01698743
	0.03400193	-0.0075975	-0.007469524	-0.0005485631	0.02747511	-0.001734259	0.1438866	-0.951969
	-0.007472842	-0.0005477034	0.03071971	0.01698743	0.1438866	-0.951969	0.03021653	-0.0347745
1.7e+08	0.02774566	-0.002112392	0.06020141	-0.9597455	0.03369154	-0.01190405	-0.00792266	7.036628e-06
	0.06020141	-0.9597455	0.02775059	-0.03809477	-0.007918951	5.963747e-06	0.03241306	0.01580811
	0.03369154	-0.01190405	-0.007918952	5.963452e-06	0.02773036	-0.002143268	0.05987117	-0.9597519
	-0.007922661	7.036323e-06	0.03241306	0.01580811	0.05987117	-0.9597519	0.0277316	-0.03812717
1.8e+08	0.02809342	-0.002545878	-0.02400991	-0.9601968	0.03264487	-0.01624886	-0.008339759	0.0006288134
	-0.02400991	-0.9601968	0.02489812	-0.04112231	-0.008335746	0.0006273471	0.03389294	0.0145244
	0.03264487	-0.01624886	-0.008335746	0.0006273469	0.0280789	-0.002577077	-0.02436145	-0.9601745
	-0.008339759	0.0006288132	0.03389294	0.0145244	-0.02436145	-0.9601745	0.0248796	-0.04114154
1.9e+08	0.02853328	-0.003045011	-0.107805	-0.9533141	0.03085089	-0.02051027	-0.0087172	0.001318226
	-0.107805	-0.9533141	0.02173314	-0.04375936	-0.008713019	0.001316231	0.03515895	0.01317991
	0.03085089	-0.02051027	-0.00871302	0.001316231	0.02852027	-0.003077517	-0.108175	-0.9532578
	-0.008717201	0.001318225	0.03515895	0.01317991	-0.108175	-0.9532578	0.02171882	-0.04376743
2e+08	0.02905397	-0.003650693	-0.1905553	-0.9391728	0.02831793	-0.02456475	-0.009047268	0.002075449
	-0.1905553	-0.9391728	0.01832225	-0.04596519	-0.009043093	0.002072864	0.03621854	0.01181621
	0.02831793	-0.02456475	-0.009043093	0.002072864	0.02904251	-0.003685647	-0.1909393	-0.9390804
	-0.009047268	0.002075449	0.03621854	0.01181621	-0.1909393	-0.9390804	0.01831472	-0.04596479
2.1e+08	0.02963294	-0.004400834	-0.2716371	-0.9179039	0.02507449	-0.02829055	-0.009321336	0.002899924
	-0.2716371	-0.9179039	0.0147379	-0.04771048	-0.009317329	0.002896732	0.03708698	0.01047213
	0.02507449	-0.02829055	-0.009317329	0.002896732	0.02962274	-0.004439468	-0.2720321	-0.9177716
	-0.009321336	0.002899924	0.03708698	0.01047213	-0.2720321	-0.9177716	0.01473868	-0.04770405
2.2e+08	0.03023763	-0.005327647	-0.3504458	-0.8896894	0.02116845	-0.03157066	-0.009530066	0.003790159
	-0.3504458	-0.8896894	0.01105528	-0.04897836	-0.009526381	0.003786413	0.03778676	0.009182186
	0.02116845	-0.03157066	-0.009526381	0.003786413	0.03022794	-0.005371146	-0.3508479	-0.8895156
	-0.009530066	0.003790159	0.03778676	0.009182186	-0.3508479	-0.8895156	0.01106506	-0.04896843
2.3e+08	0.03082694	-0.006455863	-0.4263948	-0.8547625	0.01666621	-0.03429536	-0.009663272	0.004743383
	-0.4263948	-0.8547625	0.007350752	-0.04976457	-0.009660038	0.004739152	0.03834536	0.007974619
	0.01666621	-0.03429536	-0.009660038	0.004739152	0.03081659	-0.00650526	-0.4267987	-0.8545457
	-0.009663272	0.004743383	0.03834536	0.007974619	-0.4267987	-0.8545457	0.007370004	-0.0497531
2.4e+08	0.0313526	-0.007801402	-0.4989156	-0.8134044	0.0116516	-0.03636584	-0.009710348	0.005755387
	-0.4989156	-0.8134044	0.003700583	-0.05007694	-0.009707682	0.00575077	0.03879595	0.006871959
	0.0116516	-0.03636584	-0.009707682	0.00575077	0.03134022	-0.007857289	-0.4993171	-0.8131417
	-0.009710348	0.005755387	0.03879595	0.006871959	-0.4993171	-0.8131417	0.00372929	-0.05006553
2.5e+08	0.03176156	-0.00936852	-0.5674732	-0.7659444	0.006223904	-0.03769634	-0.00966034	0.006820225
	-0.5674732	-0.7659444	0.000177638	-0.04993581	-0.009658301	0.006815371	0.03917483	0.005888956
	0.006223904	-0.03769634	-0.009658301	0.006815371	0.03174556	-0.009431419	-0.5678673	-0.7656349
	-0.00966034	0.006820225	0.03917483	0.005888956	-0.5678673	-0.7656349	0.0002155673	-0.04992598
2.6e+08	0.03199802	-0.01115014	-0.6315576	-0.7127558	0.0004959098	-0.03821686	-0.009502496	0.007930228
	-0.6315576	-0.7127558	-0.003149875	-0.04937311	-0.009501173	0.007925261	0.0395202	0.00503261
	0.0004959098	-0.03821686	-0.009501173	0.007925261	0.03197666	-0.01121999	-0.6319387	-0.7124003
	-0.009502496	0.007930228	0.0395202	0.00503261	-0.6319387	-0.7124003	-0.003102633	-0.04936606
2.7e+08	0.03200622	-0.01312675	-0.6906963	-0.654254	-0.005408667	-0.03787445	-0.009226149	0.009075638
	-0.6906963	-0.654254	-0.006219921	-0.048431	-0.009225489	0.009070645	0.03987082	0.004301868
	-0.005408667	-0.03787445	-0.009225489	0.009070645	0.03197777	-0.01320326	-0.6910603	-0.6538505
	-0.009226149	0.009075638	0.03987082	0.004301868	-0.6910603	-0.6538505	-0.006163761	-0.04842781
2.8e+08	0.03173289	-0.01526575	-0.7444527	-0.5908919	-0.01135793	-0.03663574	-0.008821452	0.01024477
	-0.7444527	-0.5908919	-0.008978821	-0.04716114	-0.008821514	0.01023998	0.04026482	0.003687904
	-0.01135793	-0.03663574	-0.008821514	0.01023998	0.03169547	-0.01534835	-0.7447927	-0.5904422
	-0.008821452	0.01024477	0.04026482	0.003687904	-0.7447927	-0.5904422	-0.008913548	-0.04716287
2.9e+08	0.03113001	-0.01752283	-0.7924312	-0.5231602	-0.01721446	-0.03448728	-0.008279411	0.01142378
	-0.7924312	-0.5231602	-0.01138244	-0.04562307	-0.008280183	0.01141933	0.04073699	0.003173716
	-0.01721446	-0.03448728	-0.008280184	0.01141933	0.03108202	-0.01761027	-0.7927432	-0.5226656
	-0.008279411	0.01142378	0.04073699	0.003173716	-0.7927432	-0.5226656	-0.01130847	-0.04563095
3e+08	0.03015727	-0.01984239	-0.8342815	-0.4515803	-0.0228389	-0.03143694	-0.007592947	0.01259737
	-0.8342815	-0.4515803	-0.01339728	-0.04388245	-0.007594308	0.01259335	0.04131897	0.002735684
	-0.0228389	-0.03143694	-0.007594308	0.01259335	0.03009703	-0.01993344	-0.8345593	-0.4510418
	-0.007592947	0.01259737	0.04131897	0.002735684	-0.8345593	-0.4510418	-0.01331476	-0.0438976
3.1e+08	0.02878434	-0.02215908	-0.8696958	-0.3767012	-0.02809288	-0.02751382	-0.00675624	0.01374799
	-0.8696958	-0.3767012	-0.0150009	-0.04200912	-0.006758123	0.01374454	0.04203695	0.002343773
	-0.02809288	-0.02751382	-0.006758123	0.01374454	0.0287103	-0.02225203	-0.8699335	-0.3761208
	-0.00675624	0.01374799	0.04203695	0.002343773	-0.8699335	-0.3761208	-0.01490995	-0.04203265
3.2e+08	0.02699295	-0.02440003	-0.8984182	-0.2990958	-0.03284223	-0.02276803	-0.005765931	0.01485692
	-0.8984182	-0.2990958	-0.01618319	-0.04007526	-0.005768262	0.01485427	0.04291088	0.001962716
	-0.03284223	-0.02276803	-0.005768263	0.01485427	0.02690397	-0.02449262	-0.8986103	-0.2984785
	-0.005765932	0.01485692	0.04291088	0.001962716	-0.8986103	-0.2984785	-0.01608446	-0.04010868
3.3e+08	0.02477867	-0.02648647	-0.9202419	-0.2193625	-0.03696024	-0.01727008	-0.004620979	0.01590399
	-0.9202419	-0.2193625	-0.01694609	-0.03815385	-0.004623573	0.01590219	0.04395349	0.001553258
	-0.03696024	-0.01727008	-0.004623573	0.01590219	0.02467388	-0.02657641	-0.9203841	-0.2187091
	-0.004620979	0.01590399	0.04395349	0.001553258	-0.9203841	-0.2187091	-0.01684034	-0.03819821
3.4e+08	0.02215181	-0.02833721	-0.9350131	-0.1381071	-0.04033082	-0.01110971	-0.003323197	0.01686842
	-0.9350131	-0.1381071	-0.01730372	-0.03631561	-0.003325851	0.01686758	0.04516992	0.001073651
	-0.04033082	-0.01110971	-0.003325851	0.01686758	0.02203076	-0.02842174	-0.9351009	-0.137424
	-0.003323197	0.01686842	0.04516992	0.001073651	-0.9351009	-0.137424	-0.01719187	-0.03637227
3.5e+08	0.01913864	-0.02987079	-0.9426313	-0.05595334	-0.04285094	-0.004394282	-0.001877235	0.01772868
	-0.9426313	-0.05595334	-0.01728178	-0.03462796	-0.001879763	0.01772897	0.04655653	0.0004810137
	-0.04285094	-0.004394282	-0.001879763	0.01772897	0.01900123	-0.02994711	-0.9426608	-0.05524412
	-0.001877235	0.01772868	0.04655653	0.0004810136	-0.9426608	-0.05524412	-0.0171649	-0.03469794
3.6e+08	0.01578122	-0.03100884	-0.9430517	0.02646992	-0.04443385	0.002753445	-0.0002909621	0.01846351
	-0.9430517	0.02646992	-0.01691659	-0.03315278	-0.0002930853	0.01846487	0.04810197	-0.0002671117
	-0.04443385	0.002753445	-0.0002930854	0.01846487	0.01562794	-0.03107382	-0.9430179	0.02719926
	-0.0002909621	0.01846351	0.04810197	-0.0002671117	-0.9430179	0.02719926	-0.01679602	-0.03323705
3.7e+08	0.0121366	-0.03167914	-0.9362824	0.1085353	-0.04501082	0.01019759	0.001424701	0.01905186
	-0.9362824	0.1085353	-0.01625421	-0.03194442	0.001423255	0.01905426	0.04978637	-0.001211165
	-0.04501082	0.01019759	0.001423255	0.01905426	0.01196847	-0.0317298	-0.9361831	0.1092797
	0.0014247	0.01905186	0.04978637	-0.001211165	-0.9361831	0.1092797	-0.0161315	-0.0320437
3.8e+08	0.008276862	-0.03181827	-0.9223888	0.1896132	-0.0445335	0.01779194	0.003255542	0.01947378
	-0.9223888	0.1896132	-0.01534904	-0.0310489	0.003255056	0.01947716	0.05158221	-0.002388135
	-0.0445335	0.01779194	0.003255056	0.01947716	0.008095511	-0.03185151	-0.9222202	0.1903658
	0.003255542	0.01947378	0.05158221	-0.002388135	-0.9222202	0.1903658	-0.01522573	-0.03116375
3.9e+08	0.004286336	-0.0313749	-0.901491	0.2690883	-0.04297509	0.02538294	0.005184336	0.01971078
	-0.901491	0.2690883	-0.01426225	-0.03050182	0.005185065	0.0197149	0.05345506	-0.003830119
	-0.04297509	0.02538294	0.005185065	0.0197149	0.004093963	-0.03138793	-0.9012509	0.2698434
	0.005184336	0.01971078	0.05345506	-0.003830119	-0.9012509	0.2698434	-0.01414001	-0.03063244
4e+08	0.0002608672	-0.03031161	-0.8737629	0.3463535	-0.04033149	0.03281313	0.007190886	0.01974643
	-0.8737629	0.3463535	-0.01305977	-0.03032812	0.007193104	0.01975106	0.05536442	-0.005563385
	-0.04033149	0.03281313	0.007193104	0.01975106	6.01899e-05	-0.03030185	-0.8734497	0.3471042
	0.007190886	0.01974643	0.05536442	-0.005563385	-0.8734497	0.3471042	-0.0129403	-0.03047454
4.1e+08	-0.003695654	-0.02860782	-0.8394321	0.4208221	-0.03662188	0.03992416	0.009252288	0.01956658
	-0.8394321	0.4208221	-0.01181068	-0.03054093	0.009256217	0.01957156	0.05726466	-0.007606695
	-0.03662188	0.03992416	0.009256217	0.01957156	-0.003901329	-0.02857306	-0.8390451	0.4215603
	0.009252287	0.01956658	0.05726466	-0.007606695	-0.8390451	0.4215603	-0.01169566	-0.03070295
4.2e+08	-0.00747429	-0.02626064	-0.7987747	0.4919293	-0.0318885	0.04656092	0.01134346	0.0191603
	-0.7987747	0.4919293	-0.01058491	-0.03114161	0.01134927	0.01916521	0.0591069	-0.009971158
	-0.0318885	0.04656092	0.01134927	0.01916521	-0.007681063	-0.02619917	-0.7983134	0.4926486
	0.01134346	0.0191603	0.0591069	-0.009971158	-0.7983134	0.4926486	-0.01047585	-0.03131873
4.3e+08	-0.01096341	-0.02328666	-0.7521181	0.5591386	-0.02619665	0.05257437	0.01343739	0.01851979
	-0.7521181	0.5591386	-0.009451072	-0.0321196	0.01344515	0.01852416	0.06083985	-0.01265934
	-0.02619665	0.05257437	0.01344515	0.01852416	-0.01116714	-0.02319743	-0.7515844	0.5598309
	0.01343739	0.01851979	0.06083985	-0.01265934	-0.7515844	0.5598309	-0.009349625	-0.03231103
4.4e+08	-0.01405289	-0.01972213	-0.6998355	0.6219453	-0.01963315	0.05782505	0.01550564	0.01764082
	-0.6998355	0.6219453	-0.00847505	-0.03345276	0.01551545	0.0176444	0.06241201	-0.01566526
	-0.01963315	0.05782505	0.01551545	0.0176444	-0.01424902	-0.0196047	-0.699229	0.6226024
	0.01550564	0.01764082	0.06241201	-0.01566526	-0.699229	0.6226024	-0.008382506	-0.03365771
4.5e+08	-0.01663724	-0.01562288	-0.6423425	0.6798796	-0.01230488	0.06218634	0.01751904	0.01652316
	-0.6423425	0.6798796	-0.007717596	-0.03510875	0.01753083	0.01652543	0.06377256	-0.01897379
	-0.01230488	0.06218634	0.01753083	0.01652543	-0.01682118	-0.01547759	-0.6416662	0.6804946
	0.01751904	0.01652316	0.06377256	-0.01897379	-0.6416662	0.6804946	-0.007635164	-0.03532599
4.6e+08	-0.01861965	-0.0110637	-0.5800914	0.7325119	-0.004337429	0.06554725	0.01944827	0.01517055
	-0.5800914	0.7325119	-0.007232738	-0.03704476	0.0194619	0.01517107	0.06487347	-0.02256188
	-0.004337429	0.06554725	0.0194619	0.01517107	-0.01878643	-0.01089165	-0.5793476	0.7330768
	0.01944827	0.01517055	0.06487347	-0.02256188	-0.5793476	0.7330768	-0.007161315	-0.03727325
4.7e+08	-0.01991461	-0.006137169	-0.5135732	0.7794552	0.004128293	0.06781532	0.0212643	0.01359074
	-0.5135732	0.7794552	-0.007066332	-0.03921057	0.02127949	0.01358899	0.06567034	-0.02639791
	0.004128293	0.06781532	0.02127949	0.01358899	-0.02005972	-0.005940298	-0.5127665	0.7799648
	0.0212643	0.01359074	0.06567034	-0.02639791	-0.5127665	0.7799648	-0.007006875	-0.03944871
4.8e+08	-0.02045169	-0.0009515251	-0.44331	0.8203687	0.012938	0.06891842	0.02293914	0.01179529
	-0.44331	0.8203687	-0.007254952	-0.04154829	0.02295557	0.01179088	0.06612434	-0.03044373
	0.012938	0.06891842	0.02295557	0.01179088	-0.02057029	-0.0007326249	-0.4424439	0.8208143
	0.02293914	0.01179529	0.06612434	-0.03044373	-0.4424439	0.8208143	-0.007207782	-0.04179488
4.9e+08	-0.02017833	0.004372188	-0.3698481	0.8549623	0.02192752	0.06880696	0.02444674	0.009799749
	-0.3698481	0.8549623	-0.007824358	-0.04399567	0.02446401	0.009792329	0.06620312	-0.03465475
	0.02192752	0.06880696	0.02446401	0.009792329	-0.02026641	0.004609485	-0.3689279	0.8553373
	0.02444674	0.009799749	0.06620312	-0.03465475	-0.3689279	0.8553373	-0.007789825	-0.04424915
5e+08	-0.01906155	0.009702438	-0.2937569	0.8829897	0.03092619	0.06745466	0.02576299	0.007622796
	-0.2937569	0.8829897	-0.008789705	-0.04648716	0.02578058	0.007612115	0.0658814	-0.03898202
	0.03092619	0.06745466	0.02578058	0.007612115	-0.0191155	0.009953727	-0.2927882	0.8832894
	0.02576299	0.007622796	0.0658814	-0.03898202	-0.2927882	0.8832894	-0.008767849	-0.04674608
5.1e+08	-0.01709087	0.01490105	-0.2156213	0.9042635	0.03975999	0.06485992	0.02686651	0.005286224
	-0.2156213	0.9042635	-0.01015426	-0.04895558	0.0268839	0.005272073	0.06514226	-0.04337248
	0.03975999	0.06485992	0.0268839	0.005272073	-0.01710755	0.01516128	-0.214611	0.9044812
	0.02686651	0.005286224	0.06514226	-0.04337248	-0.214611	0.9044812	-0.01014487	-0.04921876
5.2e+08	-0.01427832	0.01982703	-0.1360412	0.9186446	0.04825546	0.061046	0.02773917	0.002814387
