!$
! Info: Touchstone file created by Circ.  Input file=C2M_PCB_100ohms_10p5in_20230620_v3.circ
!$
# Hz S RI R 50
0	0.01351592	4.306338e-24	0.9864539	-4.189237e-24	0.0001767832	1.083613e-22	-0.0001731025	2.139421e-20
	0.9864539	-4.045365e-24	0.01333429	3.036563e-24	-0.0001704537	2.10697e-20	3.210645e-05	8.480992e-21
	0.0001767832	1.08395e-22	-0.0001704537	2.106949e-20	0.01351923	4.72873e-24	0.9864671	-3.984963e-24
	-0.0001731025	2.139423e-20	3.210643e-05	8.481065e-21	0.9864671	-4.001631e-24	0.01334787	3.334546e-24
1e+07	0.01958961	0.006858655	0.9712704	-0.136641	0.001238454	0.003653959	-0.0007152731	-0.0006021246
	0.9712704	-0.136641	0.01975867	0.006741473	-0.0007133674	-0.0006029462	0.0009212073	0.003763551
	0.001238454	0.003653959	-0.0007133674	-0.0006029462	0.01981132	0.006830654	0.9710578	-0.1366515
	-0.0007152731	-0.0006021246	0.0009212073	0.003763551	0.9710578	-0.1366515	0.01998065	0.006716
2e+07	0.02515856	0.008635421	0.9395002	-0.2654073	0.002901643	0.007041212	-0.0008867326	-0.001288569
	0.9395002	-0.2654073	0.02615684	0.008040438	-0.0008855941	-0.001289173	0.00203088	0.007420334
	0.002901653	0.007041118	-0.0008855756	-0.001289224	0.02531097	0.008515352	0.9393352	-0.2653502
	-0.0008867113	-0.001288617	0.002030901	0.007420331	0.9393352	-0.2653502	0.02631066	0.007924853
3e+07	0.02943058	0.007994381	0.8924358	-0.3869415	0.005527134	0.009528502	-0.001201451	-0.001694201
	0.8924358	-0.3869415	0.03153713	0.006468094	-0.00120061	-0.001694446	0.003795455	0.01050404
	0.005527121	0.009528497	-0.001200617	-0.001694442	0.02952457	0.007845556	0.8923064	-0.3868711
	-0.001201459	-0.001694197	0.003795447	0.01050406	0.8923064	-0.3868711	0.03163421	0.006325384
4e+07	0.03270891	0.006233771	0.830589	-0.5003936	0.008873505	0.01102091	-0.001630374	-0.001945482
	0.830589	-0.5003936	0.03603358	0.003244389	-0.001629542	-0.001945291	0.006102825	0.01303923
	0.008873507	0.01102091	-0.001629543	-0.001945288	0.03275204	0.006077688	0.8304864	-0.5003258
	-0.001630374	-0.001945479	0.006102822	0.01303923	0.8304864	-0.5003258	0.03608107	0.003095389
5e+07	0.03508629	0.003815364	0.7549731	-0.6041951	0.01275576	0.01130248	-0.002248471	-0.001962077
	0.7549731	-0.6041951	0.03955234	-0.001200424	-0.002247376	-0.00196149	0.008892213	0.0148442
	0.01275576	0.01130248	-0.002247377	-0.001961489	0.03508636	0.003665777	0.7548885	-0.6041383
	-0.002248472	-0.001962076	0.008892209	0.0148442	0.7548885	-0.6041383	0.03955805	-0.001342416
6e+07	0.03663485	0.001046217	0.6668942	-0.6967909	0.01665074	0.01038119	-0.002845123	-0.001854017
	0.6668942	-0.6967909	0.04196658	-0.006538436	-0.002843583	-0.001853178	0.01182831	0.01599602
	0.01665074	0.01038119	-0.002843581	-0.001853178	0.0366009	0.0009122876	0.6668188	-0.6967499
	-0.002845121	-0.001854018	0.01182831	0.01599602	0.6668188	-0.6967499	0.04193851	-0.006664445
7e+07	0.03743751	-0.001845765	0.5678858	-0.7767572	0.02022192	0.008281428	-0.00340956	-0.001639291
	0.5678858	-0.7767572	0.04317121	-0.01245825	-0.003407468	-0.001638391	0.01475375	0.01650469
	0.02022192	0.00828143	-0.003407467	-0.001638394	0.03737869	-0.001958245	0.5678103	-0.7767334
	-0.00340956	-0.001639294	0.01475375	0.01650468	0.5678103	-0.7767334	0.04311807	-0.01256199
8e+07	0.03759784	-0.004689793	0.4596677	-0.8428609	0.02314553	0.005116252	-0.003935359	-0.001332099
	0.4596677	-0.8428609	0.0431102	-0.01864744	-0.003932647	-0.00133134	0.01751816	0.01641901
	0.02314553	0.005116253	-0.003932647	-0.001331338	0.03752336	-0.004777915	0.4595833	-0.8428531
	-0.003935359	-0.001332096	0.01751816	0.01641902	0.4595833	-0.8428531	0.04304096	-0.0187251
9e+07	0.03723524	-0.007366779	0.3441056	-0.8940888	0.02513406	0.001081826	-0.004418176	-0.000941866
	0.3441056	-0.8940888	0.04178933	-0.02479637	-0.004414863	-0.00094149	0.01998883	0.01582391
	0.02513406	0.001081826	-0.00441486	-0.000941481	0.0371544	-0.007430239	0.344004	-0.8940946
	-0.004418171	-0.0009418584	0.01998883	0.01582392	0.344004	-0.8940946	0.04171307	-0.02484654
1e+08	0.03648882	-0.009802282	0.2231587	-0.929676	0.02595019	-0.003557372	-0.004844863	-0.0004714067
	0.2231587	-0.929676	0.03929463	-0.03060832	-0.004841088	-0.0004716506	0.02205346	0.01483479
	0.02595019	-0.003557372	-0.004841088	-0.0004716514	0.03641243	-0.009843221	0.2230282	-0.9296903
	-0.004844863	-0.0004714076	0.02205346	0.01483479	0.2230282	-0.9296903	0.03922169	-0.03063119
1.1e+08	0.03544791	-0.01205756	0.09893833	-0.9489781	0.02544064	-0.008429337	-0.005226677	2.57841e-05
	0.09893833	-0.9489781	0.0357338	-0.03593082	-0.005222619	2.327804e-05	0.02366608	0.01362373
	0.02544064	-0.008429337	-0.005222619	2.327678e-05	0.03539039	-0.01208862	0.09877709	-0.9489786
	-0.005226678	2.578283e-05	0.02366608	0.01362372	0.09877709	-0.9489786	0.03573536	-0.03593219
1.2e+08	0.03412985	-0.01404793	-0.02634695	-0.9518734	0.0235845	-0.01320686	-0.005599522	0.0005973897
	-0.02634695	-0.9518734	0.03120092	-0.04039614	-0.005596276	0.0005938974	0.02481618	0.0122914
	0.0235845	-0.01320686	-0.005596276	0.0005938963	0.03407894	-0.01407891	-0.02653363	-0.9518541
	-0.005599523	0.0005973885	0.02481619	0.0122914	-0.02653363	-0.9518541	0.03122318	-0.04041265
1.3e+08	0.0326419	-0.01577885	-0.1506013	-0.9384174	0.02040366	-0.017532	-0.005941331	0.001261796
	-0.1506013	-0.9384174	0.02597576	-0.04381894	-0.005938742	0.001258038	0.0254994	0.01097975
	0.02040366	-0.017532	-0.005938743	0.001258037	0.03259094	-0.01581018	-0.1508092	-0.9383693
	-0.005941332	0.001261795	0.0254994	0.01097975	-0.1508092	-0.9383693	0.02599207	-0.04384423
1.4e+08	0.03104615	-0.01728578	-0.271732	-0.9089227	0.01602242	-0.02105521	-0.006230752	0.002031352
	-0.271732	-0.9089227	0.02033957	-0.04608615	-0.006228522	0.002027436	0.02575864	0.009824573
	0.01602242	-0.02105521	-0.006228523	0.002027436	0.03099274	-0.01731533	-0.2719555	-0.9088418
	-0.006230752	0.002031351	0.02575864	0.009824571	-0.2719555	-0.9088418	0.0203446	-0.04610826
1.5e+08	0.02937174	-0.01861217	-0.3877039	-0.8639718	0.0106555	-0.02346345	-0.006440578	0.00291272
	-0.3877039	-0.8639718	0.01458206	-0.04715301	-0.006438609	0.002908502	0.02567316	0.008943005
	0.0106555	-0.02346345	-0.00643861	0.002908501	0.02931611	-0.01863847	-0.3879364	-0.8638525
	-0.006440579	0.002912719	0.02567316	0.008943003	-0.3879364	-0.8638525	0.01457982	-0.04716425
1.6e+08	0.02761952	-0.01979735	-0.4965746	-0.8043968	0.004596111	-0.02450309	-0.006538767	0.003904859
	-0.4965746	-0.8043968	0.008989458	-0.04704269	-0.006537173	0.003900214	0.02535168	0.008425465
	0.004596111	-0.02450309	-0.006537173	0.003900213	0.02756258	-0.01982007	-0.4968088	-0.8042359
	-0.006538767	0.003904859	0.02535168	0.008425463	-0.4968088	-0.8042359	0.008986762	-0.04704044
1.7e+08	0.02576853	-0.02086544	-0.5965252	-0.7312725	-0.001800549	-0.02399869	-0.006490568	0.004997147
	-0.5965252	-0.7312725	0.003830749	-0.04584449	-0.006489563	0.004992025	0.0249236	0.008328366
	-0.001800549	-0.02399869	-0.006489564	0.004992025	0.02571086	-0.02088523	-0.5967533	-0.7310683
	-0.006490568	0.004997147	0.0249236	0.008328365	-0.5967533	-0.7310683	0.003833971	-0.04582998
1.8e+08	0.02378444	-0.02181993	-0.6858937	-0.6458979	-0.008138545	-0.02186751	-0.006261605	0.006168459
	-0.6858937	-0.6458979	-0.000656893	-0.04370795	-0.006261432	0.006162985	0.0245291	0.00866995
	-0.008138545	-0.02186751	-0.006261432	0.006162985	0.02372594	-0.02183747	-0.6861087	-0.6456504
	-0.006261605	0.006168459	0.0245291	0.008669949	-0.6861087	-0.6456504	-0.0006429541	-0.04368459
1.9e+08	0.02162987	-0.02263882	-0.7632007	-0.5497743	-0.01400521	-0.0181281	-0.005821047	0.007386893
	-0.7632007	-0.5497743	-0.004281373	-0.04083369	-0.005821901	0.007381294	0.02430859	0.009429179
	-0.01400521	-0.0181281	-0.005821901	0.007381294	0.02156956	-0.02265476	-0.7633936	-0.5494829
	-0.005821048	0.007386893	0.02430859	0.009429178	-0.7633936	-0.5494829	-0.004253712	-0.04080576
2e+08	0.01927384	-0.023276	-0.8271745	-0.4445777	-0.01899634	-0.01290249	-0.005144983	0.008610833
	-0.8271745	-0.4445777	-0.006906298	-0.03746057	-0.005146951	0.008605442	0.02439153	0.01054652
	-0.01899634	-0.01290249	-0.005146952	0.008605442	0.01921057	-0.02329002	-0.8273374	-0.4442458
	-0.005144983	0.008610833	0.02439153	0.01054652	-0.8273374	-0.4442458	-0.006863754	-0.03743296
2.1e+08	0.01670163	-0.02366347	-0.8767712	-0.3321389	-0.02274249	-0.006413027	-0.004219361	0.009790829
	-0.8767712	-0.3321389	-0.00845793	-0.03385135	-0.004222403	0.009785989	0.02488713	0.01192895
	-0.02274249	-0.006413027	-0.004222403	0.009785989	0.01663436	-0.02367457	-0.8768964	-0.3317685
	-0.004219361	0.009790829	0.02488713	0.01192895	-0.8768964	-0.3317685	-0.008400781	-0.03382834
2.2e+08	0.01392336	-0.02371793	-0.9111967	-0.2144026	-0.02493312	0.001028101	-0.003042275	0.01087264
	-0.9111967	-0.2144026	-0.008929545	-0.03027636	-0.003046199	0.01086869	0.02587617	0.01345662
	-0.02493312	0.001028101	-0.0030462	0.01086869	0.01385143	-0.02372447	-0.9112779	-0.2139988
	-0.003042276	0.01087264	0.02587617	0.01345662	-0.9112779	-0.2139988	-0.008859464	-0.0302619
2.3e+08	0.0109794	-0.02334966	-0.9299187	-0.09339982	-0.02533759	0.009034583	-0.001625183	0.01180045
	-0.9299187	-0.09339982	-0.008380598	-0.02699705	-0.001629696	0.01179764	0.02740362	0.01499063
	-0.02533759	0.009034583	-0.001629696	0.01179764	0.01090287	-0.02334948	-0.929949	-0.09296925
	-0.001625183	0.01180045	0.02740362	0.01499063	-0.929949	-0.09296925	-0.008299809	-0.02699405
2.4e+08	0.007943153	-0.02247236	-0.932672	0.02878516	-0.02382304	0.01716684	6.810992e-06	0.0125209
	-0.932672	0.02878516	-0.006931286	-0.02424981	2.074282e-06	0.01251937	0.02947698	0.01638457
	-0.02382304	0.01716684	2.0742e-06	0.01251937	0.007863004	-0.02246332	-0.9326449	0.02923674
	6.81091e-06	0.0125209	0.02947698	0.01638457	-0.9326449	0.02923674	-0.006842617	-0.02426023
2.5e+08	0.004921665	-0.02101532	-0.919472	0.1500592	-0.02036557	0.02495684	0.001815937	0.01298656
	-0.919472	0.1500592	-0.004755298	-0.02223204	0.001811421	0.01298631	0.0320642	0.01749391
	-0.02036557	0.02495684	0.001811421	0.01298631	0.004839526	-0.0209953	-0.9193828	0.1505237
	0.001815937	0.01298656	0.0320642	0.01749391	-0.9193828	0.1505237	-0.00466196	-0.02225705
2.6e+08	0.002050712	-0.01893368	-0.8906058	0.2683482	-0.01505607	0.03193532	0.003753774	0.01315944
	-0.8906058	0.2683482	-0.0020677	-0.02109082	0.003749858	0.01316038	0.03509596	0.01818656
	-0.01505607	0.03193532	0.003749857	0.01316038	0.001969208	-0.0189011	-0.8904518	0.268816
	0.003753774	0.01315944	0.03509596	0.01818656	-0.8904518	0.268816	-0.001972562	-0.02113059
2.7e+08	-0.0005121986	-0.01621877	-0.8466318	0.3816412	-0.008098242	0.03765941	0.005764091	0.01301298
	-0.8466318	0.3816412	0.0008896795	-0.02091392	0.005761087	0.01301475	0.03847076	0.01835237
	-0.008098242	0.03765941	0.005761087	0.01301475	-0.000589983	-0.0161727	-0.8464094	0.3821044
	0.005764091	0.01301298	0.03847076	0.01835237	-0.8464094	0.3821044	0.0009836901	-0.0209679
2.8e+08	-0.002597842	-0.01290598	-0.7883646	0.4880217	0.0001988484	0.04174038	0.007786236	0.01253394
	-0.7883646	0.4880217	0.003863203	-0.02172618	0.007784436	0.01253627	0.04206193	0.01791081
	0.0001988484	0.04174038	0.007784436	0.01253627	-0.002668266	-0.0128462	-0.7880734	0.4884683
	0.007786235	0.01253394	0.04206193	0.01791081	-0.7880734	0.4884683	0.003953883	-0.02179315
2.9e+08	-0.004038706	-0.00907892	-0.7168633	0.5857019	0.009435776	0.04386753	0.009758655	0.01172242
	-0.7168633	0.5857019	0.006603711	-0.02348882	0.009758145	0.0117249	0.04572536	0.01681598
	0.009435776	0.04386753	0.009758145	0.0117249	-0.004097919	-0.009006581	-0.7165044	0.5861228
	0.009758655	0.01172242	0.04572536	0.01681598	-0.7165044	0.5861228	0.006688989	-0.02356717
3e+08	-0.004682791	-0.004870433	-0.6334075	0.6730565	0.01914298	0.04382966	0.01162277	0.01059203
	-0.6334075	0.6730565	0.008882395	-0.02610322	0.01162348	0.01059415	0.04931084	0.01506031
	0.01914298	0.04382966	0.01162348	0.01059415	-0.004727053	-0.004787337	-0.6329824	0.6734408
	0.01162277	0.01059203	0.04931084	0.01506031	-0.6329824	0.6734408	0.008960989	-0.02619096
3.1e+08	-0.004408101	-0.0004591634	-0.5394726	0.7486444	0.02880574	0.04152983	0.01332537	0.009166989
	-0.5394726	0.7486444	0.01050474	-0.02941844	0.01332713	0.009168359	0.05267108	0.01267435
	0.02880574	0.04152983	0.01332713	0.009168359	-0.004433909	-0.0003683051	-0.5389842	0.7489812
	0.01332537	0.009166989	0.05267108	0.01267435	-0.5389842	0.7489812	0.01057614	-0.02951331
3.2e+08	-0.003136393	0.003938213	-0.4367024	0.8112379	0.03789218	0.03699437	0.01482152	0.007480785
	-0.4367024	0.8112379	0.01132181	-0.03324185	0.01482412	0.007481147	0.05567193	0.009724522
	0.03789218	0.03699437	0.01482412	0.007481147	-0.003140938	0.004032544	-0.4361585	0.8115166
	0.01482152	0.007480786	0.05567193	0.009724522	-0.4361585	0.8115166	0.01138576	-0.03334177
3.3e+08	-0.0008444467	0.008077953	-0.3268845	0.8598364	0.04588294	0.03037503	0.01607547	0.00557277
	-0.3268845	0.8598364	0.01123884	-0.03735235	0.01607846	0.005571869	0.05820102	0.006308355
	0.04588294	0.03037503	0.01607846	0.005571869	-0.0008259404	0.008170856	-0.3262894	0.8600488
	0.01607547	0.00557277	0.05820102	0.006308355	-0.3262894	0.8600488	0.01129581	-0.03745523
3.4e+08	0.002427603	0.01170486	-0.2119046	0.8936845	0.05230075	0.02194391	0.01706146	0.003485515
	-0.2119046	0.8936845	0.01021981	-0.04151485	0.01706444	0.003483255	0.0601752	0.002547518
	0.05230075	0.02194391	0.01706444	0.003483255	0.002469797	0.01179057	-0.2112687	0.8938222
	0.01706146	0.003485515	0.0601752	0.002547517	-0.2112687	0.8938222	0.01027086	-0.04161891
3.5e+08	0.006572	0.01456872	-0.09372716	0.9122785	0.05673763	0.01208155	0.01776269	0.001261743
	-0.09372716	0.9122785	0.008288623	-0.04549546	0.01776534	0.001258217	0.06154482	-0.001420542
	0.05673763	0.01208155	0.01776534	0.001258217	0.006637113	0.01464127	-0.0930595	0.9123348
	0.01776269	0.001261743	0.06154482	-0.001420542	-0.0930595	0.9123348	0.008335305	-0.04559925
3.6e+08	0.01141413	0.01644312	0.02564431	0.9153735	0.05887968	0.001258683	0.01817046	-0.001057681
	0.02564431	0.9153735	0.005526448	-0.04907634	0.01817234	-0.001062333	0.06229763	-0.005452053
	0.05887968	0.001258683	0.01817234	-0.001062333	0.01149981	0.01649635	0.02633231	0.9153415
	0.01817046	-0.001057681	0.06229763	-0.005452053	0.02633231	0.9153415	0.005570524	-0.04917889
3.7e+08	0.01671872	0.01714368	0.144203	0.9029804	0.05852592	-0.009986989	0.01828166	-0.003435583
	0.144203	0.9029804	0.002064884	-0.05206895	0.01828249	-0.003441089	0.06245793	-0.009406781
	0.05852592	-0.009986989	0.01828249	-0.003441089	0.01682102	0.01717203	0.1449003	0.9028568
	0.01828166	-0.003435583	0.06245793	-0.009406781	0.1449003	0.9028568	0.002108361	-0.05216991
3.8e+08	0.02219959	0.01654446	0.2599621	0.8753673	0.05560235	-0.02107812	0.01809693	-0.005838885
	0.2599621	0.8753673	-0.00192289	-0.05432572	0.01809654	-0.005844911	0.06208478	-0.01315716
	0.05560235	-0.02107812	0.01809654	-0.005844911	0.02231298	0.01654302	0.2606552	0.8751486
	0.01809693	-0.005838885	0.06208478	-0.01315716	0.2606552	0.8751486	-0.001877834	-0.05442527
3.9e+08	0.02753617	0.01459206	0.3709964	0.8330496	0.05016872	-0.03142754	0.01761818	-0.008238575
	0.3709964	0.8330496	-0.006234465	-0.0557483	0.01761647	-0.008244744	0.06126722	-0.01659717
	0.05016872	-0.03142754	0.01761647	-0.008244744	0.02765382	0.01455729	0.3716731	0.8327347
	0.01761818	-0.008238575	0.06126722	-0.01659717	0.3716731	0.8327347	-0.006185813	-0.0558472
4e+08	0.03239116	0.01131483	0.4754614	0.7767811	0.04241865	-0.04046923	0.0168469	-0.01060848
	0.4754614	0.7767811	-0.01065103	-0.05629312	0.01684394	-0.01061448	0.06011758	-0.01964916
	0.04241865	-0.04046923	0.01684394	-0.01061448	0.03250518	0.01124476	0.4761083	0.7763709
	0.0168469	-0.01060848	0.06011758	-0.01964916	0.4761083	0.7763709	-0.01059695	-0.05639278
4.1e+08	0.03643316	0.006827948	0.5716276	0.7075419	0.03267294	-0.04768827	0.0157826	-0.01292347
	0.5716276	0.7075419	-0.01495206	-0.05597311	0.01577866	-0.01292908	0.05876293	-0.02226856
	0.03267294	-0.04768827	0.01577866	-0.01292908	0.03653497	0.006722532	0.5722304	0.7070393
	0.0157826	-0.01292347	0.05876293	-0.02226856	0.5722304	0.7070393	-0.01489104	-0.05607544
4.2e+08	0.03935922	0.001331275	0.6579036	0.6265194	0.02136561	-0.05264949	0.01442285	-0.01515753
	0.6579036	0.6265194	-0.01892927	-0.05485596	0.01441809	-0.01516258	0.05733624	-0.02444705
	0.02136561	-0.05264949	0.01441809	-0.01516258	0.03943995	0.001192634	0.6584498	0.6259287
	0.01442285	-0.01515753	0.05733624	-0.02444705	0.6584498	0.6259287	-0.01886029	-0.05496331
4.3e+08	0.04091664	-0.004897159	0.7328624	0.5350958	0.0090248	-0.05502178	0.01276343	-0.01728121
	0.7328624	0.5350958	-0.02239951	-0.05305918	0.01275801	-0.01728561	0.05596625	-0.02621259
	0.0090248	-0.05502178	0.01275801	-0.01728561	0.04096794	-0.005064698	0.7333391	0.5344245
	0.01276343	-0.01728121	0.05596625	-0.02621259	0.7333391	0.5344245	-0.02232234	-0.05317416
4.4e+08	0.04092376	-0.01151506	0.7952635	0.4348239	-0.00375261	-0.05459789	0.01079997	-0.01925964
	0.7952635	0.4348239	-0.02521701	-0.05074162	0.01079425	-0.01926361	0.05476844	-0.02762724
	-0.00375261	-0.05459789	0.01079425	-0.01926361	0.04093807	-0.01170498	0.7956575	0.4340792
	0.01079997	-0.01925964	0.05476844	-0.02762724	0.7956575	0.4340792	-0.02513184	-0.05086701
4.5e+08	0.03928615	-0.01813424	0.8440724	0.3274049	-0.01632989	-0.05130849	0.008530574	-0.02105134
	0.8440724	0.3274049	-0.02728177	-0.04809323	0.008524601	-0.021055	0.05383591	-0.02878188
	-0.01632989	-0.05130849	0.008524601	-0.021055	0.03925759	-0.01833817	0.8443734	0.3265976
	0.008530574	-0.02105134	0.05383591	-0.02878188	0.8443734	0.3265976	-0.02718967	-0.04823168
4.6e+08	0.03600875	-0.02434383	0.8784796	0.2146598	-0.02806185	-0.0452298	0.005958613	-0.02260767
	0.8784796	0.2146598	-0.02854582	-0.04532102	0.005952382	-0.02261126	0.05323288	-0.02979002
	-0.02806185	-0.0452298	0.005952382	-0.02261126	0.03593314	-0.0245516	0.8786769	0.2138012
	0.005958613	-0.02260767	0.05323288	-0.02979002	0.8786769	0.2138012	-0.02844837	-0.04547521
4.7e+08	0.03120072	-0.0297355	0.8979175	0.09850604	-0.0383287	-0.03658321	0.003096222	-0.0238734
	0.8979175	0.09850604	-0.02901594	-0.04263721	0.003089499	-0.02387706	0.05298901	-0.03077839
	-0.0383287	-0.03658321	0.003089499	-0.02387706	0.0310766	-0.02993608	0.8980049	0.09760946
	0.003096222	-0.0238734	0.05298901	-0.03077839	0.8980049	0.09760946	-0.02891582	-0.04280905
4.8e+08	0.0250744	-0.03393103	0.9020729	-0.01907682	-0.04656813	-0.02572817	-3.277345e-05	-0.02478874
	0.9020729	-0.01907682	-0.02875304	-0.04024322	-4.026244e-05	-0.02479262	0.05309757	-0.03187819
	-0.04656813	-0.02572817	-4.026245e-05	-0.02479262	0.02490279	-0.03411245	0.9020415	-0.01999659
	-3.277346e-05	-0.02478874	0.05309757	-0.03187819	0.9020415	-0.01999659	-0.02865278	-0.04043444
4.9e+08	0.01793638	-0.03660881	0.8908949	-0.136084	-0.05230651	-0.01314725	-0.003389947	-0.02529287
	0.8908949	-0.136084	-0.02786697	-0.03831758	-0.003398617	-0.02529696	0.05351511	-0.03321416
	-0.05230651	-0.01314725	-0.003398617	-0.02529696	0.0177215	-0.0367596	0.8907403	-0.1370109
	-0.003389947	-0.02529287	0.05351511	-0.03321416	0.8907403	-0.1370109	-0.02776982	-0.03852893
5e+08	0.01017231	-0.03752672	0.8645938	-0.2505135	-0.05518556	0.0005759887	-0.006921007	-0.02532742
	0.8645938	-0.2505135	-0.02650933	-0.03700376	-0.006931284	-0.02533153	0.05416433	-0.0348958
	-0.05518556	0.0005759887	-0.006931284	-0.02533153	0.009921237	-0.0376363	0.8643144	-0.2514317
	-0.006921007	-0.02532742	0.05416433	-0.0348958	0.8643144	-0.2514317	-0.02641868	-0.03723528
5.1e+08	0.002225705	-0.0365428	0.8236491	-0.3604116	-0.05498433	0.01478412	-0.01055532	-0.02484167
	0.8236491	-0.3604116	-0.02486238	-0.03640009	-0.01056766	-0.02484539	0.05493971	-0.03700758
	-0.05498433	0.01478412	-0.01056766	-0.02484539	0.001948092	-0.03660209	0.823244	-0.3613028
	-0.01055532	-0.02484167	0.05493971	-0.03700758	0.823244	-0.3613028	-0.02478147	-0.03665136
5.2e+08	-0.005428849	-0.03362761	0.7687952	-0.4639003	-0.05163426	0.0287789	-0.01420739	-0.02379758
	0.7687952	-0.4639003	-0.02312717	-0.03655505	-0.01422209	-0.02380022	0.05571517	-0.03960343
