!$
! Info: Touchstone file created by Circ.  Input file=C2M_PCB_100ohms_10p0in_20230620_v3.circ
!$
# Hz S RI R 50
0	0.01301021	4.175493e-24	0.9869596	-4.048932e-24	0.000174287	1.058245e-22	-0.0001706045	2.10799e-20
	0.9869596	-3.90499e-24	0.01282861	2.88927e-24	-0.0001679544	2.075524e-20	2.960523e-05	8.467003e-21
	0.0001742871	1.058583e-22	-0.0001679544	2.075503e-20	0.01301351	4.603639e-24	0.9869728	-3.855694e-24
	-0.0001706045	2.107992e-20	2.960521e-05	8.467076e-21	0.9869728	-3.872368e-24	0.01284217	3.199766e-24
1e+07	0.01882426	0.006663394	0.9726702	-0.1317362	0.001182029	0.003582903	-0.0006900052	-0.0006049632
	0.9726702	-0.1317362	0.01898246	0.006556556	-0.0006880913	-0.0006057703	0.0008774644	0.003688101
	0.001182029	0.003582903	-0.0006880913	-0.0006057703	0.01903888	0.006637611	0.972465	-0.1317487
	-0.0006900052	-0.0006049632	0.0008774644	0.003688101	0.972465	-0.1317487	0.01919732	0.006533179
2e+07	0.02414224	0.008491055	0.9429956	-0.2561044	0.002754746	0.006925755	-0.0008560118	-0.001289369
	0.9429956	-0.2561044	0.02510524	0.007935844	-0.000854855	-0.001289961	0.001927715	0.007278606
	0.002754758	0.006925661	-0.000854836	-0.001290012	0.02429117	0.00837668	0.942835	-0.2560528
	-0.0008559901	-0.001289417	0.001927736	0.007278603	0.942835	-0.2560528	0.02525551	0.007825748
3e+07	0.02823879	0.00802679	0.899096	-0.3738518	0.00525185	0.009436589	-0.001163353	-0.001704996
	0.899096	-0.3738518	0.03028667	0.006596696	-0.001162492	-0.001705238	0.003602597	0.01033567
	0.005251837	0.009436584	-0.001162499	-0.001705234	0.0283324	0.007884334	0.8989686	-0.3737882
	-0.001163362	-0.001704991	0.003602588	0.01033569	0.8989686	-0.3737882	0.03038326	0.006460084
4e+07	0.03141622	0.00650538	0.8413781	-0.4842847	0.008460695	0.01103185	-0.001585018	-0.001973107
	0.8413781	-0.4842847	0.03467642	0.003697813	-0.001584176	-0.001972923	0.005804223	0.01288927
	0.008460697	0.01103185	-0.001584177	-0.00197292	0.03146156	0.006355146	0.8412756	-0.4842239
	-0.001585018	-0.001973104	0.005804219	0.01288927	0.8412756	-0.4842239	0.034726	0.003554316
5e+07	0.03376924	0.004356527	0.7707084	-0.5860015	0.01222768	0.01150594	-0.002195184	-0.002018867
	0.7707084	-0.5860015	0.0381996	-0.0003681648	-0.0021941	-0.002018289	0.008488597	0.01476849
	0.01222769	0.01150594	-0.002194102	-0.002018288	0.03377343	0.004211501	0.7706225	-0.5859516
	-0.002195185	-0.002018865	0.008488594	0.0147685	0.7706225	-0.5859516	0.03820933	-0.0005060318
6e+07	0.03536679	0.001862232	0.6882169	-0.6775931	0.01607245	0.01085168	-0.002791066	-0.001942519
	0.6882169	-0.6775931	0.04074118	-0.005311275	-0.002789568	-0.001941679	0.0113443	0.01603939
	0.01607245	0.01085168	-0.002789566	-0.001941679	0.03533816	0.001731175	0.6881392	-0.6775587
	-0.002791065	-0.00194252	0.01134431	0.01603939	0.6881392	-0.6775587	0.04071832	-0.005435005
7e+07	0.03628423	-0.0007691437	0.5952362	-0.7577533	0.01969034	0.009071831	-0.0033611	-0.001759856
	0.5952362	-0.7577533	0.04219853	-0.01085915	-0.003359081	-0.001758928	0.01422967	0.01670269
	0.01969034	0.009071833	-0.003359079	-0.00175893	0.03623118	-0.0008805597	0.5951579	-0.7577357
	-0.003361099	-0.001759859	0.01422968	0.01670269	0.5951579	-0.7577357	0.04215104	-0.01096265
8e+07	0.03661435	-0.003380889	0.4932667	-0.8253334	0.02278225	0.006246605	-0.003897465	-0.001483876
	0.4932667	-0.8253334	0.04250754	-0.01673773	-0.003894852	-0.00148304	0.01700668	0.01679301
	0.02278225	0.006246605	-0.003894853	-0.001483037	0.03654542	-0.003469607	0.4931794	-0.8253317
	-0.003897465	-0.001483873	0.01700668	0.01679302	0.4931794	-0.8253317	0.04244365	-0.01681711
9e+07	0.03646434	-0.005862512	0.3839412	-0.8793683	0.02507458	0.002530415	-0.004394409	-0.001123882
	0.3839412	-0.8793683	0.04165531	-0.02267239	-0.004391203	-0.00112336	0.01955009	0.01637723
	0.02507458	0.002530416	-0.0043912	-0.001123351	0.03638831	-0.005927832	0.383837	-0.8793806
	-0.004394405	-0.001123875	0.01955009	0.01637724	0.383837	-0.8793806	0.04158345	-0.02272591
1e+08	0.03596126	-0.008142605	0.26898	-0.919104	0.02633081	-0.001859724	-0.004838393	-0.000683163
	0.26898	-0.919104	0.03969936	-0.02839457	-0.004834702	-0.000683183	0.0217493	0.01555017
	0.02633081	-0.001859724	-0.004834702	-0.0006831838	0.03588863	-0.008185985	0.2688473	-0.9191257
	-0.004838393	-0.0006831639	0.0217493	0.01555017	0.2688473	-0.9191257	0.03962938	-0.02842184
1.1e+08	0.03519008	-0.01028186	0.1502443	-0.9438695	0.02638007	-0.006601625	-0.00523714	-0.0002148919
	0.1502443	-0.9438695	0.03671675	-0.03377303	-0.005233047	-0.0002171044	0.02355077	0.01446378
	0.02638007	-0.006601625	-0.005233048	-0.0002171057	0.03513566	-0.01031432	0.1500805	-0.9438793
	-0.00523714	-0.0002148932	0.02355077	0.01446377	0.1500805	-0.9438793	0.03672009	-0.03377924
1.2e+08	0.03415794	-0.01220059	0.02970712	-0.9534637	0.0251708	-0.01140925	-0.005627649	0.0003220686
	0.02970712	-0.9534637	0.03275574	-0.03845548	-0.005624283	0.000318888	0.02493446	0.01320275
	0.0251708	-0.01140925	-0.005624283	0.0003188867	0.03411042	-0.01223276	0.02951686	-0.9534556
	-0.005627649	0.0003220674	0.02493446	0.01320274	0.02951686	-0.9534556	0.03277858	-0.03847715
1.3e+08	0.03296555	-0.01390045	-0.09075938	-0.9478336	0.02268064	-0.01596069	-0.005991777	0.0009441783
	-0.09075938	-0.9478336	0.02805004	-0.04225375	-0.005988995	0.0009407476	0.02587993	0.01189369
	0.02268064	-0.01596069	-0.005988996	0.0009407467	0.03291833	-0.0139334	-0.09097253	-0.9477987
	-0.005991777	0.0009441774	0.02587993	0.01189368	-0.09097253	-0.9477987	0.02806564	-0.04228432
1.4e+08	0.03167266	-0.01541407	-0.2092704	-0.9271456	0.01897714	-0.01992962	-0.006312838	0.00166297
	-0.2092704	-0.9271456	0.02283652	-0.04503991	-0.006310332	0.001659396	0.02640907	0.0106626
	0.01897714	-0.01992962	-0.006310333	0.001659396	0.03162307	-0.01544596	-0.2095016	-0.9270796
	-0.006312839	0.001662969	0.02640907	0.0106626	-0.2095016	-0.9270796	0.02283952	-0.04506714
1.5e+08	0.0303086	-0.01678426	-0.3239762	-0.8918016	0.01420966	-0.02300994	-0.006569038	0.002486135
	-0.3239762	-0.8918016	0.01736519	-0.04674224	-0.006566682	0.002482257	0.02657708	0.009623473
	0.01420966	-0.02300994	-0.006566683	0.002482257	0.03025662	-0.01681362	-0.3242193	-0.8916988
	-0.006569038	0.002486135	0.02657708	0.009623471	-0.3242193	-0.8916988	0.01735961	-0.04675812
1.6e+08	0.02887549	-0.01805284	-0.4330919	-0.8424225	0.008602243	-0.024936	-0.006733819	0.003415882
	-0.4330919	-0.8424225	0.0118905	-0.0473462	-0.006731714	0.003411539	0.0264678	0.008870998
	0.008602243	-0.024936	-0.006731715	0.003411539	0.02882192	-0.01807921	-0.4333403	-0.8422792
	-0.006733819	0.003415882	0.0264678	0.008870997	-0.4333403	-0.8422792	0.01188324	-0.04734779
1.7e+08	0.02735286	-0.01924984	-0.5349234	-0.779845	0.00244249	-0.02550006	-0.006777168	0.004447159
	-0.5349234	-0.779845	0.006660299	-0.046895	-0.006775524	0.004442256	0.02618708	0.008473455
	0.00244249	-0.02550006	-0.006775524	0.004442256	0.02729831	-0.01927379	-0.5351699	-0.779659
	-0.006777168	0.004447159	0.02618708	0.008473453	-0.5351699	-0.779659	0.006657929	-0.0468832
1.8e+08	0.02570445	-0.02038787	-0.6278968	-0.7051084	-0.003933896	-0.02456702	-0.006667826	0.005566499
	-0.6278968	-0.7051084	0.001903535	-0.04548669	-0.006666903	0.005561108	0.02585532	0.008468006
	-0.003933896	-0.02456702	-0.006666903	0.005561108	0.02564888	-0.0204101	-0.6281347	-0.7048789
	-0.006667826	0.005566499	0.02585532	0.008468005	-0.6281347	-0.7048789	0.001911124	-0.04546464
1.9e+08	0.02388673	-0.02145609	-0.7105799	-0.6194378	-0.01016137	-0.02208487	-0.006375676	0.006751217
	-0.7105799	-0.6194378	-0.002181783	-0.04326862	-0.006375709	0.006745517	0.02559886	0.008858388
	-0.01016137	-0.02208487	-0.006375709	0.006745517	0.02382927	-0.02147741	-0.7108007	-0.6191634
	-0.006375677	0.006751217	0.02559886	0.008858388	-0.7108007	-0.6191634	-0.002160891	-0.04324038
2e+08	0.02185737	-0.02242014	-0.7817053	-0.5242233	-0.01586462	-0.01809017	-0.005874546	0.007969648
	-0.7817053	-0.5242233	-0.005438891	-0.04042849	-0.005875684	0.007963936	0.02554054	0.009613869
	-0.01586462	-0.01809017	-0.005875684	0.007963936	0.02179679	-0.0224405	-0.7819014	-0.5239064
	-0.005874546	0.007969648	0.02554054	0.009613868	-0.7819014	-0.5239064	-0.00540311	-0.04039882
2.1e+08	0.01958427	-0.02322227	-0.8401878	-0.4210058	-0.02068035	-0.01270981	-0.005144856	0.009182018
	-0.8401878	-0.4210058	-0.00775994	-0.03718394	-0.005147135	0.009176627	0.02579157	0.010672
	-0.02068035	-0.01270981	-0.005147135	0.009176627	0.01951932	-0.02324094	-0.8403515	-0.4206476
	-0.005144857	0.009182018	0.02579157	0.010672	-0.8403515	-0.4206476	-0.007709101	-0.03715708
2.2e+08	0.01705427	-0.02378552	-0.8851463	-0.3114446	-0.02427853	-0.00615656	-0.00417601	0.01034239
	-0.8851463	-0.3114446	-0.009092243	-0.03376985	-0.00417932	0.01033768	0.0264436	0.01194266
	-0.02427853	-0.00615656	-0.004179321	0.01033768	0.01698393	-0.02380111	-0.8852712	-0.311049
	-0.00417601	0.01034239	0.0264436	0.01194266	-0.8852712	-0.311049	-0.009027548	-0.03374987
2.3e+08	0.01427952	-0.0240203	-0.9159157	-0.1972959	-0.02638194	0.001279838	-0.002968026	0.01140088
	-0.9159157	-0.1972959	-0.009440222	-0.03042509	-0.002972153	0.01139714	0.02756104	0.01331331
	-0.02638194	0.001279838	-0.002972153	0.01139714	0.01420328	-0.02403078	-0.9159945	-0.1968684
	-0.002968026	0.01140088	0.02756104	0.01331331	-0.9159945	-0.1968684	-0.009363441	-0.03041512
2.4e+08	0.01130176	-0.02383217	-0.9320532	-0.08038712	-0.02678445	0.009246077	-0.001532655	0.01230674
	-0.9320532	-0.08038712	-0.008863563	-0.02737853	-0.001537292	0.0123042	0.02917831	0.01465801
	-0.02678445	0.009246077	-0.001537293	0.0123042	0.01121997	-0.02383532	-0.9320793	-0.07993237
	-0.001532655	0.01230674	0.02917831	0.01465801	-0.9320793	-0.07993237	-0.008777136	-0.02738086
2.5e+08	0.008195716	-0.02313206	-0.933356	0.03741909	-0.02536461	0.01734299	0.0001065597	0.01301135
	-0.933356	0.03741909	-0.007474235	-0.02483642	0.0001018249	0.01301013	0.03129584	0.01584473
	-0.02536461	0.01734299	0.0001018248	0.01301013	0.008109301	-0.02312552	-0.9333238	0.03789423
	0.0001065596	0.01301135	0.03129584	0.01584473	-0.9333238	0.03789423	-0.007381064	-0.02485269
2.6e+08	0.00506703	-0.02184594	-0.9198545	0.1542476	-0.0220959	0.02514599	0.001915034	0.01347152
	-0.9198545	0.1542476	-0.005428754	-0.02297113	0.001910585	0.01347161	0.03388005	0.01674454
	-0.0220959	0.02514599	0.001910585	0.01347161	0.004977953	-0.02182758	-0.9197603	0.1547344
	0.001915034	0.01347152	0.03388005	0.01674454	-0.9197603	0.1547344	-0.005331517	-0.02300205
2.7e+08	0.002048932	-0.01992497	-0.8918185	0.2682477	-0.01705073	0.03222747	0.003848805	0.01365165
	-0.8918185	0.2682477	-0.002918024	-0.02191102	0.003845016	0.01365283	0.03686559	0.01724023
	-0.01705073	0.03222747	0.003845016	0.01365283	0.001959708	-0.01989312	-0.8916577	0.2687394
	0.003848805	0.01365165	0.03686559	0.01724023	-0.8916577	0.2687394	-0.002819604	-0.02195662
2.8e+08	-0.0007040862	-0.01735455	-0.8497475	0.3776202	-0.01040072	0.03818041	0.005856746	0.01352632
	-0.8497475	0.3776202	-0.0001563355	-0.02173446	0.005853988	0.01352839	0.04015957	0.01723412
	-0.01040072	0.03818041	0.005853988	0.01352839	-0.000790258	-0.017308	-0.8495182	0.3781055
	0.005856746	0.01352632	0.04015957	0.01723412	-0.8495182	0.3781055	-5.903632e-05	-0.02179413
2.9e+08	-0.003026368	-0.01416086	-0.7943662	0.480647	-0.002410157	0.04264051	0.00788328	0.0130812
	-0.7943662	0.480647	0.002631627	-0.0224658	0.007881763	0.01308383	0.04364639	0.01665392
	-0.002410157	0.04264051	0.007881763	0.01308383	-0.003105731	-0.01409956	-0.794068	0.4811173
	0.00788328	0.0130812	0.04364639	0.01665392	-0.794068	0.4811173	0.002725455	-0.02253852
3e+08	-0.00475198	-0.01041523	-0.7266079	0.5757224	0.006574988	0.04530797	0.009871632	0.01231454
	-0.7266079	0.5757224	0.005224393	-0.02407498	0.009871448	0.01231722	0.04719663	0.01545809
	0.006574988	0.04530797	0.009871448	0.01231722	-0.004820695	-0.01033969	-0.7262406	0.5761675
	0.009871632	0.01231454	0.04719663	0.01545809	-0.7262406	0.5761675	0.005313051	-0.02415927
3.1e+08	-0.005727309	-0.006235103	-0.6475974	0.6613738	0.0161431	0.04596497	0.01176634	0.01123544
	-0.6475974	0.6613738	0.00741659	-0.02648036	0.01176746	0.01123777	0.05067408	0.01363789
	0.0161431	0.04596497	0.01176746	0.01123777	-0.005781387	-0.006146937	-0.6471621	0.6617827
	0.01176634	0.01123544	0.05067408	0.01363789	-0.6471621	0.6617827	0.00749901	-0.02657438
3.2e+08	-0.005824195	-0.001781442	-0.5586322	0.7362901	0.02583671	0.04448971	0.01351636	0.00986395
	-0.5586322	0.7362901	0.009030362	-0.02955451	0.01351871	0.009865574	0.05394475	0.01121794
	0.02583671	0.04448971	0.01351871	0.009865574	-0.005859863	-0.001683601	-0.5581344	0.736652
	0.01351636	0.00986395	0.05394475	0.01121794	-0.5581344	0.736652	0.009105601	-0.02965644
3.3e+08	-0.004951846	0.002746893	-0.461164	0.7993364	0.03517517	0.0408656	0.01507688	0.008228558
	-0.461164	0.7993364	0.009925444	-0.03313275	0.01508013	0.008229079	0.05688487	0.008254499
	0.03517517	0.0408656	0.01508013	0.008229079	-0.004966028	0.002850656	-0.4606064	0.799643
	0.01507688	0.008228558	0.05688487	0.008254498	-0.4606064	0.799643	0.009993247	-0.03324057
3.4e+08	-0.003067827	0.007123322	-0.3567618	0.8495761	0.04367904	0.03518509	0.01641115	0.006364433
	-0.3567618	0.8495761	0.01000649	-0.03702348	0.01641494	0.006363582	0.05938887	0.004831649
	0.04367904	0.03518509	0.01641494	0.006363582	-0.00305815	0.007228143	-0.3561529	0.8498177
	0.01641115	0.006364433	0.05938887	0.004831649	-0.3561529	0.8498177	0.01006713	-0.0371353
3.5e+08	-0.0001861231	0.01110517	-0.247098	0.8862778	0.05089447	0.02764758	0.01749076	0.004310562
	-0.247098	0.8862778	0.009227819	-0.04101999	0.01749477	0.004308257	0.06137468	0.001055849
	0.05089447	0.02764758	0.01749477	0.004308257	-0.0001513402	0.01120559	-0.2464447	0.8864468
	0.01749076	0.004310562	0.06137468	0.001055849	-0.2464447	0.8864468	0.009282109	-0.04113406
3.6e+08	0.003617999	0.01444869	-0.1339145	0.908928	0.05641748	0.01855205	0.01829609	0.002107682
	-0.1339145	0.908928	0.007595266	-0.04491308	0.01829982	0.002103864	0.0627897	-0.002950921
	0.05641748	0.01855205	0.01829982	0.002103864	0.003677858	0.01453856	-0.1332266	0.909016
	0.01829609	0.002107682	0.0627897	-0.002950921	-0.1332266	0.909016	0.007644305	-0.04502791
3.7e+08	0.008207429	0.01692521	-0.01899235	0.9172331	0.05991506	0.008284355	0.01881503	-0.0002042525
	-0.01899235	0.9172331	0.005164312	-0.04850319	0.01881807	-0.000209465	0.0636125	-0.007059027
	0.05991506	0.008284355	0.01881807	-0.000209465	0.008290799	0.01699837	-0.01827939	0.9172352
	0.01881503	-0.0002042525	0.0636125	-0.007059027	-0.01827939	0.9172352	0.005209592	-0.04861775
3.8e+08	0.01338567	0.01833666	0.09586713	0.9111232	0.06114376	-0.002699873	0.01904202	-0.002587417
	0.09586713	0.9111232	0.002036244	-0.05161224	0.01904401	-0.002593795	0.06385408	-0.01113902
	0.06114376	-0.002699873	0.01904401	-0.002593795	0.01348944	0.01838697	0.0965933	0.9110337
	0.01904202	-0.002587417	0.06385408	-0.01113902	0.0965933	0.9110337	0.002079579	-0.05172588
3.9e+08	0.01890533	0.01853184	0.2088803	0.8907501	0.05996357	-0.01389622	0.01897607	-0.005007424
	0.2088803	0.8907501	-0.001649193	-0.0540934	0.01897668	-0.00501464	0.06355658	-0.01507006
	0.05996357	-0.01389622	0.01897668	-0.00501464	0.01902482	0.01855386	0.2096086	0.8905658
	0.01897607	-0.005007424	0.06355658	-0.01507006	0.2096086	0.8905658	-0.001605918	-0.05420598
4e+08	0.02447854	0.01741889	0.3182969	0.856481	0.05634717	-0.02477515	0.01861905	-0.007433496
	0.3182969	0.856481	-0.00572227	-0.05583933	0.01861814	-0.007441197	0.06278991	-0.01874722
	0.05634717	-0.02477515	0.01861814	-0.007441197	0.0246077	0.01740812	0.3190148	0.8562002
	0.01861905	-0.007433496	0.06278991	-0.01874722	0.3190148	0.8562002	-0.005677121	-0.0559513
4.1e+08	0.02979279	0.01497675	0.4224313	0.8088937	0.05038389	-0.03480682	0.0179736	-0.009838123
	0.4224313	0.8088937	-0.009994248	-0.05678769	0.01797125	-0.009845937	0.06164659	-0.02208751
	0.05038389	-0.03480682	0.01797125	-0.009845937	0.02992429	0.01493003	0.4231249	0.8085165
	0.0179736	-0.009838123	0.06164659	-0.02208751	0.4231249	0.8085165	-0.009945366	-0.05690004
4.2e+08	0.03452879	0.01126088	0.5196834	0.7487624	0.04227779	-0.04348711	0.01704213	-0.01219617
	0.5196834	0.7487624	-0.01426869	-0.05692402	0.01703835	-0.01220376	0.06023578	-0.02503535
	0.04227779	-0.04348711	0.01703835	-0.01220376	0.03465426	0.01117672	0.5203408	0.7482904
	0.01704213	-0.01219617	0.06023578	-0.02503535	0.5203408	0.7482904	-0.01421447	-0.05703825
4.3e+08	0.03837897	0.006405882	0.6085622	0.6770517	0.032341	-0.05036181	0.01582548	-0.01448317
	0.6085622	0.6770517	-0.01835293	-0.05628199	0.01582037	-0.01449022	0.05867544	-0.02756549
	0.032341	-0.05036181	0.01582037	-0.01449022	0.0384897	0.006284797	0.6091698	0.6764894
	0.01582548	-0.01448317	0.05867544	-0.02756549	0.6091698	0.6764894	-0.01829229	-0.05640003
4.4e+08	0.04106818	0.0006221951	0.6877057	0.5948997	0.02098093	-0.05504951	0.01432277	-0.01667351
	0.6877057	0.5948997	-0.02207016	-0.0549405	0.01431674	-0.01667997	0.05708482	-0.0296845
	0.02098093	-0.05504951	0.01431674	-0.01667997	0.04115528	0.0004667721	0.6882503	0.5942509
	0.01432277	-0.01667351	0.05708482	-0.0296845	0.6882503	0.5942509	-0.02200232	-0.05506465
4.5e+08	0.04237228	-0.005811877	0.7559001	0.5036021	0.008683426	-0.05726132	0.01253225	-0.01873871
	0.7559001	0.5036021	-0.02526919	-0.0530189	0.01252545	-0.01874449	0.05557575	-0.0314294
	0.008683426	-0.05726132	0.01252545	-0.01874449	0.04242751	-0.005996944	0.7563699	0.5028745
	0.01253225	-0.01873871	0.05557575	-0.0314294	0.7563699	0.5028745	-0.02519409	-0.0531516
4.6e+08	0.04213568	-0.01256315	0.812098	0.4045924	-0.004007752	-0.05681686	0.0104524	-0.02064576
	0.812098	0.4045924	-0.02783346	-0.05066801	0.01044505	-0.02065092	0.05424557	-0.0328656
	-0.004007752	-0.05681686	0.01044505	-0.02065092	0.04215144	-0.01277103	0.8124811	0.4037941
	0.0104524	-0.02064576	0.05424557	-0.0328656	0.8124811	0.4037941	-0.02775151	-0.05081203
4.7e+08	0.04028424	-0.01926033	0.8554355	0.2994275	-0.01651588	-0.05365546	0.008084104	-0.02235583
	0.8554355	0.2994275	-0.02968765	-0.04806264	0.008076238	-0.02236048	0.05316981	-0.03408134
	-0.01651588	-0.05365546	0.008076238	-0.02236048	0.0402548	-0.01948247	0.8557234	0.2985693
	0.008084104	-0.02235583	0.05316981	-0.03408134	0.8557234	0.2985693	-0.02960036	-0.04822033
4.8e+08	0.03683505	-0.02551498	0.885247	0.1897627	-0.02825679	-0.04784198	0.005433011	-0.02382411
	0.885247	0.1897627	-0.03080223	-0.04538891	0.005424655	-0.02382843	0.05239744	-0.03518237
	-0.02825679	-0.04784198	0.005424655	-0.02382843	0.03675621	-0.02574103	0.8854286	0.188856
	0.005433011	-0.02382411	0.05239744	-0.03518237	0.8854286	0.188856	-0.03071109	-0.04556269
4.9e+08	0.03190002	-0.03094452	0.9010783	0.07732413	-0.03866659	-0.03956722	0.002512656	-0.02500071
	0.9010783	0.07732413	-0.03119429	-0.0428339	0.002503672	-0.02500488	0.05194686	-0.03628355
	-0.03866659	-0.03956722	0.002503672	-0.02500488	0.03177038	-0.03116324	0.9011459	0.07638227
	0.002512656	-0.02500071	0.05194686	-0.03628355	0.9011459	0.07638227	-0.03110169	-0.04302549
5e+08	0.02568381	-0.03519491	0.9026896	-0.03611122	-0.04722867	-0.02914175	-0.0006533092	-0.02583167
	0.9026896	-0.03611122	-0.03092652	-0.04057376	-0.000663147	-0.02583577	0.05180437	-0.03750157
	-0.04722867	-0.02914175	-0.000663147	-0.02583577	0.02550456	-0.03539455	0.9026381	-0.0370743
	-0.0006533092	-0.02583167	0.05180437	-0.03750157	0.9026381	-0.0370743	-0.03083529	-0.04078441
5.1e+08	0.01847661	-0.03796452	0.8900729	-0.14875	-0.05349928	-0.016985	-0.004028568	-0.02626195
	0.8900729	-0.14875	-0.03010269	-0.03876216	-0.004039626	-0.02626598	0.051925	-0.03894537
	-0.05349928	-0.016985	-0.004039626	-0.02626598	0.01825158	-0.03813342	0.8898971	-0.1497181
	-0.004028568	-0.02626195	0.051925	-0.03894537	0.8898971	-0.1497181	-0.03001576	-0.0389928
5.2e+08	0.0106395	-0.03902407	0.863446	-0.258805	-0.05713078	-0.003607796	-0.007562809	-0.02623899
	0.863446	-0.258805	-0.02886142	-0.03752249	-0.00757548	-0.02624267	0.05223543	-0.04070947
