!$
! Info: Touchstone file created by Circ.  Input file=C2M_PCB_100ohms_2p5in_20230620_v3.circ
!$
# Hz S RI R 50
0	0.005361726	2.15466e-24	0.9946078	-1.896045e-24	0.0001362019	6.700094e-23	-0.0001324906	1.628423e-20
	0.9946078	-1.75105e-24	0.005180602	6.420744e-25	-0.000129821	1.595735e-20	-8.556806e-06	8.25542e-21
	0.0001362019	6.703532e-23	-0.000129821	1.595713e-20	0.005365089	2.671236e-24	0.9946212	-1.871485e-24
	-0.0001324906	1.628426e-20	-8.556828e-06	8.255495e-21	0.9946212	-1.88826e-24	0.005193959	1.143517e-24
1e+07	0.007503859	0.002754225	0.9907728	-0.05689015	0.0004145598	0.002436053	-0.0003052703	-0.000600102
	0.9907728	-0.05689015	0.007485097	0.002790081	-0.0003032549	-0.0006006819	0.0003070578	0.002490773
	0.0004145598	0.002436053	-0.0003032549	-0.0006006819	0.007607196	0.002752534	0.9906823	-0.05692259
	-0.0003052703	-0.000600102	0.0003070579	0.002490773	0.9906823	-0.05692259	0.007588415	0.002788946
2e+07	0.009291894	0.003830705	0.9842815	-0.1117611	0.0008384582	0.004831867	-0.0003987604	-0.001194485
	0.9842815	-0.1117611	0.009629497	0.003783891	-0.0003973608	-0.001194828	0.0007300592	0.004899131
	0.000838499	0.004831779	-0.0003973351	-0.001194875	0.009373231	0.003793081	0.9841999	-0.1117816
	-0.0003987324	-0.001194528	0.0007300795	0.00489913	0.9841999	-0.1117816	0.009711552	0.003747371
3e+07	0.01062116	0.004178443	0.9752422	-0.1654859	0.001541355	0.007082748	-0.0005631951	-0.001696192
	0.9752422	-0.1654859	0.01145901	0.003948343	-0.0005620213	-0.001696248	0.001379266	0.007157865
	0.001541345	0.007082738	-0.0005620295	-0.001696245	0.01068448	0.004128748	0.9751667	-0.1655136
	-0.0005632044	-0.00169619	0.001379258	0.007157882	0.9751667	-0.1655136	0.01152468	0.003900267
4e+07	0.01165678	0.004241953	0.9635261	-0.2183457	0.002509776	0.009221493	-0.0007907366	-0.002156139
	0.9635261	-0.2183457	0.01313264	0.003726156	-0.000789615	-0.002155863	0.002248813	0.009322463
	0.002509776	0.009221496	-0.0007896167	-0.00215586	0.01170438	0.004186787	0.9634543	-0.2183853
	-0.0007907379	-0.002156136	0.00224881	0.009322464	0.9634543	-0.2183853	0.01318433	0.003672452
5e+07	0.01247026	0.004143404	0.9491071	-0.2702994	0.003764051	0.01123093	-0.001107376	-0.002570481
	0.9491071	-0.2702994	0.01471535	0.00322212	-0.001106159	-0.002569886	0.003364079	0.01137138
	0.003764051	0.01123093	-0.001106161	-0.002569886	0.01250359	0.004086643	0.9490364	-0.270354
	-0.001107378	-0.002570481	0.003364076	0.01137138	0.9490364	-0.270354	0.01475522	0.003166154
6e+07	0.01309783	0.003947421	0.9320049	-0.3212504	0.005242539	0.01309586	-0.001461302	-0.002948641
	0.9320049	-0.3212504	0.01622824	0.00247812	-0.001459914	-0.002947803	0.004670669	0.01330415
	0.005242538	0.01309586	-0.001459912	-0.002947802	0.0131187	0.003892096	0.9319328	-0.321322
	-0.0014613	-0.002948641	0.004670672	0.01330415	0.9319328	-0.321322	0.01625772	0.002421962
7e+07	0.0135614	0.003697919	0.912259	-0.371083	0.00693225	0.0147957	-0.001850916	-0.003289278
	0.912259	-0.371083	0.01767373	0.001517495	-0.001849333	-0.003288277	0.006159905	0.01510507
	0.00693225	0.0147957	-0.00184933	-0.003288278	0.01357132	0.003646249	0.9121822	-0.3711728
	-0.001850914	-0.003289281	0.006159908	0.01510507	0.9121822	-0.3711728	0.01769442	0.001462979
8e+07	0.01387845	0.003429823	0.8899246	-0.4196767	0.008817403	0.01631056	-0.002273732	-0.00359061
	0.8899246	-0.4196767	0.01904603	0.0003572821	-0.002271938	-0.00358948	0.00781995	0.01675898
	0.008817403	0.01631056	-0.00227194	-0.003589478	0.01387902	0.003383656	0.8898399	-0.4197854
	-0.002273733	-0.003590608	0.007819948	0.01675899	0.8898399	-0.4197854	0.01905947	0.0003060187
9e+07	0.01406621	0.003172905	0.8650643	-0.4669095	0.01088013	0.01762179	-0.002726728	-0.00385052
	0.8650643	-0.4669095	0.02033599	-0.0009868779	-0.002724716	-0.003849312	0.009636734	0.01825179
	0.01088013	0.01762179	-0.00272472	-0.003849303	0.01405939	0.003134201	0.8649692	-0.467038
	-0.002726729	-0.003850511	0.009636733	0.0182518	0.8649692	-0.467038	0.02034377	-0.001033487
1e+08	0.01414736	0.002959392	0.8377466	-0.5126692	0.01309996	0.01870946	-0.00320543	-0.004064715
	0.8377466	-0.5126692	0.02153809	-0.002492658	-0.003203209	-0.004063498	0.011593	0.019569
	0.01309996	0.01870946	-0.003203209	-0.004063499	0.01413651	0.002931191	0.8376358	-0.5128188
	-0.003205429	-0.004064716	0.011593	0.019569	0.8376358	-0.5128188	0.02154228	-0.002532191
1.1e+08	0.01416028	0.002779739	0.8080262	-0.5567888	0.01544471	0.01956778	-0.003699543	-0.00424142
	0.8080262	-0.5567888	0.02267867	-0.004211819	-0.003695877	-0.004241412	0.01366745	0.02071236
	0.01544471	0.01956778	-0.003695876	-0.004241414	0.01414829	0.002769017	0.8078938	-0.5569526
	-0.003699542	-0.004241422	0.01366745	0.02071236	0.8078938	-0.5569526	0.02274981	-0.00424096
1.2e+08	0.01407703	0.002642152	0.7760448	-0.5991599	0.0179059	0.02018613	-0.004217546	-0.00438152
	0.7760448	-0.5991599	0.02366306	-0.00608106	-0.004214117	-0.004382416	0.0158569	0.02166883
	0.0179059	0.02018613	-0.004214117	-0.004382417	0.01406948	0.002639237	0.7758902	-0.5993364
	-0.004217546	-0.004381521	0.0158569	0.02166882	0.7758902	-0.5993364	0.02374833	-0.006136045
1.3e+08	0.01391802	0.002575456	0.7418938	-0.6396818	0.02045929	0.02055029	-0.004757071	-0.004480646
	0.7418938	-0.6396818	0.02450419	-0.008079578	-0.004754279	-0.004481713	0.01814191	0.02242749
	0.02045929	0.02055029	-0.004754279	-0.004481715	0.01391503	0.002575105	0.7417136	-0.6398675
	-0.00475707	-0.004480648	0.01814191	0.02242749	0.7417136	-0.6398675	0.02457598	-0.008153464
1.4e+08	0.01370343	0.002596212	0.7056717	-0.6782477	0.0230807	0.02065125	-0.005315697	-0.004536373
	0.7056717	-0.6782477	0.02519914	-0.01019699	-0.005313377	-0.004537175	0.02050408	0.02298177
	0.0230807	0.02065125	-0.005313377	-0.004537176	0.01370339	0.002596113	0.705466	-0.678441
	-0.005315697	-0.004536374	0.02050408	0.02298176	0.705466	-0.678441	0.02525072	-0.01027661
1.5e+08	0.01345434	0.002714834	0.6674891	-0.7147584	0.02574514	0.02048227	-0.00589059	-0.004546858
	0.6674891	-0.7147584	0.0257401	-0.0124217	-0.005888459	-0.004547262	0.02292468	0.02332669
	0.02574514	0.02048227	-0.005888459	-0.004547263	0.01345578	0.002714735	0.667256	-0.7149559
	-0.00589059	-0.004546859	0.02292468	0.02332669	0.667256	-0.7149559	0.02577405	-0.01249798
1.6e+08	0.01319261	0.002937647	0.6274574	-0.7491173	0.02842728	0.02003894	-0.006478785	-0.004510679
	0.6274574	-0.7491173	0.0261179	-0.01473993	-0.006476649	-0.004510734	0.02538509	0.02345944
	0.02842728	0.02003894	-0.006476649	-0.004510734	0.01319468	0.002938103	0.6271963	-0.7493162
	-0.006478785	-0.004510679	0.02538509	0.02345944	0.6271963	-0.7493162	0.02613976	-0.01480845
1.7e+08	0.01293946	0.00326669	0.5856956	-0.7812325	0.03110137	0.01931919	-0.007077183	-0.004426679
	0.5856956	-0.7812325	0.02632402	-0.01713616	-0.007074905	-0.004426501	0.02786664	0.02337889
	0.03110137	0.01931919	-0.007074905	-0.004426501	0.01294205	0.003268594	0.5854061	-0.7814302
	-0.007077183	-0.00442668	0.02786664	0.02337889	0.5854061	-0.7814302	0.02633921	-0.01719596
1.8e+08	0.01271617	0.00370112	0.5423268	-0.8110204	0.03374178	0.0183233	-0.007682815	-0.004293939
	0.5423268	-0.8110204	0.02635168	-0.01959351	-0.007680376	-0.004293651	0.030351	0.02308566
	0.03374178	0.0183233	-0.007680376	-0.004293651	0.01271954	0.003705125	0.542009	-0.8112152
	-0.007682815	-0.00429394	0.030351	0.02308565	0.542009	-0.8112152	0.02636454	-0.01964558
1.9e+08	0.0125425	0.004236487	0.497479	-0.8384033	0.03632318	0.01705392	-0.008292623	-0.004111655
	0.497479	-0.8384033	0.02619577	-0.02209458	-0.008290051	-0.004111363	0.03282037	0.02258224
	0.03632319	0.01705392	-0.008290051	-0.004111363	0.01254756	0.004243193	0.4971316	-0.8385911
	-0.008292623	-0.004111655	0.03282037	0.02258224	0.4971316	-0.8385911	0.02620918	-0.02214081
2e+08	0.01243773	0.004866001	0.4512815	-0.8633099	0.03882014	0.01551568	-0.008903577	-0.003879139
	0.4512815	-0.8633099	0.02585297	-0.02462165	-0.008900944	-0.003878909	0.03525722	0.0218723
	0.03882014	0.01551568	-0.008900944	-0.00387891	0.01244531	0.004875499	0.4509057	-0.8634885
	-0.008903577	-0.003879139	0.03525722	0.0218723	0.4509057	-0.8634885	0.02586862	-0.02466432
2.1e+08	0.01241982	0.00557994	0.4038721	-0.8856746	0.04120806	0.01371564	-0.009512546	-0.003595798
	0.4038721	-0.8856746	0.02532204	-0.02715677	-0.009509922	-0.00359566	0.03764483	0.02096133
	0.04120806	0.01371564	-0.009509922	-0.00359566	0.01243079	0.00559214	0.4034669	-0.8858413
	-0.009512546	-0.003595798	0.03764483	0.02096133	0.4034669	-0.8858413	0.02534065	-0.02719785
2.2e+08	0.01250486	0.00636621	0.3553874	-0.9054414	0.04346308	0.0116629	-0.01011643	-0.003261177
	0.3553874	-0.9054414	0.02460318	-0.02968245	-0.0101139	-0.003261108	0.0399677	0.01985636
	0.04346308	0.0116629	-0.0101139	-0.003261108	0.01252007	0.006380784	0.3549536	-0.9055944
	-0.01011643	-0.003261177	0.03996769	0.01985636	0.3549536	-0.9055944	0.02462467	-0.02972378
2.3e+08	0.01270724	0.007210611	0.3059676	-0.9225617	0.04556181	0.009368572	-0.01071191	-0.002874877
	0.3059676	-0.9225617	0.02369805	-0.03218159	-0.01070952	-0.00287484	0.04221028	0.01856499
	0.04556181	0.009368572	-0.01070952	-0.00287484	0.0127275	0.007227001	0.3055065	-0.922698
	-0.01071191	-0.002874877	0.04221028	0.01856499	0.3055065	-0.922698	0.02372215	-0.03222429
2.4e+08	0.01303989	0.008096742	0.2557576	-0.9369902	0.04748229	0.006845866	-0.01129568	-0.002436662
	0.2557576	-0.9369902	0.02261031	-0.03463708	-0.01129348	-0.002436612	0.04435898	0.01709682
	0.04748229	0.006845866	-0.01129348	-0.002436612	0.01306573	0.008114341	0.2552686	-0.9371069
	-0.01129568	-0.002436662	0.04435898	0.01709682	0.2552686	-0.9371069	0.02263643	-0.0346819
2.5e+08	0.01351265	0.009006623	0.2049006	-0.9486952	0.0492036	0.004109713	-0.01186423	-0.001946435
	0.2049006	-0.9486952	0.02134488	-0.03703274	-0.01186225	-0.001946269	0.04640113	0.01546209
	0.0492036	0.004109713	-0.01186225	-0.001946269	0.01354476	0.009024724	0.2043847	-0.9487897
	-0.01186423	-0.001946435	0.04640113	0.01546209	0.2043847	-0.9487897	0.02137229	-0.03708015
2.6e+08	0.01413356	0.009920637	0.1535445	-0.9576483	0.05070645	0.001176922	-0.01241422	-0.001404327
	0.1535445	-0.9576483	0.01990785	-0.03935304	-0.01241247	-0.00140401	0.0483251	0.013672
	0.05070645	0.001176922	-0.01241247	-0.00140401	0.01417229	0.009938419	0.1530039	-0.9577188
	-0.01241422	-0.001404327	0.0483251	0.013672	0.1530039	-0.9577188	0.01993633	-0.03940303
2.7e+08	0.0149081	0.01081815	0.1018361	-0.9638318	0.05197255	-0.001934212	-0.01294192	-0.0008105696
	0.1018361	-0.9638318	0.01830719	-0.04158293	-0.01294029	-0.0008100097	0.05012071	0.01173844
	0.05197255	-0.001934212	-0.01294029	-0.0008100098	0.01495383	0.01083485	0.1012699	-0.9638754
	-0.01294192	-0.0008105697	0.05012071	0.01173844	0.1012699	-0.9638754	0.01833621	-0.04163549
2.8e+08	0.01583852	0.01167755	0.0499232	-0.9672335	0.05298574	-0.005203882	-0.01344369	-0.0001656523
	0.0499232	-0.9672335	0.01655182	-0.04370846	-0.01344225	-0.0001647836	0.05177937	0.009674207
	0.05298574	-0.005203882	-0.01344225	-0.0001647837	0.01589165	0.01169218	0.04933476	-0.9672475
	-0.01344369	-0.0001656523	0.05177937	0.009674207	0.04933476	-0.9672475	0.01658155	-0.04376328
2.9e+08	0.01692467	0.01247681	-0.002044769	-0.9678509	0.0537311	-0.008610823	-0.01391552	0.0005297686
	-0.002044769	-0.9678509	0.01465188	-0.04571656	-0.01391422	0.0005309666	0.05329317	0.007492056
	0.0537311	-0.008610823	-0.01391422	0.0005309665	0.01698513	0.0124885	-0.002654635	-0.9678341
	-0.01391552	0.0005297685	0.05329317	0.007492056	-0.002654635	-0.9678341	0.01468221	-0.04577362
3e+08	0.01816337	0.01319374	-0.05392078	-0.9656897	0.05419592	-0.01213275	-0.01435404	0.001274654
	-0.05392078	-0.9656897	0.01261871	-0.04759535	-0.01435274	0.001276249	0.05465626	0.005205443
	0.05419592	-0.01213275	-0.01435274	0.001276249	0.01823146	0.01320146	-0.05455047	-0.965639
	-0.01435404	0.001274654	0.05465626	0.005205442	-0.05455047	-0.965639	0.01264985	-0.04765451
3.1e+08	0.01954855	0.0138062	-0.1055569	-0.9607602	0.05436927	-0.01574629	-0.01475505	0.00206785
	-0.1055569	-0.9607602	0.01046486	-0.04933389	-0.01475371	0.002069859	0.05586388	0.00282787
	0.05436927	-0.01574629	-0.01475371	0.002069859	0.01962438	0.01380885	-0.1062045	-0.9606725
	-0.01475505	0.00206785	0.05586388	0.00282787	-0.1062045	-0.9606725	0.01049729	-0.04939503
3.2e+08	0.02107149	0.01429276	-0.1568088	-0.9530825	0.05424216	-0.01942723	-0.01511486	0.002907879
	-0.1568088	-0.9530825	0.008203582	-0.05092267	-0.01511351	0.002910325	0.0569127	0.0003727695
	0.05424216	-0.01942723	-0.01511351	0.002910325	0.02115479	0.0142892	-0.1574702	-0.9529569
	-0.01511486	0.002907879	0.0569127	0.0003727694	-0.1574702	-0.9529569	0.008237549	-0.05098603
3.3e+08	0.02272031	0.01463266	-0.207528	-0.9426862	0.05380764	-0.02315068	-0.01542946	0.003792974
	-0.207528	-0.9426862	0.005849243	-0.05235366	-0.01542797	0.003795866	0.05780073	-0.002146523
	0.05380764	-0.02315068	-0.01542797	0.003795866	0.02281097	0.01462185	-0.2082036	-0.9425198
	-0.01542946	0.003792974	0.05780073	-0.002146523	-0.2082036	-0.9425198	0.00588493	-0.05241941
3.4e+08	0.02448087	0.0148065	-0.2575754	-0.9296044	0.05306094	-0.02689133	-0.01569518	0.004721106
	-0.2575754	-0.9296044	0.003416409	-0.05362013	-0.01569349	0.004724468	0.0585274	-0.004716986
	0.05306094	-0.02689133	-0.01569349	0.004724468	0.02457847	0.01478724	-0.258261	-0.9293967
	-0.01569518	0.004721106	0.0585274	-0.004716986	-0.258261	-0.9293967	0.003454187	-0.05368863
3.5e+08	0.0263361	0.01479641	-0.3068087	-0.9138809	0.05199925	-0.03062323	-0.01590809	0.005689927
	-0.3068087	-0.9138809	0.0009204223	-0.05471692	-0.01590626	0.005693771	0.05909282	-0.007325979
	0.05199925	-0.03062323	-0.01590626	0.005693771	0.02644025	0.01476756	-0.3075027	-0.9136302
	-0.01590809	0.005689927	0.05909282	-0.007325979	-0.3075027	-0.9136302	0.0009605602	-0.05478854
3.6e+08	0.02826659	0.01458638	-0.3550893	-0.8955665	0.05062199	-0.03432065	-0.01606467	0.006696809
	-0.3550893	-0.8955665	-0.00162286	-0.05564052	-0.01606254	0.006701128	0.0594989	-0.009961392
	0.05062199	-0.03432065	-0.01606254	0.006701128	0.02837658	0.0145467	-0.3557878	-0.8952706
	-0.01606467	0.006696809	0.0594989	-0.009961393	-0.3557878	-0.8952706	-0.001580233	-0.05571562
3.7e+08	0.03025116	0.01416228	-0.4022839	-0.8747159	0.04893054	-0.03795763	-0.01616115	0.007738847
	-0.4022839	-0.8747159	-0.004197662	-0.05638873	-0.01615868	0.007743645	0.05974812	-0.01261183
	0.04893054	-0.03795763	-0.01615868	0.007743645	0.0303663	0.01411072	-0.4029852	-0.8743745
	-0.01616115	0.007738847	0.05974812	-0.01261183	-0.4029852	-0.8743745	-0.004152514	-0.05646784
3.8e+08	0.03226613	0.01351261	-0.4482584	-0.8513944	0.04692854	-0.04150857	-0.0161941	0.00881281
	-0.4482584	-0.8513944	-0.006787871	-0.05696129	-0.01619123	0.008818081	0.05984409	-0.01526647
	0.04692854	-0.04150857	-0.01619123	0.008818081	0.0323854	0.01344802	-0.4489584	-0.8510058
	-0.0161941	0.00881281	0.05984409	-0.01526647	-0.4489584	-0.8510058	-0.006740089	-0.05704483
3.9e+08	0.03428689	0.01262831	-0.4928878	-0.8256719	0.04462166	-0.04494804	-0.01616013	0.009915228
	-0.4928878	-0.8256719	-0.009377861	-0.0573593	-0.01615672	0.009920921	0.05979122	-0.01791548
	0.04462166	-0.04494804	-0.01615672	0.009920921	0.03440923	0.01254969	-0.4935844	-0.8252349
	-0.01616013	0.009915228	0.05979122	-0.01791548	-0.4935844	-0.8252349	-0.009327506	-0.05744769
4e+08	0.03628665	0.01150315	-0.5360464	-0.7976257	0.04201752	-0.04825125	-0.01605611	0.01104232
	-0.5360464	-0.7976257	-0.01195196	-0.05758555	-0.01605209	0.01104844	0.05959471	-0.02054997
	0.04201752	-0.04825125	-0.01605209	0.01104844	0.03641087	0.01140954	-0.5367364	-0.7971398
	-0.01605611	0.01104232	0.05959471	-0.02054997	-0.5367364	-0.7971398	-0.01189909	-0.0576793
4.1e+08	0.03823802	0.01013408	-0.5776153	-0.76734	0.03912585	-0.05139387	-0.01587891	0.01218994
	-0.5776153	-0.76734	-0.01449517	-0.05764432	-0.01587434	0.01219649	0.05926008	-0.0231617
	0.03912585	-0.05139387	-0.01587434	0.01219649	0.03836278	0.01002463	-0.5782945	-0.766805
	-0.01587891	0.01218994	0.05926008	-0.0231617	-0.5782945	-0.766805	-0.01443983	-0.05774392
4.2e+08	0.04011311	0.008520694	-0.6174788	-0.7349022	0.03595793	-0.05435267	-0.01562587	0.01335385
	-0.6174788	-0.7349022	-0.01699306	-0.0575413	-0.01562059	0.01336076	0.05879354	-0.02574359
	0.03595793	-0.05435267	-0.01562059	0.01336076	0.04023676	0.008394688	-0.618145	-0.7343176
	-0.01562587	0.01335385	0.05879354	-0.02574359	-0.618145	-0.7343176	-0.01693533	-0.05764723
4.3e+08	0.04188322	0.006666217	-0.6555276	-0.7004081	0.03252729	-0.05710531	-0.01529437	0.01452942
	-0.6555276	-0.7004081	-0.01943165	-0.05728367	-0.01528825	0.01453662	0.0582014	-0.02828956
	0.03252729	-0.05710531	-0.01528825	0.01453662	0.04200422	0.006523078	-0.6561769	-0.6997753
	-0.01529437	0.01452942	0.0582014	-0.02828956	-0.6561769	-0.6997753	-0.01937182	-0.0573964
4.4e+08	0.04351987	0.004576931	-0.6916573	-0.6639591	0.02884894	-0.05963045	-0.01488198	0.01571175
	-0.6916573	-0.6639591	-0.02179827	-0.05687983	-0.01487514	0.01571929	0.05749044	-0.03079468
	0.02884894	-0.05963045	-0.01487514	0.01571929	0.04363643	0.004416233	-0.6922854	-0.6632765
	-0.01488198	0.01571175	0.05749044	-0.03079468	-0.6922854	-0.6632765	-0.02173646	-0.05699986
4.5e+08	0.04499471	0.002262352	-0.7257681	-0.6256612	0.02493942	-0.06190799	-0.01438669	0.01689576
	-0.7257681	-0.6256612	-0.02408101	-0.0563398	-0.01437899	0.01690355	0.05666724	-0.03325468
	0.02493942	-0.06190799	-0.01437899	0.01690355	0.04510515	0.002083811	-0.7263722	-0.6249302
	-0.01438669	0.01689576	0.05666724	-0.03325468	-0.7263722	-0.6249302	-0.0240175	-0.05646756
4.6e+08	0.04628056	-0.0002648174	-0.757766	-0.5856229	0.02081719	-0.06391914	-0.01380672	0.01807621
	-0.757766	-0.5856229	-0.02626913	-0.0556738	-0.01379813	0.01808419	0.05573851	-0.03566664
	0.02081719	-0.06391914	-0.01379813	0.01808419	0.04638277	-0.0004613125	-0.7583421	-0.5848434
	-0.01380672	0.01807621	0.05573851	-0.03566664	-0.7583421	-0.5848434	-0.02620412	-0.05580996
4.7e+08	0.04735082	-0.002988479	-0.7875633	-0.5439609	0.01650168	-0.06564672	-0.01314064	0.01924745
	-0.7875633	-0.5439609	-0.02835308	-0.05489411	-0.01313102	0.01925553	0.05471047	-0.03802807
	0.01650168	-0.06564672	-0.01313102	0.01925553	0.04744307	-0.003202834	-0.7881099	-0.5431346
	-0.01314064	0.01924745	0.05471047	-0.03802807	-0.7881099	-0.5431346	-0.02828725	-0.05503901
4.8e+08	0.04818056	-0.005889451	-0.8150784	-0.500796	0.01201389	-0.06707491	-0.01238714	0.02040369
	-0.8150784	-0.500796	-0.0303249	-0.05401303	-0.01237648	0.0204118	0.05358936	-0.04033784
	0.01201389	-0.06707491	-0.01237648	0.0204118	0.04826052	-0.006121378	-0.8155902	-0.4999233
	-0.01238714	0.02040369	0.05358936	-0.04033784	-0.8155902	-0.4999233	-0.03025835	-0.05416732
4.9e+08	0.04874683	-0.008945959	-0.8402383	-0.4562513	0.007375951	-0.06818971	-0.01154563	0.02153914
	-0.8402383	-0.4562513	-0.03217778	-0.05304406	-0.01153387	0.02154723	0.05238082	-0.04259525
	0.007375951	-0.06818971	-0.01153387	0.02154723	0.04881262	-0.009194905	-0.8407119	-0.4553336
	-0.01154563	0.02153914	0.05238082	-0.04259525	-0.8407119	-0.4553336	-0.03211103	-0.05320807
5e+08	0.04902823	-0.01213319	-0.8629705	-0.410454	0.002610782	-0.06897855	-0.01061551	0.02264763
	-0.8629705	-0.410454	-0.03390648	-0.05200114	-0.01060265	0.02265561	0.05108992	-0.04480078
	0.002610782	-0.06897855	-0.01060265	0.02265561	0.04907789	-0.01239837	-0.863404	-0.4094928
	-0.01061551	0.02264763	0.05108992	-0.04480078	-0.863404	-0.4094928	-0.0338401	-0.05217528
5.1e+08	0.04900643	-0.01542376	-0.8832165	-0.3635341	-0.002257556	-0.06943089	-0.009596712	0.02372283
	-0.8832165	-0.3635341	-0.03550713	-0.0508981	-0.009582693	0.02373065	0.04972118	-0.04695494
	-0.002257556	-0.06943089	-0.009582693	0.02373065	0.04903785	-0.01570426	-0.8836052	-0.3625314
	-0.009596712	0.02372283	0.04972118	-0.04695494	-0.8836052	-0.3625314	-0.03544155	-0.05108298
5.2e+08	0.04866522	-0.0187884	-0.9009202	-0.3156268	-0.007204391	-0.06953821	-0.008489586	0.02475838
	-0.9009202	-0.3156268	-0.03697773	-0.0497499	-0.008474333	0.02476589	0.04827871	-0.0490594
