!$
! Info: Touchstone file created by Circ.  Input file=C2M_PCB_100ohms_7p5in_20230620_v3.circ
!$
# Hz S RI R 50
0	0.01047382	3.514084e-24	0.9894959	-3.341429e-24	0.0001617266	9.304505e-23	-0.0001580346	1.94983e-20
	0.9894959	-3.19714e-24	0.01029238	2.148116e-24	-0.000155378	1.91729e-20	1.70193e-05	8.396843e-21
	0.0001617267	9.307904e-23	-0.000155378	1.917269e-20	0.01047715	3.971262e-24	0.9895092	-3.203759e-24
	-0.0001580345	1.949832e-20	1.701928e-05	8.396917e-21	0.9895092	-3.220466e-24	0.01030587	2.52158e-24
1e+07	0.01501319	0.005564516	0.9793113	-0.1070479	0.00090936	0.003217244	-0.0005626766	-0.000613304
	0.9793113	-0.1070479	0.01511529	0.005507905	-0.0005607243	-0.0006140375	0.0006691208	0.003302364
	0.00090936	0.003217244	-0.0005607243	-0.0006140375	0.01519171	0.005548711	0.9791435	-0.107069
	-0.0005626766	-0.000613304	0.0006691208	0.003302364	0.9791435	-0.107069	0.01529394	0.005493895
2e+07	0.01908858	0.00745601	0.9591051	-0.2089463	0.002052828	0.006301148	-0.0007015418	-0.00128024
	0.9591051	-0.2089463	0.01986248	0.007089511	-0.0007002965	-0.001280763	0.001453154	0.006535591
	0.00205285	0.006301055	-0.0007002752	-0.001280813	0.01921815	0.007369171	0.9589681	-0.2089211
	-0.0007015178	-0.001280287	0.001453175	0.006535589	0.9589681	-0.2089211	0.01999309	0.00700591
3e+07	0.02225755	0.007647621	0.9295153	-0.3067612	0.003915096	0.008850853	-0.0009662946	-0.001738865
	0.9295153	-0.3067612	0.02396805	0.006672478	-0.0009653289	-0.001739076	0.002713156	0.009404588
	0.003915083	0.008850846	-0.0009653365	-0.001739072	0.02234619	0.007536993	0.9294007	-0.30673
	-0.0009663035	-0.001738861	0.002713148	0.009404605	0.9294007	-0.30673	0.02405925	0.006566304
4e+07	0.02480127	0.007083517	0.8905863	-0.4003912	0.006393608	0.01083777	-0.001339213	-0.002086322
	0.8905863	-0.4003912	0.02763047	0.005144621	-0.0013383	-0.002086153	0.004403793	0.01196085
	0.006393609	0.01083777	-0.001338301	-0.002086151	0.02485397	0.006963968	0.890488	-0.4003651
	-0.001339214	-0.00208632	0.004403789	0.01196085	0.890488	-0.4003651	0.02768699	0.005030039
5e+07	0.02681927	0.006061704	0.8426559	-0.4891206	0.00945089	0.01212231	-0.001886694	-0.002275074
	0.8426559	-0.4891206	0.03085488	0.002757006	-0.001885624	-0.002274538	0.00653885	0.01409048
	0.00945089	0.01212231	-0.001885626	-0.002274538	0.0268405	0.005942645	0.8425676	-0.4891057
	-0.001886696	-0.002275073	0.006538846	0.01409048	0.8425676	-0.4891057	0.03088141	0.002642881
6e+07	0.02837047	0.004764892	0.786212	-0.5721682	0.01279392	0.01266163	-0.002451243	-0.002363153
	0.786212	-0.5721682	0.03358909	-0.0003382575	-0.002449887	-0.00236234	0.008912767	0.01582218
	0.01279392	0.01266163	-0.002449884	-0.00236234	0.02836556	0.004653007	0.7861277	-0.5721682
	-0.002451242	-0.002363154	0.008912771	0.01582218	0.7861277	-0.5721682	0.03358997	-0.0004458135
7e+07	0.02950542	0.003324543	0.7218486	-0.6487659	0.01626124	0.01240363	-0.003021777	-0.002356391
	0.7218486	-0.6487659	0.03576572	-0.00401248	-0.003020057	-0.002355407	0.01145084	0.01713285
	0.01626124	0.01240363	-0.003020054	-0.002355409	0.02947964	0.003224559	0.7217614	-0.6487821
	-0.003021776	-0.002356394	0.01145084	0.01713284	0.7217614	-0.6487821	0.03574579	-0.004108675
8e+07	0.03027998	0.001841217	0.6502486	-0.7181944	0.01968127	0.01132875	-0.003588035	-0.002260228
	0.6502486	-0.7181944	0.03732198	-0.008138759	-0.003585877	-0.002259167	0.01407389	0.01801395
	0.01968127	0.01132875	-0.003585878	-0.002259164	0.03023888	0.001756341	0.6501519	-0.7182268
	-0.003588036	-0.002260226	0.01407389	0.01801395	0.6501519	-0.7182268	0.03728631	-0.008219976
9e+07	0.03075817	0.0003900904	0.5721663	-0.7797975	0.02287967	0.009451559	-0.004140455	-0.002079473
	0.5721663	-0.7797975	0.0382098	-0.0125859	-0.004137818	-0.002078463	0.0167021	0.01847238
	0.02287967	0.009451559	-0.004137817	-0.002078453	0.03070793	0.0003223073	0.5720541	-0.7798456
	-0.004140452	-0.002079464	0.0167021	0.01847239	0.5720541	-0.7798456	0.03816385	-0.01264968
1e+08	0.03102151	-0.0009707264	0.4884061	-0.8330038	0.02568168	0.006816523	-0.004664467	-0.001815038
	0.4884061	-0.8330038	0.03841346	-0.01721345	-0.004661371	-0.001814237	0.01925349	0.01852889
	0.02568168	0.006816523	-0.004661371	-0.001814238	0.03097061	-0.001020151	0.4882685	-0.8330658
	-0.004664467	-0.001815039	0.01925349	0.01852889	0.4882685	-0.8330658	0.03836424	-0.01725736
1.1e+08	0.03114278	-0.002291021	0.3998471	-0.8772068	0.02791723	0.003542553	-0.005151533	-0.001509812
	0.3998471	-0.8772068	0.03793344	-0.0219967	-0.005147589	-0.001510834	0.02166799	0.01825322
	0.02791723	0.003542553	-0.005147589	-0.001510835	0.03110538	-0.002325007	0.3996784	-0.8772663
	-0.005151533	-0.001509813	0.02166799	0.01825322	0.3996784	-0.8772663	0.03795308	-0.02202289
1.2e+08	0.03109893	-0.003517978	0.3075065	-0.9120636	0.02948553	-0.0002680371	-0.005633192	-0.001147816
	0.3075065	-0.9120636	0.03667548	-0.02669854	-0.005629711	-0.001149676	0.02391334	0.01766454
	0.02948553	-0.0002680367	-0.005629712	-0.001149677	0.03106945	-0.00354973	0.3073087	-0.9121155
	-0.005633192	-0.001147817	0.02391334	0.01766454	0.3073087	-0.9121155	0.03671012	-0.02674337
1.3e+08	0.03096511	-0.004636071	0.2123276	-0.9372809	0.03026734	-0.004482898	-0.006100261	-0.0007212291
	0.2123276	-0.9372809	0.03471209	-0.03117914	-0.006097204	-0.0007231667	0.02593467	0.01681383
	0.03026734	-0.004482898	-0.006097204	-0.0007231678	0.03093834	-0.004669449	0.2121009	-0.9373175
	-0.006100261	-0.0007212303	0.02593467	0.01681383	0.2121009	-0.9373175	0.03473443	-0.03123546
1.4e+08	0.03079566	-0.005660313	0.1152926	-0.9526472	0.03017682	-0.008942515	-0.006547046	-0.0002259047
	0.1152926	-0.9526472	0.0321115	-0.03532115	-0.006544046	-0.0002277293	0.02769641	0.01576323
	0.03017682	-0.008942514	-0.006544046	-0.0002277302	0.03076828	-0.005695203	0.1150395	-0.9526643
	-0.006547047	-0.0002259055	0.02769641	0.01576323	0.1150395	-0.9526643	0.03211562	-0.03537578
1.5e+08	0.03062917	-0.006621576	0.01740281	-0.958054	0.02916091	-0.01347068	-0.006966811	0.0003418776
	0.01740281	-0.958054	0.02895469	-0.03902117	-0.006963599	0.0003400261	0.0291782	0.01457952
	0.02916091	-0.01347068	-0.006963599	0.0003400255	0.0306002	-0.006656881	0.0171258	-0.9580454
	-0.006966811	0.000341877	0.0291782	0.01457952	0.0171258	-0.9580454	0.02894413	-0.03906501
1.6e+08	0.03048816	-0.007560566	-0.08033711	-0.9534879	0.02720187	-0.01788169	-0.007351297	0.000985513
	-0.08033711	-0.9534879	0.02533652	-0.04219123	-0.007347815	0.0009833989	0.03037523	0.01333143
	0.02720187	-0.01788169	-0.007347815	0.0009833986	0.03045779	-0.007595512	-0.08063455	-0.9534489
	-0.007351298	0.0009855126	0.03037523	0.01333143	-0.08063455	-0.9534489	0.02531792	-0.04222005
1.7e+08	0.03037743	-0.008521465	-0.1769253	-0.9390359	0.02431864	-0.02198705	-0.007690365	0.001707704
	-0.1769253	-0.9390359	0.02136488	-0.04476195	-0.007686678	0.001705085	0.03129772	0.01208593
	0.02431864	-0.02198705	-0.007686678	0.001705084	0.03034637	-0.00855612	-0.177239	-0.9389625
	-0.007690365	0.001707703	0.03129772	0.01208593	-0.177239	-0.9389625	0.02134484	-0.04477522
1.8e+08	0.03028552	-0.009547939	-0.2713767	-0.9148849	0.02056685	-0.02560296	-0.007972084	0.002510046
	-0.2713767	-0.9148849	0.01715779	-0.04668505	-0.00796838	0.002506777	0.0319703	0.01090509
	0.02056685	-0.02560296	-0.00796838	0.002506777	0.03025419	-0.009582858	-0.2717025	-0.9147745
	-0.007972085	0.002510045	0.0319703	0.01090509	-0.2717025	-0.9147745	0.01714177	-0.04668446
1.9e+08	0.03018511	-0.0106773	-0.3627301	-0.8813183	0.0160376	-0.02855725	-0.008182632	0.00339233
	-0.3627301	-0.8813183	0.01283925	-0.04793528	-0.00817914	0.003388341	0.03243059	0.009843525
	0.0160376	-0.02855725	-0.00817914	0.003388341	0.03015358	-0.01071374	-0.3630629	-0.8811662
	-0.008182632	0.00339233	0.03243059	0.009843525	-0.3630629	-0.8811662	0.01283125	-0.04792347
2e+08	0.03003612	-0.01193792	-0.4500603	-0.838711	0.01085466	-0.0306953	-0.008306676	0.00435201
	-0.4500603	-0.838711	0.0085349	-0.04851095	-0.00830364	0.004347333	0.03272675	0.008945114
	0.01085466	-0.0306953	-0.008303641	0.004347332	0.03000372	-0.01197691	-0.4503941	-0.8385162
	-0.008306676	0.00435201	0.03272675	0.008945113	-0.4503941	-0.8385162	0.00853761	-0.04849136
2.1e+08	0.02978802	-0.01334524	-0.532481	-0.7875312	0.005171163	-0.031887	-0.008327758	0.005383545
	-0.532481	-0.7875312	0.004368157	-0.04843403	-0.008325395	0.005378277	0.03291556	0.008241755
	0.005171163	-0.031887	-0.008325395	0.005378277	0.02975364	-0.0133876	-0.5328107	-0.7872909
	-0.008327759	0.005383545	0.03291556	0.008241755	-0.5328107	-0.7872909	0.004383106	-0.04840985
2.2e+08	0.02938395	-0.01489908	-0.609162	-0.7283299	-0.0008354906	-0.03203155	-0.008229059	0.006478072
	-0.609162	-0.7283299	0.0004547716	-0.04774931	-0.008227535	0.006472396	0.03305961	0.00775163
	-0.0008354906	-0.03203155	-0.008227535	0.006472396	0.0293461	-0.01494526	-0.6094823	-0.7280441
	-0.008229059	0.006478072	0.03305961	0.00775163	-0.6094823	-0.7280441	0.0004824509	-0.04772386
2.3e+08	0.02876486	-0.01658252	-0.6793328	-0.6617386	-0.006968999	-0.03106156	-0.007993925	0.007622957
	-0.6793328	-0.6617386	-0.003100929	-0.04652252	-0.007993355	0.00761708	0.03322301	0.007477569
	-0.006968999	-0.03106156	-0.007993355	0.00761708	0.02872178	-0.01663248	-0.6796368	-0.6614075
	-0.007993925	0.007622957	0.03322301	0.007477569	-0.6796368	-0.6614075	-0.003060388	-0.04649854
2.4e+08	0.02787336	-0.01836152	-0.7422855	-0.5884627	-0.01302082	-0.02894698	-0.007606932	0.008801828
	-0.7422855	-0.5884627	-0.006208864	-0.04483728	-0.007607382	0.008795993	0.0334701	0.007408385
	-0.01302082	-0.02894698	-0.007607382	0.008795993	0.0278234	-0.01841459	-0.7425673	-0.5880857
	-0.007606932	0.008801828	0.0334701	0.007408385	-0.7425673	-0.5880857	-0.006155951	-0.04481711
2.5e+08	0.02665928	-0.02018457	-0.7973937	-0.5092737	-0.01877705	-0.02569657	-0.007054625	0.009994549
	-0.7973937	-0.5092737	-0.008797766	-0.04279247	-0.007056056	0.009989025	0.03386095	0.007518094
	-0.01877705	-0.02569657	-0.007056057	0.009989025	0.02660074	-0.02023975	-0.797647	-0.5088521
	-0.007054625	0.009994549	0.03386095	0.007518094	-0.797647	-0.5088521	-0.00873337	-0.04277828
2.6e+08	0.02508296	-0.02198515	-0.8441066	-0.4250033	-0.0240258	-0.02135915	-0.006326568	0.01117776
	-0.8441066	-0.4250033	-0.01081688	-0.04049831	-0.006328937	0.0111728	0.03444862	0.007767521
	-0.0240258	-0.02135915	-0.006328937	0.0111728	0.02501449	-0.02204078	-0.8443253	-0.4245406
	-0.006326569	0.01117776	0.03444862	0.007767521	-0.8443253	-0.4245406	-0.01074175	-0.04049186
2.7e+08	0.02311969	-0.02368404	-0.8819634	-0.3365333	-0.0285641	-0.01602235	-0.005415799	0.01232499
	-0.8819634	-0.3365333	-0.01223745	-0.03807171	-0.00541892	0.01232073	0.03527672	0.008106065
	-0.0285641	-0.01602235	-0.00541892	0.01232073	0.02304023	-0.02373825	-0.8821419	-0.3360302
	-0.005415799	0.01232499	0.03527672	0.008106065	-0.8821419	-0.3360302	-0.01215284	-0.03807444
2.8e+08	0.02076322	-0.02519243	-0.9105927	-0.2447873	-0.03220569	-0.009811357	-0.004319817	0.01340764
	-0.9105927	-0.2447873	-0.01305405	-0.03563236	-0.00432352	0.01340438	0.03637734	0.008474115
	-0.03220569	-0.009811357	-0.00432352	0.01340438	0.02067199	-0.02524288	-0.9107243	-0.2442493
	-0.004319817	0.01340764	0.03637734	0.008474115	-0.9107243	-0.2442493	-0.01296084	-0.0356456
2.9e+08	0.01802776	-0.02641681	-0.9297201	-0.1507233	-0.034787	-0.002885398	-0.003040901	0.01439549
	-0.9297201	-0.1507233	-0.01328455	-0.0332981	-0.003044965	0.01439336	0.03776819	0.008805116
	-0.034787	-0.002885398	-0.003044965	0.01439336	0.0179248	-0.02646091	-0.9298006	-0.1501543
	-0.003040901	0.01439549	0.03776819	0.008805116	-0.9298006	-0.1501543	-0.01318424	-0.03332306
3e+08	0.01494969	-0.02726341	-0.9391708	-0.05532033	-0.03617412	0.00456659	-0.001586841	0.01525845
	-0.9391708	-0.05532033	-0.01296895	-0.03118031	-0.001590954	0.01525747	0.03945308	0.009029502
	-0.03617412	0.00456659	-0.001590954	0.01525747	0.01483519	-0.02729849	-0.9391944	-0.05472519
	-0.001586841	0.01525845	0.03945308	0.009029502	-0.9391944	-0.05472519	-0.01286281	-0.03121793
3.1e+08	0.01158782	-0.02764339	-0.9388674	0.04042899	-0.03626752	0.01233146	2.943305e-05	0.0159663
	-0.9388674	0.04042899	-0.01216746	-0.02937985	2.555468e-05	0.0159665	0.04142044	0.0090772
	-0.03626752	0.01233146	2.555462e-05	0.0159665	0.01146263	-0.02766663	-0.9388287	0.04104441
	2.943299e-05	0.0159663	0.04142044	0.0090772	-0.9388287	0.04104441	-0.01205671	-0.02943084
3.2e+08	0.008022413	-0.02747826	-0.9288368	0.1355317	-0.03500638	0.02017827	0.001789511	0.01649093
	-0.9288368	0.1355317	-0.01095854	-0.02798327	0.001786187	0.01649237	0.04364381	0.008881044
	-0.03500638	0.02017827	0.001786186	0.01649237	0.007888285	-0.02748688	-0.9287328	0.1361588
	0.00178951	0.01649093	0.04364381	0.008881044	-0.9287328	0.1361588	-0.01084493	-0.02804846
3.3e+08	0.004353699	-0.02670459	-0.9092091	0.2289979	-0.03237172	0.02786537	0.003669942	0.01680659
	-0.9092091	0.2289979	-0.00943547	-0.02706008	0.003667478	0.01680906	0.04608268	0.008379814
	-0.03237172	0.02786537	0.003667477	0.01680906	0.004212759	-0.02669615	-0.909036	0.2296322
	0.003669942	0.01680659	0.04608268	0.008379814	-0.909036	0.2296322	-0.009320634	-0.0271397
3.4e+08	0.0006979216	-0.0252789	-0.8802115	0.3198644	-0.02838817	0.03514821	0.005642724	0.01689147
	-0.8802115	0.3198644	-0.007702563	-0.02665952	0.005641433	0.01689477	0.04868432	0.007521131
	-0.02838817	0.03514821	0.005641433	0.01689477	0.0005530982	-0.02525118	-0.8799682	0.3204963
	0.005642724	0.01689147	0.04868432	0.007521131	-0.8799682	0.3204963	-0.007588232	-0.0267538
3.5e+08	-0.002816037	-0.02318149	-0.8421721	0.4071918	-0.0231241	0.04178678	0.00767596	0.01672792
	-0.8421721	0.4071918	-0.005871176	-0.02680949	0.007676112	0.01673189	0.05138503	0.006263818
	-0.0231241	0.04178678	0.007676112	0.01673189	-0.002961402	-0.02313281	-0.841857	0.4078144
	0.00767596	0.01672792	0.05138503	0.006263818	-0.841857	0.4078144	-0.005758969	-0.0269182
3.6e+08	-0.006052101	-0.02041942	-0.7955134	0.4900824	-0.01669065	0.04755418	0.009734788	0.0163038
	-0.7955134	0.4900824	-0.004055004	-0.02751546	0.00973657	0.01630801	0.05411385	0.004579844
	-0.01669065	0.04755418	0.00973657	0.01630801	-0.006194006	-0.02034866	-0.7951256	0.490686
	0.009734787	0.0163038	0.05411385	0.004579844	-0.7951256	0.490686	-0.003946635	-0.02763821
3.7e+08	-0.00887299	-0.01702803	-0.7407441	0.5676895	-0.009239041	0.05224362	0.01178234	0.01561235
	-0.7407441	0.5676895	-0.002365896	-0.02876045	0.01178587	0.01561641	0.05679453	0.002455676
	-0.009239041	0.05224362	0.01178587	0.01561641	-0.009007227	-0.01693492	-0.7402848	0.568267
	0.01178234	0.01561235	0.05679453	0.002455676	-0.7402848	0.568267	-0.002262945	-0.02889649
3.8e+08	-0.01114555	-0.01307233	-0.6784608	0.639222	-0.0009568398	0.05567593	0.0137808	0.01465297
	-0.6784608	0.639222	-0.000909507	-0.03050633	0.01378612	0.01465645	0.05934893	-0.0001069151
	-0.0009568398	0.05567593	0.01378612	0.01465645	-0.0112675	-0.01295738	-0.6779311	0.6397636
	0.0137808	0.01465297	0.05934893	-0.0001069152	-0.6779311	0.6397636	-0.0008133222	-0.03065469
3.9e+08	-0.01274802	-0.008645447	-0.6093333	0.703961	0.007937318	0.05770553	0.01569261	0.01343102
	-0.6093333	0.703961	0.0002187618	-0.03269509	0.01569959	0.0134334	0.06170039	-0.00309091
	0.007937318	0.05770553	0.01569959	0.0134334	-0.01285315	-0.008510156	-0.6087356	0.7044589
	0.01569261	0.01343102	0.06170039	-0.00309091	-0.6087356	0.7044589	0.0003070378	-0.03285453
4e+08	-0.01357502	-0.003867499	-0.5341023	0.7612579	0.01720003	0.0582259	0.01748151	0.01195776
	-0.5341023	0.7612579	0.0009374303	-0.03525184	0.01748998	0.01195861	0.06377654	-0.006464771
	0.01720003	0.0582259	0.01748998	0.01195861	-0.0136589	-0.003714243	-0.5334402	0.7617037
	0.01748151	0.01195776	0.06377654	-0.006464771	-0.5334402	0.7617037	0.00101692	-0.03542099
4.1e+08	-0.01354437	0.001118225	-0.4535684	0.8105479	0.02656996	0.05717363	0.01911343	0.0102498
	-0.4535684	0.8105479	0.001181748	-0.03808761	0.01912316	0.01024879	0.06551208	-0.01018312
	0.02656996	0.05717363	0.01912316	0.01024879	-0.0136029	0.001286069	-0.4528474	0.8109331
	0.01911343	0.0102498	0.06551208	-0.01018312	-0.4528474	0.8109331	0.001251883	-0.03826499
4.2e+08	-0.01260144	0.006150186	-0.3685811	0.8513508	0.03577621	0.05453114	0.0205578	0.008328714
	-0.3685811	0.8513508	0.0009060515	-0.04110333	0.02056835	0.008325435	0.06685178	-0.01418922
	0.03577621	0.05453114	0.02056835	0.008325434	-0.01263099	0.006328237	-0.3678061	0.8516686
	0.0205578	0.008328714	0.06685178	-0.01418922	-0.3678061	0.8516686	0.0009666892	-0.04128741
4.3e+08	-0.01072345	0.01105315	-0.280033	0.8832793	0.04454587	0.05032833	0.02178788	0.006220028
	-0.280033	0.8832793	8.560527e-05	-0.04419362	0.02179869	0.00621419	0.06775209	-0.01841682
	0.04454587	0.05032833	0.02179869	0.00621419	-0.01072125	0.01123635	-0.2792118	0.8835228
	0.02178788	0.006220028	0.06775209	-0.01841682	-0.2792118	0.8835228	0.0001367238	-0.04438285
4.4e+08	-0.007922364	0.01564549	-0.1888475	0.9060398	0.05261256	0.044642	0.02278134	0.003952374
	-0.1888475	0.9060398	-0.001283441	-0.04725106	0.02279208	0.003943934	0.06818333	-0.02279315
	0.05261256	0.044642	0.02279208	0.003943933	-0.007886508	0.01582798	-0.1879868	0.9062015
	0.02278134	0.003952374	0.06818333	-0.02279315	-0.1879868	0.9062015	-0.001241414	-0.0474441
4.5e+08	-0.00424638	0.01974573	-0.09596964	0.9194338	0.05972464	0.03759437	0.02352089	0.001556655
	-0.09596964	0.9194338	-0.003183727	-0.05017085	0.02353092	0.001545535	0.06813005	-0.02724115
	0.05972464	0.03759437	0.02353092	0.001545535	-0.004176085	0.01992136	-0.09507812	0.9195091
	0.02352089	0.001556655	0.06813005	-0.02724115	-0.09507812	0.9195091	-0.003150098	-0.05036636
4.6e+08	0.0002197049	0.02318057	-0.002353547	0.9233583	0.06565268	0.02935056	0.02399415	-0.0009351327
	-0.002353547	0.9233583	-0.005577905	-0.05285367	0.02400291	-0.0009488236	0.06759192	-0.03168344
	0.06565268	0.02935056	0.02400291	-0.0009488236	0.0003241593	0.02334252	-0.001439836	0.9233417
	0.02399415	-0.0009351328	0.06759192	-0.03168344	-0.001439836	0.9233417	-0.005551656	-0.05305082
4.7e+08	0.005355924	0.02579136	0.09104242	0.9178085	0.07019709	0.02011359	0.0241934	-0.003490648
	0.09104242	0.9178085	-0.008410295	-0.05521112	0.02420029	-0.003506742	0.06658306	-0.03604419
	0.07019709	0.02011359	0.02420029	-0.003506742	0.005492861	0.02593315	0.09196929	0.9176985
	0.0241934	-0.003490648	0.06658306	-0.03604419	0.09196929	0.9176985	-0.008390478	-0.05540905
4.8e+08	0.01100997	0.027442	0.1832681	0.9028752	0.07319375	0.01011947	0.02411529	-0.006078321
	0.1832681	0.9028752	-0.01160955	-0.05716734	0.02411984	-0.00609647	0.06513172	-0.04025311
	0.07319375	0.01011947	0.02411984	-0.00609647	0.01117648	0.0275568	0.1841976	0.9026672
	0.02411529	-0.006078321	0.06513172	-0.04025311	0.1841976	0.9026672	-0.01159471	-0.05736576
4.9e+08	0.01700187	0.0280255	0.2733935	0.8787427	0.07451979	-0.0003694143	0.02376074	-0.008667846
	0.2733935	0.8787427	-0.01509134	-0.05866312	0.02376255	-0.008687637	0.06327854	-0.04424736
	0.07451979	-0.0003694143	0.02376255	-0.008687637	0.01719363	0.02810736	0.2743152	0.8784351
	0.02376074	-0.008667846	0.06327854	-0.04424736	0.2743152	0.8784351	-0.01508022	-0.05886182
5e+08	0.02312909	0.02746897	0.3605099	0.8456815	0.07409702	-0.01107177	0.02313347	-0.01123083
	0.3605099	0.8456815	-0.0187623	-0.05965706	0.02313226	-0.01125174	0.06107457	-0.0479744
	0.07409702	-0.01107177	0.02313226	-0.01125174	0.02334057	0.02751255	0.361414	0.8452749
	0.02313347	-0.01123083	0.06107457	-0.0479744	0.361414	0.8452749	-0.01875364	-0.05985628
5.1e+08	0.02917361	0.02573933	0.4437476	0.8040535	0.0718953	-0.02169467	0.02223981	-0.01374099
	0.4437476	0.8040535	-0.02252321	-0.06012689	0.0222354	-0.01376251	0.05857926	-0.05139305
	0.0718953	-0.02169467	0.0222354	-0.01376251	0.02939819	0.02574006	0.4446224	0.8035477
	0.02223981	-0.01374099	0.05857926	-0.05139305	0.4446224	0.8035477	-0.02251572	-0.06032732
5.2e+08	0.03490983	0.02284533	0.5222743	0.7543019	0.06793383	-0.03194211	0.0210879	-0.01617431
	0.5222743	0.7543019	-0.02627366	-0.06007106	0.02108014	-0.01619586	0.05585801	-0.05447591
