!$
! Info: Touchstone file created by Circ.  Input file=C2M_PCB_100ohms_5p5in_20230620_v3.circ
!$
# Hz S RI R 50
0	0.008435302	2.976234e-24	0.9915344	-2.768181e-24	0.0001515818	8.270574e-23	-0.0001478821	1.822087e-20
	0.9915344	-2.623611e-24	0.008253986	1.549524e-24	-0.0001452203	1.789488e-20	6.853996e-06	8.340451e-21
	0.0001515818	8.273988e-23	-0.0001452203	1.789467e-20	0.008438642	3.456955e-24	0.9915476	-2.675437e-24
	-0.0001478821	1.82209e-20	6.853974e-06	8.340525e-21	0.9915476	-2.692171e-24	0.008267428	1.973851e-24
1e+07	0.01198831	0.004538296	0.98419	-0.08710594	0.0007030627	0.002912556	-0.0004599528	-0.000612854
	0.98419	-0.08710594	0.01204342	0.004519998	-0.000457973	-0.000613527	0.0005153099	0.002983928
	0.0007030627	0.002912556	-0.000457973	-0.000613527	0.0121372	0.004529096	0.9840528	-0.08713258
	-0.0004599528	-0.000612854	0.0005153099	0.002983928	0.9840528	-0.08713258	0.01219237	0.0045121
2e+07	0.0151048	0.006252962	0.9703204	-0.1704994	0.001534427	0.005747027	-0.0005784763	-0.001256834
	0.9703204	-0.1704994	0.01571296	0.006024186	-0.000577165	-0.001257292	0.001126063	0.005903047
	0.001534457	0.005746936	-0.0005771419	-0.00125734	0.01521655	0.006186854	0.9702043	-0.1704937
	-0.0005784507	-0.00125688	0.001126084	0.005903045	0.9702043	-0.1704937	0.01582558	0.005960467
3e+07	0.01751125	0.006691153	0.950284	-0.2512826	0.002908686	0.00823529	-0.0008042066	-0.001740117
	0.950284	-0.2512826	0.01890212	0.006043396	-0.0008031552	-0.00174028	0.00210241	0.00856138
	0.002908674	0.008235282	-0.0008031631	-0.001740277	0.0175922	0.006605572	0.9501829	-0.2512762
	-0.0008042156	-0.001740113	0.002102402	0.008561397	0.9501829	-0.2512762	0.01898545	0.005961135
4e+07	0.0194528	0.006587842	0.9239896	-0.3296214	0.004776158	0.01038396	-0.001124965	-0.002141705
	0.9239896	-0.3296214	0.02181359	0.005278127	-0.001123974	-0.002141517	0.003422911	0.01101883
	0.004776158	0.01038396	-0.001123975	-0.002141515	0.01950672	0.006493959	0.923899	-0.3296225
	-0.001124966	-0.002141702	0.003422907	0.01101883	0.923899	-0.3296225	0.02187127	0.005187781
5e+07	0.02102395	0.00616093	0.8915464	-0.4051737	0.0071466	0.01211025	-0.001595209	-0.002434324
	0.8915464	-0.4051737	0.02449312	0.003906895	-0.001594101	-0.002433795	0.005119901	0.01320457
	0.0071466	0.01211026	-0.001594103	-0.002433795	0.02105382	0.006065666	0.8914615	-0.4051871
	-0.001595211	-0.002434323	0.005119898	0.01320457	0.8914615	-0.4051871	0.02452852	0.003814818
6e+07	0.02227634	0.005536969	0.8531568	-0.4775234	0.009841353	0.01337508	-0.002098535	-0.00265101
	0.8531568	-0.4775234	0.02692996	0.002019697	-0.00209721	-0.002650217	0.007056618	0.01513155
	0.009841353	0.01337508	-0.002097208	-0.002650217	0.02228577	0.005445419	0.8530732	-0.477552
	-0.002098533	-0.002651011	0.007056621	0.01513155	0.8530732	-0.477552	0.02694589	0.001930192
7e+07	0.02324803	0.004805127	0.8090806	-0.5462398	0.01278226	0.01412749	-0.002627545	-0.00279256
	0.8090806	-0.5462398	0.02909198	-0.0003180772	-0.002625953	-0.002791587	0.009195296	0.01677542
	0.01278226	0.01412749	-0.00262595	-0.002791589	0.02324044	0.00472103	0.8089928	-0.546285
	-0.002627543	-0.002792563	0.009195298	0.01677542	0.8089928	-0.546285	0.02909156	-0.0004014566
8e+07	0.02397654	0.004034752	0.7596248	-0.6109029	0.01588231	0.01432848	-0.003174309	-0.002859525
	0.7596248	-0.6109029	0.03094102	-0.003046723	-0.0031724	-0.002858422	0.01149321	0.01811758
	0.01588231	0.01432848	-0.003172402	-0.00285842	0.02395557	0.003960938	0.7595277	-0.6109651
	-0.00317431	-0.002859522	0.0114932	0.01811758	0.7595277	-0.6109651	0.03092751	-0.003121072
9e+07	0.02450341	0.003280636	0.7051322	-0.6711117	0.01904833	0.0139524	-0.003730578	-0.002852264
	0.7051322	-0.6711117	0.03244061	-0.006105299	-0.003728319	-0.00285111	0.01390445	0.01914604
	0.01904833	0.0139524	-0.00372832	-0.002851101	0.02447336	0.003219409	0.7050211	-0.6711912
	-0.003730577	-0.002852255	0.01390445	0.01914605	0.7050211	-0.6711912	0.03241752	-0.006168325
1e+08	0.0248833	0.00259199	0.6459704	-0.7265015	0.02218045	0.01298362	-0.004284406	-0.002767898
	0.6459704	-0.7265015	0.03356937	-0.009423058	-0.004281796	-0.002766798	0.01637778	0.01985399
	0.02218045	0.01298362	-0.004281796	-0.002766799	0.02485062	0.002545909	0.6458372	-0.7265983
	-0.004284406	-0.002767899	0.01637778	0.01985399	0.6458372	-0.7265983	0.03354147	-0.009471821
1.1e+08	0.02517955	0.0019356	0.5825338	-0.7766416	0.02516565	0.01145149	-0.004821197	-0.002634766
	0.5825338	-0.7766416	0.0343279	-0.01303168	-0.004817496	-0.002635225	0.01886769	0.02027106
	0.02516565	0.01145149	-0.004817496	-0.002635227	0.02515513	0.001907189	0.5823718	-0.7767432
	-0.004821197	-0.002634767	0.01886769	0.02027106	0.5823718	-0.7767432	0.03436714	-0.01306596
1.2e+08	0.02536087	0.001344976	0.5153433	-0.8212561	0.02793752	0.009373093	-0.005362954	-0.002447314
	0.5153433	-0.8212561	0.03459339	-0.01678569	-0.005359642	-0.002448571	0.0213545	0.02038957
	0.02793752	0.009373093	-0.005359642	-0.002448573	0.02534407	0.001321137	0.515153	-0.8213588
	-0.005362954	-0.002447315	0.0213545	0.02038956	0.515153	-0.8213588	0.03464614	-0.0168419
1.3e+08	0.02548191	0.000847159	0.4448523	-0.8600868	0.03040122	0.006776982	-0.005902486	-0.002200023
	0.4448523	-0.8600868	0.03438677	-0.02060615	-0.005899674	-0.002201282	0.023792	0.02021952
	0.03040122	0.006776982	-0.005899674	-0.002201284	0.02546952	0.0008227142	0.444632	-0.8601842
	-0.005902487	-0.002200025	0.023792	0.02021951	0.444632	-0.8601842	0.03442539	-0.02067715
1.4e+08	0.02558863	0.0004448175	0.3715433	-0.8928983	0.03247075	0.003710842	-0.006435032	-0.001891204
	0.3715433	-0.8928983	0.03371607	-0.02442705	-0.006432382	-0.001892151	0.0261418	0.01978063
	0.03247075	0.003710842	-0.006432382	-0.001892152	0.02557769	0.0004185891	0.3712939	-0.8929872
	-0.006435032	-0.001891205	0.0261418	0.01978063	0.3712939	-0.8929872	0.03373412	-0.02449948
1.5e+08	0.02572136	0.000126996	0.2959206	-0.9194995	0.03406813	0.0002361034	-0.006955824	-0.001519908
	0.2959206	-0.9194995	0.03259227	-0.0281836	-0.006953008	-0.001520568	0.02837049	0.01909798
	0.03406813	0.0002361036	-0.006953009	-0.001520569	0.02571049	9.953798e-05	0.2956424	-0.9195743
	-0.006955824	-0.001519908	0.02837049	0.01909797	0.2956424	-0.9195743	0.03259275	-0.02824812
1.6e+08	0.02591438	-0.0001276154	0.2185	-0.9397355	0.03512542	-0.003573875	-0.007460047	-0.001085481
	0.2185	-0.9397355	0.03103281	-0.03181206	-0.007456898	-0.001086031	0.03045035	0.01820148
	0.03512542	-0.003573875	-0.007456899	-0.001086032	0.02590333	-0.0001554992	0.2181942	-0.9397919
	-0.007460048	-0.001085482	0.03045035	0.01820148	0.2181942	-0.9397919	0.03102178	-0.03186407
1.7e+08	0.02619335	-0.0003480379	0.1398095	-0.9534938	0.03558625	-0.007635248	-0.007942623	-0.0005874135
	0.1398095	-0.9534938	0.02906343	-0.03525139	-0.007939072	-0.000588073	0.03235967	0.01712448
	0.03558625	-0.007635248	-0.007939073	-0.0005880733	0.02618271	-0.0003759449	0.1394781	-0.9535277
	-0.007942624	-0.0005874138	0.03235967	0.01712448	0.1394781	-0.9535277	0.02904692	-0.03528981
1.8e+08	0.02657575	-0.0005690795	0.06038285	-0.9607063	0.03540745	-0.01185589	-0.0083983	-2.523899e-05
	0.06038285	-0.9607063	0.02671851	-0.03844481	-0.008394406	-2.618572e-05	0.03408328	0.01590261
	0.03540745	-0.01185589	-0.008394406	-2.618593e-05	0.02656619	-0.000597116	0.0600279	-0.9607149
	-0.0083983	-2.523921e-05	0.03408328	0.01590261	0.0600279	-0.9607149	0.02670152	-0.03847066
1.9e+08	0.02706876	-0.0008286919	-0.01924258	-0.961348	0.03456019	-0.01613736	-0.008821312	0.0006013735
	-0.01924258	-0.961348	0.02404024	-0.04134163	-0.008817181	0.0006000011	0.03561286	0.01457294
	0.03456019	-0.01613736	-0.008817181	0.0006000009	0.02706117	-0.0008576624	-0.019619	-0.9613259
	-0.008821312	0.0006013734	0.03561286	0.01457294	-0.019619	-0.9613259	0.02402638	-0.0413568
2e+08	0.02767046	-0.00116647	-0.09853223	-0.9554355	0.03303021	-0.02037675	-0.009205402	0.001292555
	-0.09853223	-0.9554355	0.02107765	-0.04389828	-0.009201181	0.001290682	0.03694651	0.01317206
	0.03303021	-0.02037675	-0.009201181	0.001290682	0.02766512	-0.001197441	-0.09892624	-0.9553804
	-0.009205403	0.001292555	0.03694651	0.01317206	-0.09892624	-0.9553804	0.02106938	-0.04390527
2.1e+08	0.02836879	-0.001621481	-0.1769503	-0.9430302	0.03081912	-0.02446939	-0.009543655	0.002048028
	-0.1769503	-0.9430302	0.01788599	-0.04607925	-0.009539481	0.00204562	0.03808904	0.01173574
	0.03081912	-0.02446939	-0.009539481	0.00204562	0.0283657	-0.001655672	-0.1773597	-0.9429382
	-0.009543655	0.002048028	0.03808904	0.01173574	-0.1773597	-0.9429382	0.01788475	-0.04608032
2.2e+08	0.02914223	-0.002229857	-0.2539737	-0.9242355	0.02794417	-0.02831097	-0.00982863	0.002866979
	-0.2539737	-0.9242355	0.01452442	-0.04785835	-0.009824636	0.002864066	0.03905178	0.01029754
	0.02794417	-0.02831097	-0.009824636	0.002864066	0.02914096	-0.002268539	-0.2543949	-0.9241047
	-0.00982863	0.002866979	0.03905178	0.01029754	-0.2543949	-0.9241047	0.01453084	-0.04785581
2.3e+08	0.02996061	-0.003023216	-0.3290892	-0.8991969	0.02443798	-0.03179947	-0.01005214	0.003747814
	-0.3290892	-0.8991969	0.01105487	-0.04921899	-0.01004843	0.003744436	0.03985074	0.008887035
	0.02443798	-0.03179947	-0.01004843	0.003744436	0.02996033	-0.003067614	-0.3295174	-0.8990253
	-0.01005214	0.003747814	0.03985074	0.008887035	-0.3295174	-0.8990253	0.01106941	-0.04921455
2.4e+08	0.03078592	-0.004027473	-0.4017932	-0.8680991	0.0203485	-0.03483806	-0.01020556	0.00468802
	-0.4017932	-0.8680991	0.007541383	-0.05015394	-0.01020226	0.004684242	0.0405078	0.007530407
	0.0203485	-0.03483806	-0.01020226	0.004684242	0.03078552	-0.004078458	-0.4022252	-0.8678835
	-0.01020556	0.00468802	0.0405078	0.007530406	-0.4022252	-0.8678835	0.007564031	-0.05014896
2.5e+08	0.03157365	-0.005259883	-0.4716061	-0.8311684	0.01573778	-0.03733684	-0.01027982	0.005683926
	-0.4716061	-0.8311684	0.004047315	-0.05066623	-0.01027697	0.00567986	0.04104862	0.006248363
	0.01573778	-0.03733684	-0.01027697	0.00567986	0.03157184	-0.005318345	-0.4720374	-0.8309071
	-0.01027982	0.005683926	0.04104862	0.006248363	-0.4720374	-0.8309071	0.004077904	-0.05066199
2.6e+08	0.03227439	-0.006729181	-0.538063	-0.7886676	0.01068122	-0.03921525	-0.01026578	0.006730684
	-0.538063	-0.7886676	0.0006344652	-0.05076861	-0.01026348	0.00672641	0.04150185	0.005056049
	0.01068122	-0.03921525	-0.01026348	0.00672641	0.03226961	-0.00679551	-0.5384884	-0.7883608
	-0.01026578	0.006730684	0.04150185	0.005056049	-0.5384884	-0.7883608	0.0006732042	-0.05076605
2.7e+08	0.03283581	-0.00843401	-0.6007257	-0.7408965	0.005265858	-0.04040318	-0.010154	0.007821938
	-0.6007257	-0.7408965	-0.002638071	-0.05048287	-0.0101522	0.007817512	0.04189828	0.003962511
	0.005265858	-0.04040318	-0.0101522	0.007817512	0.03282645	-0.008508439	-0.6011417	-0.7405418
	-0.010154	0.007821938	0.04189828	0.003962511	-0.6011417	-0.7405418	-0.002591431	-0.05048285
2.8e+08	0.03320429	-0.0103618	-0.6591801	-0.6881879	-0.0004110241	-0.0408436	-0.009935344	0.008949892
	-0.6591801	-0.6881879	-0.005715886	-0.04983965	-0.00993413	0.008945492	0.04226996	0.0029707
	-0.0004110241	-0.0408436	-0.00993413	0.008945492	0.03318853	-0.01044435	-0.6595801	-0.687786
	-0.009935344	0.008949892	0.04226996	0.0029707	-0.6595801	-0.687786	-0.005660938	-0.049843
2.9e+08	0.03332746	-0.01248933	-0.713041	-0.6309086	-0.006243657	-0.040493	-0.009600853	0.01010504
	-0.713041	-0.6309086	-0.008550289	-0.04887752	-0.009600253	0.01010076	0.04264794	0.00207667
	-0.006243657	-0.040493	-0.009600253	0.01010076	0.03330356	-0.01257936	-0.7134212	-0.63046
	-0.009600853	0.01010503	0.04264794	0.00207667	-0.7134212	-0.63046	-0.008487189	-0.04888529
3e+08	0.03315603	-0.01478237	-0.7619557	-0.5694542	-0.01212011	-0.03932335	-0.009142787	0.01127667
	-0.7619557	-0.5694542	-0.01109941	-0.0476419	-0.009142715	0.01127257	0.04306259	0.001270682
	-0.01212011	-0.03932335	-0.009142715	0.01127257	0.03312216	-0.01487935	-0.7623105	-0.5689588
	-0.009142787	0.01127667	0.04306259	0.001270681	-0.7623105	-0.5689588	-0.01102805	-0.04765508
3.1e+08	0.03264597	-0.01719634	-0.8056016	-0.5042462	-0.01792422	-0.03732248	-0.008553731	0.01245207
	-0.8056016	-0.5042462	-0.01332881	-0.04618384	-0.008554176	0.01244828	0.04354161	0.0005369411
	-0.01792422	-0.03732248	-0.008554176	0.01244828	0.03260027	-0.01729927	-0.8059252	-0.5037049
	-0.008553731	0.01245207	0.04354161	0.000536941	-0.8059252	-0.5037049	-0.01324897	-0.04620341
3.2e+08	0.0317606	-0.01967742	-0.8436946	-0.4357306	-0.02353794	-0.03449467	-0.007827848	0.01361736
	-0.8436946	-0.4357306	-0.01521292	-0.04455882	-0.007828818	0.01361409	0.04410918	-0.0001457898
	-0.02353794	-0.03449467	-0.007828818	0.01361409	0.03170138	-0.01978471	-0.8439813	-0.4351473
	-0.007827848	0.01361736	0.04410918	-0.0001457899	-0.8439813	-0.4351473	-0.01512488	-0.04458626
3.3e+08	0.03047228	-0.02216325	-0.8759858	-0.3643804	-0.02884365	-0.03086094	-0.006960603	0.01475709
	-0.8759858	-0.3643804	-0.01673511	-0.04282582	-0.006961974	0.01475438	0.04478508	-0.0008034689
	-0.02884365	-0.03086094	-0.006961974	0.01475438	0.0303981	-0.02227325	-0.8762315	-0.3637546
	-0.006960603	0.01475709	0.04478508	-0.000803469	-0.8762315	-0.3637546	-0.0166393	-0.04286222
3.4e+08	0.02876412	-0.02458537	-0.9022667	-0.2906789	-0.03372665	-0.02645901	-0.005949362	0.01585481
	-0.9022667	-0.2906789	-0.01788847	-0.04104491	-0.005951013	0.01585281	0.04558408	-0.001465835
	-0.03372665	-0.02645901	-0.005951013	0.01585281	0.02867365	-0.0246959	-0.9024664	-0.2900159
	-0.005949362	0.01585481	0.04558408	-0.001465835	-0.9024664	-0.2900159	-0.01778542	-0.04109169
3.5e+08	0.02663134	-0.02687035	-0.9223685	-0.2151314	-0.03807706	-0.02134276	-0.004793315	0.01689285
	-0.9223685	-0.2151314	-0.01867562	-0.03927656	-0.004795153	0.01689175	0.04651455	-0.002165554
	-0.03807706	-0.02134276	-0.004795153	0.01689175	0.02652359	-0.02697908	-0.9225181	-0.2144337
	-0.004793315	0.01689285	0.04651455	-0.002165554	-0.9225181	-0.2144337	-0.01856604	-0.03933491
3.6e+08	0.02408221	-0.02894229	-0.936165	-0.1382546	-0.04179271	-0.01558147	-0.003494004	0.01785302
	-0.936165	-0.1382546	-0.01910852	-0.03757986	-0.003495813	0.01785284	0.04757919	-0.002937136
	-0.04179271	-0.01558147	-0.003495813	0.01785284	0.0239565	-0.02904644	-0.9362589	-0.1375266
	-0.003494004	0.01785302	0.04757919	-0.002937136	-0.9362589	-0.1375266	-0.0189934	-0.03765097
3.7e+08	0.02113819	-0.03072542	-0.9435713	-0.06057024	-0.04478072	-0.009258761	-0.002055176	0.01871646
	-0.9435713	-0.06057024	-0.01920836	-0.03601069	-0.002056746	0.01871725	0.04877374	-0.003815727
	-0.04478072	-0.009258761	-0.002056746	0.01871725	0.02099433	-0.03082217	-0.9436067	-0.05981597
	-0.002055176	0.01871646	0.04877374	-0.003815728	-0.9436067	-0.05981597	-0.01908895	-0.03609559
3.8e+08	0.01783492	-0.03214577	-0.9445467	0.01738892	-0.04695993	-0.002471371	-0.0004832236	0.01946428
	-0.9445467	0.01738892	-0.01900484	-0.03462111	-0.0004843233	0.01946608	0.05008742	-0.004836007
	-0.04695993	-0.002471371	-0.0004843234	0.01946608	0.01767315	-0.03223197	-0.9445188	0.01816387
	-0.0004832236	0.01946428	0.05008742	-0.004836007	-0.9445188	0.01816387	-0.01888241	-0.03472069
3.9e+08	0.01422101	-0.03313459	-0.9390955	0.09509425	-0.04826231	0.004672579	0.001212936	0.0200778
	-0.9390955	0.09509425	-0.01853555	-0.03345715	0.001212555	0.02008049	0.051503	-0.006030942
	-0.04826231	0.004672579	0.001212555	0.02008049	0.01404214	-0.03320714	-0.9390013	0.09588537
	0.001212936	0.0200778	0.051503	-0.006030942	-0.9390013	0.09588537	-0.01841157	-0.03357201
4e+08	0.01035834	-0.03362965	-0.9272648	0.1720145	-0.04863476	0.01205552	0.003021668	0.02053899
	-0.9272648	0.1720145	-0.01784468	-0.03255841	0.003022284	0.0205425	0.05299707	-0.00743096
	-0.04863476	0.01205552	0.003022284	0.0205425	0.01016363	-0.03368544	-0.9271015	0.172816
	0.003021668	0.02053899	0.05299707	-0.00743096	-0.9271015	0.172816	-0.01772071	-0.03268904
4.1e+08	0.006320304	-0.03357859	-0.9091469	0.247626	-0.04804027	0.01955224	0.004928691	0.02083065
	-0.9091469	0.247626	-0.01698218	-0.03195658	0.00493054	0.02083495	0.05454037	-0.009062251
	-0.04804027	0.01955224	0.00493054	0.02083495	0.006111625	-0.0336146	-0.9089123	0.2484307
	0.004928691	0.02083065	0.05454037	-0.009062251	-0.9089123	0.2484307	-0.01685983	-0.03210328
4.2e+08	0.002189959	-0.03294039	-0.884875	0.3214145	-0.04645896	0.02703272	0.006917238	0.02093729
	-0.884875	0.3214145	-0.01600216	-0.03167497	0.006920576	0.02094209	0.05609898	-0.01094644
	-0.04645896	0.02703272	0.006920576	0.02094209	0.001969822	-0.03295371	-0.8845672	0.3222169
	0.006917238	0.02093729	0.05609898	-0.01094644	-0.8845672	0.3222169	-0.01588297	-0.03183774
4.3e+08	-0.001940849	-0.03168737	-0.8546271	0.3928788	-0.043889	0.03436388	0.008968097	0.02084502
	-0.8546271	0.3928788	-0.01496137	-0.03172778	0.008973116	0.02084999	0.05763463	-0.01309948
	-0.043889	0.03436388	0.008973116	0.02084999	-0.002169524	-0.03167555	-0.8542463	0.3936714
	0.008968097	0.02084502	0.05763463	-0.01309948	-0.8542463	0.3936714	-0.01484713	-0.03190635
4.4e+08	-0.00597455	-0.02980678	-0.8186229	0.4615348	-0.04034651	0.04141235	0.01105985	0.02054209
	-0.8186229	0.4615348	-0.01391827	-0.0321197	0.01106676	0.02054711	0.05910632	-0.01553125
	-0.04034651	0.04141235	0.01106676	0.02054711	-0.006208251	-0.02976766	-0.8181668	0.4623103
	0.01105985	0.02054209	0.05910632	-0.01553125	-0.8181668	0.4623103	-0.01381045	-0.03231377
4.5e+08	-0.009809898	-0.02730166	-0.7771208	0.5269179	-0.03586565	0.04804705	0.0131692	0.02001947
	-0.7771208	0.5269179	-0.01293095	-0.0328465	0.01317812	0.0200241	0.06047072	-0.01824444
	-0.03586565	0.04804705	0.01317812	0.0200241	-0.01004486	-0.02723368	-0.7765907	0.5276695
	0.0131692	0.02001947	0.06047072	-0.01824444	-0.7765907	0.5276695	-0.0128311	-0.0330553
4.6e+08	-0.01334518	-0.02419199	-0.730415	0.588588	-0.03049879	0.0541413	0.01527137	0.01927099
	-0.730415	0.588588	-0.01205578	-0.03389385	0.01528236	0.01927485	0.06168404	-0.02123521
	-0.03049879	0.0541413	0.01528236	0.01927485	-0.01357696	-0.02409397	-0.7298109	0.5893083
	0.01527137	0.01927099	0.06168404	-0.02123521	-0.7298109	0.5893083	-0.01196516	-0.03411678
4.7e+08	-0.01648016	-0.02051463	-0.6788385	0.6461314	-0.02431501	0.05957594	0.01734026	0.01829359
	-0.6788385	0.6461314	-0.011346	-0.03523955	0.01735329	0.01829614	0.06270242	-0.02449198
	-0.02431501	0.05957594	0.01735329	0.01829614	-0.0167044	-0.02038624	-0.6781634	0.6468148
	0.01734026	0.01829359	0.06270242	-0.02449198	-0.6781634	0.6468148	-0.01126608	-0.03547533
4.8e+08	-0.01911959	-0.01632331	-0.6227576	0.6991645	-0.01739969	0.06424093	0.01934914	0.0170874
	-0.6227576	0.6991645	-0.01085055	-0.03685228	0.01936411	0.01708824	0.06348392	-0.02799668
	-0.01739969	0.06424093	0.01936411	0.01708824	-0.01933128	-0.01616471	-0.6220125	0.6998023
	0.01934914	0.0170874	0.06348392	-0.02799668	-0.6220125	0.6998023	-0.01078219	-0.03710002
4.9e+08	-0.02117616	-0.01168757	-0.5625669	0.7473389	-0.009852916	0.06803803	0.02127126	0.01565639
	-0.5625669	0.7473389	-0.01061216	-0.03869406	0.021288	0.01565508	0.06398932	-0.0317242
	-0.009852916	0.06803803	0.021288	0.01565508	-0.0213706	-0.01149989	-0.5617551	0.7479241
	0.02127126	0.01565639	0.06398932	-0.0317242	-0.5617551	0.7479241	-0.0105563	-0.03895237
5e+08	-0.02257227	-0.006691903	-0.4986883	0.7903354	-0.001787509	0.07088241	0.02307996	0.01400765
	-0.4986883	0.7903354	-0.01066717	-0.0407206	0.0230982	0.01400379	0.06418291	-0.03564379
	-0.001787509	0.07088241	0.0230982	0.01400379	-0.02274475	-0.006477025	-0.4978135	0.7908626
	0.02307996	0.01400765	0.06418291	-0.03564379	-0.4978135	0.7908626	-0.01062449	-0.04098809
5.1e+08	-0.02324372	-0.001434255	-0.4315675	0.8278791	0.006672273	0.07270459	0.02474946	0.01215185
	-0.4315675	0.8278791	-0.01104364	-0.04288202	0.02476887	0.01214504	0.06403398	-0.03971859
	0.006672273	0.07270459	0.02476887	0.01214504	-0.02338956	-0.001194706	-0.4306341	0.8283406
	0.02474946	0.01215185	0.06403398	-0.03971859	-0.4306341	0.8283406	-0.01101458	-0.0431575
5.2e+08	-0.02314085	0.003976692	-0.3616724	0.8597296	0.01539331	0.07345204	0.02625538	0.01010305
