!$
! Info: Touchstone file created by Circ.  Input file=C2M_PCB_100ohms_1p5in_20230620_v3.circ
!$
# Hz S RI R 50
0	0.004332962	1.876799e-24	0.9956366	-1.602022e-24	0.0001310314	6.171316e-23	-0.0001273163	1.563317e-20
	0.9956366	-1.456884e-24	0.004151901	3.370171e-25	-0.0001246441	1.530599e-20	-1.373758e-05	8.226958e-21
	0.0001310315	6.174763e-23	-0.0001246441	1.530577e-20	0.004336331	2.405472e-24	0.9956499	-1.600404e-24
	-0.0001273163	1.56332e-20	-1.37376e-05	8.227032e-21	0.9956499	-1.617194e-24	0.00416523	8.643867e-25
1e+07	0.006025907	0.002094485	0.9927684	-0.04674094	0.0003242317	0.002272209	-0.0002537334	-0.0005925974
	0.9927684	-0.04674094	0.005981651	0.002147467	-0.0002517077	-0.0005931458	0.0002438442	0.00232246
	0.0003242317	0.002272209	-0.0002517077	-0.0005931458	0.006113786	0.002094639	0.9926938	-0.04677466
	-0.0002537334	-0.0005925974	0.0002438442	0.00232246	0.9926938	-0.04677466	0.006069495	0.002147926
2e+07	0.007411305	0.002861324	0.988157	-0.09192612	0.0006302114	0.004506052	-0.0003410416	-0.001166461
	0.988157	-0.09192612	0.007653371	0.002868094	-0.0003396159	-0.001166763	0.0006246569	0.004551748
	0.0006302559	0.004505965	-0.0003395894	-0.001166809	0.007481569	0.002832406	0.9880878	-0.0919545
	-0.0003410129	-0.001166504	0.000624677	0.004551746	0.9880878	-0.0919545	0.007724338	0.002839849
3e+07	0.008420623	0.00306018	0.9818615	-0.1362954	0.00113109	0.006641851	-0.0004856043	-0.001669147
	0.9818615	-0.1362954	0.009056835	0.002947309	-0.0004843935	-0.001669157	0.001194353	0.006659125
	0.00113108	0.006641841	-0.0004844017	-0.001669155	0.008476474	0.003021786	0.9817959	-0.1363334
	-0.0004856138	-0.001669145	0.001194345	0.006659142	0.9817959	-0.1363334	0.009115098	0.002909976
4e+07	0.009187064	0.003043192	0.9737685	-0.1801077	0.001817572	0.008712526	-0.0006800248	-0.002141427
	0.9737685	-0.1801077	0.01032585	0.002744369	-0.0006788608	-0.002141104	0.001948785	0.008694202
	0.001817572	0.008712528	-0.0006788626	-0.002141102	0.00923037	0.003000626	0.9737049	-0.1801594
	-0.0006800263	-0.002141425	0.001948781	0.008694204	0.9737049	-0.1801594	0.01037347	0.002702609
5e+07	0.009771276	0.002904894	0.9638414	-0.2233653	0.002702049	0.01071364	-0.0009382	-0.002584428
	0.9638414	-0.2233653	0.01152221	0.002343595	-0.0009369414	-0.002583785	0.002904354	0.01064645
	0.002702049	0.01071364	-0.0009369432	-0.002583785	0.009803072	0.002861185	0.9637779	-0.223433
	-0.0009382019	-0.002584428	0.002904351	0.01064645	0.9637779	-0.223433	0.01156104	0.002299984
6e+07	0.01020329	0.002693034	0.9520797	-0.2660244	0.003750836	0.01263709	-0.001229949	-0.003002892
	0.9520797	-0.2660244	0.01266951	0.001776556	-0.001228522	-0.003002005	0.004030362	0.01251203
	0.003750835	0.01263709	-0.00122852	-0.003002005	0.01022494	0.002650629	0.9520144	-0.2661098
	-0.001229947	-0.003002892	0.004030365	0.01251203	0.9520144	-0.2661098	0.01270069	0.001732573
7e+07	0.01050009	0.002439413	0.9384964	-0.3080254	0.004959411	0.01447182	-0.001554917	-0.003395685
	0.9384964	-0.3080254	0.01377485	0.001059768	-0.001553302	-0.003394637	0.005322419	0.01427805
	0.00495941	0.01447182	-0.001553298	-0.003394638	0.01051263	0.002400051	0.9384266	-0.3081297
	-0.001554915	-0.003395688	0.005322421	0.01427804	0.9384266	-0.3081297	0.01379967	0.00101677
8e+07	0.01067399	0.002169362	0.9231153	-0.349304	0.006321648	0.01620667	-0.00191196	-0.003761299
	0.9231153	-0.349304	0.01483794	0.0002045574	-0.001910146	-0.003760125	0.00677349	0.01593179
	0.006321648	0.01620667	-0.001910148	-0.003760123	0.01067853	0.002134517	0.9230385	-0.3494279
	-0.001911962	-0.003761297	0.006773487	0.01593179	0.9230385	-0.3494279	0.01485763	0.0001637568
9e+07	0.01073642	0.001904846	0.9059635	-0.3897934	0.007830384	0.01783086	-0.002299519	-0.004097949
	0.9059635	-0.3897934	0.01585522	-0.0007789969	-0.002297503	-0.004096699	0.008374789	0.01746105
	0.007830383	0.01783086	-0.002297507	-0.004096691	0.01073432	0.001876208	0.9058779	-0.3899378
	-0.002299521	-0.00409794	0.008374788	0.01746106	0.9058779	-0.3899378	0.01587093	-0.0008165479
1e+08	0.01070223	0.001670884	0.887072	-0.4294334	0.009477233	0.0193321	-0.002715267	-0.004402352
	0.887072	-0.4294334	0.01682488	-0.001875152	-0.002713061	-0.004401094	0.01011542	0.01885303
	0.009477233	0.0193321	-0.00271306	-0.004401094	0.0106959	0.001651298	0.8869731	-0.4295999
	-0.002715266	-0.004402353	0.01011542	0.01885303	0.8869731	-0.4295999	0.01683802	-0.001907427
1.1e+08	0.01059941	0.001463063	0.8664535	-0.4681201	0.01124572	0.02070608	-0.00315259	-0.004678005
	0.8664535	-0.4681201	0.01777753	-0.003130689	-0.003148807	-0.004677817	0.0119801	0.02010486
	0.01124572	0.02070608	-0.003148806	-0.004677818	0.01058873	0.001459737	0.8663363	-0.4683031
	-0.003152589	-0.004678006	0.0119801	0.02010486	0.8663363	-0.4683031	0.01785792	-0.003153525
1.2e+08	0.01040535	0.001282523	0.8441918	-0.5057883	0.01313511	0.02194593	-0.00361558	-0.004926667
	0.8441918	-0.5057883	0.01863345	-0.004494887	-0.003611932	-0.004927424	0.01396653	0.02120599
	0.01313511	0.02194593	-0.003611931	-0.004927426	0.01039733	0.001287568	0.8440557	-0.5059873
	-0.003615579	-0.004926668	0.01396653	0.02120599	0.8440557	-0.5059873	0.01872856	-0.004544307
1.3e+08	0.0101309	0.001153458	0.8203298	-0.5423808	0.015135	0.02304124	-0.004103646	-0.005145197
	0.8203298	-0.5423808	0.01940818	-0.005955748	-0.004100622	-0.005146226	0.01606172	0.02214563
	0.015135	0.02304124	-0.004100621	-0.005146227	0.01012666	0.001162057	0.8201712	-0.5425931
	-0.004103646	-0.005145198	0.01606172	0.02214562	0.8201712	-0.5425931	0.01949053	-0.006024817
1.4e+08	0.009787701	0.001091282	0.7949128	-0.5778331	0.01723496	0.02398448	-0.004615666	-0.005331397
	0.7949128	-0.5778331	0.02010234	-0.007510812	-0.004613164	-0.005332251	0.0182529	0.02291587
	0.01723496	0.02398449	-0.004613164	-0.005332252	0.00978613	0.00110099	0.7947316	-0.5780577
	-0.004615665	-0.005331398	0.0182529	0.02291587	0.7947316	-0.5780577	0.02016522	-0.007586421
1.5e+08	0.009388635	0.001107182	0.7679949	-0.6120846	0.019424	0.02476879	-0.005150013	-0.005483407
	0.7679949	-0.6120846	0.02071106	-0.009156534	-0.005147785	-0.005483922	0.02052668	0.02350961
	0.019424	0.02476879	-0.005147785	-0.005483923	0.009388343	0.0011175	0.7677893	-0.6123187
	-0.005150012	-0.005483408	0.02052668	0.02350961	0.7677893	-0.6123187	0.02075707	-0.009229698
1.6e+08	0.008947653	0.001210048	0.7396292	-0.6450741	0.02169088	0.02538808	-0.005704881	-0.005599662
	0.7396292	-0.6450741	0.02122743	-0.01088744	-0.00570274	-0.005599859	0.02286949	0.02392113
	0.02169088	0.02538808	-0.00570274	-0.00559986	0.008947604	0.001221343	0.739398	-0.6453157
	-0.005704881	-0.005599662	0.02286949	0.02392113	0.739398	-0.6453157	0.0212621	-0.01095384
1.7e+08	0.008478687	0.001405863	0.7098729	-0.6767415	0.02402383	0.02583711	-0.006278294	-0.00567875
	0.7098729	-0.6767415	0.02164435	-0.0126965	-0.0062761	-0.005678725	0.0252673	0.02414572
	0.02402383	0.02583711	-0.0062761	-0.005678725	0.008478452	0.001419007	0.7096155	-0.6769886
	-0.006278294	-0.00567875	0.0252673	0.02414572	0.7096155	-0.6769886	0.02167304	-0.0127553
1.8e+08	0.007996233	0.001699279	0.678786	-0.707031	0.02641102	0.02611151	-0.006868374	-0.005719452
	0.678786	-0.707031	0.02195556	-0.01457547	-0.006866099	-0.005719322	0.02770594	0.02417976
	0.02641102	0.02611151	-0.006866099	-0.005719322	0.007995748	0.001715012	0.6785024	-0.7072823
	-0.006868374	-0.005719452	0.02770594	0.02417976	0.6785024	-0.7072823	0.02198256	-0.01462777
1.9e+08	0.007514261	0.002092406	0.6464314	-0.7358883	0.02884046	0.02620789	-0.007473138	-0.005720585
	0.6464314	-0.7358883	0.02215558	-0.01651566	-0.007470805	-0.005720458	0.03017128	0.02402094
	0.02884046	0.02620789	-0.007470806	-0.005720458	0.007514056	0.002111649	0.6461195	-0.7361408
	-0.007473139	-0.005720586	0.03017128	0.02402094	0.6461195	-0.7361408	0.02218369	-0.01656348
2e+08	0.00704703	0.002586349	0.6128715	-0.7632624	0.03129971	0.0261233	-0.008090621	-0.005681036
	0.6128715	-0.7632624	0.02223979	-0.01850801	-0.008088302	-0.005680986	0.03264881	0.02366762
	0.03129971	0.0261233	-0.008088302	-0.005680986	0.007047705	0.002609544	0.6125322	-0.7635142
	-0.008090621	-0.005681036	0.03264881	0.02366762	0.6125322	-0.7635142	0.02227057	-0.01855374
2.1e+08	0.006608675	0.003180332	0.5781759	-0.7891026	0.03377643	0.02585594	-0.008718752	-0.005599709
	0.5781759	-0.7891026	0.02220463	-0.02054314	-0.008716521	-0.005599774	0.03512417	0.02311954
	0.03377643	0.02585594	-0.008716521	-0.005599774	0.006610923	0.003207812	0.5778075	-0.7893516
	-0.008718752	-0.005599709	0.03512417	0.02311954	0.5778075	-0.7893516	0.02223871	-0.02058886
2.2e+08	0.006212752	0.003871987	0.5424122	-0.813364	0.0362583	0.02540478	-0.00935548	-0.005475603
	0.5424122	-0.813364	0.0220471	-0.02261188	-0.009353435	-0.005475772	0.03758345	0.02237764
	0.0362583	0.02540478	-0.009353435	-0.005475772	0.006217325	0.003903901	0.5420149	-0.813609
	-0.00935548	-0.005475604	0.03758345	0.02237764	0.5420149	-0.813609	0.02208423	-0.02265951
2.3e+08	0.005872457	0.004657588	0.5056509	-0.8360049	0.03873262	0.0247694	-0.009998531	-0.005307675
	0.5056509	-0.8360049	0.02176468	-0.02470514	-0.009996746	-0.005307913	0.04001199	0.0214432
	0.03873262	0.0247694	-0.009996746	-0.005307913	0.005880162	0.004693897	0.5052254	-0.8362433
	-0.009998531	-0.005307675	0.04001199	0.02144319	0.5052254	-0.8362433	0.02180443	-0.02475589
2.4e+08	0.005601059	0.005532016	0.4679657	-0.8569819	0.04118705	0.02395048	-0.01064564	-0.005094987
	0.4679657	-0.8569819	0.02135595	-0.02681343	-0.01064418	-0.005095252	0.04239623	0.02031926
	0.04118705	0.02395048	-0.01064418	-0.005095252	0.005612487	0.005572569	0.4675105	-0.8572113
	-0.01064564	-0.005094987	0.04239623	0.02031926	0.4675105	-0.8572113	0.02139755	-0.02686813
2.5e+08	0.005410381	0.006488552	0.4294299	-0.8762614	0.04360928	0.02294929	-0.01129435	-0.004836641
	0.4294299	-0.8762614	0.02081989	-0.02892758	-0.01129328	-0.00483683	0.04472272	0.01900956
	0.04360928	0.02294929	-0.01129328	-0.00483683	0.005426324	0.006533218	0.428945	-0.8764799
	-0.01129435	-0.004836642	0.04472272	0.01900956	0.428945	-0.8764799	0.02086243	-0.02898675
2.6e+08	0.005312134	0.007519267	0.3901202	-0.8938079	0.04598732	0.02176817	-0.0119423	-0.004531939
	0.3901202	-0.8938079	0.02015581	-0.03103852	-0.01194167	-0.004532005	0.04697819	0.01751877
	0.04598732	0.02176817	-0.01194166	-0.004532005	0.005333147	0.007567693	0.3896072	-0.8940137
	-0.0119423	-0.004531939	0.04697819	0.01751877	0.3896072	-0.8940137	0.02019885	-0.03110219
2.7e+08	0.00531713	0.008615151	0.3501135	-0.9095928	0.04830903	0.02040987	-0.01258679	-0.004180124
	0.3501135	-0.9095928	0.01936417	-0.03313691	-0.0125865	-0.004179935	0.04915001	0.01585242
	0.04830903	0.02040987	-0.0125865	-0.004179935	0.005343798	0.00866709	0.3495705	-0.9097839
	-0.01258679	-0.004180124	0.04915001	0.01585242	0.3495705	-0.9097839	0.01940698	-0.03320509
2.8e+08	0.005434846	0.009765666	0.3094877	-0.9235884	0.05056296	0.01887816	-0.01322511	-0.003780643
	0.3094877	-0.9235884	0.01844568	-0.03521374	-0.01322528	-0.003780134	0.05122634	0.0140172
	0.05056296	0.01887816	-0.01322528	-0.003780134	0.005467898	0.009820732	0.3089168	-0.9237617
	-0.01322511	-0.003780643	0.05122634	0.0140172	0.3089168	-0.9237617	0.01848819	-0.03528609
2.9e+08	0.005673962	0.01095951	0.2683234	-0.9357719	0.05273746	0.01717744	-0.01385423	-0.003332942
	0.2683234	-0.9357719	0.01740167	-0.03725995	-0.01385482	-0.003332061	0.05319516	0.01202012
	0.05273746	0.01717744	-0.01385482	-0.003332061	0.005713708	0.01101719	0.2677247	-0.9359266
	-0.01385423	-0.003332942	0.05319516	0.01202012	0.2677247	-0.9359266	0.01744354	-0.03733642
3e+08	0.006041868	0.01218432	0.2267003	-0.9461248	0.05482165	0.01531283	-0.01447161	-0.002836931
	0.2267003	-0.9461248	0.01623421	-0.03926674	-0.01447251	-0.002835549	0.05504586	0.009869338
	0.05482165	0.01531283	-0.01447251	-0.002835549	0.006089042	0.01224422	0.2260741	-0.946258
	-0.01447161	-0.002836931	0.05504586	0.009869338	0.2260741	-0.946258	0.01627542	-0.03934714
3.1e+08	0.006544754	0.01342684	0.1846994	-0.9546288	0.05680491	0.01329015	-0.01507391	-0.002292331
	0.1846994	-0.9546288	0.01494611	-0.04122531	-0.01507508	-0.002290389	0.05676814	0.007573594
	0.05680491	0.01329015	-0.01507508	-0.002290389	0.006600007	0.01348841	0.1840462	-0.9547375
	-0.01507391	-0.002292331	0.05676814	0.007573594	0.1840462	-0.9547375	0.01498689	-0.04130942
3.2e+08	0.007187568	0.01467333	0.1424004	-0.9612719	0.05867699	0.01111582	-0.01565818	-0.001699232
	0.1424004	-0.9612719	0.01354067	-0.04312716	-0.01565968	-0.001696695	0.05835258	0.005142205
	0.05867699	0.01111582	-0.01565968	-0.001696695	0.007251298	0.01473584	0.1417233	-0.9613543
	-0.01565818	-0.001699232	0.05835258	0.005142204	0.1417233	-0.9613543	0.01358101	-0.0432151
3.3e+08	0.007973629	0.01590913	0.09988933	-0.9660457	0.06042811	0.008796869	-0.01622112	-0.001057833
	0.09988933	-0.9660457	0.01202204	-0.04496416	-0.01622282	-0.001054619	0.05979044	0.002585111
	0.06042811	0.008796869	-0.01622282	-0.001054619	0.008046365	0.01597201	0.09918636	-0.9660999
	-0.01622112	-0.001057833	0.05979044	0.002585111	0.09918636	-0.9660999	0.01206191	-0.04505598
3.4e+08	0.008905131	0.01711949	0.05724393	-0.968944	0.06204916	0.00634089	-0.01675966	-0.0003686008
	0.05724393	-0.968944	0.01039458	-0.04672848	-0.0167615	-0.0003646365	0.06107402	-8.730441e-05
	0.06204916	0.00634089	-0.0167615	-0.0003646365	0.008987282	0.01718192	0.0565185	-0.9689684
	-0.01675966	-0.0003686008	0.06107402	-8.730451e-05	0.0565185	-0.9689684	0.01043413	-0.04682432
3.5e+08	0.009982432	0.01828916	0.0145484	-0.9699653	0.06353125	0.003756174	-0.01727039	0.0003678545
	0.0145484	-0.9699653	0.008663456	-0.04841263	-0.01727242	0.0003725949	0.0621959	-0.002864182
	0.06353125	0.003756174	-0.01727242	0.0003725948	0.01007445	0.01835039	0.01380089	-0.9699583
	-0.01727039	0.0003678545	0.0621959	-0.002864182	0.01380089	-0.9699583	0.008702748	-0.04851264
3.6e+08	0.01120439	0.01940273	-0.02811422	-0.9691121	0.06486634	0.001051277	-0.0177502	0.00115062
	-0.02811422	-0.9691121	0.006834524	-0.05000963	-0.01775226	0.001156211	0.06315013	-0.005734293
	0.06486634	0.001051277	-0.01775226	0.001156211	0.01130662	0.01946176	-0.02888159	-0.9690707
	-0.0177502	0.00115062	0.06315013	-0.005734293	-0.02888159	-0.9690707	0.006873472	-0.05011397
3.7e+08	0.01256882	0.02044491	-0.07066456	-0.9663881	0.06604677	-0.00176472	-0.01819564	0.001978678
	-0.07066456	-0.9663881	0.004913881	-0.05151284	-0.01819767	0.001985171	0.06393122	-0.00868623
	0.06604677	-0.00176472	-0.01819767	0.001985171	0.01268153	0.0205009	-0.071451	-0.9663117
	-0.01819564	0.001978678	0.06393122	-0.00868623	-0.071451	-0.9663117	0.004952373	-0.05162174
3.8e+08	0.01407138	0.02140031	-0.1130183	-0.9618027	0.06706568	-0.004682287	-0.0186035	0.002850681
	-0.1130183	-0.9618027	0.002908358	-0.05291632	-0.01860541	0.002858121	0.06453467	-0.01170817
	0.06706568	-0.004682287	-0.01860541	0.002858121	0.01419474	0.02145215	-0.1138213	-0.9616886
	-0.0186035	0.002850681	0.06453467	-0.01170817	-0.1138213	-0.9616886	0.002946328	-0.05302992
3.9e+08	0.01570689	0.02225419	-0.1550977	-0.9553686	0.06791675	-0.007691486	-0.01897049	0.003765136
	-0.1550977	-0.9553686	0.0008249044	-0.05421457	-0.01897211	0.003773553	0.06495691	-0.01478832
	0.06791675	-0.007691486	-0.01897211	0.003773553	0.015841	0.02230087	-0.1559164	-0.9552152
	-0.01897049	0.003765136	0.06495691	-0.01478832	-0.1559164	-0.9552152	0.0008621833	-0.05433301
4e+08	0.01746803	0.0229917	-0.196821	-0.9471012	0.06859428	-0.01078213	-0.01929345	0.00472025
	-0.196821	-0.9471012	-0.001328884	-0.05540275	-0.01929469	0.004729698	0.06519526	-0.0179149
	0.06859428	-0.01078213	-0.01929469	0.004729698	0.01761296	0.02303214	-0.1976534	-0.9469072
	-0.01929345	0.00472025	0.06519526	-0.0179149	-0.1976534	-0.9469072	-0.001292444	-0.05552618
4.1e+08	0.01934625	0.02359901	-0.2381091	-0.9370208	0.06909322	-0.01394353	-0.01956911	0.005713985
	-0.2381091	-0.9370208	-0.003545265	-0.05647659	-0.01956997	0.005724467	0.06524767	-0.02107576
	0.06909322	-0.01394353	-0.01956997	0.005724467	0.01950192	0.02363207	-0.2389522	-0.9367847
	-0.01956911	0.005713985	0.06524767	-0.02107576	-0.2389522	-0.9367847	-0.003509779	-0.05660511
4.2e+08	0.02133206	0.02406277	-0.278884	-0.925148	0.06940914	-0.01716519	-0.01979456	0.006744139
	-0.278884	-0.925148	-0.005816262	-0.05743241	-0.01979484	0.006755679	0.06511312	-0.02425907
	0.06940914	-0.01716519	-0.01979484	0.006755679	0.02149819	0.0240872	-0.2797367	-0.9248685
	-0.01979456	0.006744139	0.06511312	-0.02425907	-0.2797367	-0.9248685	-0.00578183	-0.05756617
4.3e+08	0.02341401	0.02437046	-0.3190689	-0.9115097	0.06953856	-0.02043607	-0.01996679	0.007808242
	-0.3190689	-0.9115097	-0.008133343	-0.05826729	-0.0199663	0.007820824	0.06479124	-0.02745305
	0.06953856	-0.02043607	-0.0199663	0.007820824	0.02359036	0.02438516	-0.3199281	-0.9111867
	-0.01996679	0.007808242	0.06479124	-0.02745305	-0.3199281	-0.9111867	-0.008100203	-0.05840634
4.4e+08	0.02557969	0.02451053	-0.3585884	-0.896136	0.06947841	-0.02374507	-0.02008285	0.008903585
	-0.3585884	-0.896136	-0.0104882	-0.05897884	-0.02008166	0.008917222	0.06428271	-0.03064629
	0.06947841	-0.02374507	-0.02008166	0.008917222	0.02576581	0.02451428	-0.3594516	-0.8957665
	-0.02008285	0.008903585	0.06428271	-0.03064629	-0.3594516	-0.8957665	-0.01045646	-0.05912329
4.5e+08	0.0278154	0.02447229	-0.3973676	-0.8790592	0.06922625	-0.0270811	-0.02014008	0.01002726
	-0.3973676	-0.8790592	-0.01287221	-0.0595658	-0.02013798	0.01004193	0.06358872	-0.03382725
	0.06922625	-0.0270811	-0.02013798	0.01004193	0.02801089	0.02446402	-0.3982325	-0.8786433
	-0.02014008	0.01002726	0.06358872	-0.03382725	-0.3982325	-0.8786433	-0.01284203	-0.05971568
4.6e+08	0.03010669	0.02424651	-0.4353344	-0.8603128	0.0687806	-0.03043263	-0.02013597	0.01117624
	-0.4353344	-0.8603128	-0.01527681	-0.06002669	-0.02013286	0.01119187	0.06271135	-0.03698508
	0.0687806	-0.03043263	-0.02013286	0.01119187	0.03031081	0.02422487	-0.4361985	-0.8598486
	-0.02013597	0.01117624	0.06271135	-0.03698508	-0.4361985	-0.8598486	-0.01524825	-0.06018227
4.7e+08	0.03243766	0.02382498	-0.4724174	-0.8399362	0.06814043	-0.03378863	-0.02006814	0.01234707
	-0.4724174	-0.8399362	-0.01769329	-0.06036175	-0.02006379	0.01236365	0.06165311	-0.04010873
	0.06814043	-0.03378863	-0.02006379	0.01236365	0.03264982	0.02378903	-0.4732795	-0.8394249
	-0.02006814	0.01234707	0.06165311	-0.04010873	-0.4732795	-0.8394249	-0.01766677	-0.06052302
4.8e+08	0.03479166	0.02320102	-0.5085469	-0.8179721	0.06730548	-0.03713769	-0.01993424	0.01353629
	-0.5085469	-0.8179721	-0.02011326	-0.06057112	-0.01992856	0.01355373	0.06041746	-0.04318802
	0.06730548	-0.03713769	-0.01992856	0.01355373	0.03501083	0.02314937	-0.5094029	-0.8174114
	-0.01993424	0.01353629	0.06041746	-0.04318802	-0.5094029	-0.8174114	-0.02008868	-0.06073829
4.9e+08	0.0371517	0.02236932	-0.5436579	-0.7944652	0.06627626	-0.0404686	-0.01973254	0.01474027
	-0.5436579	-0.7944652	-0.02252822	-0.06065614	-0.01972542	0.01475852	0.0590083	-0.04621285
	0.06627626	-0.0404686	-0.01972542	0.01475852	0.037377	0.02230105	-0.5445053	-0.7938547
	-0.01973254	0.01474027	0.0590083	-0.04621285	-0.5445053	-0.7938547	-0.02250581	-0.06082921
5e+08	0.03949961	0.02132578	-0.5776819	-0.7694605	0.06505355	-0.04377032	-0.01946111	0.01595517
	-0.5776819	-0.7694605	-0.02492997	-0.06061859	-0.01945245	0.01597411	0.05742996	-0.04917395
	0.06505355	-0.04377032	-0.01945245	0.01597411	0.03972998	0.02123999	-0.5785191	-0.7688005
	-0.01946111	0.01595517	0.05742996	-0.04917395	-0.5785191	-0.7688005	-0.02490996	-0.06079766
5.1e+08	0.04181712	0.02006841	-0.6105593	-0.7430085	0.06363911	-0.04703184	-0.01911836	0.01717698
	-0.6105593	-0.7430085	-0.02731037	-0.06046054	-0.01910806	0.01719655	0.05568737	-0.052062
	0.06363911	-0.04703184	-0.01910806	0.01719655	0.04205133	0.01996402	-0.6113824	-0.7422984
	-0.01911836	0.01717698	0.05568737	-0.052062	-0.6113824	-0.7422984	-0.02729283	-0.06064587
5.2e+08	0.04408556	0.01859609	-0.6422277	-0.7151623	0.06203545	-0.05024257	-0.01870304	0.0184016
