!$
! Info: Touchstone file created by Circ.  Input file=C2M_PCB_100ohms_5p0in_20230620_v3.circ
!$
# Hz S RI R 50
0	0.007924359	2.840546e-24	0.9920453	-2.623852e-24	0.0001490321	8.010467e-23	-0.0001453305	1.789981e-20
	0.9920453	-2.479212e-24	0.007743076	1.399082e-24	-0.0001426674	1.757367e-20	4.299153e-06	8.326316e-21
	0.0001490321	8.013886e-23	-0.0001426674	1.757346e-20	0.007927704	3.327198e-24	0.9920586	-2.542405e-24
	-0.0001453304	1.789984e-20	4.299131e-06	8.32639e-21	0.9920586	-2.559147e-24	0.007756503	1.836193e-24
1e+07	0.01123614	0.004261325	0.9853488	-0.08209477	0.0006532002	0.002834738	-0.0004341985	-0.0006117401
	0.9853488	-0.08209477	0.01127921	0.004252334	-0.0004322123	-0.0006123977	0.0004787011	0.002903001
	0.0006532002	0.002834738	-0.0004322123	-0.0006123977	0.01137753	0.004253578	0.9852193	-0.08212257
	-0.0004341985	-0.0006117401	0.0004787011	0.002903001	0.9852193	-0.08212257	0.01142064	0.004245765
2e+07	0.01412063	0.005900432	0.9728877	-0.1607949	0.001411367	0.005601296	-0.0005480026	-0.001248716
	0.9728877	-0.1607949	0.01468547	0.005704102	-0.0005466756	-0.001249156	0.001051991	0.005740073
	0.001411398	0.005601205	-0.0005466521	-0.001249204	0.01422762	0.005839301	0.9727771	-0.1607939
	-0.0005479765	-0.001248761	0.001052011	0.005740071	0.9727771	-0.1607939	0.01479329	0.005645147
3e+07	0.01633921	0.006361563	0.9549665	-0.2371858	0.002667931	0.008061781	-0.0007635835	-0.00173666
	0.9549665	-0.2371858	0.01764375	0.005789862	-0.0007625109	-0.001736808	0.001965159	0.008338263
	0.002667919	0.008061773	-0.0007625188	-0.001736805	0.01641772	0.006282132	0.9548692	-0.2371853
	-0.0007635925	-0.001736656	0.00196515	0.00833828	0.9548692	-0.2371853	0.01772463	0.005713466
4e+07	0.01812561	0.006329653	0.931476	-0.3114743	0.004382377	0.01022965	-0.001069822	-0.002150043
	0.931476	-0.3114743	0.02035332	0.005165803	-0.001068809	-0.002149846	0.003200783	0.01075817
	0.004382378	0.01022965	-0.001068811	-0.002149843	0.01817916	0.006242251	0.9313879	-0.311482
	-0.001069823	-0.00215004	0.003200779	0.01075817	0.9313879	-0.311482	0.02041065	0.005081584
5e+07	0.0195717	0.006004992	0.9024886	-0.3833889	0.006570701	0.01203528	-0.001517305	-0.002466206
	0.9024886	-0.3833889	0.0228665	0.003996019	-0.001516183	-0.002465673	0.004792599	0.01293869
	0.006570701	0.01203528	-0.001516184	-0.002465673	0.01960297	0.005915979	0.9024053	-0.3834092
	-0.001517307	-0.002466205	0.004792596	0.01293869	0.9024053	-0.3834092	0.02290341	0.003909768
6e+07	0.02072698	0.005502322	0.8681592	-0.452585	0.009077947	0.01344292	-0.002000264	-0.002713148
	0.8681592	-0.452585	0.02518053	0.002359651	-0.001998937	-0.002712356	0.006619092	0.01488996
	0.009077946	0.01344292	-0.001998935	-0.002712356	0.02073921	0.005416416	0.8680765	-0.4526208
	-0.002000262	-0.002713148	0.006619096	0.01488996	0.8680765	-0.4526208	0.02519954	0.002275255
7e+07	0.02162669	0.004902078	0.8286913	-0.5187007	0.01184165	0.0144055	-0.002512372	-0.002890901
	0.8286913	-0.5187007	0.02727104	0.0003116353	-0.002510796	-0.00288993	0.008649381	0.01658866
	0.01184165	0.0144055	-0.002510793	-0.002889931	0.02162292	0.004822761	0.8286043	-0.5187534
	-0.002512371	-0.002890903	0.008649383	0.01658866	0.8286043	-0.5187534	0.02727492	0.0002323385
8e+07	0.02230451	0.004267094	0.7843282	-0.5813795	0.01479154	0.01488465	-0.003046596	-0.002999203
	0.7843282	-0.5813795	0.02910643	-0.002099367	-0.003044728	-0.002998098	0.01084785	0.01801574
	0.01479154	0.01488465	-0.00304473	-0.002998096	0.02228798	0.004197059	0.7842321	-0.5814494
	-0.003046597	-0.0029992	0.01084785	0.01801575	0.7842321	-0.5814494	0.02909808	-0.002170871
9e+07	0.02279727	0.003647729	0.7353422	-0.6402777	0.01785157	0.01485196	-0.003595448	-0.003037587
	0.7353422	-0.6402777	0.03065511	-0.004824206	-0.003593259	-0.003036419	0.01317565	0.01915735
	0.01785157	0.01485196	-0.003593261	-0.003036409	0.02277184	0.003589281	0.7352325	-0.6403653
	-0.003595447	-0.003037578	0.01317565	0.01915736	0.7352325	-0.6403653	0.03063764	-0.004885738
1e+08	0.0231536	0.003090834	0.6820256	-0.6950805	0.02093916	0.01428569	-0.004148089	-0.00300246
	0.6820256	-0.6950805	0.0318977	-0.007804363	-0.004145579	-0.003001323	0.01558865	0.02000319
	0.02093916	0.01428569	-0.004145579	-0.003001324	0.02312519	0.00304673	0.6818947	-0.6951861
	-0.004148088	-0.003002461	0.01558865	0.02000319	0.6818947	-0.6951861	0.03187537	-0.007852976
1.1e+08	0.0234336	0.002567657	0.6246877	-0.7454052	0.02395716	0.01320254	-0.004689646	-0.002918378
	0.6246877	-0.7454052	0.03283882	-0.01107985	-0.004685989	-0.002918743	0.01804569	0.02057608
	0.02395716	0.01320254	-0.004685988	-0.002918744	0.02341199	0.002541519	0.624529	-0.7455175
	-0.004689645	-0.002918379	0.01804569	0.02057608	0.624529	-0.7455175	0.03288343	-0.01111477
1.2e+08	0.02360532	0.002107229	0.5637593	-0.7910038	0.02685081	0.01160802	-0.005239737	-0.002781407
	0.5637593	-0.7910038	0.03335645	-0.01452401	-0.005236454	-0.002782576	0.02053086	0.02086508
	0.02685081	0.01160802	-0.005236454	-0.002782578	0.02359103	0.002086279	0.5635729	-0.7911192
	-0.005239737	-0.002781409	0.02053086	0.02086508	0.5635729	-0.7911192	0.03341447	-0.01458164
1.3e+08	0.02371774	0.001738497	0.4996054	-0.8316412	0.0295375	0.009514998	-0.005791751	-0.002586161
	0.4996054	-0.8316412	0.03346635	-0.01807118	-0.005788999	-0.002587336	0.02300232	0.02087366
	0.0295375	0.009514999	-0.005788999	-0.002587337	0.02370813	0.001717389	0.4993892	-0.8317538
	-0.005791751	-0.002586162	0.02300232	0.02087366	0.4993892	-0.8317538	0.03351011	-0.01814442
1.4e+08	0.02381336	0.001468035	0.4326159	-0.867097	0.0319403	0.006952634	-0.006341051	-0.002330949
	0.4326159	-0.867097	0.03317003	-0.02166778	-0.006338514	-0.002331788	0.02542424	0.02061409
	0.0319403	0.006952634	-0.006338514	-0.002331789	0.02380565	0.001445326	0.4323706	-0.867204
	-0.006341051	-0.00233095	0.02542424	0.02061409	0.4323706	-0.867204	0.033193	-0.02174329
1.5e+08	0.02393087	0.001289962	0.3632018	-0.8971851	0.03398692	0.003961596	-0.006882992	-0.002014901
	0.3632018	-0.8971851	0.03246989	-0.02526025	-0.006880339	-0.0020154	0.02776414	0.02010342
	0.03398692	0.003961597	-0.00688034	-0.0020154	0.02392362	0.001266064	0.3629272	-0.8972811
	-0.006882993	-0.002014902	0.02776414	0.02010342	0.3629272	-0.8972811	0.03247494	-0.0253287
1.6e+08	0.02410484	0.001188814	0.2917838	-0.9217462	0.03561141	0.0005929159	-0.007412965	-0.001637535
	0.2917838	-0.9217462	0.03137284	-0.02879454	-0.007410013	-0.001637844	0.02999362	0.01936335
	0.03561141	0.0005929162	-0.007410014	-0.001637844	0.0240977	0.001164516	0.2914807	-0.9218271
	-0.007412965	-0.001637536	0.02999362	0.01936335	0.2914807	-0.9218271	0.03136589	-0.02885131
1.7e+08	0.02436325	0.00114149	0.2187958	-0.9406538	0.03675536	-0.003092835	-0.007926241	-0.001198572
	0.2187958	-0.9406538	0.02989237	-0.03221741	-0.0079229	-0.001198894	0.03208853	0.01841907
	0.03675536	-0.003092835	-0.0079229	-0.001198894	0.02435675	0.001117309	0.2184657	-0.9407156
	-0.007926241	-0.001198572	0.03208853	0.01841907	0.2184657	-0.9407156	0.02987931	-0.0322614
1.8e+08	0.02472797	0.00111887	0.1446784	-0.953816	0.03736938	-0.007027012	-0.008418113	-0.000697813
	0.1446784	-0.953816	0.02804922	-0.03547775	-0.008414418	-0.0006983188	0.03402968	0.0172985
	0.03736938	-0.007027012	-0.008414418	-0.0006983191	0.02472276	0.001094843	0.1443228	-0.953856
	-0.008418113	-0.0006978133	0.03402968	0.0172985	0.1443228	-0.953856	0.02803493	-0.03550988
1.9e+08	0.02521246	0.001087695	0.06987802	-0.9611746	0.03741412	-0.01113414	-0.008883577	-0.000135155
	0.06987802	-0.9611746	0.02587094	-0.03852811	-0.008879608	-0.0001359809	0.0358031	0.01603172
	0.03741412	-0.01113414	-0.008879609	-0.0001359811	0.02520958	0.001063229	0.0694983	-0.9611875
	-0.008883577	-0.0001351551	0.0358031	0.01603172	0.0694983	-0.9611875	0.02585886	-0.0385502
2e+08	0.0258229	0.001011838	-0.005158848	-0.9627039	0.03686053	-0.01533312	-0.00931737	0.000489402
	-0.005158848	-0.9627039	0.02339127	-0.04132558	-0.00931325	0.0004881759	0.03739982	0.01464941
	0.03686053	-0.01533312	-0.00931325	0.0004881757	0.02582283	0.0009859928	-0.005559271	-0.9626872
	-0.00931737	0.0004894019	0.03739982	0.01464941	-0.005559271	-0.9626872	0.02338372	-0.04134
2.1e+08	0.02655688	0.0008538469	-0.07998042	-0.9584137	0.03569136	-0.01953907	-0.009713791	0.001175626
	-0.07998042	-0.9584137	0.02064999	-0.04383264	-0.009709633	0.001173958	0.03881635	0.01318279
	0.03569136	-0.01953907	-0.009709633	0.001173958	0.02655989	0.0008254838	-0.08039995	-0.9583634
	-0.009713791	0.001175626	0.03881635	0.01318279	-0.08039995	-0.9583634	0.02064831	-0.0438415
2.2e+08	0.02740353	0.0005769832	-0.1541428	-0.9483472	0.03390119	-0.02366483	-0.01006681	0.001922981
	-0.1541428	-0.9483472	0.01769109	-0.04601835	-0.01006273	0.001920887	0.04005478	0.01166242
	0.03390119	-0.02366483	-0.01006273	0.001920887	0.02740951	0.0005448345	-0.1545785	-0.9482614
	-0.01006681	0.00192298	0.04005478	0.01166242	-0.1545785	-0.9482614	0.01769581	-0.04602379
2.3e+08	0.02834399	0.0001465296	-0.2272065	-0.9325822	0.03149653	-0.02762221	-0.01036982	0.002730468
	-0.2272065	-0.9325822	0.0145621	-0.04785875	-0.0103659	0.002727972	0.04112119	0.01011665
	0.03149653	-0.02762221	-0.0103659	0.002727972	0.02835248	0.0001092737	-0.2276542	-0.9324584
	-0.01036982	0.002730468	0.04112119	0.01011665	-0.2276542	-0.9324584	0.01457359	-0.04786226
2.4e+08	0.0293518	-0.0004692896	-0.2987356	-0.9112269	0.02849627	-0.03132426	-0.01061586	0.00359653
	-0.2987356	-0.9112269	0.01131383	-0.04933662	-0.01061219	0.003593673	0.04202721	0.008572327
	0.02849627	-0.03132426	-0.01061219	0.003593673	0.02936201	-0.0005127009	-0.2991927	-0.9110617
	-0.01061586	0.00359653	0.04202721	0.008572327	-0.2991927	-0.9110617	0.01133205	-0.04933936
2.5e+08	0.03039328	-0.001296482	-0.3683108	-0.8844252	0.02493113	-0.03468655	-0.01079753	0.004518865
	-0.3683108	-0.8844252	0.007998117	-0.05044273	-0.01079417	0.004515736	0.04278831	0.007052815
	0.02493113	-0.03468655	-0.01079417	0.004515736	0.03040427	-0.001347191	-0.3687733	-0.8842166
	-0.01079753	0.004518865	0.04278831	0.007052815	-0.3687733	-0.8842166	0.008022902	-0.05044573
2.6e+08	0.03142886	-0.002355401	-0.4355199	-0.8523501	0.02084355	-0.03762903	-0.01090737	0.005494415
	-0.4355199	-0.8523501	0.004667277	-0.05117547	-0.01090438	0.005491058	0.04342333	0.005577874
	0.02084355	-0.03762903	-0.01090438	0.005491058	0.03143935	-0.00241416	-0.4359832	-0.8520976
	-0.01090737	0.005494415	0.04342333	0.005577874	-0.4359832	-0.8520976	0.004698871	-0.05117942
2.7e+08	0.03241426	-0.003659005	-0.499969	-0.8152063	0.01628659	-0.04007696	-0.01093739	0.006519102
	-0.499969	-0.8152063	0.001373355	-0.05154056	-0.01093473	0.006515549	0.04395404	0.004163051
	0.01628659	-0.04007696	-0.01093473	0.006515549	0.03242292	-0.003726454	-0.5004304	-0.814907
	-0.01093739	0.006519102	0.04395404	0.004163051	-0.5004304	-0.814907	0.001411579	-0.05154611
2.8e+08	0.03330141	-0.005211545	-0.5612798	-0.7732262	0.01132362	-0.04196322	-0.01087972	0.007587849
	-0.5612798	-0.7732262	-0.001833582	-0.0515513	-0.01087748	0.007584232	0.04440464	0.002819566
	0.01132362	-0.04196322	-0.01087748	0.007584232	0.03330663	-0.005288233	-0.5617331	-0.77288
	-0.01087972	0.007587849	0.04440464	0.002819566	-0.5617331	-0.77288	-0.001788198	-0.05155901
2.9e+08	0.03404051	-0.00700863	-0.6190929	-0.726672	0.006027086	-0.04322866	-0.01072627	0.008694336
	-0.6190929	-0.726672	-0.004906217	-0.05122806	-0.0107245	0.008690708	0.04479979	0.001553284
	0.006027086	-0.04322866	-0.0107245	0.008690708	0.03404062	-0.007094474	-0.6195347	-0.7262787
	-0.01072627	0.008694336	0.04479979	0.001553284	-0.6195347	-0.7262787	-0.004853657	-0.05123878
3e+08	0.03458136	-0.009036383	-0.6730721	-0.6758312	0.0004773542	-0.04382415	-0.01046979	0.009831374
	-0.6730721	-0.6758312	-0.007800955	-0.05059778	-0.0104684	0.009827772	0.04516527	0.0003655446
	0.0004773542	-0.04382415	-0.0104684	0.009827772	0.0345746	-0.009131491	-0.6734972	-0.6753898
	-0.01046979	0.009831374	0.04516527	0.0003655445	-0.6734972	-0.6753898	-0.007740908	-0.05061228
3.1e+08	0.03487501	-0.01127145	-0.7229007	-0.6210145	-0.005238559	-0.04371108	-0.01010274	0.01099018
	-0.7229007	-0.6210145	-0.01047847	-0.04969317	-0.01010175	0.01098668	0.04552617	-0.0007474053
	-0.005238559	-0.04371108	-0.01010175	0.01098668	0.03485949	-0.01137555	-0.7233037	-0.6205248
	-0.01010274	0.01099018	0.04552617	-0.0007474054	-0.7233037	-0.6205248	-0.01041048	-0.04971226
3.2e+08	0.03487571	-0.01368136	-0.7682901	-0.5625554	-0.01102839	-0.04286227	-0.009618552	0.01216104
	-0.7682901	-0.5625554	-0.01290518	-0.04855216	-0.009618036	0.01215781	0.04590633	-0.001794202
	-0.01102839	-0.04286227	-0.009618036	0.01215781	0.03484952	-0.01379361	-0.7686653	-0.5620203
	-0.009618553	0.01216104	0.04590633	-0.001794203	-0.7686653	-0.5620203	-0.01282923	-0.04857717
3.3e+08	0.03454226	-0.01622445	-0.8089752	-0.5008138	-0.01679619	-0.04126267	-0.00901125	0.01333282
	-0.8089752	-0.5008138	-0.01505336	-0.04721744	-0.00901112	0.01332988	0.04632747	-0.002788026
	-0.01679619	-0.04126267	-0.00901112	0.01332988	0.03450362	-0.01634394	-0.8093191	-0.5002319
	-0.00901125	0.01333282	0.04632747	-0.002788026	-0.8093191	-0.5002319	-0.01496957	-0.04724939
3.4e+08	0.03383986	-0.01885137	-0.8447218	-0.4361602	-0.02244398	-0.03890992	-0.008275996	0.01449343
	-0.8447218	-0.4361602	-0.01690226	-0.04573462	-0.0082762	0.01449093	0.04680867	-0.003746108
	-0.02244398	-0.03890992	-0.0082762	0.01449093	0.03378695	-0.0189767	-0.845029	-0.4355355
	-0.008275996	0.01449343	0.04680867	-0.003746108	-0.845029	-0.4355355	-0.01681081	-0.04577488
3.5e+08	0.03274149	-0.02150539	-0.8753227	-0.3689885	-0.027873	-0.03581436	-0.007408923	0.01562951
	-0.8753227	-0.3689885	-0.01843808	-0.04415199	-0.007409454	0.01562761	0.04736494	-0.004689307
	-0.027873	-0.03581436	-0.007409454	0.01562761	0.0326727	-0.02163495	-0.8755892	-0.3683224
	-0.007408923	0.01562951	0.04736494	-0.004689307	-0.8755892	-0.3683224	-0.01833934	-0.04420177
3.6e+08	0.03122922	-0.02412395	-0.9006028	-0.2997061	-0.03298607	-0.03199925	-0.00640771	0.01672692
	-0.9006028	-0.2997061	-0.01965427	-0.0425192	-0.006408418	0.01672567	0.04800785	-0.005641456
	-0.03298607	-0.03199925	-0.006408418	0.01672567	0.03114303	-0.02425566	-0.9008226	-0.2990018
	-0.00640771	0.01672692	0.04800785	-0.005641456	-0.9008226	-0.2990018	-0.01954886	-0.04257976
3.7e+08	0.02929497	-0.02664063	-0.9204172	-0.2287294	-0.03768861	-0.02750039	-0.005271359	0.01777047
	-0.9204172	-0.2287294	-0.02055185	-0.04088579	-0.005272114	0.01776996	0.04874397	-0.006628578
	-0.03768861	-0.02750039	-0.005272114	0.01776996	0.02919023	-0.02677225	-0.9205873	-0.2279897
	-0.005271359	0.01777047	0.04874397	-0.006628578	-0.9205873	-0.2279897	-0.02044066	-0.04095831
3.8e+08	0.02694188	-0.0289858	-0.9346541	-0.1564902	-0.04189072	-0.02236603	-0.004000723	0.01874441
	-0.9346541	-0.1564902	-0.02113916	-0.03930089	-0.004001371	0.01874474	0.04957513	-0.007678135
	-0.04189072	-0.02236603	-0.004001371	0.01874474	0.02681769	-0.02911461	-0.9347691	-0.1557193
	-0.004000723	0.01874441	0.04957513	-0.007678135	-0.9347691	-0.1557193	-0.02102312	-0.03938644
3.9e+08	0.02418429	-0.03108964	-0.9432366	-0.08342224	-0.0455084	-0.01665603	-0.002598414	0.01963248
	-0.9432366	-0.08342224	-0.02143196	-0.03781116	-0.002598756	0.01963361	0.05049802	-0.008818138
	-0.0455084	-0.01665603	-0.002598756	0.01963361	0.02404016	-0.03121285	-0.943293	-0.08262339
	-0.002598414	0.01963248	0.05049802	-0.008818138	-0.943293	-0.08262339	-0.02131223	-0.03791064
4e+08	0.0210485	-0.0328827	-0.94612	-0.009968516	-0.0484653	-0.01044107	-0.001069105	0.02041822
	-0.94612	-0.009968516	-0.02145256	-0.03646061	-0.001068921	0.02042017	0.0515042	-0.01007655
	-0.0484653	-0.01044107	-0.001068921	0.02042017	0.0208843	-0.03299731	-0.9461142	-0.009146319
	-0.001069105	0.02041822	0.0515042	-0.01007655	-0.9461142	-0.009146319	-0.02133043	-0.03657481
4.1e+08	0.0175725	-0.034299	-0.9432956	0.06342721	-0.05069386	-0.003801893	0.000580465	0.02108496
	-0.9432956	0.06342721	-0.0212298	-0.03528899	0.0005813581	0.02108781	0.05257983	-0.01147979
	-0.05069386	-0.003801893	0.0005813581	0.02108781	0.01738861	-0.03440186	-0.9432242	0.06426681
	0.000580465	0.02108496	0.05257983	-0.01147979	-0.9432242	0.06426681	-0.02110664	-0.03541859
4.2e+08	0.01380506	-0.03527755	-0.9347868	0.1363221	-0.05213685	0.003172416	0.002341407	0.02161662
	-0.9347868	0.1363221	-0.02079796	-0.03433124	0.002343271	0.02162022	0.05370649	-0.01305248
	-0.05213685	0.003172416	0.002343271	0.02162022	0.01360239	-0.03536534	-0.9346471	0.1371747
	0.002341407	0.02161662	0.05370649	-0.01305248	-0.9346471	0.1371747	-0.02067516	-0.03447667
4.3e+08	0.009806027	-0.03576397	-0.920654	0.2082758	-0.05274843	0.01038502	0.004202634	0.02199747
	-0.920654	0.2082758	-0.02019595	-0.03361659	0.004205696	0.02200163	0.05486089	-0.01481639
	-0.05274843	0.01038502	0.004205696	0.02200163	0.00958596	-0.03583362	-0.9204445	0.2091348
	0.004202634	0.02199747	0.05486089	-0.01481639	-0.9204445	0.2091348	-0.02007519	-0.03377806
4.4e+08	0.005644519	-0.03571264	-0.900992	0.2788544	-0.05249479	0.01773327	0.006150875	0.0222126
	-0.900992	0.2788544	-0.01946687	-0.03316779	0.006155357	0.02221734	0.05601603	-0.01678991
	-0.05249479	0.01773327	0.006155357	0.02221734	0.005409	-0.03576102	-0.9007092	0.2797137
	0.006150875	0.0222126	0.05601603	-0.01678991	-0.9007092	0.2797137	-0.0193496	-0.03334547
4.5e+08	0.001397942	-0.03508792	-0.8759288	0.3476315	-0.05135503	0.02511028	0.008170723	0.02224846
	-0.8759288	0.3476315	-0.01865652	-0.03300123	0.008176837	0.02225348	0.05714111	-0.01898679
	-0.05135503	0.02511028	0.008176837	0.02225348	0.001149312	-0.03511227	-0.8755722	0.348485
	0.008170723	0.02224846	0.05714111	-0.01898679	-0.8755722	0.348485	-0.01854434	-0.03319487
4.6e+08	-0.002849931	-0.03386609	-0.8456234	0.4141938	-0.04932195	0.03240607	0.01024482	0.02209299
	-0.8456234	0.4141938	-0.0178124	-0.03312529	0.01025274	0.02209804	0.0582029	-0.02141649
	-0.04932195	0.03240607	0.01025274	0.02209804	-0.003108642	-0.03386366	-0.8451914	0.4150349
	0.01024482	0.02209299	0.0582029	-0.02141649	-0.8451914	0.4150349	-0.01770673	-0.03333478
4.7e+08	-0.007010061	-0.03203591	-0.81027	0.4781404	-0.04640199	0.03951015	0.01235378	0.02173593
	-0.81027	0.4781404	-0.01698276	-0.03354196	0.01236366	0.02174061	0.05916577	-0.02408264
	-0.04640199	0.03951015	0.01236366	0.02174061	-0.0072756	-0.03200465	-0.809764	0.4789638
	0.01235378	0.02173593	0.05916577	-0.02408264	-0.809764	0.4789638	-0.01688534	-0.03376651
4.8e+08	-0.01099069	-0.02959996	-0.7700938	0.5390873	-0.04261557	0.04631248	0.01447669	0.02116901
	-0.7700938	0.5390873	-0.01621565	-0.03424496	0.0144886	0.02117298	0.05999332	-0.02698389
	-0.04261557	0.04631248	0.0144886	0.02117298	-0.01125904	-0.02953783	-0.7695126	0.539885
	0.01447669	0.02116901	0.05999332	-0.02698389	-0.7695126	0.539885	-0.01612763	-0.03448412
4.9e+08	-0.01469971	-0.02657483	-0.7253488	0.596673	-0.03799696	0.05270572	0.0165913	0.02038674
	-0.7253488	0.596673	-0.01555707	-0.03522138	0.01660529	0.02038961	0.06064889	-0.0301128
	-0.03799696	0.05270572	0.01660529	0.02038961	-0.01496676	-0.02648072	-0.7246935	0.597438
	0.0165913	0.02038674	0.06064889	-0.0301128	-0.7246935	0.597438	-0.01547981	-0.03547417
5e+08	-0.01804595	-0.02299126	-0.6763147	0.6505512	-0.03259347	0.0585868	0.0186742	0.01938585
	-0.6763147	0.6505512	-0.01505083	-0.03645148	0.01869022	0.01938724	0.06109623	-0.03345678
	-0.03259347	0.0585868	0.01869022	0.01938724	-0.01830723	-0.02286459	-0.6755874	0.6512781
	0.0186742	0.01938585	0.06109623	-0.03345678	-0.6755874	0.6512781	-0.01498548	-0.03671684
5.1e+08	-0.02094239	-0.01889464	-0.6232995	0.7004067	-0.02646556	0.06385861	0.02070124	0.01816602
	-0.6232995	0.7004067	-0.01473656	-0.03790855	0.0207192	0.0181655	0.06130089	-0.03699704
	-0.02646556	0.06385861	0.0207192	0.0181655	-0.02119318	-0.01873525	-0.6225021	0.7010875
	0.02070124	0.01816602	0.06130089	-0.03699704	-0.6225021	0.7010875	-0.0146841	-0.03818557
5.2e+08	-0.02330776	-0.01434332	-0.5666352	0.7459451	-0.01968568	0.06843187	0.02264798	0.01672995
