!$
! Info: Touchstone file created by Circ.  Input file=C2M_PCB_100ohms_4p5in_20230620_v3.circ
!$
# Hz S RI R 50
0	0.00741289	2.704364e-24	0.9925567	-2.479114e-24	0.0001464769	7.749707e-23	-0.0001427734	1.757807e-20
	0.9925567	-2.334404e-24	0.007231638	1.248322e-24	-0.000140109	1.725178e-20	1.738878e-06	8.312167e-21
	0.000146477	7.753129e-23	-0.000140109	1.725157e-20	0.007416238	3.196964e-24	0.99257	-2.408991e-24
	-0.0001427734	1.75781e-20	1.738856e-06	8.312241e-21	0.99257	-2.425739e-24	0.007245051	1.698244e-24
1e+07	0.01048576	0.003976195	0.986483	-0.07707353	0.0006040386	0.002756273	-0.0004084261	-0.0006102229
	0.986483	-0.07707353	0.01051668	0.003976401	-0.0004064337	-0.0006108652	0.0004428435	0.00282156
	0.0006040386	0.002756273	-0.0004064337	-0.0006108652	0.0106196	0.003969822	0.9863612	-0.07710243
	-0.0004084261	-0.0006102229	0.0004428435	0.00282156	0.9863612	-0.07710243	0.01065056	0.003971082
2e+07	0.01314204	0.005527318	0.9753595	-0.1510551	0.00129105	0.00545278	-0.0005177004	-0.001239687
	0.9753595	-0.1510551	0.01366282	0.005362608	-0.0005163582	-0.001240109	0.00098109	0.005575281
	0.001291083	0.005452689	-0.0005163342	-0.001240157	0.01324413	0.005471076	0.9752545	-0.1510586
	-0.000517674	-0.001239732	0.0009811107	0.005575279	0.9752545	-0.1510586	0.01376572	0.005308329
3e+07	0.01517518	0.005996024	0.9594419	-0.2230039	0.002432005	0.007880658	-0.0007230513	-0.001731666
	0.9594419	-0.2230039	0.01639097	0.005497902	-0.0007219578	-0.001731799	0.001834402	0.008110573
	0.002431994	0.00788065	-0.0007219657	-0.001731796	0.01525106	0.005922683	0.9593486	-0.2230093
	-0.0007230604	-0.001731663	0.001834393	0.00811059	0.9593486	-0.2230093	0.01646919	0.005427312
4e+07	0.01680669	0.006017939	0.9386086	-0.2931585	0.003994152	0.01005928	-0.001014282	-0.002156061
	0.9386086	-0.2931585	0.0188953	0.004994859	-0.001013248	-0.002155853	0.002988723	0.01048816
	0.003994152	0.01005928	-0.001013249	-0.002155851	0.0168596	0.005937022	0.9385233	-0.2931728
	-0.001014283	-0.002156059	0.002988719	0.01048816	0.9385233	-0.2931728	0.01895203	0.004916774
5e+07	0.01812529	0.005776502	0.9129016	-0.3613092	0.00599774	0.01193147	-0.001437753	-0.002494588
	0.9129016	-0.3613092	0.0212333	0.004004234	-0.001436614	-0.002494049	0.004478057	0.0126561
	0.00599774	0.01193147	-0.001436616	-0.002494049	0.01815763	0.005693827	0.9128203	-0.3613366
	-0.001437755	-0.002494587	0.004478054	0.0126561	0.9128203	-0.3613366	0.02127142	0.003923907
6e+07	0.01917813	0.005375336	0.8824364	-0.4271755	0.008309694	0.01346531	-0.001898412	-0.002770669
	0.8824364	-0.4271755	0.02340913	0.002595715	-0.001897079	-0.002769875	0.006195452	0.01462205
	0.008309693	0.01346531	-0.001897077	-0.002769875	0.01919282	0.00529526	0.8823551	-0.4272186
	-0.001898411	-0.00277067	0.006195455	0.01462204	0.8823551	-0.4272186	0.0234309	0.002516633
7e+07	0.01999771	0.004886705	0.8473691	-0.4904576	0.01088121	0.01461844	-0.002390996	-0.002983758
	0.8473691	-0.4904576	0.02540546	0.0008154632	-0.002389429	-0.002982788	0.008116027	0.01636395
	0.01088121	0.01461844	-0.002389427	-0.00298279	0.01999743	0.004812451	0.8472833	-0.4905177
	-0.002390994	-0.002983761	0.00811603	0.01636395	0.8472833	-0.4905177	0.02541336	0.0007405678
8e+07	0.0206141	0.004367308	0.8078893	-0.5508572	0.01365676	0.01535462	-0.002909416	-0.003132962
	0.8078893	-0.5508572	0.02719698	-0.001297028	-0.00290758	-0.003131857	0.01021046	0.01786295
	0.01365676	0.01535462	-0.002907582	-0.003131855	0.02060171	0.004301417	0.8077945	-0.5509349
	-0.002909418	-0.00313296	0.01021045	0.01786295	0.8077945	-0.5509349	0.02719357	-0.00136526
9e+07	0.02105965	0.00386322	0.7642095	-0.6080841	0.01657572	0.01564476	-0.003447042	-0.00321715
	0.7642095	-0.6080841	0.02875709	-0.003702422	-0.003444912	-0.003215973	0.01244627	0.01910405
	0.01657572	0.01564476	-0.003444914	-0.003215964	0.0210386	0.003807974	0.7641018	-0.6081799
	-0.003447042	-0.003217141	0.01244627	0.01910406	0.7641018	-0.6081799	0.02874512	-0.003761943
1e+08	0.02137725	0.003418779	0.7165585	-0.6618708	0.01957143	0.01546376	-0.003994258	-0.00323219
	0.7165585	-0.6618708	0.03006905	-0.006352522	-0.003991835	-0.003231027	0.01478592	0.02007461
	0.01957143	0.01546376	-0.003991835	-0.003231028	0.02135292	0.003377085	0.7164305	-0.6619854
	-0.003994258	-0.003232191	0.01478592	0.02007461	0.7164305	-0.6619854	0.03005228	-0.006400422
1.1e+08	0.02162333	0.003009603	0.6651733	-0.7118826	0.02256208	0.01481902	-0.004536371	-0.003198958
	0.6651733	-0.7118826	0.03114209	-0.009293446	-0.004532744	-0.003199239	0.01719262	0.02079165
	0.02256208	0.01481902	-0.004532744	-0.003199241	0.02160427	0.002986048	0.6650185	-0.7120054
	-0.00453637	-0.003198959	0.01719262	0.02079165	0.6650185	-0.7120054	0.03119214	-0.009328401
1.2e+08	0.02176576	0.002660343	0.6104064	-0.7579001	0.02550438	0.01370783	-0.005090675	-0.003114863
	0.6104064	-0.7579001	0.03185712	-0.01241528	-0.005087406	-0.003115961	0.01965397	0.02124217
	0.02550438	0.01370783	-0.005087406	-0.003115963	0.02175363	0.002642581	0.6102248	-0.7580281
	-0.005090675	-0.003114864	0.01965397	0.02124216	0.6102248	-0.7580281	0.03192058	-0.0124737
1.3e+08	0.02184771	0.002401274	0.5525468	-0.7997145	0.02832864	0.01213135	-0.005651244	-0.002974602
	0.5525468	-0.7997145	0.03222687	-0.01566429	-0.005648537	-0.002975722	0.02213283	0.02142445
	0.02832864	0.01213135	-0.005648537	-0.002975723	0.02184046	0.002383856	0.5523357	-0.7998423
	-0.005651244	-0.002974603	0.02213283	0.02142445	0.5523357	-0.7998423	0.03227605	-0.01573911
1.4e+08	0.02190774	0.002242366	0.4919045	-0.837125	0.03096853	0.01010424	-0.006213665	-0.002776353
	0.4919045	-0.837125	0.03224884	-0.01899829	-0.006211228	-0.002777127	0.02459656	0.02134467
	0.03096853	0.01010424	-0.006211229	-0.002777128	0.02190276	0.002223612	0.4916645	-0.8372498
	-0.006213665	-0.002776354	0.02459656	0.02134467	0.4916645	-0.8372498	0.03227713	-0.01907619
1.5e+08	0.02198207	0.002182411	0.4288085	-0.8699564	0.03336	0.007650409	-0.006773455	-0.002519144
	0.4288085	-0.8699564	0.03191966	-0.02237435	-0.006770961	-0.002519536	0.02701462	0.02101312
	0.03336	0.007650409	-0.006770962	-0.002519537	0.0219779	0.002162594	0.428539	-0.8700734
	-0.006773455	-0.002519145	0.02701462	0.02101312	0.428539	-0.8700734	0.03192982	-0.02244604
1.6e+08	0.02210443	0.002211606	0.3635966	-0.8980535	0.03544261	0.004802307	-0.007326182	-0.002202465
	0.3635966	-0.8980535	0.03123873	-0.02574812	-0.00732344	-0.002202603	0.02935922	0.02044432
	0.03544261	0.004802307	-0.00732344	-0.002202604	0.02210062	0.00219149	0.363298	-0.8981587
	-0.007326183	-0.002202466	0.02935922	0.02044432	0.363298	-0.8981587	0.03123658	-0.02580897
1.7e+08	0.02230373	0.002312895	0.2966187	-0.9212851	0.03716039	0.001600518	-0.007867363	-0.001826069
	0.2966187	-0.9212851	0.03021042	-0.02907476	-0.007864263	-0.001826136	0.03160546	0.01965611
	0.03716039	0.001600518	-0.007864263	-0.001826137	0.02230071	0.002293104	0.296292	-0.9213747
	-0.007867363	-0.001826069	0.03160546	0.01965611	0.296292	-0.9213747	0.03020173	-0.02912368
1.8e+08	0.02260461	0.002463391	0.2282322	-0.9395469	0.03846311	-0.001907163	-0.008392642	-0.001389848
	0.2282322	-0.9395469	0.02884498	-0.03231008	-0.008389201	-0.001390006	0.03373194	0.01866916
	0.03846311	-0.001907163	-0.008389201	-0.001390006	0.02260303	0.002444107	0.2278786	-0.9396184
	-0.008392642	-0.001389848	0.03373194	0.01866916	0.2278786	-0.9396184	0.02883447	-0.03234795
1.9e+08	0.02302516	0.002635562	0.1588012	-0.9527602	0.03930711	-0.005666442	-0.008897505	-0.0008937981
	0.1588012	-0.9527602	0.02715825	-0.03541177	-0.008893783	-0.0008941761	0.03572111	0.01750668
	0.03930711	-0.005666442	-0.008893783	-0.0008941763	0.0230261	0.002616428	0.1584214	-0.9528084
	-0.008897505	-0.0008937983	0.03572111	0.01750668	0.1584214	-0.9528084	0.02714921	-0.03544038
2e+08	0.02357794	0.002798354	0.08869142	-0.9608713	0.03965547	-0.009617327	-0.009377337	-0.000338
	0.08869142	-0.9608713	0.02517136	-0.03834019	-0.009373437	-0.0003386777	0.03755909	0.01619307
	0.03965547	-0.009617327	-0.009373437	-0.0003386778	0.02358208	0.0027786	0.0882883	-0.9608936
	-0.009377337	-0.0003380001	0.03755909	0.01619307	0.0882883	-0.9608936	0.02516598	-0.0383618
2.1e+08	0.02426866	0.002918147	0.01827646	-0.9638533	0.03947954	-0.01369519	-0.009827253	0.0002773131
	0.01827646	-0.9638533	0.02291089	-0.04105895	-0.009823269	0.0002762927	0.03923628	0.01475413
	0.03947954	-0.01369519	-0.009823269	0.0002762926	0.02427649	0.002896775	0.01785097	-0.9638459
	-0.009827253	0.000277313	0.03923628	0.01475413	0.01785097	-0.9638459	0.02291037	-0.04107558
2.2e+08	0.0250959	0.002960411	-0.0520749	-0.9617064	0.03875904	-0.01783185	-0.01024221	0.0009517145
	-0.0520749	-0.9617064	0.02040741	-0.04353609	-0.01023823	0.0009503634	0.04074757	0.0132161
	0.03875904	-0.01783185	-0.01023823	0.0009503633	0.02510763	0.002936236	-0.0525203	-0.9616672
	-0.01024221	0.0009517144	0.04074757	0.0132161	-0.0525203	-0.9616672	0.02041217	-0.04354973
2.3e+08	0.02605141	0.002890723	-0.1219945	-0.9544575	0.03748218	-0.0219563	-0.01061671	0.001684502
	-0.1219945	-0.9544575	0.01769513	-0.04574437	-0.01061282	0.001682837	0.04209101	0.01160427
	0.03748218	-0.0219563	-0.01061282	0.001682837	0.02606692	0.00286243	-0.1224562	-0.9543838
	-0.01061671	0.001684502	0.04209101	0.01160427	-0.1224562	-0.9543838	0.01770542	-0.04575636
2.4e+08	0.02712019	0.002675387	-0.1911135	-0.942157	0.03564661	-0.02599631	-0.01094508	0.002474623
	-0.1911135	-0.942157	0.01481192	-0.04766113	-0.01094133	0.002472675	0.04326955	0.009943913
	0.03564661	-0.02599631	-0.01094133	0.002472675	0.02713903	0.00264185	-0.1915898	-0.9420452
	-0.01094508	0.002474623	0.04326955	0.009943913	-0.1915898	-0.9420452	0.01482763	-0.04767245
2.5e+08	0.02828016	0.002283939	-0.2590744	-0.9248848	0.03325898	-0.02987932	-0.01122125	0.003320554
	-0.2590744	-0.9248848	0.01179763	-0.04926952	-0.01121769	0.003318398	0.0442896	0.008258327
	0.03325898	-0.02987932	-0.01121769	0.003318398	0.0283018	0.002243889	-0.2595619	-0.9247325
	-0.01122125	0.003320554	0.0442896	0.008258326	-0.2595619	-0.9247325	0.01181851	-0.049281
2.6e+08	0.02950332	0.001688991	-0.3255216	-0.9027434	0.0303354	-0.0335338	-0.01143913	0.004220285
	-0.3255216	-0.9027434	0.008693642	-0.05055831	-0.01143582	0.004217945	0.04516086	0.006568869
	0.0303354	-0.0335338	-0.01143582	0.004217944	0.02952681	0.001641433	-0.3260161	-0.9025498
	-0.01143913	0.004220285	0.04516086	0.006568869	-0.3260161	-0.9025498	0.008719926	-0.05057042
2.7e+08	0.03075621	0.0008679155	-0.3901114	-0.875862	0.02690061	-0.03688987	-0.01159216	0.005171151
	-0.3901114	-0.875862	0.005542656	-0.05152178	-0.01158901	0.005168648	0.04589616	0.004894329
	0.02690061	-0.03688987	-0.01158901	0.005168648	0.03078056	0.0008119271	-0.390611	-0.8756238
	-0.01159216	0.005171151	0.04589616	0.004894329	-0.390611	-0.8756238	0.005574164	-0.05153495
2.8e+08	0.03200025	-0.0001959019	-0.4525094	-0.8443916	0.02298839	-0.03988117	-0.01167374	0.006169821
	-0.4525094	-0.8443916	0.002387146	-0.05216019	-0.01167086	0.00616725	0.04651124	0.003250807
	0.02298839	-0.03988117	-0.01167086	0.00616725	0.03202423	-0.0002612613	-0.4530082	-0.844108
	-0.01167374	0.006169821	0.04651124	0.003250806	-0.4530082	-0.844108	0.00242445	-0.05217473
2.9e+08	0.03319339	-0.001512826	-0.5123925	-0.808509	0.01864071	-0.04244505	-0.01167695	0.007212114
	-0.5123925	-0.808509	-0.0007310703	-0.05247955	-0.01167436	0.007209493	0.04702309	0.001650593
	0.01864071	-0.04244505	-0.01167436	0.007209493	0.03321554	-0.001587943	-0.5128878	-0.8081792
	-0.01167695	0.007212114	0.04702309	0.001650592	-0.5128878	-0.8081792	-0.000687866	-0.05249608
3e+08	0.03429083	-0.003085946	-0.5694537	-0.7684121	0.01390732	-0.04452442	-0.01159554	0.008293256
	-0.5694537	-0.7684121	-0.003771616	-0.05249151	-0.01159316	0.0082906	0.04745091	0.0001028583
	0.01390732	-0.04452442	-0.01159316	0.0082906	0.03430968	-0.00317146	-0.5699409	-0.7680346
	-0.01159554	0.008293256	0.04745091	0.0001028582	-0.5699409	-0.7680346	-0.003722087	-0.05251056
3.1e+08	0.0352462	-0.004910728	-0.6233979	-0.7243185	0.008845083	-0.04606815	-0.01142261	0.009407329
	-0.6233979	-0.7243185	-0.00669596	-0.05221282	-0.01142046	0.009404673	0.04781448	-0.001387071
	0.008845083	-0.04606815	-0.01142046	0.009404673	0.03526005	-0.005007	-0.6238721	-0.7238919
	-0.01142261	0.009407329	0.04781448	-0.001387072	-0.6238721	-0.7238919	-0.006639496	-0.052235
3.2e+08	0.03601313	-0.006974843	-0.6739497	-0.6764661	0.003517182	-0.04703198	-0.01115196	0.01054773
	-0.6739497	-0.6764661	-0.009468748	-0.05166529	-0.01115014	0.01054519	0.04813391	-0.002817757
	0.003517182	-0.04703198	-0.01115014	0.01054519	0.03602008	-0.007081744	-0.6744053	-0.6759925
	-0.01115196	0.01054773	0.04813391	-0.002817757	-0.6744053	-0.6759925	-0.00940511	-0.05169172
3.3e+08	0.03654608	-0.009257625	-0.720848	-0.6251166	-0.002007748	-0.04737933	-0.01077747	0.01170676
	-0.720848	-0.6251166	-0.01205783	-0.05087566	-0.01077591	0.01170434	0.04842892	-0.004191545
	-0.002007748	-0.04737933	-0.01077591	0.01170434	0.03654437	-0.009374983	-0.7212822	-0.6245939
	-0.01077747	0.01170676	0.04842892	-0.004191545	-0.7212822	-0.6245939	-0.01198694	-0.05090718
3.4e+08	0.0368022	-0.01173091	-0.7638548	-0.5705417	-0.007656605	-0.04708208	-0.01029374	0.01287599
	-0.7638548	-0.5705417	-0.01443556	-0.0498742	-0.01029243	0.01287378	0.04871843	-0.005514408
	-0.007656605	-0.04708208	-0.01029243	0.01287378	0.03678985	-0.01185813	-0.7642622	-0.5699726
	-0.01029374	0.01287599	0.04871843	-0.005514408	-0.7642622	-0.5699726	-0.01435728	-0.04991205
3.5e+08	0.03674229	-0.0143586	-0.8027496	-0.5130351	-0.01335252	-0.04612067	-0.009695708	0.01404587
	-0.8027496	-0.5130351	-0.01657865	-0.0486949	-0.009694696	0.014044	0.04901928	-0.006795814
	-0.01335252	-0.04612067	-0.009694696	0.014044	0.03671742	-0.01449491	-0.8031263	-0.5124202
	-0.009695708	0.01404587	0.04901928	-0.006795814	-0.8031263	-0.5124202	-0.01649307	-0.0487402
3.6e+08	0.0363322	-0.0170976	-0.8373344	-0.4529049	-0.01901651	-0.04448498	-0.008979292	0.01520613
	-0.8373344	-0.4529049	-0.01846876	-0.04737454	-0.008978477	0.01520464	0.04934682	-0.008048421
	-0.01901651	-0.04448498	-0.008978477	0.01520464	0.03629283	-0.0172418	-0.8376746	-0.4522459
	-0.008979292	0.01520613	0.04934682	-0.008048421	-0.8376746	-0.4522459	-0.01837617	-0.04742848
3.7e+08	0.0355438	-0.01989901	-0.8674335	-0.3904685	-0.02456808	-0.04217415	-0.008141026	0.01634551
	-0.8674335	-0.3904685	-0.02009303	-0.04595162	-0.008140347	0.01634449	0.04971338	-0.009287656
	-0.02456808	-0.04217415	-0.008140347	0.01634449	0.03548821	-0.02004967	-0.867734	-0.3897673
	-0.008141026	0.01634551	0.04971338	-0.009287656	-0.867734	-0.3897673	-0.01999399	-0.04601538
3.8e+08	0.0343563	-0.02270797	-0.8928934	-0.3260606	-0.02992659	-0.03919715	-0.007178612	0.01745203
	-0.8928934	-0.3260606	-0.02144406	-0.04446636	-0.007177991	0.01745157	0.05012842	-0.01053127
	-0.02992659	-0.03919715	-0.007177991	0.01745157	0.03428277	-0.0228632	-0.8931487	-0.32532
	-0.007178612	0.01745203	0.05012842	-0.01053127	-0.8931487	-0.32532	-0.02133912	-0.04454109
3.9e+08	0.03275695	-0.02546607	-0.9135876	-0.2600211	-0.03501227	-0.0355725	-0.006090788	0.01851296
	-0.9135876	-0.2600211	-0.02252041	-0.04295905	-0.006090086	0.01851306	0.05059795	-0.01179884
	-0.03501227	-0.0355725	-0.006090086	0.01851306	0.03266408	-0.02562378	-0.9137939	-0.2592431
	-0.006090788	0.01851296	0.05059795	-0.01179884	-0.9137939	-0.2592431	-0.0224104	-0.04304572
4e+08	0.03074182	-0.02811113	-0.929412	-0.1927021	-0.0397475	-0.03132814	-0.004877646	0.01951505
	-0.929412	-0.1927021	-0.02332607	-0.04146995	-0.00487672	0.01951577	0.05112441	-0.01311139
	-0.0397475	-0.03132814	-0.00487672	0.01951577	0.03062839	-0.02826893	-0.9295653	-0.1918901
	-0.004877646	0.01951505	0.05112441	-0.01311139	-0.9295653	-0.1918901	-0.02321193	-0.04156954
4.1e+08	0.02831661	-0.0305797	-0.9402898	-0.1244611	-0.04405763	-0.02650137	-0.003540604	0.02044432
	-0.9402898	-0.1244611	-0.0238709	-0.04003807	-0.00353936	0.0204458	0.05170608	-0.01449025
	-0.04405763	-0.02650137	-0.00353936	0.0204458	0.02818173	-0.03073494	-0.9403858	-0.1236197
	-0.003540604	0.02044432	0.05170608	-0.01449025	-0.9403858	-0.1236197	-0.02375368	-0.04015148
4.2e+08	0.0254963	-0.03280832	-0.9461676	-0.05565972	-0.04787259	-0.02113801	-0.00208264	0.02128679
	-0.9461676	-0.05565972	-0.02417003	-0.03870051	-0.002080864	0.02128896	0.05233758	-0.01595696
	-0.04787259	-0.02113801	-0.002080864	0.02128896	0.02533944	-0.03295799	-0.9462032	-0.05479212
	-0.00208264	0.02128679	0.05233758	-0.01595696	-0.9462032	-0.05479212	-0.02405083	-0.03882846
4.3e+08	0.02230615	-0.03473438	-0.9470211	0.01333662	-0.05112753	-0.01529258	-0.0005083043	0.02202807
	-0.9470211	0.01333662	-0.02424347	-0.03749181	-0.0005057979	0.02203083	0.0530093	-0.01753243
	-0.05112753	-0.01529258	-0.0005057979	0.02203083	0.02212719	-0.03487551	-0.9469938	0.01422481
	-0.0005083043	0.02202807	0.0530093	-0.01753243	-0.9469938	0.01422481	-0.02412371	-0.03763486
4.4e+08	0.01878097	-0.0362983	-0.9428527	0.08216146	-0.05376377	-0.009027048	0.001176179	0.02265371
	-0.9428527	0.08216146	-0.02411626	-0.03644302	0.001179567	0.02265722	0.05370813	-0.01923649
	-0.05376377	-0.009027048	0.001179567	0.02265722	0.01858021	-0.03642764	-0.9427577	0.08306586
	0.001176179	0.02265371	0.05370813	-0.01923649	-0.9427577	0.08306586	-0.02399717	-0.03660171
4.5e+08	0.01496494	-0.03744451	-0.9336904	0.1504487	-0.05572978	-0.002410196	0.002962786	0.02314965
	-0.9336904	0.1504487	-0.02381736	-0.03558173	0.002967278	0.02315373	0.05441698	-0.02108672
	-0.05572978	-0.002410196	0.002967278	0.02315373	0.01474311	-0.03755898	-0.9335262	0.151364
	0.002962786	0.02314965	0.05441698	-0.02108672	-0.9335262	0.151364	-0.02370039	-0.03575625
4.6e+08	0.01091098	-0.03812364	-0.9195874	0.217837	-0.05698202	0.004482687	0.004841775	0.02350224
	-0.9195874	0.217837	-0.02337918	-0.03493019	0.004847557	0.02350678	0.05511575	-0.0230987
	-0.05698202	0.004482687	0.004847557	0.02350678	0.01066931	-0.0382198	-0.919351	0.2187578
	0.004841775	0.02350224	0.05511575	-0.0230987	-0.919351	0.2187578	-0.02326568	-0.03512089
4.7e+08	0.006680287	-0.03829296	-0.9006261	0.2839675	-0.05748571	0.01157168	0.006801453	0.02369843
	-0.9006261	0.2839675	-0.02283709	-0.03450672	0.006808752	0.02370316	0.05578097	-0.02528448
	-0.05748571	0.01157168	0.006808752	0.02370316	0.006420435	-0.0383679	-0.9003177	0.2848891
	0.006801453	0.02369843	0.05578097	-0.02528448	-0.9003177	0.2848891	-0.02272882	-0.03471331
4.8e+08	0.002341075	-0.03791835	-0.8769152	0.3484886	-0.05721517	0.01877239	0.008828496	0.02372597
	-0.8769152	0.3484886	-0.02222881	-0.03432346	0.008837468	0.02373071	0.05638701	-0.0276532
	-0.05721517	0.01877239	0.008837468	0.02373071	0.002065302	-0.03796877	-0.8765318	0.349404
	0.008828496	0.02372597	0.05638701	-0.0276532	-0.8765318	0.349404	-0.02212696	-0.03454596
4.9e+08	-0.002033017	-0.03697526	-0.8485887	0.4110606	-0.05615464	0.02599752	0.01090784	0.0235742
	-0.8485887	0.4110606	-0.02159298	-0.0343875	0.01091865	0.02357869	0.05690623	-0.03020972
	-0.05615464	0.02599752	0.01091865	0.02357869	-0.002322042	-0.03699855	-0.8481296	0.4119637
	0.01090784	0.0235742	0.05690623	-0.03020972	-0.8481296	0.4119637	-0.02149905	-0.03462544
5e+08	-0.00636346	-0.03544908	-0.8158028	0.4713491	-0.05429803	0.03315801	0.01302284	0.02323342
	-0.8158028	0.4713491	-0.02096912	-0.03470036	0.01303557	0.02323739	0.05730945	-0.03295536
	-0.05429803	0.03315801	0.01303557	0.02323739	-0.006662587	-0.03544284	-0.8152684	0.4722348
	0.01302284	0.02323342	0.05730945	-0.03295536	-0.8152684	0.4722348	-0.02088453	-0.03495314
5.1e+08	-0.01056895	-0.0333369	-0.7787409	0.5290388	-0.05164983	0.04016393	0.0151553	0.02269574
	-0.7787409	0.5290388	-0.02039605	-0.03525721	0.01517005	0.02269886	0.0575669	-0.0358864
	-0.05164983	0.04016393	0.01517005	0.02269886	-0.01087464	-0.03329893	-0.778131	0.5298996
	0.0151553	0.02269574	0.0575669	-0.0358864	-0.778131	0.5298996	-0.02032204	-0.03552436
5.2e+08	-0.01456696	-0.03064676	-0.7376092	0.5838242	-0.04822494	0.04692608	0.01728581	0.02195525
