!!!!!!!!!!!!!!!!!!!!!!!!!!!!!!!!!!!!!!!!!!!!!!!!!!!!!!!!!!!!!!!!!!!!!!!!!!!!!!!!!!!!!!!!!
!!
!! Reference: shanbhag_3dj_02_2305.pdf
!!
!!!!!!!!!!!!!!!!!!!!!!!!!!!!!!!!!!!!!!!!!!!!!!!!!!!!!!!!!!!!!!!!!!!!!!!!!!!!!!!!!!!!!!!!!
!!
!! CHANNEL DESCRIPTION: TP0_TP5 KR Channel using 1meter Cabled BP, Cabled Host
!! CABLE DESCRIPTION: 1meter 26AWG Cable
!! MODEL STATUS: Developmental
!!
!! PORT DEFINITIONS: 
!! Port   1    ----->  Side A	      Side B  <-----  Port   2
!! Port   3    ----->  Side A	      Side B  <-----  Port   4
!!

# HZ S MA R 50.000000 


0.	0.0354368604999999	2.9607874e-11	0.000292596371	-6.81009603e-12	0.0190146012	-5.37650192e-12	0.000140696896	-1.39709474e-11	
	0.000292595995	-6.41671416e-12	0.0497911103999999	-7.89703516000001e-12	0.000219705457	180	0.0166866106	-2.39634413e-12	
	0.0190128852	-4.3799477e-12	0.000219697987	-180	0.0421281703	3.70993277e-11	0.000364912201	3.05452792e-11	
	0.000140700814	-1.36709536e-11	0.0166872485	-3.13893963e-12	0.000364939331	3.04728515e-11	0.0499792214999999	-1.66503549e-11	
	
10000000.	0.0682768891000001	13.1371352	0.000263891293	-38.5865988	0.0618032647	25.0031907	0.000123448062	-39.8338641	
	0.000263891074	-38.5864667	0.0731996074	2.38645296	0.000244143126	149.770709	0.0595225035	24.8788859	
	0.0618032651	25.0031911	0.000244143027	149.770641	0.0707778405	8.42781786	0.000330132848	-37.0157749	
	0.000123448024	-39.8339287	0.0595225378	24.8788095	0.000330132822	-37.015767	0.0732302998999999	2.24048374	
	
20000000.	0.0971317371	-2.05235696	0.000233427196	-74.452796	0.103183394	12.7982435	0.000106510819	-73.4394866	
	0.000233427186	-74.4527267	0.0910424748	-9.16942681	0.000265758225	114.294516	0.0994734994	12.6347395	
	0.103183283	12.7981549	0.000265758264	114.29485	0.0952218787	-4.78328331	0.000298592607	-69.6670476	
	0.000106510897	-73.4392429	0.0994735837	12.6349615	0.000298593341	-69.6666845	0.0910883202999999	-9.19465969000001	
	
30000000.	0.107270333	-25.6397345	0.00022261289	-103.052368	0.11039249	-10.2118471	0.000103321574	-98.6714113	
	0.000222612849	-103.052289	0.0959248193999999	-27.9326063	0.000266946697	75.2374557	0.105913335	-10.3534766	
	0.110392482	-10.2118451	0.000266947182	75.2374814	0.102979551	-26.2937675	0.000298302184	-96.7284363	
	0.000103321627	-98.6713918	0.105913341	-10.3534837	0.00029830232	-96.7284271	0.0957137292999999	-27.9269982	
	
40000000.	0.0966783579	-52.5344018	0.000245231311	-131.867662	0.081455596	-37.8384869	0.000120269612	-126.778855	
	0.000245231337	-131.867582	0.085796495	-49.511941	0.000242320172	36.5754949	0.0773576155	-38.2800868	
	0.0814555984	-37.8384809	0.000242319768	36.5755559	0.0919865137	-51.0414991	0.000341225452	-126.207057	
	0.000120269591	-126.778837	0.0773575813	-38.2800955	0.000341225437	-126.207042	0.0851253017	-49.5451248	
	
50000000.	0.065687685	-80.3248217	0.000276947812	-169.53061	0.0249031766	-47.9811921	0.000143657041	-165.116573	
	0.000276947833	-169.530565	0.0605763168	-69.7386198000001	0.000201068739	3.95881476	0.0218508223	-49.6089493	
	0.0249031809	-47.98117	0.00020106855	3.95890028	0.0623535233	-75.5508648	0.000391484279	-164.273067	
	0.000143657021	-165.11654	0.0218508008	-49.6089437	0.00039148427	-164.273059	0.0593084918	-69.6010049	
	
60000000.	0.0241639637	-94.1729850999999	0.000279860211	147.886932	0.0500167187	55.7904613	0.000151582968	150.802722	
	0.00027986022	147.886937	0.0312719951	-70.4943441000002	0.000183222656	-18.646207	0.050508223	58.1993097	
	0.0500167212	55.790453	0.000183222626	-18.6462002	0.0250828168	-79.4263224	0.000401551529	153.562719	
	0.000151582947	150.802738	0.0505082385	58.1993294	0.000401551516	153.562722	0.0297667236	-68.1911805000002	
	
70000000.	0.0251864436999999	5.86331499000002	0.000244988196	106.802154	0.109612242	32.2249896	0.000139767587	107.136665	
	0.00024498827	106.80213	0.0282858272999999	-21.6808431000001	0.000203523376	-43.1878735	0.108891157	33.0453263	
	0.109612241	32.2249877	0.000203523308	-43.187893	0.0283237955	-3.07295077	0.000365721652	112.955533	
	0.000139767578	107.136632	0.10889117	33.0453377	0.000365721688	112.955529	0.0296004655	-17.4779977	
	
80000000.	0.0591561064	-9.41060950000001	0.00019680317	74.7895604	0.141823035	3.06020935	0.000117345984	69.279244	
	0.000196803305	74.7896739	0.0509093974	-18.979374	0.000232381454	-76.9573585	0.140051702	3.35110715	
	0.141823032	3.06020992	0.000232381484	-76.9573568	0.0590389058	-12.3365981	0.000312864442	79.5192549	
	0.000117346348	69.2792977	0.140051711	3.35111857	0.000312864501	79.5192436	0.0534655046000001	-17.698297	
	
90000000.	0.0784814817999999	-35.9323072	0.000180809281	54.1075633	0.137676245	-26.4201467	9.95691298e-05	40.5389073	
	0.000180808199	54.1073568	0.0667543749000001	-37.043727	0.000244444769	-115.556177	0.135063492	-26.6196392	
	0.137676241	-26.4201445	0.000244444909	-115.556164	0.0772887006	-35.9564247	0.000293056979	54.032407	
	9.95687909e-05	40.5392721	0.135063497	-26.6196315	0.000293057029	54.0323822	0.0695012593	-36.5964432	
	
100000000.	0.079217331	-63.8723603	0.000212260364	28.7780771	0.0983195183	-54.5619683	9.92535372e-05	16.1499962	
	0.000212260371	28.7780718	0.0691872890999999	-58.7762998000001	0.000232442644	-154.400034	0.0950859885	-55.3223692	
	0.0983195163	-54.5619636	0.00023244266	-154.400042	0.0783448793	-61.6602264	0.000325368412	26.1363977	
	9.92535665e-05	16.1499851	0.0950859847	-55.3223757	0.000325368466	26.1363718	0.0716052982999999	-58.7367519000001	
	
110000000.	0.0601525932	-91.3714887	0.00025003424	-8.82741413	0.034304457	-69.3638622	0.000113990068	-15.3995008	
	0.000250034217	-8.82741564	0.0564781008	-79.4489497	0.000203834191	171.65179	0.0309783882	-70.4437412	
	0.0343044462	-69.3638681	0.000203835251	171.652151	0.0607768613	-86.4917305000001	0.000369914263	-10.2494252	
	0.000113988601	-15.4006052	0.0309783885	-70.4436549	0.000369911614	-10.2498476	0.0581351197	-79.6990188999999	
	
120000000.	0.0281571109	-109.176178	0.000257110697	-51.9708582	0.0457613489	35.5133947	0.000122899337	-55.3617312	
	0.000257110713	-51.9708727	0.0350459241	-88.9999931999999	0.000185505662	145.191681	0.0467430653	38.0214154	
	0.0457613315	35.5133593	0.000185508201	145.192169	0.0315556425	-99.6318467999997	0.000381414343	-51.6390714	
	0.000122896645	-55.3635715	0.0467431526	38.0213702	0.00038140981	-51.6398078	0.0356458103	-89.3824628000002	
	
130000000.	0.0164307731	-29.612134	0.000226514632	-93.3541042	0.105744294	14.7779567	0.000116268103	-96.7146046	
	0.000226514602	-93.3541518	0.0236179868	-60.0331526999998	0.000195803151	119.02273	0.10548445	15.4058685	
	0.10574423	14.7779132	0.000195806725	119.023033	0.0195930495	-43.4865963999999	0.000348386681	-91.937094	
	0.00011626453	-96.7172514	0.105484584	15.4058602	0.000348380636	-91.9381975	0.0238982006	-58.7377354	
	
140000000.	0.0434847020000001	-29.8869683999999	0.00018161375	-125.573584	0.137401896	-13.8203756	9.96052021e-05	-133.093814	
	0.000181613539	-125.573645	0.0364681683000001	-43.5390492999999	0.000215678233	86.2188599	0.135803222	-13.689049	
	0.137401795	-13.8204266	0.000215682276	86.2191029	0.0426684673999999	-34.3478777000001	0.000296210345	-125.53457	
	9.96005607e-05	-133.097273	0.135803378	-13.6890314	0.00029620222	-125.535953	0.0380568763	-42.3811605	
	
150000000.	0.0595485729	-54.7624187000001	0.000164464657	-145.924286	0.134370126	-42.9783065	8.57001552e-05	-160.763996	
	0.000164464346	-145.924271	0.0484521249	-56.5916672	0.00022266675	49.156791	0.131697588	-43.2554678	
	0.134370015	-42.9783637	0.0002226713	49.1571171	0.0585270665000001	-55.0362997999999	0.000270153204	-150.794021	
	8.56938806e-05	-160.767596	0.13169773	-43.2554219	0.000270142537	-150.795145	0.0511842414	-56.1004552	
	
160000000.	0.0580702618	-83.3304817999999	0.000191405462	-169.925683	0.0987631266	-71.0228679	8.80994294e-05	175.851631	
	0.000191405311	-169.92562	0.0483462226	-76.8543278999999	0.000210573587	12.2527825	0.0953775761	-71.7233391	
	0.0987630338	-71.0229299	0.000210578862	12.2531581	0.0583879803	-80.6959132	0.000294691739	-176.577083	
	8.80916574e-05	175.84918	0.0953776738	-71.7232491	0.000294679723	-176.577629	0.0518381267	-76.9757199000001	
	
170000000.	0.0388335012000001	-113.240008	0.000225999312	154.376503	0.043417188	-90.9913202	0.000102258484	144.664339	
	0.000225999311	154.376538	0.0348685714	-95.4493938	0.00018728805	-19.8505839	0.040105171	-91.928007	
	0.0434171332	-90.9913834	0.000187293935	-19.8504223	0.0414442943	-106.601925	0.000335930373	149.332049	
	0.000102250137	144.662687	0.0401052331	-91.9277804	0.000335918131	149.331688	0.0386228457	-96.9349675	
	
180000000.	0.00689442088999989	-136.664017999999	0.000236655811	113.667896	0.0245194622	3.41944097	0.000111872883	105.259397	
	0.000236655797	113.667894	0.0151765894	-83.0149730999997	0.0001771035	-45.4544851	0.0251294087	8.09579185	
	0.0245194549	3.41941805	0.000177109194	-45.4548524	0.0130275185	-114.845331	0.000353945715	110.256889	
	0.000111864559	105.257759	0.0251295253	8.09557678	0.000353933522	110.256463	0.0174646574	-93.9612740000001	
	
190000000.	0.0276467973	0.248237523	0.000219624814	74.930436	0.06808757	-3.59304549	0.00010766515	64.4314808	
	0.000219624683	74.9304231	0.0247456689	-25.4981197	0.00019161156	-72.673688	0.0677174985	-2.86222684	
	0.0680875319	-3.59310257	0.000191616475	-72.6742992	0.0224776333	-12.7694548	0.000337823827	71.8718485	
	0.000107657151	64.4296073	0.0677176043	-2.86228122	0.0003378117	71.8713639	0.0218711485999999	-30.2967912000001	
	
200000000.	0.0536396398	-28.9802457	0.000195897366	42.99765	0.0876031834	-29.9314377	9.37496699e-05	28.5417987	
	0.000195897172	42.9976673	0.0446051428000001	-36.4568803999999	0.000210333428	-106.544058	0.0856445624	-29.8732559	
	0.0876031243	-29.9314998	0.00021033797	-106.544581	0.0472525786	-32.3894736	0.000307731623	38.402924	
	9.37419551e-05	28.5398902	0.0856446684	-29.8732567	0.000307719624	38.4025834	0.0418848223	-37.2842361000001	
	
210000000.	0.0632917191	-58.7276662	0.000193332898	16.2796033	0.0772636843	-56.9985961	8.39182571e-05	1.46827932	
	0.000193332797	16.2796535	0.053067938	-58.1265097999999	0.000213319065	-143.785447	0.0739394522	-57.4109014	
	0.0772636232	-56.9986609	0.000213323632	-143.785885	0.0575828587	-58.7279685999999	0.000298318281	9.84395584	
	8.39106412e-05	1.46713194	0.0739395443	-57.4108606	0.00029830685	9.84397926	0.0511755247	-58.3657735	
	
220000000.	0.0527616068	-87.4410319	0.000213066652	-14.2292133	0.0438015156	-78.909598	8.98865892e-05	-23.4178486	
	0.000213066671	-14.2291769	0.0456598641	-78.9873226000001	0.000197393623	-179.20978	0.0396693586	-79.4184789	
	0.0438014648	-78.9096654	0.000197398086	-179.210297	0.0493333004	-84.3521123	0.000319147211	-20.1408384	
	8.98793172e-05	-23.4179361	0.0396694383	-79.4183663	0.000319136778	-20.1405967	0.044766824	-79.1998456999999	
	
230000000.	0.0236049298	-107.765665	0.000230898945	-50.9898604	0.0138074188	-18.1459254	0.000105241365	-57.3647117	
	0.000230898975	-50.9898515	0.0253068203	-82.8526098999999	0.000178437995	152.047776	0.013928943	-2.4771121	
	0.0138074035	-18.145842	0.000178441745	152.046993	0.0243614832	-97.9229497000001	0.000346508513	-55.3526912	
	0.000105234647	-57.3646121	0.0139290107	-2.47743906	0.000346498957	-55.352473	0.0252444413	-84.0816094000001	
	
240000000.	0.0205271761000001	0.317368704999999	0.000228620022	-89.5931771	0.0475271656	7.66696377	0.000113445534	-98.5396285	
	0.000228619988	-89.5931795	0.0255840637000001	-24.7045503999999	0.000182812924	127.589509	0.0491422825	9.79928204	
	0.0475271672	7.66694318	0.00018281552	127.588625	0.0207414518999999	-14.0839417	0.000353243477	-93.3099855	
	0.000113439487	-98.539769	0.0491422892	9.7991894	0.000353234667	-93.30984	0.0242292588000001	-26.4557454999999	
	
250000000.	0.0603912693000001	-15.6684801	0.000210582733	-124.692082	0.0683094972	-15.8699876	0.000107081625	-140.474316	
	0.000210582657	-124.692076	0.0557822533	-25.4969342	0.000208874876	97.4007504	0.0682215935	-15.0023115	
	0.06830949	-15.8700195	0.00020887684	97.400068	0.0557492007	-20.0488588	0.000336035302	-129.684036	
	0.000107076411	-140.474712	0.0682215931	-15.0023485	0.000336027366	-129.683886	0.0531675402	-25.7078171	
	
260000000.	0.0889841642	-43.2506631	0.000199883664	-154.066587	0.0625220917	-41.1108401	9.05281523e-05	-177.312203	
	0.000199883617	-154.066568	0.0800938881	-46.6367155	0.000229677424	60.3386282	0.060511091	-40.6807258	
	0.0625220806	-41.1108738	0.000229679307	60.3381369	0.0818973841	-44.6283785	0.000317104948	-161.812983	
	9.0523746e-05	-177.312682	0.060511084	-40.6807338	0.000317098168	-161.812736	0.0765270048999999	-46.4825288	
	
270000000.	0.0965944246	-71.7988200999999	0.000212429383	176.731773	0.0322112207	-55.7029221	7.77102782e-05	156.978572	
	0.000212429386	176.731786	0.0873438981	-70.9615917	0.00022733938	21.1076353	0.028552129	-53.7492219	
	0.0322112092	-55.702955	0.000227341211	21.1072353	0.0887347615	-71.1859861	0.000320853732	168.426952	
	7.77065195e-05	156.978517	0.0285521235	-53.7491836	0.000320848288	168.427267	0.0830688823	-70.5057555	
	
280000000.	0.0790564718	-98.7517312	0.000235640848	141.509646	0.026047919	30.6352303	8.47784257e-05	134.353671	
	0.000235640856	141.509646	0.0733701674	-93.4351058	0.00020235824	-14.4580253	0.0293378371	37.8128479	
	0.0260479188	30.6352305	0.00020235973	-14.4584189	0.072211007	-95.6495311999999	0.000346711081	135.640432	
	8.47753821e-05	134.354075	0.029337862	37.8128224	0.000346706789	135.640691	0.0687829014	-92.2901482	
	
290000000.	0.0409976832	-114.577009	0.000244702226	101.326396	0.0748546026	24.5540907	0.000102429356	99.6242421	
	0.00024470221	101.326391	0.043561625	-102.205491	0.000180758506	-40.8293212	0.0788406498	25.9861195	
	0.0748546058	24.5540787	0.000180759369	-40.8297107	0.0381001731	-104.700023	0.000367974778	98.2429167	
	0.000102427006	99.6245323	0.0788406603	25.9861059	0.000367971398	98.2430767	0.0398407166	-97.8286734	
	
300000000.	0.0263185286999999	-44.1833367000001	0.000226746998	60.9240626	0.11196601	-1.44304143	0.000110995191	56.7365321	
	0.000226746975	60.9240581	0.0333132484	-57.8519539999999	0.000194769	-64.0932188	0.114673629	-0.71875149	
	0.111966016	-1.44305162	0.000194769388	-64.0934715	0.0323960546	-44.3892658999999	0.000361821642	59.2397253	
	0.000110993557	56.7366166	0.11467362	-0.71875692	0.000361819177	59.2398139	0.0353312849	-51.0684587999999	
	
310000000.	0.0709153913	-40.634107	0.000192161209	26.2550328	0.122415309	-29.4078293	0.000103570843	12.426769	
	0.000192161203	26.255028	0.0672047448	-48.3110637	0.000232020974	-96.1093402	0.123328604	-28.9130358	
	0.122415317	-29.4078357	0.000232021218	-96.1094443	0.0732695269	-43.3367828	0.000330792308	22.7755527	
	0.000103569971	12.4267241	0.123328575	-28.9130365	0.000330790861	22.775603	0.0704831118000001	-46.8813825	
	
320000000.	0.106662893	-64.484511	0.000170746803	1.09543409	0.101576467	-56.0623774	8.2996166e-05	-27.5172408	
	0.000170746811	1.09542093	0.0983837473	-67.1007721	0.000259836915	-135.765697	0.100464089	-55.73706	
	0.101576479	-56.0623796	0.00025983702	-135.765703	0.106070588	-65.6175215	0.00030025726	-8.0035356	
	8.29960168e-05	-27.5173171	0.100464042	-55.7370568	0.000300256847	-8.00352647	0.100662153	-66.5884393	
	
330000000.	0.118780501	-92.1874459	0.000185029845	-23.1029002	0.0552551771	-74.6224105	6.11380076e-05	-52.5030153	
	0.000185029839	-23.1029204	0.10987848	-91.587915	0.000257578088	-178.136695	0.0521474303	-73.6539694	
	0.0552551903	-74.6224111	0.000257577916	-178.136617	0.116299588	-92.0202192	0.000299838696	-35.2204178	
	6.1138514e-05	-52.50315	0.0521473761	-73.65395	0.000299839164	-35.2204946	0.110585433	-91.2448222000001	
	
340000000.	0.10142433	-120.159861	0.000217001439	-56.7385791	0.0261642562	-4.87441495	6.46788607e-05	-63.9108512	
	0.000217001428	-56.7385982	0.0954432325	-116.326924	0.000222185535	142.418506	0.0285143296	3.41402309	
	0.0261642511	-4.87443176	0.000222185062	142.418697	0.0980919224	-118.423824	0.000330992712	-66.0512606	
	6.46798617e-05	-63.9114351	0.0285143602	3.41411808	0.00033099392	-66.0514249	0.0943256663	-115.815948	
	
350000000.	0.0587315042	-142.731179	0.000234849545	-97.7733795	0.0833830189	6.33335907	8.80699479e-05	-95.1051773	
	0.000234849568	-97.7733995	0.0593318621999999	-133.712029	0.000180209849	114.029066	0.0876330633	7.28319579	
	0.0833830112	6.33336933	0.000180209344	114.029442	0.0560956870999999	-137.23969	0.000362548907	-103.160548	
	8.80714361e-05	-95.1059042	0.0876331045	7.28320715	0.000362550939	-103.160762	0.0566444526	-131.834759	
	
360000000.	0.019051896	-96.3630412999998	0.000221640045	-140.454339	0.131977897	-18.3225539	0.000102075146	-139.378732	
	0.000221640119	-140.45437	0.0284610253	-102.365431	0.000180273849	95.0374749	0.135089064	-17.9703746	
	0.131977894	-18.3225371	0.000180273626	95.0379638	0.0247814597	-87.2215521999998	0.000364230519	-143.320279	
	0.000102077293	-139.379385	0.135089089	-17.9703737	0.000364233476	-143.320527	0.0292004503	-92.3594513000001	
	
370000000.	0.0600446207	-60.3435538000001	0.000183106556	-178.552931	0.152094477	-46.3785472	9.86144585e-05	174.209645	
	0.000183106648	-178.552991	0.0569044401	-69.3515104	0.000220416902	66.673878	0.153568088	-46.1485413	
	0.15209448	-46.3785254	0.000220416655	66.6743559	0.0655389845	-63.0114516000001	0.00033248721	178.179258	
	9.86172533e-05	174.209154	0.153568092	-46.1485474	0.00033249098	178.178951	0.0628757108	-66.9811268	
	
380000000.	0.0984650081	-82.4933151000001	0.000146149786	154.585666	0.140179413	-74.2845543	8.03217644e-05	130.734073	
	0.000146149805	154.585563	0.0904797182	-85.3709733999999	0.000257778443	27.7560367	0.139844496	-74.1937716	
	0.140179421	-74.2845285	0.000257777786	27.7565401	0.103087979	-83.7758474	0.000289143127	145.371409	
	8.03251185e-05	130.733794	0.13984448	-74.1937862	0.000289147389	145.370962	0.0976384161	-84.6835789000001	
	
390000000.	0.112924303	-110.245574	0.000142329857	136.366268	0.101777684	-100.191067	5.48790568e-05	99.1890872	
	0.000142329738	136.366167	0.104094354	-109.78787	0.000266776897	-15.6578573	0.099457509	-100.174166	
	0.101777696	-100.191039	0.000266775713	-15.657272	0.117325553	-110.424916	0.00026665812	119.196164	
	5.48829116e-05	99.1884923	0.0994574741	-100.174194	0.00026666247	119.195493	0.1113999	-109.581015	
	
400000000.	0.0978315204	-139.620823	0.00016897468	110.523893	0.0484076054	-116.47139	4.6582839e-05	94.0746822	
	0.000168974512	110.52383	0.0913229874	-135.909459	0.000239131574	-58.6592499	0.0448171442	-114.950614	
	0.0484076189	-116.471369	0.000239130034	-58.6585135	0.10232431	-138.6213	0.000283208613	93.3200178	
	4.65863391e-05	94.0713129	0.0448170891	-114.95066	0.000283213001	93.3192111	0.0979107889	-135.999451	
	
410000000.	0.0561068359000001	-167.749883	0.000196056836	74.4911719	0.0259316892	-43.1241681	6.78901811e-05	73.4334685	
	0.000196056712	74.4911192	0.0549694887	-157.978176	0.000187805864	-94.255627	0.0285541433	-36.9179641	
	0.02593167	-43.1241541	0.000187804479	-94.2546227	0.0608128506	-164.593965	0.000320261726	60.8972339	
	6.7893107e-05	73.4301481	0.0285541388	-36.9178543	0.000320266619	60.8964202	0.0599374082999999	-158.757433	
	
420000000.	0.00709106901999998	-115.094329	0.000202215397	34.6966616	0.068518798	-39.072941	8.63719419e-05	31.2938922	
	0.000202215324	34.6965935	0.0170705527	-122.655405	0.000156818389	-115.412207	0.0712304188	-38.5758223	
	0.0685187732	-39.0728961	0.000156817809	-115.410951	0.01231322	-132.434377	0.000343223564	23.1687835	
	8.6375485e-05	31.2913714	0.0712304464	-38.575808	0.000343229244	23.1679765	0.018184171	-130.861949	
	
430000000.	0.0531135703	-65.2875851	0.000187218436	-2.79949511	0.0947631316	-63.6431233	8.77540877e-05	-14.8880938	
	0.000187218356	-2.79959057	0.0485352013	-75.4467064	0.000176326829	-136.700383	0.0957917305	-63.5606305	
	0.0947631075	-63.6430742	0.000176326729	-136.699217	0.051678052	-70.5251477000001	0.000336694677	-15.1837373	
	8.77584903e-05	-14.8901209	0.0957917585	-63.5606473	0.000336700928	-15.1845828	0.0488327338	-76.2085183	
	
440000000.	0.0873949367	-92.8517613	0.000167954344	-34.2432053	0.0967717147	-90.9303915	7.39898939e-05	-57.2631208	
