!!!!!!!!!!!!!!!!!!!!!!!!!!!!!!!!!!!!!!!!!!!!!!!!!!!!!!!!!!!!!!!!!!!!!!!!!!!!!!!!!!!!!!!!!
!!
!! Reference: shanbhag_3dj_02_2305.pdf
!!
!!!!!!!!!!!!!!!!!!!!!!!!!!!!!!!!!!!!!!!!!!!!!!!!!!!!!!!!!!!!!!!!!!!!!!!!!!!!!!!!!!!!!!!!!
!!
!! CHANNEL DESCRIPTION: TP0_TP5 KR Channel using 1meter Cabled BP, PCB Host
!! CABLE DESCRIPTION: 1meter 26AWG Cable
!! MODEL STATUS: Developmental
!!
!! PORT DEFINITIONS: 
!! Port   1    ----->  Side A	      Side B  <-----  Port   2
!! Port   3    ----->  Side A	      Side B  <-----  Port   4
!!


# HZ S MA R 50.000000 


0.	0.0486786216999999	6.50179847000001e-13	1.87323666e-06	180	0.0102725484	-4.37881079e-12	1.66064477e-06	180	
	1.87323671e-06	180	0.0486719412000001	2.41466439e-13	1.65462039e-06	-180	0.0102735349	9.16022888e-13	
	0.0102728357	-4.37881138e-12	1.65466699e-06	-180	0.0487940354	1.91372357e-12	1.8353271e-06	180	
	1.66069154e-06	180	0.0102738849	9.16017084e-13	1.83532703e-06	180	0.0487989742999999	1.16151983e-12	
	
10000000.	0.0644380165999999	7.19995321000001	1.37135577e-05	104.591148	0.0456301685	49.3542159	1.23644333e-05	108.868552	
	1.37135577e-05	104.591148	0.0643866527999999	7.20454749	1.22055265e-05	109.071732	0.045626911	49.3659592	
	0.0456301692	49.3542157	1.22055265e-05	109.071732	0.0639558605	7.04724967	1.09864368e-05	103.632834	
	1.23644333e-05	108.868552	0.0456269117	49.3659591	1.09864368e-05	103.632834	0.0639442873	7.04700191	
	
20000000.	0.0815223997	-1.36521758	2.77970507e-05	38.5344116	0.0813615982	29.1221348	2.40414216e-05	43.0394403	
	2.77970507e-05	38.5344114	0.0814203847	-1.32882912	2.3349199e-05	42.5355867	0.0813535152	29.135788	
	0.0813616796	29.1223955	2.33492163e-05	42.5358391	0.0808487625999999	-1.48662223	2.21857128e-05	38.1819661	
	2.40414394e-05	43.0396926	0.0813535976	29.1360507	2.21857128e-05	38.1819658	0.0808254565	-1.48143114	
	
30000000.	0.0939384373	-15.9964975	4.10639497e-05	-9.56946484	0.0992079147	4.9430693	3.54253651e-05	-5.73489321	
	4.10639497e-05	-9.56946481	0.0938230236000001	-15.9081036	3.43183228e-05	-7.06474689	0.0991965179	4.96140942	
	0.0992079358	4.94307698	3.4318331e-05	-7.06473804	0.0931429819	-16.0884726	3.27798781e-05	-9.41524284	
	3.54253736e-05	-5.73488437	0.0991965412	4.96141923	3.27798781e-05	-9.41524289	0.0931152989000001	-16.0736306	
	
40000000.	0.0998757725	-33.0787325	5.43960109e-05	-43.6609611	0.096104668	-20.6049343	4.71203899e-05	-39.9804747	
	5.43960109e-05	-43.6609611	0.0998310258	-32.9327348	4.56997612e-05	-41.7375251	0.0961025655	-20.5774128	
	0.0961046498	-20.6049347	4.56997515e-05	-41.7375243	0.0990652756	-33.1409482	4.35458919e-05	-43.8624112	
	4.712038e-05	-39.9804738	0.0961025488	-20.5774127	4.3545892e-05	-43.8624112	0.0990486859999999	-33.1144342	
	
50000000.	0.0980368699000001	-50.9664912	6.82132737e-05	-78.0887124	0.0728969033	-45.6209363	5.85731243e-05	-74.4172827	
	6.82132737e-05	-78.0887124	0.0981169621	-50.7783484	5.68023185e-05	-76.5861665	0.072912808	-45.5770723	
	0.0728968987	-45.6209353	5.68023158e-05	-76.5861645	0.0973433381	-51.0123162	5.46927017e-05	-78.7127344	
	5.85731214e-05	-74.4172807	0.0729128037	-45.5770715	5.46927017e-05	-78.7127344	0.0973501468999999	-50.9765654	
	
60000000.	0.0879330584	-68.6065164	8.11753725e-05	-112.527402	0.0344169283	-66.7006599	6.82310965e-05	-108.164917	
	8.11753725e-05	-112.527402	0.0881843071	-68.4196046	6.64210373e-05	-110.723646	0.0344584919	-66.6201779	
	0.0344169281	-66.7006599	6.64210381e-05	-110.723646	0.087478954	-68.6671247	6.53080394e-05	-113.530382	
	6.82310973e-05	-108.164917	0.0344584919	-66.620178	6.53080394e-05	-113.530382	0.0875221358	-68.6312203	
	
70000000.	0.0702102283	-83.7015323000001	9.33897505e-05	-147.325103	0.0138678566	49.9244062	7.73333443e-05	-141.386756	
	9.33897505e-05	-147.325103	0.0706047917	-83.5974927	7.54710662e-05	-144.32772	0.0138362176	49.6848026	
	0.0138678579	49.9244107	7.54710658e-05	-144.327718	0.0700716061	-83.8619980000001	7.51354002e-05	-148.71947	
	7.73333439e-05	-141.386754	0.0138362185	49.6848059	7.51354002e-05	-148.71947	0.070146604	-83.8463265	
	
80000000.	0.0488229998	-90.2433175000001	0.000103621894	178.249119	0.0567221069	43.3633191	8.57284197e-05	-173.782676	
	0.000103621894	178.249119	0.0492128526	-90.4424274000002	8.39717124e-05	-177.106334	0.0566571769	43.3526716	
	0.05672211	43.3633241	8.39717133e-05	-177.106328	0.0489236046	-90.7864795	8.3257507e-05	176.573491	
	8.57284207e-05	-173.782669	0.05665718	43.3526765	8.3257507e-05	176.573491	0.0489944593	-90.8412222000001	
	
90000000.	0.0350168715	-74.4947295000001	0.000112143518	144.696681	0.0889884185	19.1696573	9.43142688e-05	154.351713	
	0.000112143518	144.696681	0.0350136723	-75.1943842999999	9.28008923e-05	150.640161	0.0889265631	19.1920667	
	0.0889884233	19.1696611	9.28008969e-05	150.640167	0.034798893	-75.8962637	8.99937686e-05	142.930877	
	9.43142735e-05	154.351719	0.0889265678	19.1920705	8.99937686e-05	142.930877	0.0347781441	-76.0496996999999	
	
100000000.	0.0437556192	-52.5761271999999	0.000120625215	111.965119	0.103354066	-6.22101113	0.000104271769	122.239818	
	0.000120625215	111.965119	0.0433204197	-52.7161621999999	0.000102971609	118.131351	0.103311877	-6.17821026	
	0.103354066	-6.2210157	0.00010297161	118.131347	0.0427158088	-53.4736052	9.67489533e-05	110.280106	
	0.000104271769	122.239815	0.103311877	-6.17821458	9.67489533e-05	110.280106	0.0426030563	-53.4843453	
	
110000000.	0.0645308806	-55.2387363	0.000129273221	80.0634497	0.0972325395	-31.528578	0.000113708742	89.7230111	
	0.000129273221	80.0634496	0.0641386012999999	-54.9750467000001	0.000112934764	85.2184031	0.097224696	-31.4656526	
	0.0972325814	-31.5285653	0.000112934777	85.2184149	0.0630895802	-55.4970096	0.000104216007	78.5471629	
	0.000113708755	89.7230228	0.097224738	-31.4656397	0.000104216007	78.5471627	0.0629907009	-55.4185944	
	
120000000.	0.083631195	-69.4820836	0.00014001227	47.9748247	0.0723020944	-55.6760398	0.000123039595	56.4491422	
	0.00014001227	47.9748246	0.0834723967	-69.1096328	0.000122760732	51.5334454	0.0723354171	-55.5787587	
	0.0723021401	-55.6759855	0.000122760754	51.5334676	0.0821070806	-69.4964157	0.000113781083	46.5234172	
	0.000123039618	56.4491643	0.0723354632	-55.5787043	0.000113781083	46.523417	0.0820603152	-69.3961409999999	
	
130000000.	0.0951704967	-88.2267285	0.000151762276	15.2743645	0.0342417588	-73.5633619	0.000130447006	22.907857	
	0.000151762277	15.2743646	0.0953131356	-87.8462675999999	0.000130735299	17.5872369	0.0343298788	-73.3785337	
	0.0342417921	-73.5631778	0.000130735328	17.587267	0.0937991831	-88.1531223000001	0.000124518317	13.6674799	
	0.000130447036	22.907887	0.0343299127	-73.3783502	0.000124518317	13.6674798	0.0938207197	-88.0533971	
	
140000000.	0.0960881927	-108.593775	0.000162887942	-18.1779268	0.0147104552	25.4999924	0.000135490776	-10.3848329	
	0.000162887943	-18.1779267	0.0965266664	-108.25705	0.000136369076	-16.0803765	0.0147133669	24.9364271	
	0.0147105748	25.4997011	0.000136369109	-16.0803404	0.0950723463	-108.511008	0.000134745452	-20.1409092	
	0.000135490811	-10.3847967	0.0147134872	24.9361403	0.000134745452	-20.1409092	0.0951605505	-108.425732	
	
150000000.	0.0858243802	-128.642142	0.000172265458	-52.1952969	0.0533268231	28.4107745	0.000139452813	-43.1377423	
	0.000172265459	-52.1952968	0.0864963178000001	-128.404548	0.000140761565	-49.1557205	0.0532288595	28.3092679	
	0.053326933	28.4106607	0.000140761601	-49.1556797	0.0853187157	-128.628896	0.000143115111	-54.6014615	
	0.000139452852	-43.1377014	0.0532289696	28.3091542	0.000143115112	-54.6014615	0.0854530108	-128.573264	
	
160000000.	0.0665360481000001	-145.909144	0.000177976811	-85.8619225	0.0828361139	6.1818988	0.000142157874	-74.9592786	
	0.000177976812	-85.8619225	0.0672981082	-145.892272	0.000144099918	-81.1886659	0.0827277412	6.16013501	
	0.0828362395	6.18184749	0.000144099959	-81.1886224	0.0665962375000001	-146.140459	0.000148042955	-88.6460057	
	0.000142157918	-74.9592349	0.082727867	6.16008371	0.000148042956	-88.6460058	0.0667350068999999	-146.141415	
	
170000000.	0.0430450625	-153.980138	0.000181715234	-119.032935	0.0959413171	-18.2643666	0.00014624357	-106.405219	
	0.000181715234	-119.032935	0.0436502378999999	-154.540461	0.000148918137	-112.759059	0.0958563988	-18.2453325	
	0.0959414404	-18.264381	0.000148918183	-112.759015	0.0434766937999999	-155.083736	0.000150940153	-122.026122	
	0.000146243619	-106.405175	0.0958565222	-18.2453469	0.000150940153	-122.026122	0.0435612304	-155.20185	
	
180000000.	0.0277594722	-132.861799	0.000184322519	-151.34328	0.0905967691	-42.9542017	0.000151508784	-137.933272	
	0.00018432252	-151.34328	0.0276075497	-134.27178	0.00015530657	-144.350408	0.0905614036	-42.9019001	
	0.0905968707	-42.9541823	0.000155306618	-144.350365	0.0273712555	-136.125468	0.000152873068	-154.315549	
	0.000151508834	-137.933229	0.0905615055	-42.9018807	0.000152873068	-154.315549	0.0273009058	-136.336494	
	
190000000.	0.0386720509	-107.477513	0.000187364695	177.100525	0.0686258408	-66.6701796	0.000157095947	-169.99767	
	0.000187364695	177.100525	0.0380129103	-107.505316	0.000162480639	-176.491907	0.0686546685	-66.5779647	
	0.0686259098	-66.6701149	0.000162480685	-176.491867	0.0367073118	-108.890319	0.000155564836	174.338362	
	0.000157095995	-169.99763	0.0686547379	-66.5779001	0.000155564835	174.338362	0.0365835806	-108.784077	
	
200000000.	0.0584927162	-114.183892	0.000192402896	145.756369	0.0355778604	-85.0297084	0.000162044646	157.275408	
	0.000192402896	145.756369	0.058027381	-113.740242	0.000169256481	150.609132	0.0356796556	-84.8621706	
	0.0355779047	-85.0295373	0.000169256522	150.60917	0.055990481	-114.453288	0.000160538163	143.238476	
	0.000162044688	157.275446	0.0356797004	-84.8620003	0.000160538162	143.238477	0.0559410427	-114.286167	
	
210000000.	0.0729030382999999	-132.088089	0.000198513714	114.419181	0.0101111031	-16.340142	0.000164203619	124.479948	
	0.000198513714	114.419181	0.0727684252	-131.573506	0.000173324746	117.563336	0.0101854173	-17.1970097	
	0.0101112237	-16.3402578	0.000173324779	117.563372	0.070324466	-132.027479	0.000166993331	112.012544	
	0.000164203654	124.479985	0.0101855382	-17.1971146	0.00016699333	112.012545	0.0703596294999999	-131.871156	
	
220000000.	0.0780418668000001	-153.367585	0.000205492372	82.5343505	0.0384929351	13.68502	0.000164583157	91.9243435	
	0.000205492372	82.534351	0.0782507191	-152.865919	0.000175287306	84.6610593	0.0383706589	13.4896082	
	0.0384930054	13.684884	0.000175287332	84.6610933	0.0757133948999999	-153.197583	0.00017430728	80.0345511	
	0.000164583186	91.9243784	0.0383707295	13.4894723	0.00017430728	80.0345517	0.0758206453	-153.062861	
	
230000000.	0.0735970384	-175.508492	0.00021155134	50.2772611	0.061433805	-6.10958471	0.000163774233	60.0149647	
	0.000211551341	50.2772616	0.0741073029	-175.063051	0.000175623912	52.396427	0.0612830526	-6.18541433	
	0.0614338704	-6.10964757	0.000175623934	52.3964592	0.0718031268	-175.325322	0.000180549193	47.5443388	
	0.000163774257	60.0149979	0.0612831182	-6.18547726	0.000180549193	47.5443394	0.0719568945	-175.218921	
	
240000000.	0.0614056552000001	162.903957	0.000215824505	17.8921516	0.0704017288	-29.4210268	0.000163125364	28.7304976	
	0.000215824505	17.8921521	0.0621336671000001	163.227213	0.000175769596	20.840439	0.0702611142	-29.4446104	
	0.0704017845	-29.4210543	0.000175769616	20.8404687	0.0603657516000001	162.989122	0.000184764071	14.9021526	
	0.000163125386	28.7305284	0.07026117	-29.444638	0.000184764071	14.9021531	0.0605341377	163.056737	
	
250000000.	0.0444551688000001	143.835441	0.00021856091	-14.4791967	0.0644502023	-53.1111047	0.000163928186	-2.36235218	
	0.00021856091	-14.4791963	0.0452789154	143.861965	0.000177269786	-10.3847641	0.0643509029	-53.0955339	
	0.0644502431	-53.111106	0.000177269804	-10.3847376	0.0442737870999999	143.529815	0.000187200843	-17.6474853	
	0.000163928206	-2.36232486	0.0643509438	-53.0955353	0.000187200843	-17.6474848	0.0444242590999999	143.533228	
	
260000000.	0.0267335114	133.258953	0.000219362862	-46.4044251	0.0460300745	-75.3661786	0.000165334188	-33.5705002	
	0.000219362862	-46.4044247	0.0274297566999999	132.383202	0.000179639764	-41.5303551	0.045994999	-75.3093888	
	0.0460301003	-75.3661503	0.00017963978	-41.5303325	0.0272364704	131.372801	0.000187722405	-49.5980505	
	0.000165334206	-33.5704769	0.0459950249	-75.3093605	0.000187722405	-49.5980501	0.0273296734	131.240841	
	
270000000.	0.0156446587	151.432041	0.00021979469	-78.0006549	0.0207380951	-88.5745457	0.000167002872	-65.2828608	
	0.00021979469	-78.0006546	0.0156149279	148.601809	0.000182726978	-73.1025469	0.0207804134	-88.464979	
	0.0207381151	-88.574453	0.000182726991	-73.1025283	0.0154910154	144.179262	0.000188023843	-81.0668595	
	0.000167002885	-65.2828416	0.0207804335	-88.4648868	0.000188023843	-81.0668591	0.0154651517	143.886889	
	
280000000.	0.0198995734000001	175.48059	0.000220371957	-109.218572	0.0108095097	-0.0205272097	0.000167470216	-97.3231178	
	0.000220371956	-109.218571	0.0192082043	174.875809	0.000184993696	-105.006212	0.0107814323	-0.517098355	
	0.0108095392	-0.0206608244	0.000184993705	-105.006197	0.0176583874000001	170.476874	0.000188800618	-112.05828	
	0.000167470226	-97.3231024	0.010781462	-0.517230851	0.000188800618	-112.05828	0.017583011	170.600741	
	
290000000.	0.0281119281	166.608359	0.00022161422	-140.245741	0.0299275269	5.46609286	0.000166250138	-129.345802	
	0.00022161422	-140.24574	0.0274919457000001	167.154814	0.000185703082	-136.974276	0.0298064486	5.35535405	
	0.0299275407	5.46604002	0.000185703087	-136.974264	0.0249690515	164.378934	0.000190573223	-142.859281	
	0.000166250143	-129.34579	0.0298064624	5.35530113	0.000190573222	-142.85928	0.0249471341	164.630135	
	
300000000.	0.0335475945000001	146.356405	0.000223750071	-171.395857	0.0404198666	-14.0597977	0.000164026107	-161.092336	
	0.000223750071	-171.395856	0.0331542218000001	147.243586	0.000185289212	-168.794627	0.0402652206	-14.0915571	
	0.0404198746	-14.0598213	0.000185289214	-168.794619	0.0301195813	145.033304	0.000193402757	-173.864187	
	0.00016402611	-161.092327	0.0402652287	-14.0915808	0.000193402757	-173.864186	0.0301527899	145.294669	
	
310000000.	0.0359338749	122.577156	0.000225452314	157.383049	0.0386759673	-35.1867261	0.00016117422	167.656261	
	0.000225452314	157.383049	0.0358047548	123.596925	0.000183884914	159.827395	0.0385183463	-35.1657318	
	0.0386759696	-35.1867353	0.000183884914	159.827399	0.0326505609	121.626897	0.000195837369	154.97121	
	0.000161174222	167.656265	0.0385183486	-35.165741	0.000195837369	154.971211	0.0327254092	121.878096	
	
320000000.	0.0365453663	98.1274760999999	0.000226600529	125.957756	0.0258181522	-52.1612658	0.00015884852	136.684452	
	0.000226600529	125.957756	0.0366885167	99.1594923999999	0.000182718851	128.697309	0.0256881082	-52.0435247	
	0.02581815	-52.1612653	0.000182718851	128.69731	0.0337766054	97.4336167000002	0.000197619752	123.538629	
	0.000158848519	136.684453	0.025688106	-52.0435241	0.000197619752	123.538629	0.0338804466	97.6601013000001	
	
330000000.	0.0366797995	74.6171995000002	0.000226409776	94.5776046	0.00925375111	-26.6394381	0.00015700307	105.824444	
	0.000226409776	94.5776046	0.0370817536	75.5153888000002	0.000181787749	97.7309945	0.00923859752	-26.001066	
	0.00925374824	-26.6394109	0.000181787747	97.7309918	0.0347414478	74.1579171000002	0.000197953791	92.14767	
	0.000157003069	105.824442	0.00923859473	-26.0010385	0.000197953791	92.14767	0.0348615623	74.3393462000001	
	
340000000.	0.0373080616	52.9980068	0.000225097095	63.4607391	0.0215121456	35.8273944	0.000155347511	74.9471472	
	0.000225097095	63.460739	0.0379195722	53.5902845	0.000180909931	66.8221821	0.0215670128	35.8319177	
	0.0215121476	35.8274156	0.000180909929	66.822176	0.0364282793	52.6314844999999	0.000197080163	61.0616925	
	0.000155347509	74.9471408	0.0215670148	35.8319388	0.000197080163	61.0616924	0.0365502462	52.7502045	
	
350000000.	0.0387373613	33.2792537	0.00022384245	32.6485217	0.0390747415	22.9231711	0.000153782348	44.036586	
	0.00022384245	32.6485215	0.0394575454	33.4400656	0.000180081982	35.9183173	0.039073426	22.9174369	
	0.039074741	22.9231918	0.000180081978	35.9183081	0.039007351	32.6629911	0.000196194777	30.3374105	
	0.000153782344	44.0365762	0.0390734256	22.9174576	0.000196194777	30.3374102	0.0391144097	32.7177564	
	
360000000.	0.0403923575	14.8431624	0.00022304776	2.16637492	0.0474079995	2.74098114	0.000152045826	13.2343979	
	0.00022304776	2.16637466	0.0410793875999999	14.561747	0.000178904642	5.19525397	0.0473590765	2.76407634	
	0.0474079956	2.74100492	0.000178904638	5.19524171	0.0417179197	13.5789619	0.000195698295	0.0106918982	
	0.000152045821	13.2343849	0.0473590725	2.76410013	0.000195698295	0.0106915157	0.0417947700999999	13.5854745	
	
370000000.	0.0408607188	-2.40962675	0.00022368581	-28.3982136	0.0430636201	-17.0774156	0.000150758714	-17.5525918	
	0.00022368581	-28.3982139	0.0413648304999999	-3.06744223000001	0.000178141833	-25.4617861	0.0429851512	-17.0049473	
	0.0430636138	-17.0773869	0.000178141828	-25.4618012	0.0429535324999999	-4.68465404000001	0.000196592934	-30.3762503	
	0.000150758708	-17.5526078	0.042985145	-17.0049185	0.000196592934	-30.3762508	0.0429892246	-4.70729179	
	
380000000.	0.0385849895	-17.1427578	0.000224823569	-59.2865369	0.0267482839	-28.3691845	0.000149882043	-48.4888322	
	0.000224823569	-59.2865374	0.0387703729000001	-18.0839075	0.000177785378	-56.1493843	0.0266775261	-28.1518354	
	0.0267482789	-28.3691431	0.000177785372	-56.149402	0.0409388485000001	-20.9027838	0.00019799951	-61.0738143	
	0.000149882037	-48.488851	0.0266775211	-28.1517937	0.000197999509	-61.0738149	0.0409274235000001	-20.9355792	
	
390000000.	0.0333217698000001	-25.0910071	0.000225025517	-90.5780589	0.0144477015	26.694492	0.000148913814	-79.779147	
	0.000225025517	-90.5780595	0.0330786457000001	-26.1076672999999	0.000177485195	-87.0536123	0.0145517801	27.0276379	
	0.0144477107	26.6945338	0.000177485189	-87.0536323	0.0350496190000001	-31.1868532999999	0.00019861896	-92.1679913	
	0.000148913807	-79.7791684	0.0145517894	27.0276791	0.000198618959	-92.1679921	0.0349929357	-31.1948556	
	
400000000.	0.0293079630999999	-18.3288229	0.000223216729	-122.095347	0.0395761748	52.2418131	0.000147033356	-111.425166	
	0.000223216728	-122.095348	0.0287016001	-18.6085545	0.000176577063	-118.252611	0.0396978976	52.1884633	
	0.0395761817	52.2418263	0.000176577057	-118.252633	0.0288527284	-26.4522012	0.000197537241	-123.484549	
	0.000147033349	-111.425189	0.0396979045	52.1884764	0.00019753724	-123.484549	0.0287826744	-26.3406527	
	
410000000.	0.0360549512	-4.77277831	0.000218572118	-153.294633	0.0677903967	36.3499984	0.000143350961	-143.025587	
	0.000218572117	-153.294634	0.0356409829999999	-4.03927674000001	0.000173943584	-149.434419	0.0678786698	36.3049526	
	0.0677903981	36.3500128	0.000173943578	-149.434443	0.0332247441	-9.08425783999999	0.000193963017	-154.44732	
	0.000143350955	-143.025613	0.0678786712	36.304967	0.000193963016	-154.447321	0.033221714	-8.88675333000001	
	
420000000.	0.053518088	-6.09919381	0.000212825125	176.183651	0.0866648624	15.0869527	0.000138389453	-174.059873	
	0.000212825124	176.18365	0.0535476641	-5.43740592	0.000170044941	179.738249	0.0867147766	15.0585606	
	0.0866648584	15.0869675	0.000170044936	179.738223	0.0505100179999999	-7.16023759000001	0.000189605315	175.249888	
	0.000138389448	-174.059901	0.0867147726	15.0585754	0.000189605314	175.249887	0.0505760994	-7.03458571	
	
430000000.	0.0735512241000001	-18.7869956	0.000207955958	146.497872	0.0905329071	-6.95613055	0.000133452461	155.897436	
	0.000207955957	146.497872	0.0739085675999999	-18.39317	0.000165820601	149.618397	0.0905447163	-6.96530475	
	0.0905328988	-6.95611642	0.000165820596	149.61837	0.0714219079	-19.0314357	0.000186152324	145.734738	
	0.000133452455	155.897407	0.0905447081	-6.96529064	0.000186152323	145.734737	0.0715218668000001	-18.960766	
	
440000000.	0.0896667282	-36.3437514	0.000205900353	117.283932	0.0772875441	-27.5401252	0.000130395262	126.749461	
	0.000205900353	117.283931	0.0902132624	-36.1613807	0.000162888302	120.190598	0.077271776	-27.519673	
