!!!!!!!!!!!!!!!!!!!!!!!!!!!!!!!!!!!!!!!!!!!!!!!!!!!!!!!!!!!!!!!!!!!!!!!!!!!!!!!!!!!!!!!!!
!!
!! Reference: shanbhag_3dj_02_2305.pdf
!!
!!!!!!!!!!!!!!!!!!!!!!!!!!!!!!!!!!!!!!!!!!!!!!!!!!!!!!!!!!!!!!!!!!!!!!!!!!!!!!!!!!!!!!!!!
!!
!! CHANNEL DESCRIPTION: TP0_TP5 KR Channel using 1meter Cabled BP, Cabled Host
!! CABLE DESCRIPTION: 1meter 26AWG Cable
!! MODEL STATUS: Developmental
!!
!! PORT DEFINITIONS: 
!! Port   1    ----->  Side A	      Side B  <-----  Port   2
!! Port   3    ----->  Side A	      Side B  <-----  Port   4
!!


# HZ S MA R 50.000000 


0.	0.0497963051000001	-7.89627349999998e-12	0.945432925	-5.68015602e-13	0.016684869	-2.3965662e-12	0.017594955	-180	
	0.945432928	-5.68015596e-13	0.0497911103999999	-7.89703516000001e-12	0.0175963072	-180	0.0166866106	-2.39634413e-12	
	0.0166854445	-3.13924407e-12	0.0175966393	-180	0.0499748052	-1.66518295e-11	0.945251607	8.84452322e-14	
	0.01759529	-180	0.0166872485	-3.13893963e-12	0.945251604	8.84452312e-14	0.0499792214999999	-1.66503549e-11	
	
10000000.	0.0731996065	2.38645404	0.939196098	-33.5984348	0.0595225037	24.8788858	0.0153273162	142.716718	
	0.939196098	-33.5984348	0.0731996074000002	2.38645295999997	0.0153273162	142.716718	0.0595225035	24.8788859	
	0.059522538	24.8788094	0.0153272768	142.716652	0.0732302988999999	2.24048435	0.939461035	-33.5968271	
	0.0153272768	142.716652	0.0595225378	24.8788095	0.939461035	-33.5968271	0.0732302998999999	2.24048374	
	
20000000.	0.0910424784000001	-9.16942793999999	0.931586532	-66.7272625	0.0994734997	12.6347402	0.0172509439	98.0853147	
	0.931586532	-66.7272625	0.0910424748000001	-9.16942681	0.0172509437	98.0853183	0.0994734994	12.6347395	
	0.0994735833	12.6349606	0.0172509465	98.0853264	0.0910883060999999	-9.19465154000001	0.931823502	-66.7306858	
	0.0172509467	98.0853225	0.0994735837	12.6349615	0.931823502	-66.7306858	0.0910883202999999	-9.19465969000001	
	
30000000.	0.0959248143999998	-27.9326016000001	0.92577945	-99.6320421	0.105913335	-10.3534764	0.0194348178	52.6386963	
	0.92577945	-99.6320421	0.0959248193999998	-27.9326063000001	0.0194348188	52.6386966	0.105913335	-10.3534766	
	0.105913339	-10.3534856	0.0194348161	52.6386141	0.0957137259000001	-27.9269902	0.925967461	-99.6373313	
	0.019434815	52.6386137	0.105913341	-10.3534837	0.92596746	-99.6373313	0.0957137292999999	-27.9269982	
	
40000000.	0.0857964942000001	-49.5119283999999	0.92569942	-132.543415	0.0773576157	-38.2800873	0.0180167813	6.3430011	
	0.92569942	-132.543415	0.085796495	-49.5119409999999	0.0180167811	6.34299966	0.0773576155	-38.2800868	
	0.0773575799	-38.2800965	0.01801679	6.3429669	0.0851252905	-49.5451192	0.92588898	-132.550585	
	0.0180167903	6.34296895	0.0773575813	-38.2800955	0.92588898	-132.550584	0.0851253017	-49.5451248	
	
50000000.	0.0605763176	-69.7385959	0.925374268	-165.684782	0.0218508215	-49.6089562	0.0146839461	-35.8074937	
	0.925374268	-165.684782	0.0605763168	-69.7386198	0.014683946	-35.8074979	0.0218508223	-49.6089493	
	0.0218507998	-49.6089497	0.0146839552	-35.8075192	0.059308495	-69.6010031000001	0.925551309	-165.695101	
	0.0146839554	-35.8075142	0.0218508008	-49.6089437	0.925551309	-165.695101	0.0593084918	-69.6010049	
	
60000000.	0.0312720091	-70.4942984000001	0.921675765	161.026835	0.0505082221	58.1993129	0.0122323281	-64.5970831	
	0.921675765	161.026835	0.0312719951	-70.4943441000001	0.0122323283	-64.5970822	0.050508223	58.1993097	
	0.0505082378	58.1993327	0.0122323331	-64.5971083	0.0297667371	-68.1911368999998	0.921800717	161.01352	
	0.0122323329	-64.5971102	0.0505082385	58.1993294	0.921800717	161.01352	0.0297667236	-68.1911805000002	
	
70000000.	0.0282858539	-21.6808631	0.914223105	127.914548	0.108891156	33.0453282	0.0130208452	-86.1546567	
	0.914223105	127.914548	0.0282858272999998	-21.6808431000003	0.0130208443	-86.1546586	0.108891157	33.0453263	
	0.108891169	33.0453396	0.0130208467	-86.1546791	0.029600484	-17.4780378	0.914266	127.900003	
	0.0130208477	-86.1546788	0.10889117	33.0453377	0.914266001	127.900003	0.0296004655	-17.4779977	
	
80000000.	0.0509094126	-18.9793958	0.906975902	95.1228585	0.140051702	3.35110814	0.0165460027	-118.430842	
	0.906975902	95.1228585	0.0509093974	-18.979374	0.0165460024	-118.430843	0.140051702	3.35110715	
	0.140051711	3.35111959	0.0165460043	-118.430859	0.0534655197000001	-17.6983178	0.906938656	95.1101626	
	0.0165460044	-118.430858	0.140051711	3.35111857	0.906938656	95.1101626	0.0534655046000001	-17.698297	
	
90000000.	0.0667543816999999	-37.0437389000001	0.903978087	62.4788225	0.135063492	-26.6196386	0.019910514	-160.280162	
	0.903978087	62.4788225	0.0667543749	-37.0437269999999	0.0199105141	-160.280163	0.135063492	-26.6196392	
	0.135063497	-26.619631	0.0199105148	-160.280179	0.0695012663000001	-36.5964548	0.903896885	62.4703732	
	0.0199105149	-160.280178	0.135063497	-26.6196315	0.903896885	62.4703732	0.0695012593	-36.5964432	
	
100000000.	0.0691872913	-58.7763008000001	0.905223619	29.6703337	0.0950859885	-55.3223695	0.0213443847	154.884982	
	0.905223619	29.6703337	0.0691872890999999	-58.7762998000001	0.0213443851	154.884984	0.0950859885	-55.3223692	
	0.0950859847	-55.3223762	0.0213443828	154.884972	0.0716053004	-58.7367526999999	0.905147982	29.666144	
	0.0213443823	154.88497	0.0950859847	-55.3223757	0.905147982	29.666144	0.0716052982999999	-58.7367519000001	
	
110000000.	0.0564781034	-79.4489341000001	0.905610379	-3.41968375	0.0309783875	-70.4437458	0.0203569689	111.660613	
	0.905610379	-3.41968376	0.0564781008	-79.4489497	0.0203569689	111.660616	0.0309783882	-70.4437412	
	0.0309783874	-70.4436601	0.0203570159	111.660558	0.0581351233	-79.6990022	0.905574376	-3.42363051	
	0.0203570154	111.660556	0.0309783885	-70.4436549	0.905574376	-3.4236305	0.0581351197	-79.6990188999999	
	
120000000.	0.0350459402	-88.9999438999999	0.90190145	-36.6468859	0.0467430635	38.0214209	0.0180846545	74.6662048	
	0.90190145	-36.6468859	0.0350459240999999	-88.9999931999999	0.0180846546	74.6662082	0.0467430653	38.0214154	
	0.046743151	38.0213762	0.0180847412	74.6661269	0.0356458299	-89.3824120000001	0.901898928	-36.6531893	
	0.0180847404	74.666125	0.0467431526	38.0213702	0.901898928	-36.6531893	0.0356458103	-89.3824628000002	
	
130000000.	0.0236180396	-60.0331486999998	0.89428568	-69.6799378	0.105484449	15.4058723	0.0169784262	45.9740153	
	0.89428568	-69.6799378	0.0236179868000001	-60.0331526999999	0.0169784266	45.9740178	0.10548445	15.4058685	
	0.105484583	15.4058641	0.0169785395	45.9738871	0.0238982564	-58.7377435999999	0.894275173	-69.6897026	
	0.0169785386	45.9738862	0.105484584	15.4058602	0.894275173	-69.6897026	0.0238982006	-58.7377354	
	
140000000.	0.0364682157000001	-43.5391289999998	0.887065576	-102.396653	0.135803221	-13.6890453	0.0185934031	17.6676837	
	0.887065576	-102.396653	0.0364681683	-43.5390492999999	0.0185934035	17.6676853	0.135803222	-13.689049	
	0.135803377	-13.6890277	0.0185935341	17.6675233	0.0380569215	-42.3812441	0.887004103	-102.408347	
	0.0185935333	17.6675233	0.135803378	-13.6890314	0.887004103	-102.408347	0.0380568763	-42.3811605	
	
150000000.	0.0484521571	-56.5917556000001	0.883918814	-134.992663	0.131697589	-43.2554635	0.0213931108	-17.3234336	
	0.883918814	-134.992663	0.0484521249	-56.5916672	0.0213931112	-17.3234322	0.131697588	-43.2554678	
	0.13169773	-43.2554177	0.0213932595	-17.323565	0.0511842720999999	-56.1005409000001	0.883794454	-135.003115	
	0.0213932588	-17.3235651	0.13169773	-43.2554219	0.883794454	-135.003115	0.0511842414	-56.1004552	
	
160000000.	0.0483462378	-76.8544281	0.884313382	-167.690409	0.0953775775	-71.7233335	0.0231559239	-56.7285267	
	0.884313382	-167.690409	0.0483462226	-76.8543278999999	0.0231559244	-56.7285252	0.0953775761	-71.7233391	
	0.0953776752	-71.7232436	0.0231560884	-56.7286017	0.0518381438	-76.9758138000001	0.884154707	-167.696478	
	0.0231560877	-56.7286021	0.0953776738	-71.7232491	0.884154707	-167.696478	0.0518381267	-76.9757199000001	
	
170000000.	0.0348685641	-95.4495260000002	0.884795736	159.359469	0.0401051743	-91.9279972	0.0229220935	-96.2265914	
	0.884795736	159.359469	0.0348685714	-95.4493937999998	0.0229220942	-96.2265902	0.040105171	-91.928007	
	0.0401052361	-91.9277707	0.0229222663	-96.2266146	0.0386228452	-96.9350893999999	0.884657456	159.358319	
	0.0229222655	-96.2266148	0.0401052331	-91.9277804	0.884657456	159.358319	0.0386228457	-96.9349675	
	
180000000.	0.0151765384	-83.0151244000003	0.882374503	126.304453	0.0251294099	8.0957816	0.0213906397	-131.4386	
	0.882374503	126.304453	0.0151765894	-83.0149730999997	0.0213906404	-131.438599	0.0251294087	8.09579185	
	0.0251295268	8.09556694	0.0213908136	-131.438603	0.0174646186	-93.9614561000001	0.882300617	126.305985	
	0.0213908127	-131.438602	0.0251295253	8.09557678000001	0.882300617	126.305985	0.0174646574	-93.9612740000001	
	
190000000.	0.024745646	-25.4980459	0.877387023	93.3636775	0.0677174976	-2.86222758	0.0207191955	-161.168722	
	0.877387023	93.3636775	0.0247456689	-25.4981197	0.020719196	-161.168722	0.0677174985	-2.86222684	
	0.0677176036	-2.86228194	0.020719365	-161.168748	0.0218711145999999	-30.2967195000001	0.877378847	93.3643475	
	0.0207193644	-161.168747	0.0677176043	-2.86228122	0.877378847	93.3643475	0.0218711485999999	-30.2967912000001	
	
200000000.	0.0446051431000001	-36.4568716999999	0.872709537	60.5896804	0.0856445614	-29.8732535	0.0221248405	168.989075	
	0.872709537	60.5896804	0.0446051427999999	-36.4568804000001	0.0221248407	168.989074	0.0856445624	-29.8732559	
	0.0856446677	-29.8732544	0.0221250016	168.989033	0.0418848137999999	-37.2842235000001	0.872728982	60.5871018	
	0.0221250014	168.989034	0.0856446684	-29.8732567	0.872728982	60.5871018	0.0418848223	-37.2842361000001	
	
210000000.	0.0530679430000001	-58.1265424999999	0.870312852	27.8877944	0.0739394523	-57.4108951	0.0243059034	134.752804	
	0.870312852	27.8877944	0.053067938	-58.1265097999999	0.0243059034	134.752804	0.0739394522	-57.4109014	
	0.0739395445	-57.4108544	0.0243060551	134.752782	0.0511755229	-58.3658022	0.870308162	27.8823781	
	0.0243060551	134.752782	0.0739395443	-57.4108606	0.870308162	27.8823781	0.0511755247	-58.3657735	
	
220000000.	0.0456598582	-78.9874075000001	0.869369438	-4.91988622	0.0396693617	-79.4184621	0.0252904511	97.6150234	
	0.869369438	-4.91988622	0.0456598641	-78.9873226000001	0.0252904512	97.6150237	0.0396693586	-79.4184789	
	0.0396694415	-79.4183497	0.025290592	97.6150322	0.0447668139	-79.1999257999999	0.869313152	-4.9254973	
	0.025290592	97.6150323	0.0396694383	-79.4183663	0.869313152	-4.9254973	0.044766824	-79.1998456999999	
	
230000000.	0.0253067627	-82.8527995	0.867684559	-37.8445534	0.0139289551	-2.47714881	0.0245696908	61.9171269	
	0.867684559	-37.8445534	0.0253068203	-82.8526098999993	0.0245696909	61.9171273	0.013928943	-2.4771121	
	0.0139290227	-2.47747561999999	0.0245698193	61.9171524	0.0252443843	-84.0817910999999	0.867590931	-37.8470649	
	0.0245698192	61.9171523	0.0139290107	-2.47743905999998	0.867590931	-37.8470649	0.0252444413	-84.0816094000001	
	
240000000.	0.0255839599000001	-24.7043840999999	0.864112001	-70.765623	0.0491422848	9.79926267	0.0236690778	30.8976329	
	0.864112001	-70.765623	0.0255840637	-24.7045504000001	0.023669078	30.8976332	0.0491422825	9.79928204	
	0.0491422914	9.79917012	0.0236691929	30.8976462	0.0242291560000001	-26.4555748999999	0.864032771	-70.7635089	
	0.0236691928	30.897646	0.0491422892	9.79918939999999	0.864032771	-70.7635089	0.0242292588000001	-26.4557454999999	
	
250000000.	0.0557821981000001	-25.4967989	0.859812342	-103.582322	0.0682215931	-15.0023259	0.0247457266	1.98658313	
	0.859812342	-103.582322	0.0557822533000001	-25.4969342	0.0247457268	1.98658337	0.0682215935	-15.0023115	
	0.0682215928	-15.0023628	0.0247458258	1.98657426000003	0.0531674868	-25.7076752	0.859805471	-103.57739	
	0.0247458256	1.98657418	0.0682215931	-15.0023485	0.859805471	-103.57739	0.0531675402	-25.7078171	
	
260000000.	0.0800938586	-46.636614	0.85661276	-136.309364	0.0605110882	-40.6807404	0.0275639539	-30.5829048	
	0.85661276	-136.309364	0.0800938881	-46.6367155	0.0275639541	-30.5829046	0.060511091	-40.6807258	
	0.0605110813	-40.6807484	0.0275640349	-30.5829157	0.0765269776000001	-46.4824218999999	0.856703013	-136.306082	
	0.0275640347	-30.5829158	0.060511084	-40.6807338	0.856703013	-136.306082	0.0765270048999999	-46.4825288	
	
270000000.	0.0873438883	-70.9615046999999	0.854747908	-169.075201	0.0285521223	-53.7492422	0.0296458224	-67.9660036	
	0.854747908	-169.075201	0.0873438981	-70.9615916999999	0.0296458225	-67.9660033	0.028552129	-53.7492219	
	0.0285521168	-53.749204	0.0296458846	-67.9660032	0.0830688753	-70.5056633	0.854903052	-169.078814	
	0.0296458844	-67.9660034	0.0285521235	-53.7491836	0.854903052	-169.078814	0.0830688823	-70.5057555	
	
280000000.	0.0733701757	-93.4350226999999	0.852714281	158.062328	0.0293378351	37.8128607	0.0291020375	-106.231471	
	0.852714281	158.062328	0.0733701674	-93.4351058	0.0291020377	-106.231471	0.0293378371	37.8128479	
	0.02933786	37.8128352	0.0291020815	-106.231462	0.0687829139	-92.2900589000001	0.852847465	158.049111	
	0.0291020814	-106.231463	0.029337862	37.8128224	0.852847465	158.049111	0.0687829014	-92.2901482	
	
290000000.	0.0435616538	-102.20541	0.848949791	125.178628	0.0788406508	25.9861199	0.0263973149	-139.952319	
	0.848949791	125.178628	0.043561625	-102.205491	0.026397315	-139.952319	0.0788406498	25.9861195	
	0.0788406612	25.9861064	0.0263973428	-139.952311	0.0398407517	-97.8285883000001	0.848960619	125.158055	
	0.0263973427	-139.952312	0.0788406603	25.9861059	0.848960619	125.158055	0.0398407166	-97.8286734	
	
300000000.	0.0333132694	-57.8519492000001	0.843890117	92.411302	0.11467363	-0.718754514	0.0249529437	-165.790033	
	0.843890117	92.411302	0.0333132484	-57.8519539999999	0.0249529438	-165.790033	0.114673629	-0.71875149	
	0.114673621	-0.71875992	0.0249529566	-165.790036	0.0353313062999999	-51.0684599000001	0.843728664	92.3900856	
	0.0249529566	-165.790037	0.11467362	-0.71875692	0.843728664	92.3900856	0.0353312849	-51.0684587999999	
	
310000000.	0.0672047367000001	-48.3110333999999	0.839798594	59.8039195	0.123328604	-28.9130417	0.0279612262	169.10218	
	0.839798594	59.8039195	0.0672047448	-48.3110637	0.0279612262	169.10218	0.123328604	-28.9130358	
	0.123328575	-28.9130425	0.027961223	169.102172	0.0704831049	-46.8813539	0.839501801	59.7896987	
	0.027961223	169.102171	0.123328575	-28.9130365	0.839501801	59.7896987	0.0704831118000001	-46.8813825	
	
320000000.	0.0983837336	-67.1007205	0.838266952	27.2277073	0.100464086	-55.7370708	0.0334164767	135.541298	
	0.838266952	27.2277073	0.0983837472999999	-67.1007721	0.0334164768	135.541299	0.100464089	-55.73706	
	0.100464039	-55.7370676	0.0334164567	135.541289	0.100662141	-66.5883888	0.83794446	27.2239883	
	0.0334164566	135.541289	0.100464042	-55.7370568	0.83794446	27.2239883	0.100662153	-66.5884393	
	
330000000.	0.109878472	-91.5878426000001	0.838537532	-5.47663945	0.0521474194	-73.6539923	0.037107055	95.6153076	
	0.838537532	-5.47663945	0.10987848	-91.587915	0.0371070551	95.6153081	0.0521474303	-73.6539694	
	0.0521473652	-73.6539729	0.0371070185	95.6152926	0.110585427	-91.2447505	0.838307257	-5.47330508	
	0.0371070184	95.6152921	0.0521473761	-73.65395	0.838307257	-5.47330508	0.110585433	-91.2448222000001	
	
340000000.	0.0954432431	-116.326817	0.838161962	-38.3590116	0.0285143135	3.41406139	0.0364641258	54.4490004	
	0.838161962	-38.3590116	0.0954432325000001	-116.326924	0.0364641259	54.4490009	0.0285143296	3.41402309	
	0.0285143441	3.41415635	0.0364640748	54.4489733	0.0943256808	-115.815841	0.838064493	-38.3579002	
	0.0364640747	54.4489729	0.0285143602	3.41411808	0.838064493	-38.3579002	0.0943256663	-115.815948	
	
350000000.	0.059331924	-133.711844	0.83492723	-71.3013842	0.0876330618	7.28321135	0.0319175355	17.820105	
	0.83492723	-71.3013841	0.0593318622000001	-133.712029	0.0319175356	17.8201053	0.0876330633	7.28319579	
	0.087633103	7.28322272	0.0319174719	17.8200654	0.0566445226	-131.834569	0.834872557	-71.3115134	
	0.0319174718	17.820065	0.0876331045	7.28320714999999	0.834872557	-71.3115134	0.0566444526	-131.834759	
	
360000000.	0.0284612281	-102.365367	0.829227598	-104.086636	0.135089065	-17.9703656	0.0278692392	-8.24168654	
	0.829227598	-104.086636	0.0284610253000001	-102.365431000001	0.0278692391	-8.24168624	0.135089064	-17.9703746	
	0.13508909	-17.9703647	0.0278691626	-8.24171567000003	0.0292006539	-92.3594634000002	0.829039321	-104.109094	
	0.0278691626	-8.24171598	0.135089089	-17.9703737	0.829039321	-104.109094	0.0292004503	-92.3594513000001	
	
370000000.	0.0569045474	-69.3516678999999	0.824123949	-136.622083	0.153568091	-46.148535	0.029786498	-29.4252922	
	0.824123949	-136.622083	0.0569044401	-69.3515104	0.0297864979	-29.4252918	0.153568088	-46.1485413	
	0.153568095	-46.1485411	0.0297864119	-29.4252886	0.062875809	-66.9812727	0.823660684	-136.647751	
	0.0297864119	-29.425289	0.153568092	-46.1485474	0.823660684	-136.647751	0.0628757108	-66.9811268	
	
380000000.	0.0904797702	-85.3710659000001	0.822324298	-169.034734	0.1398445	-74.1937676	0.0363744225	-59.3172686	
	0.822324298	-169.034734	0.0904797182	-85.3709733999999	0.0363744224	-59.317268	0.139844496	-74.1937716	
	0.139844484	-74.1937822	0.0363743284	-59.3172613	0.0976384646	-84.6836642	0.821581781	-169.048876	
	0.0363743285	-59.3172619	0.13984448	-74.1937862	0.821581781	-169.048876	0.0976384161	-84.6835789000001	
	
390000000.	0.10409438	-109.787925	0.823972725	158.461666	0.0994575127	-100.174166	0.0422113352	-97.3318729	
	0.823972725	158.461666	0.104094354	-109.78787	0.0422113351	-97.3318723	0.099457509	-100.174166	
	0.0994574777	-100.174194	0.0422112316	-97.3318832	0.111399926	-109.581066	0.823106323	158.47046	
	0.0422112316	-97.3318839	0.0994574741	-100.174194	0.823106323	158.47046	0.1113999	-109.581015	
	
400000000.	0.091323002	-135.909483	0.826937602	125.726509	0.0448171414	-114.950627	0.0439710518	-137.970404	
	0.826937602	125.726509	0.0913229874000002	-135.909459	0.0439710517	-137.970404	0.0448171442	-114.950614	
	0.0448170863	-114.950673	0.0439709392	-137.970438	0.0979108038999999	-135.999472	0.82618669	125.75822	
	0.0439709393	-137.970438	0.0448170891	-114.95066	0.82618669	125.75822	0.0979107889	-135.999451	
	
410000000.	0.0549695084000001	-157.978143	0.828210688	92.7716344	0.0285541308	-36.9179348	0.0414031858	-176.321103	
	0.828210688	92.7716344	0.0549694887	-157.978176	0.0414031857	-176.321103	0.0285541433	-36.9179641	
	0.0285541263	-36.9178251	0.041403065	-176.321156	0.0599374289000001	-158.757402	0.827743876	92.8132891	
	0.041403065	-176.321156	0.0285541388	-36.9178543	0.827743876	92.8132891	0.0599374082999999	-158.757433	
	
420000000.	0.0170706616	-122.655372	0.826155469	59.7880666	0.0712304162	-38.5758008	0.0375831437	151.473013	
	0.826155469	59.7880666	0.0170705527	-122.655405	0.0375831437	151.473014	0.0712304188	-38.5758223	
	0.0712304439	-38.5757865	0.0375830141	151.472961	0.0181842776999999	-130.861875	0.825935044	59.8225945	
	0.0375830141	151.472961	0.0712304464	-38.575808	0.825935044	59.8225945	0.018184171	-130.861949	
	
430000000.	0.0485352568	-75.4469023999999	0.822055173	26.9630012	0.0957917331	-63.560611	0.0369796496	124.444018	
	0.822055173	26.9630012	0.0485352013	-75.4467064000001	0.0369796496	124.444019	0.0957917305	-63.5606305	
	0.0957917611	-63.5606278	0.0369795144	124.443992	0.0488327885	-76.2087120999999	0.821863581	26.9822795	
	0.0369795144	124.443991	0.0957917585	-63.5606473	0.821863581	26.9822795	0.0488327338	-76.2085183	
	
440000000.	0.0789800946	-95.9463443	0.81869407	-5.67549799	0.0959679156	-90.9718764	0.0404431908	95.3048996	
	0.81869407	-5.67549799	0.0789800633	-95.9461813	0.0404431907	95.3049004	0.0959679076	-90.9718975	
	0.0959679364	-90.9719187	0.0404430553	95.3048883	0.0820081522	-96.302721	0.818309187	-5.66415798	
	0.0404430554	95.3048875	0.0959679284	-90.9719397	0.818309187	-5.66415798	0.0820081227	-96.3025653	
	
450000000.	0.0865671375	-122.022587	0.817745772	-38.2488887	0.0772416505	-118.187743	0.0446895723	61.1541927	
	0.817745772	-38.2488887	0.0865671259	-122.022416	0.0446895722	61.1541935	0.0772416369	-118.187767	
