!!!!!!!!!!!!!!!!!!!!!!!!!!!!!!!!!!!!!!!!!!!!!!!!!!!!!!!!!!!!!!!!!!!!!!!!!!!!!!!!!!!!!!!!!
!!
!! Reference: shanbhag_3dj_02_2305.pdf
!!
!!!!!!!!!!!!!!!!!!!!!!!!!!!!!!!!!!!!!!!!!!!!!!!!!!!!!!!!!!!!!!!!!!!!!!!!!!!!!!!!!!!!!!!!!
!!
!! CHANNEL DESCRIPTION: TP0_TP5 KR Channel using 1meter Cabled BP, PCB Host
!! CABLE DESCRIPTION: 1meter 26AWG Cable
!! MODEL STATUS: Developmental
!!
!! PORT DEFINITIONS: 
!! Port   1    ----->  Side A	      Side B  <-----  Port   2
!! Port   3    ----->  Side A	      Side B  <-----  Port   4
!!


# HZ S MA R 50.000000 


0.	0.0453803286000001	-2.9265904e-13	1.69363497e-06	180	0.0103421218	-1.78792406e-12	1.51423268e-06	180	
	1.69363502e-06	180	0.0453753016	2.55596965e-13	1.51803005e-06	-180	0.0103440116	8.85515432e-13	
	0.0103424101	-1.78792343e-12	1.51807275e-06	-180	0.0454985306	1.99566685e-12	1.6696694e-06	-180	
	1.51427527e-06	180	0.0103443628	8.85509904e-13	1.66966934e-06	-180	0.0455033136	1.24141796e-12	
	
10000000.	0.0618961504999999	10.250063	5.45553781e-06	118.131419	0.0435593626	50.1967541	6.60477949e-06	124.022191	
	5.45553781e-06	118.131419	0.0618480960999999	10.2484926	1.11976077e-05	110.771936	0.0435509914	50.2066004	
	0.0435593633	50.196754	1.11976077e-05	110.771936	0.0614182809	10.1027216	3.94495973e-06	111.758728	
	6.6047795e-06	124.022191	0.0435509921	50.2066003	3.94495973e-06	111.758728	0.0613988529999999	10.0949012	
	
20000000.	0.0801467178	2.84110801	8.37303331e-06	42.8667151	0.0785880685	31.96584	8.78997137e-06	51.8195987	
	8.37303322e-06	42.8667185	0.080054636	2.85679679	2.06738711e-05	44.6308104	0.0785685986	31.967879	
	0.0785881489	31.9661028	2.0673886e-05	44.6310593	0.0794870012	2.72501172	6.39516916e-06	34.9644478	
	8.78997777e-06	51.8198497	0.07856868	31.968144	6.395169e-06	34.96445	0.0794538844999999	2.70931745	
	
30000000.	0.0935296442	-11.0436091	1.18385903e-05	-12.9075093	0.0980797461	9.48123254	1.16849482e-05	-8.71119877	
	1.18385904e-05	-12.9075088	0.0934247147	-10.9948511	2.96532201e-05	-3.54255416	0.0980561538	9.47770081	
	0.0980797673	9.48124016	2.96532271e-05	-3.54254542	0.0927546981	-11.1406938	8.76735845e-06	-17.1869376	
	1.1684951e-05	-8.71118966	0.0980561772	9.4777106	8.76735846e-06	-17.1869375	0.0927156870000001	-11.1600559	
	
40000000.	0.100135199	-27.4091794	1.57999391e-05	-48.5482154	0.0990029059	-14.5111422	1.54459845e-05	-42.7781126	
	1.57999389e-05	-48.5482156	0.100077649	-27.3226862	3.88247555e-05	-34.7216259	0.0989788316	-14.5169476	
	0.0990028872	-14.5111422	3.88247475e-05	-34.7216251	0.0993412866	-27.489814	1.14130949e-05	-51.9980098	
	1.54459812e-05	-42.7781118	0.0989788144	-14.5169472	1.14130947e-05	-51.9980102	0.0993005761000001	-27.5105542	
	
50000000.	0.0987418353000001	-44.5163152	2.11486497e-05	-83.1437397	0.0813662015	-38.2157072	1.98185929e-05	-76.5709966	
	2.11486497e-05	-83.1437396	0.0987744249000001	-44.4063488	4.85970099e-05	-65.9342433	0.0813459914	-38.2274901	
	0.0813661968	-38.2157059	4.85970076e-05	-65.9342414	0.0980511524	-44.5896642	1.54528903e-05	-84.7611557	
	1.98185919e-05	-76.5709945	0.0813459869	-38.227489	1.54528903e-05	-84.7611556	0.0980194281	-44.6172359	
	
60000000.	0.0890165334	-61.3747988	2.69871237e-05	-118.042006	0.0483241835	-60.0017402	2.4770808e-05	-110.016786	
	2.69871237e-05	-118.042006	0.0891754741999999	-61.2713451000001	5.82078077e-05	-97.247601	0.0483138338	-60.0298482	
	0.0483241834	-60.0017403	5.82078084e-05	-97.2476017	0.0885435446	-61.4630979000001	2.05747355e-05	-117.938863	
	2.47708083e-05	-110.016787	0.048313834	-60.0298484	2.05747355e-05	-117.938863	0.0885290332	-61.5011555	
	
70000000.	0.0715353542	-75.9133062	3.37954178e-05	-153.763471	0.00820272651	-41.3225217	3.02877785e-05	-144.648372	
	3.37954178e-05	-153.763471	0.0718036931	-75.8791224	6.81368744e-05	-129.38729	0.00818011527	-41.5404714	
	0.00820272548	-41.3225115	6.81368741e-05	-129.387289	0.0713624541	-76.0807298	2.70767352e-05	-153.220154	
	3.02877784e-05	-144.64837	0.0081801146	-41.5404633	2.70767352e-05	-153.220154	0.0713636377	-76.1485730000001	
	
80000000.	0.0498143958	-82.5873038	4.05100517e-05	169.993421	0.0396891497	52.7702834	3.57236048e-05	-179.796747	
	4.05100517e-05	169.993421	0.0500884928	-82.7892497	7.70149541e-05	-161.936482	0.0396517481	52.8396125	
	0.0396891532	52.7702887	7.70149548e-05	-161.936476	0.0499034972	-83.0644385999999	3.40028628e-05	169.986443	
	3.57236051e-05	-179.796741	0.0396517515	52.8396176	3.40028628e-05	169.986443	0.0498974654	-83.2026461	
	
90000000.	0.0343551779	-66.9735803000001	4.62571143e-05	134.214205	0.0767523851	32.2141579	4.05578861e-05	145.354067	
	4.62571142e-05	134.214205	0.0343277205	-67.6069727000001	8.42636204e-05	165.656413	0.0767018037	32.2636721	
	0.0767523903	32.2141615	8.42636241e-05	165.656419	0.0342432723	-68.2944346	4.02756269e-05	132.998131	
	4.0557888e-05	145.354073	0.0767018089	32.2636757	4.0275627e-05	132.998132	0.0341527941	-68.5104197	
	
100000000.	0.0417886487000001	-41.0877922999999	5.0975392e-05	99.985998	0.100137341	8.66909626	4.48470998e-05	111.288737	
	5.09753918e-05	99.9859981	0.0413702744	-41.250933	9.05413922e-05	133.728342	0.100073504	8.71559294	
	0.100137342	8.66909175	9.05413928e-05	133.728339	0.0408973639	-42.0821712	4.53476262e-05	97.0314033	
	4.48471001e-05	111.288733	0.100073505	8.71558869	4.53476262e-05	97.0314033	0.0407059836000001	-42.1229961999999	
	
110000000.	0.062998751	-40.9803473	5.50194735e-05	68.0189502	0.105626781	-15.2356708	4.85855153e-05	78.9397044	
	5.50194721e-05	68.0189515	0.0625804869	-40.7875044	9.52192024e-05	102.794709	0.105555537	-15.1884309	
	0.105626831	-15.2356665	9.52192133e-05	102.79472	0.0616840049999999	-41.3499101000001	4.92575955e-05	63.3010701	
	4.85855204e-05	78.939718	0.105555587	-15.1884265	4.92575939e-05	63.3010715	0.0614742835999999	-41.3048060000001	
	
120000000.	0.0833800413	-53.2458341	5.98230333e-05	37.9772665	0.0925464335	-38.6899812	5.26916982e-05	47.6018324	
	5.9823031e-05	37.9772688	0.0831103244	-52.9639486	0.000100332535	72.4042725	0.0924674336	-38.635419	
	0.0925464982	-38.6899515	0.000100332556	72.404293	0.0819459319	-53.3682089	5.28415863e-05	31.8160415	
	5.26917087e-05	47.601858	0.0924674985	-38.6353893	5.28415835e-05	31.8160441	0.0817335732	-53.3070117	
	
130000000.	0.0971721639	-70.1286806	6.65339462e-05	8.84288481	0.063443393	-60.3534996	5.74880516e-05	17.0052718	
	6.65339434e-05	8.84288757	0.0971078333	-69.8411293	0.000105829413	42.3366124	0.0633620793	-60.275738	
	0.0634434456	-60.3534168	0.000105829442	42.3366399	0.0958448404	-70.152994	5.73054905e-05	2.28552029	
	5.7488067e-05	17.0053052	0.0633621323	-60.2756551	5.73054871e-05	2.28552337	0.0956425741	-70.091138	
	
140000000.	0.101152721	-88.8007006	7.55012094e-05	-20.89062	0.0244542553	-70.0709154	6.31623627e-05	-13.5158519	
	7.55012063e-05	-20.8906174	0.101302592	-88.5455032	0.000111804645	12.1737283	0.0243934228	-69.8556663	
	0.0244543036	-70.0706331	0.00011180468	12.1737605	0.100133121	-88.8006948000001	6.36567734e-05	-26.6375248	
	6.3162382e-05	-13.5158136	0.0243934716	-69.8553842	6.36567696e-05	-26.6375218	0.0999542156	-88.7444033	
	
150000000.	0.0939140305	-107.500589	8.58948531e-05	-52.1731553	0.0239068444	36.8274578	6.96517682e-05	-44.6607719	
	8.58948495e-05	-52.1731533	0.0942460619	-107.313405	0.000118421636	-18.5082109	0.0239997143	36.8349991	
	0.0239069497	36.8272097	0.000118421676	-18.5081754	0.0933653282	-107.541859	7.19166542e-05	-56.5341419	
	6.96517901e-05	-44.6607305	0.0239998195	36.8347524	7.191665e-05	-56.5341396	0.0932134954	-107.498346	
	
160000000.	0.076512544	-124.073964	9.56590937e-05	-84.4493251	0.0626144606	27.6526505	7.58676855e-05	-76.0784342	
	9.56590893e-05	-84.4493237	0.0769433562	-124.023723	0.000123742983	-49.4676208	0.0626879023	27.6621273	
	0.0626145715	27.6525545	0.000123743026	-49.467583	0.076515758	-124.281211	8.07565955e-05	-87.4807478	
	7.58677086e-05	-76.0783905	0.0626880132	27.6620316	8.07565906e-05	-87.4807462	0.0763926659	-124.260332	
	
170000000.	0.0528759735	-133.564015	0.000103595952	-117.268621	0.0914688037	6.20822514	8.15832878e-05	-107.846058	
	0.000103595947	-117.268619	0.0532485276000001	-133.83182	0.000128227516	-80.7022503	0.0915293193	6.2382391	
	0.0914689274	6.20818089	0.000128227562	-80.7022111	0.0533242663000001	-134.344519	8.89548664e-05	-119.455256	
	8.15833115e-05	-107.846012	0.0915294432	6.23819495	8.89548606e-05	-119.455255	0.0532086846	-134.363097	
	
180000000.	0.0332534661	-120.221381	0.000108866786	-149.548929	0.10470373	-16.8870115	8.63078262e-05	-139.302403	
	0.00010886678	-149.548928	0.0331922854	-121.06093	0.000131217427	-111.766545	0.104756526	-16.8385624	
	0.10470385	-16.887024	0.000131217474	-111.766506	0.0333146229	-122.802574	9.53754358e-05	-151.472308	
	8.63078507e-05	-139.302357	0.104756646	-16.8385749	9.53754294e-05	-151.472307	0.0331616159	-122.815204	
	
190000000.	0.0390473354	-88.6706101	0.000112016769	179.434976	0.100296009	-40.1312702	9.02638716e-05	-170.132945	
	0.000112016763	179.434977	0.0384955263	-88.7285795999999	0.000133035118	-142.437329	0.100343205	-40.0612339	
	0.100296109	-40.1312548	0.000133035165	-142.43729	0.0374463846	-90.5919674	9.99150021e-05	177.197445	
	9.0263897e-05	-170.132899	0.100343304	-40.0612185	9.99149958e-05	177.197446	0.0372802617	-90.3899932	
	
200000000.	0.0616256113	-87.61828	0.000114803632	149.840007	0.0794994943	-62.5023907	9.41380909e-05	159.529099	
	0.000114803627	149.840008	0.0611561978	-87.2396189999999	0.000134642046	-172.762176	0.0795404245	-62.3952283	
	0.0794995643	-62.502341	0.000134642092	-172.762138	0.0592842767	-88.1737542	0.000103470151	146.823539	
	9.41381171e-05	159.529143	0.0795404946	-62.3951788	0.000103470145	146.82354	0.0591381274	-87.947965	
	
210000000.	0.0820713569	-101.509653	0.000118624639	121.670526	0.0466788746	-80.9623414	9.78516764e-05	129.90113	
	0.000118624634	121.670527	0.0818245711	-101.075815	0.000135674572	157.429113	0.0467211006	-80.7599853	
	0.0466789195	-80.9622248	0.000135674615	157.429149	0.0795603794	-101.648118	0.000106792537	117.769837	
	9.78517022e-05	129.901171	0.0467211458	-80.7598691	0.000106792532	117.769837	0.0794272206	-101.435494	
	
220000000.	0.0936265477	-120.077954	0.000125204534	93.7026321	0.0126964619	-56.0633107	0.000102137431	100.447997	
	0.00012520453	93.7026326	0.0936273946	-119.656295	0.000137346751	127.81782	0.0128496423	-55.6258292	
	0.0126965538	-56.0630366	0.00013734679	127.817852	0.0912915765	-120.081486	0.000111462564	89.2702051	
	0.000102137455	100.448033	0.0128497346	-55.6255613	0.00011146256	89.2702054	0.0911745221	-119.874296	
	
230000000.	0.0937081082999999	-140.036116	0.000133933509	65.1377468	0.0348787964	17.4409956	0.000106828733	71.0860214	
	0.000133933506	65.1377469	0.0939430041000001	-139.649037	0.00013951126	98.2770852	0.0349719435	17.1819814	
	0.0348788622	17.4408622	0.000139511294	98.2771151	0.091842581	-140.01143	0.000117576339	60.7844009	
	0.000106828753	71.0860545	0.0349720098	17.181849	0.000117576336	60.7844007	0.0917475681	-139.803516	
	
240000000.	0.0826275987000001	-159.551222	0.000143218624	35.6043982	0.0652751552	2.43206706	0.000111724117	41.6272808	
	0.000143218621	35.604398	0.0830507487	-159.226864	0.000141977319	68.5890838	0.0653550938	2.29876629	
	0.0652752137	2.43201009	0.000141977348	68.5891112	0.081464355	-159.584338	0.000124544186	31.8133138	
	0.000111724134	41.6273105	0.0653551525	2.29870959	0.000124544183	31.8133134	0.0813952443000001	-159.369546	
	
250000000.	0.0629819642	-176.395498	0.00015153269	5.20634519	0.0841066738	-18.9201665	0.000116686851	11.8920377	
	0.000151532686	5.20634489	0.0635136930999999	-176.210245	0.000144616876	38.5731724	0.0841947307	-19.0043226	
	0.0841067251	-18.9201918	0.000144616901	38.5731972	0.0626442757999999	-176.675248	0.00013153043	2.14647423	
	0.000116686865	11.8920644	0.0841947822	-19.0043477	0.000131530427	2.14647365	0.0626020904	-176.443447	
	
260000000.	0.039540409	175.613507	0.000157034664	-25.2664107	0.0883229874	-41.4887402	0.00012085376	-17.7863391	
	0.000157034661	-25.266411	0.0400222721000001	175.378483	0.000146304156	8.4168469	0.0884273522	-41.5435012	
	0.0883230269	-41.488746	0.000146304177	8.41686882	0.039875188	174.341456	0.000136941151	-27.6971023	
	0.000120853771	-17.7863156	0.0884273918	-41.543507	0.000136941149	-27.6971028	0.0398629857	174.604307	
	
270000000.	0.0238542231000001	-161.098513	0.000160230895	-55.4799289	0.0779510296	-63.9788149	0.000124589443	-47.5151696	
	0.000160230892	-55.4799291	0.0238210799	-162.249628	0.000147322426	-21.8920767	0.078074118	-64.0119063	
	0.0779510555	-63.9788052	0.000147322443	-21.892058	0.0234716447	-165.547496	0.000140972678	-57.5552069	
	0.000124589453	-47.5151495	0.078074144	-64.0118967	0.000140972675	-57.5552072	0.0234976129999999	-165.269944	
	
280000000.	0.0337556234	-131.883795	0.00016164155	-84.9063134	0.0557652568	-84.9031506	0.000127616601	-77.0834615	
	0.000161641548	-84.9063135	0.0332535133999999	-131.927604	0.000147263895	-52.1270597	0.0559029953	-84.9141824	
	0.0557652715	-84.9031244	0.00014726391	-52.1270445	0.0313564058	-134.076876	0.000143563001	-86.9691372	
	0.000127616609	-77.0834454	0.05590301	-84.9141563	0.000143562999	-86.9691374	0.0313888593	-133.865767	
	
290000000.	0.0512927353999999	-137.978809	0.000162774575	-113.436632	0.0271467307	-97.8286755	0.000130004372	-106.401232	
	0.000162774574	-113.436632	0.0508632051	-137.563151	0.000146253557	-82.0979349	0.0272952794	-97.8236581	
	0.0271467416	-97.8286184	0.000146253568	-82.0979235	0.0480585791000001	-138.642709	0.000145495465	-115.776816	
	0.000130004379	-106.40122	0.0272952902	-97.8236014	0.000145495464	-115.776816	0.0480890234	-138.411778	
	
300000000.	0.0633746452000001	-155.158561	0.000165349607	-141.44996	0.0112360269	-23.7756399	0.000132213158	-135.502491	
	0.000165349606	-141.44996	0.0631372267	-154.615172	0.000145000725	-111.722627	0.0112585537	-24.5951021	
	0.0112360487	-23.7756785	0.000145000732	-111.722619	0.0598433502000001	-155.372061	0.000147966224	-144.17442	
	0.000132213162	-135.502483	0.0112585755	-24.5951389	0.000147966224	-144.17442	0.0598846478000001	-155.106492	
	
310000000.	0.0670062442000001	-175.661001	0.000169162797	-169.273122	0.0332576873	-3.657257	0.000134058929	-164.21288	
	0.000169162797	-169.273122	0.0669933674999999	-175.055537	0.000143719403	-140.918179	0.0331871688	-3.9384763	
	0.0332576943	-3.65727547	0.000143719407	-140.918175	0.0635905561000001	-175.704924	0.000150793461	-172.268995	
	0.000134058931	-164.212875	0.0331871759	-3.93849467	0.000150793461	-172.268995	0.0636484272000001	-175.397836	
	
320000000.	0.0624752355999999	162.930782	0.000174329862	162.488294	0.0501903756	-20.8747264	0.00013631511	167.179293	
	0.000174329862	162.488294	0.0626872275000001	163.580963	0.000143260955	-169.968349	0.0501260934	-21.0804848	
	0.0501903762	-20.8747291	0.000143260956	-169.968349	0.0595491123	162.950338	0.000154524993	159.458247	
	0.00013631511	167.179293	0.050126094	-21.0804875	0.000154524994	159.458247	0.0596277548999999	163.312005	
	
330000000.	0.0516008646	141.932774	0.00017931163	133.789411	0.0563271963	-41.8569389	0.000138755137	138.597573	
	0.00017931163	133.789411	0.0520121623	142.607432	0.00014342428	160.908197	0.0562828253	-42.0538095	
	0.0563271913	-41.8569364	0.000143424278	160.908194	0.0494878434	141.926562	0.00015821876	130.933135	
	0.000138755136	138.59757	0.0562828204	-42.053807	0.000158218761	130.933135	0.0495878696999999	142.363838	
	
340000000.	0.0371513543	123.208697	0.00018300905	104.795423	0.0513654343	-63.2520655	0.000141151122	109.934744	
	0.000183009051	104.795423	0.0377123402	123.827691	0.000143773372	131.541377	0.0513465216	-63.4739968	
	0.051365425	-63.2520639	0.000143773369	131.541371	0.0360729634	122.961355	0.000161175083	102.207453	
	0.00014115112	109.934738	0.0513465123	-63.4739953	0.000161175084	102.207453	0.0361966535000001	123.506209	
	
350000000.	0.0225451446000001	112.142888	0.000185291855	75.7449436	0.0374652491	-83.0839044	0.00014341909	81.1072411	
	0.000185291855	75.7449437	0.0231594314	112.303248	0.000143919225	101.889671	0.0374682996	-83.3878182	
	0.037465237	-83.0839123	0.00014391922	101.889661	0.0224974781	110.671753	0.000163330147	73.4031735	
	0.000143419087	81.1072319	0.0374682875	-83.3878262	0.000163330148	73.4031738	0.0226556573	111.349457	
	
360000000.	0.0131165702999999	125.459666	0.000185745476	47.0694174	0.0189006516	-94.7827621	0.000144798731	52.3304219	
	0.000185745476	47.0694176	0.0134454246999999	123.662991999999	0.000143150806	72.1473558	0.0188989154	-95.3679735	
	0.0189006353	-94.782803	0.000143150799	72.1473434	0.0132085317	118.472596	0.000164083683	44.8771195	
	0.000144798727	52.3304095	0.0188988992	-95.3680148	0.000164083685	44.8771198	0.0134028484	118.991369	
	
370000000.	0.0148410279	148.45082	0.000185945857	18.7684461	0.0075531152	-32.8868271	0.000145758924	23.6028054	
	0.000185945858	18.7684463	0.0145670914	146.98934	0.000141752877	42.462812	0.00737585983	-33.2423072	
	0.00755308838	-32.8867088	0.000141752868	42.4627967	0.0132512398000001	139.51752	0.000164658684	16.6155043	
	0.000145758919	23.6027902	0.00737583291	-33.2421871	0.000164658685	16.6155047	0.0133896815999999	139.536191	
	
380000000.	0.0202321214000001	141.008204	0.000186424283	-9.19414955	0.0191447684	-4.20883332	0.000146287989	-4.93405022	
	0.000186424284	-9.19414927	0.0197798985000001	140.887932	0.000139939654	12.9901064	0.0189923541	-3.99265318	
	0.019144757	-4.20872297	0.000139939645	12.9900885	0.0174297173	134.249445	0.000165322895	-11.3800428	
	0.000146287983	-4.9340679	0.0189923429	-3.99254175	0.000165322896	-11.3800423	0.0175024725	134.420303	
	
390000000.	0.0238428666000001	120.733343	0.000187537957	-37.0707714	0.0266614729	-18.1247233	0.000146701317	-33.3056083	
	0.000187537958	-37.0707709	0.0233935867	121.295151	0.000138145747	-16.2901485	0.0265161115	-18.01752	
	0.0266614622	-18.1246393	0.000138145737	-16.2901685	0.020479323	114.64288	0.000166363643	-39.308563	
	0.000146701311	-33.3056281	0.0265161009	-18.0174354	0.000166363644	-39.3085623	0.0205121472	115.049501	
	
400000000.	0.0254706196	96.9478355000002	0.000189262999	-65.1553329	0.0255580954	-34.9576019	0.000147359727	-61.6892944	
	0.000189263	-65.1553323	0.0250937545	97.9655556000003	0.000136670865	-45.5448243	0.0254124263	-34.9210682	
	0.0255580843	-34.9575258	0.000136670854	-45.5448463	0.0219981399	91.0975894	0.000167866468	-67.4351844	
	0.000147359721	-61.689316	0.0254124151	-34.9209916	0.000167866469	-67.4351836	0.022002442	91.7159890999997	
	
410000000.	0.0259359714	73.6795081999998	0.000190106071	-93.4030076	0.0167509345	-44.8079033	0.000147586841	-90.0983029	
	0.000190106072	-93.403007	0.0256901353	75.0427617999998	0.000135099243	-74.8886608	0.0166009214	-44.8137627	
	0.0167509244	-44.8078222	0.000135099234	-74.8886846	0.0226861271	68.4684975	0.000168495809	-95.7180867	
	0.000147586836	-90.0983262	0.0166009113	-44.8136806	0.000168495811	-95.7180858	0.0226791091	69.2565739999999	
	
420000000.	0.0263317914	53.9454873	0.000190045055	-121.763786	0.00846171672	0.0264425541	0.000147422613	-118.620073	
	0.000190045057	-121.763785	0.0262964413	55.4851732000001	0.000133195053	-104.338251	0.0083555273	0.895356785	
	0.00846171678	0.0265688417	0.000133195045	-104.338276	0.023549586	50.1986338000001	0.000168298428	-124.125753	
	0.000147422609	-118.620098	0.00835552772	0.895485258	0.00016829843	-124.125753	0.0235734093	51.0772164999999	
	
430000000.	0.0278073570999999	38.7681508000001	0.00018868352	-149.920018	0.0200720251	36.2649768	0.000146378216	-147.046461	
	0.000188683522	-149.920018	0.0280431659	40.15066	0.000130642608	-133.696623	0.0200918066	36.7971177	
	0.0200720306	36.2650489	0.000130642601	-133.696651	0.0258142573	36.8289541	0.000166816886	-152.334546	
	0.000146378213	-147.046487	0.0200918125	36.7971895	0.000166816888	-152.334545	0.0259099189	37.6450383	
	
440000000.	0.0313484406	26.1841621	0.000186720401	-177.652862	0.0335873354	24.7234526	0.000144657906	-175.144138	
	0.000186720402	-177.652861	0.0318181208000001	27.0684636999999	0.000127712523	-162.706588	0.0336154896	25.0737381	
