!!!!!!!!!!!!!!!!!!!!!!!!!!!!!!!!!!!!!!!!!!!!!!!!!!!!!!!!!!!!!!!!!!!!!!!!!!!!!!!!!!!!!!!!!
!!
!! Reference: shanbhag_3dj_02_2305.pdf
!!
!!!!!!!!!!!!!!!!!!!!!!!!!!!!!!!!!!!!!!!!!!!!!!!!!!!!!!!!!!!!!!!!!!!!!!!!!!!!!!!!!!!!!!!!!
!!
!! CHANNEL DESCRIPTION: TP0_TP5 KR Channel using 1meter Cabled BP, Cabled Host
!! CABLE DESCRIPTION: 1meter 26AWG Cable
!! MODEL STATUS: Developmental
!!
!! PORT DEFINITIONS: 
!! Port   1    ----->  Side A	      Side B  <-----  Port   2
!! Port   3    ----->  Side A	      Side B  <-----  Port   4
!!

# HZ S MA R 50.000000 


0.	0.0485545027000001	-3.24351211e-14	0.00023916103	-180	0.0160409044	-3.8658757e-12	6.05234962e-05	-3.48087858e-10	
	0.000239160967	-180	0.0497911103999999	-7.89703516000001e-12	4.05882795e-05	-180	0.0166866106	-2.39634413e-12	
	0.0160393659	-3.56409334e-12	4.05869363e-05	-180	0.0496454463	2.31261801e-12	0.000458303305	-180	
	6.05249607e-05	-3.61658938e-10	0.0166872485	-3.13893963e-12	0.000458336713	-180	0.0499792214999999	-1.66503549e-11	
	
10000000.	0.0724646933	4.25463657	0.000269607905	100.790633	0.0594263014	26.5416696	0.000340366683	43.9034063	
	0.000269607906	100.790635	0.0731996074	2.38645296	0.00028687403	60.3027967	0.0595225035	24.8788859	
	0.0594263179	26.5416709	0.000286874015	60.3027912	0.0731730000000001	3.74451316999999	0.000401857272	161.56521	
	0.000340366685	43.9033985	0.0595225378	24.8788095	0.000401857264	161.565209	0.0732302998999999	2.24048374	
	
20000000.	0.0920855249	-7.342358	0.000341534258	39.6156817	0.100806046	13.6965409	0.000571935365	17.2161081	
	0.000341534222	39.6156716	0.0910424748	-9.16942681	0.000484522372	23.0634408	0.0994734994	12.6347395	
	0.100805961	13.6964714	0.000484521841	23.0633503	0.0923121900999999	-7.62060947	0.000289166165	153.167585	
	0.000571935764	17.2163452	0.0994735837	12.6349615	0.000289166694	153.167917	0.0910883202999999	-9.19465969000001	
	
30000000.	0.0979514626	-26.9573877	0.000374197824	-12.2282057	0.107867661	-9.79654326	0.0006474078	-12.4500509	
	0.0003741978	-12.2282057	0.0959248193999999	-27.9326063	0.000549743158	-11.5300142	0.105913335	-10.3534766	
	0.107867646	-9.79650108	0.000549743106	-11.5300143	0.0976373529	-26.9715132	0.000215235875	168.942974	
	0.000647407945	-12.4500441	0.105913341	-10.3534837	0.000215235913	168.942982	0.0957137292999999	-27.9269982	
	
40000000.	0.0874736376999999	-49.4592309000001	0.000358026406	-64.127509	0.0794182877	-38.2239726	0.000559858974	-43.2168745	
	0.00035802639	-64.1275083	0.085796495	-49.511941	0.000476244957	-46.7109918	0.0773576155	-38.2800868	
	0.0794182042	-38.2239184	0.000476244947	-46.7109928	0.0866767581	-49.1854667	0.000280758917	-172.153592	
	0.000559858877	-43.2168743	0.0773575813	-38.2800955	0.000280758855	-172.153584	0.0851253017	-49.5451248	
	
50000000.	0.0614298106	-70.0597313	0.000301228923	-122.883004	0.0232900719	-51.8811615	0.000316865932	-73.6799781	
	0.000301228908	-122.883004	0.0605763168	-69.7386198000001	0.000271742011	-85.4949298	0.0218508223	-49.6089493	
	0.0232899275	-51.8811193	0.000271742013	-85.4949263	0.0602289443	-69.1900151000001	0.00040235267	-179.109609	
	0.000316865944	-73.6799745	0.0218508008	-49.6089437	0.000402352661	-179.109604	0.0593084918	-69.6010049	
	
60000000.	0.0310757676	-72.4502673999999	0.000249778686	166.194569	0.0487452499	59.6838782	3.27543848e-05	12.169085	
	0.000249778684	166.19457	0.0312719951	-70.4943441000002	4.32212835e-05	137.106361	0.050508223	58.1993097	
	0.0487453007	59.6840217	4.32212699e-05	137.106369	0.0300561686	-68.9246230999999	0.000462239173	163.285102	
	3.27543917e-05	12.1690419	0.0505082385	58.1993294	0.000462239177	163.285102	0.0297667236	-68.1911805000002	
	
70000000.	0.0269989887999999	-20.0969483000001	0.000256109756	91.3299067	0.108010925	34.6183712	0.000341816583	31.4794672	
	0.000256109753	91.3299097	0.0282858272999999	-21.6808431000001	0.000293665478	40.9349886	0.108891157	33.0453263	
	0.108010913	34.6184333	0.000293665465	40.9349884	0.0290118718	-16.3885571	0.000429910576	146.696921	
	0.00034181658	31.4794657	0.10889117	33.0453377	0.000429910565	146.696921	0.0296004655	-17.4779977	
	
80000000.	0.0505909334000001	-16.9924015	0.000294069587	28.4630234	0.140506329	4.96677167	0.000560977406	2.54350114	
	0.000294069574	28.4630256	0.0509093974	-18.979374	0.000482871671	4.5333807	0.140051702	3.35110715	
	0.140506274	4.96680378	0.000482871658	4.53338134	0.0536151177	-16.0666378	0.00034987718	138.402893	
	0.000560977418	2.54350534	0.140051711	3.35111857	0.00034987717	138.402897	0.0534655046000001	-17.698297	
	
90000000.	0.0671979192	-35.4916615	0.000313699393	-25.9121966	0.137044685	-24.9708698	0.000636319154	-26.197741	
	0.000313699379	-25.912196	0.0667543749000001	-37.043727	0.000553080979	-28.5735334	0.135063492	-26.6196392	
	0.137044633	-24.970857	0.000553080971	-28.5735328	0.0704784037	-35.0824481	0.00029123134	142.970468	
	0.000636319191	-26.1977364	0.135063497	-26.6196315	0.000291231338	142.970472	0.0695012593	-36.5964432	
	
100000000.	0.0701719511	-57.6157467	0.000297187725	-80.2121839	0.0983439255	-53.8315687	0.000558672991	-53.6694378	
	0.000297187719	-80.2121834	0.0691872890999999	-58.7762998000001	0.0004937327	-61.1199733	0.0950859885	-55.3223692	
	0.0983439148	-53.8315642	0.000493732698	-61.1199736	0.0733071207	-57.4441607999999	0.000315412543	152.855683	
	0.000558673009	-53.6694422	0.0950859847	-55.3223757	0.000315412536	152.855679	0.0716052982999999	-58.7367519000001	
	
110000000.	0.0576276348	-78.9935557	0.000255516838	-142.97598	0.034364202	-71.9163571	0.000337769309	-74.9420816	
	0.000255516834	-142.975979	0.0564781008	-79.4489497	0.000305960922	-93.6227479	0.0309783882	-70.4437412	
	0.0343641842	-71.9163685	0.000305960825	-93.6227671	0.060149281	-79.0602237999999	0.00040417846	149.765569	
	0.000337769364	-74.9420762	0.0309783885	-70.4436549	0.000404178605	149.765596	0.0581351197	-79.6990188999999	
	
120000000.	0.0355322012	-90.1142736999998	0.000236297359	142.680388	0.0433750591	40.1365391	0.000138708473	-32.9699225	
	0.000236297357	142.68039	0.0350459241	-88.9999931999999	3.84760042e-05	-103.208645	0.0467430653	38.0214154	
	0.0433750417	40.1365143	3.84759939e-05	-103.208675	0.0369407528	-90.6469565000001	0.000460979761	134.993101	
	0.000138708487	-32.9699239	0.0467431526	38.0213702	0.00046098007	134.993149	0.0356458103	-89.3824628000002	
	
130000000.	0.0224103925	-60.4246691999999	0.000271137672	71.5916689	0.103917012	18.1441028	0.000368228416	-3.94242074	
	0.00027113767	71.5916713	0.0236179868	-60.0331526999998	0.000240645646	10.4590813	0.10548445	15.4058685	
	0.103916947	18.1440647	0.000240645467	10.4590349	0.0228348082	-60.3538744000002	0.000434477223	118.551744	
	0.000368228446	-3.94240102	0.105484584	15.4058602	0.00043447762	118.551807	0.0238982006	-58.7377354	
	
140000000.	0.0357516029	-40.9294325	0.000316010012	13.5391947	0.13668768	-10.893776	0.000585591008	-25.0335696	
	0.00031601001	13.539197	0.0364681683000001	-43.5390492999999	0.000440579031	-20.0749621	0.135803222	-13.689049	
	0.136687576	-10.8938226	0.000440578674	-20.0750141	0.0372485250000001	-39.9941709999999	0.000351310442	108.309174	
	0.000585591112	-25.0335435	0.135803378	-13.6890314	0.000351310825	108.309244	0.0380568763	-42.3811605	
	
150000000.	0.0488576608	-54.0596570999999	0.000328728691	-37.6404371	0.135005639	-40.4493638	0.000672569718	-50.4184387	
	0.000328728691	-37.640435	0.0484521249	-56.5916672	0.000528044297	-51.2135561	0.131697588	-43.2554678	
	0.135005523	-40.4494167	0.000528043853	-51.2136122	0.0517967471	-53.4399294	0.00027452517	110.895901	
	0.000672569883	-50.4184089	0.13169773	-43.2554219	0.000274525479	110.895971	0.0511842414	-56.1004552	
	
160000000.	0.0498345407	-74.8096790999999	0.000293391817	-89.4472634	0.100398448	-69.1204726	0.000612053863	-75.2525414	
	0.00029339182	-89.447261	0.0483462226	-76.8543278999999	0.000489036323	-82.6044178	0.0953775761	-71.7233391	
	0.10039835	-69.1205297	0.000489035914	-82.604476	0.0539199868	-74.6807658	0.000276025061	123.461504	
	0.000612054053	-75.2525095	0.0953776738	-71.7232491	0.000276025334	123.46158	0.0518381267	-76.9757199000001	
	
170000000.	0.0370471094	-94.8367270999999	0.000222846996	-151.196316	0.0452136671	-91.4369668	0.000423102187	-93.8374342	
	0.000222847001	-151.196312	0.0348685714	-95.4493938	0.000325870611	-113.7685	0.040105171	-91.928007	
	0.0452136082	-91.4370229	0.000325870351	-113.768558	0.0417540261	-95.9976211999999	0.000349591054	123.48839	
	0.000423102359	-93.8374028	0.0401052331	-91.9277804	0.000349591393	123.488475	0.0386228457	-96.9349675	
	
180000000.	0.0160976627	-90.5051862999999	0.000183294271	125.26961	0.0212759162	7.41845143	0.000234326105	-79.0041746	
	0.00018329427	125.269614	0.0151765894	-83.0149730999997	8.04603607e-05	-131.505975	0.0251294087	8.09579185	
	0.0212759158	7.41843182	8.04603193e-05	-131.506024	0.0197594228	-101.188037	0.000399114658	110.13862	
	0.00023432621	-79.004158	0.0251295253	8.09557678	0.000399115058	110.138709	0.0174646574	-93.9612740000001	
	
190000000.	0.0222618172999999	-24.2208207000001	0.000240094476	45.5037667	0.0662930293	0.980326885	0.00035016933	-48.8679018	
	0.000240094467	45.5037698	0.0247456689	-25.4981197	0.000188529482	-14.4162791	0.0677174985	-2.86222684	
	0.0662929941	0.980269548	0.000188529328	-14.4163482	0.0185111933000001	-31.6803608999999	0.000369983006	94.1303877	
	0.000350169376	-48.8678802	0.0677176043	-2.86228122	0.000369983389	94.1304759	0.0218711485999999	-30.2967912000001	
	
200000000.	0.0431201047	-33.3370777	0.000319844041	-12.7310252	0.0876402683	-25.9020363	0.000542173043	-62.2326977	
	0.000319844029	-12.7310231	0.0446051428000001	-36.4568803999999	0.000389068928	-42.1861127	0.0856445624	-29.8732559	
	0.0876402088	-25.902097	0.000389068645	-42.1861748	0.0393513262	-33.8269047	0.000279754505	85.1981485	
	0.000542173123	-62.2326691	0.0856446684	-29.8732567	0.000279754803	85.198231	0.0418848223	-37.2842361000001	
	
210000000.	0.053164937	-55.1726486000001	0.000362450129	-62.6487011	0.0789370971	-53.6306026	0.000626545715	-86.1401688	
	0.000362450119	-62.6486996	0.053067938	-58.1265097999999	0.000485571964	-73.169509	0.0739394522	-57.4109014	
	0.0789370326	-53.6306639	0.00048557165	-73.1695668	0.0505623449000001	-54.5928004999999	0.000203168239	97.7389678	
	0.00062654583	-86.140138	0.0739395443	-57.4108606	0.000203168437	97.7390356	0.0511755247	-58.3657735	
	
220000000.	0.0474021843	-77.0156449	0.000349969205	-112.172241	0.0461855363	-77.3524699	0.000567733726	-112.186678	
	0.000349969198	-112.17224	0.0456598641	-78.9873226000001	0.000458580923	-104.781716	0.0396693586	-79.4184789	
	0.0461854814	-77.3525286	0.000458580663	-104.781769	0.0463396253	-76.0239024	0.000252334173	119.134718	
	0.000567733855	-112.186646	0.0396694383	-79.4183663	0.000252334344	119.134782	0.044766824	-79.1998456999999	
	
230000000.	0.0273899029	-86.0727443000001	0.000287263624	-167.266643	0.0115916197	-25.2921072	0.000376880073	-135.370186	
	0.000287263621	-167.266642	0.0253068203	-82.8526098999999	0.000311235416	-136.173272	0.013928943	-2.4771121	
	0.0115916082	-25.2919868	0.000311235269	-136.173318	0.0279672607	-85.5412964000001	0.00036690004	114.105925	
	0.0003768802	-135.370153	0.0139290107	-2.47743906	0.000366900254	114.105992	0.0252444413	-84.0816094000001	
	
240000000.	0.0218205075000001	-27.2162658999999	0.000217251555	123.833401	0.0452228941	13.2815384	0.00014572618	-125.51225	
	0.000217251555	123.833402	0.0255840637000001	-24.7045503999999	8.6118608e-05	-157.416794	0.0491422825	9.79928204	
	0.0452229044	13.2815082	8.61185907e-05	-157.416822	0.0210736591	-31.819456	0.000431647989	97.0867467	
	0.000145726299	-125.512234	0.0491422892	9.7991894	0.000431648221	97.0868098	0.0242292588000001	-26.4557454999999	
	
250000000.	0.0515572359	-21.7814477	0.000213167695	43.1298304	0.0680560754	-10.5253498	0.000247459021	-68.7711033	
	0.000213167692	43.129832	0.0557822533	-25.4969342	0.000158238394	-35.5901203	0.0682215935	-15.0023115	
	0.0680560729	-10.5253902	0.000158238327	-35.5901741	0.0484631433999999	-22.8115018	0.000410100962	79.1637487	
	0.000247459023	-68.7711032	0.0682215931	-15.0023485	0.000410101165	79.1638057	0.0531675402	-25.7078171	
	
260000000.	0.0773291777999999	-42.3854967	0.000270262903	-24.8301394	0.0643962307	-36.4073446	0.000436164963	-85.8558394	
	0.000270262897	-24.8301374	0.0800938881	-46.6367155	0.000343349605	-62.8471814	0.060511091	-40.6807258	
	0.0643962199	-36.407387	0.000343349491	-62.8472226	0.0729629088000001	-42.2808315999999	0.0003199495	67.2843365	
	0.000436164958	-85.8558275	0.060511084	-40.6807338	0.000319949641	67.2843857	0.0765270048999999	-46.4825288	
	
270000000.	0.0869016551	-66.8142475	0.0003214886	-81.1476451	0.0349997809	-53.9200962	0.000512852783	-114.281407	
	0.000321488593	-81.1476431	0.0873438981	-70.9615917	0.000434365453	-94.0284993	0.028552129	-53.7492219	
	0.0349997648	-53.9201416	0.000434365341	-94.0285332	0.0818348922	-65.9536217	0.000224143823	75.3011385	
	0.000512852786	-114.281392	0.0285521235	-53.7491836	0.000224143906	75.3011782	0.0830688823	-70.5057555	
	
280000000.	0.0753945771	-90.0647740999999	0.000334124877	-135.34131	0.0226567386	32.4877369	0.000449026707	-147.471321	
	0.000334124872	-135.341308	0.0733701674	-93.4351058	0.000406685653	-126.595054	0.0293378371	37.8128479	
	0.0226567376	32.4877601	0.000406685573	-126.595081	0.0703060613	-88.0496151000001	0.000264758098	99.3499363	
	0.000449026711	-147.471305	0.029337862	37.8128224	0.000264758165	99.3499673	0.0687829014	-92.2901482	
	
290000000.	0.0464191702	-102.426376	0.000308581751	167.218424	0.0721991949	30.3335206	0.000259896584	170.947155	
	0.000308581749	167.218425	0.043561625	-102.205491	0.000263001623	-160.159141	0.0788406498	25.9861195	
	0.0721992043	30.333512	0.000263001585	-160.159161	0.0428228491	-96.7484574000002	0.000399169263	95.2520497	
	0.000259896578	170.947176	0.0788406603	25.9861059	0.00039916933	95.2520743	0.0398407166	-97.8286734	
	
300000000.	0.0298763287	-61.4847294000002	0.000274986286	104.201687	0.111602438	4.52779854	9.49884827e-05	52.6608424	
	0.000274986287	104.201687	0.0333132484	-57.8519539999999	4.74253126e-05	162.583307	0.114673629	-0.71875149	
	0.111602451	4.52778797	4.74253067e-05	162.583303	0.0329670757	-53.9493315	0.000484326841	78.0012929	
	9.49884157e-05	52.6608492	0.11467362	-0.71875692	0.000484326892	78.0013104	0.0353312849	-51.0684587999999	
	
310000000.	0.0620070430000001	-44.1309003	0.000267291138	38.9610541	0.12503747	-23.4736277	0.00029839882	-35.8363326	
	0.00026729114	38.961055	0.0672047448	-48.3110637	0.000173717326	-42.4876026	0.123328604	-28.9130358	
	0.125037486	-23.4736366	0.000173717316	-42.4876162	0.0660583712	-43.7217892	0.000484672478	59.51164	
	0.000298398777	-35.836338	0.123328575	-28.9130365	0.000484672499	59.5116496	0.0704831118000001	-46.8813825	
	
320000000.	0.0950655237	-61.8149793	0.000283130342	-21.9396602	0.106587077	-50.552976	0.000470419483	-74.1382031	
	0.000283130345	-21.9396589	0.0983837473	-67.1007721	0.000344777137	-73.9842776	0.100464089	-55.73706	
	0.106587093	-50.5529833	0.000344777129	-73.9842836	0.0975752704	-62.0055744	0.000415213454	43.7931833	
	0.000470419441	-74.1382064	0.100464042	-55.7370568	0.000415213439	43.7931858	0.100662153	-66.5884393	
	
330000000.	0.109779732	-86.1351997	0.000292796284	-79.0271796	0.0605842391	-71.0780465	0.000524565106	-107.45757	
	0.000292796289	-79.0271779	0.10987848	-91.587915	0.00043079553	-104.794541	0.0521474303	-73.6539694	
	0.0605842518	-71.0780578	0.000430795531	-104.794541	0.110389276	-86.1794312	0.000299622622	37.1762799	
	0.00052456506	-107.457574	0.0521473761	-73.65395	0.000299622588	37.1762788	0.110585433	-91.2448222000001	
	
340000000.	0.0988446914	-111.29955	0.000274566465	-137.864211	0.0233118099	-7.70108124	0.000434743405	-140.124712	
	0.000274566474	-137.864208	0.0954432325	-116.326924	0.000405206933	-135.934092	0.0285143296	3.41402309	
	0.0233117941	-7.7010907	0.000405206939	-135.934087	0.0974674590000001	-110.871902	0.000237896044	56.1053709	
	0.000434743354	-140.124717	0.0285143602	3.41411808	0.000237896041	56.1053676	0.0943256663	-115.815948	
	
350000000.	0.0646602762	-130.945289	0.000238201737	155.508051	0.0811500701	12.6663996	0.000204927098	-172.595738	
	0.000238201749	155.508054	0.0593318621999999	-133.712029	0.000261605726	-165.602942	0.0876330633	7.28319579	
	0.0811500613	12.6664195	0.000261605725	-165.602933	0.0617309122000001	-128.803641	0.000338025994	67.2009452	
	0.000204927047	-172.595741	0.0876331045	7.28320715	0.000338026001	67.200927	0.0566444526	-131.834759	
	
360000000.	0.0285187433	-110.579862	0.000229751748	81.7319921	0.133450158	-11.5355217	0.000107102072	-28.4879763	
	0.00022975176	81.7319963	0.0284610253	-102.365431	5.3265667e-05	-158.058088	0.135089064	-17.9703746	
	0.133450158	-11.5354995	5.32656479e-05	-158.058067	0.0290175152	-99.1888440999997	0.000442234758	54.788062	
	0.000107102114	-28.4879997	0.135089089	-17.9703737	0.000442234734	54.7880337	0.0292004503	-92.3594513000001	
	
370000000.	0.0514507982	-65.3877363	0.000266165926	15.5945982	0.157587367	-39.4894755	0.000411296075	-57.9986769	
	0.000266165938	15.5946025	0.0569044401	-69.3515104	0.000200931043	-69.7008603	0.153568088	-46.1485413	
	0.157587376	-39.4894502	0.000200931073	-69.7008335	0.0584423754999999	-63.5993860000001	0.000470345167	37.7964723	
	0.000411296093	-57.9986938	0.153568092	-46.1485474	0.00047034511	37.7964367	0.0628757108	-66.9811268	
	
380000000.	0.0875677544	-79.1439095	0.000309722676	-38.2633308	0.14845151	-67.5397049	0.000638102767	-86.9896693	
	0.000309722686	-38.2633273	0.0904797182	-85.3709733999999	0.000383824436	-93.4116155	0.139844496	-74.1937716	
	0.148451526	-67.5396768	0.000383824477	-93.411587	0.0955443561	-79.3006792999999	0.000434868443	22.0197745	
	0.00063810275	-86.9896868	0.13984448	-74.1937862	0.000434868361	22.0197335	0.0976384161	-84.6835789000001	
	
390000000.	0.105427087	-103.128965	0.000326100951	-86.5549076	0.110248113	-93.918899	0.000751159771	-114.673864	
	0.000326100959	-86.5549049	0.104094354	-109.78787	0.000492279966	-120.344072	0.099457509	-100.174166	
	0.110248133	-93.9188701	0.000492280008	-120.344041	0.113332693	-103.670701	0.000348997202	9.88735794	
	0.000751159715	-114.673883	0.0994574741	-100.174194	0.00034899711	9.88731462	0.1113999	-109.581015	
	
400000000.	0.0971343157	-129.464505	0.000293980295	-135.791953	0.054218345	-111.977374	0.00072788457	-141.108116	
	0.000293980302	-135.791951	0.0913229874	-135.909459	0.000502025868	-148.14354	0.0448171442	-114.950614	
	0.054218365	-111.977357	0.000502025899	-148.143505	0.104120651	-130.200157	0.000246162108	12.4537988	
	0.000727884477	-141.108135	0.0448170891	-114.95066	0.000246162044	12.4537615	0.0979107889	-135.999451	
	
410000000.	0.0634705429000001	-153.457876	0.000212097792	166.379828	0.0250029254	-40.1973516	0.000562343319	-163.610687	
	0.000212097801	166.37983	0.0549694887	-157.978176	0.000395794191	-174.772518	0.0285541433	-36.9179641	
	0.0250028977	-40.1973443	0.000395794199	-174.77248	0.0686423592	-154.637102	0.000253426154	32.9906473	
	0.000562343197	-163.610706	0.0285541388	-36.9178543	0.000253426164	32.990605	0.0599374082999999	-158.757433	
	
420000000.	0.0199204662000001	-142.824	0.000140304824	81.2408599	0.0715627681	-31.5004488	0.00032773364	-167.754961	
	0.000140304834	81.2408654	0.0170705527	-122.655405	0.000204316466	171.604424	0.0712304188	-38.5758223	
	0.0715627361	-31.5003959	0.000204316447	171.604464	0.0219034378000001	-148.444507	0.000347319944	31.2884848	
	0.000327733533	-167.754968	0.0712304464	-38.575808	0.000347319965	31.2884265	0.018184171	-130.861949	
	
430000000.	0.0421417858	-70.5732662000001	0.000185172734	-10.3355682	0.102498039	-55.8621226	0.000303848117	-132.05229	
	0.000185172738	-10.3355618	0.0485352013	-75.4467064	0.000143022183	-130.196186	0.0957917305	-63.5606305	
	0.102498011	-55.8620657	0.000143022175	-130.196127	0.042612799	-71.6390762	0.000393906279	16.9531416	
	0.000303848156	-132.052291	0.0957917585	-63.5606473	0.000393906272	16.9530754	0.0488327338	-76.2085183	
	
