!!!!!!!!!!!!!!!!!!!!!!!!!!!!!!!!!!!!!!!!!!!!!!!!!!!!!!!!!!!!!!!!!!!!!!!!!!!!!!!!!!!!!!!!!
!!
!! Reference: shanbhag_3dj_02_2305.pdf
!!
!!!!!!!!!!!!!!!!!!!!!!!!!!!!!!!!!!!!!!!!!!!!!!!!!!!!!!!!!!!!!!!!!!!!!!!!!!!!!!!!!!!!!!!!!
!!
!! CHANNEL DESCRIPTION: TP0_TP5 KR Channel using 1meter Cabled BP, PCB Host
!! CABLE DESCRIPTION: 1meter 26AWG Cable
!! MODEL STATUS: Developmental
!!
!! PORT DEFINITIONS: 
!! Port   1    ----->  Side A	      Side B  <-----  Port   2
!! Port   3    ----->  Side A	      Side B  <-----  Port   4
!!


# HZ S MA R 50.000000 


0.	0.0376002627000001	8.19805721999999e-13	1.91607351e-06	180	0.0105103517	-4.30852355e-12	1.69842582e-06	180	
	1.91607357e-06	180	0.0375934920000001	2.98728321999999e-13	1.69226621e-06	-180	0.0105113402	8.14728599e-13	
	0.0105106423	-4.30852544e-12	1.69231388e-06	-180	0.0377188228000001	2.51670139e-12	1.87719374e-06	180	
	1.69847365e-06	180	0.0105116944	8.14723687e-13	1.87719368e-06	180	0.0377238259999999	1.48532265e-12	
	
10000000.	0.0559583356999999	18.0304464	1.39043959e-05	110.366389	0.0385756054	51.7914201	1.24640353e-05	114.398021	
	1.39043959e-05	110.366389	0.0559072481	18.0409625	1.23027884e-05	114.513656	0.0385720139	51.8052717	
	0.0385756061	51.79142	1.23027884e-05	114.513655	0.0554527901999999	17.9036091	1.11477678e-05	109.377325	
	1.24640353e-05	114.398021	0.0385720146	51.8052717	1.11477678e-05	109.377325	0.0554412426	17.9045934	
	
20000000.	0.0766741797	13.1637685	2.80324245e-05	49.2870942	0.0711632634	38.4162829	2.40255002e-05	53.3834156	
	2.80324245e-05	49.2870939	0.0765751591	13.2082503	2.33552771e-05	52.7905175	0.0711553838	38.4320365	
	0.0711633403	38.4165517	2.33552941e-05	52.79077	0.075981886	13.0710115	2.24065974e-05	48.8692642	
	2.40255178e-05	53.3836681	0.0711554616	38.4323077	2.24065974e-05	48.8692639	0.0759593271000001	13.0780546	
	
30000000.	0.0920248835999999	1.05987294	4.1339104e-05	6.02076414	0.0929776494	19.957255	3.52745918e-05	9.59422072	
	4.1339104e-05	6.02076417	0.0919121146999999	1.15263117	3.42056841e-05	8.1963718	0.0929673584	19.9766993	
	0.0929776704	19.9572625	3.42056922e-05	8.19638071	0.0912224420000001	0.976766378999999	3.30420283e-05	6.05749896	
	3.52746002e-05	9.59422963	0.0929673815	19.9767091	3.30420283e-05	6.05749891	0.0911962829999999	0.992623647000001	
	
40000000.	0.0999863678	-13.5718889	5.44816704e-05	-23.0041002	0.101398985	-0.34783934	4.67934938e-05	-19.1909376	
	5.44816704e-05	-23.0041002	0.0999348641999999	-13.4261258	4.54150555e-05	-21.010221	0.101398261	-0.322789367	
	0.101398966	-0.347838666	4.54150458e-05	-21.0102203	0.0991812432	-13.6486153	4.36321026e-05	-23.423	
	4.67934839e-05	-19.1909367	0.101398244	-0.322788233	4.36321026e-05	-23.423	0.0991653546	-13.6229095	
	
50000000.	0.0994892457000001	-28.8909718	6.78280323e-05	-52.0459793	0.0954418817	-20.7084877	5.82578438e-05	-48.167793	
	6.78280323e-05	-52.0459793	0.0995440664	-28.7026266	5.65320312e-05	-50.3815519	0.0954572155	-20.677206	
	0.0954418768	-20.7084861	5.65320284e-05	-50.3815499	0.0988109452	-28.9699292	5.43143107e-05	-52.9321699	
	5.8257841e-05	-48.167791	0.0954572108	-20.6772045	5.43143107e-05	-52.9321698	0.0988142581	-28.9364479	
	
60000000.	0.0904849443	-44.0530232	8.04172534e-05	-80.7682929	0.0758392949	-40.6777086	6.81934165e-05	-76.6617007	
	8.04172534e-05	-80.7682929	0.0906949393	-43.8522273	6.64530716e-05	-79.2431546	0.07587335	-40.6418914	
	0.0758392953	-40.6777087	6.64530723e-05	-79.2431553	0.0900551877	-44.1529718	6.45210958e-05	-81.9988672	
	6.81934173e-05	-76.6617013	0.0758733505	-40.6418915	6.45210958e-05	-81.9988672	0.0900888611	-44.117496	
	
70000000.	0.0735252342	-57.5605645	9.28672077e-05	-109.795698	0.0451590576	-58.5212456	7.76233505e-05	-105.001122	
	9.28672077e-05	-109.795698	0.073885102	-57.4007463	7.5892154e-05	-107.955379	0.0452123783	-58.4870092	
	0.045159056	-58.5212437	7.58921535e-05	-107.955377	0.0734335362	-57.7374076	7.44895615e-05	-111.345406	
	7.76233501e-05	-105.00112	0.0452123771	-58.4870072	7.44895615e-05	-111.345406	0.073498412	-57.7126536000001	
	
80000000.	0.051161325	-65.2471051000001	0.000104057768	-138.779386	0.00954655572	-43.7357019	8.58450492e-05	-132.815434	
	0.000104057768	-138.779386	0.0515864654	-65.2908233000001	8.43304852e-05	-136.172069	0.00959119515	-43.9722358	
	0.00954655339	-43.7356806	8.43304859e-05	-136.172062	0.0513988843	-65.7116637	8.34439208e-05	-140.56388	
	8.584505e-05	-132.815427	0.0095911929	-43.9722144	8.34439208e-05	-140.56388	0.0514761243	-65.7351307000001	
	
90000000.	0.0311638313999999	-52.1643401000001	0.000113679294	-167.418374	0.033321353	58.0634979	9.32271716e-05	-160.016073	
	0.000113679294	-167.418374	0.0313507706	-52.8743313000001	9.20886286e-05	-163.820291	0.0332608209	58.1068105	
	0.0333213583	58.0635011	9.20886329e-05	-163.820285	0.0313348861	-53.7449638	9.11944207e-05	-169.329699	
	9.32271759e-05	-160.016067	0.033260826	58.1068137	9.11944207e-05	-169.329699	0.0313554875999999	-53.9069246000002	
	
100000000.	0.0334185388	-13.6443011	0.000122460354	164.372474	0.0680099965	42.649323	0.000101006543	173.098094	
	0.000122460354	164.372474	0.0330232289000001	-14.0121996	0.000100167564	168.801415	0.0679692225	42.7102959	
	0.0680099976	42.6493188	0.000100167564	168.801412	0.0325892419	-15.2187283	9.82539127e-05	162.411566	
	0.000101006544	173.098091	0.0679692236	42.7102921	9.82539127e-05	162.411566	0.0324870579	-15.27692	
	
110000000.	0.0546405030999999	-5.91133093000001	0.000129925142	137.072764	0.0934818132	23.0458098	0.000108116458	146.56564	
	0.000129925142	137.072764	0.0542080008	-5.67079443	0.00010777283	141.781844	0.0934750245	23.1073574	
	0.093481865	23.0457961	0.000107772841	141.781857	0.0532874057	-6.46460895	0.000104625096	135.135052	
	0.00010811647	146.565653	0.0934750764	23.1073439	0.000104625096	135.135052	0.053184863	-6.39316349000001	
	
120000000.	0.076172672	-14.421504	0.000138176013	110.166738	0.106116982	2.84296462	0.000116016937	119.773948	
	0.000138176014	110.166738	0.0759341915	-14.0409445	0.000116018365	114.522064	0.106144718	2.90379235	
	0.106117069	2.84295921	0.000116018386	114.522089	0.0747025294000001	-14.6264706	0.000111790279	108.241375	
	0.00011601696	119.773973	0.106144805	2.90378704	0.00011179028	108.241375	0.0746404802999999	-14.5328779	
	
130000000.	0.0923288092000001	-27.8043344	0.000147343295	83.461258	0.104283103	-17.2656498	0.000123637292	92.7146231	
	0.000147343295	83.4612579	0.0923636879000001	-27.4092768	0.00012400772	87.0588549	0.104340808	-17.2055386	
	0.104283204	-17.265639	0.00012400775	87.0588879	0.0909912385	-27.8722877	0.000119962388	81.4819747	
	0.000123637323	92.7146559	0.104340909	-17.2055278	0.000119962389	81.4819744	0.0909811233000001	-27.7799449	
	
140000000.	0.100720425	-42.9206909	0.000157487241	56.5191169	0.0882566813	-36.7892968	0.000130444608	65.4027571	
	0.000157487242	56.5191169	0.101044978	-42.5638469	0.000131267504	59.4223158	0.0883372352	-36.7294929	
	0.0882567746	-36.7892612	0.000131267539	59.4223544	0.0997274833999999	-42.9392601	0.000129110665	54.3870227	
	0.000130444645	65.4027956	0.0883373287	-36.7294574	0.000129110666	54.3870225	0.0997721309999999	-42.8568776	
	
150000000.	0.0999135924	-58.467941	0.000168429344	28.8707975	0.060094929	-54.3808332	0.000136709943	37.8216917	
	0.000168429345	28.8707975	0.100496928	-58.1894677	0.000137962469	31.5868113	0.0601909757	-54.323533	
	0.0600950004	-54.3807515	0.000137962506	31.5868539	0.0994364286	-58.5030251	0.00013884632	26.4939718	
	0.000136709983	37.8217344	0.0601910472	-54.3234516	0.000138846321	26.4939716	0.0995308102	-58.4387688	
	
160000000.	0.0895283281	-73.2384041	0.000177607091	0.855151662	0.0243294168	-59.8173209	0.000140733278	10.4223795	
	0.000177607092	0.855151616	0.0902684979	-73.1003592	0.000142765115	4.02152785	0.0244224128	-59.828404	
	0.0243294802	-59.8170875	0.000142765154	4.02157327	0.0896640435	-73.3829725	0.000147039177	-1.79548372	
	0.00014073332	10.4224252	0.0244224761	-59.8281716	0.000147039179	-1.7954838	0.0897869003	-73.3514377	
	
170000000.	0.0707764696	-84.9121770999999	0.000184754484	-27.55796	0.0219252365	44.5852861	0.000143800168	-16.8316356	
	0.000184754486	-27.5579601	0.0715149943	-85.0340247	0.000146746544	-23.3710597	0.0218572431	44.5260391	
	0.0219253196	44.5850428	0.000146746585	-23.3710126	0.0714952347	-85.3849983	0.000153258931	-30.4520168	
	0.000143800212	-16.831588	0.0218573264	44.5257956	0.000153258933	-30.4520169	0.0716088524	-85.4107575	
	
180000000.	0.0480669207	-86.9663287999999	0.000188676508	-55.7166372	0.0594880455	41.9953366	0.000145650019	-43.6100125	
	0.00018867651	-55.7166372	0.0485150748	-87.6232988999999	0.00014977244	-50.2884244	0.0594436004	42.0470579	
	0.0594881274	41.9952422	0.000149772482	-50.2883768	0.0490141559	-88.4844853999999	0.000156582296	-58.7521483	
	0.000145650064	-43.6099643	0.0594436825	42.0469634	0.000156582299	-58.7521485	0.0490565735	-88.6088712000001	
	
190000000.	0.0342605956	-63.3022491	0.000189908398	-83.1310256	0.0910656308	24.5960433	0.000146987179	-69.8291295	
	0.0001899084	-83.1310257	0.0339376449	-64.2858021000001	0.000152503895	-76.6914572	0.091071596	24.6559479	
	0.0910657261	24.5959947	0.000152503938	-76.6914106	0.0340355571	-66.8815452	0.000157625951	-86.1601013	
	0.000146987226	-69.8290823	0.0910716914	24.6558992	0.000157625953	-86.1601015	0.0339329783	-67.0119585000001	
	
200000000.	0.0465480362000001	-36.6598274999999	0.000190513844	-109.6734	0.110991229	5.20144376	0.000149073727	-95.7309994	
	0.000190513846	-109.673401	0.0459119387	-36.4836383	0.000156015613	-102.864958	0.111050173	5.25938638	
	0.110991327	5.20141915	0.000156015656	-102.864914	0.0445381801	-38.5071564	0.000158302858	-112.554653	
	0.000149073774	-95.7309546	0.111050271	5.25936171	0.00015830286	-112.554653	0.0444140005	-38.3900551	
	
210000000.	0.0705521553999999	-36.5287022	0.000191603921	-135.125012	0.116422533	-14.5207718	0.000151340777	-121.375253	
	0.000191603923	-135.125012	0.070208563	-36.0602451	0.000159750048	-128.811617	0.116523174	-14.4680025	
	0.116422623	-14.5207795	0.000159750089	-128.811576	0.0680697255	-37.0768291	0.000159830416	-137.774563	
	0.000151340822	-121.375212	0.116523263	-14.4680103	0.000159830417	-137.774563	0.0680248589	-36.9314155	
	
220000000.	0.0926723615	-47.047742	0.000195616742	-160.218888	0.106716353	-33.886216	0.000154572119	-147.207108	
	0.000195616743	-160.218888	0.0927073533999999	-46.6015278	0.000164258387	-154.982629	0.10684127	-33.8382681	
	0.106716425	-33.8862088	0.000164258425	-154.982591	0.0903191629000001	-47.1852279	0.000164275829	-162.680466	
	0.000154572159	-147.20707	0.106841342	-33.8382609	0.00016427583	-162.680466	0.0903521692000001	-47.0613091	
	
230000000.	0.107622993	-61.3471909	0.000202522031	174.5157	0.083173311	-51.9830696	0.000157989805	-173.284045	
	0.000202522033	174.5157	0.108013934	-60.9847218	0.00016872977	178.650047	0.0833056462	-51.9395808	
	0.0831733621	-51.983045	0.000168729803	178.650081	0.105748748	-61.3615319	0.000171478037	172.096817	
	0.000157989841	-173.284011	0.0833056972	-51.9395563	0.000171478038	172.096817	0.105848053	-61.2631034	
	
240000000.	0.112428874	-77.0528158	0.000211184205	148.54286	0.0491479701	-65.3230917	0.000161093445	160.342877	
	0.000211184206	148.54286	0.11310167	-76.7990824	0.000172694123	152.098672	0.0492735226	-65.2948495	
	0.049148005	-65.3230361	0.00017269415	152.098702	0.111282974	-77.0733229	0.000180161435	146.004485	
	0.000161093474	160.342908	0.0492735574	-65.2947941	0.000180161437	146.004486	0.111429854	-77.0028514000001	
	
250000000.	0.105626776	-92.7090366000001	0.000219811882	121.585362	0.0155508711	-32.5748259	0.000163718249	133.614444	
	0.000219811883	121.585362	0.106466434	-92.5974691999999	0.000176083961	125.321814	0.0156100519	-32.8598278	
	0.0155509254	-32.5747501	0.000176083983	125.321841	0.105359665	-92.8445408	0.000188493714	118.83385	
	0.000163718274	133.614471	0.0156101061	-32.859751	0.000188493715	118.83385	0.105524682	-92.8079522	
	
260000000.	0.0878545524	-106.442519	0.000225327074	94.1361567	0.0409166823	34.807143	0.000164586662	106.81265	
	0.000225327075	94.1361569	0.0886945876999999	-106.545676	0.000177850711	98.6442315	0.04086253	34.782818	
	0.0409167154	34.8070833	0.000177850729	98.644255	0.0884691523	-106.886241	0.000193654106	91.1862621	
	0.000164586682	106.812675	0.0408625632	34.7827581	0.000193654107	91.1862623	0.0886110004	-106.89471	
	
270000000.	0.0626579041	-113.889513	0.000227181568	66.5020585	0.0786549839	24.3674928	0.000164124432	80.0616154	
	0.000227181569	66.5020586	0.0632621413	-114.390319	0.000178561352	72.0867888	0.0786443574	24.3895181	
	0.0786550131	24.3674674	0.000178561367	72.0868089	0.063862017	-115.212395	0.000195255734	63.4510116	
	0.000164124448	80.0616361	0.0786443866	24.3894927	0.000195255735	63.4510118	0.0639334258999999	-115.285197	
	
280000000.	0.0398849586	-101.429362	0.00022520654	39.3724736	0.10782009	6.79446953	0.000162388979	53.7060855	
	0.000225206541	39.3724737	0.0398153413	-102.523588	0.000178339227	45.9351146	0.10786813	6.8219398	
	0.107820115	6.79445785	0.000178339238	45.9351309	0.040376345	-105.290398	0.000193371819	36.3820411	
	0.000162388992	53.7061024	0.107868155	6.82192809	0.00019337182	36.3820412	0.0403250941	-105.409813	
	
290000000.	0.0427255548	-66.5273115000001	0.00022106076	13.1960484	0.123692975	-12.2624851	0.000160207872	27.8884671	
	0.000221060761	13.1960485	0.0420148915	-66.6415206999999	0.000177976634	20.246337	0.123794519	-12.2389178	
	0.123692994	-12.2624896	0.000177976643	20.2463493	0.04037076	-69.8297533999999	0.000189789049	10.4397583	
	0.000160207882	27.8884798	0.123794537	-12.2389224	0.000189789049	10.4397583	0.0402691549	-69.7382811999999	
	
300000000.	0.0680152347	-58.4119697	0.000217525859	-11.9905476	0.12409174	-31.5021444	0.000158667632	2.48290532	
	0.000217525859	-11.9905476	0.0675327488	-57.9936825	0.000178426887	-5.18880876	0.124228307	-31.4862957	
	0.124091751	-31.5021449	0.000178426893	-5.18880051	0.064519114	-59.2887205	0.00018725878	-14.4034235	
	0.000158667639	2.48291389	0.124228317	-31.4862962	0.00018725878	-14.4034235	0.0645046674	-59.1522851	
	
310000000.	0.094417381	-66.954417	0.000216226893	-36.28976	0.109019136	-50.1467507	0.000157810034	-22.6099623	
	0.000216226893	-36.28976	0.0943131157	-66.5368433	0.00017941655	-30.4268043	0.109165443	-50.1398228	
	0.109019139	-50.1467493	0.000179416554	-30.4268	0.0908853519	-67.1281102	0.000187287587	-38.3820605	
	0.000157810037	-22.6099577	0.109165446	-50.1398213	0.000187287588	-38.3820605	0.0909520308	-67.0191667	
	
320000000.	0.113651313	-80.9319779	0.000218925997	-60.5136515	0.0806567606	-66.7912248	0.000158232146	-47.7296714	
	0.000218925998	-60.5136515	0.113902596	-80.590494	0.000181352842	-55.7908644	0.0807924113	-66.7961311	
	0.0806567581	-66.7912235	0.000181352843	-55.7908637	0.110582129	-80.9137533	0.000191243199	-62.4638703	
	0.000158232147	-47.7296706	0.0807924088	-66.7961298	0.000191243199	-62.4638703	0.110712363	-80.8311341	
	
330000000.	0.121552954	-96.9084204999999	0.000224692091	-85.2756234	0.0435885502	-75.2143704	0.000159611676	-73.0970535	
	0.000224692091	-85.2756234	0.122092811	-96.6589421	0.000183720984	-81.3505522	0.0436966452	-75.2565432	
	0.0435885441	-75.2143729	0.000183720982	-81.3505549	0.119298108	-96.875856	0.000197817145	-87.2996305	
	0.000159611674	-73.0970563	0.0436966391	-75.2565457	0.000197817145	-87.2996305	0.119469559	-96.8178258	
	
340000000.	0.116126323	-113.18148	0.00023138836	-110.952234	0.0191862592	-15.7651632	0.000161372113	-98.9434872	
	0.00023138836	-110.952234	0.116854375	-113.043302	0.000186024617	-107.202984	0.0191771944	-16.0062537	
	0.0191862492	-15.7651456	0.000186024614	-107.20299	0.114927826	-113.244751	0.000204683023	-113.179148	
	0.000161372109	-98.9434933	0.0191771843	-16.0062361	0.000204683023	-113.179148	0.115110253	-113.212978	
	
350000000.	0.0978641871	-127.967664	0.000236719758	-137.537027	0.0526843227	18.1949989	0.000162703711	-125.366249	
	0.000236719758	-137.537027	0.0986471638	-127.991925	0.000187760045	-133.403995	0.0526497818	18.1722799	
	0.0526843156	18.1950156	0.00018776004	-133.404004	0.0978157086999999	-128.292933	0.000209667464	-139.963886	
	0.000162703706	-125.366258	0.0526497747	18.1722966	0.000209667463	-139.963886	0.0979736677000001	-128.292799	
	
360000000.	0.0703283369	-137.570533	0.000238133644	-164.470921	0.089893586	6.51663382	0.000162297482	-152.103344	
	0.000238133644	-164.470921	0.0709784273	-137.900729	0.000187798103	-159.671488	0.0899038328	6.51275254	
	0.089893575	6.51664473	0.000187798097	-159.6715	0.0712390276999999	-138.641335	0.000210563915	-166.964353	
	0.000162297476	-152.103357	0.0899038218	6.51276346	0.000210563915	-166.964353	0.0713373919	-138.684028	
	
370000000.	0.0426334825	-129.433542	0.000235796643	168.6886	0.117341202	-10.8151626	0.000160168137	-178.834707	
	0.000235796643	168.6886	0.0427712639	-130.403063	0.000186497853	174.170905	0.117402541	-10.8197762	
	0.117341186	-10.8151558	0.000186497847	174.17089	0.0433525857999999	-133.023721	0.0002079515	166.309304	
	0.00016016813	-178.834723	0.117402525	-10.8197695	0.000207951499	166.309304	0.0433559745	-133.11655	
	
380000000.	0.0403187279	-90.3259122000002	0.000230493745	142.504222	0.130712129	-29.5086794	0.000156621795	154.808694	
	0.000230493745	142.504222	0.0396654234	-90.6886583999999	0.000184216714	148.390149	0.130814767	-29.5206681	
	0.130712109	-29.5086771	0.000184216707	148.390132	0.0378177193	-94.4226903	0.00020294015	140.439361	
	0.000156621787	154.808676	0.130814746	-29.5206659	0.000202940149	140.439361	0.0377587756	-94.3889116999998	
	
390000000.	0.0667501474	-78.1150783	0.000224333976	117.257563	0.128254244	-48.3205805	0.000152511238	129.013284	
	0.000224333976	117.257563	0.0661830264	-77.8033528000001	0.000181770885	123.042593	0.128376318	-48.343702	
	0.128254221	-48.3205839	0.000181770877	123.042574	0.0625485671	-79.1268261	0.000197803251	115.636969	
	0.000152511229	129.013263	0.128376295	-48.3437054	0.00019780325	115.636969	0.0625517192	-79.0429079	
	
400000000.	0.0954162166	-86.2615523	0.000219864715	92.8309658	0.110543134	-66.3647142	0.000148834101	103.775925	
	0.000219864715	92.8309656	0.0951503284	-85.8998968	0.000180005591	98.0010076	0.110659345	-66.4020574	
	0.110543109	-66.3647258	0.000180005582	98.0009862	0.0908937403	-86.4278242	0.000194989355	91.6248141	
	0.000148834092	103.775903	0.110659321	-66.402069	0.000194989355	91.6248139	0.0909612405	-86.3604878	
	
410000000.	0.116130128	-100.547441	0.000218128801	68.8920717	0.0802209558	-81.9381275	0.000146126771	78.9991959	
	0.000218128801	68.8920716	0.11616966	-100.225156	0.000178920126	73.1867537	0.080309686	-81.9937975	
	0.0802209299	-81.9381529	0.000178920118	73.1867308	0.111886953	-100.486997	0.000195081933	67.9103023	
	0.000146126762	78.9991715	0.0803096601	-81.993823	0.000195081934	67.9103019	0.11200397	-100.435934	
	
420000000.	0.124475757	-116.991571	0.00021978184	44.7445395	0.0426904721	-87.3122106	0.000145133787	54.3425179	
	0.00021978184	44.7445393	0.124783725	-116.724853	0.000179051116	48.3293844	0.0427352094	-87.4093833	
	0.0426904376	-87.312265	0.000179051109	48.3293602	0.120958701	-116.891474	0.000198172411	43.7105173	
	0.000145133779	54.3424921	0.0427351749	-87.4094377	0.000198172411	43.7105169	0.121107572	-116.855609	
	
430000000.	0.118420246	-133.835494	0.000223316877	19.9331235	0.022906633	-27.2153987	0.000145720895	29.3585204	
	0.000223316877	19.9331232	0.118933132	-133.637209	0.000180018451	23.2207049	0.022874923	-27.2967418	
	0.02290658	-27.2153428	0.000180018445	23.2206795	0.115986786	-133.79292	0.000202267405	18.6742295	
	0.000145720888	29.3584932	0.02287487	-27.2966861	0.000202267405	18.674229	0.116143926	-133.772867	
	
440000000.	0.0986757149	-149.355152	0.000226637882	-5.6855874	0.0563244139	-0.238655359	0.000147028611	3.67623208	
	0.000226637882	-5.68558783	0.0993052898999999	-149.260878	0.000181099392	-2.30443634	0.0563199009	-0.249171387	
	0.0563243882	-0.23860594	0.000181099388	-2.304463	0.0975520534999999	-149.49977	0.000205253309	-7.16804541	
