!!!!!!!!!!!!!!!!!!!!!!!!!!!!!!!!!!!!!!!!!!!!!!!!!!!!!!!!!!!!!!!!!!!!!!!!!!!!!!!!!!!!!!!!!
!!
!! Reference: shanbhag_3dj_02_2305.pdf
!!
!!!!!!!!!!!!!!!!!!!!!!!!!!!!!!!!!!!!!!!!!!!!!!!!!!!!!!!!!!!!!!!!!!!!!!!!!!!!!!!!!!!!!!!!!
!!
!! CHANNEL DESCRIPTION: TP0_TP5 KR Channel using 1meter Cabled BP, PCB Host
!! CABLE DESCRIPTION: 1meter 26AWG Cable
!! MODEL STATUS: Developmental
!!
!! PORT DEFINITIONS: 
!! Port   1    ----->  Side A	      Side B  <-----  Port   2
!! Port   3    ----->  Side A	      Side B  <-----  Port   4
!!


# HZ S MA R 50.000000 


0.	0.0347331872000001	1.29485292e-12	9.97399831e-06	-180	0.0101103751	-4.21977719e-13	3.68544332e-06	-180	
	9.97454892e-06	-180	0.0375934920000001	2.98728321999999e-13	4.03499537e-05	180	0.0105113402	8.14728599e-13	
	0.0101090205	-4.22014603e-13	4.03508977e-05	180	0.0352925087	-8.11172481e-13	1.02870999e-05	-180	
	3.6855061e-06	-180	0.0105116944	8.14723687e-13	1.02873412e-05	-180	0.0377238259999999	1.48532265e-12	
	
10000000.	0.053619695	19.9623465	1.71870081e-05	-177.405821	0.0381305555	52.837448	1.01382794e-05	114.086841	
	1.71868815e-05	-177.407992	0.0559072481	18.0409625	4.05554002e-05	160.032773	0.0385720139	51.8052717	
	0.0381305556	52.837448	4.05552973e-05	160.032346	0.0535964373	19.5865264	2.27456186e-05	111.630138	
	1.0138204e-05	114.087545	0.0385720146	51.8052717	2.27456247e-05	111.630094	0.0554412426	17.9045934	
	
20000000.	0.0749744844000001	14.8438947	2.54310892e-05	-179.592769	0.0705302989	39.1434557	2.20118624e-05	58.2251268	
	2.54308425e-05	-179.59331	0.0765751591	13.2082503	4.03339313e-05	139.715955	0.0711553838	38.4320365	
	0.0705302029	39.1433681	4.03343075e-05	139.718704	0.0746166651999999	14.5125605	4.30792514e-05	56.4386544	
	2.2011914e-05	58.2253293	0.0711554616	38.4323077	4.30793766e-05	56.4386925	0.0759593271000001	13.0780546	
	
30000000.	0.0909152811000001	2.46204833	3.27362009e-05	167.094727	0.092481275	20.6639042	3.46333865e-05	19.4392696	
	3.27359388e-05	167.094329	0.0919121146999999	1.15263117	3.88752267e-05	119.046106	0.0929673584	19.9766993	
	0.0924812667	20.6639043	3.88757371e-05	119.046186	0.0903104741	2.18075151	6.41609728e-05	16.9453127	
	3.46334306e-05	19.4392207	0.0929673815	19.9767091	6.4161003e-05	16.9453031	0.0911962829999999	0.992623647000001	
	
40000000.	0.0995597779999999	-12.4074121	3.95931582e-05	148.438291	0.10143165	0.469188215	4.72178224e-05	-15.3816167	
	3.95928414e-05	148.437971	0.0999348641999999	-13.4261258	3.43310893e-05	100.405857	0.101398261	-0.322789367	
	0.101431652	0.469186923	3.43307465e-05	100.406619	0.0988396208	-12.5886244	8.50999081e-05	-15.835317	
	4.72178554e-05	-15.3815914	0.101398244	-0.322788233	8.50999988e-05	-15.8352949	0.0991653546	-13.6229095	
	
50000000.	0.0998805915	-28.0146527	4.87973324e-05	131.310665	0.0963694319	-19.8051166	5.77539921e-05	-50.5012401	
	4.87970827e-05	131.310554	0.0995440664	-28.7026266	2.90277465e-05	90.2283757	0.0954572155	-20.677206	
	0.0963694323	-19.8051168	2.90277467e-05	90.2291872	0.0992167586999999	-28.1110906	0.00010442303	-48.6496989	
	5.77540634e-05	-50.5011761	0.0954572108	-20.6772045	0.000104423084	-48.6496762	0.0988142581	-28.9364479	
	
60000000.	0.0917461535000001	-43.6390471	6.17191732e-05	110.398895	0.077905049	-39.7919829	6.25869348e-05	-84.1409141	
	6.17191248e-05	110.398912	0.0906949393	-43.8522273	3.50017513e-05	94.0476375	0.07587335	-40.6418914	
	0.077905049	-39.7919825	3.50017589e-05	94.0477016	0.0912641634	-43.6783711	0.000117789741	-79.8257228	
	6.25869809e-05	-84.1408751	0.0758733505	-40.6418915	0.000117789772	-79.8257054	0.0900888611	-44.117496	
	
70000000.	0.0755123469	-58.0510604	7.82250594e-05	85.3847769	0.0483645767	-58.1838171	6.27643365e-05	-115.100974	
	7.82251436e-05	85.3848243	0.073885102	-57.4007463	4.25130959e-05	81.6260769	0.0452123783	-58.4870092	
	0.0483645766	-58.1838165	4.25129994e-05	81.6260781	0.0752952559000001	-58.0630519999999	0.000127139807	-109.580894	
	6.27642334e-05	-115.100995	0.0452123771	-58.4870072	0.0001271398	-109.580897	0.073498412	-57.7126536000001	
	
80000000.	0.0531798148	-67.9312573	9.46953994e-05	56.6985517	0.0126123685	-57.8329882	5.92581616e-05	-140.41225	
	9.4694978e-05	56.6985538	0.0515864654	-65.2908233000001	5.21936401e-05	56.9946568	0.00959119515	-43.9722358	
	0.0126123687	-57.8329891	5.21936624e-05	56.9946442	0.0532483997	-67.9879611999999	0.000132598757	-136.906306	
	5.92584174e-05	-140.412526	0.0095911929	-43.9722144	0.000132598722	-136.906338	0.0514761243	-65.7351307000001	
	
90000000.	0.0307696475	-60.0303783000002	0.000107438903	25.9444809	0.0286104116	59.3749383	5.80548403e-05	-158.313816	
	0.000107440114	25.9442292	0.0313507706	-52.8743313000001	6.03841399e-05	29.838504	0.0332608209	58.1068105	
	0.0286104108	59.3749378	6.03842971e-05	29.8383948	0.0310107798	-60.5341728	0.000138414032	-161.638639	
	5.80552668e-05	-158.313234	0.033260826	58.1068137	0.000138413933	-161.638687	0.0313554875999999	-53.9069246000002	
	
100000000.	0.0283988648	-15.7272679	0.000114640793	-5.1386117	0.0635799743	44.9032747	6.6336925e-05	-174.561212	
	0.000114640803	-5.13860215	0.0330232289000001	-14.0121996	5.96425998e-05	2.14319201	0.0679692225	42.7102959	
	0.0635799736	44.9032743	5.96425675e-05	2.14316585	0.0282052219999999	-16.8714834000001	0.000150200959	174.665569	
	6.63369042e-05	-174.561233	0.0679692236	42.7102921	0.000150200897	174.665517	0.0324870579	-15.27692	
	
110000000.	0.0496503674	-3.00955564	0.000114296673	-34.8954952	0.0901020048	25.4396299	8.18078915e-05	163.357883	
	0.000114296709	-34.8954782	0.0542080008	-5.67079443	5.46144664e-05	-22.0030965	0.0934750245	23.1073574	
	0.0901019816	25.4396146	5.46160599e-05	-22.0031958	0.0490937171000001	-3.57746211	0.000166659172	150.190809	
	8.18051114e-05	163.357975	0.0934750764	23.1073439	0.00016665498	150.190668	0.053184863	-6.39316349000001	
	
120000000.	0.0724327547	-11.0498326	0.000109884718	-62.0843395	0.104404869	5.30112518	9.98378057e-05	134.946929	
	0.000109884822	-62.0843334	0.0759341915	-14.0409445	4.76683251e-05	-38.1606339	0.106144718	2.90379235	
	0.104404823	5.3010975	4.76709723e-05	-38.161422	0.0717775044999999	-11.4219363	0.000187644608	123.505545	
	9.98329016e-05	134.947143	0.106144805	2.90378704	0.000187637109	123.505484	0.0746404802999999	-14.5328779	
	
130000000.	0.0902036016	-24.6294646	0.000104489051	-85.6163354	0.104694887	-14.7894474	0.0001144321	103.081493	
	0.000104489205	-85.6163771	0.0923636879000001	-27.4092768	4.6711288e-05	-45.0444539	0.104340808	-17.2055386	
	0.104694826	-14.7894851	4.67143503e-05	-45.0467811	0.0895584714	-24.9555293	0.000207686136	94.8906167	
	0.000114425618	103.081577	0.104340909	-17.2055278	0.000207676167	94.8906125	0.0909811233000001	-27.7799449	
	
140000000.	0.100434373	-40.1194386	0.000103059842	-105.83397	0.09101795	-34.416462	0.00012228091	69.8195994	
	0.000103059965	-105.834077	0.101044978	-42.5638469	5.68342442e-05	-54.2467607	0.0883372352	-36.7294929	
	0.0910178868	-34.4165079	5.68372355e-05	-54.2500407	0.09985816	-40.4515916	0.000222888206	65.0200876	
	0.00012227334	69.8193677	0.0883373287	-36.7294574	0.000222876567	65.0200584	0.0997721309999999	-42.8568776	
	
150000000.	0.101549439	-56.2290051	0.000109656703	-125.581059	0.065102347	-52.6271455	0.00012274407	36.5300365	
	0.000109656721	-125.581192	0.100496928	-58.1894677	7.33471137e-05	-73.2101651	0.0601909757	-54.323533	
	0.065102294	-52.6271989	7.33500924e-05	-73.2134956	0.101086504	-56.5885923	0.000231872757	34.5737944	
	0.000122735846	36.5293754	0.0601910472	-54.3234516	0.000231860162	34.5736583	0.0995308102	-58.4387688	
	
160000000.	0.0928546696	-71.9622698	0.000122402242	-148.014077	0.0306381883	-63.5741514	0.000113983184	4.97690436	
	0.000122402166	-148.014183	0.0902684979	-73.1003592	8.91665212e-05	-98.3867625	0.0244224128	-59.828404	
	0.0306381539	-63.5742126	8.91695606e-05	-98.389953	0.0925349961	-72.3626100999999	0.000230606854	4.64957736	
	0.000113974598	4.97578811	0.0244224761	-59.8281716	0.000230593848	4.6492926	0.0897869003	-73.3514377	
	
170000000.	0.0750251421	-85.5588158	0.000137384138	-174.409332	0.0146506952	35.4414683	0.000100525486	-22.7192177	
	0.000137384049	-174.409395	0.0715149943	-85.0340247	0.000100137622	-126.26	0.0218572431	44.5260391	
	0.0146506882	35.4414772	0.000100140641	-126.263053	0.0748775201	-86.0218092	0.000222970053	-23.906925	
	0.000100516615	-22.7206078	0.0218573264	44.5257956	0.000222956957	-23.9073491	0.0716088524	-85.4107575	
	
180000000.	0.0512482183	-92.0856414999999	0.000148626333	156.390645	0.0512282811	45.0061788	8.81574951e-05	-43.8619223	
	0.00014862631	156.390607	0.0485150748	-87.6232988999999	0.000104014245	-153.902925	0.0594436004	42.0470579	
	0.0512282584	45.0061377	0.000104017038	-153.905891	0.0512680277	-92.6969514999999	0.000212238988	-50.0810338	
	8.81482909e-05	-43.862915	0.0594436825	42.0469634	0.000212225896	-50.0814957	0.0490565735	-88.6088712000001	
	
190000000.	0.0313907384	-74.0472712	0.00015257927	126.01181	0.0839901062	28.3847773	8.56920489e-05	-59.5873442	
	0.000152579349	126.011773	0.0339376449	-64.2858021000001	0.000102015987	-179.088053	0.091071596	24.6559479	
	0.0839900644	28.3847293	0.000102018335	-179.090963	0.0313898535	-75.1599561999999	0.000204902495	-73.7572444	
	8.56828377e-05	-59.5871103	0.0910716914	24.6558992	0.000204889444	-73.7575688	0.0339329783	-67.0119585000001	
	
200000000.	0.0386135136	-36.2865023	0.000149099786	95.8376114	0.106186982	9.17202732	9.62101024e-05	-77.5903993	
	0.000149099951	95.8375526	0.0459119387	-36.4836383	9.87412935e-05	159.441371	0.111050173	5.25938638	
	0.106186928	9.17197743	9.87430749e-05	159.438553	0.0381723676	-37.3353015	0.000206771791	-96.3238581	
	9.62014256e-05	-77.5893567	0.111050271	5.25936171	0.000206758971	-96.3239274	0.0444140005	-38.3900551	
	
210000000.	0.0635691279000001	-32.0558376	0.000138872596	67.384793	0.114651002	-10.5180989	0.000111878376	-102.051933	
	0.000138872792	67.3846943	0.070208563	-36.0602451	9.91461535e-05	141.351346	0.116523174	-14.4680025	
	0.114650945	-10.5181488	9.91473866e-05	141.348715	0.0628290579	-32.8097922	0.000216393499	-119.673733	
	0.000111870332	-102.050933	0.116523263	-14.4680103	0.000216381225	-119.673592	0.0680248589	-36.9314155	
	
220000000.	0.0879654581	-42.1175047	0.000126210151	41.6194763	0.108356832	-29.9713307	0.000126181739	-131.411498	
	0.000126210307	41.6193314	0.0927073533999999	-46.6015278	0.000106395588	123.215484	0.10684127	-33.8382681	
	0.108356779	-29.9713795	0.000106396461	123.213148	0.0870388783	-42.7818432	0.000231168636	-145.107299	
	0.00012617427	-131.410893	0.106841342	-33.8382609	0.000231157203	-145.107097	0.0903521692000001	-47.0613091	
	
230000000.	0.105743467	-56.6302833	0.000115308153	19.4664142	0.0882008463	-48.4658894	0.000134136912	-163.291976	
	0.000115308209	19.4662384	0.108013934	-60.9847218	0.000118327824	102.593322	0.0833056462	-51.9395808	
	0.0882008032	-48.4659361	0.000118328499	102.591283	0.104716428	-57.2662902	0.000245097758	-172.608672	
	0.000134130051	-163.291812	0.0833056972	-51.9395563	0.000245087376	-172.608532	0.105848053	-61.2631034	
	
240000000.	0.113687695	-72.8154465	0.000111082502	0.108574063	0.0569484141	-63.785176	0.000133656964	164.013223	
	0.000111082449	0.108410738	0.11310167	-76.7990824	0.000130910635	79.2754291	0.0492735226	-65.2948495	
	0.0569483837	-63.7852194	0.00013091116	79.2736504	0.112657928	-73.4443473	0.00025345255	158.434854	
	0.0001336508	164.012989	0.0492735574	-65.2947941	0.000253443353	158.434866	0.111429854	-77.0028514000001	
	
250000000.	0.109948106	-89.3192275	0.000115794037	-19.8572884	0.0209663345	-56.9059196	0.000125117251	131.984323	
	0.00011579393	-19.8574023	0.106466434	-92.5974691999999	0.000141072146	54.20688	0.0156100519	-32.8598278	
	0.0209663175	-56.9059462	0.000141072502	54.2053422	0.109024966	-89.9508075	0.000253881662	128.864507	
	0.00012511185	131.983769	0.0156101061	-32.859751	0.000253873709	128.864373	0.105524682	-92.8079522	
	
260000000.	0.0944704061	-104.708023	0.000125511527	-43.2165626	0.0300032485	33.408618	0.000109656929	102.495027	
	0.000125511439	-43.2166323	0.0886945876999999	-106.545676	0.00014639053	28.920489	0.04086253	34.782818	
	0.0300032487	33.4085994	0.000146390687	28.9191859	0.0937661294	-105.347184	0.00024475715	99.7829069	
	0.000109652276	102.494274	0.0408625632	34.7827581	0.00024475041	99.7826506	0.0886110004	-106.89471	
	
270000000.	0.0696420881	-115.984636	0.000134878397	-70.3752982	0.0676704437	28.5442537	9.30420196e-05	78.1445187	
	0.000134878363	-70.3753466	0.0632621413	-114.390319	0.000147856612	4.40588442	0.0786443574	24.3895181	
	0.067670438	28.5442283	0.0001478566	4.40482738	0.0692493906	-116.654688	0.000229793245	72.2159507	
	9.30380296e-05	78.1438113	0.0786443866	24.3894927	0.00022978762	72.2156287	0.0639334258999999	-115.285197	
	
280000000.	0.0421254691	-112.851438	0.000139216321	-99.809095	0.0988847132	11.8441062	8.27115446e-05	60.2885658	
	0.000139216332	-99.8091379	0.0398153413	-102.523588	0.000147858138	-18.4701593	0.10786813	6.8219398	
	0.0988847032	11.8440834	0.000147858033	-18.4709651	0.0420452719000001	-113.732369	0.000213892964	46.9610056	
	8.27082159e-05	60.2882347	0.107868155	6.82192809	0.000213888354	46.9606984	0.0403250941	-105.409813	
	
290000000.	0.033761886	-73.1014709999999	0.000136885074	-129.98952	0.118144107	-6.96256179	8.42727227e-05	44.3205857	
	0.000136885103	-129.989562	0.0420148915	-66.6415206999999	0.000150013583	-39.9983301	0.123794519	-12.2389178	
	0.118144095	-6.96258034	0.000150013482	-39.9988983	0.0334670584	-74.5506436999999	0.000202918147	23.9146713	
	8.42701945e-05	44.3206231	0.123794537	-12.2389224	0.000202914527	23.9144495	0.0402691549	-69.7382811999999	
	
300000000.	0.0575945156	-54.005915	0.000128787913	-159.76444	0.122730893	-26.1787616	9.47759167e-05	23.3362938	
	0.000128787932	-159.764478	0.0675327488	-57.9936825	0.000156303028	-61.608193	0.124228307	-31.4862957	
	0.122730882	-26.1787753	0.000156302997	-61.6085569	0.0567107579	-55.1233290999999	0.000200633456	1.77133545	
	9.47742243e-05	23.3363734	0.124228317	-31.4862962	0.000200630884	1.77121305	0.0645046674	-59.1522851	
	
310000000.	0.0867009226	-60.581006	0.000116281574	172.141558	0.112094733	-45.013635	0.00010624158	-3.71142736	
	0.000116281569	172.141533	0.0943131157	-66.5368433	0.000164876879	-84.2981731	0.109165443	-50.1398228	
	0.112094724	-45.0136435	0.00016487692	-84.298366	0.0853704572	-61.5170956	0.000206009664	-21.2543854	
	0.000106240671	-3.71143804	0.109165446	-50.1398213	0.00020600819	-21.254448	0.0909520308	-67.0191667	
	
320000000.	0.109881042	-74.3456528	0.000102883909	146.739091	0.0878363497	-62.4147825	0.000113693913	-34.3737778	
	0.00010288388	146.739092	0.113902596	-80.590494	0.00017277985	-108.384098	0.0807924113	-66.7961311	
	0.0878363425	-62.4147854	0.000172779934	-108.384133	0.108238739	-75.2059604000001	0.000215441966	-46.2594218	
	0.000113693754	-34.3738336	0.0807924088	-66.7961298	0.00021544158	-46.2594618	0.110712363	-80.8311341	
	
330000000.	0.122427186	-90.6004122	9.22828402e-05	124.8361	0.0535908109	-74.8104392	0.000114476101	-66.770332	
	9.22828043e-05	124.83614	0.122092811	-96.6589421	0.000177320979	-133.113153	0.0436966452	-75.2565432	
	0.0535908055	-74.8104353	0.000177321098	-133.113029	0.120633037	-91.4209684000001	0.000223793012	-73.2978655	
	0.000114476659	-66.770336	0.0436966391	-75.2565457	0.000223793647	-73.2978838	0.119469559	-96.8178258	
	
340000000.	0.121744598	-107.577214	8.80423534e-05	105.066967	0.0197588315	-50.0475304	0.000108032355	-99.3213988	
	8.80423302e-05	105.067046	0.116854375	-113.043302	0.000177762145	-157.565857	0.0191771944	-16.0062537	
	0.0197588297	-50.0475101	0.000177762334	-157.565569	0.11998564	-108.369197	0.000226866137	-101.697339	
	0.000108033571	-99.3212386	0.0191771843	-16.0062361	0.000226867699	-101.697305	0.115110253	-113.212978	
	
350000000.	0.107417576	-123.880969	9.03723745e-05	83.7392063	0.0392474789	18.3294472	9.56491764e-05	-130.218268	
	9.03723621e-05	83.7393106	0.0986471638	-127.991925	0.000175639253	178.991493	0.0526497818	18.1722799	
	0.0392474831	18.3294612	0.000175639586	178.991935	0.105892926	-124.64044	0.000222798365	-130.45691	
	9.56509786e-05	-130.217831	0.0526497747	18.1722966	0.000222800756	-130.456778	0.0979736677000001	-128.292799	
	
360000000.	0.0816628433999999	-137.176767	9.5074055e-05	58.8388491	0.0767624056	11.6618151	8.05009718e-05	-157.485601	
	9.50740283e-05	58.8389741	0.0709784273	-137.900729	0.000173680871	157.096466	0.0899038328	6.51275254	
	0.0767624093	11.6618322	0.000173681413	157.097031	0.0805733266	-137.884119	0.000212303021	-158.603807	
	8.05033338e-05	-157.484816	0.0899038218	6.51276346	0.000212306176	-158.603534	0.0713373919	-138.684028	
	
370000000.	0.0502722022	-139.995656	9.84546341e-05	30.6294936	0.106964423	-4.61406653	6.79902602e-05	-178.436866	
	9.84545639e-05	30.6296473	0.0427712639	-130.403063	0.000175596605	136.149294	0.117402541	-10.8197762	
	0.106964425	-4.61404483	0.000175597349	136.149935	0.0497714679	-140.657766	0.00019850411	174.750658	
	6.7993248e-05	-178.435889	0.117402525	-10.8197695	0.000198508013	174.751092	0.0433559745	-133.11655	
	
380000000.	0.0319290836	-105.152543	9.83451909e-05	0.607704684	0.124613331	-22.9778006	6.38285353e-05	165.216268	
	9.83450604e-05	0.607900519	0.0396654234	-90.6886583999999	0.000182934785	114.877168	0.130814767	-29.5206681	
	0.124613331	-22.9777743	0.000182935639	114.877856	0.031759191	-106.374302	0.000185478486	149.935147	
	6.38321565e-05	165.217021	0.130814746	-29.5206659	0.000185483156	149.93572	0.0377587756	-94.3889116999998	
	
390000000.	0.0531002777	-74.4669925	9.4494763e-05	-30.0588759	0.127234603	-41.7688085	6.83303925e-05	146.302089	
	9.44945695e-05	-30.0586244	0.0661830264	-77.8033528000001	0.000193732491	92.0254007	0.128376318	-48.343702	
	0.127234601	-41.7687777	0.000193733342	92.0261454	0.0522371308	-75.8126597999999	0.000176641525	126.610038	
	6.83345046e-05	146.302582	0.128376295	-48.3437054	0.000176646953	126.610684	0.0625517192	-79.0429079	
	
400000000.	0.084818744	-78.6414693	8.78449809e-05	-60.4971304	0.114673144	-60.0974172	7.59938564e-05	121.238383	
	8.78447323e-05	-60.496812	0.0951503284	-85.8998968	0.000203561339	67.2602868	0.110659345	-66.4020574	
	0.11467314	-60.0973821	0.000203562117	67.2611213	0.0832044186	-79.7973765	0.000173417257	103.747783	
	7.59983448e-05	121.238989	0.110659321	-66.402069	0.00017342335	103.748441	0.0909612405	-86.3604878	
	
410000000.	0.110752592	-92.1456176999999	7.91915777e-05	-89.7268373	0.0888848905	-76.7228702	8.19717864e-05	90.8502092	
	7.91912913e-05	-89.7264407	0.11616966	-100.225156	0.000208350141	41.3601155	0.080309686	-81.9937975	
	0.0888848844	-76.7228309	0.000208350864	41.3610722	0.108538225	-93.1983459	0.000175217531	80.0214641	
	8.19765303e-05	90.8512767	0.0803096601	-81.993823	0.000175224116	80.0221374	0.11200397	-100.435934	
	
420000000.	0.125400356	-108.600126	7.09733058e-05	-117.006227	0.0540355761	-87.4696627	8.3185836e-05	58.0618309	
	7.09730019e-05	-117.005751	0.124783725	-116.724853	0.000205750987	15.3296708	0.0427352094	-87.4093833	
	0.05403557	-87.4696183	0.000205751747	15.3307728	0.122799583	-109.588773	0.000178665796	54.7797029	
	8.31906575e-05	58.063569	0.0427351749	-87.4094377	0.000178672686	54.7804593	0.121107572	-116.855609	
	
430000000.	0.125866858	-125.976454	6.50530373e-05	-142.361242	0.0220844896	-59.8255875	7.91087744e-05	24.2875216	
	6.50527232e-05	-142.360706	0.118933132	-133.637209	0.000196743269	-9.55105302	0.022874923	-27.2967418	
	0.0220844875	-59.8255317	0.000196744222	-9.54980575	0.123144835	-126.909728	0.00018069928	28.1073002	
	7.91134489e-05	24.2901347	0.02287487	-27.2966861	0.000180706333	28.1082334	0.116143926	-133.772867	
	
440000000.	0.111699642	-142.913229	6.24400113e-05	-167.425627	0.0414406009	-0.053798855	7.02992411e-05	-8.76488875	
	6.24396585e-05	-167.425068	0.0993052898999999	-149.260878	0.000185186574	-32.1228238	0.0563199009	-0.249171387	
	0.0414406007	-0.0537494604	0.000185187876	-32.1214735	0.109157554	-143.771546	0.000179229104	0.709153595	
