!!!!!!!!!!!!!!!!!!!!!!!!!!!!!!!!!!!!!!!!!!!!!!!!!!!!!!!!!!!!!!!!!!!!!!!!!!!!!!!!!!!!!!!!!
!!
!! Reference: shanbhag_3dj_02_2305.pdf
!!
!!!!!!!!!!!!!!!!!!!!!!!!!!!!!!!!!!!!!!!!!!!!!!!!!!!!!!!!!!!!!!!!!!!!!!!!!!!!!!!!!!!!!!!!!
!!
!! CHANNEL DESCRIPTION: TP0_TP5 KR Channel using 1meter Cabled BP, PCB Host
!! CABLE DESCRIPTION: 1meter 26AWG Cable
!! MODEL STATUS: Developmental
!!
!! PORT DEFINITIONS: 
!! Port   1    ----->  Side A	      Side B  <-----  Port   2
!! Port   3    ----->  Side A	      Side B  <-----  Port   4
!!


# HZ S MA R 50.000000 


0.	0.0375987509	2.98697295e-13	0.961087488	6.00101111e-14	0.0105095725	8.14859663e-13	0.0102684613	180	
	0.961087492	6.00101057e-14	0.0375934920000001	2.98728321999999e-13	0.0102698073	180	0.0105113402	8.14728599e-13	
	0.0105098631	8.14859233e-13	0.0102699755	180	0.0377193297	1.4854749e-12	0.960939527	1.18215725e-13	
	0.0102686325	180	0.0105116944	8.14723687e-13	0.960939523	1.1821573e-13	0.0377238259999999	1.48532265e-12	
	
10000000.	0.0559072472000001	18.040964	0.954781983	-22.7043989	0.038572014	51.8052715	0.00877749265	154.270985	
	0.954781983	-22.7043989	0.0559072481000001	18.0409625	0.00877749266	154.270985	0.0385720139	51.8052717	
	0.0385720147	51.8052715	0.00877749257	154.27098	0.0554412417000001	17.9045943	0.955114668	-22.6961902	
	0.00877749256	154.27098	0.0385720146	51.8052717	0.955114668	-22.6961902	0.0554412426	17.9045934	
	
20000000.	0.0765751627999999	13.2082489	0.948495587	-45.066028	0.0711553841	38.4320377	0.0107327016	124.578762	
	0.948495587	-45.0660279	0.0765751591000001	13.2082503	0.010732701	124.578766	0.0711553838	38.4320365	
	0.071155461	38.4323065	0.0107327194	124.578783	0.0759593127999999	13.0780647	0.948871695	-45.0592478	
	0.01073272	124.578779	0.0711554616	38.4323077	0.948871695	-45.0592478	0.0759593271000001	13.0780546	
	
30000000.	0.0919121092	1.15263608	0.942884719	-67.2441201	0.0929673583	19.9766995	0.0132681643	91.0422645	
	0.942884719	-67.2441201	0.0919121146999999	1.15263117000001	0.0132681651	91.0422645	0.0929673584	19.9766993	
	0.0929673792	19.976707	0.0132681676	91.0422587	0.0911962787999999	0.992631958000001	0.943293416	-67.2373333	
	0.0132681667	91.0422585	0.0929673815	19.9767091	0.943293416	-67.2373333	0.0911962829999999	0.992623647000001	
	
40000000.	0.0999348610000001	-13.426115	0.939168994	-89.3155448	0.101398262	-0.322789756	0.0154805311	55.8441319	
	0.939168994	-89.3155448	0.0999348641999999	-13.4261258	0.0154805314	55.8441288	0.101398261	-0.322789367	
	0.101398242	-0.322789084	0.015480537	55.8441555	0.0991653422	-13.6229055	0.939610841	-89.3091533	
	0.0154805368	55.8441593	0.101398244	-0.322788233	0.939610841	-89.3091533	0.0991653546	-13.6229095	
	
50000000.	0.0995440614	-28.7026122	0.937275968	-111.365335	0.0954572158	-20.6772077	0.0172192696	21.0001366	
	0.937275968	-111.365335	0.0995440664	-28.7026266	0.0172192708	21.0001343	0.0954572155	-20.677206	
	0.0954572109	-20.677206	0.017219273	21.0001374	0.0988142607999999	-28.9364463	0.937746872	-111.359399	
	0.0172192719	21.0001405	0.0954572108	-20.6772045	0.937746872	-111.359399	0.0988142581	-28.9364479	
	
60000000.	0.0906949345	-43.8522092	0.936857987	-133.467163	0.0758733499	-40.6418937	0.0182037632	-12.727951	
	0.936857987	-133.467163	0.0906949393	-43.8522273	0.0182037635	-12.7279504	0.07587335	-40.6418914	
	0.0758733503	-40.6418938	0.018203764	-12.7279513	0.0900888561	-44.1174792	0.937355044	-133.462053	
	0.0182037638	-12.7279526	0.0758733505	-40.6418915	0.937355044	-133.462053	0.0900888611	-44.117496	
	
70000000.	0.0738851010999999	-57.4007237000001	0.936767321	-155.666865	0.045212378	-58.4870136	0.0182317752	-44.1374921	
	0.936767321	-155.666865	0.0738851019999999	-57.4007463000001	0.0182317752	-44.1374924	0.0452123783	-58.4870092	
	0.0452123764	-58.4870117	0.0182317765	-44.1374917	0.0734984226	-57.7126329999999	0.937287144	-155.662159	
	0.0182317768	-44.1374923	0.0452123771	-58.4870072	0.937287144	-155.662159	0.073498412	-57.7126536000001	
	
80000000.	0.0515864692	-65.2907954999999	0.935696035	-177.947151	0.0095911935	-43.9722453	0.0174615038	-71.8115094	
	0.935696035	-177.947151	0.0515864654	-65.2908233000001	0.0174615037	-71.8115105	0.00959119515	-43.9722358	
	0.00959119116	-43.9722242	0.0174615079	-71.8115108	0.0514761275	-65.7351026000001	0.936239869	-177.942507	
	0.0174615079	-71.8115101	0.0095911929	-43.9722144	0.936239869	-177.942507	0.0514761243	-65.7351307000001	
	
90000000.	0.0313507809	-52.8743089999999	0.932838239	159.75346	0.0332608206	58.1068124	0.0165605083	-94.102301	
	0.932838239	159.75346	0.0313507706000001	-52.8743313	0.0165605084	-94.1023011	0.0332608209	58.1068105	
	0.0332608258	58.1068156	0.0165605139	-94.1023089	0.0313554978	-53.9069017	0.933414698	159.758324	
	0.0165605138	-94.1023081	0.033260826	58.1068137	0.933414698	159.758324	0.0313554875999999	-53.9069246000002	
	
100000000.	0.0330232309	-14.012197	0.92835751	137.507982	0.0679692226	42.7102955	0.0165869848	-111.334058	
	0.92835751	137.507982	0.0330232289	-14.0121996	0.0165869851	-111.334056	0.0679692225	42.7102959	
	0.0679692237	42.7102913	0.0165869874	-111.334061	0.0324870599000001	-15.2769175	0.928980331	137.513214	
	0.0165869871	-111.334063	0.0679692236	42.7102921	0.928980331	137.513214	0.0324870579	-15.27692	
	
110000000.	0.0542079914	-5.67078057000001	0.923178732	115.388264	0.0934750249	23.1073558	0.018471175	-127.88987	
	0.923178732	115.388264	0.0542080007999999	-5.67079442999999	0.0184711749	-127.889867	0.0934750245	23.1073574	
	0.0934750766	23.1073421	0.0184712292	-127.889923	0.0531848534000001	-6.39314782999999	0.923860158	115.391037	
	0.0184712289	-127.889925	0.0934750764	23.1073439	0.923860158	115.391037	0.053184863	-6.39316349000001	
	
120000000.	0.0759341756999999	-14.040921	0.918595618	93.374738	0.106144718	2.9037896	0.0218540223	-147.982022	
	0.918595618	93.374738	0.0759341915	-14.0409445	0.0218540222	-147.982019	0.106144718	2.90379235	
	0.106144805	2.90378415	0.0218541169	-147.982105	0.0746404652	-14.5328513	0.919341324	93.37453	
	0.0218541165	-147.982106	0.106144805	2.90378704	0.919341324	93.37453	0.0746404802999999	-14.5328779	
	
130000000.	0.0923636694	-27.4092453	0.915492187	71.4252213	0.104340808	-17.2055427	0.0258026644	-172.123335	
	0.915492187	71.4252213	0.0923636879000002	-27.4092767999999	0.0258026645	-172.123332	0.104340808	-17.2055386	
	0.104340909	-17.205532	0.0258027928	-172.123414	0.0909811067999999	-27.7799103	0.916295494	71.4210087	
	0.0258027923	-172.123415	0.104340909	-17.2055278	0.916295494	71.4210087	0.0909811233000001	-27.7799449	
	
140000000.	0.101044961	-42.5638076	0.914013118	49.4681517	0.0883372345	-36.729499	0.0293862418	161.13725	
	0.914013118	49.4681517	0.101044978	-42.5638469	0.029386242	161.137252	0.0883372352	-36.7294929	
	0.0883373277	-36.7294635	0.0293863979	161.137196	0.0997721162	-42.856836	0.914856389	49.4592574	
	0.0293863972	161.137195	0.0883373287	-36.7294574	0.914856389	49.4592574	0.0997721309999999	-42.8568776	
	
150000000.	0.100496917	-58.1894202	0.913543057	27.4375559	0.0601909734	-54.3235427	0.0319092382	133.342549	
	0.913543057	27.4375559	0.100496928	-58.1894676999999	0.0319092385	133.342551	0.0601909757	-54.323533	
	0.0601910449	-54.323461	0.031909414	133.342529	0.0995308004	-58.43872	0.914406357	27.424362	
	0.0319094134	133.342528	0.0601910472	-54.3234516	0.914406357	27.424362	0.0995308102	-58.4387688	
	
160000000.	0.0902684988	-73.100303	0.913073169	5.32355341	0.0244224074	-59.8284233	0.0329897288	105.758651	
	0.913073169	5.32355341	0.0902684979	-73.1003592	0.032989729	105.758652	0.0244224128	-59.828404	
	0.0244224708	-59.8281905	0.0329899158	105.758665	0.0897868992	-73.3513804	0.913934443	5.3069061	
	0.0329899153	105.758665	0.0244224761	-59.8281716	0.913934443	5.30690609	0.0897869003	-73.3514377	
	
170000000.	0.0715150112	-85.0339596	0.911554071	-16.8576079	0.021857241	44.5260593	0.0326775237	79.757899	
	0.911554071	-16.8576079	0.0715149943	-85.0340247	0.0326775238	79.7579001	0.0218572431	44.5260391	
	0.0218573242	44.5258153	0.0326777148	79.7579419	0.0716088645	-85.4106902999999	0.912411074	-16.8759516	
	0.0326777145	79.7579414	0.0218573264	44.5257956	0.912411074	-16.8759516	0.0716088524	-85.4107575	
	
180000000.	0.0485151107	-87.6232324	0.908553084	-39.0388336	0.0594436015	42.0470627	0.0316131656	56.5670858	
	0.908553084	-39.0388336	0.0485150748000001	-87.6232988999999	0.0316131657	56.5670871	0.0594436004	42.0470579	
	0.0594436833	42.0469681	0.0316133568	56.5671429	0.0490566039	-88.6087977999999	0.909418438	-39.0574769	
	0.0316133566	56.5671422	0.0594436825	42.0469634	0.909418438	-39.0574769	0.0490565735	-88.6088712000001	
	
190000000.	0.0339376848	-64.2857900000001	0.904417851	-61.1541801	0.0910715974	24.6559485	0.0309807639	36.6704154	
	0.904417851	-61.1541801	0.0339376449	-64.2858021000001	0.0309807642	36.6704169	0.091071596	24.6559479	
	0.0910716926	24.6558998	0.0309809536	36.6704656	0.0339330196	-67.0119285	0.905316944	-61.1727113	
	0.0309809532	36.6704646	0.0910716914	24.6558992	0.905316944	-61.1727113	0.0339329783	-67.0119585000001	
	
200000000.	0.0459119427	-36.4836454000001	0.900072961	-83.1751254	0.111050174	5.25938451	0.0319773502	18.7032095	
	0.900072961	-83.1751254	0.0459119387	-36.4836383	0.0319773508	18.7032108	0.111050173	5.25938638	
	0.111050272	5.25935987	0.031977536	18.7032376	0.0444140132	-38.3900578999999	0.901033703	-83.1943387	
	0.0319775354	18.7032369	0.111050271	5.25936171	0.901033703	-83.1943387	0.0444140005	-38.3900551	
	
210000000.	0.0702085453	-36.0602238	0.896581985	-105.11051	0.116523174	-14.4680067	0.0349640707	-0.22727302	
	0.896581985	-105.11051	0.0702085629999998	-36.0602451000001	0.0349640714	-0.227272325	0.116523174	-14.4680025	
	0.116523263	-14.4680144	0.0349642491	-0.227261429000005	0.0680248492000001	-36.9313946	0.897614809	-105.132475	
	0.0349642484	-0.227261771999998	0.116523263	-14.4680103	0.897614809	-105.132475	0.0680248589	-36.9314155	
	
220000000.	0.092707329	-46.6014873	0.894424922	-127.019937	0.106841268	-33.838275	0.0392099166	-21.890533	
	0.894424922	-127.019937	0.0927073534	-46.6015278000001	0.0392099174	-21.8905328	0.10684127	-33.8382681	
	0.10684134	-33.8382677	0.0392100844	-21.8905234	0.0903521507	-47.0612693	0.895522551	-127.046817	
	0.0392100837	-21.8905234	0.106841342	-33.8382609	0.895522551	-127.046817	0.0903521692000001	-47.0613091	
	
230000000.	0.108013912	-60.9846675	0.893494894	-148.960354	0.083305642	-51.9395918	0.0434835916	-46.2368642	
	0.893494894	-148.960354	0.108013934	-60.9847218	0.0434835922	-46.2368642	0.0833056462	-51.9395808	
	0.0833056931	-51.9395672	0.0434837459	-46.236847	0.105848034	-61.2630495	0.894626781	-148.993659	
	0.0434837453	-46.2368469	0.0833056972	-51.9395563	0.894626781	-148.993659	0.105848053	-61.2631034	
	
240000000.	0.113101656	-76.7990159	0.893123732	-170.970307	0.0492735142	-65.2948688	0.0466616359	-72.2401408	
	0.893123732	-170.970307	0.11310167	-76.7990823999999	0.0466616363	-72.2401408	0.0492735226	-65.2948495	
	0.049273549	-65.2948132	0.0466617739	-72.2401136	0.111429842	-77.0027847	0.894248099	-171.010011	
	0.0466617736	-72.2401134	0.0492735574	-65.2947941	0.894248099	-171.010011	0.111429854	-77.0028514000001	
	
250000000.	0.106466434	-92.5973895000001	0.892415754	166.945404	0.0156100334	-32.8598341	0.0480452079	-98.6305905	
	0.892415754	166.945404	0.106466434	-92.5974691999999	0.0480452082	-98.6305905	0.0156100519	-32.8598278	
	0.0156100877	-32.8597574	0.0480453278	-98.6305551	0.105524683	-92.8078719999999	0.893499543	166.901105	
	0.0480453276	-98.630555	0.0156101061	-32.859751	0.893499543	166.901105	0.105524682	-92.8079522	
	
260000000.	0.0886946069	-106.545579	0.890723105	144.82393	0.0408625292	34.7828412	0.04754323	-124.106276	
	0.890723105	144.82393	0.0886945877	-106.545676	0.0475432302	-124.106276	0.04086253	34.782818	
	0.0408625623	34.7827813	0.0475433316	-124.106236	0.088611021	-106.894613	0.891754601	144.777905	
	0.0475433314	-124.106236	0.0408625632	34.7827581	0.891754601	144.777905	0.0886110004	-106.89471	
	
270000000.	0.0632621899000001	-114.390202	0.887829397	122.717044	0.07864436	24.3895273	0.0458686697	-147.4289	
	0.887829397	122.717044	0.0632621412999999	-114.390319	0.0458686699	-147.4289	0.0786443574	24.3895181	
	0.0786443891	24.3895019	0.0458687543	-147.428862	0.0639334748	-115.28508	0.888831564	122.671952	
	0.0458687541	-147.428863	0.0786443866	24.3894927	0.888831564	122.671952	0.0639334258999999	-115.285197	
	
280000000.	0.0398154295	-102.523492	0.884207057	100.675866	0.107868133	6.82194367	0.0444098155	-167.936434	
	0.884207057	100.675866	0.0398153413	-102.523588	0.0444098157	-167.936434	0.10786813	6.8219398	
	0.107868158	6.82193198	0.0444098846	-167.936404	0.0403251811	-105.409713	0.885225113	100.632799	
	0.0444098845	-167.936404	0.107868155	6.82192809	0.885225113	100.632799	0.0403250941	-105.409813	
	
290000000.	0.042014959	-66.6415488999999	0.880715635	78.7169174	0.123794521	-12.2389174	0.0446980276	173.577847	
	0.880715635	78.7169174	0.0420148914999999	-66.6415207000001	0.0446980277	173.577847	0.123794519	-12.2389178	
	0.12379454	-12.2389219	0.0446980816	173.577866	0.0402692238	-69.738308	0.881797261	78.6747377	
	0.0446980815	173.577866	0.123794537	-12.2389224	0.881797261	78.6747377	0.0402691549	-69.7382811999999	
	
300000000.	0.0675327684000001	-57.9936911999999	0.878108931	56.8130483	0.124228307	-31.4862985	0.0474203549	154.848352	
	0.878108931	56.8130483	0.0675327488	-57.9936825	0.0474203549	154.848352	0.124228307	-31.4862957	
	0.124228318	-31.486299	0.0474203932	154.848362	0.0645046870000001	-59.1522947999999	0.879282579	56.7687698	
	0.0474203932	154.848362	0.124228317	-31.4862962	0.879282579	56.7687698	0.0645046674	-59.1522851	
	
310000000.	0.094313112	-66.5368204	0.876689657	34.9160848	0.109165441	-50.1398297	0.0518829143	133.910264	
	0.876689657	34.9160848	0.0943131156999999	-66.5368433000001	0.0518829144	133.910264	0.109165443	-50.1398228	
	0.109165444	-50.1398282	0.0518829367	133.910268	0.090952027	-67.0191431	0.877947607	34.8660774	
	0.0518829366	133.910268	0.109165446	-50.1398213	0.877947607	34.8660774	0.0909520308	-67.0191667	
	
320000000.	0.113902583	-80.5904473	0.876143432	12.9764833	0.0807924046	-66.7961445	0.0566097289	110.417805	
	0.876143432	12.9764833	0.113902596	-80.590494	0.0566097289	110.417805	0.0807924113	-66.7961311	
	0.0807924021	-66.7961432	0.0566097356	110.417806	0.110712351	-80.8310861	0.877444365	12.918125	
	0.0566097355	110.417806	0.0807924088	-66.7961298	0.877444365	12.918125	0.110712363	-80.8311341	
	
330000000.	0.122092799	-96.6588741999999	0.875846906	-9.02774871	0.0436966297	-75.2565693	0.0601214194	85.1716915	
	0.875846906	-9.02774871	0.122092811	-96.6589421	0.0601214195	85.1716917	0.0436966452	-75.2565432	
	0.0436966236	-75.2565718	0.0601214114	85.1716886	0.119469549	-96.8177564	0.877129771	-9.09475046	
	0.0601214113	85.1716884	0.0436966391	-75.2565457	0.877129771	-9.09475046	0.119469559	-96.8178258	
	
340000000.	0.116854374	-113.043211	0.875114996	-31.0900195	0.0191771712	-16.0062084	0.0614851392	59.3745949	
	0.875114996	-31.0900195	0.116854375	-113.043302	0.0614851393	59.3745951	0.0191771944	-16.0062537	
	0.0191771612	-16.0061909	0.061485118	59.3745867	0.115110254	-113.212886	0.876326864	-31.1632462	
	0.0614851178	59.3745865	0.0191771843	-16.0062361	0.876326864	-31.1632462	0.115110253	-113.212978	
	
350000000.	0.0986471847000001	-127.991803	0.87345662	-53.1788094	0.0526497832	18.1723094	0.0605998631	34.3072584	
	0.87345662	-53.1788094	0.0986471638	-127.991925	0.0605998632	34.3072586	0.0526497818	18.1722799	
	0.052649776	18.1723262	0.0605998301	34.3072436	0.0979736903	-128.292678	0.874579626	-53.2540805	
	0.06059983	34.3072434	0.0526497747	18.1722966	0.874579626	-53.2540805	0.0979736677000001	-128.292799	
	
360000000.	0.0709784898	-137.900562	0.870808856	-75.245347	0.0899038396	6.51276728	0.0582869878	11.1689458	
	0.870808856	-75.245347	0.0709784273000002	-137.900729	0.0582869878	11.1689459	0.0899038328	6.51275254	
	0.0899038286	6.5127782	0.0582869437	11.1689242	0.0713374538000001	-138.683864	0.871871391	-75.3186211	
	0.0582869437	11.1689241	0.0899038218	6.51276346	0.871871391	-75.3186211	0.0713373919	-138.684028	
	
370000000.	0.0427714056	-130.402875	0.867610559	-97.2507112	0.117402549	-10.8197679	0.0561932312	-9.41667637	
	0.867610559	-97.2507112	0.0427712639	-130.403063	0.0561932311	-9.41667622	0.117402541	-10.8197762	
	0.117402533	-10.8197612	0.056193176	-9.41670269	0.0433561098999999	-133.116359	0.868675479	-97.320077	
	0.0561931761	-9.41670284	0.117402525	-10.8197695	0.868675479	-97.320077	0.0433559745	-133.11655	
	
380000000.	0.0396655806	-90.6887205999999	0.864620289	-119.183557	0.130814774	-29.520664	0.0560645919	-28.1092648	
	0.864620289	-119.183557	0.0396654233999999	-90.6886583999999	0.0560645917	-28.1092645	0.130814767	-29.5206681	
	0.130814754	-29.5206618	0.0560645255	-28.1092918	0.0377589334	-94.388963	0.865756621	-119.250231	
	0.0560645257	-28.109292	0.130814746	-29.5206659	0.865756621	-119.250231	0.0377587756	-94.3889116999998	
	
390000000.	0.0661831007	-77.8034216000001	0.862482466	-141.070153	0.128376324	-48.343702	0.0586830535	-46.9181153	
	0.862482466	-141.070153	0.0661830264	-77.8033528000001	0.0586830533	-46.9181149	0.128376318	-48.343702	
	0.128376301	-48.3437054	0.0586829771	-46.9181404	0.0625517939	-79.0429784	0.863733618	-141.13805	
	0.0586829772	-46.9181408	0.128376295	-48.3437054	0.863733618	-141.13805	0.0625517192	-79.0429079	
	
400000000.	0.095150357	-85.8999154	0.861386279	-162.957256	0.110659347	-66.4020627	0.0632986027	-67.6748175	
	0.861386279	-162.957256	0.0951503284	-85.8998968	0.0632986026	-67.674817	0.110659345	-66.4020574	
	0.110659323	-66.4020742	0.0632985182	-67.6748418	0.0909612693	-86.3605064999999	0.862749555	-163.031326	
	0.0632985182	-67.6748423	0.110659321	-66.402069	0.862749555	-163.031326	0.0909612405	-86.3604878000001	
	
410000000.	0.116169665	-100.225136	0.86106354	175.11667	0.0803096807	-81.9938113	0.0682028786	-90.7766805	
	0.86106354	175.11667	0.11616966	-100.225156	0.0682028787	-90.7766801	0.080309686	-81.9937975	
	0.0803096548	-81.9938367	0.0682027882	-90.7767071	0.112003977	-100.435913	0.862488639	175.032615	
	0.0682027882	-90.7767075	0.0803096601	-81.993823	0.862488639	175.032615	0.11200397	-100.435934	
	
420000000.	0.124783721	-116.724801	0.860977321	153.130034	0.0427351906	-87.4094125	0.0717483446	-115.531024	
	0.860977321	153.130034	0.124783725	-116.724853	0.0717483447	-115.531023	0.0427352094	-87.4093833	
	0.0427351561	-87.4094669	0.0717482502	-115.531055	0.12110757	-116.855555	0.862386409	153.035193	
	0.0717482501	-115.531056	0.0427351749	-87.4094377	0.862386409	153.035193	0.121107572	-116.855609	
	
430000000.	0.118933131	-133.63712	0.860537326	131.086691	0.0228748958	-27.2966866	0.0729172061	-140.796931	
	0.860537326	131.086691	0.118933132	-133.637209	0.0729172062	-140.796931	0.022874923	-27.2967418	
	0.0228748428	-27.2966309	0.0729171091	-140.796969	0.116143928	-133.772777	0.861860274	130.983844	
	0.0729171089	-140.79697	0.02287487	-27.2966861	0.861860274	130.983844	0.116143926	-133.772867	
	
440000000.	0.099305308	-149.260741	0.859259554	109.012488	0.0563199026	-0.249133096999999	0.0716615502	-165.355128	
	0.859259554	109.012488	0.0993052898999999	-149.260878	0.0716615502	-165.355128	0.0563199009	-0.249171387	
	0.0563198768	-0.249083655999999	0.0716614509	-165.355172	0.0976920093000001	-149.498177	0.860468557	108.906863	
	0.0716614508	-165.355172	0.0563198752	-0.249121945	0.860468557	108.906863	0.0976919887	-149.498315	
	
450000000.	0.0696678470000002	-160.034022	0.856992846	86.950428	0.0924867411	-11.4262087	0.068991247	171.86411	
	0.856992846	86.950428	0.0696677796	-160.034238	0.068991247	171.86411	0.0924867303	-11.4262306	
	0.0924867183	-11.4261841	0.0689911446	171.864062	0.0693075328000001	-160.667531	0.858117451	86.8472833	
	0.0689911447	171.864061	0.0924867076	-11.426206	0.858117451	86.8472833	0.0693074652	-160.667747	
	
460000000.	0.0391809205	-152.207958	0.854067293	64.9453898	0.118761703	-28.3199593	0.0666902969	151.372294	
