!!!!!!!!!!!!!!!!!!!!!!!!!!!!!!!!!!!!!!!!!!!!!!!!!!!!!!!!!!!!!!!!!!!!!!!!!!!!!!!!!!!!!!!!!
!!
!! Reference: shanbhag_3dj_02_2305.pdf
!!
!!!!!!!!!!!!!!!!!!!!!!!!!!!!!!!!!!!!!!!!!!!!!!!!!!!!!!!!!!!!!!!!!!!!!!!!!!!!!!!!!!!!!!!!!
!!
!! CHANNEL DESCRIPTION: TP0_TP5 KR Channel using 1meter Cabled BP, PCB Host
!! CABLE DESCRIPTION: 1meter 26AWG Cable
!! MODEL STATUS: Developmental
!!
!! PORT DEFINITIONS: 
!! Port   1    ----->  Side A	      Side B  <-----  Port   2
!! Port   3    ----->  Side A	      Side B  <-----  Port   4
!!


# HZ S MA R 50.000000 


0.	0.0453805175999999	2.55576453e-13	0.953305707	6.01138212e-14	0.0103422582	8.85659519e-13	0.0101011481	180	
	0.953305711	6.01138158e-14	0.0453753016	2.55596965e-13	0.0101024828	180	0.0103440116	8.85515432e-13	
	0.0103425464	8.85658937e-13	0.0101026484	180	0.0454988536000001	1.24151919e-12	0.953160028	1.18699849e-13	
	0.0101013167	180	0.0103443628	8.85509904e-13	0.953160024	1.18699854e-13	0.0455033136	1.24141796e-12	
	
10000000.	0.0618480951	10.2484939	0.946527634	-26.4847268	0.0435509915	50.2066002	0.00865600176	146.01543	
	0.946527634	-26.4847268	0.0618480960999999	10.2484926	0.00865600177	146.01543	0.0435509914	50.2066004	
	0.0435509922	50.2066001	0.00865600172999999	146.015424	0.0613988521	10.0949019	0.946854248	-26.4766651	
	0.00865600172	146.015424	0.0435509921	50.2066003	0.946854248	-26.4766651	0.0613988529999999	10.0949012	
	
20000000.	0.0800546397	2.85679558	0.939701846	-52.6015277	0.078568599	31.96788	0.0106893634	109.048788	
	0.939701846	-52.6015277	0.080054636	2.85679679	0.0106893628	109.048792	0.0785685986	31.967879	
	0.0785686794	31.9681429	0.0106893869	109.048816	0.0794538696000001	2.70932649	0.940070082	-52.5949325	
	0.0106893875	109.048812	0.07856868	31.968144	0.940070082	-52.5949325	0.0794538844999999	2.70931745	
	
30000000.	0.0934247092	-10.9948464	0.933897016	-78.5169305	0.0980561537	9.47770102	0.0133717742	69.8330331	
	0.933897016	-78.5169305	0.0934247147	-10.9948511	0.0133717751	69.8330338	0.0980561538	9.47770081	
	0.0980561749	9.47770864	0.0133717781	69.833028	0.0927156826	-11.1600479	0.934296443	-78.5103317	
	0.0133717772	69.8330271	0.0980561772	9.4777106	0.934296443	-78.5103318	0.0927156870000001	-11.1600559	
	
40000000.	0.100077646	-27.3226754999999	0.930517419	-104.337816	0.0989788319	-14.516948	0.015778923	29.8358011	
	0.930517419	-104.337816	0.100077649	-27.3226862	0.0157789233	29.8357984	0.0989788316	-14.5169476	
	0.0989788131	-14.516948	0.0157789272	29.8358294	0.0993005638999999	-27.5105501	0.930949141	-104.331584	
	0.0157789271	29.8358328	0.0989788144	-14.5169472	0.930949141	-104.331584	0.0993005761000001	-27.5105542	
	
50000000.	0.0987744213	-44.4063343	0.929088772	-130.180893	0.0813459917	-38.227492	0.0176723174	-9.10961068	
	0.929088772	-130.180893	0.0987744249000002	-44.4063487999999	0.0176723184	-9.10961287	0.0813459914	-38.2274901	
	0.081345987	-38.2274908	0.0176723204	-9.10960810999999	0.0980194309000001	-44.6172344	0.92954969	-130.175075	
	0.0176723194	-9.10960518000001	0.0813459869	-38.227489	0.92954969	-130.175075	0.0980194281	-44.6172359	
	
60000000.	0.0891754721	-61.2713267	0.928518281	-156.120185	0.0483138335	-60.0298517	0.0187081746	-46.3507045	
	0.928518281	-156.120185	0.0891754742	-61.2713451000001	0.0187081749	-46.3507037	0.0483138338	-60.0298482	
	0.0483138335	-60.0298518	0.0187081754	-46.3507045	0.0885290307	-61.5011384000001	0.929005941	-156.115162	
	0.0187081753	-46.3507058	0.048313834	-60.0298484	0.929005941	-156.115162	0.0885290332	-61.5011555	
	
70000000.	0.0718036962	-75.8790996000001	0.927109357	177.841257	0.00818011276	-41.5404873	0.0186957616	-80.5669123	
	0.927109357	177.841257	0.0718036931	-75.8791224	0.0186957616	-80.5669133	0.00818011527	-41.5404714	
	0.00818011173	-41.5404771	0.0186957629	-80.5669118	0.0713636517	-76.1485534	0.927620263	177.845866	
	0.0186957632	-80.5669114	0.0081801146	-41.5404633	0.927620263	177.845866	0.0713636377	-76.1485730000001	
	
80000000.	0.0500885019	-82.7892230000001	0.923786545	151.783438	0.0396517478	52.8396157	0.0179992263	-110.172805	
	0.923786545	151.783438	0.0500884927999999	-82.7892497	0.0179992262	-110.172806	0.0396517481	52.8396125	
	0.0396517513	52.839621	0.0179992306	-110.172804	0.049897474	-83.2026190000001	0.924321406	151.787933	
	0.0179992305	-110.172804	0.0396517515	52.8396176	0.924321406	151.787933	0.0498974654	-83.2026461	
	
90000000.	0.034327734	-67.6069593999999	0.918805946	125.801999	0.0767018037	32.2636729	0.0176279259	-134.162692	
	0.918805946	125.801999	0.0343277205	-67.6069727000001	0.017627926	-134.162692	0.0767018037	32.2636721	
	0.0767018089	32.2636765	0.0176279317	-134.162698	0.0341528077	-68.5104057999999	0.919372857	125.806625	
	0.0176279317	-134.162697	0.0767018089	32.2636757	0.919372857	125.806625	0.0341527941	-68.5104197	
	
100000000.	0.0413702766	-41.2509315	0.913516357	99.9399608	0.100073504	8.71559267	0.0187285645	-154.891907	
	0.913516357	99.9399608	0.0413702744	-41.250933	0.0187285647	-154.891905	0.100073504	8.71559294	
	0.100073505	8.71558816	0.018728567	-154.891909	0.0407059858	-42.1229948	0.914129173	99.944861	
	0.0187285668	-154.891911	0.100073505	8.71558869	0.914129173	99.944861	0.0407059836000001	-42.1229961999999	
	
110000000.	0.0625804792	-40.7874918	0.90926406	74.1879936	0.105555538	-15.1884323	0.0217345433	-177.608727	
	0.90926406	74.1879936	0.0625804868999999	-40.7875043999999	0.0217345431	-177.608724	0.105555537	-15.1884309	
	0.105555587	-15.1884281	0.0217345987	-177.608752	0.0614742756999999	-41.3047917000001	0.909935329	74.1903504	
	0.0217345984	-177.608754	0.105555587	-15.1884265	0.909935329	74.1903504	0.0614742835999999	-41.3048060000001	
	
120000000.	0.0831103122	-52.9639263999999	0.906596618	48.4482245	0.0924674336	-38.6354221	0.0257418703	155.516977	
	0.906596618	48.4482245	0.0831103244000001	-52.9639485999998	0.02574187	155.516979	0.0924674336	-38.635419	
	0.0924674982	-38.6353925	0.0257419678	155.516948	0.0817335621	-53.3069867	0.907332997	48.4475206	
	0.0257419675	155.516946	0.0924674985	-38.6353893	0.907332997	48.4475206	0.0817335732	-53.3070117	
	
130000000.	0.0971078207	-69.8410987	0.904947728	22.6566726	0.0633620784	-60.2757445	0.0295848041	125.298924	
	0.904947728	22.6566726	0.0971078333	-69.8411293	0.029584804	125.298926	0.0633620793	-60.275738	
	0.0633621311	-60.2756617	0.0295849349	125.298914	0.0956425641	-70.0911045999999	0.905742393	22.6518621	
	0.0295849344	125.298912	0.0633621323	-60.2756551	0.905742393	22.6518621	0.0956425741	-70.091138	
	
140000000.	0.101302583	-88.5454637	0.903187061	-3.20511833	0.0243934187	-69.855685	0.0322673236	93.5167498	
	0.903187061	-3.20511833	0.101302592	-88.5455032	0.0322673236	93.5167515	0.0243934228	-69.8556663	
	0.0243934673	-69.8554024	0.032267478	93.5167712	0.0999542097	-88.7443616	0.904020261	-3.21471091	
	0.0322674774	93.5167701	0.0243934716	-69.8553842	0.904020261	-3.21471091	0.0999542156	-88.7444033	
	
150000000.	0.0942460621	-107.313354	0.900417631	-29.1038345	0.0239997116	36.835021	0.0332505374	61.9798294	
	0.900417631	-29.1038345	0.0942460619	-107.313405	0.0332505375	61.9798308	0.0239997143	36.8349991	
	0.0239998169	36.834774	0.0332507056	61.9798863	0.0932134968000001	-107.498294	0.90126706	-29.1177311	
	0.033250705	61.9798854	0.0239998195	36.8347524	0.90126706	-29.1177311	0.0932134954	-107.498346	
	
160000000.	0.0769433712	-124.023659	0.896611501	-54.9628431	0.0626879028	27.6621356	0.0327051554	32.319951	
	0.896611501	-54.9628431	0.0769433562000001	-124.023723	0.0327051555	32.3199523	0.0626879023	27.6621273	
	0.0626880137	27.6620397	0.0327053303	32.3200392	0.0763926791999999	-124.260267	0.897455841	-54.9800429	
	0.0327053298	32.3200384	0.0626880132	27.6620316	0.897455841	-54.9800429	0.0763926659	-124.260332	
	
170000000.	0.0532485644	-133.831742	0.892452899	-80.7486746	0.0915293208	6.23824363	0.0315511263	5.94278961	
	0.892452899	-80.7486746	0.0532485276	-133.83182	0.0315511264	5.94279107	0.0915293193	6.2382391	
	0.0915294445	6.23819937	0.0315513053	5.94289372000001	0.0532087172	-134.363015	0.893294565	-80.7673734	
	0.0315513049	5.94289283	0.0915294432	6.23819495	0.893294565	-80.7673734	0.0532086846	-134.363097	
	
180000000.	0.0331923454	-121.060885	0.888939969	-106.464193	0.104756528	-16.83856	0.0312311503	-17.1577375	
	0.888939969	-106.464193	0.0331922853999999	-121.06093	0.0312311506	-17.157736	0.104756526	-16.8385624	
	0.104756648	-16.8385725	0.031231333	-17.1576412	0.0331616743000001	-122.815143	0.88979776	-106.483179	
	0.0312313325	-17.1576422	0.104756646	-16.8385749	0.88979776	-106.483179	0.0331616159	-122.815204	
	
190000000.	0.0384955583	-88.7286147999998	0.886575389	-132.161683	0.100343206	-40.0612335	0.0328346734	-39.2793253	
	0.886575389	-132.161683	0.0384955263	-88.7285795999999	0.032834674	-39.2793241	0.100343205	-40.0612339	
	0.100343306	-40.0612182	0.0328348571	-39.2792512	0.0372803018	-90.390021	0.887478353	-132.180957	
	0.0328348564	-39.2792519	0.100343304	-40.0612185	0.887478353	-132.180957	0.0372802617	-90.3899932	
	
200000000.	0.061156199	-87.2396253	0.885009208	-157.902729	0.0795404253	-62.395231	0.0361753119	-63.3745045	
	0.885009208	-157.902729	0.0611561978000001	-87.2396189999999	0.0361753127	-63.3745038	0.0795404245	-62.3952283	
	0.0795404952	-62.3951814	0.0361754911	-63.3744453	0.0591381379	-87.947972	0.885983137	-157.923581	
	0.0361754903	-63.3744456	0.0795404946	-62.3951788	0.885983137	-157.923581	0.0591381274	-87.9479649999999	
	
210000000.	0.0818245602	-101.075795	0.883438196	176.30108	0.0467210988	-80.7599951	0.0399727486	-90.4730237	
	0.883438196	176.30108	0.0818245711	-101.075815	0.0399727494	-90.4730236	0.0467211006	-80.7599853	
	0.0467211439	-80.7598787	0.0399729177	-90.4729655	0.0794272174	-101.435475	0.884483988	176.276248	
	0.0399729169	-90.4729654	0.0467211458	-80.7598691	0.884483988	176.276248	0.0794272206	-101.435494	
	
220000000.	0.0936273815	-119.656254	0.881084848	150.474192	0.012849631	-55.6258476	0.0428652652	-119.562329	
	0.881084847	150.474192	0.0936273946	-119.656295	0.0428652658	-119.562329	0.0128496423	-55.6258292	
	0.0128497233	-55.6255792	0.0428654198	-119.562264	0.0911745147	-119.874256	0.882181206	150.443375	
	0.0428654192	-119.562264	0.0128497346	-55.6255613	0.882181206	150.443375	0.0911745221	-119.874296	
	
230000000.	0.0939429959000001	-139.648975	0.877914798	124.672463	0.0349719416	17.1820058	0.0440875822	-149.083913	
	0.877914798	124.672463	0.0939430041000003	-139.649037	0.0440875826	-149.083913	0.0349719435	17.1819814	
	0.0349720079	17.1818733	0.04408772	-149.08384	0.0917475636000001	-139.803454	0.879021255	124.634933	
	0.0440877196	-149.08384	0.0349720098	17.181849	0.879021255	124.634933	0.0917475681	-139.803516	
	
240000000.	0.0830507520999999	-159.226775	0.874495906	98.9319051	0.0653550956	2.29878066	0.0437433131	-177.560314	
	0.874495906	98.9319051	0.0830507487	-159.226864	0.0437433134	-177.560314	0.0653550938	2.29876629	
	0.0653551543	2.29872389	0.0437434344	-177.560237	0.0813952501999999	-159.369457	0.875574466	98.8887371	
	0.0437434341	-177.560237	0.0653551525	2.29870959	0.875574466	98.8887371	0.0813952443000001	-159.369546	
	
250000000.	0.0635137179000002	-176.210117	0.871565208	73.2463853	0.0841947342	-19.0043116	0.042704958	156.023533	
	0.871565208	73.2463853	0.0635136930999999	-176.210245	0.0427049582	156.023533	0.0841947307	-19.0043226	
	0.0841947856	-19.0043368	0.0427050648	156.023606	0.0626021168000001	-176.443317	0.872601307	73.1999678	
	0.0427050646	156.023607	0.0841947822	-19.0043477	0.872601307	73.1999678	0.0626020904	-176.443447	
	
260000000.	0.0400223376	175.378671	0.869614719	47.5798407	0.0884273566	-41.5434919	0.0421825002	131.694177	
	0.869614719	47.5798407	0.0400222721000001	175.378483	0.0421825004	131.694177	0.0884273522	-41.5435012	
	0.0884273962	-41.5434977	0.0421825942	131.69424	0.0398630515999999	174.604497	0.870619707	47.5325987	
	0.0421825941	131.69424	0.0884273918	-41.543507	0.870619707	47.5325987	0.0398629857	174.604307	
	
270000000.	0.0238212094	-162.249536	0.868453557	21.8804401	0.0780741229	-64.0118982	0.0430746275	108.235446	
	0.868453557	21.8804401	0.0238210799	-162.249628	0.0430746276	108.235446	0.078074118	-64.0119063	
	0.0780741489	-64.0118886	0.0430747083	108.235495	0.023497742	-165.269838	0.869462948	21.8336028	
	0.0430747083	108.235495	0.078074144	-64.0118967	0.869462948	21.8336028	0.0234976129999999	-165.269944	
	
280000000.	0.0332535990000001	-131.927719	0.867453322	-3.87472464	0.055903	-84.9141762	0.0453007883	83.9506287	
	0.867453322	-3.87472464	0.0332535133999999	-131.927604	0.0453007883	83.9506287	0.0559029953	-84.9141824	
	0.0559030147	-84.9141501	0.0453008543	83.9506639	0.0313889469	-133.865887	0.868504602	-3.92181088	
	0.0453008543	83.950664	0.05590301	-84.9141563	0.868504602	-3.92181088	0.0313888593	-133.865767	
	
290000000.	0.0508632454000001	-137.563214	0.865943336	-29.6694356	0.0272952822	-97.8236591	0.04795728	58.0645625	
	0.865943336	-29.6694356	0.0508632051	-137.563151	0.04795728	58.0645626	0.0272952794	-97.8236581	
	0.0272952931	-97.8236023	0.0479573301	58.0645883	0.0480890636999999	-138.411847	0.867056343	-29.7190014	
	0.0479573302	58.0645883	0.0272952902	-97.8236014	0.867056343	-29.7190014	0.0480890234	-138.411778	
	
300000000.	0.0631372426000001	-154.615186	0.863683835	-55.4627857	0.0112585479	-24.5950918	0.0500638757	30.998114	
	0.863683835	-55.4627857	0.0631372267	-154.615172	0.0500638757	30.9981141	0.0112585537	-24.5951021	
	0.0112585698	-24.5951287	0.05006391	30.9981325	0.0598846633000001	-155.106507	0.864850534	-55.5174551	
	0.0500639101	30.9981324	0.0112585755	-24.5951389	0.864850534	-55.5174551	0.0598846478000001	-155.106492	
	
310000000.	0.0669933688	-175.055505	0.86102707	-81.2169072	0.0331871667	-3.93845494	0.0511269149	3.69605782	
	0.86102707	-81.2169072	0.0669933674999999	-175.055537	0.0511269149	3.696058	0.0331871688	-3.9384763	
	0.0331871738	-3.93847339	0.0511269343	3.69606922	0.0636484284999999	-175.397803	0.862213879	-81.2783283	
	0.0511269343	3.69606905	0.0331871759	-3.93849467	0.862213879	-81.2783283	0.0636484272000001	-175.397836	
	
320000000.	0.0626872216	163.581047	0.858525727	-106.927669	0.050126095	-21.080464	0.0513556598	-23.0090547	
	0.858525727	-106.927669	0.0626872275000002	163.580963	0.0513556598	-23.0090545	0.0501260934	-21.0804848	
	0.0501260956	-21.0804668	0.0513556654	-23.0090511	0.0596277497000001	163.312092	0.859693983	-106.995726	
	0.0513556654	-23.0090512	0.050126094	-21.0804875	0.859693983	-106.995726	0.0596277548999999	163.312005	
	
330000000.	0.0520121580000001	142.607588	0.856595109	-132.617593	0.0562828305	-42.0537871	0.0513513627	-48.7443653	
	0.856595109	-132.617593	0.0520121623	142.607432	0.0513513627	-48.7443651	0.0562828253	-42.0538095	
	0.0562828255	-42.0537846	0.0513513552	-48.7443699	0.0495878666999999	142.364002	0.857718301	-132.690591	
	0.0513513553	-48.7443701	0.0562828204	-42.053807	0.857718301	-132.690591	0.0495878696999999	142.363838	
	
340000000.	0.0377123519000001	123.827966	0.85523367	-158.320206	0.0513465304	-63.4739704	0.0517356887	-73.7328142	
	0.85523367	-158.320206	0.0377123402000001	123.827691	0.0517356886	-73.732814	0.0513465216	-63.4739968	
	0.0513465211	-63.4739689	0.0517356685	-73.7328264	0.0361966667	123.506494	0.856308618	-158.395849	
	0.0517356686	-73.7328266	0.0513465123	-63.4739953	0.856308618	-158.395849	0.0361966535000001	123.506209	
	
350000000.	0.0231594909	112.303735	0.854081513	175.943309	0.0374683122	-83.3877842	0.052768895	-98.5828369	
	0.854081513	175.943309	0.0231594314	112.303248	0.0527688949	-98.5828367	0.0374682996	-83.3878182	
	0.0374683	-83.3877923	0.0527688626	-98.5828554	0.0226557159	111.349953	0.855126435	175.866735	
	0.0527688628	-98.5828557	0.0374682875	-83.3878262	0.855126435	175.866735	0.0226556573	111.349457	
	
360000000.	0.0134455931999999	123.663533	0.852723084	150.17901	0.0188989325	-95.3679262	0.0542244962	-123.781852	
	0.852723084	150.17901	0.0134454247	123.662991999999	0.0542244961	-123.781851	0.0188989154	-95.3679735	
	0.0188989163	-95.3679675	0.0542244525	-123.781875	0.0134030067	118.991957	0.853764917	150.101927	
	0.0542244526	-123.781876	0.0188988992	-95.3680148	0.853764917	150.101927	0.0134028484	118.991369	
	
370000000.	0.0145672835000001	146.989193	0.850966882	124.407633	0.00737587101	-33.2424198	0.0557124634	-149.432619	
	0.850966882	124.407633	0.0145670914000002	146.98934	0.0557124633	-149.432618	0.00737585983	-33.2423072	
	0.00737584411	-33.2422997	0.0557124094	-149.432647	0.0133898752000001	139.53613	0.852025894	124.329197	
	0.0557124096	-149.432648	0.00737583291	-33.2421871000001	0.852025894	124.329197	0.0133896815999999	139.536191	
	
380000000.	0.0197800383999999	140.887706	0.848944589	98.6505389	0.018992348	-3.99268293	0.0569530237	-175.284003	
	0.848944589	98.6505389	0.0197798985000001	140.887932	0.0569530236	-175.284003	0.0189923541	-3.99265318	
	0.0189923368	-3.99257153	0.0569529605	-175.284037	0.0175026182	134.420099	0.850025441	98.5693679	
	0.0569529606	-175.284037	0.0189923429	-3.99254175	0.850025441	98.5693679	0.0175024725	134.420303	
	
390000000.	0.0233936772	121.295012	0.846938378	72.9118846	0.0265161054	-18.0175188	0.0579518355	158.944581	
	0.846938378	72.9118846	0.0233935867000001	121.295151	0.0579518354	158.944581	0.0265161115	-18.01752	
	0.0265160948	-18.0174342	0.057951764	158.944543	0.020512242	115.049372	0.848031303	72.8269408	
	0.0579517641	158.944542	0.0265161009	-18.0174354	0.848031303	72.8269408	0.0205121472	115.049501	
	
400000000.	0.0250937931	97.9655215000003	0.845127229	47.1790103	0.0254124245	-34.9210445	0.0588945773	133.354189	
	0.845127229	47.1790103	0.0250937545	97.9655556000003	0.0588945772	133.354189	0.0254124263	-34.9210682	
	0.0254124133	-34.920968	0.058894498	133.354148	0.0220024816	91.7159638000004	0.846217191	47.0900833	
	0.058894498	133.354147	0.0254124151	-34.9209916	0.846217191	47.0900833	0.022002442	91.7159890999997	
	
410000000.	0.0256901198	75.0428407000002	0.8434501	21.4384794	0.0166009296	-44.8137026	0.0599155816	107.895802	
	0.8434501	21.4384794	0.0256901352999999	75.0427618000002	0.0599155815	107.895803	0.0166009214	-44.8137627	
	0.0166009194	-44.8136206	0.0599154951	107.895758	0.0226790909	69.2566623000001	0.844527018	21.3460504	
	0.0599154952	107.895758	0.0166009113	-44.8136806	0.844527018	21.3460504	0.0226791091	69.2565739999999	
	
420000000.	0.0262963812999999	55.4853780000002	0.841707355	-4.31521172	0.00835555367	0.895309879	0.0610421711	82.4330894	
	0.841707355	-4.31521172	0.0262964413	55.4851732000001	0.061042171	82.4330899	0.0083555273	0.895356785	
	0.00835555408	0.895438337	0.0610420784	82.4330438	0.0235733443	51.077436	0.842769486	-4.41050103	
	0.0610420785	82.4330434	0.00835552772	0.895485258	0.842769486	-4.41050103	0.0235734093	51.0772164999999	
	
430000000.	0.028043089	40.1509894000001	0.839744599	-30.0713116	0.0200918116	36.7970239	0.0622006492	56.9491513	
	0.839744599	-30.0713116	0.0280431658999998	40.1506600000001	0.0622006491	56.9491517	0.0200918066	36.7971177	
	0.0200918175	36.7970957	0.0622005512	56.9491044	0.0259098381	37.6453882	0.840795699	-30.1691696	
	0.0622005513	56.949104	0.0200918125	36.7971895	0.840795699	-30.1691696	0.0259099189	37.6450383	
	
440000000.	0.0318180626999999	27.0688675000001	0.837615805	-55.8157367	0.0336154834	25.0736769	0.0633798667	31.4935229	
	0.837615805	-55.8157367	0.0318181208000001	27.0684636999999	0.0633798666	31.4935234	0.0336154896	25.0737381	
	0.0336154868	25.0737416	0.0633797643	31.4934755	0.0306651827999999	25.8654638000001	0.838657559	-55.916287	
	0.0633797644	31.493475	0.033615493	25.0738029	0.838657559	-55.916287	0.0306652419	25.8650485	
	
450000000.	0.0373153919000001	13.336969	0.835541612	-81.545057	0.0406297654	7.03789874	0.0646752352	6.06279307	
	0.835541612	-81.545057	0.0373154092	13.3365637	0.0646752351	6.06279354	0.040629779	7.03794627	
	0.0406297663	7.03796402	0.0646751292	6.06274559	0.0373739714000001	12.3666392	0.836568522	-81.6484203	
	0.0646751292	6.06274513	0.0406297799	7.03801156	0.836568522	-81.6484203	0.0373739896	12.3662379	
	
