!!!!!!!!!!!!!!!!!!!!!!!!!!!!!!!!!!!!!!!!!!!!!!!!!!!!!!!!!!!!!!!!!!!!!!!!!!!!!!!!!!!!!!!!!
!!
!! Reference: shanbhag_3dj_02_2305.pdf
!!
!!!!!!!!!!!!!!!!!!!!!!!!!!!!!!!!!!!!!!!!!!!!!!!!!!!!!!!!!!!!!!!!!!!!!!!!!!!!!!!!!!!!!!!!!
!!
!! CHANNEL DESCRIPTION: TP0_TP5 KR Channel using 1meter Cabled BP, PCB Host
!! CABLE DESCRIPTION: 1meter 26AWG Cable
!! MODEL STATUS: Developmental
!!
!! PORT DEFINITIONS: 
!! Port   1    ----->  Side A	      Side B  <-----  Port   2
!! Port   3    ----->  Side A	      Side B  <-----  Port   4
!!


# HZ S MA R 50.000000 


0.	0.0485796369	-2.42441512e-12	1.01785499e-05	-1.26211248e-09	0.0108569119	-1.9332803e-11	4.38495066e-05	-6.35170731e-11	
	1.01785371e-05	-1.26211204e-09	0.0453753016	2.55596965e-13	3.57717639e-06	4.48182481e-10	0.0103440116	8.85515432e-13	
	0.0108556048	-1.93342389e-11	3.57702483e-06	4.4818515e-10	0.048775741	-7.11843343999999e-12	1.04910629e-05	-1.72479593e-09	
	4.38507105e-05	-6.35166093e-11	0.0103443628	8.85509904e-13	1.04917986e-05	-1.72480141e-09	0.0455033136	1.24141796e-12	
	
10000000.	0.0645631745000001	8.62643441999999	3.05125496e-05	-68.5764623	0.0439978705	49.1621181	3.59534922e-05	-28.9533655	
	3.05125496e-05	-68.5764622	0.0618480960999999	10.2484926	5.55963079e-06	-63.3066613	0.0435509914	50.2066004	
	0.0439978706	49.1621181	5.55963079e-06	-63.3066613	0.0642547717	8.47870996	1.60641844e-05	-34.7415509	
	3.59534922e-05	-28.9533657	0.0435509921	50.2066003	1.60641844e-05	-34.7415511	0.0613988529999999	10.0949012	
	
20000000.	0.0819671489999999	1.27387756	4.41843848e-05	-131.686622	0.0791404904	31.2350246	2.45258918e-05	-56.8807914	
	4.41843824e-05	-131.68663	0.080054636	2.85679679	1.18393585e-05	147.573507	0.0785685986	31.967879	
	0.079140394	31.2349386	1.18393473e-05	147.573421	0.0813939436	1.12215888	2.17206829e-05	-65.5777132	
	2.45259091e-05	-56.8805559	0.07856868	31.968144	2.17207197e-05	-65.5773798	0.0794538844999999	2.70931745	
	
30000000.	0.0946000493	-12.3338234	4.47397651e-05	-178.813414	0.0983527479	8.76391967	9.45944674e-06	-72.4933568	
	4.47397646e-05	-178.813414	0.0934247147	-10.9948511	2.966486e-05	96.5645119	0.0980561538	9.47770081	
	0.0983527417	8.7639215	2.96648584e-05	96.5645127	0.0938518928000001	-12.4681151	3.0215432e-05	-95.0359843	
	9.45944876e-06	-72.4933486	0.0980561772	9.4777106	3.02154406e-05	-95.035977	0.0927156870000001	-11.1600559	
	
40000000.	0.100531424	-28.3833965	2.89701146e-05	147.743261	0.0985692394	-15.3161631	5.52593808e-06	44.7597219	
	2.89701146e-05	147.743261	0.100077649	-27.3226862	4.47832854e-05	62.2798838	0.0989788316	-14.5169476	
	0.0985692431	-15.3161636	4.47832858e-05	62.2798821	0.0997499149	-28.4383409	4.03863587e-05	-125.098036	
	5.52593708e-06	44.7597214	0.0989788144	-14.5169472	4.03863505e-05	-125.098034	0.0993005761000001	-27.5105542	
	
50000000.	0.0984598132	-45.0960577	4.39860045e-06	-59.5988058	0.0798846535	-39.0122075	1.12915897e-05	36.3423998	
	4.3986005e-06	-59.5988068	0.0987744249000001	-44.4063488	5.43812636e-05	28.8738811	0.0813459914	-38.2274901	
	0.0798846543	-39.0122077	5.43812634e-05	28.8738809	0.0978442694000001	-45.1023267	4.8345801e-05	-154.915843	
	1.12915893e-05	36.3424014	0.0813459869	-38.227489	4.8345799e-05	-154.915841	0.0980194281	-44.6172359	
	
60000000.	0.0881521490000001	-61.3651399999999	5.1959324e-05	-95.7009645	0.0457252265	-60.2555822	1.20591735e-05	51.114325	
	5.1959324e-05	-95.7009644	0.0891754741999999	-61.2713451000001	5.45945082e-05	-4.99029148	0.0483138338	-60.0298482	
	0.0457252266	-60.2555818	5.45945083e-05	-4.99029121	0.0878236075	-61.3835878	5.03147603e-05	175.879617	
	1.20591738e-05	51.1143244	0.048313834	-60.0298484	5.03147607e-05	175.879616	0.0885290332	-61.5011555	
	
70000000.	0.0704151687	-74.7992806	0.000106976184	-128.289651	0.0072405398	-15.8826245	1.49435373e-05	87.7023921	
	0.000106976184	-128.289651	0.0718036931	-75.8791224	4.27108365e-05	-41.9884213	0.00818011527	-41.5404714	
	0.00724054036	-15.8826252	4.27108364e-05	-41.988421	0.0704026991	-74.9483699	4.63688586e-05	147.243338	
	1.49435372e-05	87.7023933	0.0081801146	-41.5404633	4.63688584e-05	147.24334	0.0713636377	-76.1485730000001	
	
80000000.	0.0494883561	-79.1973168	0.000159480306	-160.527004	0.0438158885	50.8387202	3.20619195e-05	93.9382836	
	0.000159480306	-160.527004	0.0500884928	-82.7892497	2.06021931e-05	-95.3181944	0.0396517481	52.8396125	
	0.0438158881	50.83872	2.06021924e-05	-95.3181941	0.0496402338	-79.7776516	3.52140873e-05	119.966411	
	3.20619196e-05	93.9382896	0.0396517515	52.8396176	3.52140878e-05	119.966416	0.0498974654	-83.2026461	
	
90000000.	0.0371514412	-62.2082023000001	0.000199366999	167.678734	0.0804630186	29.8943292	6.11239549e-05	71.7776619	
	0.000199366997	167.678733	0.0343277205	-67.6069727000001	2.1154148e-05	127.99482	0.0767018037	32.2636721	
	0.0804630178	29.8943291	2.11541479e-05	127.994819	0.0368909664	-63.5048687999999	1.72188143e-05	98.7831774	
	6.1123957e-05	71.7776672	0.0767018089	32.2636757	1.72188148e-05	98.7831824	0.0341527941	-68.5104197	
	
100000000.	0.0467366867000001	-41.8745369	0.000220403511	136.261306	0.10265783	6.22310863	8.6327751e-05	47.9488852	
	0.00022040351	136.261307	0.0413702744	-41.250933	5.49241651e-05	74.1864782	0.100073504	8.71559294	
	0.102657829	6.22310848	5.4924165e-05	74.1864777	0.0457584635	-42.6126722	8.75743503e-06	-159.867583	
	8.63277518e-05	47.9488818	0.100073505	8.71558869	8.75743507e-06	-159.867586	0.0407059836000001	-42.1229961999999	
	
110000000.	0.0674398302	-43.959325	0.000214896188	105.455853	0.106330113	-17.7739009	0.000103169111	20.5501957	
	0.000214896189	105.455854	0.0625804869	-40.7875044	8.73522869e-05	38.7800801	0.105555537	-15.1884309	
	0.106330084	-17.7739184	8.73522582e-05	38.7800592	0.0662028086000001	-44.1567530999999	3.44704626e-05	-164.425196	
	0.000103169115	20.5502024	0.105555587	-15.1884265	3.44704769e-05	-164.425172	0.0614742835999999	-41.3048060000001	
	
120000000.	0.0865673938	-56.5341882	0.000184661119	74.7941245	0.0911273407	-41.2453755	0.000103145087	-6.12436278	
	0.000184661123	74.7941265	0.0831103244	-52.9639486	0.000112139543	7.21600918	0.0924674336	-38.635419	
	0.0911272969	-41.2454068	0.00011213948	7.21597462	0.0853320088000001	-56.5690855	6.01131617e-05	169.406957	
	0.000103145095	-6.1243497	0.0924674985	-38.6353893	6.01132049e-05	169.407001	0.0817335732	-53.3070117	
	
130000000.	0.0986798863	-73.2983596	0.000129051917	44.2058278	0.0599782925	-62.5459566	8.36195825e-05	-32.1855709	
	0.000129051924	44.2058316	0.0971078333	-69.8411293	0.000123903894	-23.178248	0.0633620793	-60.275738	
	0.0599782509	-62.5459991	0.000123903805	-23.1782918	0.0975869141	-73.3070978	8.0981123e-05	141.902813	
	8.36195908e-05	-32.1855553	0.0633621323	-60.2756551	8.09811982e-05	141.902872	0.0956425741	-70.091138	
	
140000000.	0.100721794	-91.6045384	5.23182823e-05	13.9341995	0.0199802292	-66.2409706	4.38560224e-05	-54.9602235	
	5.23182932e-05	13.9342099	0.101302592	-88.5455032	0.000119009104	-53.0788261	0.0243934228	-69.8556663	
	0.0199802041	-66.2410147	0.000119009006	-53.0788759	0.0998814093	-91.6446064999999	9.4720032e-05	114.857936	
	4.38560252e-05	-54.9602137	0.0243934716	-69.8553842	9.47201324e-05	114.858005	0.0999542156	-88.7444033	
	
150000000.	0.0916662977	-109.54597	3.74722784e-05	160.385641	0.029652438	37.4780661	1.79483209e-05	62.9350331	
	3.74722661e-05	160.385627	0.0942460619	-107.313405	9.61278126e-05	-82.6702324	0.0239997143	36.8349991	
	0.0296524285	37.4780335	9.61277297e-05	-82.6702856	0.0911666769999999	-109.668903	0.000101226149	88.3383205	
	1.79483197e-05	62.9351066	0.0239998195	36.8347524	0.000101226262	88.3383964	0.0932134954	-107.498346	
	
160000000.	0.0731972869	-124.511922	0.000128856896	130.587591	0.0683637175	24.3876632	8.81697236e-05	54.6787786	
	0.000128856884	130.587588	0.0769433562	-124.023723	5.72560479e-05	-110.932952	0.0626879023	27.6621273	
	0.0683636826	24.3876131	5.72559991e-05	-110.933007	0.0730728126	-124.828	9.87660434e-05	62.4204404	
	8.81697392e-05	54.6788177	0.0626880132	27.6620316	9.87661548e-05	62.4205213	0.0763926659	-124.260332	
	
170000000.	0.0503384255	-130.299432	0.000210446953	100.06345	0.0958246363	2.39503025	0.000162747535	29.1204929	
	0.000210446943	100.063448	0.0532485276000001	-133.83182	8.15998236e-06	-123.689679	0.0915293193	6.2382391	
	0.0958245806	2.39497468	8.15997811e-06	-123.689727	0.0504391806999999	-131.164808	8.76711706e-05	36.9448642	
	0.000162747562	29.1205278	0.0915294432	6.23819495	8.76712656e-05	36.9449493	0.0532086846	-134.363097	
	
180000000.	0.0357510364999999	-112.381078	0.00027199941	69.8027583	0.106769715	-20.9502205	0.000228884245	2.38498851	
	0.000271999402	69.8027574	0.0331922854	-121.06093	4.5431844e-05	5.95682703	0.104756526	-16.8385624	
	0.106769649	-20.9502789	4.54318042e-05	5.95676597	0.0353286864	-114.261332	6.76455124e-05	13.6357302	
	0.00022888428	2.38502172	0.104756646	-16.8385749	6.76455802e-05	13.6358203	0.0331616159	-122.815204	
	
190000000.	0.0459854309	-89.9203023000001	0.0003066487	39.7937753	0.0996337653	-44.3245749	0.000276145286	-24.3968434	
	0.000306648696	39.7937751	0.0384955263	-88.7285795999999	9.5203192e-05	-19.9784698	0.100343205	-40.0612339	
	0.0996337014	-44.3246346	9.52031157e-05	-19.9785286	0.0445334642	-90.9509325999999	4.20968325e-05	-1.4282935	
	0.000276145323	-24.3968114	0.100343304	-40.0612185	4.20968714e-05	-1.428193	0.0372802617	-90.3899932	
	
200000000.	0.0675953146	-92.9302732	0.000311640603	9.78587316	0.0762208994	-66.6303974	0.000296548315	-50.9577542	
	0.000311640602	9.78587353	0.0611561978	-87.2396189999999	0.000136031326	-46.7197627	0.0795404245	-62.3952283	
	0.0762208472	-66.6304571	0.000136031227	-46.7198195	0.0656801616	-93.2609428000001	2.31871428e-05	18.0817024	
	0.000296548351	-50.9577236	0.0795404946	-62.3951788	2.31871738e-05	18.081817	0.0591381274	-87.947965	
	
210000000.	0.0855264221	-107.454268	0.000282992041	-20.2406271	0.041481811	-83.9048565	0.00028347465	-77.0339962	
	0.000282992044	-20.2406261	0.0818245711	-101.075815	0.000161697431	-73.4504966	0.0467211006	-80.7599853	
	0.0414817765	-83.9049137	0.000161697324	-73.4505508	0.0834884936	-107.554726	3.44332569e-05	50.6649715	
	0.000283474681	-77.0339672	0.0467211458	-80.7598691	3.44333038e-05	50.6650464	0.0794272206	-101.435494	
	
220000000.	0.0940346928	-125.884048	0.000224108912	-50.4801359	0.0112685156	-30.537437	0.000235842	-102.233071	
	0.000224108918	-50.4801342	0.0936273946	-119.656295	0.000168699034	-99.8559692	0.0128496423	-55.6258292	
	0.0112685076	-30.53742	0.000168698936	-99.8560204	0.0921305693999999	-125.905434	5.67837633e-05	43.3204473	
	0.000235842022	-102.233044	0.0128497346	-55.6255613	5.67838215e-05	43.3205134	0.0911745221	-119.874296	
	
230000000.	0.0911053268	-145.298209	0.000139526858	-80.7874851	0.0408691326	15.4558519	0.000155745325	-124.60831	
	0.000139526866	-80.787482	0.0939430041000001	-139.649037	0.00015479389	-125.34271	0.0349719435	17.1819814	
	0.040869127	15.4558092	0.000154793813	-125.342757	0.0895679194999999	-145.304285	7.70871187e-05	25.5424495	
	0.000155745336	-124.608285	0.0349720098	17.181849	7.70871813e-05	25.542512	0.0917475681	-139.803516	
	
240000000.	0.0776783881000001	-163.687979	3.89247562e-05	-110.913125	0.0702248739	-1.94430361	5.57421023e-05	-126.470914	
	3.89247636e-05	-110.913114	0.0830507487	-159.226864	0.000121758012	-148.523752	0.0653550938	2.29876629	
	0.0702248572	-1.94434868	0.000121757962	-148.523797	0.0766949572999999	-163.741876	9.28888076e-05	4.38681843	
	5.57421033e-05	-126.47089	0.0653551525	2.29870959	9.28888675e-05	4.38687768	0.0813952443000001	-159.369546	
	
250000000.	0.0570321276000002	-178.010145	6.58734382e-05	38.7294212	0.0869031382	-23.9098068	8.59941565e-05	-33.6062254	
	6.58734324e-05	38.7294142	0.0635136930999999	-176.210245	7.55858663e-05	-164.659912	0.0841947307	-19.0043226	
	0.0869031156	-23.9098494	7.55858418e-05	-164.659955	0.056688206	-178.285608	0.000102096304	-18.5963407	
	8.59941636e-05	-33.6062034	0.0841947822	-19.0043477	0.000102096356	-18.596285	0.0626020904	-176.443447	
	
260000000.	0.0353493676999998	-179.218023	0.00016312812	8.96491373	0.0884491378	-46.7580498	0.000206860472	-46.2435448	
	0.000163128116	8.96491093	0.0400222721000001	175.378483	3.46943147e-05	-142.774318	0.0884273522	-41.5435012	
	0.0884491146	-46.7580885	3.46943021e-05	-142.774362	0.0354223119	179.553325	0.000102087399	-41.942842	
	0.000206860484	-46.2435263	0.0884273918	-41.543507	0.00010208744	-41.9427904	0.0398629857	174.604307	
	
270000000.	0.0274277492000001	-150.484642	0.000243414136	-20.6987377	0.0755037527	-69.3074487	0.000319004479	-69.2042332	
	0.000243414134	-20.6987393	0.0238210799	-162.249628	6.12579939e-05	-95.8532979	0.078074118	-64.0119063	
	0.0755037326	-69.3074827	6.12579742e-05	-95.8533269	0.0266744856999999	-153.204284	9.32754615e-05	-64.1982432	
	0.000319004494	-69.2042176	0.078074144	-64.0118967	9.32754899e-05	-64.1981963	0.0234976129999999	-165.269944	
	
280000000.	0.0407102484	-136.078844	0.000298818749	-50.3175214	0.051454679	-89.8110427	0.00040563965	-93.9707502	
	0.000298818747	-50.3175223	0.0332535133999999	-131.927604	0.000112930234	-105.56609	0.0559029953	-84.9141824	
	0.051454664	-89.8110712	0.00011293021	-105.566114	0.0387698389	-137.383812	7.82189202e-05	-83.339971	
	0.000405639665	-93.9707374	0.05590301	-84.9141563	7.82189387e-05	-83.3399293	0.0313888593	-133.865767	
	
290000000.	0.0561560145999999	-146.198	0.00032367857	-79.9717949	0.0223699801	-98.8913704	0.000454612322	-119.22047	
	0.00032367857	-79.9717953	0.0508632051	-137.563151	0.000157128558	-125.896674	0.0272952794	-97.8236581	
	0.0223699709	-98.891389	0.000157128535	-125.896693	0.0536173962	-146.780548	6.12504307e-05	-96.9849052	
	0.000454612334	-119.22046	0.0272952902	-97.8236014	6.12504429e-05	-96.9848697	0.0480890234	-138.411778	
	
300000000.	0.0651019007	-164.170963	0.000315715497	-109.704217	0.0142243832	-12.6131799	0.000458751421	-144.508719	
	0.000315715498	-109.704217	0.0631372267	-154.615172	0.000185887401	-148.75839	0.0112585537	-24.5951021	
	0.0142243847	-12.6131801	0.000185887383	-148.758404	0.0623287401	-164.470503	4.70174075e-05	-101.899075	
	0.000458751429	-144.508712	0.0112585755	-24.5951389	4.70174166e-05	-101.899048	0.0598846478000001	-155.106492	
	
310000000.	0.0655361505000001	175.277436	0.000274768683	-139.394169	0.0364844042	-8.18161292	0.000413193604	-169.282052	
	0.000274768684	-139.394169	0.0669933674999999	-175.055537	0.000194153735	-172.0431	0.0331871688	-3.9384763	
	0.0364844038	-8.18162136	0.000194153725	-172.043109	0.0628559775	175.126562	4.04774161e-05	-96.6994404	
	0.000413193608	-169.282048	0.0331871759	-3.93849467	4.04774224e-05	-96.6994261	0.0636484272000001	-175.397836	
	
320000000.	0.0583194152999999	154.244256	0.000206503818	-168.941821	0.0513732713	-26.6643774	0.000322595385	167.159963	
	0.000206503819	-168.94182	0.0626872275000001	163.580963	0.000181601647	165.347763	0.0501260934	-21.0804848	
	0.0513732684	-26.664381	0.000181601643	165.347759	0.0560420674999999	154.200252	4.48238783e-05	-91.3907857	
	0.000322595386	167.159964	0.050126094	-21.0804875	4.48238804e-05	-91.390782	0.0596277548999999	163.312005	
	
330000000.	0.0456631425	134.342595	0.000118544878	162.016504	0.0552098626	-47.917673	0.000195377676	148.006079	
	0.000118544878	162.016504	0.0520121623	142.607432	0.000150111813	144.894926	0.0562828253	-42.0538095	
	0.0552098582	-47.9176704	0.000150111814	144.894927	0.0440602239000001	134.382556	5.51609832e-05	-96.4888167	
	0.000195377675	148.006077	0.0562828204	-42.053807	5.51609815e-05	-96.4888202	0.0495878696999999	142.363838	
	
340000000.	0.0307187865	118.786705	2.08395757e-05	139.299538	0.0483538526	-69.1803254	6.39388578e-05	167.304586	
	2.08395756e-05	139.299536	0.0377123402	123.827691	0.00010548131	130.349092	0.0513465216	-63.4739968	
	0.0483538477	-69.1803156	0.000105481313	130.349099	0.029977653	118.770044	6.48585466e-05	-109.073235	
	6.39388561e-05	167.304581	0.0513465123	-63.4739953	6.48585423e-05	-109.073246	0.0361966535000001	123.506209	
	
350000000.	0.017837713	117.815537	7.70413895e-05	-80.6327971	0.0335631099	-88.1657844	0.000149034823	-122.978927	
	7.70413893e-05	-80.6327942	0.0231594314	112.303248	6.29428707e-05	136.387868	0.0374682996	-83.3878182	
	0.0335631056	-88.1657656	6.29428752e-05	136.387881	0.0178788110000001	116.502258	7.10121638e-05	-124.347868	
	0.000149034821	-122.978933	0.0374682875	-83.3878262	7.1012158e-05	-124.347887	0.0226556573	111.349457	
	
360000000.	0.0143771185	142.062521	0.000164576787	-108.889581	0.0156663268	-95.5817215	0.000303478236	-137.302272	
	0.000164576786	-108.889578	0.0134454246999999	123.662991999999	6.67145303e-05	171.677113	0.0188989154	-95.3679735	
	0.0156663248	-95.5816866	6.67145361e-05	171.677128	0.0140645248	136.744338	7.38843689e-05	-139.569586	
	0.00030347823	-137.302282	0.0188988992	-95.3680148	7.38843619e-05	-139.569614	0.0134028484	118.991369	
	
370000000.	0.0195741395	146.655612	0.000233683283	-137.953879	0.00853596143	-26.882608	0.000437268103	-159.818441	
	0.000233683282	-137.953876	0.0145670914	146.98934	0.000113124402	174.170155	0.00737585983	-33.2423072	
	0.0085359648	-26.8825812	0.000113124409	174.170174	0.0181516107	141.331706	7.53643782e-05	-154.211448	
	0.000437268091	-159.818453	0.00737583291	-33.2421871	7.53643696e-05	-154.211485	0.0133896815999999	139.536191	
	
380000000.	0.0245534215	130.159944	0.000277743783	-167.160952	0.0185422997	-11.1929356	0.00053093383	175.90103	
	0.00027774378	-167.16095	0.0197798985000001	140.887932	0.000159832755	158.835598	0.0189923541	-3.99265318	
	0.0185422999	-11.1929105	0.000159832764	158.835623	0.0223988905999999	125.222973	7.6599898e-05	-169.024887	
	0.000530933813	175.901016	0.0189923429	-3.99254175	7.65998869e-05	-169.024933	0.0175024725	134.420303	
	
390000000.	0.0270999096	106.572887	0.000292900431	163.654118	0.0230273265	-24.7805514	0.000572328373	151.109396	
	0.000292900427	163.654121	0.0233935867	121.295151	0.0001927946	138.539993	0.0265161115	-18.01752	
	0.0230273236	-24.7805154	0.00019279461	138.540022	0.0245970266	101.595737	7.71770433e-05	175.00315	
	0.000572328352	151.10938	0.0265161009	-18.0174354	7.71770297e-05	175.003097	0.0205121472	115.049501	
	
400000000.	0.0276379549	81.4561634000001	0.000278642812	134.594827	0.0193492243	-38.6114566	0.000556170478	126.248166	
	0.000278642807	134.594829	0.0250937545	97.9655556000003	0.000206591293	116.678211	0.0254124263	-34.9210682	
	0.0193492197	-38.6114042	0.000206591302	116.678245	0.0250870828	76.4945917000001	7.56736882e-05	157.463872	
	0.000556170454	126.248148	0.0254124151	-34.9209916	7.56736734e-05	157.463813	0.022002442	91.7159890999997	
	
410000000.	0.0269586420999999	58.2099536000002	0.000237104101	105.778106	0.0102574467	-31.6890204	0.000480767368	101.885666	
	0.000237104096	105.778108	0.0256901353	75.0427617999998	0.00019843088	94.7438707	0.0166009214	-44.8137627	
	0.0102574464	-31.6889237	0.000198430888	94.7439091	0.0245618194000001	53.7845216999998	7.02840756e-05	138.354684	
	0.000480767345	101.885647	0.0166009113	-44.8136806	7.02840618e-05	138.35462	0.0226791091	69.2565739999999	
	
420000000.	0.0261351904	40.1262367000001	0.000173486646	77.5527904	0.0123234078	32.2965127	0.000354593257	78.9318694	
	0.000173486641	77.5527921	0.0262964413	55.4851732000001	0.00016978804	74.096794	0.0083555273	0.895356785	
	0.0123234193	32.2965527	0.000169788046	74.096836	0.0240625839	37.1043991	5.95509859e-05	118.80164	
	0.000354593238	78.9318488	0.00835552772	0.895485258	5.95509757e-05	118.801571	0.0235734093	51.0772164999999	
	
430000000.	0.0266316311	28.3340366999999	9.48763463e-05	51.4760745	0.0257057096	33.2786787	0.000192000593	62.0453225	
	9.48763429e-05	51.4760745	0.0280431659	40.15066	0.000125150009	57.7459435	0.0200918066	36.7971177	
	0.025705718	33.2787102	0.000125150014	57.7459885	0.0252165359	27.1193518	4.32036134e-05	101.719954	
	0.000192000581	62.045301	0.0200918125	36.7971895	4.32036081e-05	101.719879	0.0259099189	37.6450383	
	
440000000.	0.0298889441999999	19.5505718000001	1.42817764e-05	69.1193801	0.0356398848	17.3068929	6.3006953e-05	114.816768	
