!!!!!!!!!!!!!!!!!!!!!!!!!!!!!!!!!!!!!!!!!!!!!!!!!!!!!!!!!!!!!!!!!!!!!!!!!!!!!!!!!!!!!!!!!
!!
!! Reference: shanbhag_3dj_02_2305.pdf
!!
!!!!!!!!!!!!!!!!!!!!!!!!!!!!!!!!!!!!!!!!!!!!!!!!!!!!!!!!!!!!!!!!!!!!!!!!!!!!!!!!!!!!!!!!!
!!
!! CHANNEL DESCRIPTION: TP0_TP5 KR Channel using 1meter Cabled BP, PCB Host
!! CABLE DESCRIPTION: 1meter 26AWG Cable
!! MODEL STATUS: Developmental
!!
!! PORT DEFINITIONS: 
!! Port   1    ----->  Side A	      Side B  <-----  Port   2
!! Port   3    ----->  Side A	      Side B  <-----  Port   4
!!


# HZ S MA R 50.000000 


0.	0.0375985545999999	-3.56716215000001e-13	1.72076141e-06	180	0.0105094342	-1.76639626e-12	1.5383844e-06	180	
	1.72076147e-06	180	0.0375934920000001	2.98728321999999e-13	1.54223734e-06	-180	0.0105113402	8.14728599e-13	
	0.0105097248	-1.76639599e-12	1.54228073e-06	-180	0.0377189997	2.43924017e-12	1.69635562e-06	-180	
	1.53842767e-06	180	0.0105116944	8.14723687e-13	1.69635556e-06	-180	0.0377238259999999	1.48532265e-12	
	
10000000.	0.0559556743	18.0392658	5.52703285e-06	122.030251	0.0385807293	51.7944379	6.6744816e-06	127.779709	
	5.52703285e-06	122.030251	0.0559072481	18.0409625	1.13016372e-05	114.572995	0.0385720139	51.8052717	
	0.0385807301	51.7944378	1.13016372e-05	114.572995	0.0554613855999999	17.9119204	4.02031174e-06	115.981311	
	6.6744816e-06	127.779709	0.0385720146	51.8052717	4.02031174e-06	115.981311	0.0554412426	17.9045934	
	
20000000.	0.0766668576000001	13.1883346	8.49717195e-06	50.2950688	0.0711749282	38.429871	8.85190933e-06	58.8107672	
	8.49717184e-06	50.2950721	0.0765751591	13.2082503	2.08188939e-05	51.903272	0.0711553838	38.4320365	
	0.0711750051	38.4301399	2.08189088e-05	51.9035208	0.0759938832	13.0933737	6.44435734e-06	42.159794	
	8.85191574e-06	58.8110181	0.0711554616	38.4323077	6.44435715e-06	42.1597959	0.0759593271000001	13.0780546	
	
30000000.	0.0920167729000001	1.10162022	1.20169311e-05	-2.33058104	0.0929905625	19.9804944	1.17752147e-05	1.36366785	
	1.20169312e-05	-2.33058054	0.0919121146999999	1.15263117	2.98132486e-05	7.21803084	0.0929673584	19.9766993	
	0.0929905834	19.9805019	2.98132556e-05	7.2180396	0.0912362876000001	1.01204881	8.79825468e-06	-7.63440245	
	1.17752175e-05	1.36367699	0.0929673815	19.9767091	8.79825468e-06	-7.63440242	0.0911962829999999	0.992623647000001	
	
40000000.	0.0999959309999999	-13.512774	1.59255409e-05	-34.8684567	0.101421518	-0.316745172	1.54483666e-05	-29.2417006	
	1.59255407e-05	-34.8684569	0.0999348641999999	-13.4261258	3.88697721e-05	-20.2717439	0.101398261	-0.322789367	
	0.101421499	-0.316744499	3.88697641e-05	-20.2717431	0.0992057761000001	-13.6015648	1.12954599e-05	-39.5556518	
	1.54483633e-05	-29.2416998	0.101398244	-0.322788233	1.12954597e-05	-39.5556524	0.0991653546	-13.6229095	
	
50000000.	0.0995219987000001	-28.8133816	2.10136949e-05	-65.8406206	0.0954764968	-20.6661931	1.96613432e-05	-59.2183728	
	2.10136948e-05	-65.8406205	0.0995440664	-28.7026266	4.84631962e-05	-47.614376	0.0954572155	-20.677206	
	0.0954764919	-20.6661915	4.84631939e-05	-47.614374	0.0988438216	-28.9079067	1.49751808e-05	-68.4355619	
	1.96613422e-05	-59.2183707	0.0954572108	-20.6772045	1.49751807e-05	-68.4355618	0.0988142581	-28.9364479	
	
60000000.	0.0905510286000001	-43.9638034999999	2.64895174e-05	-96.4480033	0.075882648	-40.6222459	2.44910353e-05	-88.457613	
	2.64895174e-05	-96.4480033	0.0906949393	-43.8522273	5.79993189e-05	-74.9021635	0.07587335	-40.6418914	
	0.0758826483	-40.6222461	5.79993195e-05	-74.9021641	0.0900985999	-44.0793061	1.96801713e-05	-96.7444952	
	2.44910356e-05	-88.4576136	0.0758733505	-40.6418915	1.96801713e-05	-96.7444952	0.0900888611	-44.117496	
	
70000000.	0.0736233258	-57.4644914	3.31275843e-05	-127.453933	0.045208657	-58.4366863	3.0101937e-05	-118.84547	
	3.31275842e-05	-127.453933	0.073885102	-57.4007463	6.81527936e-05	-103.048106	0.0452123783	-58.4870092	
	0.0452086553	-58.4366844	6.81527933e-05	-103.048105	0.0734855678000001	-57.6479294999999	2.60381903e-05	-126.849814	
	3.01019369e-05	-118.845468	0.0452123771	-58.4870072	2.60381903e-05	-126.849814	0.073498412	-57.7126536000001	
	
80000000.	0.0512750192	-65.1674289000001	4.01719683e-05	-159.148174	0.00960901485	-43.6216732	3.5954868e-05	-150.084483	
	4.01719682e-05	-159.148174	0.0515864654	-65.2908233000001	7.75960186e-05	-131.851077	0.00959119515	-43.9722358	
	0.00960901253	-43.621652	7.75960193e-05	-131.851071	0.0514536689	-65.6028073999999	3.33724056e-05	-158.950244	
	3.59548683e-05	-150.084477	0.0095911929	-43.9722144	3.33724056e-05	-158.950244	0.0514761243	-65.7351307000001	
	
90000000.	0.0312486670999999	-52.1888032000001	4.67614448e-05	168.985246	0.0333196312	58.0033392	4.13862189e-05	178.382213	
	4.67614447e-05	168.985246	0.0313507706	-52.8743313000001	8.54488661e-05	-160.878433	0.0332608209	58.1068105	
	0.0333196364	58.0033424	8.54488698e-05	-160.878428	0.0313970945999999	-53.6231537000002	4.05792613e-05	167.903991	
	4.13862207e-05	178.382219	0.033260826	58.1068137	4.05792613e-05	167.903991	0.0313554875999999	-53.9069246000002	
	
100000000.	0.0334225525	-13.6761879	5.24643602e-05	137.844675	0.0680369594	42.6434673	4.60789687e-05	147.090371	
	5.246436e-05	137.844675	0.0330232289000001	-14.0121996	9.18703109e-05	170.314611	0.0679692225	42.7102959	
	0.0680369606	42.643463	9.18703115e-05	170.314607	0.0326751599999999	-15.1605634	4.67407441e-05	134.890154	
	4.6078969e-05	147.090367	0.0679692236	42.7102921	4.67407441e-05	134.890154	0.0324870579	-15.27692	
	
110000000.	0.0546541400000001	-5.85091894999999	5.69861992e-05	108.32638	0.0935479537	23.0551305	4.96150609e-05	117.384455	
	5.69861974e-05	108.326381	0.0542080008	-5.67079443	9.58876493e-05	142.566752	0.0934750245	23.1073574	
	0.0935480054	23.0551168	9.58876597e-05	142.566763	0.0534033964	-6.42355295	5.12933999e-05	103.453181	
	4.96150652e-05	117.384469	0.0934750764	23.1073439	5.1293398e-05	103.453182	0.053184863	-6.39316349000001	
	
120000000.	0.0762473872000001	-14.3321144	6.12059907e-05	80.6747389	0.106224631	2.85916434	5.28347362e-05	89.1014402	
	6.12059874e-05	80.6747409	0.0759341915	-14.0409445	9.97180012e-05	115.755761	0.106144718	2.90379235	
	0.106224718	2.85915896	9.97180209e-05	115.755782	0.0748622746	-14.5848114	5.45392108e-05	74.0886014	
	5.28347447e-05	89.1014668	0.106144805	2.90378704	5.4539207e-05	74.0886034	0.0746404802999999	-14.5328779	
	
130000000.	0.0924799286999999	-27.7088176	6.618201e-05	54.7577892	0.104427041	-17.2456565	5.63334951e-05	62.4006996	
	6.61820058e-05	54.7577919	0.0923636879000001	-27.4092768	0.000103868497	89.8074684	0.104340808	-17.2055386	
	0.104427143	-17.2456457	0.000103868525	89.8074972	0.0911936269	-27.8311842	5.74740349e-05	47.355442	
	5.63335078e-05	62.4007353	0.104340909	-17.2055278	5.74740299e-05	47.3554447	0.0909811233000001	-27.7799449	
	
140000000.	0.100946164	-42.830416	7.30144311e-05	29.576719	0.088426536	-36.7679887	6.0890999e-05	36.6344042	
	7.30144263e-05	29.5767219	0.101044978	-42.5638469	0.000109135445	64.168304	0.0883372352	-36.7294929	
	0.0884266293	-36.7679531	0.00010913548	64.1683377	0.0999624651	-42.901061	6.1636225e-05	22.7164182	
	6.0891016e-05	36.6344456	0.0883373287	-36.7294574	6.16362193e-05	22.7164214	0.0997721309999999	-42.8568776	
	
150000000.	0.100202651	-58.3910124	8.21632968e-05	3.75428331	0.0602785359	-54.3638491	6.71008916e-05	10.6209325	
	8.21632916e-05	3.75428605	0.100496928	-58.1894677	0.000116189298	38.0421846	0.0601909757	-54.323533	
	0.0602786074	-54.3637675	0.000116189339	38.0422214	0.099692247	-58.4688002	6.83249947e-05	-1.54765534	
	6.71009124e-05	10.6209768	0.0601910472	-54.3234516	6.83249888e-05	-1.54765225	0.0995308102	-58.4387688	
	
160000000.	0.0898446977	-73.1894873	9.25545509e-05	-23.1290485	0.0244990753	-59.9075065	7.42580578e-05	-15.9984697	
	9.25545453e-05	-23.1290463	0.0902684979	-73.1003592	0.000123115096	11.2318018	0.0244224128	-59.828404	
	0.0244991387	-59.9072742	0.000123115141	11.2318404	0.0899125148	-73.357314	7.74091961e-05	-26.6732732	
	7.42580808e-05	-15.9984243	0.0244224761	-59.8281716	7.74091899e-05	-26.6732707	0.0897869003	-73.3514377	
	
170000000.	0.0710780172	-84.9162104000001	0.000102886186	-51.4030867	0.0218148462	44.3425095	8.17768426e-05	-43.8848157	
	0.00010288618	-51.4030852	0.0715149943	-85.0340247	0.000129587969	-16.5353642	0.0218572431	44.5260391	
	0.0218149298	44.3422656	0.000129588016	-16.5353245	0.0717140731	-85.3716992	8.77591987e-05	-53.7583441	
	8.17768662e-05	-43.88477	0.0218573264	44.5257956	8.77591919e-05	-53.7583423	0.0716088524	-85.4107575	
	
180000000.	0.0482881262	-87.088701	0.000111196708	-80.2686714	0.0594001499	41.9584894	8.8157664e-05	-72.4450825	
	0.000111196701	-80.2686704	0.0485150748	-87.6232988999999	0.000133733365	-44.7241187	0.0594436004	42.0470579	
	0.059400232	41.9583948	0.000133733411	-44.7240785	0.0491829786	-88.4959388	9.71975728e-05	-82.1949499	
	8.81576869e-05	-72.4450367	0.0594436825	42.0469634	9.71975654e-05	-82.1949488	0.0490565735	-88.6088712000001	
	
190000000.	0.0343036608	-63.5597053999999	0.000116450542	-108.831573	0.0910361511	24.5772535	9.25279426e-05	-100.922368	
	0.000116450535	-108.831572	0.0339376449	-64.2858021000001	0.00013500577	-72.6804974	0.091071596	24.6559479	
	0.0910362465	24.5772048	0.000135005815	-72.6804572	0.0341517246	-66.9555299000002	0.000104096811	-111.017748	
	9.2527964e-05	-100.922323	0.0910716914	24.6558992	0.000104096803	-111.017747	0.0339329783	-67.0119585000001	
	
200000000.	0.0465121000000001	-36.7195975999999	0.000119112544	-136.399002	0.11102486	5.1814075	9.51381853e-05	-128.748084	
	0.000119112536	-136.399001	0.0459119387	-36.4836383	0.000134471778	-99.9203625	0.111050173	5.25938638	
	0.111024958	5.18138292	0.000134471821	-99.9203231	0.0446467782999999	-38.5921746000001	0.000108125509	-139.394275	
	9.51382055e-05	-128.748039	0.111050271	5.25936171	0.000108125501	-139.394274	0.0444140005	-38.3900551	
	
210000000.	0.0705912845	-36.5102345	0.000120168117	-162.094022	0.116513276	-14.5492813	9.6331674e-05	-155.073961	
	0.000120168109	-162.094021	0.070208563	-36.0602451	0.000132718653	-125.911891	0.116523174	-14.4680025	
	0.116513366	-14.549289	0.000132718694	-125.911854	0.0682219805	-37.1471764	0.00010954028	-166.186246	
	9.63316936e-05	-155.073917	0.116523263	-14.4680103	0.000109540273	-166.186245	0.0680248589	-36.9314155	
	
220000000.	0.0928155892	-47.0236821	0.000122390782	173.736595	0.106851707	-33.9307384	9.78813324e-05	179.834711	
	0.000122390775	173.736596	0.0927073533999999	-46.6015278	0.000132168192	-150.942429	0.10684127	-33.8382681	
	0.106851779	-33.9307311	0.000132168231	-150.942394	0.0905223744999999	-47.2541189000001	0.000110545205	168.660442	
	9.78813521e-05	179.834752	0.106841342	-33.8382609	0.000110545198	168.660442	0.0903521692000001	-47.0613091	
	
230000000.	0.107862651	-61.3370403	0.0001274935	150.463269	0.0833351636	-52.0601257	0.00010082434	155.718822	
	0.000127493494	150.46327	0.108013934	-60.9847218	0.000133710698	-175.442018	0.0833056462	-51.9395808	
	0.0833352147	-52.0601011	0.000133710734	-175.441986	0.105991115	-61.4351034000001	0.000112992692	145.030582	
	0.00010082436	155.718859	0.0833056972	-51.9395563	0.000112992686	145.030582	0.105848053	-61.2631034	
	
240000000.	0.112738966	-77.0664903	0.00013613642	126.874964	0.0493049687	-65.4984603	0.000105912713	131.754359	
	0.000136136415	126.874965	0.11310167	-76.7990824	0.000137638799	159.803717	0.0492735226	-65.2948495	
	0.0493050035	-65.4984047	0.000137638831	159.803745	0.111543119	-77.1560963999999	0.000118468009	121.933765	
	0.000105912732	131.754391	0.0492735574	-65.2947941	0.000118468005	121.933765	0.111429854	-77.0028514000001	
	
250000000.	0.105968886	-92.7581476	0.000147412564	101.909132	0.0155140706	-33.368827	0.000113110888	106.924141	
	0.00014741256	101.909132	0.106466434	-92.5974691999999	0.000143347557	134.032859	0.0156100519	-32.8598278	
	0.0155141246	-33.3687483	0.000143347584	134.032883	0.105611343	-92.9421788	0.000127267774	97.9825084	
	0.000113110904	106.924168	0.0156101061	-32.859751	0.00012726777	97.9825085	0.105524682	-92.8079522	
	
260000000.	0.0881761721	-106.546824	0.000158162547	75.6504662	0.0407250948	34.858907	0.000120527322	81.0340259	
	0.000158162544	75.6504663	0.0886945876999999	-106.545676	0.000148283005	107.184017	0.04086253	34.782818	
	0.0407251279	34.8588469	0.000148283028	107.184038	0.0886815022	-107.00489	0.000137051696	72.7214475	
	0.000120527335	81.0340492	0.0408625632	34.7827581	0.000137051693	72.7214475	0.0886110004	-106.89471	
	
270000000.	0.0628947665	-114.099388	0.000166414903	48.3658938	0.0785163808	24.4104351	0.000126779199	54.0762964	
	0.000166414899	48.3658938	0.0632621413	-114.390319	0.000151086273	79.4923119	0.0786443574	24.3895181	
	0.0785164099	24.4104097	0.00015108629	79.4923303	0.06400909	-115.366624	0.000145858952	46.0679197	
	0.000126779208	54.0763159	0.0786443866	24.3894927	0.000145858949	46.0679195	0.0639334258999999	-115.285197	
	
280000000.	0.0399276174	-101.813054	0.000170302559	21.0080806	0.107736584	6.81316534	0.000130284323	26.8442543	
	0.000170302557	21.0080806	0.0398153413	-102.523588	0.000150509913	51.7236658	0.10786813	6.8219398	
	0.107736609	6.81315363	0.000150509926	51.723681	0.0404345437	-105.499653	0.000151342968	18.8700678	
	0.00013028433	26.8442703	0.107868155	6.82192809	0.000151342965	18.8700677	0.0403250941	-105.409813	
	
290000000.	0.0425821327	-66.6932941	0.000170069025	-5.56439341	0.123660442	-12.2666063	0.000130919463	0.115028045	
	0.000170069022	-5.56439338	0.0420148915	-66.6415206999999	0.000146989986	24.6120552	0.123794519	-12.2389178	
	0.12366046	-12.2666108	0.000146989996	24.6120672	0.0403659571	-69.9837568000001	0.000152943947	-7.98769182	
	0.000130919468	0.115040558	0.123794537	-12.2389224	0.000152943945	-7.98769192	0.0402691549	-69.7382811999999	
	
300000000.	0.0679217792	-58.4287707	0.000167945664	-30.8339395	0.124099727	-31.5308248	0.000129940971	-25.6387554	
	0.000167945663	-30.8339394	0.0675327488	-57.9936825	0.000142280921	-1.38715331	0.124228307	-31.4862957	
	0.124099737	-31.5308253	0.000142280927	-1.38714495	0.0645406925	-59.3970377	0.000151981477	-33.8766811	
	0.000129940973	-25.6387466	0.124228317	-31.4862962	0.000151981476	-33.8766812	0.0645046674	-59.1522851	
	
310000000.	0.094420937	-66.9621805	0.000166017063	-54.4742405	0.109053988	-50.207922	0.000128463338	-50.0076507	
	0.000166017062	-54.4742405	0.0943131157	-66.5368433	0.000137942881	-26.0337576	0.109165443	-50.1398228	
	0.109053991	-50.2079205	0.000137942885	-26.033753	0.0909444805	-67.236179	0.000149847226	-58.2304353	
	0.000128463339	-50.0076459	0.109165446	-50.1398213	0.000149847226	-58.2304353	0.0909520308	-67.0191667	
	
320000000.	0.113743942	-80.9567724	0.000167558108	-77.1774839	0.0806973121	-66.9096976	0.000128663154	-73.3876375	
	0.000167558108	-77.1774839	0.113902596	-80.590494	0.000136156889	-49.7744697	0.0807924113	-66.7961311	
	0.0806973096	-66.9096963	0.000136156889	-49.7744689	0.110666543	-81.0309023	0.000149610643	-81.3758629	
	0.000128663154	-73.3876365	0.0807924088	-66.7961298	0.000149610643	-81.3758629	0.110712363	-80.8311341	
	
330000000.	0.121712546	-96.9586186	0.000173332063	-99.8956696	0.0435887533	-75.4863217	0.000131484616	-96.3931644	
	0.000173332063	-99.8956696	0.122092811	-96.6589421	0.000137693409	-73.4370281	0.0436966452	-75.2565432	
	0.0435887472	-75.4863243	0.000137693407	-73.4370307	0.119391096	-97.0063330999999	0.000152682145	-103.994358	
	0.000131484615	-96.3931672	0.0436966391	-75.2565457	0.000152682145	-103.994358	0.119469559	-96.8178258	
	
340000000.	0.116320449	-113.265488	0.000182293612	-123.609905	0.0189653408	-15.8491976	0.000136913239	-119.960081	
	0.000182293612	-123.609905	0.116854375	-113.043302	0.000141929008	-98.0235291	0.0191771944	-16.0062537	
	0.0189653308	-15.8491798	0.000141929004	-98.023535	0.115009088	-113.393365	0.000159158813	-127.146468	
	0.000136913236	-119.960087	0.0191771843	-16.0062361	0.000159158814	-127.146468	0.115110253	-113.212978	
	
350000000.	0.0980517357	-128.102597	0.000192057094	-148.774839	0.0525482694	18.3791311	0.000143682359	-144.794954	
	0.000192057095	-148.774839	0.0986471638	-127.991925	0.000146927693	-124.086446	0.0526497818	18.1722799	
	0.0525482624	18.3791479	0.000146927687	-124.086455	0.0978630387	-128.467799	0.00016756128	-151.628839	
	0.000143682356	-144.794963	0.0526497747	18.1722966	0.000167561281	-151.628839	0.0979736677000001	-128.292799	
	
360000000.	0.0704586459999999	-137.795288	0.000198807693	-174.939211	0.0898097623	6.62292596	0.000148993082	-170.724244	
	0.000198807693	-174.93921	0.0709784273	-137.900729	0.000149831751	-151.35783	0.0899038328	6.51275254	
	0.0898097514	6.62293691	0.000149831744	-151.357842	0.0712344229999999	-138.852924	0.000174379617	-177.290427	
	0.000148993078	-170.724256	0.0899038218	6.51276346	0.000174379618	-177.290427	0.0713373919	-138.684028	
	
370000000.	0.0426054301	-129.816901	0.000201337053	158.48917	0.117291374	-10.7524421	0.000151577018	162.737409	
	0.000201337054	158.48917	0.0427712639	-130.403063	0.00014938618	-179.151329	0.117402541	-10.8197762	
	0.117291358	-10.7524354	0.000149386172	-179.151344	0.0432697115	-133.266627	0.000178051504	156.332262	
	0.000151577014	162.737394	0.117402525	-10.8197695	0.000178051505	156.332263	0.0433559745	-133.11655	
	
380000000.	0.0400934513	-90.4667153999998	0.000199262115	132.379831	0.130682836	-29.4775848	0.00015079981	136.415929	
	0.000199262117	132.379831	0.0396654234	-90.6886583999999	0.000145408062	153.385136	0.130814767	-29.5206681	
	0.130682816	-29.4775825	0.000145408054	153.385117	0.0376941735	-94.4853723999997	0.0001775504	130.104489	
	0.000150799806	136.415911	0.130814746	-29.5206659	0.000177550401	130.10449	0.0377587756	-94.3889116999998	
	
390000000.	0.0665627251	-78.0919908	0.000194358591	107.359545	0.128232052	-48.3180656	0.000147587755	110.941831	
	0.000194358593	107.359545	0.0661830264	-77.8033528000001	0.000139138827	126.940962	0.128376318	-48.343702	
	0.128232029	-48.318069	0.000139138818	126.940941	0.062472617	-79.1556056	0.00017388413	104.72521	
	0.00014758775	110.94181	0.128376295	-48.3437054	0.000173884131	104.72521	0.0625517192	-79.0429079	
	
400000000.	0.0952969571	-86.2426484	0.000189717853	83.6131967	0.110513581	-66.3947947	0.000143838248	86.6040422	
	0.000189717855	83.6131967	0.0951503284	-85.8998968	0.000132622157	101.909279	0.110659345	-66.4020574	
	0.110513557	-66.3948062	0.000132622147	101.909256	0.090835714	-86.4868085	0.000169496449	80.5388809	
	0.000143838243	86.6040195	0.110659321	-66.402069	0.00016949645	80.5388811	0.0909612405	-86.3604878	
	
410000000.	0.116070296	-100.550628	0.000187281725	60.9597061	0.0801674067	-82.0171943	0.000140961414	63.4598858	
	0.000187281726	60.9597061	0.11616966	-100.225156	0.000127810658	78.2734894	0.080309686	-81.9937975	
	0.0801673808	-82.0172198	0.000127810648	78.2734643	0.11182654	-100.570181	0.000166139891	57.5996105	
	0.000140961408	63.4598614	0.0803096601	-81.993823	0.000166139892	57.5996108	0.11200397	-100.435934	
	
420000000.	0.124459859	-117.019913	0.000189146019	38.5192826	0.0425757708	-87.4831586	0.000140919331	40.9004021	
	0.00018914602	38.5192827	0.124783725	-116.724853	0.000126535357	55.3117382	0.0427352094	-87.4093833	
	0.0425757363	-87.4832132	0.000126535347	55.3117119	0.120880845	-116.996017	0.000166289039	35.2212161	
	0.000140919325	40.9003766	0.0427351749	-87.4094377	0.00016628904	35.2212165	0.121107572	-116.855609	
	
430000000.	0.11843012	-133.893012	0.000194485143	15.4315021	0.0227417908	-26.9149766	0.000143903779	18.0476917	
	0.000194485144	15.4315023	0.118933132	-133.637209	0.00012893952	31.7858888	0.022874923	-27.2967418	
	0.022741738	-26.9149195	0.000128939511	31.7858616	0.11588114	-133.919603	0.000169954196	12.5092227	
	0.000143903774	18.0476654	0.02287487	-27.2966861	0.000169954197	12.5092232	0.116143926	-133.772867	
	
440000000.	0.0986904725999999	-149.452016	0.00020100291	-8.83592629	0.0563147986	-0.0198322943	0.000148646976	-5.90524974	
	0.00020100291	-8.83592601	0.0993052898999999	-149.260878	0.00013328568	6.70375325	0.0563199009	-0.249171387	
