!!!!!!!!!!!!!!!!!!!!!!!!!!!!!!!!!!!!!!!!!!!!!!!!!!!!!!!!!!!!!!!!!!!!!!!!!!!!!!!!!!!!!!!!!
!!
!! Reference: shanbhag_3dj_02_2305.pdf
!!
!!!!!!!!!!!!!!!!!!!!!!!!!!!!!!!!!!!!!!!!!!!!!!!!!!!!!!!!!!!!!!!!!!!!!!!!!!!!!!!!!!!!!!!!!
!!
!! CHANNEL DESCRIPTION: TP0_TP5 KR Channel using 1meter Cabled BP, PCB Host
!! CABLE DESCRIPTION: 1meter 26AWG Cable
!! MODEL STATUS: Developmental
!!
!! PORT DEFINITIONS: 
!! Port   1    ----->  Side A	      Side B  <-----  Port   2
!! Port   3    ----->  Side A	      Side B  <-----  Port   4
!!


# HZ S MA R 50.000000 


0.	0.0408522340999999	-2.92039566e-12	1.03402376e-05	-1.23931056e-09	0.0110318647	-1.91829637e-11	4.45625106e-05	-6.24918627e-11	
	1.03402246e-05	-1.23931011e-09	0.0375934920000001	2.98728321999999e-13	3.63315828e-06	4.71828762e-10	0.0105113402	8.14728599e-13	
	0.0110305398	-1.91843833e-11	3.6330045e-06	4.71831305e-10	0.0410464086	-8.52399451000001e-12	1.06577166e-05	-1.69731507e-09	
	4.45637343e-05	-6.24914057e-11	0.0105116944	8.14723687e-13	1.06584634e-05	-1.69732055e-09	0.0377238259999999	1.48532265e-12	
	
10000000.	0.0585633638	16.0448689	3.08781476e-05	-64.4862334	0.0390722669	50.6699368	3.67226049e-05	-25.2900491	
	3.08781476e-05	-64.4862334	0.0559072481	18.0409625	5.76279805e-06	-58.7513315	0.0385720139	51.8052717	
	0.0390722671	50.6699368	5.76279805e-06	-58.7513316	0.0582467633	15.9002892	1.63781467e-05	-30.8658573	
	3.67226049e-05	-25.2900492	0.0385720146	51.8052717	1.63781467e-05	-30.8658575	0.0554412426	17.9045934	
	
20000000.	0.0784537794	11.4381765	4.46171387e-05	-123.82982	0.0718308996	37.6609065	2.52975643e-05	-50.0639807	
	4.46171363e-05	-123.829829	0.0765751591	13.2082503	1.18522087e-05	156.518772	0.0711553838	38.4320365	
	0.0718308039	37.6608207	1.18521974e-05	156.518686	0.0778863753000001	11.2792184	2.20822787e-05	-58.1517207	
	2.52975823e-05	-50.0637451	0.0711554616	38.4323077	2.20823162e-05	-58.1513879	0.0759593271000001	13.0780546	
	
30000000.	0.0931072917000001	-0.288365637	4.51101794e-05	-167.198675	0.0934806752	19.2384279	9.83515585e-06	-65.8691439	
	4.51101789e-05	-167.198675	0.0919121146999999	1.15263117	2.99037974e-05	108.790098	0.0929673584	19.9766993	
	0.093480669	19.2384303	2.99037957e-05	108.790099	0.0923666045999999	-0.450001501	3.05512989e-05	-83.8060165	
	9.83515795e-06	-65.8691358	0.0929673815	19.9767091	3.05513075e-05	-83.8060091	0.0911962829999999	0.992623647000001	
	
40000000.	0.100426201	-14.5581597	2.91991858e-05	163.591486	0.101349804	-1.15773479	5.15081753e-06	71.6917239	
	2.91991858e-05	163.591486	0.0999348641999999	-13.4261258	4.5348413e-05	78.3956705	0.101398261	-0.322789367	
	0.101349808	-1.15773558	4.53484134e-05	78.3956688	0.0996421742999999	-14.6633592	4.08544438e-05	-109.988682	
	5.15081657e-06	71.6917232	0.101398244	-0.322788233	4.08544356e-05	-109.988679	0.0991653546	-13.6229095	
	
50000000.	0.0992382784000001	-29.4639571	4.34997957e-06	-47.4812731	0.0944554673	-21.5683369	1.19871324e-05	62.6899651	
	4.34997964e-06	-47.4812739	0.0995440664	-28.7026266	5.54681964e-05	48.9925727	0.0954572155	-20.677206	
	0.0944554681	-21.5683372	5.54681962e-05	48.9925725	0.0986033429	-29.5309781	4.89427763e-05	-135.977745	
	1.19871319e-05	62.6899667	0.0954572108	-20.6772045	4.89427743e-05	-135.977743	0.0988142581	-28.9364479	
	
60000000.	0.0895912896	-44.0561788	5.20416015e-05	-73.49573	0.0736677142	-41.4491309	1.44168696e-05	74.3741974	
	5.20416015e-05	-73.49573	0.0906949393	-43.8522273	5.64804008e-05	19.2208609	0.07587335	-40.6418914	
	0.0736677144	-41.4491305	5.64804009e-05	19.2208612	0.0892418339	-44.1262417	5.09158164e-05	-161.5353	
	1.44168699e-05	74.3741967	0.0758733505	-40.6418915	5.09158169e-05	-161.535301	0.0900888611	-44.117496	
	
70000000.	0.0721920667	-56.5376281000001	0.000107522736	-101.836728	0.0418403618	-58.4140319	1.54641506e-05	103.482784	
	0.000107522736	-101.836729	0.073885102	-57.4007463	4.55476422e-05	-13.6911094	0.0452123783	-58.4870092	
	0.0418403622	-58.4140312	4.55476421e-05	-13.6911091	0.0721972432	-56.7008442999999	4.67898914e-05	173.529524	
	1.54641504e-05	103.482786	0.0452123771	-58.4870072	4.67898912e-05	173.529525	0.073498412	-57.7126536000001	
	
80000000.	0.0501652833	-61.9505877	0.000161092998	-130.160135	0.00791914379	-17.3103992	2.95109855e-05	121.198729	
	0.000161092998	-130.160136	0.0515864654	-65.2908233000001	2.39477042e-05	-61.3403161	0.00959119515	-43.9722358	
	0.00791914394	-17.3104018	2.39477035e-05	-61.340316	0.0504528232	-62.4797054999999	3.53797121e-05	150.218327	
	2.95109855e-05	121.198735	0.0095911929	-43.9722144	3.53797126e-05	150.218332	0.0514761243	-65.7351307000001	
	
90000000.	0.0329576521999999	-45.3044133000001	0.000202235319	-158.284365	0.0382793252	56.2369718	5.83821524e-05	106.46052	
	0.000202235318	-158.284366	0.0313507706	-52.8743313000001	2.08608476e-05	172.444601	0.0332608209	58.1068105	
	0.0382793243	56.2369715	2.08608476e-05	172.4446	0.0330049573	-46.9144308	1.73023664e-05	133.588716	
	5.83821544e-05	106.460525	0.033260826	58.1068137	1.73023671e-05	133.588721	0.0313554875999999	-53.9069246000002	
	
100000000.	0.0385401099999999	-13.2193506	0.00022371519	173.797743	0.0726335762	40.1580019	8.51067375e-05	87.5966777	
	0.00022371519	173.797743	0.0330232289000001	-14.0121996	5.53284796e-05	116.266565	0.0679692225	42.7102959	
	0.0726335755	40.1580018	5.53284796e-05	116.266565	0.0376505405999999	-14.486533	8.78318711e-06	-123.360191	
	8.51067383e-05	87.5966743	0.0679692236	42.7102921	8.78318712e-06	-123.360194	0.0324870579	-15.27692	
	
110000000.	0.0595271538000001	-8.76432386999998	0.000217250628	146.575191	0.0969792043	20.4307526	0.000104029454	64.2029222	
	0.000217250629	146.575192	0.0542080008	-5.67079443	8.9797992e-05	83.0592781	0.0934750245	23.1073574	
	0.0969791792	20.4307373	8.97979635e-05	83.0592569	0.0582400663999999	-9.20345978000002	3.46026195e-05	-122.377593	
	0.000104029459	64.2029294	0.0934750764	23.1073439	3.46026336e-05	-122.377568	0.053184863	-6.39316349000001	
	
120000000.	0.0800144131000001	-17.5800338	0.000185380291	119.761411	0.107836761	0.157787131	0.000106111335	41.4841335	
	0.000185380294	119.761413	0.0759341915	-14.0409445	0.000116652486	54.5259052	0.106144718	2.90379235	
	0.107836713	0.157759275	0.000116652422	54.5258699	0.0787033953000001	-17.7467696	6.09659852e-05	-144.518701	
	0.000106111344	41.4841472	0.106144805	2.90378704	6.09660288e-05	-144.518657	0.0746404802999999	-14.5328779	
	
130000000.	0.0948123841	-30.7916775	0.000128739863	93.4517453	0.103742014	-19.9727739	8.86809659e-05	19.5702496	
	0.000128739869	93.4517486	0.0923636879000001	-27.4092768	0.000130476851	27.5335445	0.104340808	-17.2055386	
	0.103741953	-19.972812	0.000130476758	27.5334993	0.0936792642	-30.8817247	8.28129311e-05	-168.547167	
	8.86809775e-05	19.5702658	0.104340909	-17.2055278	8.28130077e-05	-168.547108	0.0909811233000001	-27.7799449	
	
140000000.	0.101595442	-45.5893007	5.20572955e-05	68.4228364	0.0852311323	-39.362978	5.11033663e-05	0.874246221	
	5.20573039e-05	68.4228465	0.101044978	-42.5638469	0.000127893461	1.01534496	0.0883372352	-36.7294929	
	0.085231072	-39.3630246	0.000127893357	1.01529301	0.100780134	-45.6857684	9.69162946e-05	167.591971	
	5.11033739e-05	0.874256551	0.0883373287	-36.7294574	9.69163971e-05	167.59204	0.0997721309999999	-42.8568776	
	
150000000.	0.0990637125	-60.6121434	3.78906245e-05	-144.846552	0.0547651389	-56.0788768	1.21930045e-05	96.8416913	
	3.78906151e-05	-144.846568	0.100496928	-58.1894677	0.000107032349	-25.9173873	0.0601909757	-54.323533	
	0.0547650917	-56.0789315	0.000107032254	-25.9174435	0.0986595592	-60.7762978	0.000102678114	144.475416	
	1.21929907e-05	96.8417665	0.0601910472	-54.3234516	0.00010267823	144.475492	0.0995308102	-58.4387688	
	
160000000.	0.0871438717	-74.4032539	0.000130682594	-169.119156	0.0183398583	-50.9449434	8.07600991e-05	116.26869	
	0.000130682583	-169.11916	0.0902684979	-73.1003592	6.82016484e-05	-54.0390376	0.0244224128	-59.828404	
	0.0183398305	-50.9449969	6.82015847e-05	-54.0390959	0.0871857186	-74.7219338	9.90094171e-05	122.600587	
	8.07601093e-05	116.268735	0.0244224761	-59.8281716	9.90095303e-05	122.600669	0.0897869003	-73.3514377	
	
170000000.	0.0677297885	-84.0098335000001	0.000214998803	164.092793	0.0300285854	47.101247	0.000159327748	95.3652238	
	0.000214998794	164.092791	0.0715149943	-85.0340247	1.63879987e-05	-97.7510589	0.0218572431	44.5260391	
	0.0300285731	47.1012212	1.63879799e-05	-97.7511183	0.0681340231	-84.6955008000001	8.78006836e-05	101.698305	
	0.000159327775	95.3652621	0.0218573264	44.5257956	8.78007812e-05	101.69839	0.0716088524	-85.4107575	
	
180000000.	0.046715827	-81.5870083999999	0.000278314685	137.152072	0.0678682966	38.4413096	0.00023172102	72.1030466	
	0.000278314678	137.15207	0.0485150748	-87.6232988999999	4.44033977e-05	87.0947859	0.0594436004	42.0470579	
	0.0678682631	38.4412649	4.44033643e-05	87.0947215	0.0470734502	-83.2205037000001	6.88152435e-05	82.6167985	
	0.00023172106	72.1030818	0.0594436825	42.0469634	6.88153146e-05	82.6168872	0.0490565735	-88.6088712000001	
	
190000000.	0.0389270489	-56.5165476	0.000311805225	110.489678	0.0979719955	20.375445	0.000284823585	48.4146562	
	0.000311805221	110.489677	0.0339376449	-64.2858021000001	0.00010025451	57.0316178	0.091071596	24.6559479	
	0.0979719443	20.3753958	0.000100254434	57.0315564	0.0381816802	-58.9178494	4.36908786e-05	70.0806939	
	0.000284823632	48.414689	0.0910716914	24.6558992	4.36909193e-05	70.080791	0.0339329783	-67.0119585000001	
	
200000000.	0.05425182	-38.6529727	0.000313276134	84.2001987	0.115295106	0.764383933	0.000308885162	24.9247991	
	0.000313276132	84.2001983	0.0459119387	-36.4836383	0.000145786876	31.1756913	0.111050173	5.25938638	
	0.115295046	0.764333299	0.000145786772	31.1756321	0.0524964137	-39.7378551	2.24819378e-05	91.324963	
	0.000308885208	24.9248298	0.111050271	5.25936171	2.24819661e-05	91.3250787	0.0444140005	-38.3900551	
	
210000000.	0.0771759715	-41.280739	0.000281591404	58.412401	0.117347839	-19.0377852	0.000297280431	2.0178453	
	0.000281591404	58.4124013	0.070208563	-36.0602451	0.000174470224	6.66146737	0.116523174	-14.4680025	
	0.117347778	-19.0378357	0.000174470109	6.66141074	0.0751707034	-41.6841902	3.462286e-05	132.843229	
	0.000297280472	2.01787369	0.116523263	-14.4680103	3.46229071e-05	132.843304	0.0680248589	-36.9314155	
	
220000000.	0.0970799162	-52.2265599	0.00022230772	32.8081823	0.103918455	-38.3509185	0.000249870019	-20.1236155	
	0.000222307722	32.8081836	0.0927073533999999	-46.6015278	0.00018372425	-17.1632834	0.10684127	-33.8382681	
	0.103918402	-38.3509677	0.000183724141	-17.1633369	0.0951920253	-52.408411	5.92768636e-05	127.016179	
	0.000249870049	-20.1235898	0.106841342	-33.8382609	5.92769245e-05	127.016246	0.0903521692000001	-47.0613091	
	
230000000.	0.109205524	-66.3847555	0.000139438533	7.30047794	0.0767757304	-55.9751202	0.00016832592	-40.4669756	
	0.000139438537	7.30048114	0.108013934	-60.9847218	0.000171021601	-40.5671905	0.0833056462	-51.9395808	
	0.0767756903	-55.9751673	0.00017102151	-40.5672402	0.107681789	-66.5107208	7.89124949e-05	111.142687	
	0.000168325935	-40.4669536	0.0833056972	-51.9395563	7.89125602e-05	111.14275	0.105848053	-61.2631034	
	
240000000.	0.110862392	-81.6272951	3.98491979e-05	-16.8357873	0.0400794162	-66.0703935	6.04511198e-05	-48.5817867	
	3.9849204e-05	-16.8357746	0.11310167	-76.7990824	0.000136005695	-63.3006356	0.0492735226	-65.2948495	
	0.0400793906	-66.0704358	0.000136005631	-63.3006808	0.10988834	-81.7843013	9.17385955e-05	94.034842	
	6.04511183e-05	-48.5817719	0.0492735574	-65.2947941	9.17386569e-05	94.0349011	0.111429854	-77.0028514000001	
	
250000000.	0.101104624	-96.3288759	6.68428158e-05	132.173539	0.0164311162	5.25036549	7.87261406e-05	67.3012291	
	6.68428106e-05	132.173531	0.106466434	-92.5974691999999	8.15877688e-05	-83.1574449	0.0156100519	-32.8598278	
	0.016431112	5.25036915	8.15877362e-05	-83.1574851	0.100787543	-96.6080831	9.95108852e-05	76.8871906	
	7.87261485e-05	67.3012573	0.0156101061	-32.859751	9.95109379e-05	76.8872455	0.105524682	-92.8079522	
	
260000000.	0.0814522857	-108.028164	0.000167580875	106.458861	0.0528004773	33.5845204	0.000211608158	54.90411	
	0.000167580871	106.458858	0.0886945876999999	-106.545676	2.00758074e-05	-64.1872371	0.04086253	34.782818	
	0.0528004729	33.5844934	2.00758014e-05	-64.1872707	0.0817650781	-108.619649	0.00010204906	59.2779084	
	0.000211608177	54.9041298	0.0408625632	34.7827581	0.000102049102	59.2779587	0.0886110004	-106.89471	
	
270000000.	0.0570101959	-110.712519	0.000249694506	79.9856912	0.0897835323	19.5982923	0.000333802203	33.7115072	
	0.000249694504	79.9856895	0.0632621413	-114.390319	6.25472539e-05	20.7402908	0.0786443574	24.3895181	
	0.0897835216	19.5982655	6.25472378e-05	20.7402594	0.0576036908	-112.175523	9.77746312e-05	40.818799	
	0.000333802224	33.711523	0.0786443866	24.3894927	9.77746613e-05	40.8188446	0.0639334258999999	-115.285197	
	
280000000.	0.041199509	-90.8312000000001	0.00030320164	53.75276	0.116145825	1.21584414	0.000425987485	11.3362316	
	0.000303201639	53.7527589	0.0398153413	-102.523588	0.000125774503	4.74874742	0.10786813	6.8219398	
	0.116145811	1.21582088	0.000125774478	4.74872168	0.0408004476	-93.8697629	8.49031494e-05	23.1127071	
	0.000425987505	11.3362442	0.107868155	6.82192809	8.49031687e-05	23.1127475	0.0403250941	-105.409813	
	
290000000.	0.0521442672	-65.4312477999999	0.000323887559	28.0223851	0.127865525	-18.1340219	0.000475363103	-11.0607587	
	0.000323887559	28.0223845	0.0420148915	-66.6415206999999	0.000174370157	-16.0128374	0.123794519	-12.2389178	
	0.127865511	-18.1340407	0.000174370131	-16.0128576	0.0500171155	-67.2238347	6.58146396e-05	9.80946835	
	0.000475363119	-11.0607492	0.123794537	-12.2389224	6.58146513e-05	9.80950319	0.0402691549	-69.7382811999999	
	
300000000.	0.0771489297	-63.8947627000001	0.000312968989	2.74353734	0.123391219	-37.4361759	0.000476610386	-33.1605002	
	0.000312968989	2.74353714	0.0675327488	-57.9936825	0.000203620822	-37.2655859	0.124228307	-31.4862957	
	0.123391207	-37.4361896	0.000203620802	-37.2656007	0.0744188042	-64.5316137	4.77291118e-05	7.05913799	
	0.000476610395	-33.1604937	0.124228317	-31.4862962	4.77291199e-05	7.05916541	0.0645046674	-59.1522851	
	
310000000.	0.100389739	-73.8542867	0.000272611285	-22.2733662	0.103355247	-55.8630715	0.000426740579	-54.6448213	
	0.000272611285	-22.273366	0.0943131157	-66.5368433	0.000210415981	-58.3469884	0.109165443	-50.1398228	
	0.103355238	-55.8630799	0.000210415969	-58.3469978	0.0976632001	-74.1111707	3.94490719e-05	16.8530466	
	0.000426740583	-54.6448176	0.109165446	-50.1398213	3.94490778e-05	16.8530621	0.0909520308	-67.0191667	
	
320000000.	0.115302021	-88.0152294999999	0.000207209267	-47.3595441	0.0706427255	-71.3508103	0.000330667039	-75.1711259	
	0.000207209267	-47.3595436	0.113902596	-80.590494	0.00019425961	-79.061604	0.0807924113	-66.7961311	
	0.0706427183	-71.3508127	0.000194259606	-79.061608	0.112941066	-88.1544444	4.15225069e-05	26.6225175	
	0.000330667038	-75.171125	0.0807924088	-66.7961298	4.15225091e-05	26.622522	0.110712363	-80.8311341	
	
330000000.	0.118320248	-103.659776	0.000121013956	-72.5279131	0.0315934021	-71.0440931	0.000195205885	-92.2052053	
	0.000121013956	-72.5279125	0.122092811	-96.6589421	0.000155095865	-98.4543231	0.0436966452	-75.2565432	
	0.0315933975	-71.0440854	0.000155095866	-98.4543217	0.116600999	-103.792514	4.85774905e-05	30.3613102	
	0.000195205884	-92.205207	0.0436966391	-75.2565457	4.8577489e-05	30.3613072	0.119469559	-96.8178258	
	
340000000.	0.108258701	-119.001467	2.15615351e-05	-92.4152055	0.0280609745	10.4597005	5.0377038e-05	-65.9363509	
	2.15615354e-05	-92.4152064	0.116854375	-113.043302	9.75540333e-05	-112.247991	0.0191771944	-16.0062537	
	0.0280609782	10.4597132	9.75540357e-05	-112.247984	0.107370276	-119.216617	6.06418356e-05	28.2563941	
	5.03770382e-05	-65.9363554	0.0191771843	-16.0062361	6.06418317e-05	28.2563842	0.115110253	-113.212978	
	
350000000.	0.0867769259999999	-131.614944	8.04683817e-05	51.0736113	0.0679615065	15.5196924	0.000160972568	12.8429825	
	8.04683808e-05	51.0736135	0.0986471638	-127.991925	4.32020329e-05	-90.2300986	0.0526497818	18.1722799	
	0.0679615104	15.5197049	4.32020348e-05	-90.2300855	0.0867675285999999	-132.085129	7.62212846e-05	18.1788222	
	0.000160972564	12.8429751	0.0526497747	18.1722966	7.62212788e-05	18.1788042	0.0979736677000001	-128.292799	
	
360000000.	0.0593223647000001	-135.597609	0.000171091285	25.5061391	0.103495484	0.537860538	0.000325298038	-1.76865606	
	0.000171091283	25.5061412	0.0709784273	-137.900729	7.33146262e-05	-37.0888542	0.0899038328	6.51275254	
	0.103495487	0.537877599	7.33146321e-05	-37.0888374	0.0599087323	-136.896681	8.87087217e-05	2.00267246	
	0.000325298028	-1.76866555	0.0899038218	6.51276346	8.87087146e-05	2.00264556	0.0713373919	-138.684028	
	
370000000.	0.0400882012	-114.846937	0.000239459046	-0.453032325	0.12689362	-17.7031026	0.000461221719	-21.9917543	
	0.000239459043	-0.453029876	0.0427712639	-130.403063	0.000133776564	-43.7238525	0.117402541	-10.8197762	
	0.126893622	-17.7030808	0.000133776575	-43.7238315	0.0398363869	-118.192642	9.28383542e-05	-16.5751206	
	0.000461221703	-21.991766	0.117402525	-10.8197695	9.28383461e-05	-16.575157	0.0433559745	-133.11655	
	
380000000.	0.0514161646	-85.4356912	0.000279606186	-25.9114497	0.134764847	-36.7000279	0.000550926546	-43.1162068	
	0.000279606181	-25.9114469	0.0396654234	-90.6886583999999	0.000181142815	-60.4515859	0.130814767	-29.5206681	
	0.134764846	-36.7000013	0.000181142829	-60.4515606	0.049009343	-87.5677738999999	8.83195562e-05	-34.2357736	
	0.000550926526	-43.1162205	0.130814746	-29.5206659	8.83195469e-05	-34.2358199	0.0377587756	-94.3889116999998	
	
390000000.	0.0784218445	-83.9004350000001	0.00029087782	-50.7429242	0.126226812	-55.4871181	0.000585494738	-64.2509954	
	0.000290877815	-50.7429212	0.0661830264	-77.8033528000001	0.000208825503	-78.9951863	0.128376318	-48.343702	
	0.12622681	-55.4870871	0.000208825518	-78.9951569	0.0751265332	-84.6901603999999	7.91932206e-05	-49.1195483	
	0.000585494715	-64.251011	0.128376295	-48.3437054	7.91932091e-05	-49.1196039	0.0625517192	-79.0429079	
	
400000000.	0.102812029	-94.5608063	0.000275544824	-75.1323435	0.102689992	-73.06225	0.000562863071	-85.1876485	
	0.000275544819	-75.1323404	0.0951503284	-85.8998968	0.00021553883	-97.8551637	0.110659345	-66.4020574	
	0.102689988	-73.0622145	0.000215538843	-97.8551306	0.0993343271	-94.9056204000001	6.94407956e-05	-61.6360685	
	0.000562863048	-85.1876657	0.110659321	-66.402069	6.94407816e-05	-61.6361316	0.0909612405	-86.3604878	
	
410000000.	0.117459055	-109.448624	0.000235914622	-99.4304464	0.0676503969	-86.6488268	0.000482412523	-105.559409	
	0.000235914619	-99.4304434	0.11616966	-100.225156	0.00019995286	-116.427932	0.080309686	-81.9937975	
	0.0676503915	-86.6487865	0.000199952869	-116.427895	0.114246229	-109.633348	5.88640684e-05	-73.9541354	
	0.000482412504	-105.559428	0.0803096601	-81.993823	5.88640536e-05	-73.9542039	0.11200397	-100.435934	
	
420000000.	0.118982211	-125.766319	0.00017430704	-123.66497	0.0295118518	-77.9622099	0.000351526263	-124.553644	
	0.000174307038	-123.664968	0.124783725	-116.724853	0.000163129553	-133.52739	0.0427352094	-87.4093833	
	0.0295118485	-77.9621609	0.000163129556	-133.52735	0.116401492	-125.900441	4.42769505e-05	-84.3377083	
	0.00035152625	-124.553664	0.0427351749	-87.4094377	4.42769372e-05	-84.3377805	0.121107572	-116.855609	
	
430000000.	0.106486039	-141.73516	9.48265551e-05	-146.333012	0.0347995433	-5.24521374	0.000183397844	-136.822899	
	9.48265551e-05	-146.33301	0.118933132	-133.637209	0.000109767273	-144.565755	0.022874923	-27.2967418	
	0.0347995443	-5.24516633	0.000109767272	-144.565712	0.104827334	-141.891912	2.79351433e-05	-78.8090772	
	0.000183397837	-136.822921	0.02287487	-27.2966861	2.79351331e-05	-78.8091471	0.116143926	-133.772867	
	
440000000.	0.082180962	-154.80023	1.27458953e-05	-109.171312	0.07403781	-3.90044252	6.85550626e-05	-68.1477905	
	1.27458934e-05	-109.171334	0.0993052898999999	-149.260878	6.14729044e-05	-128.984268	0.0563199009	-0.249171387	
