!!!!!!!!!!!!!!!!!!!!!!!!!!!!!!!!!!!!!!!!!!!!!!!!!!!!!!!!!!!!!!!!!!!!!!!!!!!!!!!!!!!!!!!!!
!!
!! Reference: shanbhag_3dj_02_2305.pdf
!!
!!!!!!!!!!!!!!!!!!!!!!!!!!!!!!!!!!!!!!!!!!!!!!!!!!!!!!!!!!!!!!!!!!!!!!!!!!!!!!!!!!!!!!!!!
!!
!! CHANNEL DESCRIPTION: TP0_TP5 KR Channel using 1meter Cabled BP, PCB Host
!! CABLE DESCRIPTION: 1meter 26AWG Cable
!! MODEL STATUS: Developmental
!!
!! PORT DEFINITIONS: 
!! Port   1    ----->  Side A	      Side B  <-----  Port   2
!! Port   3    ----->  Side A	      Side B  <-----  Port   4
!!


# HZ S MA R 50.000000 

0.	0.0458798249000001	9.71833649999998e-13	9.74902426e-06	-180	0.00988047325	-4.04202498e-13	3.60175715e-06	-180	
	9.74957502e-06	-180	0.0486719412000001	2.41466439e-13	3.94226372e-05	180	0.0102735349	9.16022888e-13	
	0.00987914402	-4.0423806e-13	3.94236022e-05	180	0.0464331729	-6.1203527e-13	1.00551446e-05	-180	
	3.60181962e-06	-180	0.0102738849	9.16017084e-13	1.00553789e-05	-180	0.0487989742999999	1.16151983e-12	
	
10000000.	0.0620179015000001	8.63271613999999	1.65688522e-05	177.626286	0.0452509916	50.27762	9.7957203e-06	107.078734	
	1.65687143e-05	177.624041	0.0643866527999999	7.20454749	3.95695211e-05	154.627812	0.045626911	49.3659592	
	0.0452509917	50.27762	3.9569417e-05	154.627387	0.0620178447	8.31240494	2.23587135e-05	104.957692	
	9.79564839e-06	107.079435	0.0456269117	49.3659591	2.23587202e-05	104.957646	0.0639442873	7.04700191	
	
20000000.	0.0797853039	0.0718695173	2.45950592e-05	171.272652	0.0808636688	29.7947023	2.16047772e-05	45.7664032	
	2.45947945e-05	171.272117	0.0814203847	-1.32882912	3.91356075e-05	128.815407	0.0813535152	29.135788	
	0.0808635719	29.7946145	3.91360078e-05	128.818206	0.0794237928	-0.222728163	4.26880056e-05	44.2050812	
	2.16048284e-05	45.766597	0.0813535976	29.1360507	4.26881434e-05	44.205122	0.0808254565	-1.48143114	
	
30000000.	0.0928728436	-14.7281093	3.21962826e-05	153.808547	0.0989949659	5.61242287	3.38985802e-05	1.38968909	
	3.21960081e-05	153.808194	0.0938230236000001	-15.9081036	3.72228852e-05	103.147866	0.0991965179	4.96140942	
	0.0989949576	5.61242241	3.72234004e-05	103.147919	0.0922524842999999	-14.9557557	6.33462806e-05	-0.770784948	
	3.38986252e-05	1.38963965	0.0991965412	4.96141923	6.33463101e-05	-0.770802846	0.0931152989000001	-16.0736306	
	
40000000.	0.0995263610000001	-32.0176725	4.02137905e-05	130.701752	0.096601602	-19.8395343	4.53940888e-05	-39.3052788	
	4.02134554e-05	130.701508	0.0998310258	-32.9327348	3.24130634e-05	81.2993488	0.0961025655	-20.5774128	
	0.0966016042	-19.8395353	3.24127791e-05	81.3001303	0.0988051517	-32.1152653	8.31767453e-05	-39.0620018	
	4.53941237e-05	-39.3052554	0.0961025488	-20.5774127	8.3176832e-05	-39.0619909	0.0990486859999999	-33.1144342	
	
50000000.	0.0984707969	-50.2115433	5.15468448e-05	107.435801	0.0743977569	-44.8578483	5.40885569e-05	-79.8630308	
	5.15465991e-05	107.435737	0.0981169621	-50.7783484	2.88332115e-05	69.6518642	0.072912808	-45.5770723	
	0.0743977575	-44.8578483	2.88332693e-05	69.6526222	0.0978408046	-50.2088784	0.000100936381	-77.2097746	
	5.40886245e-05	-79.8629694	0.0729128037	-45.5770715	0.000100936429	-77.2097568	0.0973501468999999	-50.9765654	
	
60000000.	0.0891001647	-68.3908648	6.66601572e-05	79.2805551	0.0369094929	-66.7444763	5.66040458e-05	-117.955796	
	6.66601176e-05	79.2805762	0.0881843071	-68.4196046	3.87550866e-05	64.3946267	0.0344584919	-66.6201779	
	0.0369094929	-66.7444757	3.87550942e-05	64.3946754	0.0886748299	-68.3387287	0.000112162123	-113.511556	
	5.66040864e-05	-117.95576	0.0344584919	-66.620178	0.000112162148	-113.511539	0.0875221358	-68.6312203	
	
70000000.	0.0717751373	-84.5695280000001	8.40383941e-05	46.7092879	0.0106882041	45.7510794	5.52299277e-05	-151.457429	
	8.40384656e-05	46.7093403	0.0706047917	-83.5974927	4.71528095e-05	40.4929127	0.0138362176	49.6848026	
	0.0106882046	45.7510784	4.71527146e-05	40.4929059	0.0715998236	-84.5258073000001	0.000119583635	-147.738413	
	5.52298319e-05	-151.457438	0.0138362185	49.6848059	0.000119583639	-147.73842	0.070146604	-83.8463265	
	
80000000.	0.0497213794	-93.4968988	9.92732501e-05	11.3063474	0.0531734561	45.1992772	5.35006768e-05	-177.610722	
	9.92728348e-05	11.30634	0.0492128526	-90.4424274000002	5.41659289e-05	6.99470014	0.0566571769	43.3526716	
	0.0531734557	45.1992772	5.41659563e-05	6.99469382	0.0497568435	-93.5826341000002	0.000124799664	-179.120056	
	5.35008968e-05	-177.611046	0.05665718	43.3526765	0.000124799635	-179.120089	0.0489944593	-90.8412222000001	
	
90000000.	0.032740634	-79.9830073999999	0.000109375612	-24.8576301	0.0860623284	21.2174668	5.81957394e-05	160.474523	
	0.000109376794	-24.8578543	0.0350136723	-75.1943842999999	5.71850007e-05	-25.668021	0.0889265631	19.1920667	
	0.0860623277	21.2174666	5.71851371e-05	-25.668116	0.0327611234	-80.5263512999999	0.000132560651	151.550306	
	5.81961968e-05	160.475037	0.0889265678	19.1920705	0.000132560561	151.550264	0.0347781441	-76.0496996999999	
	
100000000.	0.0389710498	-52.0484251	0.00011408252	-60.1921723	0.101711725	-4.06230757	7.13402189e-05	134.154326	
	0.000114082524	-60.1921636	0.0433204197	-52.7161621999999	5.17337238e-05	-55.3422292	0.103311877	-6.17821026	
	0.101711725	-4.06230797	5.17337073e-05	-55.3422584	0.0386256712000001	-52.5814997999999	0.000146802929	122.060627	
	7.1340212e-05	134.154307	0.103311877	-6.17821458	0.000146802878	122.060575	0.0426030563	-53.4843453	
	
110000000.	0.0603115563000001	-52.2215514999999	0.000113419446	-93.2807891	0.09731294	-29.304911	8.63051185e-05	101.579693	
	0.000113419501	-93.2808018	0.0641386012999999	-54.9750467000001	4.65548624e-05	-76.5881735	0.097224696	-31.4656526	
	0.0973129134	-29.3049294	4.65564653e-05	-76.5881722	0.0597720287	-52.4834982	0.000163595019	90.9581983	
	8.63023868e-05	101.579703	0.097224738	-31.4656397	0.000163590939	90.9581023	0.0629907009	-55.4185944	
	
120000000.	0.0808008599	-66.1553851	0.000112082213	-123.59454	0.0741795653	-53.5343796	9.92173911e-05	65.0162553	
	0.000112082265	-123.594594	0.0834723967	-69.1096328	4.75240706e-05	-90.7778812	0.0723354171	-55.5787587	
	0.0741795277	-53.5344125	4.75269253e-05	-90.7789805	0.0801706353	-66.3646021	0.000181706508	57.6652929	
	9.92126015e-05	65.0161694	0.0723354632	-55.5787043	0.000181699372	57.6652672	0.0820603152	-69.3961409999999	
	
130000000.	0.0941315928	-85.0599914	0.000113614405	-151.50717	0.037527052	-72.7263907	0.000105787546	27.0802152	
	0.000113614395	-151.507241	0.0953131356	-87.8462675999999	5.76318456e-05	-109.014778	0.0343298788	-73.3785337	
	0.0375270212	-72.7264351	5.76353871e-05	-109.017094	0.093439992	-85.2835122	0.000195549066	22.9371953	
	0.000105781209	27.0798196	0.0343299127	-73.3783502	0.000195539798	22.9371716	0.0938207197	-88.0533971	
	
140000000.	0.097009312	-105.837169	0.000120901928	-179.234122	0.0113723121	15.6067896	0.000104752137	-10.2029671	
	0.000120901884	-179.234172	0.0965266664	-108.25705	7.1069298e-05	-135.916801	0.0147133669	24.9364271	
	0.0113723085	15.6068057	7.10731945e-05	-135.91961	0.0962924568	-106.090639	0.000201913714	-12.1768451	
	0.000104744608	-10.2037646	0.0147134872	24.9361403	0.000201903044	-12.1769611	0.0951605505	-108.425732	
	
150000000.	0.0885014586	-126.675158	0.000133224523	150.737493	0.0488901395	30.9587413	9.8488658e-05	-44.9220222	
	0.000133224529	150.737461	0.0864963178000001	-128.404548	8.14380611e-05	-167.587747	0.0532288595	28.3092679	
	0.0488901188	30.9586952	8.14421352e-05	-167.590689	0.0878283896	-126.959852	0.000201688679	-46.5717539	
	9.84801696e-05	-44.9230873	0.0532289696	28.3091542	0.000201677083	-46.5719997	0.0854530108	-128.573264	
	
160000000.	0.0702334561	-145.595754	0.000145194332	118.094772	0.0792424451	9.35401996	8.97003582e-05	-75.1163277	
	0.000145194426	118.094726	0.0672981082	-145.892272	8.53912652e-05	160.378206	0.0827277412	6.16013501	
	0.0792424015	9.35396482	8.53953092e-05	160.375168	0.0696865409	-145.912752	0.000195031405	-78.9899933	
	8.96911302e-05	-75.1171832	0.082727867	6.16008371	0.000195019137	-78.9902923	0.0667350068999999	-146.141415	
	
170000000.	0.0461150256	-157.870584	0.000153831728	83.5660665	0.0939425309	-14.8464997	8.57787288e-05	-101.08771	
	0.000153831869	83.5659833	0.0436502378999999	-154.540461	8.44139357e-05	130.624409	0.0958563988	-18.2453325	
	0.0939424734	-14.8465597	8.44177391e-05	130.621207	0.0457735568000001	-158.247058	0.000189424727	-109.198766	
	8.57692098e-05	-101.08773	0.0958565222	-18.2453469	0.000189412008	-109.198951	0.0435612304	-155.20185	
	
180000000.	0.0255558937	-143.773458	0.000156648596	48.4712299	0.0905537347	-39.3966642	8.91208538e-05	-126.502202	
	0.000156648709	48.4711112	0.0276075497	-134.27178	8.27369681e-05	104.985151	0.0905614036	-42.9019001	
	0.0905536751	-39.3967273	8.27402733e-05	104.981695	0.0253651776000001	-144.403794	0.000188472043	-137.786553	
	8.91116071e-05	-126.501417	0.0905615055	-42.9018807	0.000188459214	-137.78647	0.0273009058	-136.336494	
	
190000000.	0.0319264815	-105.680745	0.000153701758	13.8537588	0.0704114593	-63.1220225	9.70846232e-05	-155.113416	
	0.000153701796	13.8536232	0.0380129103	-107.505316	8.58145786e-05	81.8486642	0.0686546685	-66.5779647	
	0.0704114084	-63.1220877	8.58171957e-05	81.8450984	0.0314716083	-106.331227	0.000193896795	-166.288334	
	9.70758427e-05	-155.112447	0.0686547379	-66.5779001	0.000193884292	-166.287991	0.0365835806	-108.784077	
	
200000000.	0.0529690557999999	-108.41644	0.000147231883	-19.524	0.038541064	-82.3191785	0.000105270638	172.787051	
	0.000147231856	-19.524128	0.058027381	-113.740242	9.4869969e-05	56.8476011	0.0356796556	-84.8621706	
	0.0385410288	-82.3192444	9.48719709e-05	56.8442437	0.0521557156	-108.944361	0.000204562238	163.862933	
	0.000105262216	172.787784	0.0356797004	-84.8620003	0.000204550392	163.863378	0.0559410427	-114.286167	
	
210000000.	0.069730969	-125.898889	0.000139336301	-50.9218627	0.00953753635	-32.2629201	0.000108992926	138.948577	
	0.000139336259	-50.9219688	0.0727684252	-131.573506	0.000105226197	28.4102797	0.0101854173	-17.1970097	
	0.00953752521	-32.2628942	0.000105227771	28.4072588	0.0686158681	-126.40996	0.000214611711	132.468237	
	0.000108984792	138.949013	0.0101855382	-17.1971146	0.000214600664	132.468632	0.0703596294999999	-131.871156	
	
220000000.	0.0774964740999999	-147.386002	0.000134134192	-80.8720909	0.0356971319	16.5766349	0.000108580991	105.059694	
	0.000134134188	-80.8721815	0.0782507191	-152.865919	0.000112453242	-2.42345758	0.0383706589	13.4896082	
	0.0356971267	16.5765907	0.000112454531	-2.42615674	0.0761908817	-147.912554	0.000221838539	99.9843007	
	0.00010857322	105.059932	0.0383707295	13.4894723	0.000221828315	99.9845651	0.0758206453	-153.062861	
	
230000000.	0.0755143821	-170.05056	0.000132608268	-110.532781	0.0598460895	-2.18514204	0.000104828489	72.4448135	
	0.000132608308	-110.532876	0.0741073029	-175.063051	0.000114127259	-33.3726452	0.0612830526	-6.18541433	
	0.0598460738	-2.18519241	0.000114128279	-33.3750898	0.0741655489	-170.606361	0.000224116222	67.3432986	
	0.000104821268	72.4450124	0.0612831182	-6.18547726	0.000224106822	67.3434348	0.0719568945	-175.218921	
	
240000000.	0.0652364967	167.340564	0.000133507392	-141.19279	0.0704950342	-25.1854293	0.00010026251	41.7058155	
	0.000133507439	-141.1929	0.0621336671000001	163.227213	0.00011136274	-62.4758586	0.0702611142	-29.4446104	
	0.0704950131	-25.1854793	0.000111363427	-62.478097	0.0640090503	166.745605	0.00022241229	35.2759887	
	0.000100256047	41.7061013	0.07026117	-29.444638	0.000222403738	35.2760419	0.0605341377	163.056737	
	
250000000.	0.0492817147999999	145.994757	0.000134644639	-173.381602	0.0661923369	-48.7425643	9.76846493e-05	12.3758423	
	0.000134644659	-173.381717	0.0452789154	143.861965	0.000108396967	-88.7299565	0.0643509029	-53.0955339	
	0.0661923155	-48.7426123	0.000108397249	-88.7319677	0.0483353231000001	145.340502	0.000219770198	4.07481827	
	9.76790769e-05	12.3762226	0.0643509438	-53.0955353	0.00021976255	4.07484031	0.0444242590999999	143.533228	
	
260000000.	0.0309357688	129.114097	0.000133410704	153.425392	0.0488689182	-71.1249518	9.69611607e-05	-16.8319445	
	0.000133410692	153.425287	0.0274297566999999	132.383202	0.000109456915	-112.727384	0.045994999	-75.3093888	
	0.0488689001	-71.1249975	0.0001094568	-112.729084	0.0303938496	128.324922	0.000217424449	-26.3183394	
	9.69564772e-05	-16.8315682	0.0459950249	-75.3093605	0.000217417781	-26.3183136	0.0273296734	131.240841	
	
270000000.	0.0150411755999999	132.091791	0.000129541403	119.670204	0.0236036683	-86.1214905	9.76154293e-05	-46.8704202	
	0.000129541377	119.670118	0.0156149279	148.601809	0.000116593246	-137.510323	0.0207804134	-88.464979	
	0.0236036548	-86.1215335	0.000116592904	-137.511642	0.0148627433	130.550119	0.000217758153	-56.4003803	
	9.76115481e-05	-46.8701396	0.0207804335	-88.4648868	0.00021775253	-56.4003473	0.0154651517	143.886889	
	
280000000.	0.0137119625000002	176.033984	0.00012312946	86.0831963	0.00967298691	-4.48893767	9.76130473e-05	-77.7409057	
	0.000123129441	86.0831319	0.0192082043	174.875809	0.000126479212	-164.853996	0.0107814323	-0.517098355	
	0.00967298521	-4.48891567	0.000126478838	-164.854966	0.0131679352999998	173.594913	0.000220131412	-86.6711155	
	9.76099003e-05	-77.740735	0.010781462	-0.517230851	0.000220126865	-86.6710911	0.017583011	170.600741	
	
290000000.	0.0227533013999999	177.162924	0.00011534288	53.0777055	0.0299892587	9.61477208	9.61871689e-05	-108.686806	
	0.000115342874	53.0776572	0.0274919457000001	167.154814	0.000134495024	165.6539	0.0298064486	5.35535405	
	0.0299892587	9.61475775	0.000134494729	165.653213	0.0216647813000002	175.359991	0.000223237302	-117.393101	
	9.61847497e-05	-108.686709	0.0298064624	5.35530113	0.000223233826	-117.393099	0.0249471341	164.630135	
	
300000000.	0.0298334306000001	158.36431	0.000107685205	20.6062603	0.0429253423	-9.57796538	9.42879327e-05	-138.926489	
	0.000107685201	20.6062248	0.0331542218000001	147.243586	0.000138183682	135.422149	0.0402652206	-14.0915571	
	0.0429253396	-9.57797969	0.000138183497	135.421694	0.0283608398	156.648494	0.00022616169	-148.521519	
	9.42862651e-05	-138.926434	0.0402652287	-14.0915808	0.000226159267	-148.521541	0.0301527899	145.294669	
	
310000000.	0.0338165938999999	134.492758	0.000100349347	-11.4571474	0.043514295	-31.2118866	9.2828289e-05	-168.50615	
	0.000100349331	-11.4571668	0.0358047548	123.596925	0.000137461746	106.079166	0.0385183463	-35.1657318	
	0.0435142904	-31.2118966	0.000137461664	106.07892	0.0321381947	132.724443	0.000227703865	-179.851718	
	9.28273783e-05	-168.506139	0.0385183486	-35.165741	0.000227702471	-179.851756	0.0327254092	121.878096	
	
320000000.	0.0358343347	109.122985	9.37694136e-05	-43.6441042	0.0320669629	-50.678448	9.32900443e-05	162.034925	
	9.37693798e-05	-43.6440994	0.0366885167	99.1594923999999	0.000135215501	78.3359451	0.0256881082	-52.0435247	
	0.0320669572	-50.6784511	0.000135215537	78.3359005	0.0341487259	107.33089	0.000228607023	148.792365	
	9.32898588e-05	162.034869	0.025688106	-52.0435241	0.000228606632	148.792325	0.0338804466	97.6601013000001	
	
330000000.	0.0371542138	83.8671268000001	8.73982116e-05	-76.0591774	0.0131773432	-50.4102545	9.51355292e-05	131.5437	
	8.73981628e-05	-76.0591432	0.0370817536	75.5153888000002	0.000134628953	52.1327314	0.00923859752	-26.001066	
	0.0131773387	-50.4102352	0.000134629155	52.1328723	0.0356522215	82.1802453999999	0.000229056426	117.437051	
	9.51360222e-05	131.543581	0.00923859473	-26.0010385	0.000229057011	117.437024	0.0348615623	74.3393462000001	
	
340000000.	0.03867933	59.8054089999999	8.10265017e-05	-108.700616	0.0165774699	34.7488593	9.67605228e-05	99.5513095	
	8.10264365e-05	-108.700553	0.0379195722	53.5902845	0.000137432366	26.3337272	0.0215670128	35.8319177	
	0.0165774757	34.748871	0.00013743278	26.3340181	0.0375276685	58.3635819999999	0.000229276959	86.0330424	
	9.6761662e-05	99.5511674	0.0215670148	35.8319388	0.000229278493	86.0330409	0.0365502462	52.7502045	
	
350000000.	0.040637546	37.3866509	7.48642347e-05	-141.578457	0.0367774314	27.9366325	9.66002333e-05	66.5477737	
	7.48641408e-05	-141.578367	0.0394575454	33.4400656	0.000142778261	-0.273883327	0.039073426	22.9174369	
	0.0367774363	27.9366421	0.000142778885	-0.273479529	0.0399695751999999	36.2232269000001	0.000229407238	54.5208951	
	9.66019965e-05	66.5476645	0.0390734256	22.9174576	0.000229409689	54.5209308	0.0391144097	32.7177564	
	
360000000.	0.0424600525000001	16.4586697	6.87150814e-05	-174.557362	0.0493360621	8.12509919	9.35883174e-05	33.1417689	
	6.87149413e-05	-174.55724	0.0410793875999999	14.561747	0.000148358463	-27.7288203	0.0473590765	2.76407634	
	0.0493360647	8.12511405	0.00014835926	-27.7283208	0.0423664165000001	15.4747268	0.000228845699	22.8177461	
	9.35906715e-05	33.141746	0.0473590725	2.76410013	0.000228849018	22.8178303	0.0417947700999999	13.5854745	
	
370000000.	0.0428432519999999	-3.05129191000001	6.29886822e-05	152.107557	0.0495808931	-12.785189	8.84114311e-05	0.804649589	
	6.29884862e-05	152.107726	0.0413648304999999	-3.06744223000001	0.000152824984	-55.6059213	0.0429851512	-17.0049473	
	0.0495808927	-12.7851678	0.000152825932	-55.6053246	0.0433353711000001	-4.04441577999999	0.000227523226	-8.99382021	
	8.8414325e-05	0.804732824	0.042985145	-17.0049185	0.000227527336	-8.99367609	0.0429892246	-4.70729179	
	
380000000.	0.0401713757	-20.3219986	5.74758373e-05	118.401549	0.0367037559	-30.075987	8.27698526e-05	-29.7694028	
	5.74755911e-05	118.401781	0.0387703729000001	-18.0839075	0.000156678481	-83.2790493	0.0266775261	-28.1518354	
	0.036703753	-30.0759566	0.000156679614	-83.2783568	0.0411641852000001	-21.5927109	0.000225156852	-40.8756249	
	8.27732361e-05	-29.7692327	0.0266775211	-28.1517937	0.000225161657	-40.8754046	0.0409274235000001	-20.9355792	
	
390000000.	0.0335728103999999	-31.9408628000001	5.21285172e-05	84.3699212	0.0161667338	-18.95866	7.89954463e-05	-58.5316931	
	5.21282356e-05	84.3702141	0.0330786457000001	-26.1076672999999	0.000161414789	-110.712301	0.0145517801	27.0276379	
	0.0161667335	-18.9586029	0.000161416171	-110.711537	0.0348261312	-34.0385598	0.000221728436	-72.7226595	
	7.89992855e-05	-58.5314944	0.0145517894	27.0276791	0.000221733838	-72.7223413	0.0349929357	-31.1948556	
	
400000000.	0.0258311596	-27.5417709	4.71823381e-05	50.2631379	0.0267871882	49.4587162	7.86498716e-05	-86.7203872	
	4.71820284e-05	50.2634639	0.0287016001	-18.6085545	0.000167889578	-138.535495	0.0396978976	52.1884633	
	0.0267871977	49.4587475	0.00016789122	-138.534704	0.0266643826000001	-31.6960221999999	0.0002175001	-104.417253	
	7.86541433e-05	-86.7201996	0.0396979045	52.1884764	0.000217506037	-104.416814	0.0287826744	-26.3406527	
	
410000000.	0.0287751605	-4.5344657	4.27501838e-05	16.347767	0.0564671555	41.4700562	8.11708523e-05	-116.931353	
	4.27498311e-05	16.3480797	0.0356409829999999	-4.03927674000001	0.000175120475	-167.249379	0.0678786698	36.3049526	
	0.0564671632	41.4700885	0.000175122278	-167.248594	0.0280976452999999	-8.80962388000003	0.000212859435	-135.959012	
	8.11755161e-05	-116.931084	0.0678786712	36.304967	0.000212865881	-135.958436	0.033221714	-8.88675333000001	
	
420000000.	0.0465658117999999	0.0235548866	3.95263962e-05	-17.4427256	0.0801009012	21.5743762	8.41744828e-05	-149.498596	
	3.9525965e-05	-17.4424673	0.0535476641	-5.43740592	0.000180429143	163.045844	0.0867147766	15.0585606	
	0.0801009049	21.5744128	0.00018043093	163.04663	0.0451158814999999	-2.09454529	0.000208185623	-167.263644	
	8.41794586e-05	-149.498117	0.0867147726	15.0585754	0.000208192571	-167.262932	0.0505760994	-7.03458571	
	
430000000.	0.0688035095	-11.7956618	3.75641188e-05	-51.8382791	0.0905404183	-0.313133544	8.55025343e-05	175.716774	
	3.75635736e-05	-51.8380875	0.0739085675999999	-18.39317	0.000181744612	132.999282	0.0905447163	-6.96530475	
	0.0905404165	-0.313092805	0.000181746239	133.00011	0.0673213764	-13.0734581	0.000204071279	161.594349	
	8.55076823e-05	175.717623	0.0905447081	-6.96529064	0.000204078685	161.595177	0.0715218668000001	-18.960766	
	
440000000.	0.0881805844999999	-29.5987655	3.65404541e-05	-87.6003013	0.0844141443	-21.6964474	8.3811643e-05	139.770665	
