!!!!!!!!!!!!!!!!!!!!!!!!!!!!!!!!!!!!!!!!!!!!!!!!!!!!!!!!!!!!!!!!!!!!!!!!!!!!!!!!!!!!!!!!!
!!
!! Reference: shanbhag_3dj_02_2305.pdf
!!
!!!!!!!!!!!!!!!!!!!!!!!!!!!!!!!!!!!!!!!!!!!!!!!!!!!!!!!!!!!!!!!!!!!!!!!!!!!!!!!!!!!!!!!!!
!!
!! CHANNEL DESCRIPTION: TP0_TP5 KR Channel using 1meter Cabled BP, PCB Host
!! CABLE DESCRIPTION: 1meter 26AWG Cable
!! MODEL STATUS: Developmental
!!
!! PORT DEFINITIONS: 
!! Port   1    ----->  Side A	      Side B  <-----  Port   2
!! Port   3    ----->  Side A	      Side B  <-----  Port   4
!!


# HZ S MA R 50.000000 


0.	0.0486769533	-2.71704782e-13	1.68220779e-06	180	0.010271652	-1.79720519e-12	1.50405819e-06	180	
	1.68220784e-06	180	0.0486719412000001	2.41466439e-13	1.50783215e-06	-180	0.0102735349	9.16022888e-13	
	0.0102719392	-1.7972044e-12	1.50787457e-06	-180	0.0487942096	1.85046651e-12	1.65842761e-06	-180	
	1.50410049e-06	180	0.0102738849	9.16017084e-13	1.65842756e-06	-180	0.0487989742999999	1.16151983e-12	
	
10000000.	0.0644344943999999	7.20709822000001	5.4254323e-06	116.469121	0.0456351579	49.3564917	6.57555472e-06	122.414909	
	5.4254323e-06	116.469121	0.0643866527999999	7.20454749	1.11536752e-05	109.143831	0.045626911	49.3659592	
	0.0456351586	49.3564916	1.11536752e-05	109.143831	0.0639634304999999	7.05490070000001	3.91288447e-06	109.965329	
	6.57555473e-06	122.414909	0.0456269117	49.3659591	3.91288447e-06	109.965329	0.0639442873	7.04700191	
	
20000000.	0.0815124742999999	-1.34312697	8.3226263e-06	39.7009039	0.0813729715	29.133795	8.76811199e-06	48.818386	
	8.32262622e-06	39.7009074	0.0814203847	-1.32882912	2.06170484e-05	41.5084768	0.0813535152	29.135788	
	0.0813730529	29.1340557	2.06170632e-05	41.5087257	0.0808580402	-1.46567706	6.37695816e-06	31.8838222	
	8.76811839e-06	48.818637	0.0813535976	29.1360507	6.376958e-06	31.8838244	0.0808254565	-1.48143114	
	
30000000.	0.0939276692	-15.9563812	1.17756282e-05	-17.4259899	0.0992202899	4.96485211	1.16654699e-05	-13.0439426	
	1.17756283e-05	-17.4259894	0.0938230236000001	-15.9081036	2.96049831e-05	-8.17357939	0.0991965179	4.96140942	
	0.099220311	4.96485978	2.960499e-05	-8.17357066	0.0931540667999999	-16.054362	8.77421937e-06	-21.3222415	
	1.16654726e-05	-13.0439335	0.0991965412	4.96141923	8.77421937e-06	-21.3222415	0.0931152989000001	-16.0736306	
	
40000000.	0.0998861487	-33.0196325	1.57814815e-05	-54.4503056	0.0961269594	-20.5716542	1.54832869e-05	-48.6579321	
	1.57814813e-05	-54.4503057	0.0998310258	-32.9327348	3.88421504e-05	-40.9692219	0.0961025655	-20.5774128	
	0.0961269412	-20.5716545	3.88421424e-05	-40.969221	0.0990897579000001	-33.0940379	1.15090598e-05	-57.4993447	
	1.54832836e-05	-48.6579312	0.0961025488	-20.5774127	1.15090596e-05	-57.4993451	0.0990486859999999	-33.1144342	
	
50000000.	0.0980786595	-50.8880852	2.12562299e-05	-90.7140384	0.0729333424	-45.5645622	1.99355868e-05	-84.1733893	
	2.12562298e-05	-90.7140384	0.0981169621	-50.7783484	4.86911881e-05	-73.8852454	0.072912808	-45.5770723	
	0.0729333378	-45.5645611	4.86911858e-05	-73.8852434	0.0973830555000001	-50.9494583	1.57136982e-05	-92.1109251	
	1.99355858e-05	-84.1733872	0.0729128037	-45.5770715	1.57136981e-05	-92.110925	0.0973501468999999	-50.9765654	
	
60000000.	0.0880185908	-68.5188837999999	2.72210061e-05	-127.547084	0.0344697703	-66.5828766	2.49224009e-05	-119.46742	
	2.72210061e-05	-127.547084	0.0881843071	-68.4196046	5.82966937e-05	-106.944379	0.0344584919	-66.6201779	
	0.0344697701	-66.5828767	5.82966944e-05	-106.94438	0.0875390557	-68.5931681999999	2.09741585e-05	-127.468965	
	2.49224012e-05	-119.467421	0.0344584919	-66.620178	2.09741585e-05	-127.468965	0.0875221358	-68.6312203	
	
70000000.	0.070335721	-83.6176717	3.40178929e-05	-165.270713	0.0138620312	49.5690158	3.03627943e-05	-155.860598	
	3.40178929e-05	-165.270713	0.0706047917	-83.5974927	6.80785631e-05	-140.759548	0.0138362176	49.6848026	
	0.0138620325	49.5690203	6.80785628e-05	-140.759547	0.0701510344	-83.777288	2.74467042e-05	-164.885866	
	3.03627942e-05	-155.860597	0.0138362185	49.6848059	2.74467041e-05	-164.885865	0.070146604	-83.8463265	
	
80000000.	0.048958533	-90.2095094000002	4.05090615e-05	156.682466	0.0566921591	43.3024326	3.56254772e-05	167.471357	
	4.05090615e-05	156.682467	0.0492128526	-90.4424274000002	7.67367002e-05	-174.830421	0.0566571769	43.3526716	
	0.0566921622	43.3024376	7.67367009e-05	-174.830415	0.0490122836	-90.7026417000002	3.41165194e-05	156.522541	
	3.56254775e-05	167.471363	0.05665718	43.3526765	3.41165193e-05	156.522541	0.0489944593	-90.8412222000001	
	
90000000.	0.0350858952	-74.5889212999999	4.59173828e-05	119.425617	0.088975992	19.1488505	4.03339776e-05	131.356493	
	4.59173827e-05	119.425617	0.0350136723	-75.1943842999999	8.39064732e-05	151.373264	0.0889265631	19.1920667	
	0.0889759968	19.1488543	8.39064769e-05	151.37327	0.0348826524	-75.8598735	4.00147222e-05	118.13688	
	4.03339795e-05	131.356499	0.0889265678	19.1920705	4.00147222e-05	118.13688	0.0347781441	-76.0496996999999	
	
100000000.	0.0437435959	-52.6045101	5.04051129e-05	84.0131978	0.103374846	-6.22374941	4.47211703e-05	96.1087602	
	5.04051128e-05	84.0131979	0.0433204197	-52.7161621999999	9.04241791e-05	118.049909	0.103311877	-6.17821026	
	0.103374847	-6.22375398	9.04241797e-05	118.049906	0.0427941695000001	-53.4657251999999	4.48151657e-05	81.0843396	
	4.47211706e-05	96.1087568	0.103311877	-6.17821458	4.48151657e-05	81.0843396	0.0426030563	-53.4843453	
	
110000000.	0.0645419583	-55.1834991	5.45681182e-05	50.9451728	0.0972950495	-31.5181207	4.88439728e-05	62.3768727	
	5.4568117e-05	50.9451741	0.0641386012999999	-54.9750467000001	9.56192554e-05	85.545194	0.097224696	-31.4656526	
	0.0972950913	-31.518108	9.56192664e-05	85.5452044	0.0631965325	-55.4730835	4.87859366e-05	46.3612914	
	4.88439783e-05	62.3768859	0.097224738	-31.4656397	4.87859352e-05	46.3612929	0.0629907009	-55.4185944	
	
120000000.	0.0837191615	-69.3989721	5.99262381e-05	19.5438858	0.0724116615	-55.6523113	5.34785866e-05	29.2796233	
	5.99262361e-05	19.543888	0.0834723967	-69.1096328	0.000101257582	53.3445918	0.0723354171	-55.5787587	
	0.0724117072	-55.652257	0.000101257603	53.3446119	0.0822676275	-69.4650462	5.28676326e-05	13.6607478	
	5.34785975e-05	29.279648	0.0723354632	-55.5787043	5.28676302e-05	13.6607503	0.0820603152	-69.3961409999999	
	
130000000.	0.0953521518	-88.1399507	6.73900701e-05	-11.4892866	0.0343976565	-73.5431541	5.86785562e-05	-3.41709595	
	6.73900677e-05	-11.4892841	0.0953131356	-87.8462675999999	0.000106966365	21.3129345	0.0343298788	-73.3785337	
	0.0343976899	-73.5429707	0.000106966394	21.3129614	0.0940167055	-88.1229279999999	5.81066913e-05	-17.6478248	
	5.86785719e-05	-3.41706377	0.0343299127	-73.3783502	5.81066884e-05	-17.647822	0.0938207197	-88.0533971	
	
140000000.	0.0963548898	-108.518502	7.6785294e-05	-43.5204055	0.0146046592	24.9042607	6.43825205e-05	-36.1259816	
	7.67852913e-05	-43.5204034	0.0965266664	-108.25705	0.000112668168	-10.7815504	0.0147133669	24.9364271	
	0.0146047797	24.9039718	0.000112668203	-10.7815186	0.0953330685	-108.489935	6.50317363e-05	-48.9047049	
	6.43825397e-05	-36.1259445	0.0147134872	24.9361403	6.5031733e-05	-48.9047025	0.0951605505	-108.425732	
	
150000000.	0.0861512254	-128.594607	8.69009258e-05	-77.054029	0.053142656	28.333622	7.04792656e-05	-69.230684	
	8.69009224e-05	-77.0540276	0.0864963178000001	-128.404548	0.000118644002	-43.1818233	0.0532288595	28.3092679	
	0.0531427661	28.3335078	0.000118644042	-43.1817881	0.0856003757	-128.625588	7.32013118e-05	-81.2215809	
	7.0479287e-05	-69.2306433	0.0532289696	28.3091542	7.32013078e-05	-81.2215792	0.0854530108	-128.573264	
	
160000000.	0.0668683159000001	-145.925044	9.57700518e-05	-111.206378	0.0826570333	6.15525315	7.6104691e-05	-102.208073	
	9.57700475e-05	-111.206377	0.0672981082	-145.892272	0.000123351509	-75.5869467	0.0827277412	6.16013501	
	0.082657159	6.15520166	0.000123351551	-75.586909	0.0668562336	-146.172757	8.12617396e-05	-114.201797	
	7.61047138e-05	-102.208029	0.082727867	6.16008371	8.12617348e-05	-114.201796	0.0667350068999999	-146.141415	
	
170000000.	0.0433108001	-154.164107	0.000102672388	-145.474265	0.0957945588	-18.2739363	8.1475451e-05	-135.210512	
	0.000102672383	-145.474264	0.0436502378999999	-154.540461	0.000127709655	-108.114756	0.0958563988	-18.2453325	
	0.0957946822	-18.2739507	0.0001277097	-108.114717	0.0436768322	-155.198621	8.84256428e-05	-147.692624	
	8.1475475e-05	-135.210467	0.0958565222	-18.2453469	8.84256371e-05	-147.692623	0.0435612304	-155.20185	
	
180000000.	0.0277956157000001	-133.340038	0.000107300565	-178.90023	0.0905035456	-42.9574892	8.64052133e-05	-167.862317	
	0.000107300559	-178.900229	0.0276075497	-134.27178	0.000131199633	-140.549724	0.0905614036	-42.9019001	
	0.0905036472	-42.9574698	0.00013119968	-140.549685	0.0274479383000001	-136.40416	9.40968359e-05	179.15172	
	8.64052389e-05	-167.862271	0.0905615055	-42.9018807	9.40968299e-05	179.151721	0.0273009058	-136.336494	
	
190000000.	0.0385604456	-107.61299	0.000110570692	149.022728	0.0685979776	-66.678192	9.1045014e-05	159.854423	
	0.000110570686	149.022728	0.0380129103	-107.505316	0.000133830723	-172.842431	0.0686546685	-66.5779647	
	0.0685980467	-66.6781273	0.00013383077	-172.842393	0.0367192552999999	-109.037155	9.85598919e-05	146.813532	
	9.10450407e-05	159.854468	0.0686547379	-66.5779001	9.85598863e-05	146.813532	0.0365835806	-108.784077	
	
200000000.	0.0584536088999999	-114.182833	0.000114298299	118.14564	0.035612958	-85.0883384	9.56934295e-05	127.697334	
	0.000114298295	118.145641	0.058027381	-113.740242	0.000136068268	154.957931	0.0356796556	-84.8621706	
	0.0356130023	-85.0881673	0.000136068313	154.957967	0.0560630704	-114.539349	0.000102818231	115.266569	
	9.56934563e-05	127.697376	0.0356797004	-84.8620003	0.000102818226	115.266569	0.0559410427	-114.286167	
	
210000000.	0.0729764412	-132.070523	0.000119409828	88.1875612	0.0100271775	-16.8177231	9.98499736e-05	95.9890092	
	0.000119409825	88.1875616	0.0727684252	-131.573506	0.000137214357	123.156289	0.0101854173	-17.1970097	
	0.0100272984	-16.8178346	0.000137214398	123.156323	0.0704730621000001	-132.11707	0.000107316911	84.5931071	
	9.98499987e-05	95.989048	0.0101855382	-17.1971146	0.000107316907	84.5931072	0.0703596294999999	-131.871156	
	
220000000.	0.0782217583	-153.366798	0.000126738381	57.9608257	0.0383207394	13.7491044	0.000104056935	64.4070756	
	0.000126738377	57.9608256	0.0782507191	-152.865919	0.000138464467	91.5923483	0.0383706589	13.4896082	
	0.0383208096	13.7489675	0.000138464504	91.5923807	0.0759221312999999	-153.313224	0.000112938267	53.9699316	
	0.000104056957	64.4071113	0.0383707295	13.4894723	0.000112938264	53.9699312	0.0758206453	-153.062861	
	
230000000.	0.0738566295	-175.544761	0.000135027303	27.0596121	0.06123507	-6.02502494	0.000108173546	33.0597434	
	0.0001350273	27.0596117	0.0741073029	-175.063051	0.000139837216	60.2585222	0.0612830526	-6.18541433	
	0.0612351353	-6.02508819	0.000139837248	60.2585523	0.0720418596	-175.482936	0.000119102	23.131338	
	0.000108173565	33.059776	0.0612831182	-6.18547726	0.000119101996	23.1313372	0.0719568945	-175.218921	
	
240000000.	0.0617056708	162.80275	0.000142773451	-4.50339958	0.070201801	-29.3194069	0.000112236262	1.8717788	
	0.000142773447	-4.50340017	0.0621336671000001	163.227213	0.000141446928	28.9845237	0.0702611142	-29.4446104	
	0.0702018566	-29.3194347	0.000141446956	28.9845514	0.0605985298999999	162.769007	0.000125051406	-8.02399974	
	0.000112236277	1.87180856	0.07026117	-29.444638	0.000125051403	-8.02400067	0.0605341377	163.056737	
	
250000000.	0.0447486108000001	143.604837	0.000149078075	-36.4762365	0.0642736606	-52.9828249	0.000116451487	-29.3574221	
	0.000149078071	-36.4762371	0.0452789154	143.861965	0.000143471338	-2.46319955	0.0643509029	-53.0955339	
	0.0642737013	-52.9828264	0.000143471362	-2.46317453	0.0444655522	143.206978	0.000130339504	-39.4512553	
	0.0001164515	-29.3573953	0.0643509438	-53.0955353	0.000130339501	-39.4512562	0.0444242590999999	143.533228	
	
260000000.	0.0269458144	132.707736	0.000152899398	-68.108536	0.0458986182	-75.1883128	0.000120182114	-60.4180947	
	0.000152899395	-68.1085364	0.0274297566999999	132.383202	0.000144916527	-34.0039024	0.045994999	-75.3093888	
	0.045898644	-75.1882846	0.000144916548	-34.0038804	0.0273453034999999	130.860149	0.000134068909	-70.5853511	
	0.000120182125	-60.4180712	0.0459950249	-75.3093605	0.000134068906	-70.5853517	0.0273296734	131.240841	
	
270000000.	0.0156049919	150.359673	0.000155451678	-99.2299706	0.0206763059	-88.2273282	0.000123801853	-91.5373527	
	0.000155451675	-99.2299708	0.0156149279	148.601809	0.00014599725	-65.7231994	0.0207804134	-88.464979	
	0.020676326	-88.2272356	0.000145997268	-65.7231808	0.0154541908	143.463901	0.000137165053	-101.38834	
	0.000123801862	-91.5373329	0.0207804335	-88.4648868	0.00013716505	-101.388341	0.0154651517	143.886889	
	
280000000.	0.0196999135000002	175.146305	0.000157624355	-129.614669	0.0108807984	-0.00219013422	0.000126966624	-122.552274	
	0.000157624353	-129.614669	0.0192082043	174.875809	0.000146269783	-97.419223	0.0107814323	-0.517098355	
	0.0108808279	-0.0023227802	0.000146269797	-97.4192079	0.0175727493000001	170.211339	0.000140061776	-131.690049	
	0.000126966631	-122.552258	0.010781462	-0.517230851	0.000140061775	-131.69005	0.017583011	170.600741	
	
290000000.	0.0279668778999999	166.531842	0.000160560626	-159.51392	0.0299343254	5.49581024	0.000129734327	-153.412471	
	0.000160560625	-159.513921	0.0274919457000001	167.154814	0.000145870491	-128.961626	0.0298064486	5.35535405	
	0.0299343391	5.49575742	0.000145870501	-128.961615	0.0249505168	164.182771	0.000143443562	-161.701959	
	0.000129734333	-153.412459	0.0298064624	5.35530113	0.000143443561	-161.701959	0.0249471341	164.630135	
	
300000000.	0.0334872124999999	146.306133	0.000164881538	170.516623	0.0403906083	-13.9503276	0.000132480708	175.758063	
	0.000164881537	170.516622	0.0331542218000001	147.243586	0.000145325385	-160.384176	0.0402652206	-14.0915571	
	0.0403906163	-13.9503513	0.000145325391	-160.384168	0.0301658230000001	144.76982	0.000147711341	168.124832	
	0.000132480712	175.758071	0.0402652287	-14.0915808	0.00014771134	168.124832	0.0301527899	145.294669	
	
310000000.	0.0359574732	122.503626	0.00016916159	140.331523	0.038636014	-34.9777009	0.000134663878	145.068332	
	0.000169161589	140.331523	0.0358047548	123.596925	0.00014433081	168.35364	0.0385183463	-35.1657318	
	0.0386360163	-34.9777101	0.000144330813	168.353644	0.0327455126	121.282129	0.000151549082	137.740534	
	0.000134663879	145.068336	0.0385183486	-35.165741	0.000151549081	137.740534	0.0327254092	121.878096	
	
320000000.	0.0366413513	98.0134146999998	0.000172897341	109.753979	0.0258072686	-51.7297145	0.000136541867	114.314985	
	0.00017289734	109.753979	0.0366885167	99.1594923999999	0.000143181243	137.124002	0.0256881082	-52.0435247	
	0.0258072664	-51.7297139	0.000143181243	137.124002	0.0338974923	97.0175427000002	0.000154654156	107.015745	
	0.000136541867	114.314986	0.025688106	-52.0435241	0.000154654156	107.015745	0.0338804466	97.6601013000001	
	
330000000.	0.036829985	74.4545287999999	0.000174904966	79.1753463	0.00942958298	-25.8157875	0.00013758462	83.6852456	
	0.000174904966	79.1753463	0.0370817536	75.5153888000002	0.000141556587	106.046203	0.00923859752	-26.001066	
	0.00942958018	-25.8157606	0.000141556585	106.046201	0.0348621584	73.7020903999999	0.000156023114	76.3568288	
	0.000137584619	83.6852429	0.00923859473	-26.0010385	0.000156023115	76.3568288	0.0348615623	74.3393462000001	
	
340000000.	0.0374883536	52.7850615999999	0.000175352877	49.0108679	0.0216417892	35.3443884	0.000137829319	53.3960397	
	0.000175352877	49.010868	0.0379195722	53.5902845	0.000139621003	75.2820028	0.0215670128	35.8319177	
	0.021641791	35.3444095	0.000139621	75.2819967	0.0365248978	52.1855479	0.00015587524	46.1960974	
	0.000137829317	53.3960337	0.0215670148	35.8319388	0.000155875241	46.1960976	0.0365502462	52.7502045	
	
350000000.	0.038921413	33.0227568	0.000175781352	19.4227385	0.0391387511	22.6405264	0.000138084346	23.5474271	
	0.000175781353	19.4227387	0.0394575454	33.4400656	0.000138147776	44.8807977	0.039073426	22.9174369	
	0.0391387505	22.6405471	0.000138147771	44.8807884	0.0390684640999999	32.2752848000001	0.000155727163	16.7229397	
	0.000138084343	23.5474178	0.0390734256	22.9174576	0.000155727164	16.7229399	0.0391144097	32.7177564	
	
360000000.	0.0405594696999999	14.5637077	0.000177007425	-9.6154219	0.0474363886	2.54864748	0.000138775254	-5.80015034	
	0.000177007426	-9.61542171	0.0410793875999999	14.561747	0.000137591329	14.716542	0.0473590765	2.76407634	
	0.0474363846	2.54867122	0.000137591322	14.7165295	0.0417527974999999	13.2826552	0.000156446687	-12.0864771	
	0.00013877525	-5.80016278	0.0473590725	2.76410013	0.000156446688	-12.0864768	0.0417947700999999	13.5854745	
	
370000000.	0.0409947620999999	-2.69991669	0.000180403657	-38.7620275	0.0430712409	-17.219553	0.000140992893	-35.1707026	
	0.000180403658	-38.7620273	0.0413648304999999	-3.06744223000001	0.000138476144	-15.7091724	0.0429851512	-17.0049473	
	0.0430712345	-17.2195243	0.000138476135	-15.7091875	0.0429814280000001	-4.88934505999999	0.000159525542	-40.959502	
	0.000140992888	-35.1707178	0.042985145	-17.0049185	0.000159525543	-40.9595015	0.0429892246	-4.70729179	
	
380000000.	0.0386744957	-17.4404012	0.000184822733	-68.4941214	0.0267513024	-28.4694961	0.000144201415	-65.0351491	
	0.000184822735	-68.494121	0.0387703729000001	-18.0839075	0.000139963026	-46.8468811	0.0266775261	-28.1518354	
	0.0267512973	-28.4694547	0.000139963016	-46.8468985	0.040983584	-21.0305458	0.000163964772	-70.4917245	
	0.00014420141	-65.0351665	0.0266775211	-28.1517937	0.000163964774	-70.4917239	0.0409274235000001	-20.9355792	
	
390000000.	0.0333542954999999	-25.3960971000001	0.000188286411	-98.9662509	0.014461962	26.5613673	0.000147049516	-95.6802764	
	0.000188286412	-98.9662505	0.0330786457000001	-26.1076672999999	0.000140507242	-78.8318718	0.0145517801	27.0276379	
	0.0144619712	26.561409	0.000140507232	-78.8318913	0.0351317168	-31.2743189	0.000167811618	-100.936376	
	0.00014704951	-95.6802957	0.0145517894	27.0276791	0.000167811619	-100.936376	0.0349929357	-31.1948556	
	
400000000.	0.0292756332999999	-18.5861310000001	0.000189179464	-129.880224	0.0395669451	52.1100674	0.000148050319	-126.95234	
	0.000189179466	-129.880223	0.0287016001	-18.6085545	0.000138679233	-111.308243	0.0396978976	52.1884633	
	0.0395669519	52.1100806	0.000138679224	-111.308265	0.028967972	-26.6251783000001	0.000169282172	-132.024578	
	0.000148050314	-126.952362	0.0396979045	52.1884764	0.000169282174	-132.024577	0.0287826744	-26.3406527	
	
410000000.	0.0360027539	-4.89224981	0.000186216739	-160.420344	0.0677569011	36.2358081	0.000145786129	-158.085155	
	0.000186216741	-160.420344	0.0356409829999999	-4.03927674000001	0.000133777715	-143.448349	0.0678786698	36.3049526	
	0.0677569024	36.2358226	0.000133777708	-143.448373	0.0332901799999999	-9.40010053000002	0.000166763994	-162.881419	
	0.000145786126	-158.085179	0.0678786712	36.304967	0.000166763996	-162.881419	0.033221714	-8.88675333000001	
	
420000000.	0.0534942388000001	-6.16908059999999	0.000181486099	170.019348	0.0866062577	14.9798796	0.000141337425	171.653345	
	0.000181486101	170.019348	0.0535476641	-5.43740592	0.000127142721	-174.37495	0.0867147766	15.0585606	
	0.0866062536	14.9798944	0.000127142715	-174.374976	0.0504933173	-7.42243142	0.000161960249	167.225831	
	0.000141337423	171.65332	0.0867147726	15.0585754	0.000161960251	167.225832	0.0505760994	-7.03458571	
	
430000000.	0.0735617335	-18.8555174	0.000177562189	141.739119	0.0904523017	-7.06348071	0.000136646744	142.849131	
	0.000177562191	141.739119	0.0739085675999999	-18.39317	0.000121225771	156.422208	0.0905447163	-6.96530475	
	0.0904522933	-7.06346655	0.000121225764	156.42218	0.0713543669	-19.2246186	0.000157266803	138.797443	
	0.000136646741	142.849104	0.0905447081	-6.96529064	0.000157266804	138.797444	0.0715218668000001	-18.960766	
	
440000000.	0.0897043095	-36.4220017	0.00017715695	114.210379	0.0771886441	-27.6570119	0.000134372363	115.292739	
