!!!!!!!!!!!!!!!!!!!!!!!!!!!!!!!!!!!!!!!!!!!!!!!!!!!!!!!!!!!!!!!!!!!!!!!!!!!!!!!!!!!!!!!!!
!!
!! Reference: shanbhag_3dj_02_2305.pdf
!!
!!!!!!!!!!!!!!!!!!!!!!!!!!!!!!!!!!!!!!!!!!!!!!!!!!!!!!!!!!!!!!!!!!!!!!!!!!!!!!!!!!!!!!!!!
!!
!! CHANNEL DESCRIPTION: TP0_TP5 KR Channel using 1meter Cabled BP, PCB Host
!! CABLE DESCRIPTION: 1meter 26AWG Cable
!! MODEL STATUS: Developmental
!!
!! PORT DEFINITIONS: 
!! Port   1    ----->  Side A	      Side B  <-----  Port   2
!! Port   3    ----->  Side A	      Side B  <-----  Port   4
!!

# HZ S MA R 50.000000 


0.	0.0453820088000001	6.92022427999998e-13	1.88593335e-06	180	0.0103430245	-4.35764212e-12	1.67184331e-06	180	
	1.88593341e-06	180	0.0453753016	2.55596965e-13	1.66577885e-06	-180	0.0103440116	8.85515432e-13	
	0.0103433128	-4.3576431e-12	1.66582577e-06	-180	0.0454983554999999	2.06243207e-12	1.84773628e-06	180	
	1.67189039e-06	180	0.0103443628	8.85509904e-13	1.84773621e-06	180	0.0455033136	1.24141796e-12	
	
10000000.	0.0618994512	10.242469	1.37708524e-05	106.321153	0.0435543298	50.1943007	1.23940589e-05	110.528282	
	1.37708524e-05	106.321153	0.0618480960999999	10.2484926	1.22342746e-05	110.705427	0.0435509914	50.2066004	
	0.0435543305	50.1943006	1.22342746e-05	110.705427	0.0614104309999999	10.094856	1.10347606e-05	105.352708	
	1.23940589e-05	110.528282	0.0435509921	50.2066003	1.10347606e-05	105.352708	0.0613988529999999	10.0949012	
	
20000000.	0.0801559680000001	2.81834776	2.7865578e-05	41.7629067	0.0785766011	31.9537142	2.40318605e-05	46.1578727	
	2.7865578e-05	41.7629064	0.080054636	2.85679679	2.33454643e-05	45.6264896	0.0785685986	31.967879	
	0.0785766815	31.9539771	2.33454814e-05	45.6267421	0.0794769994999999	2.70365514	2.2249376e-05	41.3884916	
	2.40318782e-05	46.1581251	0.07856868	31.968144	2.2249376e-05	41.3884913	0.0794538844999999	2.70931745	
	
30000000.	0.0935398551999999	-11.0840768	4.11295153e-05	-4.87955564	0.0980672327	9.45922092	3.53619227e-05	-1.10115749	
	4.11295153e-05	-4.87955561	0.0934247147	-10.9948511	3.42652809e-05	-2.45293501	0.0980561538	9.47770081	
	0.0980672539	9.45922854	3.4265289e-05	-2.45292614	0.0927429909999999	-11.1750805	3.2841803e-05	-4.76278169	
	3.53619312e-05	-1.10114863	0.0980561772	9.4777106	3.2841803e-05	-4.76278173	0.0927156870000001	-11.1600559	
	
40000000.	0.100125593	-27.4681117	5.43824281e-05	-37.4250619	0.098980659	-14.543297	4.69956374e-05	-33.6842125	
	5.43824281e-05	-37.4250619	0.100077649	-27.3226862	4.55859865e-05	-35.4611313	0.0989788316	-14.5169476	
	0.0989806403	-14.5432971	4.55859768e-05	-35.4611305	0.0993172263	-27.536656	4.35321988e-05	-37.6904777	
	4.69956275e-05	-33.6842116	0.0989788144	-14.5169472	4.35321988e-05	-37.6904777	0.0993005761000001	-27.5105542	
	
50000000.	0.0987036330000001	-44.5943902	6.80517435e-05	-70.1972992	0.0813306639	-38.2660425	5.84515298e-05	-66.4665441	
	6.80517435e-05	-70.1972992	0.0987744249000001	-44.4063488	5.66923016e-05	-68.6499212	0.0813459914	-38.2274901	
	0.0813306591	-38.2660412	5.66922989e-05	-68.6499192	0.098014247	-44.6522103	5.45302248e-05	-70.8915935	
	5.8451527e-05	-66.4665421	0.0813459869	-38.227489	5.45302248e-05	-70.8915935	0.0980194281	-44.6172359	
	
60000000.	0.0889376929	-61.4632018	8.09399587e-05	-102.895911	0.0482759042	-60.088281	6.81921613e-05	-98.6419933	
	8.09399587e-05	-102.895911	0.0891754741999999	-61.2713451000001	6.64018714e-05	-101.21003	0.0483138338	-60.0298482	
	0.0482759042	-60.0882811	6.64018722e-05	-101.210031	0.0884892722	-61.5372047	6.50555127e-05	-103.953108	
	6.81921621e-05	-98.6419939	0.048313834	-60.0298484	6.50555127e-05	-103.953108	0.0885290332	-61.5011555	
	
70000000.	0.0714181063	-76.0018953000001	9.32893648e-05	-135.982576	0.00811830756	-41.4176634	7.73494482e-05	-130.421175	
	9.32893648e-05	-135.982576	0.0718036931	-75.8791224	7.55273089e-05	-133.372479	0.00818011527	-41.5404714	
	0.00811830653	-41.4176531	7.55273086e-05	-133.372477	0.0712914808	-76.1677945	7.4984195e-05	-137.410873	
	7.73494478e-05	-130.421173	0.0081801146	-41.5404633	7.49841951e-05	-137.410873	0.0713636377	-76.1485730000001	
	
80000000.	0.0496834554	-82.6365662	0.000103811742	-168.838297	0.0397141396	52.8600738	8.5559223e-05	-161.443567	
	0.000103811742	-168.838297	0.0500884928	-82.7892497	8.38759222e-05	-164.790546	0.0396517481	52.8396125	
	0.0397141431	52.860079	8.3875923e-05	-164.790539	0.0498234763	-83.1578015	8.33606676e-05	-170.543363	
	8.55592238e-05	-161.44356	0.0396517515	52.8396176	8.33606677e-05	-170.543363	0.0498974654	-83.2026461	
	
90000000.	0.0342788	-66.8960633999999	0.000112513467	159.026712	0.0767627021	32.2392186	9.35812647e-05	168.167869	
	0.000112513467	159.026712	0.0343277205	-67.6069727000001	9.21718166e-05	164.407153	0.0767018037	32.2636721	
	0.0767627073	32.2392222	9.21718211e-05	164.407159	0.0341618647	-68.3532997000002	9.02644181e-05	157.208958	
	9.35812693e-05	168.167875	0.0767018089	32.2636757	9.02644181e-05	157.208958	0.0341527941	-68.5104197	
	
100000000.	0.0417953992	-41.0567546999999	0.000120789067	127.669652	0.100115266	8.67264284	0.000102726019	137.78996	
	0.000120789067	127.669652	0.0413702744	-41.250933	0.000101531982	133.600488	0.100073504	8.71559294	
	0.100115267	8.67263833	0.000101531982	133.600484	0.0408156736	-42.0995611	9.68320481e-05	125.892149	
	0.00010272602	137.789957	0.100073505	8.71558869	9.68320481e-05	125.892149	0.0407059836000001	-42.1229961999999	
	
110000000.	0.0629888389	-41.0343692	0.000128790749	97.2801532	0.105564266	-15.2447422	0.000111497328	107.263232	
	0.000128790749	97.2801531	0.0625804869	-40.7875044	0.00011078693	102.655054	0.105555537	-15.1884309	
	0.105564316	-15.244738	0.000110786942	102.655066	0.061575789	-41.3772124	0.000103685925	95.6480171	
	0.000111497342	107.263245	0.105555587	-15.1884265	0.000103685925	95.6480169	0.0614742835999999	-41.3048060000001	
	
120000000.	0.0832995812	-53.329051	0.000138714798	66.9584128	0.0924393676	-38.7094782	0.000120675449	76.0711622	
	0.000138714798	66.9584127	0.0831103244	-52.9639486	0.000120385073	71.0468033	0.0924674336	-38.635419	
	0.0924394322	-38.7094485	0.000120385096	71.0468263	0.0817885362000001	-53.4022362999999	0.000112452227	65.4141727	
	0.000120675473	76.071185	0.0924674985	-38.6353893	0.000112452227	65.4141724	0.0817335732	-53.3070117	
	
130000000.	0.0970027391	-70.2172868999999	0.000150023717	36.23314	0.0632937382	-60.3817486	0.000128597854	44.4894524	
	0.000150023718	36.23314	0.0971078333	-69.8411293	0.000128802834	39.074676	0.0633620793	-60.275738	
	0.0632937908	-60.3816657	0.000128802864	39.0747067	0.0956345502	-70.1871549	0.000122728705	34.5973185	
	0.000128597885	44.489483	0.0633621323	-60.2756551	0.000122728705	34.5973183	0.0956425741	-70.091138	
	
140000000.	0.100898662	-88.880652	0.000161508086	4.7472584	0.0242736963	-70.0220419	0.00013456621	12.8643642	
	0.000161508086	4.74725837	0.101302592	-88.5455032	0.000135333036	7.10099007	0.0243934228	-69.8556663	
	0.0242737447	-70.021758	0.00013533307	7.10102661	0.0998804377	-88.8287689	0.000133259011	2.82137852	
	0.000134566247	12.8644008	0.0243934716	-69.8553842	0.000133259011	2.82137836	0.0999542156	-88.7444033	
	
150000000.	0.0935949726	-107.558569	0.000171903848	-27.5391036	0.0240608774	37.1133634	0.00013924919	-18.5497109	
	0.000171903849	-27.5391036	0.0942460619	-107.313405	0.000140477937	-24.612161	0.0239997143	36.8349991	
	0.0240609821	37.113116	0.000140477974	-24.61212	0.0930881244	-107.557652	0.000142584022	-29.8740811	
	0.000139249231	-18.5496697	0.0239998195	36.8347524	0.000142584022	-29.8740813	0.0932134954	-107.498346	
	
160000000.	0.0761782566	-124.082766	0.000178607019	-59.773252	0.0627883837	27.7036098	0.00014183011	-49.19131	
	0.00017860702	-59.773252	0.0769433562	-124.023723	0.00014376151	-55.4634393	0.0626879023	27.6621273	
	0.0627884945	27.7035141	0.000143761551	-55.4633952	0.0762529036	-124.271807	0.000148481722	-62.4969509	
	0.000141830154	-49.1912658	0.0626880132	27.6620316	0.000148481722	-62.4969511	0.0763926659	-124.260332	
	
170000000.	0.0525893574999999	-133.453972	0.000182611108	-91.6859927	0.0916151044	6.2257131	0.000144763365	-79.2746683	
	0.000182611108	-91.6859928	0.0532485276000001	-133.83182	0.000147460659	-85.6986938	0.0915293193	6.2382391	
	0.0916152281	6.22566897	0.000147460704	-85.6986486	0.0531096382	-134.281535	0.00015168458	-94.6667485	
	0.000144763413	-79.2746229	0.0915294432	6.23819495	0.000151684581	-94.6667487	0.0532086846	-134.363097	
	
180000000.	0.0331472691	-119.84843	0.000184525255	-122.691539	0.104798983	-16.8793432	0.000148443853	-108.972791	
	0.000184525256	-122.691539	0.0331922854	-121.06093	0.000152197663	-115.501959	0.104756526	-16.8385624	
	0.104799103	-16.8793557	0.000152197711	-115.501915	0.0331968619	-122.612719	0.000152996353	-125.7097	
	0.000148443904	-108.972747	0.104756646	-16.8385749	0.000152996353	-125.7097	0.0331616159	-122.815204	
	
190000000.	0.0391397346	-88.4932671000001	0.000186220387	-152.694573	0.100327295	-40.1229768	0.000153071682	-138.769329	
	0.000186220388	-152.694573	0.0384955263	-88.7285795999999	0.000158250029	-145.406282	0.100343205	-40.0612339	
	0.100327395	-40.1229613	0.000158250078	-145.40624	0.0374154274	-90.4407327999998	0.00015439085	-155.526084	
	0.000153071733	-138.769287	0.100343304	-40.0612185	0.00015439085	-155.526084	0.0372802617	-90.3899932	
	
200000000.	0.0616736439	-87.6113670999999	0.000189951565	177.854647	0.0794644494	-62.4802873	0.000158427532	-169.120274	
	0.000189951565	177.854647	0.0611561978	-87.2396189999999	0.000165253724	-175.933014	0.0795404245	-62.3952283	
	0.0794645193	-62.4802376	0.00016525377	-175.932975	0.0592119957	-88.0948179999999	0.000158067264	175.315173	
	0.00015842758	-169.120235	0.0795404946	-62.3951788	0.000158067263	175.315173	0.0591381274	-87.947965	
	
210000000.	0.0820097189	-101.530406	0.00019565542	148.644344	0.046589114	-80.8790202	0.000162311498	160.188018	
	0.00019565542	148.644344	0.0818245711	-101.075815	0.000170951315	153.151158	0.0467211006	-80.7599853	
	0.046589159	-80.8789035	0.000170951354	153.151194	0.0794156206	-101.576937	0.00016412138	146.314585	
	0.000162311539	160.188055	0.0467211458	-80.7598691	0.00016412138	146.314586	0.0794272206	-101.435494	
	
220000000.	0.0934525163	-120.088959	0.000203508821	118.833241	0.0126906494	-55.2895016	0.000164866472	129.256762	
	0.000203508822	118.833241	0.0936273946	-119.656295	0.000175114222	121.922405	0.0128496423	-55.6258292	
	0.0126907421	-55.2892329	0.000175114254	121.922438	0.0910827096	-119.996266	0.000172339416	116.489436	
	0.000164866506	129.256796	0.0128497346	-55.6255613	0.000172339415	116.489436	0.0911745221	-119.874296	
	
230000000.	0.0934447481999999	-140.019328	0.000211271671	88.3571527	0.035090873	17.3850352	0.000165615177	98.5342357	
	0.000211271672	88.357153	0.0939430041000001	-139.649037	0.000177127086	90.9004115	0.0349719435	17.1819814	
	0.0350909389	17.3849028	0.000177127112	90.900443	0.0915961341	-139.899171	0.00018032953	85.7937198	
	0.000165615205	98.534268	0.0349720098	17.181849	0.00018032953	85.7937202	0.0917475681	-139.803516	
	
240000000.	0.0823155917000001	-159.485428	0.000217138025	57.4397094	0.0654919428	2.35126168	0.000165185713	68.2783821	
	0.000217138026	57.4397098	0.0830507487	-159.226864	0.000177617034	60.4090371	0.0653550938	2.29876629	
	0.0654920014	2.35120506	0.000177617056	60.4090663	0.0812177438	-159.429475	0.000186171988	54.5713032	
	0.000165185736	68.2784122	0.0653551525	2.29870959	0.000186171989	54.5713036	0.0813952443000001	-159.369546	
	
250000000.	0.0626738014	-176.234478	0.000220682829	26.3682474	0.0843049432	-19.0012185	0.000164975266	38.4511271	
	0.00022068283	26.3682477	0.0635136930999999	-176.210245	0.000178128235	30.4493569	0.0841947307	-19.0043226	
	0.0843049946	-19.0012436	0.000178128254	30.4493833	0.0624380924999999	-176.448064	0.000189416081	23.2423152	
	0.000164975287	38.4511543	0.0841947822	-19.0043477	0.000189416081	23.2423155	0.0626020904	-176.443447	
	
260000000.	0.0393206647999999	176.005295	0.000221366548	-4.25314694	0.0884824095	-41.5673363	0.000165086453	8.99294846	
	0.000221366548	-4.25314671	0.0400222721000001	175.378483	0.000179096839	1.03640213	0.0884273522	-41.5435012	
	0.0884824491	-41.567342	0.000179096857	1.036425	0.0397610152	174.708178	0.000189760134	-7.47913896	
	0.000165086472	8.99297197	0.0884273918	-41.543507	0.000189760134	-7.47913873	0.0398629857	174.604307	
	
270000000.	0.0239223152000001	-160.373974	0.000220984726	-34.4128812	0.0780594973	-64.0531392	0.000166356506	-20.5937888	
	0.000220984726	-34.412881	0.0238210799	-162.249628	0.000181645415	-28.4053851	0.078074118	-64.0119063	
	0.0780595233	-64.0531296	0.00018164543	-28.4053662	0.0235358816999999	-165.056775	0.000189152759	-37.5444511	
	0.000166356523	-20.5937694	0.078074144	-64.0118967	0.000189152759	-37.544451	0.0234976129999999	-165.269944	
	
280000000.	0.0339838343	-131.737508	0.000220496811	-63.977545	0.0558201774	-84.9640655	0.000167804361	-50.5128009	
	0.000220496811	-63.9775448	0.0332535133999999	-131.927604	0.000184897171	-58.1438485	0.0559029953	-84.9141824	
	0.0558201921	-84.9640393	0.000184897182	-58.1438337	0.0314703989	-133.960502	0.000188812737	-66.8504804	
	0.000167804373	-50.5127857	0.05590301	-84.9141563	0.000188812736	-66.8504803	0.0313888593	-133.865767	
	
290000000.	0.0514507902999999	-137.975146	0.000221016579	-93.1318571	0.0271605502	-97.8272002	0.000168411029	-80.7506585	
	0.000221016579	-93.1318569	0.0508632051	-137.563151	0.000187673154	-88.2626975	0.0272952794	-97.8236581	
	0.027160561	-97.8271431	0.000187673161	-88.2626866	0.0481009424999999	-138.56069	0.000189947245	-95.7027657	
	0.000168411037	-80.7506473	0.0272952902	-97.8236014	0.000189947244	-95.7027655	0.0480890234	-138.411778	
	
300000000.	0.0634381946	-155.1554	0.0002232427	-122.293738	0.0113098518	-23.8247648	0.000167846737	-111.111839	
	0.0002232427	-122.293737	0.0631372267	-154.615172	0.000189315002	-118.646528	0.0112585537	-24.5951021	
	0.0113098736	-23.824803	0.000189315006	-118.64652	0.0598238344	-155.247271	0.000193081449	-124.663935	
	0.000167846741	-111.111831	0.0112585755	-24.5951389	0.000193081449	-124.663935	0.0598846478000001	-155.106492	
	
310000000.	0.0669820439999999	-175.62771	0.00022597944	-151.560213	0.0333456824	-3.8500238	0.000165770731	-141.187061	
	0.00022597944	-151.560212	0.0669933674999999	-175.055537	0.000189056336	-148.838397	0.0331871688	-3.9384763	
	0.0333456895	-3.85004217	0.000189056337	-148.838393	0.0635307324000001	-175.522473	0.000196753349	-153.890397	
	0.000165770732	-141.187057	0.0331871759	-3.93849467	0.000196753349	-153.890397	0.0636484272000001	-175.397836	
	
320000000.	0.0623824171	163.01348	0.000228911933	178.813825	0.0502798512	-21.0732347	0.000163383112	-170.9041	
	0.000228911933	178.813825	0.0626872275000001	163.580963	0.000187992987	-178.748984	0.0501260934	-21.0804848	
	0.0502798518	-21.0732374	0.000187992986	-178.748983	0.0594752216	163.206466	0.000200338365	176.392551	
	0.000163383112	-170.904099	0.050126094	-21.0804875	0.000200338365	176.392551	0.0596277548999999	163.312005	
	
330000000.	0.0514645156999999	142.093921	0.000230870317	148.987537	0.0564024852	-42.0755047	0.000161289302	159.732068	
	0.000230870317	148.987537	0.0520121623	142.607432	0.000186726522	151.738612	0.0562828253	-42.0538095	
	0.0564024802	-42.0755023	0.000186726521	151.73861	0.0494252402	142.282649	0.00020257213	146.444402	
	0.0001612893	159.732065	0.0562828204	-42.053807	0.00020257213	146.444402	0.0495878696999999	142.363838	
	
340000000.	0.037003977	123.514495	0.000231426374	119.131931	0.0514128296	-63.5089367	0.000159908948	130.492289	
	0.000231426374	119.13193	0.0377123402	123.827691	0.000185929234	122.489029	0.0513465216	-63.4739968	
	0.0514128203	-63.5089352	0.000185929231	122.489023	0.0360469685999999	123.466249	0.000203120023	116.528972	
	0.000159908945	130.492282	0.0513465123	-63.4739953	0.000203120023	116.528972	0.0361966535000001	123.506209	
	
350000000.	0.0224438999	112.783369	0.000230968634	89.3518722	0.0374733919	-83.4183687	0.000159244698	101.0755	
	0.000230968634	89.351872	0.0231594314	112.303248	0.000185971726	93.2120006	0.0374682996	-83.3878182	
	0.0374733798	-83.4183768	0.000185971722	93.2119915	0.022542707	111.409952	0.000202585012	86.8023486	
	0.000159244694	101.07549	0.0374682875	-83.3878262	0.000202585012	86.8023484	0.0226556573	111.349457	
	
360000000.	0.0131925467	126.591877	0.000229376397	59.8957778	0.0188554933	-95.3055843	0.000158312915	71.4254316	
	0.000229376398	59.8957776	0.0134454246999999	123.662991999999	0.000185950629	63.8505004	0.0188989154	-95.3679735	
	0.0188554771	-95.3056257	0.000185950624	63.8504884	0.0133638536999999	119.255400999999	0.000201071848	57.5338873	
	0.00015831291	71.425419	0.0188988992	-95.3680148	0.000201071848	57.533887	0.0134028484	118.991369	
	
370000000.	0.0150632609000001	148.88861	0.000227915077	30.6523793	0.00743655094	-32.651479	0.000156832469	41.5724372	
	0.000227915077	30.6523791	0.0145670914	146.98934	0.000185703913	34.2984285	0.00737585983	-33.2423072	
	0.00743652418	-32.6513577	0.000185703909	34.2984138	0.0134156263	139.630591	0.000199998935	28.5460598	
	0.000156832464	41.5724217	0.00737583291	-33.2421871	0.000199998936	28.5460594	0.0133896815999999	139.536191	
	
380000000.	0.0204393324	141.143355	0.000226791688	1.57792188	0.0191231646	-4.06711004	0.000154492171	11.7555867	
	0.000226791689	1.5779215	0.0197798985000001	140.887932	0.000184681464	4.73327541	0.0189923541	-3.99265318	
	0.0191231533	-4.06699944	0.000184681459	4.73325824	0.0175208212	134.311781	0.000199541081	-0.268327843	
	0.000154492166	11.7555684	0.0189923429	-3.99254175	0.000199541081	-0.268328379	0.0175024725	134.420303	
	
390000000.	0.0240033273	120.838162	0.000226074532	-27.4762283	0.0266480144	-18.1709624	0.00015162165	-17.8511631	
	0.000226074532	-27.4762288	0.0233935867	121.295151	0.00018300424	-24.7024376	0.0265161115	-18.01752	
	0.0266480037	-18.1708783	0.000183004235	-24.7024572	0.0205082579000001	114.854014	0.000199629146	-29.1170613	
	0.000151621645	-17.851184	0.0265161009	-18.0174354	0.000199629146	-29.117062	0.0205121472	115.049501	
	
400000000.	0.0255771581	97.0759590000002	0.00022568072	-56.6770662	0.0255198404	-35.1463737	0.000148860792	-47.2540079	
	0.000225680721	-56.6770668	0.0250937545	97.9655556000003	0.000181259892	-54.0061689	0.0254124263	-34.9210682	
	0.025519829	-35.1462976	0.000181259888	-54.0061908	0.0219790073	91.4694981999997	0.000200042178	-58.188141	
	0.000148860787	-47.2540314	0.0254124151	-34.9209916	0.000200042179	-58.1881419	0.022002442	91.7159890999997	
	
410000000.	0.0259877137	73.8369302000001	0.000224511152	-85.9549286	0.016653115	-45.1962934	0.000146266164	-76.5411165	
	0.000224511152	-85.9549294	0.0256901353	75.0427617999998	0.000179343885	-83.1645842	0.0166009214	-44.8137627	
	0.0166531047	-45.196212	0.00017934388	-83.164608	0.02263913	68.9835766999998	0.000199531208	-87.358106	
	0.000146266159	-76.5411421	0.0166009113	-44.8136806	0.000199531208	-87.3581069	0.0226791091	69.2565739999999	
	
420000000.	0.0263378464	54.1330997000001	0.000222636649	-115.292363	0.00828822794	0.567376881	0.000143914692	-105.891248	
	0.000222636649	-115.292363	0.0262964413	55.4851732000001	0.000177581008	-112.343528	0.0083555273	0.895356785	
	0.00828822821	0.567506277	0.000177581004	-112.343553	0.0235135950999999	50.8174950000002	0.000198270945	-116.596653	
	0.000143914687	-105.891275	0.00835552772	0.895485258	0.000198270945	-116.596654	0.0235734093	51.0772164999999	
	
430000000.	0.0277830264	38.9866844	0.000219804891	-144.495082	0.0200699687	36.8666751	0.00014133636	-135.306699	
	0.000219804891	-144.495083	0.0280431659	40.15066	0.000175504818	-141.532798	0.0200918066	36.7971177	
	0.0200699746	36.866747	0.000175504814	-141.532825	0.0258304085	37.4475451000001	0.000196020904	-145.662012	
	0.000141336356	-135.306728	0.0200918125	36.7971895	0.000196020904	-145.662013	0.0259099189	37.6450383	
	
440000000.	0.0313103450999999	26.4235442000001	0.000216506704	-173.425617	0.033645744	25.0643606	0.000138331346	-164.634719	
	0.000216506704	-173.425618	0.0318181208000001	27.0684636999999	0.000172920985	-170.631953	0.0336154896	25.0737381	
