!!!!!!!!!!!!!!!!!!!!!!!!!!!!!!!!!!!!!!!!!!!!!!!!!!!!!!!!!!!!!!!!!!!!!!!!!!!!!!!!!!!!!!!!!
!!
!! Reference: shanbhag_3dj_02_2305.pdf
!!
!!!!!!!!!!!!!!!!!!!!!!!!!!!!!!!!!!!!!!!!!!!!!!!!!!!!!!!!!!!!!!!!!!!!!!!!!!!!!!!!!!!!!!!!!
!!
!! CHANNEL DESCRIPTION: TP0_TP5 KR Channel using 1meter Cabled BP, PCB Host
!! CABLE DESCRIPTION: 1meter 26AWG Cable
!! MODEL STATUS: Developmental
!!
!! PORT DEFINITIONS: 
!! Port   1    ----->  Side A	      Side B  <-----  Port   2
!! Port   3    ----->  Side A	      Side B  <-----  Port   4
!!


# HZ S MA R 50.000000 


0.	0.0425629769	1.05025973e-12	9.81571602e-06	-180	0.00994860451	-4.09555498e-13	3.62656697e-06	-180	
	9.81626675e-06	-180	0.0453753016	2.55596965e-13	3.96974618e-05	180	0.0103440116	8.85515432e-13	
	0.00994726777	-4.09591459e-13	3.96984207e-05	180	0.0431181081000001	-6.60531241999999e-13	1.01239056e-05	-180	
	3.62662954e-06	-180	0.0103443628	8.85509904e-13	1.0124142e-05	-180	0.0455033136	1.24141796e-12	
	
10000000.	0.0594948172999999	11.802119	1.67498861e-05	179.100118	0.0431565076	51.1513745	9.89928183e-06	109.171796	
	1.67497518e-05	179.097895	0.0618480960999999	10.2484926	3.98615118e-05	156.242634	0.0435509914	50.2066004	
	0.0431565077	51.1513745	3.98614081e-05	156.242208	0.0594894478999999	11.4666026	2.2477599e-05	106.9548	
	9.89920887e-06	109.172498	0.0435509921	50.2066003	2.24776056e-05	106.954754	0.0613988529999999	10.0949012	
	
20000000.	0.0784232519	4.32028015	2.48249258e-05	173.989373	0.07803812	32.6410699	2.1735952e-05	49.4959334	
	2.48246666e-05	173.988834	0.080054636	2.85679679	3.94915602e-05	132.067397	0.0785685986	31.967879	
	0.0780380231	32.6409822	3.94919529e-05	132.070183	0.0780649394000001	4.01464841	4.28231039e-05	47.8741533	
	2.17360034e-05	49.4961297	0.07856868	31.968144	4.2823238e-05	47.8741939	0.0794538844999999	2.70931745	
	
30000000.	0.0924569113999999	-9.78062407000001	3.23013289e-05	157.798994	0.0977698342	10.1392252	3.4144366e-05	6.7923794	
	3.23010573e-05	157.798626	0.0934247147	-10.9948511	3.77061458e-05	107.867142	0.0980561538	9.47770081	
	0.0977698258	10.1392249	3.77066602e-05	107.867204	0.0918429963	-10.0253214	6.36311513e-05	4.54126224	
	3.41444107e-05	6.79233022	0.0980561772	9.4777106	6.36311815e-05	4.54124679	0.0927156870000001	-11.1600559	
	
40000000.	0.0997522263	-26.3799474	3.99140261e-05	136.121915	0.0993455457	-13.7613122	4.59993349e-05	-32.1705958	
	3.99136938e-05	136.121648	0.100077649	-27.3226862	3.29174813e-05	86.9155117	0.0989788316	-14.5169476	
	0.099345548	-13.7613133	3.29171802e-05	86.9162906	0.0990310943999999	-26.5036546	8.38286434e-05	-32.109735	
	4.59993695e-05	-32.1705715	0.0989788144	-14.5169472	8.38287326e-05	-32.1097208	0.0993005761000001	-27.5105542	
	
50000000.	0.0991290288	-43.8061084	5.05922328e-05	114.84093	0.0826863452	-37.4473879	5.52832169e-05	-71.1688873	
	5.05919837e-05	114.840854	0.0987744249000001	-44.4063488	2.86910108e-05	75.8784889	0.0813459914	-38.2274901	
	0.0826863457	-37.447388	2.86910538e-05	75.8792708	0.0984873264	-43.8326571	0.000102102178	-68.6828326	
	5.5283286e-05	-71.1688252	0.0813459869	-38.227489	0.000102102229	-68.6828136	0.0980194281	-44.6172359	
	
60000000.	0.0901451639	-61.191931	6.51254071e-05	88.9586436	0.050717841	-59.6143329	5.84703456e-05	-108.083946	
	6.51253647e-05	88.9586645	0.0891754741999999	-61.2713451000001	3.75405702e-05	73.7819728	0.0483138338	-60.0298482	
	0.050717841	-59.6143324	3.75405786e-05	73.7820253	0.089702993	-61.1639631999999	0.000113997832	-103.505887	
	5.84703882e-05	-108.08391	0.048313834	-60.0298484	0.000113997859	-103.505871	0.0885290332	-61.5011555	
	
70000000.	0.0731279019	-76.7701982	8.24479503e-05	58.6473461	0.0103340022	-56.8668504	5.73431948e-05	-141.053304	
	8.24480244e-05	58.6473959	0.0718036931	-75.8791224	4.59880019e-05	53.235887	0.00818011527	-41.5404714	
	0.0103340022	-56.8668476	4.59879065e-05	53.2358831	0.0729454389	-76.7371828999999	0.000121902824	-136.472609	
	5.73430964e-05	-141.053318	0.0081801146	-41.5404633	0.000121902827	-136.472614	0.0713636377	-76.1485730000001	
	
80000000.	0.0509123094	-85.7819884999999	9.82753993e-05	25.169506	0.0357944134	54.4522309	5.46281728e-05	-166.922584	
	9.82749819e-05	25.1695021	0.0500884928	-82.7892497	5.40721867e-05	22.1259503	0.0396517481	52.8396125	
	0.035794413	54.4522308	5.40722126e-05	22.1259427	0.0509698372	-85.8550250000001	0.000126941391	-166.672125	
	5.46284059e-05	-166.922895	0.0396517515	52.8396176	0.00012694136	-166.672158	0.0498974654	-83.2026461	
	
90000000.	0.0324100786	-73.1021124999998	0.000109221932	-9.48631778	0.0731620938	34.3129325	5.73985261e-05	173.074145	
	0.000109223124	-9.48655238	0.0343277205	-67.6069727000001	5.8700666e-05	-9.24259548	0.0767018037	32.2636721	
	0.073162093	34.3129323	5.87008084e-05	-9.24269762	0.0325023419	-73.6657949000001	0.000133910785	165.452441	
	5.73989769e-05	173.074679	0.0767018089	32.2636757	0.000133910691	165.452398	0.0341527941	-68.5104197	
	
100000000.	0.0368938674	-41.0989815	0.000114477576	-43.6264515	0.0975688701	10.8730301	6.96211097e-05	150.150801	
	0.000114477582	-43.6264431	0.0413702744	-41.250933	5.43227354e-05	-38.810179	0.100073504	8.71559294	
	0.0975688698	10.8730297	5.43227142e-05	-38.8102048	0.0365845545000001	-41.7754003999999	0.00014745623	137.814131	
	6.96210987e-05	150.150784	0.100073505	8.71558869	0.000147456176	137.814079	0.0407059836000001	-42.1229961999999	
	
110000000.	0.0585112898	-38.1404977	0.000113491209	-75.6810528	0.104664326	-12.9677592	8.54485878e-05	120.52609	
	0.000113491271	-75.6810552	0.0625804869	-40.7875044	4.83140346e-05	-61.2359728	0.105555537	-15.1884309	
	0.104664298	-12.9677768	4.83155971e-05	-61.2359566	0.0579689762	-38.4778586	0.000164440754	108.734372	
	8.54458334e-05	120.526138	0.105555587	-15.1884265	0.000164436621	108.734264	0.0614742835999999	-41.3048060000001	
	
120000000.	0.0801516399000001	-50.0713944	0.000110743591	-104.806633	0.093490187	-36.4254996	0.000100497238	86.072036	
	0.000110743682	-104.806678	0.0831103244	-52.9639486	4.60922709e-05	-74.58019	0.0924674336	-38.635419	
	0.0934901424	-36.4255309	4.60950258e-05	-74.5811342	0.079526277	-50.3201957	0.000183856986	77.3617687	
	0.000100492409	86.0720525	0.0924674985	-38.6353893	0.000183849704	77.3617414	0.0817335732	-53.3070117	
	
130000000.	0.095596573	-67.104868	0.000109990189	-130.831181	0.0662675079	-58.3890182	0.00010984707	49.5002104	
	0.00010999023	-130.831267	0.0971078333	-69.8411293	5.37852126e-05	-87.6377807	0.0633620793	-60.275738	
	0.066267463	-58.3890606	5.37885988e-05	-87.6401202	0.0949372412	-67.3537073	0.000200039135	44.2801564	
	0.000109840718	49.4999562	0.0633621323	-60.2756551	0.000200029629	44.280151	0.0956425741	-70.091138	
	
140000000.	0.101475825	-86.1399627	0.000115356539	-155.657137	0.0284695511	-71.7372164	0.000111266599	12.7448778	
	0.000115356501	-155.65722	0.101302592	-88.5455032	6.80781237e-05	-109.729024	0.0243934228	-69.8556663	
	0.0284695207	-71.7372662	6.80817953e-05	-109.731955	0.100815986	-86.4149113999999	0.000209174481	10.3802886	
	0.000111259149	12.744194	0.0243934716	-69.8553842	0.000209163544	10.3802009	0.0999542156	-88.7444033	
	
150000000.	0.0960885853	-105.513519	0.000127690098	177.551078	0.0188580272	34.5608084	0.000105733249	-22.4059091	
	0.000127690045	177.551028	0.0942460619	-107.313405	8.1816285e-05	-138.609761	0.0239997143	36.8349991	
	0.0188580235	34.5607919	8.18201183e-05	-138.612794	0.0954801174	-105.820942	0.000210815965	-23.3218106	
	0.000105724984	-22.4070381	0.0239998195	36.8347524	0.000210804167	-23.3220539	0.0932134954	-107.498346	
	
160000000.	0.0799878197	-123.441004	0.000141849363	147.597395	0.0572499144	30.6010822	9.449875e-05	-53.5387404	
	0.000141849381	147.597361	0.0769433562	-124.023723	8.99447784e-05	-169.6342	0.0626879023	27.6621273	
	0.0572498877	30.6010335	8.99486056e-05	-169.637231	0.0794917778999999	-123.783656	0.000203538277	-55.4198906	
	9.44897931e-05	-53.5400533	0.0626880132	27.6620316	0.000203525925	-55.4202695	0.0763926659	-124.260332	
	
170000000.	0.0562637143	-136.138794	0.000153688236	114.97595	0.0871312387	9.64819426	8.53814234e-05	-78.9530009	
	0.000153688349	114.9759	0.0532485276000001	-133.83182	9.17979126e-05	160.068868	0.0915293193	6.2382391	
	0.0871311901	9.64813898	9.18015604e-05	160.065835	0.0559460989999999	-136.535641	0.000194410156	-85.1396237	
	8.53719421e-05	-78.9537664	0.0915294432	6.23819495	0.000194397396	-85.1400025	0.0532086846	-134.363097	
	
180000000.	0.0326866708	-129.709592	0.000159383662	81.2136365	0.102211397	-13.2540166	8.43861704e-05	-100.506454	
	0.000159383825	81.213551	0.0331922854	-121.06093	8.96223222e-05	133.06306	0.104756526	-16.8385624	
	0.102211336	-13.254075	8.96256029e-05	133.059946	0.0325316024999999	-130.298621	0.000188413189	-112.386113	
	8.4376698e-05	-100.506057	0.104756646	-16.8385749	0.000188400215	-112.386277	0.0331616159	-122.815204	
	
190000000.	0.0321616558	-89.9195274000001	0.000158132378	47.593046	0.100089003	-36.4119609	9.23410711e-05	-124.224305	
	0.00015813252	47.5929239	0.0384955263	-88.7285795999999	8.88421336e-05	109.98065	0.100343205	-40.0612339	
	0.100088941	-36.4120206	8.88448858e-05	109.977434	0.0318144791	-90.6758265	0.000189834746	-138.520649	
	9.23321167e-05	-124.223243	0.100343304	-40.0612185	0.000189821943	-138.52048	0.0372802617	-90.3899932	
	
200000000.	0.0550072239	-82.9096292999999	0.000151712014	15.0736825	0.0815520224	-58.851761	0.000104233024	-153.070052	
	0.000151712083	15.0735383	0.0611561978	-87.2396189999999	9.41019108e-05	87.9863715	0.0795404245	-62.3952283	
	0.0815519684	-58.8518208	9.4104102e-05	87.9832209	0.0543093259	-83.50312	0.000199446275	-165.593904	
	0.000104224606	-153.069096	0.0795404946	-62.3951788	0.00019943407	-165.593508	0.0591381274	-87.947965	
	
210000000.	0.0776039019	-95.9783895	0.000142023247	-15.2042983	0.0504797337	-78.0934399	0.000112927021	174.350885	
	0.000142023234	-15.2044416	0.0818245711	-101.075815	0.000104234824	63.7415129	0.0467211006	-80.7599853	
	0.050479695	-78.0934983	0.000104236544	63.7385987	0.076597224	-96.5279013000001	0.000211575975	165.367239	
	0.000112919009	174.351442	0.0467211458	-80.7598691	0.000211564631	165.367663	0.0794272206	-101.435494	
	
220000000.	0.0919522365	-114.619994	0.000134193486	-43.0831937	0.0155109032	-68.8216271	0.00011624517	140.11504	
	0.000134193432	-43.0833136	0.0936273946	-119.656295	0.000115016093	36.1751268	0.0128496423	-55.6258292	
	0.0155108833	-68.8216544	0.00011501747	36.172517	0.0907216863	-115.167181	0.000222303289	134.384957	
	0.000116237541	140.115186	0.0128497346	-55.6255613	0.000222292891	134.385257	0.0911745221	-119.874296	
	
230000000.	0.0950066515	-134.993385	0.000131557383	-69.4724103	0.0300178344	18.8537916	0.000112956423	106.074376	
	0.000131557347	-69.4725042	0.0939430041000001	-139.649037	0.00012204407	6.85673363	0.0349719435	17.1819814	
	0.0300178333	18.8537558	0.000122045157	6.85441206	0.0936759234999999	-135.552067	0.000226902171	102.410439	
	0.000112949268	106.074223	0.0349720098	17.181849	0.000226892717	102.410564	0.0917475681	-139.803516	
	
240000000.	0.0865481483000001	-155.352681	0.000134613819	-96.564593	0.0610025241	6.35614642	0.000104638744	73.8744293	
	0.000134613829	-96.5646784	0.0830507487	-159.226864	0.000123710664	-22.3390613	0.0653550938	2.29876629	
	0.0610025122	6.3561026	0.000123711466	-22.3411234	0.0852679794	-155.924962	0.000224165493	70.574699	
	0.000104632199	73.8741549	0.0653551525	2.29870959	0.000224156961	70.5746745	0.0813952443000001	-159.369546	
	
250000000.	0.0685962308	-174.041688	0.000140589557	-125.956229	0.0814040206	-14.4648667	9.52595173e-05	44.8684034	
	0.000140589594	-125.95632	0.0635136930999999	-176.210245	0.000121715242	-49.9129039	0.0841947307	-19.0043226	
	0.0814040016	-14.4649088	0.000121715762	-49.9147191	0.0675265958	-174.622694	0.000216622311	39.827398	
	9.52537204e-05	44.8682276	0.0841947822	-19.0043477	0.000216614691	39.8272915	0.0626020904	-176.443447	
	
260000000.	0.0449295536999999	172.827685	0.000144974963	-157.407284	0.0876721251	-36.7910572	8.83097484e-05	19.1637737	
	0.000144974995	-157.40738	0.0400222721000001	175.378483	0.000119388089	-74.799193	0.0884273522	-41.5435012	
	0.0876721038	-36.7910958	0.000119388324	-74.8007578	0.0442156114	172.249908	0.000207035544	10.7828346	
	8.83048215e-05	19.1638507	0.0884273918	-41.543507	0.000207028868	10.7827298	0.0398629857	174.604307	
	
270000000.	0.0232655373	-176.61282	0.000145819541	169.689743	0.0793501307	-59.1972683	8.70069563e-05	-5.28322199	
	0.000145819549	169.689651	0.0238210799	-162.249628	0.000121615724	-98.2058904	0.078074118	-64.0119063	
	0.079350111	-59.1973024	0.000121615734	-98.2071699	0.0229410595999999	-177.288147	0.000200546304	-16.6974626	
	8.70029471e-05	-5.28295615	0.078074144	-64.0118967	0.000200540642	-16.6975081	0.0234976129999999	-165.269944	
	
280000000.	0.0260378075999999	-131.120669	0.00014198557	136.364172	0.0587062404	-80.3238037	8.9884988e-05	-31.4045253	
	0.000141985555	136.364095	0.0332535133999999	-131.927604	0.000129272587	-122.446536	0.0559029953	-84.9141824	
	0.0587062247	-80.3238325	0.000129272476	-122.447517	0.0255434751	-132.128017	0.000199367411	-43.4850101	
	8.98818268e-05	-31.4042711	0.05590301	-84.9141563	0.000199362838	-43.4849971	0.0313888593	-133.865767	
	
290000000.	0.0447616894999999	-130.382686	0.000134128599	103.507039	0.0306337468	-95.0774983	9.35205361e-05	-60.1697698	
	0.000134128574	103.506982	0.0508632051	-137.563151	0.00013905969	-149.060948	0.0272952794	-97.8236581	
	0.030633736	-95.0775198	0.000139059559	-149.061655	0.0437240939	-131.327568	0.000203208538	-70.7876621	
	9.35181313e-05	-60.1696337	0.0272952902	-97.8236014	0.000203205073	-70.7876354	0.0480890234	-138.411778	
	
300000000.	0.0596190403	-146.470952	0.000124471738	71.7711972	0.0100880782	-35.9153732	9.5442739e-05	-90.6842733	
	0.000124471713	71.7711617	0.0631372267	-154.615172	0.000146542073	-177.725662	0.0112585537	-24.5951021	
	0.0100880772	-35.9153563	0.000146541983	-177.726128	0.0580821525	-147.403484	0.000209586964	-99.3359496	
	9.54410616e-05	-90.684248	0.0112585755	-24.5951389	0.000209584572	-99.3359476	0.0598846478000001	-155.106492	
	
310000000.	0.0663718875999999	-166.852456	0.00011496239	41.606484	0.0311195364	0.236815228	9.41653876e-05	-121.827973	
	0.000114962365	41.6064687	0.0669933674999999	-175.055537	0.000148625978	153.113669	0.0331871688	-3.9384763	
	0.0311195374	0.236808332	0.000148625952	153.113421	0.0644759431999999	-167.799957	0.000214573851	-129.063015	
	9.41644527e-05	-121.828015	0.0331871759	-3.93849467	0.000214572483	-129.063043	0.0636484272000001	-175.397836	
	
320000000.	0.0647428784000001	171.473715	0.000108028954	12.3658451	0.0496635365	-15.8482584	9.07094274e-05	-152.28622	
	0.000108028919	12.3658509	0.0626872275000001	163.580963	0.000145769237	124.753376	0.0501260934	-21.0804848	
	0.049663535	-15.8482619	0.000145769292	124.753333	0.0626899102000001	170.503718	0.000216636157	-159.364299	
	9.07092439e-05	-152.286294	0.050126094	-21.0804875	0.000216635777	-159.36434	0.0596277548999999	163.312005	
	
330000000.	0.0561401591	149.696894	0.000103787552	-16.8954561	0.0576465823	-36.5872598	8.63749824e-05	178.435647	
	0.000103787499	-16.8954247	0.0520121623	142.607432	0.000140604336	98.354931	0.0562828253	-42.0538095	
	0.0576465789	-36.5872574	0.000140604499	98.355085	0.0541664295	148.714362	0.000215394752	170.355261	
	8.63755244e-05	178.435551	0.0562828204	-42.053807	0.000215395336	170.355229	0.0495878696999999	142.363838	
	
340000000.	0.0429691063	128.910928	0.000101284772	-47.1035129	0.0542238342	-58.0260859	8.26826876e-05	150.276874	
	0.0001012847	-47.1034508	0.0377123402	123.827691	0.000137205418	74.0830222	0.0513465216	-63.4739968	
	0.0542238296	-58.0260767	0.000137205738	74.083359	0.0413188087	127.950205	0.000211962673	140.525998	
	8.26838996e-05	150.276747	0.0513465123	-63.4739953	0.000211964195	140.525993	0.0361966535000001	123.506209	
	
350000000.	0.0281124095	111.637948	9.93420054e-05	-78.7029727	0.0410596756	-78.3461276	8.04940046e-05	122.644756	
	9.93419145e-05	-78.7028802	0.0231594314	112.303248	0.000138723485	50.606089	0.0374682996	-83.3878182	
	0.0410596708	-78.3461102	0.000138724012	50.6065776	0.0270031399	110.776111	0.000208183748	111.318542	
	8.04958304e-05	122.6446	0.0374682875	-83.3878262	0.00020818617	111.318569	0.0226556573	111.349457	
	
360000000.	0.0150392918	107.25337	9.64986507e-05	-111.389904	0.0220009943	-92.4445113	7.91985793e-05	94.3599672	
	9.64985347e-05	-111.389786	0.0134454246999999	123.662991999999	0.00014468584	26.2892186	0.0188989154	-95.3679735	
	0.0220009907	-92.4444804	0.000144686598	26.2898239	0.0146133409	106.409	0.000205197202	82.5130395	
	7.9200989e-05	94.3598156	0.0188988992	-95.3680148	0.00020520047	82.513099	0.0134028484	118.991369	
	
370000000.	0.0101442193000001	137.601887	9.27394991e-05	-144.936168	0.00720843526	-41.17191	7.7989663e-05	65.6098793	
	9.27393423e-05	-144.936029	0.0145670914	146.98934	0.000151845991	0.161261178	0.00737585983	-33.2423072	
	0.00720843925	-41.1718593	0.000151846966	0.161963059	0.00997649109999997	134.174094	0.000203807839	53.8627699	
	7.79926448e-05	65.6097632	0.00737583291	-33.2421871	0.000203811894	53.8628663	0.0133896815999999	139.536191	
	
380000000.	0.0146056112000001	149.612414	8.80244956e-05	-178.871097	0.0197488348	1.51437837	7.62207151e-05	36.5198031	
	8.8024278e-05	-178.870941	0.0197798985000001	140.887932	0.000156907145	-27.1840947	0.0189923541	-3.99265318	
	0.0197488372	1.51440012	0.000156908306	-27.1833021	0.0138154494	144.950742	0.000203621458	25.006273	
	7.62242481e-05	36.519739	0.0189923429	-3.99254175	0.000203626243	25.0064183	0.0175024725	134.420303	
	
390000000.	0.0191804905999999	134.760627	8.28110856e-05	147.075929	0.0300932913	-12.4467801	7.40166361e-05	7.65977137	
	8.28107914e-05	147.076102	0.0233935867	121.295151	0.00015849932	-54.6938989	0.0265161115	-18.01752	
	0.0300932902	-12.4467493	0.000158500651	-54.6930165	0.0178202405999999	129.863369	0.000203815497	-4.19189821	
	7.40206701e-05	7.65974702	0.0265161009	-18.0174354	0.000203820954	-4.19168663	0.0205121472	115.049501	
	
400000000.	0.0219791475	112.60607	7.77686485e-05	113.030362	0.0315822617	-30.8446829	7.21444186e-05	-20.4657733	
	7.77682737e-05	113.030557	0.0250937545	97.9655556000003	0.000157588456	-81.5478008	0.0254124263	-34.9210682	
	0.0315822575	-30.8446422	0.000157589966	-81.5468352	0.0202578782	107.4636	0.000203705695	-33.6531514	
	7.21488805e-05	-20.4657938	0.0254124151	-34.9209916	0.000203711764	-33.6528569	0.022002442	91.7159890999997	
	
410000000.	0.0236760118	89.2383763000001	7.29083944e-05	79.1590433	0.0241249508	-46.8540028	7.12603938e-05	-48.9272276	
	7.29079485e-05	79.1592569	0.0256901353	75.0427617999998	0.000156651355	-107.374384	0.0166009214	-44.8137627	
	0.0241249451	-46.8539469	0.000156653076	-107.373359	0.0217830061	84.1792239000002	0.000202925983	-63.3858951	
	7.12652119e-05	-48.9271992	0.0166009113	-44.8136806	0.000202932595	-63.3854987	0.0226791091	69.2565739999999	
	
420000000.	0.0253622588	67.8155211000002	6.89326998e-05	45.5251588	0.0111625958	-41.4173109	7.13082535e-05	-77.7865296	
	6.89321976e-05	45.5253772	0.0262964413	55.4851732000001	0.000157420819	-132.717877	0.0083555273	0.895356785	
	0.0111625951	-41.4172084	0.000157422762	-132.716824	0.023444166	63.5076519000001	0.000201334022	-93.1592515	
	7.13133786e-05	-77.7863867	0.00835552772	0.895485258	0.000201341109	-93.1587397	0.0235734093	51.0772164999999	
	
430000000.	0.0279743314	49.5071664	6.60184132e-05	12.2065617	0.0138025055	32.334562	7.15305251e-05	-107.971109	
	6.60178631e-05	12.2067575	0.0280431659	40.15066	0.000160020659	-158.348284	0.0200918066	36.7971177	
	0.0138025175	32.3345973	0.000160022782	-158.347232	0.0262153393000001	46.5103806999999	0.000199075784	-122.951621	
	7.15359214e-05	-107.970722	0.0200918125	36.7971895	0.000199083282	-122.950982	0.0259099189	37.6450383	
	
440000000.	0.0321478332	33.3574069	6.45000242e-05	-20.9269446	0.0297803173	30.6014608	7.08229628e-05	-139.331029	
	6.44994198e-05	-20.9268039	0.0318181208000001	27.0684636999999	0.000162693866	175.383886	0.0336154896	25.0737381	
