!!!!!!!!!!!!!!!!!!!!!!!!!!!!!!!!!!!!!!!!!!!!!!!!!!!!!!!!!!!!!!!!!!!!!!!!!!!!!!!!!!!!!!!!!
!!
!! Reference: shanbhag_3dj_02_2305.pdf
!!
!!!!!!!!!!!!!!!!!!!!!!!!!!!!!!!!!!!!!!!!!!!!!!!!!!!!!!!!!!!!!!!!!!!!!!!!!!!!!!!!!!!!!!!!!
!!
!! CHANNEL DESCRIPTION: TP0_TP5 KR Channel using 1meter Cabled BP, PCB Host
!! MODEL DESCRIPTION: s4p, THRU
!! CABLE DESCRIPTION: 1meter 26AWG Cable
!! MODEL STATUS: Developmental
!!
!! PORT DEFINITIONS: 
!! Port   1    ----->  Side A	      Side B  <-----  Port   2
!! Port   3    ----->  Side A	      Side B  <-----  Port   4
!!

# HZ S MA R 50.000000 


0.	0.0486771391	2.41448902e-13	0.95000908	6.01591659e-14	0.0102717876	9.16172643e-13	0.0100306779	180	
	0.950009083	6.01591605e-14	0.0486719412000001	2.41466439e-13	0.0100320078	180	0.0102735349	9.16022888e-13	
	0.0102720748	9.16171987e-13	0.0100321723	180	0.0487945297000001	1.16160658e-12	0.949864362	1.18908457e-13	
	0.0100308454	180	0.0102738849	9.16017084e-13	0.949864359	1.18908462e-13	0.0487989742999999	1.16151983e-12	
	
10000000.	0.0643866517	7.20454872	0.943026507	-28.1053202	0.0456269111	49.365959	0.00860307462	142.2979	
	0.943026507	-28.1053202	0.0643866527999999	7.20454749000002	0.00860307463	142.2979	0.045626911	49.3659592	
	0.0456269118	49.3659589	0.00860307461999999	142.297894	0.0639442864	7.04700259999999	0.943350518	-28.0973173	
	0.00860307461	142.297895	0.0456269117	49.3659591	0.943350518	-28.0973173	0.0639442873	7.04700191	
	
20000000.	0.0814203884	-1.32883026	0.935986228	-55.830623	0.0813535156	29.135789	0.0106663595	102.226001	
	0.935986228	-55.830623	0.0814203846999998	-1.32882912000003	0.0106663588	102.226005	0.0813535152	29.135788	
	0.081353597	29.1360496	0.0106663853	102.226033	0.0808254415	-1.48142246	0.936351043	-55.8240962	
	0.010666386	102.226029	0.0813535976	29.1360507	0.936351043	-55.8240962	0.0808254565	-1.48143114	
	
30000000.	0.0938230181	-15.9080989	0.930165811	-83.3483494	0.0991965177	4.96140963	0.0134019774	60.714133	
	0.930165811	-83.3483494	0.0938230236000001	-15.9081036	0.0134019783	60.7141341	0.0991965179	4.96140942	
	0.0991965389	4.96141731	0.0134019815	60.7141284	0.0931152945	-16.0736226	0.930561201	-83.3418113	
	0.0134019806	60.7141271	0.0991965412	4.96141923	0.9305612	-83.3418113	0.0931152989000001	-16.0736306	
	
40000000.	0.0998310233	-32.932724	0.926994928	-110.782953	0.0961025657	-20.5774131	0.0158786472	18.8125358	
	0.926994928	-110.782953	0.0998310258000001	-32.9327348	0.0158786475	18.8125333	0.0961025655	-20.5774128	
	0.0961025475	-20.5774135	0.0158786508	18.8125657	0.0990486740000001	-33.11443	0.927422276	-110.776758	
	0.0158786506	18.8125689	0.0961025488	-20.5774127	0.927422276	-110.776758	0.0990486859999999	-33.1144342	
	
50000000.	0.0981169592000001	-50.7783338	0.925696919	-138.263311	0.0729128083	-45.5770744	0.0178205981	-21.78251	
	0.925696919	-138.263311	0.0981169621	-50.7783484000001	0.0178205991	-21.7825121	0.072912808	-45.5770723	
	0.0729128037	-45.5770734	0.017820601	-21.7825068	0.0973501498	-50.976564	0.926153525	-138.257507	
	0.0178206	-21.7825039	0.0729128037	-45.5770715	0.926153525	-138.257507	0.0973501468999999	-50.9765654	
	
60000000.	0.0881843063000001	-68.4195858999999	0.924796018	-165.852599	0.0344584914	-66.6201827	0.01886225	-60.4746855	
	0.924796018	-165.852599	0.0881843070999999	-68.4196046000001	0.0188622502	-60.4746848	0.0344584919	-66.6201779	
	0.0344584912	-66.6201827	0.0188622507	-60.4746854	0.0875221345	-68.631203	0.925279521	-165.847576	
	0.0188622507	-60.4746867	0.0344584919	-66.620178	0.925279521	-165.847576	0.0875221358	-68.6312203	
	
70000000.	0.0706047966	-83.5974697999999	0.922520066	166.477319	0.0138362159	49.6848146	0.0188326509	-95.8969297	
	0.922520066	166.477319	0.0706047917	-83.5974926999998	0.0188326509	-95.896931	0.0138362176	49.6848026	
	0.0138362173	49.6848191	0.0188326522	-95.8969293	0.0701466195	-83.8463074	0.923026818	166.48192	
	0.0188326525	-95.8969285	0.0138362185	49.6848059	0.923026818	166.48192	0.070146604	-83.8463265	
	
80000000.	0.0492128637	-90.4424016000001	0.918231265	138.832105	0.0566571768	43.3526738	0.0181944824	-126.46391	
	0.918231265	138.832105	0.0492128526	-90.4424274000003	0.0181944824	-126.463911	0.0566571769	43.3526716	
	0.0566571799	43.3526788	0.0181944867	-126.463909	0.0489944699	-90.8411958000001	0.918761767	138.836559	
	0.0181944867	-126.463908	0.05665718	43.3526765	0.918761767	138.836559	0.0489944593	-90.8412222000001	
	
90000000.	0.0350136866	-75.1943741	0.912844815	111.299778	0.0889265631	19.1920674	0.0180649901	-151.59036	
	0.912844815	111.299778	0.0350136723	-75.1943842999999	0.0180649902	-151.59036	0.0889265631	19.1920667	
	0.0889265679	19.1920711	0.0180649961	-151.590364	0.0347781585	-76.0496888999999	0.913407093	111.304319	
	0.018064996	-151.590364	0.0889265678	19.1920705	0.913407093	111.304319	0.0347781441	-76.0496996999999	
	
100000000.	0.0433204221	-52.716161	0.908002919	83.8821436	0.103311877	-6.17821052	0.0195343633	-174.323457	
	0.908002919	83.8821436	0.0433204197	-52.7161621999999	0.0195343634	-174.323455	0.103311877	-6.17821026	
	0.103311878	-6.17821509	0.0195343657	-174.323459	0.0426030586	-53.4843442	0.908611048	83.8869123	
	0.0195343656	-174.323461	0.103311877	-6.17821458	0.908611048	83.8869123	0.0426030563	-53.4843453	
	
110000000.	0.0641385945	-54.9750341	0.904676535	56.5262209	0.0972246961	-31.4656541	0.0227893752	160.2398	
	0.904676535	56.5262209	0.0641386012999999	-54.9750467	0.0227893749	160.239803	0.097224696	-31.4656526	
	0.0972247379	-31.4656414	0.0227894308	160.239788	0.062990694	-55.4185801	0.905343133	56.5284125	
	0.0227894306	160.239786	0.097224738	-31.4656397	0.905343133	56.5284125	0.0629907009	-55.4185944	
	
120000000.	0.0834723863000001	-69.1096103999999	0.902597911	29.1252964	0.0723354169	-55.5787626	0.0267426428	130.68279	
	0.902597911	29.1252964	0.0834723967	-69.1096328000001	0.0267426425	130.682793	0.0723354171	-55.5787587	
	0.0723354626	-55.5787083	0.0267427405	130.682783	0.0820603061	-69.3961158	0.903329436	29.1243912	
	0.0267427401	130.682781	0.0723354632	-55.5787043	0.903329436	29.1243912	0.0820603152	-69.3961409999999	
	
130000000.	0.0953131257	-87.8462363	0.900567747	1.65227378	0.0343298769	-73.3785451	0.0301528872	98.1968989	
	0.900567747	1.65227378	0.0953131356	-87.8462675999999	0.0301528871	98.1969009	0.0343298788	-73.3785337	
	0.0343299104	-73.3783615	0.0301530167	98.196915	0.0938207127	-88.0533630000001	0.901356341	1.64722286	
	0.0301530162	98.1969136	0.0343299127	-73.3783502	0.901356341	1.64722286	0.0938207197	-88.0533971	
	
140000000.	0.0965266613	-108.257008	0.8975325	-25.8536113	0.014713362	24.9364547	0.0320937216	64.7597208	
	0.8975325	-25.8536113	0.0965266664	-108.25705	0.0320937216	64.7597224	0.0147133669	24.9364271	
	0.0147134824	24.936168	0.0320938721	64.7597716	0.0951605484	-108.425689	0.898357273	-25.8634541	
	0.0320938715	64.7597704	0.0147134872	24.9361403	0.898357273	-25.8634541	0.0951605505	-108.425732	
	
150000000.	0.0864963224000001	-128.404494	0.893391268	-53.3249348	0.0532288594	28.3092778	0.0322974951	32.3366605	
	0.893391268	-53.3249348	0.0864963178000002	-128.404548	0.0322974952	32.3366619	0.0532288595	28.3092679	
	0.0532289696	28.3091639	0.0322976573	32.3367476	0.0854530168	-128.573208	0.894230241	-53.3390366	
	0.0322976568	32.3367467	0.0532289696	28.3091542	0.894230241	-53.3390366	0.0854530108	-128.573264	
	
160000000.	0.0672981286999999	-145.8922	0.889058201	-80.7035838	0.0827277423	6.16014099	0.0313471124	2.53621078	
	0.889058201	-80.7035838	0.0672981081999999	-145.892272	0.0313471125	2.53621216	0.0827277412	6.16013501	
	0.082727868	6.16008956	0.0313472814	2.53632613	0.0667350259	-146.141342	0.889892373	-80.7209279	
	0.0313472809	2.53632528	0.082727867	6.16008371	0.889892373	-80.7209279	0.0667350068999999	-146.141415	
	
170000000.	0.0436502823000001	-154.540373	0.88557682	-108.016893	0.0958564005	-18.2453284	0.0304819548	-23.7897014	
	0.88557682	-108.016893	0.0436502378999997	-154.540461	0.030481955	-23.7896999	0.0958563988	-18.2453325	
	0.0958565238	-18.2453428	0.0304821299	-23.7895781	0.0435612710000001	-155.201755	0.886411164	-108.035757	
	0.0304821294	-23.7895791	0.0958565222	-18.2453469	0.886411164	-108.035757	0.0435612304	-155.20185	
	
180000000.	0.0276076141	-134.271762	0.883409259	-135.326808	0.0905614057	-42.9018974	0.0310259206	-47.9034986	
	0.883409259	-135.326808	0.0276075497000002	-134.27178	0.031025921	-47.9034971	0.0905614036	-42.9019001	
	0.0905615073	-42.9018781	0.0310261007	-47.9033901	0.0273009710000001	-136.336455	0.88426333	-135.346146	
	0.0310261001	-47.903391	0.0905615055	-42.9018807	0.88426333	-135.346146	0.0273009058	-136.336494	
	
190000000.	0.0380129366	-107.505361	0.88199068	-162.696223	0.0686546703	-66.5779643	0.0333429617	-72.7687004	
	0.88199068	-162.696223	0.0380129102999999	-107.505316	0.0333429624	-72.7686994	0.0686546685	-66.5779647	
	0.0686547394	-66.5778997	0.0333431421	-72.7686113	0.0365836159	-108.784118	0.882891071	-162.716219	
	0.0333431413	-72.7686118	0.0686547379	-66.5779001	0.882891071	-162.716219	0.0365835806	-108.784077	
	
200000000.	0.0580273816	-113.740248	0.880186691	169.862383	0.0356796557	-84.8621766	0.0365136777	-100.230741	
	0.880186691	169.862383	0.0580273810000001	-113.740242	0.0365136784	-100.230741	0.0356796556	-84.8621706	
	0.0356797003	-84.8620062	0.0365138517	-100.23066	0.0559410523	-114.286175	0.881153545	169.840365	
	0.0365138509	-100.23066	0.0356797004	-84.8620003	0.881153545	169.840365	0.0559410427	-114.286167	
	
210000000.	0.0727684161000001	-131.573482	0.877327142	142.40809	0.0101854099	-17.1969945	0.0391838135	-129.917496	
	0.877327142	142.40809	0.0727684252	-131.573506	0.0391838142	-129.917495	0.0101854173	-17.1970097	
	0.0101855309	-17.1970989	0.0391839757	-129.917412	0.070359628	-131.871135	0.878355039	142.381828	
	0.039183975	-129.917411	0.0101855382	-17.1971146	0.878355039	142.381828	0.0703596294999999	-131.871156	
	
220000000.	0.0782507088	-152.86587	0.873571143	115.001596	0.0383706577	13.4896256	0.0405373604	-160.270696	
	0.873571143	115.001596	0.0782507191	-152.865919	0.0405373609	-160.270696	0.0383706589	13.4896082	
	0.0383707285	13.4894895	0.0405375077	-160.270606	0.0758206405	-153.062813	0.874636918	114.969518	
	0.0405375072	-160.270605	0.0383707295	13.4894723	0.874636918	114.969518	0.0758206453	-153.062861	
	
230000000.	0.0741072975	-175.062972	0.869860848	87.6739461	0.0612830539	-6.18540086	0.0405905887	170.171866	
	0.869860848	87.6739461	0.0741073029	-175.063051	0.040590589	170.171866	0.0612830526	-6.18541433	
	0.0612831196	-6.18546388	0.0405907209	170.171959	0.0719568927000001	-175.218842	0.870929647	87.6357444	
	0.0405907206	170.17196	0.0612831182	-6.18547726	0.870929647	87.6357444	0.0719568945	-175.218921	
	
240000000.	0.0621336726000001	163.227331	0.867057719	60.3971059	0.0702611174	-29.4445976	0.0400641736	142.309213	
	0.867057719	60.3971059	0.0621336671000002	163.227213	0.0400641738	142.309213	0.0702611142	-29.4446104	
	0.0702611732	-29.4446252	0.0400642926	142.309303	0.0605341454999999	163.056857	0.868101689	60.3539273	
	0.0400642924	142.309304	0.07026117	-29.444638	0.868101689	60.3539273	0.0605341377	163.056737	
	
250000000.	0.0452789404000001	143.862143	0.86533176	33.1092768	0.0643509076	-53.09552	0.0399221523	116.093348	
	0.86533176	33.1092768	0.0452789153999999	143.861965	0.0399221524	116.093347	0.0643509029	-53.0955339	
	0.0643509484	-53.0955214	0.0399222593	116.093427	0.0444242855	143.533409	0.866343882	33.0630993	
	0.0399222592	116.093427	0.0643509438	-53.0955353	0.866343882	33.0630993	0.0444242590999999	143.533228	
	
260000000.	0.0274298191	132.383477	0.864171037	5.76790648	0.0459950052	-75.3093718	0.0407416328	90.4763221	
	0.864171037	5.76790648	0.0274297566999999	132.383202	0.0407416329	90.4763221	0.045994999	-75.3093888	
	0.045995031	-75.3093436	0.0407417274	90.4763869	0.0273297352	131.241119	0.865161835	5.72046337	
	0.0407417273	90.476387	0.0459950249	-75.3093605	0.865161835	5.72046337	0.0273296734	131.240841	
	
270000000.	0.0156150521999999	148.601993	0.862702176	-21.6305159	0.0207804215	-88.4649549	0.0423927804	64.2745004	
	0.862702176	-21.6305159	0.0156149278999998	148.601808999999	0.0423927805	64.2745004	0.0207804134	-88.464979	
	0.0207804415	-88.4648626	0.0423928609	64.2745509	0.0154652733000001	143.887108	0.863696588	-21.6785392	
	0.0423928609	64.274551	0.0207804335	-88.4648868	0.863696588	-21.6785392	0.0154651517	143.886889	
	
280000000.	0.0192082976999998	174.875649	0.860474596	-49.0442386	0.0107814339	-0.517136674	0.0442242754	37.077507	
	0.860474596	-49.0442386	0.0192082043	174.875809	0.0442242754	37.077507	0.0107814323	-0.517098354999996	
	0.0107814636	-0.517269163	0.0442243403	37.0775463	0.0175831081999999	170.600581	0.861494322	-49.0934383	
	0.0442243404	37.0775463	0.010781462	-0.517230850999978	0.861494322	-49.0934383	0.017583011	170.600741	
	
290000000.	0.0274919934	167.154711	0.857688905	-76.429009	0.029806446	5.35535245	0.0456793666	9.29090019	
	0.857688905	-76.429009	0.0274919457000001	167.154814	0.0456793665	9.29090032	0.0298064486	5.35535405	
	0.0298064599	5.35529945	0.0456794158	9.2909303	0.0249471835000001	164.630022	0.858742295	-76.4807757	
	0.0456794159	9.29093020000001	0.0298064624	5.35530112999999	0.858742295	-76.4807757	0.0249471341	164.630135	
	
300000000.	0.0331542397999999	147.243566	0.854916333	-103.773209	0.0402652194	-14.0915485	0.0466389498	-18.4522042	
	0.854916333	-103.773209	0.0331542218000002	147.243586	0.0466389498	-18.4522041	0.0402652206	-14.0915571	
	0.0402652274	-14.0915723	0.0466389839	-18.4521829	0.0301528080999999	145.294646	0.855997344	-103.828897	
	0.046638984	-18.452183	0.0402652287	-14.0915808	0.855997344	-103.828897	0.0301527899	145.294669	
	
310000000.	0.0358047488	123.596983	0.852599901	-131.097408	0.0385183482	-35.1657135	0.0473183599	-45.7526645	
	0.852599901	-131.097408	0.0358047548	123.596925	0.0473183598	-45.7526643	0.0385183463	-35.1657318	
	0.0385183505	-35.1657228	0.0473183796	-45.752652	0.0327254023999999	121.878159	0.853691814	-131.157719	
	0.0473183796	-45.7526522	0.0385183486	-35.165741	0.853691814	-131.157719	0.0327254092	121.878096	
	
320000000.	0.0366884907	99.1596283	0.850657925	-158.435953	0.0256881158	-52.0434877	0.0480641724	-72.6065296	
	0.850657925	-158.435953	0.0366885167	99.1594923999999	0.0480641723	-72.6065294	0.0256881082	-52.0435247	
	0.0256881136	-52.0434871	0.0480641783	-72.6065258	0.0338804194	97.6602475999999	0.85174461	-158.500822	
	0.0480641783	-72.606526	0.025688106	-52.0435241	0.85174461	-158.500822	0.0338804466	97.6601013000001	
	
330000000.	0.0370817157	75.5155976999999	0.848686718	174.200338	0.00923862003	-26.001045	0.0490591955	-99.2320816	
	0.848686718	174.200338	0.0370817536	75.5153888000002	0.0490591955	-99.2320813	0.00923859752	-26.001066	
	0.00923861722	-26.0010175	0.049059188	-99.2320858	0.0348615235	74.3395675000001	0.849756526	174.131476	
	0.049059188	-99.2320861	0.00923859473	-26.0010385	0.849756526	174.131476	0.0348615623	74.3393462000001	
	
340000000.	0.0379195358	53.5905501	0.846360263	146.82899	0.0215670156	35.8318507	0.0503224136	-125.857162	
	0.846360263	146.82899	0.0379195722	53.5902845000001	0.0503224136	-125.857161	0.0215670128	35.8319177	
	0.0215670175	35.8318718	0.050322393	-125.857173	0.0365502097	52.7504790000001	0.847407232	146.756821	
	0.0503223931	-125.857173	0.0215670148	35.8319388	0.847407232	146.756821	0.0365502462	52.7502045	
	
350000000.	0.0394575257	33.4403593	0.843753762	119.476313	0.0390734208	22.9174001	0.0518136617	-152.615134	
	0.843753762	119.476313	0.0394575454	33.4400656	0.0518136616	-152.615133	0.039073426	22.9174369	
	0.0390734204	22.9174208	0.0518136287	-152.615151	0.0391143903	32.7180512	0.844775527	119.401466	
	0.0518136288	-152.615151	0.0390734256	22.9174576	0.844775527	119.401466	0.0391144097	32.7177564	
	
360000000.	0.0410793945999999	14.5620373	0.841273275	92.1517422	0.0473590673	2.76405043	0.0534674966	-179.578879	
	0.841273275	92.1517422	0.0410793875999999	14.561747	0.0534674966	-179.578879	0.0473590765	2.76407634	
	0.0473590634	2.76407421	0.0534674521	-179.578901	0.0417947761	13.585758	0.842269427	92.0749143	
	0.0534674522	-179.578902	0.0473590725	2.76410013	0.842269427	92.0749143	0.0417947700999999	13.5854745	
	
370000000.	0.0413648658000001	-3.06717933999999	0.839229522	64.831968	0.04298514	-17.0049669	0.0551906548	153.130386	
	0.839229522	64.831968	0.0413648304999997	-3.06744222999987	0.0551906548	153.130386	0.0429851512	-17.0049473	
	0.0429851338	-17.0049381	0.0551905997	153.130359	0.0429892561	-4.70704014999999	0.840203379	64.7540276	
	0.0551905997	153.130359	0.042985145	-17.0049185	0.840203379	64.7540276	0.0429892246	-4.70729179	
	
380000000.	0.0387704300999999	-18.0836901	0.837489929	37.4845111	0.0266775152	-28.1518449	0.0567301185	125.509225	
	0.837489929	37.4845111	0.0387703729000001	-18.0839074999999	0.0567301185	125.509225	0.0266775261	-28.1518354	
	0.0266775103	-28.1518033	0.056730054	125.509194	0.0409274741	-20.9353722	0.838452865	37.4063856	
	0.056730054	125.509194	0.0266775211	-28.1517937	0.838452865	37.4063856	0.0409274235000001	-20.9355792	
	
390000000.	0.0330787097999999	-26.1075225	0.835510301	10.0968748	0.0145517823	27.0276601	0.0577995718	97.786058	
	0.835510301	10.0968748	0.0330786457000001	-26.1076672999999	0.0577995718	97.7860583	0.0145517801	27.0276379	
	0.0145517916	27.0277013	0.0577994991	97.7860233	0.0349929916	-31.1947121	0.836483026	10.0190478	
	0.0577994991	97.786023	0.0145517894	27.0276791	0.836483026	10.0190478	0.0349929357	-31.1948556	
	
400000000.	0.0287016351	-18.6085127	0.832765358	-17.3057793	0.039697904	52.1884514	0.0583571783	70.4188957	
	0.832765358	-17.3057793	0.0287016001000001	-18.6085545	0.0583571782	70.4188961	0.0396978976	52.1884633	
	0.0396979109	52.1884645	0.0583570981	70.4188577	0.0287827053	-26.3406016	0.833772204	-17.3838602	
	0.0583570982	70.4188573	0.0396979045	52.1884764	0.833772204	-17.3838602	0.0287826744	-26.3406527	
	
410000000.	0.0356409604	-4.0392276	0.829234726	-44.6713658	0.0678786724	36.3049367	0.0588331926	43.8456311	
	0.829234726	-44.6713658	0.035640983	-4.03927674000005	0.0588331925	43.8456316	0.0678786698	36.3049526	
	0.0678786737	36.3049511	0.0588331054	43.8455912	0.0332216892999999	-8.88670183000001	0.830291641	-44.7514967	
	0.0588331055	43.8455907	0.0678786712	36.304967	0.830291641	-44.7514967	0.033221714	-8.88675333000001	
	
420000000.	0.0535476165	-5.4373005	0.825542312	-71.9662238	0.0867147736	15.0585428	0.0600290269	17.9463635	
	0.825542312	-71.9662238	0.0535476640999998	-5.43740592000001	0.0600290269	17.946364	0.0867147766	15.0585606	
	0.0867147697	15.0585576	0.0600289328	17.9463238	0.0505760510999999	-7.03447468000001	0.826643944	-72.0507959	
	0.0600289329	17.9463233	0.0867147726	15.0585754	0.826643944	-72.0507959	0.0505760994	-7.03458571	
	
430000000.	0.0739085226	-18.3930388	0.82252063	-99.2005952	0.0905447066	-6.9653251	0.0624940398	-8.07104476	
	0.82252063	-99.2005952	0.0739085675999999	-18.39317	0.0624940399	-8.07104426	0.0905447163	-6.96530475	
	0.0905446984	-6.96531099	0.0624939398	-8.07108296	0.0715218231	-18.9606309	0.823637884	-99.291388	
	0.0624939398	-8.07108346	0.0905447081	-6.96529064	0.823637884	-99.291388	0.0715218668000001	-18.960766	
	
440000000.	0.0902132343	-36.1612375	0.820591576	-126.429064	0.0772717582	-27.5196973	0.0659351982	-35.1803444	
	0.820591576	-126.429064	0.0902132624	-36.1613807	0.0659351983	-35.180344	0.077271776	-27.519673	
	0.0772717472	-27.5196849	0.065935094	-35.1803817	0.0888509347	-36.4979791	0.821681733	-126.52599	
	0.0659350938	-35.1803821	0.077271765	-27.5196606	0.821681733	-126.52599	0.0888509608	-36.4981237	
	
450000000.	0.097451286	-55.6978325	0.819426181	-153.71319	0.0491699119	-40.9737612	0.0692191432	-63.7484298	
	0.819426181	-153.71319	0.0974512885999999	-55.6979850000001	0.0692191433	-63.7484294	0.0491699396	-40.973732	
	0.0491698995	-40.973751	0.0692190368	-63.7484682	0.0972841295	-56.1044585	0.820453764	-153.813783	
	0.0692190367	-63.7484685	0.0491699272	-40.9737218	0.820453764	-153.813783	0.0972841305	-56.1046101	
	
