!$
! Info: Touchstone file created by Circ.  Input file=Intel_C2M_200G_11p5in_202208016_staggered.circ
!$
# Hz S RI R 50
0	0.03523867	5.465002e-24	0.0001068265	1.637705e-22	0.0001485692	3.535495e-22	0.0001067633	1.63505e-22
	0.0001068265	1.637705e-22	0.03525135	5.620717e-24	0.0001068107	1.636648e-22	0.0001481966	3.502977e-22
	0.0001486249	3.536721e-22	0.0001068107	1.636666e-22	0.03523368	5.194624e-24	0.0001067768	1.63404e-22
	0.0001067633	1.635068e-22	0.0001482523	3.504194e-22	0.0001067768	1.63404e-22	0.03524936	5.314346e-24
1e+07	0.04365997	0.01108591	0.0001035948	6.286508e-06	0.00261701	0.008128448	1.710561e-05	7.673266e-05
	0.0001035948	6.286508e-06	0.04350067	0.01123682	9.822976e-05	6.064529e-05	0.003115201	0.008211817
	0.00261701	0.008128448	9.822976e-05	6.064529e-05	0.04448999	0.01080826	5.691865e-05	4.023706e-05
	1.710561e-05	7.673266e-05	0.003115201	0.008211817	5.691865e-05	4.023706e-05	0.04313213	0.01100539
2e+07	0.05301063	0.01444955	8.09824e-05	1.898495e-05	0.006798204	0.01458193	7.026188e-05	7.548898e-05
	8.09824e-05	1.898495e-05	0.05308039	0.01472776	0.0001223751	3.343648e-05	0.007246486	0.01454701
	0.00679821	0.01458192	0.0001223751	3.343648e-05	0.0533296	0.01377146	5.988578e-05	1.08205e-05
	7.026188e-05	7.548898e-05	0.007246492	0.01454699	5.988578e-05	1.08205e-05	0.05249067	0.01454232
3e+07	0.06070437	0.0135275	7.249234e-05	2.850569e-05	0.01279174	0.01938457	0.0001087052	5.835458e-05
	7.249234e-05	2.850568e-05	0.06094835	0.01378359	0.0001394444	1.152651e-05	0.01318905	0.01931129
	0.01279173	0.01938461	0.0001394444	1.152652e-05	0.06064181	0.01284429	6.101957e-05	-3.334329e-06
	0.0001087052	5.835458e-05	0.01318904	0.01931134	6.101957e-05	-3.334332e-06	0.06022175	0.01373924
4e+07	0.06678848	0.01040573	6.466033e-05	2.982291e-05	0.02001641	0.02193674	0.0001353842	3.206372e-05
	6.466032e-05	2.982291e-05	0.06717018	0.01058484	0.0001490345	-1.350591e-05	0.02035407	0.02184436
	0.02001642	0.02193676	0.0001490345	-1.350591e-05	0.06644558	0.009839057	5.939846e-05	-1.534062e-05
	0.0001353842	3.206372e-05	0.02035408	0.02184438	5.939846e-05	-1.534062e-05	0.06637924	0.01070895
5e+07	0.07137461	0.00597124	5.61895e-05	2.828952e-05	0.0277173	0.02201656	0.0001513187	4.398555e-07
	5.61895e-05	2.828952e-05	0.07186137	0.006037721	0.0001520918	-4.441617e-05	0.02798532	0.02191971
	0.02771731	0.02201656	0.0001520918	-4.441617e-05	0.07083868	0.005584383	5.538142e-05	-2.7345e-05
	0.0001513187	4.398547e-07	0.02798533	0.02191972	5.538142e-05	-2.7345e-05	0.07106364	0.00633639
6e+07	0.07453884	0.000766761	4.668009e-05	2.631435e-05	0.03511539	0.01959255	0.0001567397	-3.36504e-05
	4.668009e-05	2.631435e-05	0.07509779	0.0006944268	0.0001458844	-7.488581e-05	0.03530452	0.01950686
	0.03511539	0.01959253	0.0001458844	-7.488581e-05	0.07389038	0.0005890655	4.830964e-05	-3.749423e-05
	0.0001567397	-3.36504e-05	0.03530452	0.01950684	4.830964e-05	-3.749423e-05	0.07434223	0.001159077
7e+07	0.07640684	-0.004790523	4.703181e-05	1.240396e-05	0.04145168	0.01486711	0.0001516164	-6.763553e-05
	4.703181e-05	1.240396e-05	0.0770028	-0.005021153	0.0001304111	-0.0001026207	0.04155504	0.01481048
	0.04145168	0.0148671	0.0001304111	-0.0001026207	0.07571813	-0.00475425	3.8839e-05	-4.502982e-05
	0.0001516164	-6.763553e-05	0.04155504	0.01481048	3.8839e-05	-4.502982e-05	0.07632976	-0.004410117
8e+07	0.0771627	-0.01040951	4.489253e-05	-3.538232e-06	0.04606029	0.00825919	0.0001371282	-9.914481e-05
	4.489253e-05	-3.538232e-06	0.07775671	-0.0108119	0.0001076926	-0.0001253516	0.04607434	0.008251785
	0.04606029	0.008259192	0.0001076926	-0.0001253516	0.07649687	-0.01017244	2.79513e-05	-4.954541e-05
	0.0001371282	-9.914481e-05	0.04607435	0.008251788	2.79513e-05	-4.954541e-05	0.07719833	-0.01008136
9e+07	0.07700963	-0.01591967	3.778047e-05	-1.66582e-05	0.0484261	0.0003670077	0.0001141355	-0.0001264291
	3.778047e-05	-1.66582e-05	0.07755696	-0.01650135	7.936085e-05	-0.0001416217	0.04835226	0.0004308325
	0.04842611	0.0003670072	7.936085e-05	-0.0001416217	0.07642125	-0.01550721	1.656802e-05	-5.086391e-05
	0.0001141355	-0.0001264291	0.04835227	0.000430832	1.656802e-05	-5.086391e-05	0.07713863	-0.01568178
1e+08	0.0762023	-0.02123452	2.560591e-05	-2.594226e-05	0.04822656	-0.008088364	8.044958e-05	-0.0001489048
	2.560591e-05	-2.594226e-05	0.0766393	-0.02200292	4.497754e-05	-0.0001507168	0.04807334	-0.007929677
	0.04822656	-0.008088364	4.497754e-05	-0.0001507168	0.07575791	-0.02067676	1.057377e-05	-4.703434e-05
	8.044958e-05	-0.0001489048	0.04807334	-0.007929677	1.057377e-05	-4.703434e-05	0.07639624	-0.02112215
1.1e+08	0.07464414	-0.02674683	1.344013e-05	-2.530938e-05	0.045339	-0.0162845	4.262098e-05	-0.0001491343
	1.344013e-05	-2.530938e-05	0.07490108	-0.02760978	2.976635e-05	-0.000138549	0.04512477	-0.01601782
	0.045339	-0.0162845	2.976635e-05	-0.000138549	0.07433114	-0.02624328	7.882322e-06	-4.126466e-05
	4.262098e-05	-0.0001491343	0.04512476	-0.01601782	7.882322e-06	-4.126466e-05	0.07481135	-0.02683642
1.2e+08	0.07217346	-0.03198676	5.65448e-06	-2.339009e-05	0.03998243	-0.02338041	1.79033e-05	-0.0001420349
	5.65448e-06	-2.339009e-05	0.07226716	-0.03289634	1.762324e-05	-0.0001264951	0.03971929	-0.02299417
	0.03998243	-0.02338041	1.762324e-05	-0.0001264951	0.07190633	-0.03150049	4.755171e-06	-3.683361e-05
	1.79033e-05	-0.0001420349	0.03971929	-0.02299417	4.755171e-06	-3.683361e-05	0.0722508	-0.03219614
1.3e+08	0.06894409	-0.03689819	-9.641189e-07	-2.150855e-05	0.03255625	-0.02868833	7.025847e-06	-0.0001318429
	-9.641189e-07	-2.150855e-05	0.06888075	-0.03781984	6.224722e-06	-0.0001144661	0.03226054	-0.02817146
	0.03255625	-0.02868833	6.224722e-06	-0.0001144661	0.06870741	-0.03641331	1.29717e-06	-3.297701e-05
	7.025848e-06	-0.0001318429	0.03226054	-0.02817146	1.29717e-06	-3.297701e-05	0.06891805	-0.03718103
1.4e+08	0.06497853	-0.04142766	-6.642627e-06	-1.931858e-05	0.02364991	-0.03164675	-3.887627e-06	-0.0001211724
	-6.642627e-06	-1.931858e-05	0.06476665	-0.04232988	-3.999944e-06	-0.000102178	0.02334152	-0.03099131
	0.02364991	-0.03164675	-3.999944e-06	-0.000102178	0.06476025	-0.040944	-1.735548e-06	-2.910393e-05
	-3.887627e-06	-0.0001211724	0.02334152	-0.03099131	-1.735548e-06	-2.910393e-05	0.06483792	-0.04175574
1.5e+08	0.06026904	-0.04548746	-1.137985e-05	-1.632501e-05	0.01399785	-0.03188001	-1.427069e-05	-0.000109664
	-1.137985e-05	-1.632501e-05	0.05992138	-0.04634108	-1.286675e-05	-8.954654e-05	0.01369955	-0.03108261
	0.01399785	-0.03188001	-1.286675e-05	-8.954654e-05	0.06005271	-0.04500282	-4.366416e-06	-2.520005e-05
	-1.427069e-05	-0.000109664	0.01369955	-0.03108261	-4.366416e-06	-2.520005e-05	0.06000041	-0.04583127
1.6e+08	0.05480858	-0.04894564	-1.527096e-05	-1.267907e-05	0.004421858	-0.02923604	-2.368248e-05	-9.715216e-05
	-1.527096e-05	-1.267907e-05	0.05434272	-0.04972446	-2.025458e-05	-7.655224e-05	0.004158149	-0.0282991
	0.004421858	-0.02923604	-2.025458e-05	-7.655224e-05	0.05457795	-0.04845022	-6.609531e-06	-2.123395e-05
	-2.368248e-05	-9.715217e-05	0.004158149	-0.0282991	-6.609531e-06	-2.123395e-05	0.05440234	-0.04926869
1.7e+08	0.04861705	-0.0516268	-1.834631e-05	-8.468467e-06	-0.004235638	-0.02380503	-3.17214e-05	-8.360586e-05
	-1.834631e-05	-8.468467e-06	0.04805543	-0.05230807	-2.636856e-05	-6.318622e-05	-0.004440154	-0.02273762
	-0.004235638	-0.02380503	-2.636856e-05	-6.318622e-05	0.0483617	-0.05110321	-8.530182e-06	-1.714785e-05
	-3.17214e-05	-8.360586e-05	-0.004440154	-0.02273762	-8.530182e-06	-1.714785e-05	0.04807386	-0.05188635
1.8e+08	0.04176526	-0.05332202	-2.057808e-05	-3.767629e-06	-0.01118176	-0.01591851	-3.800394e-05	-6.911786e-05
	-2.057808e-05	-3.767629e-06	0.04113479	-0.05388789	-3.091705e-05	-4.934847e-05	-0.01130432	-0.01473677
	-0.01118176	-0.01591851	-3.091705e-05	-4.934847e-05	0.0414842	-0.05274892	-1.014379e-05	-1.285687e-05
	-3.800394e-05	-6.911786e-05	-0.01130432	-0.01473677	-1.014379e-05	-1.285687e-05	0.04110004	-0.05347295
1.9e+08	0.03439424	-0.05380673	-2.189797e-05	1.333925e-06	-0.01574108	-0.006128455	-4.217874e-05	-5.390609e-05
	-2.189797e-05	1.333925e-06	0.0337256	-0.05424523	-3.340962e-05	-3.522154e-05	-0.01576304	-0.004855268
	-0.01574108	-0.006128454	-3.340962e-05	-3.522154e-05	0.03409682	-0.05316345	-1.118811e-05	-8.360616e-06
	-4.217874e-05	-5.390609e-05	-0.01576304	-0.004855268	-1.118811e-05	-8.360616e-06	0.0336374	-0.05380764
2e+08	0.0267282	-0.05286714	-2.221919e-05	6.719115e-06	-0.01741563	0.004833283	-4.395038e-05	-3.830158e-05
	-2.221919e-05	6.719115e-06	0.02605468	-0.05317319	-3.369159e-05	-2.113293e-05	-0.01732454	0.006169305
	-0.01741563	0.004833283	-3.369159e-05	-2.113293e-05	0.02643211	-0.05213806	-1.157399e-05	-3.729458e-06
	-4.395038e-05	-3.830158e-05	-0.01732454	0.006169306	-1.157399e-05	-3.729458e-06	0.02592335	-0.05268614
2.1e+08	0.01907659	-0.05033243	-2.145417e-05	1.223359e-05	-0.01593122	0.0161109	-4.310592e-05	-2.273535e-05
	-2.145417e-05	1.223359e-05	0.01843261	-0.05050861	-3.168169e-05	-7.471101e-06	-0.01572283	0.01747723
	-0.01593122	0.0161109	-3.168169e-05	-7.471101e-06	0.01880596	-0.0495093	-1.122618e-05	9.316793e-07
	-4.310592e-05	-2.273535e-05	-0.01572283	0.01747723	-1.122618e-05	9.316793e-07	0.01827793	-0.04995088
2.2e+08	0.01182469	-0.04610599	-1.953558e-05	1.768147e-05	-0.01126679	0.02679285	-3.9542e-05	-7.71661e-06
	-1.953558e-05	1.768147e-05	0.01124406	-0.04616304	-2.739893e-05	5.327481e-06	-0.01094625	0.02815545
	-0.01126679	0.02679285	-2.739893e-05	5.327481e-06	0.01160639	-0.04519043	-1.00946e-05	5.488637e-06
	-3.9542e-05	-7.71661e-06	-0.01094625	0.02815545	-1.00946e-05	5.488637e-06	0.0110921	-0.04552233
2.3e+08	0.005412596	-0.04019601	-1.633696e-05	2.271072e-05	-0.003662904	0.03598648	-3.320713e-05	6.26322e-06
	-1.633696e-05	2.271072e-05	0.004926511	-0.04015283	-2.08964e-05	1.687873e-05	-0.003245273	0.03731263
	-0.003662904	0.03598649	-2.08964e-05	1.687873e-05	0.005272408	-0.03919908	-8.166922e-06	9.783915e-06
	-3.320713e-05	6.26322e-06	-0.003245273	0.03731263	-8.166922e-06	9.783915e-06	0.004806023	-0.03942638
2.4e+08	0.0003035502	-0.03273792	-1.202572e-05	2.737781e-05	0.006391914	0.04289218	-2.430938e-05	1.852543e-05
	-1.202572e-05	2.737781e-05	-6.152608e-05	-0.03262105	-1.245976e-05	2.664212e-05	0.006882024	0.04415345
	0.006391915	0.04289218	-1.245976e-05	2.664212e-05	0.0002636768	-0.03167958	-5.461824e-06	1.365884e-05
	-2.430938e-05	1.852543e-05	0.006882024	0.04415345	-5.461824e-06	1.365884e-05	-0.0001215326	-0.03181619
2.5e+08	-0.003055507	-0.02400673	-6.595205e-06	3.140859e-05	0.01819584	0.04687173	-1.318039e-05	2.851643e-05
	-6.595205e-06	3.140859e-05	-0.003279783	-0.02384924	-2.46201e-06	3.422839e-05	0.01872558	0.0480468
	0.01819584	0.04687173	-2.46201e-06	3.422839e-05	-0.002979947	-0.0229138	-2.038629e-06	1.695075e-05
	-1.318039e-05	2.851643e-05	0.01872558	0.0480468	-2.038629e-06	1.695075e-05	-0.003254002	-0.02298249
2.6e+08	-0.004278625	-0.01441615	-1.01672e-07	3.449368e-05	0.03088681	0.04750431	-2.79426e-07	3.575608e-05
	-1.01672e-07	3.449368e-05	-0.004350693	-0.01425593	8.640965e-06	3.933873e-05	0.03141723	0.0485813
	0.03088681	0.04750431	8.640965e-06	3.933873e-05	-0.004080638	-0.01332014	2.00871e-06	1.95073e-05
	-2.79426e-07	3.575608e-05	0.03141723	0.0485813	2.00871e-06	1.95073e-05	-0.004219271	-0.0133518
2.7e+08	-0.00308489	-0.004503554	7.319765e-06	3.632066e-05	0.04350998	0.04462358	1.382092e-05	3.98612e-05
	7.319765e-06	3.632066e-05	-0.003002903	-0.004381222	2.033215e-05	4.177571e-05	0.04399875	0.04560173
	0.04350998	0.04462358	2.033215e-05	4.177571e-05	-0.002767128	-0.003437817	6.556536e-06	2.119115e-05
	1.382092e-05	3.98612e-05	0.04399875	0.04560173	6.556536e-06	2.119115e-05	-0.002754004	-0.003470077
2.8e+08	0.0006614044	0.005098696	1.544822e-05	3.658756e-05	0.05509318	0.03833566	2.845512e-05	4.056894e-05
	1.544822e-05	3.658756e-05	0.0008890926	0.005142264	3.205885e-05	4.145185e-05	0.05549784	0.03922617
	0.05509318	0.03833566	3.205885e-05	4.145185e-05	0.001086342	0.006102196	1.145213e-05	2.188185e-05
	2.845512e-05	4.056894e-05	0.05549784	0.03922617	1.145213e-05	2.188185e-05	0.001257739	0.006026954
2.9e+08	0.006919675	0.01370617	2.397446e-05	3.502196e-05	0.0647241	0.0290136	4.289035e-05	3.77575e-05
	2.397446e-05	3.502196e-05	0.007274466	0.01363229	4.325387e-05	3.839146e-05	0.0650053	0.0298396
	0.0647241	0.0290136	4.325387e-05	3.839146e-05	0.00743049	0.0146191	1.651675e-05	2.147875e-05
	4.289035e-05	3.77575e-05	0.0650053	0.0298396	1.651675e-05	2.147875e-05	0.007755467	0.01445625
3e+08	0.01545492	0.02063364	3.249875e-05	3.140303e-05	0.07162205	0.01727019	5.635548e-05	3.146067e-05
	3.249875e-05	3.140303e-05	0.01590861	0.02040829	5.335737e-05	3.273046e-05	0.07174688	0.01806577
	0.07162205	0.01727019	5.335737e-05	3.273046e-05	0.0160228	0.02143413	2.154306e-05	1.990427e-05
	5.635548e-05	3.146067e-05	0.07174688	0.01806577	2.154306e-05	1.990427e-05	0.01648469	0.02113964
3.1e+08	0.02583555	0.02525278	4.052725e-05	2.559318e-05	0.07519961	0.003912577	6.807086e-05	2.188099e-05
	4.052725e-05	2.559318e-05	0.02635131	0.02484886	6.183717e-05	2.470999e-05	0.07514456	0.004720988
	0.07519961	0.003912577	6.183717e-05	2.470999e-05	0.02642609	0.02592662	2.629212e-05	1.711136e-05
	6.807086e-05	2.188099e-05	0.07514456	0.004720988	2.629212e-05	1.711136e-05	0.02699617	0.02546021
3.2e+08	0.0374482	0.02704978	4.74911e-05	1.756815e-05	0.07510784	-0.01011853	7.728275e-05	9.397434e-06
	4.74911e-05	1.756815e-05	0.03798226	0.02644919	6.820004e-05	1.467743e-05	0.07486126	-0.009247427
	0.07510784	-0.01011853	6.820004e-05	1.467743e-05	0.0380234	0.02759284	3.04946e-05	1.309267e-05
	7.728275e-05	9.397434e-06	0.07486126	-0.009247427	3.04946e-05	1.309267e-05	0.03866153	0.02692117
3.3e+08	0.04953016	0.02567977	5.276618e-05	7.456215e-06	0.07126266	-0.02381848	8.330364e-05	-5.433703e-06
	5.276618e-05	7.456215e-06	0.05003361	0.02487519	7.201338e-05	3.077145e-06	0.07082659	-0.02283147
	0.07126266	-0.02381848	7.201338e-05	3.077145e-06	0.05005141	0.02609754	3.385108e-05	7.898376e-06
	8.330364e-05	-5.433703e-06	0.07082659	-0.02283147	3.385108e-05	7.898376e-06	0.05070755	0.02519746
3.4e+08	0.06121724	0.0210107	5.571639e-05	-4.433784e-06	0.06385217	-0.03619264	8.555382e-05	-2.188081e-05
	5.571639e-05	-4.433784e-06	0.06163856	0.02000707	7.291841e-05	-9.547323e-06	0.0632433	-0.03503688
	0.06385217	-0.03619264	7.291841e-05	-9.547323e-06	0.06164826	0.02131896	3.6044e-05	1.649214e-06
	8.555382e-05	-2.188081e-05	0.0632433	-0.03503688	3.6044e-05	1.649214e-06	0.06226483	0.02018053
3.5e+08	0.07160577	0.01315321	5.574735e-05	-1.758956e-05	0.05332286	-0.04632751	8.360861e-05	-3.906065e-05
	5.574735e-05	-1.758956e-05	0.0718936	0.01196885	7.065902e-05	-2.256862e-05	0.05257244	-0.04495456
	0.05332286	-0.04632751	7.065902e-05	-2.256862e-05	0.07191444	0.01337649	3.67522e-05	-5.443453e-06
	8.360861e-05	-3.906065e-05	0.05257244	-0.04495456	3.67522e-05	-5.443453e-06	0.07242967	0.01200553
3.6e+08	0.07982194	0.002472261	5.237149e-05	-3.1301e-05	0.04034909	-0.05345595	7.724287e-05	-5.595803e-05
	5.237149e-05	-3.1301e-05	0.07992855	0.0011394	6.509585e-05	-3.528561e-05	0.03950175	-0.05182589
	0.04034909	-0.05345595	6.509585e-05	-3.528561e-05	0.07998305	0.002643448	3.567926e-05	-1.306583e-05
	7.724287e-05	-5.595803e-05	0.03950175	-0.05182589	3.567926e-05	-1.306583e-05	0.08033532	0.001063358
3.7e+08	0.08509583	-0.01042103	4.528502e-05	-4.467199e-05	0.02578632	-0.05701135	6.647539e-05	-7.147461e-05
	4.528502e-05	-4.467199e-05	0.08498095	-0.01185652	5.623661e-05	-4.693271e-05	0.02489775	-0.05509644
	0.02578632	-0.05701135	5.623661e-05	-4.693271e-05	0.08509284	-0.01026317	3.258483e-05	-2.080113e-05
	6.647539e-05	-7.147461e-05	0.02489775	-0.05509644	3.258483e-05	-2.080113e-05	0.08522575	-0.01201076
3.8e+08	0.08683155	-0.02470025	3.44254e-05	-5.667791e-05	0.0106135	-0.05666683	5.160257e-05	-8.44876e-05
	3.44254e-05	-5.667791e-05	0.08646642	-0.02618028	4.425815e-05	-5.671666e-05	0.009746958	-0.05445463
	0.0106135	-0.05666683	4.425815e-05	-5.671666e-05	0.08665756	-0.02451315	2.732723e-05	-2.812916e-05
	5.160257e-05	-8.44876e-05	0.009746958	-0.05445463	2.732723e-05	-2.812916e-05	0.08652556	-0.02636934
3.9e+08	0.08466888	-0.03937329	2.00328e-05	-6.623199e-05	-0.004132367	-0.05236039	3.321367e-05	-9.392465e-05
	2.00328e-05	-6.623199e-05	0.0840404	-0.04083029	2.953017e-05	-6.384778e-05	-0.004910317	-0.04985581
	-0.004132367	-0.05236039	2.953017e-05	-6.384778e-05	0.08432873	-0.03911306	1.989711e-05	-3.445508e-05
	3.321367e-05	-9.392465e-05	-0.004910317	-0.04985581	1.989711e-05	-3.445508e-05	0.08390275	-0.04100445
4e+08	0.0785311	-0.0533525	2.677608e-06	-7.228095e-05	-0.01742603	-0.044301	1.219868e-05	-9.884286e-05
	2.677608e-06	-7.228095e-05	0.07764514	-0.05471377	1.263157e-05	-6.758792e-05	-0.01805045	-0.0415271
	-0.01742603	-0.044301	1.263157e-05	-6.758792e-05	0.07803998	-0.05297707	1.046236e-05	-3.914052e-05
	1.219868e-05	-9.884286e-05	-0.01805045	-0.0415271	1.046236e-05	-3.914052e-05	0.07731228	-0.05482044
4.1e+08	0.06865027	-0.06553734	-1.67469e-05	-7.391353e-05	-0.02832247	-0.03295899	-1.029238e-05	-9.85207e-05
	-1.67469e-05	-7.391353e-05	0.0675339	-0.06673061	-5.648951e-06	-6.731153e-05	-0.02873507	-0.02995635
	-0.02832247	-0.03295899	-5.648951e-06	-6.731153e-05	0.06803418	-0.06500845	-6.174061e-07	-4.15621e-05
	-1.029238e-05	-9.85207e-05	-0.02873507	-0.02995635	-6.174061e-07	-4.15621e-05	0.06702183	-0.06671736
4.2e+08	0.05556899	-0.07490235	-3.705728e-05	-7.046284e-05	-0.03602272	-0.01903913	-3.289335e-05	-9.254091e-05
	-3.705728e-05	-7.046284e-05	0.05427085	-0.07586238	-2.432905e-05	-6.257379e-05	-0.03617653	-0.01586383
	-0.03602272	-0.01903913	-2.432905e-05	-6.257379e-05	0.05486375	-0.0741888	-1.27752e-05	-4.117323e-05
	-3.289335e-05	-9.254091e-05	-0.03617653	-0.01586383	-1.27752e-05	-4.117323e-05	0.05360997	-0.07568132
4.3e+08	0.0401151	-0.08058905	-5.68591e-05	-6.160303e-05	-0.03993024	-0.003437394	-5.411641e-05	-8.085425e-05
	-5.68591e-05	-6.160303e-05	0.03870346	-0.08126451	-4.226811e-05	-5.316992e-05	-0.03979375	-0.0001577075
	-0.03993024	-0.003437394	-4.226811e-05	-5.316992e-05	0.0393641	-0.07966919	-2.525837e-05	-3.757844e-05
	-5.411641e-05	-8.085425e-05	-0.03979375	-0.0001577075	-2.525837e-05	-3.757844e-05	0.03793687	-0.08087628
4.4e+08	0.0233492	-0.08198574	-7.465436e-05	-4.741669e-05	-0.03969674	0.01281483	-7.245989e-05	-6.381758e-05
	-7.465436e-05	-4.741669e-05	0.02190764	-0.08234549	-5.823546e-05	-3.920365e-05	-0.03925699	0.01612281
	-0.03969674	0.01281483	-5.823546e-05	-3.920365e-05	0.0226016	-0.0808492	-3.717074e-05	-3.059863e-05
	-7.245989e-05	-6.381758e-05	-0.03925699	0.01612281	-3.717074e-05	-3.059863e-05	0.02108946	-0.08172247
4.5e+08	0.006490566	-0.07879145	-8.896992e-05	-2.84162e-05	-0.03525304	0.02861888	-8.651988e-05	-4.220254e-05
	-8.896992e-05	-2.84162e-05	0.005111535	-0.07882928	-7.099823e-05	-2.112493e-05	-0.0345175	0.03187625
	-0.03525304	0.02861888	-7.099823e-05	-2.112493e-05	0.005797657	-0.07744098	-4.754623e-05	-2.032024e-05
	-8.651988e-05	-4.220254e-05	-0.0345175	0.03187625	-4.754623e-05	-2.032024e-05	0.0043031	-0.07795893
4.6e+08	-0.009177407	-0.07105685	-9.848764e-05	-5.533467e-06	-0.02682126	0.04288376	-9.511647e-05	-1.715636e-05
	-9.848764e-05	-5.533467e-06	-0.01040042	-0.07079387	-7.94297e-05	2.669613e-07	-0.02581827	0.04601432
	-0.02682126	0.04288376	-7.94297e-05	2.669613e-07	-0.009765924	-0.0695089	-5.543168e-05	-7.126946e-06
	-9.511647e-05	-1.715636e-05	-0.02581827	0.04601432	-5.543168e-05	-7.126946e-06	-0.01113526	-0.0696808
4.7e+08	-0.02241122	-0.05919632	-0.000102167	1.994171e-05	-0.01490687	0.05460436	-9.739872e-05	9.873453e-06
	-0.000102167	1.994171e-05	-0.02339237	-0.05868069	-8.26159e-05	2.383937e-05	-0.01368467	0.05754013
	-0.01490687	0.05460436	-8.26159e-05	2.383937e-05	-0.02284978	-0.05748009	-5.998499e-05	8.311163e-06
	-9.739872e-05	9.873453e-06	-0.01368467	0.05754013	-5.998499e-05	8.311163e-06	-0.02399064	-0.05734676
4.8e+08	-0.0321093	-0.04396576	-9.93379e-05	4.644944e-05	-0.000269572	0.06293551	-9.29153e-05	3.722881e-05
	-9.93379e-05	4.644944e-05	-0.03277821	-0.04326961	-7.99658e-05	4.820311e-05	0.001106013	0.06562185
