!$
! Info: Touchstone file created by Circ.  Input file=Intel_C2M_200G_11p5in_202208016_staggered.circ
!$
# Hz S RI R 50
0	0.03579927	9.961419e-24	-0.0001278306	1.565473e-20	0.0003678483	1.380234e-21	-0.0001236601	1.5144e-20
	-0.0001278307	1.565475e-20	0.03525135	5.620717e-24	-0.0001347507	1.65022e-20	0.0001481966	3.502977e-22
	0.0003679118	1.381213e-21	-0.0001347508	1.650221e-20	0.03580051	1.02204e-23	-0.0001278556	1.565779e-20
	-0.0001236601	1.514399e-20	0.0001482523	3.504194e-22	-0.0001278555	1.565778e-20	0.03524936	5.314346e-24
1e+07	0.04518774	0.01030049	-0.001267728	5.754719e-05	0.002362178	0.008293749	-9.738832e-05	-0.0001049142
	-0.001267728	5.754719e-05	0.04350067	0.01123682	-0.0007311954	0.0001026756	0.003115201	0.008211817
	0.002362178	0.008293749	-0.0007311954	0.0001026756	0.04438478	0.01068528	-0.0005186085	-6.645842e-05
	-9.738832e-05	-0.0001049142	0.003115201	0.008211817	-0.0005186085	-6.645842e-05	0.04313213	0.01100539
2e+07	0.05593002	0.01213775	-0.001162869	-0.0002025671	0.0058051	0.0152409	-0.0001336033	-0.0001228646
	-0.001162869	-0.000202567	0.05308039	0.01472776	-0.0007591808	-0.0001031939	0.007246486	0.01454701
	0.005805191	0.01524079	-0.0007591808	-0.0001031938	0.05571672	0.01296964	-0.0005253392	-0.0001359485
	-0.0001336033	-0.0001228646	0.007246492	0.01454699	-0.0005253392	-0.0001359485	0.05249067	0.01454232
3e+07	0.06543083	0.008802657	-0.001142193	-0.0002936035	0.01084039	0.0208399	-0.0001848582	-0.0001459546
	-0.001142193	-0.0002936035	0.06094835	0.01378359	-0.000809174	-0.0001345294	0.01318905	0.01931129
	0.01084037	0.02083987	-0.000809174	-0.0001345294	0.06567546	0.009645274	-0.0005822202	-0.0001874616
	-0.0001848582	-0.0001459545	0.01318904	0.01931134	-0.0005822203	-0.0001874616	0.06022175	0.01373924
4e+07	0.07371088	0.00227408	-0.001160489	-0.0003110164	0.01694981	0.02481034	-0.0002482629	-0.0001545993
	-0.001160489	-0.0003110164	0.06717018	0.01058484	-0.000865532	-0.0001110887	0.02035407	0.02184436
	0.01694981	0.02481034	-0.000865532	-0.0001110887	0.07429318	0.002965739	-0.0006561281	-0.0001895304
	-0.0002482629	-0.0001545992	0.02035408	0.02184438	-0.0006561281	-0.0001895304	0.06637924	0.01070895
5e+07	0.08025944	-0.006870365	-0.001195732	-0.0002823759	0.02364487	0.02693307	-0.000320244	-0.000151108
	-0.001195732	-0.0002823759	0.07186137	0.006037721	-0.0009145123	-5.466592e-05	0.02798532	0.02191971
	0.02364487	0.02693308	-0.0009145123	-5.46659e-05	0.08105912	-0.006417549	-0.0007320419	-0.0001531067
	-0.000320244	-0.000151108	0.02798533	0.02191972	-0.0007320419	-0.0001531067	0.07106364	0.00633639
6e+07	0.08457304	-0.01796582	-0.001232504	-0.0002201786	0.03037298	0.02716416	-0.0003925602	-0.0001290567
	-0.001232504	-0.0002201786	0.07509779	0.0006944268	-0.0009493717	2.04708e-05	0.03530452	0.01950686
	0.03037298	0.02716416	-0.0009493717	2.047078e-05	0.0854707	-0.01778979	-0.0007982096	-8.654318e-05
	-0.0003925602	-0.0001290567	0.03530452	0.01950684	-0.0007982095	-8.65432e-05	0.07434223	0.001159077
7e+07	0.08631073	-0.03030225	-0.001265676	-0.00012414	0.03660039	0.02562025	-0.0004619267	-8.977184e-05
	-0.001265676	-0.00012414	0.0770028	-0.005021153	-0.0009688379	0.0001029737	0.04155504	0.01481048
	0.0366004	0.02562025	-0.0009688379	0.0001029736	0.08719367	-0.03040074	-0.0008470093	9.748573e-07
	-0.0004619267	-8.977182e-05	0.04155504	0.01481048	-0.0008470093	9.748425e-07	0.07632976	-0.004410117
8e+07	0.08529729	-0.04314702	-0.001284369	1.547409e-07	0.04185496	0.02256385	-0.0005259281	-3.469374e-05
	-0.001284369	1.547409e-07	0.07775671	-0.0108119	-0.000976617	0.0001847091	0.04607434	0.008251785
	0.04185496	0.02256385	-0.000976617	0.0001847091	0.08606658	-0.04348409	-0.0008750799	0.0001000074
	-0.0005259281	-3.469374e-05	0.04607435	0.008251788	-0.0008750799	0.0001000074	0.07719833	-0.01008136
9e+07	0.08153941	-0.05576593	-0.00127422	0.0001313044	0.04576529	0.01837953	-0.0005828286	3.483118e-05
	-0.00127422	0.0001313044	0.07755696	-0.01650135	-0.0009799788	0.0002622825	0.04835226	0.0004308325
	0.04576529	0.01837954	-0.0009799788	0.0002622825	0.08211389	-0.05627754	-0.0008834317	0.0002057187
	-0.0005828286	3.483117e-05	0.04835227	0.000430832	-0.0008834316	0.0002057187	0.07713863	-0.01568178
1e+08	0.07531451	-0.06748601	-0.001215667	0.00026062	0.04809079	0.01353382	-0.0006318093	0.000117538
	-0.001215667	0.00026062	0.0766393	-0.02200292	-0.0009881621	0.0003369489	0.04807334	-0.007929677
	0.04809079	0.01353382	-0.0009881621	0.0003369489	0.07561782	-0.06808139	-0.0008702571	0.000317653
	-0.0006318093	0.000117538	0.04807334	-0.007929677	-0.0008702571	0.000317653	0.07639624	-0.02112215
1.1e+08	0.06656531	-0.07804141	-0.001143153	0.000428562	0.04871179	0.008568238	-0.0006696554	0.0002087858
	-0.001143153	0.000428562	0.07490108	-0.02760978	-0.001000101	0.0003964099	0.04512477	-0.01601782
	0.04871179	0.008568238	-0.001000101	0.0003964099	0.06664133	-0.07852854	-0.0008456642	0.0004271118
	-0.0006696554	0.0002087858	0.04512476	-0.01601782	-0.0008456642	0.0004271117	0.07481135	-0.02683642
1.2e+08	0.05571827	-0.08622365	-0.001087109	0.0005860627	0.04774052	0.00401675	-0.0006954466	0.0003140334
	-0.001087109	0.0005860627	0.07226716	-0.03289634	-0.001020568	0.0004639221	0.03971929	-0.02299417
	0.04774052	0.004016751	-0.001020568	0.0004639221	0.0556532	-0.0865848	-0.0008231697	0.0005321586
	-0.0006954466	0.0003140334	0.03971929	-0.02299417	-0.0008231698	0.0005321586	0.0722508	-0.03219614
1.3e+08	0.04365313	-0.09164864	-0.001026926	0.0007404034	0.04540826	0.0003372297	-0.0007074691	0.00043321
	-0.001026926	0.0007404034	0.06888075	-0.03781984	-0.001050891	0.0005490228	0.03226054	-0.02817146
	0.04540826	0.00033723	-0.001050891	0.0005490228	0.04349831	-0.09187147	-0.0008000598	0.0006392722
	-0.0007074691	0.00043321	0.03226054	-0.02817146	-0.0008000599	0.0006392722	0.06891805	-0.03718103
1.4e+08	0.03119238	-0.09414923	-0.0009568717	0.0008960876	0.04207147	-0.002099128	-0.0007004003	0.0005653498
	-0.0009568717	0.0008960876	0.06476665	-0.04232988	-0.001085314	0.0006607015	0.02334152	-0.03099131
	0.04207147	-0.002099128	-0.001085314	0.0006607015	0.03099127	-0.09422709	-0.0007741069	0.0007552612
	-0.0007004003	0.0005653498	0.02334152	-0.03099131	-0.0007741069	0.0007552612	0.06483792	-0.04175574
1.5e+08	0.01914196	-0.09378086	-0.0008709682	0.001055862	0.03818061	-0.003046349	-0.0006694783	0.0007084248
	-0.0008709682	0.001055862	0.05992138	-0.04634108	-0.00111348	0.0008055245	0.01369955	-0.03108261
	0.03818061	-0.003046349	-0.00111348	0.0008055245	0.01893478	-0.09371445	-0.000739376	0.0008859901
	-0.0006694783	0.0007084248	0.01369955	-0.03108261	-0.000739376	0.0008859901	0.06000041	-0.04583127
1.6e+08	0.008245482	-0.09080952	-0.000762068	0.001219777	0.03423847	-0.002405786	-0.0006096733	0.0008586002
	-0.000762068	0.001219777	0.05434272	-0.04972446	-0.001121505	0.0009861784	0.004158149	-0.0282991
	0.03423847	-0.002405786	-0.001121505	0.0009861784	0.008068836	-0.09060695	-0.0006865304	0.00103446
	-0.0006096733	0.0008586002	0.004158149	-0.0282991	-0.0006865304	0.00103446	0.05440234	-0.04926869
1.7e+08	-0.000865249	-0.08568724	-0.0006232167	0.001383128	0.03075302	-0.0002363647	-0.0005162941	0.001010095
	-0.0006232167	0.001383128	0.04805543	-0.05230807	-0.00104877	0.001229385	-0.004440154	-0.02273762
	0.03075302	-0.0002363644	-0.00104877	0.001229385	-0.0009784637	-0.08536365	-0.0006059866	0.001198391
	-0.0005162941	0.001010095	-0.004440154	-0.02273762	-0.0006059866	0.001198391	0.04807386	-0.05188635
1.8e+08	-0.007713448	-0.07901441	-0.0004472095	0.001540421	0.02819034	0.003251721	-0.0003860161	0.001154829
	-0.0004472095	0.001540421	0.04113479	-0.05388789	-0.0009212875	0.001481689	-0.01130432	-0.01473677
	0.02819034	0.003251721	-0.0009212875	0.001481689	-0.007736109	-0.07859154	-0.0004841701	0.001372541
	-0.0003860161	0.001154829	-0.01130432	-0.01473677	-0.0004841701	0.001372541	0.04110004	-0.05347295
1.9e+08	-0.01201012	-0.07149095	-0.0002295143	0.001680967	0.02693049	0.007717137	-0.0002177275	0.001283155
	-0.0002295143	0.001680967	0.0337256	-0.05424523	-0.0007309855	0.001728842	-0.01576304	-0.004855268
	0.02693049	0.007717137	-0.0007309855	0.001728842	-0.01192129	-0.07099618	-0.0003115669	0.001544302
	-0.0002177275	0.001283155	-0.01576304	-0.004855268	-0.0003115669	0.001544302	0.0336374	-0.05380764
2e+08	-0.01367165	-0.06386104	3.025257e-05	0.00179141	0.02723155	0.01271929	-1.330963e-05	0.001384457
	3.025257e-05	0.00179141	0.02605468	-0.05317319	-0.0004663894	0.001954616	-0.01732454	0.006169305
	0.02723155	0.01271929	-0.0004663894	0.001954616	-0.01345899	-0.06332462	-8.345234e-05	0.001696629
	-1.330963e-05	0.001384457	-0.01732454	0.006169306	-8.345235e-05	0.001696629	0.02592335	-0.05268614
2.1e+08	-0.01282436	-0.05685406	0.0003278318	0.001857742	0.02920648	0.0177609	0.0002220208	0.001448346
	0.0003278318	0.001857742	0.01843261	-0.05050861	-0.0001385794	0.002135688	-0.01572283	0.01747723
	0.02920648	0.0177609	-0.0001385794	0.002135688	-0.01248294	-0.05630841	0.0001982792	0.001810443
	0.0002220208	0.001448346	-0.01572283	0.01747723	0.0001982792	0.001810443	0.01827793	-0.04995088
2.2e+08	-0.009788079	-0.05112754	0.0006535773	0.001866995	0.03281268	0.02233479	0.0004797361	0.001465808
	0.0006535773	0.001866995	0.01124406	-0.04616304	0.0002429927	0.002253688	-0.01094625	0.02815545
	0.03281268	0.02233479	0.0002429927	0.002253688	-0.009322272	-0.05060416	0.0005245657	0.001867029
	0.0004797361	0.001465808	-0.01094625	0.02815545	0.0005245657	0.001867029	0.0110921	-0.04552233
2.3e+08	-0.0050481	-0.04721636	0.000993176	0.00180942	0.03785766	0.02597126	0.0007485269	0.001430434
	0.000993176	0.00180942	0.004926511	-0.04015283	0.0006630721	0.002293231	-0.003245273	0.03731263
	0.03785766	0.02597126	0.0006630721	0.002293231	-0.004470141	-0.04674386	0.0008795239	0.001851081
	0.0007485269	0.001430434	-0.003245273	0.03731263	0.0008795239	0.001851081	0.004806023	-0.03942638
2.4e+08	0.0007880537	-0.04549269	0.001329262	0.00168006	0.04401896	0.02828192	0.001015317	0.001339286
	0.001329262	0.001680059	-6.152608e-05	-0.03262105	0.001102061	0.002243685	0.006882024	0.04415345
	0.04401896	0.02828192	0.001102061	0.002243685	0.001459065	-0.04509486	0.001242143	0.001753135
	0.001015317	0.001339286	0.006882024	0.04415345	0.001242143	0.001753135	-0.0001215326	-0.03181619
2.5e+08	0.007043217	-0.04614073	0.001643155	0.001479796	0.05087541	0.02899343	0.001266586	0.001193313
	0.001643155	0.001479796	-0.003279783	-0.02384924	0.001537707	0.00210036	0.01872558	0.0480468
	0.05087541	0.02899343	0.001537707	0.00210036	0.007782917	-0.04583448	0.001588805	0.001571335
	0.001266586	0.001193313	0.01872558	0.0480468	0.001588805	0.001571335	-0.003254002	-0.02298249
2.6e+08	0.01302613	-0.04914689	0.001917221	0.001215326	0.05794751	0.0279705	0.001489663	0.0009974149
	0.001917221	0.001215326	-0.004350693	-0.01425593	0.001947205	0.001865093	0.03141723	0.0485813
	0.05794751	0.0279705	0.001947205	0.001865093	0.01380699	-0.04894168	0.001896331	0.00131185
	0.001489663	0.0009974149	0.03141723	0.0485813	0.001896331	0.00131185	-0.004219271	-0.0133518
2.7e+08	0.01808841	-0.054308	0.002136894	0.0008984155	0.06474198	0.02522539	0.001674059	0.0007596392
	0.002136894	0.0008984155	-0.003002903	-0.004381222	0.00230922	0.001546022	0.04399875	0.04560173
	0.06474198	0.02522539	0.00230922	0.001546022	0.01888204	-0.05420473	0.002144969	0.0009881554
	0.001674059	0.0007596392	0.04399875	0.04560173	0.002144969	0.0009881554	-0.002754004	-0.003470077
2.8e+08	0.02167407	-0.06125384	0.002292208	0.0005443591	0.07079582	0.02091247	0.001812245	0.000490408
	0.002292208	0.0005443591	0.0008890926	0.005142264	0.002605821	0.001156472	0.05549784	0.03922617
	0.07079582	0.02091247	0.002605821	0.001156472	0.02245366	-0.06124504	0.002320818	0.0006192111
	0.001812245	0.000490408	0.05549784	0.03922617	0.002320818	0.0006192111	0.001257739	0.006026954
2.9e+08	0.02336007	-0.06948214	0.002378562	0.0001700233	0.07571596	0.01531161	0.001900199	0.0002011457
	0.002378562	0.0001700233	0.007274466	0.01363229	0.002823719	0.0007136839	0.0650053	0.0298396
	0.07571596	0.01531161	0.002823719	0.0007136839	0.02410282	-0.06955335	0.002417331	0.0002266763
	0.001900199	0.0002011457	0.0650053	0.0298396	0.002417331	0.0002266763	0.007755467	0.01445625
3e+08	0.02288521	-0.07840378	0.002396705	-0.0002082805	0.07921144	0.008799387	0.001937302	-9.694658e-05
	0.002396705	-0.0002082805	0.01590861	0.02040829	0.002955013	0.0002370697	0.07174688	0.01806577
	0.07921144	0.008799387	0.002955013	0.0002370697	0.02357399	-0.07853439	0.002435545	-0.0001679505
	0.001937302	-9.694658e-05	0.07174688	0.01806577	0.002435545	-0.0001679505	0.01648469	0.02113964
3.1e+08	0.02016356	-0.08739149	0.002351892	-0.0005765761	0.08111577	0.001815288	0.001925774	-0.0003940299
	0.002351892	-0.0005765761	0.02635131	0.02484886	0.00299729	-0.0002537233	0.07514456	0.004720988
	0.08111577	0.001815288	0.00299729	-0.0002537233	0.02078835	-0.08755701	0.002383246	-0.0005461127
	0.001925774	-0.0003940299	0.07514456	0.004720988	0.002383246	-0.0005461127	0.02699617	0.02546021
3.2e+08	0.01528463	-0.0958296	0.002252353	-0.0009245338	0.08139701	-0.005178698	0.001869871	-0.0006822288
	0.002252353	-0.0009245338	0.03798226	0.02644919	0.002953204	-0.0007402107	0.07486126	-0.009247427
	0.08139701	-0.005178698	0.002953204	-0.0007402107	0.01584331	-0.09600405	0.002272987	-0.0008945132
	0.001869871	-0.0006822288	0.07486126	-0.009247427	0.002272987	-0.0008945132	0.03866153	0.02692117
3.3e+08	0.008499805	-0.1031604	0.002107535	-0.001246083	0.08015646	-0.01173677	0.001774794	-0.0009561875
	0.002107535	-0.001246083	0.05003361	0.02487519	0.002829405	-0.001206766	0.07082659	-0.02283147
	0.08015646	-0.01173677	0.002829405	-0.001206766	0.008998833	-0.1033182	0.002119571	-0.001206196
	0.001774794	-0.0009561875	0.07082659	-0.02283147	0.002119571	-0.001206196	0.05070755	0.02519746
3.4e+08	0.0001984951	-0.1089243	0.001925177	-0.001541748	0.07761812	-0.01746636	0.001645732	-0.001212803
	0.001925177	-0.001541748	0.06163856	0.02000707	0.002635321	-0.001641025	0.0632433	-0.03503688
	0.07761812	-0.01746636	0.002635321	-0.001641025	0.0006513434	-0.1090429	0.001937256	-0.001480643
	0.001645732	-0.001212803	0.0632433	-0.03503688	0.001937256	-0.001480643	0.06226483	0.02018053
3.5e+08	-0.009126661	-0.1127911	0.001712537	-0.00180899	0.0741061	-0.02206049	0.001486778	-0.001451015
	0.001712537	-0.00180899	0.0718936	0.01196885	0.00238175	-0.00203479	0.05257244	-0.04495456
	0.0741061	-0.02206049	0.00238175	-0.00203479	-0.008699091	-0.112853	0.001737229	-0.001722638
	0.001486778	-0.001451015	0.05257244	-0.04495456	0.001737229	-0.001722638	0.07242967	0.01200553
3.6e+08	-0.01891794	-0.1145811	0.001473627	-0.002050134	0.07001626	-0.02532126	0.001300429	-0.001670763
	0.001473627	-0.002050134	0.07992855	0.0011394	0.002079107	-0.002383553	0.03950175	-0.05182589
	0.07001626	-0.02532126	0.002079107	-0.002383553	-0.01849027	-0.1145753	0.001525735	-0.00194043
	0.001300429	-0.001670763	0.03950175	-0.05182589	0.001525735	-0.00194043	0.08033532	0.001063358
3.7e+08	-0.02859666	-0.114274	0.001209137	-0.002267483	0.06578202	-0.02717567	0.001087196	-0.001872098
	0.001209137	-0.002267483	0.08498095	-0.01185652	0.001736414	-0.002685757	0.02489775	-0.05509644
	0.06578202	-0.02717567	0.001736414	-0.002685757	-0.02814075	-0.114198	0.001303057	-0.002143145
	0.001087196	-0.001872098	0.02489775	-0.05509644	0.001303057	-0.002143145	0.08522575	-0.01201076
3.8e+08	-0.03760626	-0.1120085	0.0009170551	-0.002461672	0.06183699	-0.02768107	0.0008459975	-0.002054019
	0.0009170551	-0.002461672	0.08646642	-0.02618028	0.001360392	-0.002941675	0.009746958	-0.05445463
	0.06183699	-0.02768107	0.001360392	-0.002941675	-0.03709287	-0.1118685	0.001063905	-0.002337923
	0.0008459975	-0.002054019	0.009746958	-0.05445463	0.001063905	-0.002337923	0.08652556	-0.02636934
3.9e+08	-0.04545394	-0.1080696	0.000593655	-0.002630436	0.05857785	-0.02702007	0.0005745903	-0.002213698
	0.000593655	-0.002630436	0.0840404	-0.04083029	0.0009550029	-0.003152116	-0.004910317	-0.04985581
	0.05857785	-0.02702007	0.0009550029	-0.003152116	-0.04485661	-0.1078802	0.0007985949	-0.002527591
	0.0005745903	-0.002213698	-0.004910317	-0.04985581	0.0007985949	-0.002527591	0.08390275	-0.04100445
4e+08	-0.05174776	-0.1028648	0.0002351474	-0.002767829	0.05632905	-0.02548506	0.0002707202	-0.002345791
	0.0002351474	-0.002767829	0.07764514	-0.05471377	0.000521671	-0.003316873	-0.01805045	-0.0415271
	0.05632905	-0.02548506	0.000521671	-0.003316873	-0.05104378	-0.1026486	0.0004953135	-0.002708798
	0.0002707202	-0.002345791	-0.01805045	-0.0415271	0.0004953135	-0.002708798	0.07731228	-0.05482044
4.1e+08	-0.05622607	-0.09689133	-0.0001604945	-0.002864243	0.05531355	-0.02345264	-6.665557e-05	-0.002442342
	-0.0001604945	-0.002864243	0.0675339	-0.06673061	6.052539e-05	-0.003433501	-0.02873507	-0.02995635
	0.05531355	-0.02345264	6.052539e-05	-0.003433501	-0.05540007	-0.09667773	0.0001432443	-0.002871323
	-6.665557e-05	-0.002442342	-0.02873507	-0.02995635	0.0001432443	-0.002871323	0.06702183	-0.06671736
4.2e+08	-0.05877815	-0.09069881	-0.0005917089	-0.002907222	0.05563082	-0.02135214	-0.0004359974	-0.002493204
	-0.0005917089	-0.002907222	0.05427085	-0.07586238	-0.0004287147	-0.003496525	-0.03617653	-0.01586383
	0.05563082	-0.02135214	-0.0004287147	-0.003496525	-0.05782288	-0.09052178	-0.0002646561	-0.002998599
	-0.0004359974	-0.002493204	-0.03617653	-0.01586383	-0.0002646561	-0.002998599	0.05360997	-0.07568132
4.3e+08	-0.05945228	-0.08484285	-0.001052054	-0.002882993	0.05724621	-0.01962453	-0.000832192	-0.002486939
	-0.001052054	-0.002882993	0.03870346	-0.08126451	-0.0009443906	-0.003497412	-0.03979375	-0.0001577075
	0.05724621	-0.01962453	-0.0009443906	-0.003497412	-0.05837104	-0.08473814	-0.0007287698	-0.003069484
	-0.000832192	-0.002486939	-0.03979375	-0.0001577075	-0.0007287698	-0.003069484	0.03793687	-0.08087628
4.4e+08	-0.05845245	-0.07984069	-0.001529476	-0.002778554	0.05999127	-0.01868309	-0.001245565	-0.002412492
	-0.001529476	-0.002778554	0.02190764	-0.08234549	-0.001481701	-0.003425209	-0.03925699	0.01612281
	0.05999127	-0.01868309	-0.001481701	-0.003425209	-0.05725824	-0.0798431	-0.001240746	-0.003061247
	-0.001245565	-0.002412492	-0.03925699	0.01612281	-0.001240746	-0.003061247	0.02108946	-0.08172247
4.5e+08	-0.05612087	-0.07612846	-0.002006621	-0.002583993	0.06357812	-0.01887284	-0.001662021	-0.002260953
	-0.002006621	-0.002583993	0.005111535	-0.07882928	-0.002031109	-0.003268102	-0.0345175	0.03187625
	0.06357812	-0.01887284	-0.002031109	-0.003268102	-0.05483671	-0.07626851	-0.001783228	-0.002953096
	-0.001662021	-0.002260953	-0.0345175	0.03187625	-0.001783228	-0.002953096	0.0043031	-0.07795893
4.6e+08	-0.05290877	-0.07402387	-0.002461908	-0.002294652	0.06762471	-0.02043664	-0.002063821	-0.002027289
	-0.002461908	-0.002294652	-0.01040042	-0.07079387	-0.002577538	-0.003015638	-0.02581827	0.04601432
	0.06762471	-0.02043664	-0.002577538	-0.003015638	-0.05156598	-0.07432493	-0.002330686	-0.002729712
	-0.002063821	-0.002027289	-0.02581827	0.04601432	-0.002330686	-0.002729712	-0.01113526	-0.0696808
4.7e+08	-0.04933698	-0.0736987	-0.002871792	-0.001912553	0.07169078	-0.02348981	-0.002430947	-0.001711923
	-0.002871792	-0.001912553	-0.02339237	-0.05868069	-0.003101005	-0.002660879	-0.01368467	0.05754013
	0.07169078	-0.02348981	-0.003101005	-0.002660879	-0.04797285	-0.07417527	-0.002851622	-0.002384747
	-0.002430947	-0.001711923	-0.01368467	0.05754013	-0.002851622	-0.002384747	-0.02399064	-0.05734676
4.8e+08	-0.04594953	-0.07516799	-0.003213174	-0.001447168	0.07532	-0.02800916	-0.002743268	-0.001321351
	-0.003213174	-0.001447168	-0.03277821	-0.04326961	-0.003577922	-0.002202463	0.001106013	0.06562185
	0.07532	-0.02800916	-0.003577922	-0.002202463	-0.04460473	-0.07582295	-0.003312411	-0.001922398
	-0.002743268	-0.001321351	0.001106013	0.06562185	-0.003312411	-0.001922398	-0.03318449	-0.04175459
4.9e+08	-0.04326787	-0.07828877	-0.003466113	-0.00091499	0.07808346	-0.03383413	-0.00298272	-0.000868152
	-0.003466113	-0.00091499	-0.03771614	-0.02562968	-0.003982931	-0.001646414	0.01757613	0.0696585
