# GHz S RI R 45
0.000     0.030819390000    0.000000000000    -0.000101674360    0.000000000000    0.001007201200    0.000000000000    -0.000115190720    0.000000000000
            -0.000101672420    0.000000000000    0.029349221000    0.000000000000    -0.000077511884    0.000000000000    0.000830182790    0.000000000000
            0.001007280500    0.000000000000    -0.000077509026    0.000000000000    0.030727678000    0.000000000000    -0.000074229547    0.000000000000
            -0.000115190170    0.000000000000    0.000830147760    0.000000000000    -0.000074232602    0.000000000000    0.029214015000    0.000000000000
0.025     0.054620007248    -0.019543053222    -0.000416593213    0.000068791993    0.002539740169    -0.000372649253    -0.000318422041    0.000054816592
            -0.000416593204    0.000068791618    0.050584295979    -0.018685069473    -0.000539074624    0.000069656929    0.003111400240    0.000412692998
            0.002539667617    -0.000372667047    -0.000539074515    0.000069656054    0.054705595373    -0.019589036439    -0.000429181274    0.000056478859
            -0.000318422048    0.000054816021    0.003111373336    0.000412696574    -0.000429181225    0.000056479233    0.050651532037    -0.018922187158
0.050     0.024500415387    0.020964883933    0.000113713843    0.000884558628    0.001027595007    0.035072321314    0.000080006494    0.000712937877
            0.000113713520    0.000884558558    0.022082233275    0.023658745070    0.000126569133    0.001111585396    -0.002135633815    0.035393464705
            0.001027654214    0.035072355595    0.000126568335    0.001111585286    0.024450833351    0.020989614923    0.000105944903    0.000895294786
            0.000080005891    0.000712937774    -0.002135656475    0.035393470351    0.000105945259    0.000895294845    0.021920702696    0.023649097832
0.075     0.067426246088    -0.015080218436    0.001160018425    -0.000015871649    0.028161222921    0.003204645917    0.000946210615    0.000003141497
            0.001160018333    -0.000015871062    0.063929368685    -0.010050410076    0.001453396175    -0.000009857066    0.028500448536    0.005005012806
            0.028161172921    0.003204598854    0.001453396081    -0.000009856082    0.067552694900    -0.015141193169    0.001171786783    -0.000009768579
            0.000946210563    0.000003142113    0.028500425625    0.005005021858    0.001171786878    -0.000009769173    0.063883634841    -0.009933556311
0.100     0.021424134593    0.027752201240    -0.000025172037    -0.001794836994    0.000098407160    0.051861295636    -0.000015861606    -0.001474301077
            -0.000025172163    -0.001794837092    0.015313729779    0.032323949571    0.000007421051    -0.002217389482    -0.008880678283    0.051484106124
            0.000098439858    0.051861354574    0.000007421863    -0.002217389379    0.021379771007    0.027780998303    -0.000015718463    -0.001801881842
            -0.000015860909    -0.001474300885    -0.008880701451    0.051484122423    -0.000015719282    -0.001801882035    0.015404355243    0.032245339032
0.125     0.089961342033    0.001415343524    -0.001822215716    0.000098455786    0.067971696919    0.010115053435    -0.001488801804    0.000073848122
            -0.001822215450    0.000098455134    0.097480337657    0.027581270161    -0.002296819294    0.000070804938    0.066623728057    0.021198220468
            0.067971679870    0.010114991360    -0.002296819218    0.000070804134    0.090036501422    0.001292984097    -0.001837009242    0.000083092005
            -0.001488801630    0.000073847593    0.066623708796    0.021198234828    -0.001837009157    0.000083091680    0.097442859004    0.027474386570
0.150     0.019563658874    0.007985701246    -0.000349004117    0.002505497961    0.001729834674    0.040821535098    -0.000279997256    0.002068478468
            -0.000349004101    0.002505498165    0.015301007201    0.014009611768    -0.000488188586    0.003085764008    -0.008807989420    0.039713641896
            0.001729832565    0.040821603248    -0.000488189394    0.003085763880    0.019420814392    0.007949099036    -0.000360515558    0.002514043753
            -0.000279997220    0.002068478473    -0.008807998517    0.039713650121    -0.000360515632    0.002514043642    0.015191860452    0.013615959211
0.175     0.116249146378    -0.007766590972    0.002567538975    -0.000121579237    0.104034346453    0.019354699873    0.002100173370    -0.000113409476
            0.002567538772    -0.000121579299    0.110113429556    0.021151097748    0.003204500559    -0.000019940470    0.097035697284    0.046096593204
            0.104034367432    0.019354641783    0.003204500164    -0.000019939685    0.116490359768    -0.007823685442    0.002580452543    -0.000090991267
            0.002100172499    -0.000113408918    0.097035676183    0.046096614317    0.002580452831    -0.000090991602    0.109987946051    0.021409098285
0.200     0.022573040002    -0.030998896122    0.000779291775    -0.002782120669    0.010077557925    0.002315559936    0.000628571439    -0.002298211377
            0.000779292747    -0.002782120397    0.029877906213    -0.020905503002    0.001041519188    -0.003457143724    0.008909917206    0.004235815917
            0.010077522500    0.002315615866    0.001041520032    -0.003457143470    0.022467036114    -0.031149378363    0.000797071529    -0.002801065910
            0.000628572295    -0.002298211039    0.008909909525    0.004235837432    0.000797071426    -0.002801065731    0.030079399263    -0.021272870021
0.225     0.119481645144    -0.006337448531    -0.003504796592    -0.000184241696    0.120940773851    0.025175345423    -0.002870940652    -0.000110023451
            -0.003504796292    -0.000184241680    0.109572371687    0.033361139609    -0.004322493947    -0.000426097178    0.106642421015    0.065728780609
            0.120940823118    0.025175305026    -0.004322493475    -0.000426097893    0.119759215607    -0.006427609087    -0.003507558000    -0.000225946990
            -0.002870940133    -0.000110023933    0.106642411837    0.065728795499    -0.003507557761    -0.000225947589    0.109536550662    0.033409527919
0.250     0.033549641952    -0.080987416831    -0.000841383880    0.002857405393    0.027078758205    -0.051331296653    -0.000672841757    0.002349388783
            -0.000841384792    0.002857404812    0.062199585551    -0.058219597920    -0.001194885778    0.003603668882    0.047341012955    -0.037950031308
            0.027078702624    -0.051331269443    -0.001194886407    0.003603668673    0.033384423670    -0.081202680327    -0.000882845656    0.002890113228
            -0.000672842495    0.002349388259    0.047341006269    -0.037950002876    -0.000882844706    0.002890113727    0.062453988680    -0.058763236662
0.275     0.095256005666    -0.011129975510    0.004182810807    0.001044459748    0.109585453917    0.017391688359    0.003444705089    0.000792637079
            0.004182810940    0.001044459626    0.085317377063    0.027811149736    0.005113149189    0.001522975401    0.092480946300    0.062135404889
            0.109585506395    0.017391676688    0.005113149013    0.001522975640    0.095466831136    -0.011171978044    0.004179527369    0.001091776102
            0.003444704964    0.000792637621    0.092480943756    0.062135426607    0.004179527369    0.001091776102    0.084904359325    0.028010424839
0.300     0.044015296604    -0.122070636761    0.000705107004    -0.003363669213    0.046894851786    -0.100933471396    0.000541788125    -0.002755609263
            0.000705107623    -0.003363668367    0.098473838130    -0.081972043757    0.001155676674    -0.004229182540    0.093934672751    -0.066659788822
            0.046894792272    -0.100933476993    0.001155682447    -0.004229176090    0.043963312411    -0.122452644224    0.000781087657    -0.003397494091
            0.000541788827    -0.002755608513    0.093934678557    -0.066659763361    0.000781087494    -0.003397493924    0.099022644215    -0.082405394578
0.325     0.045479746859    -0.027038749106    -0.004212425936    -0.002089331066    0.075284854350    0.000934980587    -0.003494130677    -0.001652118675
            -0.004212426295    -0.002089331243    0.046104393212    -0.004604549013    -0.005123201777    -0.002810652170    0.060628564537    0.038535529619
            0.075284912065    0.000935003921    -0.005123201952    -0.002810652266    0.045632321162    -0.027128203310    -0.004210611462    -0.002146800551
            -0.003494130949    -0.001652118803    0.060628570154    0.038535559930    -0.004210611284    -0.002146800460    0.045773331770    -0.004764705357
0.350     0.044674652725    -0.139453837933    -0.001055645128    0.004341077632    0.058023035141    -0.129742870882    -0.000797231169    0.003559780445
            -0.001055645081    0.004341077438    0.117208043292    -0.081722374006    -0.001711969795    0.005360504927    0.127487318523    -0.072923778359
            0.058022993488    -0.129742911419    -0.001711968799    0.005360505035    0.044623734594    -0.139923518404    -0.001165845038    0.004363019202
            -0.000797231147    0.003559780347    0.127487346982    -0.072923688326    -0.001165845671    0.004363018515    0.117821866540    -0.082334140919
0.375     -0.011117695291    -0.070394824488    0.003713068784    0.002501912037    0.002584693250    -0.021450518079    0.003075584044    0.002008004672
            0.003713068858    0.002501912464    0.027706986689    -0.069541025815    0.004634616320    0.003325733787    0.015509766986    -0.018437130361
            0.002584734306    -0.021450464785    0.004634616366    0.003325734066    -0.010846851116    -0.070357625600    0.003751257364    0.002569862617
            0.003075584107    0.002008004942    0.015509766664    -0.018437129325    0.003751256900    0.002569862588    0.027200529711    -0.069904957930
0.400     0.030285553177    -0.128153261106    0.002247262332    -0.005173114118    0.052303521558    -0.129401427657    0.001741256186    -0.004277752215
            0.002247262462    -0.005173114170    0.106697077294    -0.063101410647    0.003240679939    -0.006265921760    0.131576208218    -0.058654089305
            0.052303526075    -0.129401425831    0.003240679985    -0.006265921849    0.030246704490    -0.128604074815    0.002381735222    -0.005183479326
            0.001741256223    -0.004277752308    0.131576264362    -0.058654012480    0.002381735180    -0.005183479235    0.107481157408    -0.063344014423
0.425     -0.074661923870    -0.080613543917    -0.003673033872    -0.002366399343    -0.060145761567    -0.056047081254    -0.003045261134    -0.001875704951
            -0.003673033375    -0.002366399930    -0.005689371090    -0.120500063872    -0.004596768878    -0.003324403545    -0.005820952714    -0.086728510211
            -0.060145753602    -0.056047014993    -0.004596764693    -0.003324405406    -0.074679689666    -0.080837241330    -0.003738006610    -0.002472599842
            -0.003045261134    -0.001875704951    -0.005820955674    -0.086728509010    -0.003738006875    -0.002472599079    -0.006174072849    -0.121346504055
0.450     -0.004575573208    -0.086314688676    -0.003897926358    0.005060223070    0.026421345762    -0.096188586201    -0.003103587999    0.004243381630
            -0.003897925719    0.005060224067    0.056780708379    -0.035663614931    -0.005233971168    0.006036651680    0.095966619206    -0.031293957663
            0.026421360061    -0.096188657978    -0.005233970245    0.006036652745    -0.004700861084    -0.086811258501    -0.004045237535    0.005068370245
            -0.003103587436    0.004243382414    0.095966628713    -0.031293960764    -0.004045237473    0.005068370167    0.057455370188    -0.036038267863
0.475     -0.111393444558    -0.093636768889    0.004615477995    0.002520634699    -0.106667656910    -0.080134785627    0.003833031953    0.001959305511
            0.004615477732    0.002520634764    -0.002202995160    -0.156927197580    0.005690686674    0.003699146746    -0.006840804527    -0.139119653204
            -0.106667676887    -0.080134742387    0.005690686377    0.003699146835    -0.111509825428    -0.093860482974    0.004704562224    0.002673745420
            0.003833031706    0.001959305554    -0.006840766633    -0.139119625032    0.004704562357    0.002673745387    -0.002870506974    -0.158168534580
0.500     -0.056240136874    -0.024928152303    0.004759238971    -0.003925474707    -0.021217951740    -0.036604168500    0.003844158988    -0.003320859547
            0.004759239288    -0.003925475108    -0.025700913615    -0.017579268260    0.006255052923    -0.004686451339    0.019748856724    -0.008747801958
            -0.021217905276    -0.036604220863    0.006255053565    -0.004686451649    -0.056449122020    -0.025359164342    0.004910857039    -0.003943779916
            0.003844159099    -0.003320859877    0.019748856876    -0.008747801613    0.004910855674    -0.003943787844    -0.025292022237    -0.017635330733
0.525     -0.121129632675    -0.080148905320    -0.005643398308    -0.003757935247    -0.128005671993    -0.080219436499    -0.004740779042    -0.002920180721
            -0.005643397809    -0.003757934915    0.008971232014    -0.153621560783    -0.006785856257    -0.005350280962    0.002805685669    -0.156241600686
            -0.128005725416    -0.080219407747    -0.006785856336    -0.005350281024    -0.121232536570    -0.080330977742    -0.005755186450    -0.003959387484
            -0.004740778701    -0.002920180512    0.002805729120    -0.156241589904    -0.005755190468    -0.003959387288    0.008680370387    -0.155156113523
0.550     -0.115388046749    0.036813173886    -0.004197664391    0.003289561869    -0.081359908803    0.029196765472    -0.003356483981    0.002776006765
            -0.004197665437    0.003289561506    -0.116069697574    -0.024747863852    -0.005667972350    0.003992666805    -0.073200176564    -0.010093564430
            -0.081359855153    0.029196746219    -0.005667973455    0.003992666104    -0.115697127253    0.036329610948    -0.004338201602    0.003342036358
            -0.003356484598    0.002776007275    -0.073200172601    -0.010093563883    -0.004338201019    0.003342037115    -0.116007003865    -0.025138448768
0.575     -0.101656824365    -0.037593855872    0.005589236417    0.005746555771    -0.124291358142    -0.040280912874    0.004805061375    0.004560590451
            0.005589236648    0.005746555406    0.017927110782    -0.105769940164    0.006536922195    0.007825122986    0.007444849430    -0.127194237775
            -0.124291422249    -0.040280909679    0.006536922468    0.007825122757    -0.101831943165    -0.037615407109    0.005722889902    0.006021887215
            0.004805061469    0.004560590061    0.007444941033    -0.127194242431    0.005722889761    0.006021887488    0.017479984320    -0.107574687242
0.600     -0.159011410299    0.083162306018    0.003701591999    -0.004161551850    -0.130962596565    0.083714177210    0.002869767221    -0.003501104314
            0.003701592229    -0.004161551377    -0.179334116195    -0.048889132683    0.005242771523    -0.005051060145    -0.146845656538    -0.029708909030
            -0.130962542066    0.083714206767    0.005242771787    -0.005051059871    -0.159309301041    0.082690659534    0.003828415956    -0.004277545273
            0.002869767400    -0.003501103908    -0.146845656538    -0.029708909030    0.003828415666    -0.004277545399    -0.179799292298    -0.049254547107
0.625     -0.067409090642    0.041549404323    -0.003997099625    -0.007147391500    -0.088941857417    0.008990425896    -0.003539657659    -0.005806081548
            -0.003997099771    -0.007147391762    -0.009485934539    -0.015020014326    -0.004499947508    -0.009340886403    0.012330497854    -0.057496182682
            -0.088941884854    0.008990412988    -0.004499947508    -0.009340886403    -0.067787529634    0.042161231025    -0.004089346890    -0.007442733936
            -0.003539658828    -0.005806081186    0.012330496686    -0.057496187023    -0.004089346793    -0.007442733760    -0.009997995000    -0.016737243523
0.650     -0.167114132592    0.110321578216    -0.004521226039    0.005527259023    -0.152363998134    0.121222500945    -0.003429814569    0.004695012029
            -0.004521226039    0.005527259023    -0.198964756151    -0.065218863532    -0.006425015168    0.006589921530    -0.184200622336    -0.048254552582
            -0.152363976977    0.121222527538    -0.006425014819    0.006589921172    -0.167288469928    0.109773292517    -0.004651597104    0.005734136407
            -0.003429814569    0.004695012029    -0.184200630758    -0.048254520433    -0.004651597293    0.005734136640    -0.199695052809    -0.066036328644
0.675     -0.024146759954    0.122460817566    0.001993663708    0.006604573398    -0.030206539336    0.090105015440    0.001802979149    0.005378625663
            0.001993663478    0.006604573885    -0.036700960645    0.082983074020    0.002191018980    0.008671346595    -0.013763072006    0.048981769623
            -0.030206598745    0.090104983923    0.002191018800    0.008671347156    -0.024137632001    0.122763992351    0.002051703905    0.006861975791
            0.001802979212    0.005378625853    -0.013763069572    0.048981760959    0.002051704389    0.006861975229    -0.037284405094    0.081161117739
0.700     -0.140422282730    0.116696919062    0.006659722088    -0.006195791023    -0.140890494989    0.137458554048    0.005110993714    -0.005430144148
            0.006659722852    -0.006195791083    -0.177797301586    -0.066184258636    0.009109281812    -0.007147115341    -0.181971871443    -0.056404400659
            -0.140890494989    0.137458554048    0.009109282723    -0.007147115800    -0.140323147644    0.116143622046    0.006827929840    -0.006498955250
            0.005110994314    -0.005430144407    -0.181971871443    -0.056404400659    0.006827929364    -0.006498955024    -0.179048398201    -0.066956311464
0.725     0.020860064971    0.200941181175    -0.002093873192    -0.004915788859    0.011872043180    0.171119040009    -0.001827818798    -0.003883819999
            -0.002093872177    -0.004915788856    -0.094694274337    0.166807016412    -0.002331130592    -0.006706824381    -0.069951290480    0.134944531445
            0.011872047769    0.171119019643    -0.002331126128    -0.006706822863    0.020479612949    0.201233615890    -0.002154818636    -0.005055742420
            -0.001827818670    -0.003883819727    -0.069951290480    0.134944531445    -0.002154818518    -0.005055742144    -0.095453454924    0.165287393084
0.750     -0.075304393249    0.100354425319    -0.009436142526    0.004790194102    -0.093485205044    0.125783292309    -0.007535937811    0.004482250853
            -0.009436137120    0.004790189287    -0.114235210798    -0.042953302614    -0.012297229377    0.005191611807    -0.133585051527    -0.048273141399
            -0.093485218882    0.125783356781    -0.012297228456    0.005191611418    -0.074876652376    0.099707381082    -0.009700341009    0.005142330211
            -0.007535938155    0.004482251058    -0.133584989612    -0.048273224463    -0.009700341009    0.005142330211    -0.115641108973    -0.043833639766
0.775     0.042713894261    0.245844323945    0.003613132745    0.004772926230    0.046333609198    0.225214991776    0.003088748706    0.003604999263
            0.003613132328    0.004772926545    -0.142521534802    0.201995387543    0.004130748739    0.006660232273    -0.118363649487    0.185070544215
            0.046333640545    0.225214964909    0.004130748401    0.006660232247    0.042223277491    0.245929781739    0.003764366704    0.004790790235
