# GHz S RI R 45
0.000     0.029180002000    0.000000000000    -0.000024656321    0.000000000000    0.000842096990    0.000000000000    -0.000027003347    0.000000000000
            -0.000024656434    0.000000000000    0.029349221000    0.000000000000    -0.000021336176    0.000000000000    0.000830182790    0.000000000000
            0.000842092030    0.000000000000    -0.000021335772    0.000000000000    0.029217914000    0.000000000000    -0.000023917199    0.000000000000
            -0.000027003467    0.000000000000    0.000830147760    0.000000000000    -0.000023913524    0.000000000000    0.029214015000    0.000000000000
0.025     0.049837544799    -0.019497938632    0.000015940692    -0.000033402254    0.002987174106    -0.000382897303    0.000024511927    0.000009287351
            0.000015940820    -0.000033402323    0.050584295979    -0.018685069473    0.000021511637    -0.000006762266    0.003111400240    0.000412692998
            0.002987173563    -0.000382897610    0.000021511664    -0.000006762231    0.049889274122    -0.019485066971    0.000026139525    0.000007409008
            0.000024511941    0.000009287384    0.003111373336    0.000412696574    0.000026139628    0.000007409018    0.050651532037    -0.018922187158
0.050     0.021900974915    0.024164595424    -0.000015793826    0.000065665488    -0.002458133834    0.035633890864    -0.000011566104    0.000052034291
            -0.000015793876    0.000065665446    0.022082233275    0.023658745070    -0.000015218431    0.000069170307    -0.002135633815    0.035393464705
            -0.002458135700    0.035633890735    -0.000015218433    0.000069170315    0.022015379412    0.024083416055    -0.000008223948    0.000071229875
            -0.000011566038    0.000052034337    -0.002135656475    0.035393470351    -0.000008223888    0.000071229891    0.021920702696    0.023649097832
0.075     0.063236780164    -0.011271918171    0.000036982188    0.000034638552    0.028631631763    0.003250873386    0.000065569361    0.000039357924
            0.000036982211    0.000034638525    0.063929368685    -0.010050410076    0.000065487459    0.000052801247    0.028500448536    0.005005012806
            0.028631631780    0.003250873236    0.000065487436    0.000052801219    0.063372052267    -0.011584756397    0.000081802127    0.000041552053
            0.000065569377    0.000039357926    0.028500425625    0.005005021858    0.000081802109    0.000041552026    0.063883634841    -0.009933556311
0.100     0.015242863853    0.033149550690    0.000014847938    0.000093590165    -0.010198412601    0.051495275426    0.000004168562    0.000065078855
            0.000014847939    0.000093590182    0.015313729779    0.032323949571    0.000014098077    0.000093940021    -0.008880678283    0.051484106124
            -0.010198412407    0.051495274445    0.000014098068    0.000093940026    0.015098236015    0.032879694490    0.000005056574    0.000089708842
            0.000004168569    0.000065078847    -0.008880701451    0.051484122423    0.000005056590    0.000089708911    0.015404355243    0.032245339032
0.125     0.096812415662    0.025202771739    0.000118264509    0.000073520570    0.066930082600    0.019530782524    0.000132001316    0.000072055358
            0.000118264551    0.000073520522    0.097480337657    0.027581270161    0.000157829369    0.000098245114    0.066623728057    0.021198220468
            0.066930083219    0.019530783972    0.000157829364    0.000098245122    0.096915530008    0.025044118314    0.000171771986    0.000083337303
            0.000132001328    0.000072055356    0.066623708796    0.021198234828    0.000171771988    0.000083337322    0.097442859004    0.027474386570
0.150     0.015146873160    0.014937512191    0.000062975394    0.000059786049    -0.010748381342    0.039222646871    0.000036368516    0.000028053042
            0.000062975396    0.000059786055    0.015301007201    0.014009611768    0.000068864192    0.000047140279    -0.008807989420    0.039713641896
            -0.010748381077    0.039222645907    0.000068864186    0.000047140283    0.015074732836    0.014516862828    0.000040386976    0.000039779609
            0.000036368520    0.000028053033    -0.008807998517    0.039713650121    0.000040386971    0.000039779597    0.015191860452    0.013615959211
0.175     0.110060746538    0.019095701058    0.000180941342    0.000088001124    0.096997616442    0.045193052869    0.000178533302    0.000098534806
            0.000180941359    0.000088001112    0.110113429556    0.021151097748    0.000223687247    0.000123455253    0.097035697284    0.046096593204
            0.096997619597    0.045193046097    0.000223687234    0.000123455256    0.110218872700    0.018802482952    0.000235073973    0.000122891713
            0.000178533313    0.000098534808    0.097035676183    0.046096614317    0.000235073967    0.000122891725    0.109987946051    0.021409098285
0.200     0.030363965596    -0.019266466180    0.000131254316    -0.000030464103    0.007449616977    0.003615237905    0.000098647108    -0.000057082268
            0.000131254307    -0.000030464096    0.029877906213    -0.020905503002    0.000157509671    -0.000062425886    0.008909917206    0.004235815917
            0.007449617355    0.003615237125    0.000157509663    -0.000062425880    0.030173994695    -0.020034053955    0.000117984987    -0.000072456674
            0.000098647113    -0.000057082280    0.008909909525    0.004235837432    0.000117985003    -0.000072456686    0.030079399263    -0.021272870021
0.225     0.110457813198    0.030157957726    0.000207098132    0.000064453586    0.105840274136    0.065349096948    0.000191301884    0.000095602391
            0.000207098083    0.000064453607    0.109572371687    0.033361139609    0.000243282591    0.000102475217    0.106642421015    0.065728780609
            0.105840272995    0.065349098796    0.000243282580    0.000102475218    0.110338606638    0.030058176707    0.000249534280    0.000127286979
            0.000191301887    0.000095602384    0.106642411837    0.065728795499    0.000249534336    0.000127286958    0.109536550662    0.033409527919
0.250     0.062632128005    -0.056383306063    0.000219516180    -0.000135524136    0.047289340370    -0.037571168757    0.000195763967    -0.000151334683
            0.000219516246    -0.000135524144    0.062199585551    -0.058219597920    0.000277744588    -0.000184023108    0.047341012955    -0.037950031308
            0.047289341153    -0.037571169379    0.000277744591    -0.000184023103    0.062714595267    -0.057226941394    0.000243246567    -0.000195394253
            0.000195763975    -0.000151334689    0.047341006269    -0.037950002876    0.000243246585    -0.000195394246    0.062453988680    -0.058763236662
0.275     0.088243631330    0.022695081253    0.000177214217    -0.000006086572    0.091665202042    0.061036366647    0.000153210397    0.000045184722
            0.000177214196    -0.000006086577    0.085317377063    0.027811149736    0.000196171448    0.000015412384    0.092480946300    0.062135404889
            0.091665202042    0.061036366647    0.000196171438    0.000015412377    0.087975731196    0.022488831773    0.000195052142    0.000068416678
            0.000153210397    0.000045184725    0.092480943756    0.062135426607    0.000195052123    0.000068416671    0.084904359325    0.028010424839
0.300     0.099435336599    -0.078509894704    0.000290336619    -0.000210317722    0.095301468880    -0.064215547601    0.000287768876    -0.000210775820
            0.000290336608    -0.000210317737    0.098473838130    -0.081972043757    0.000380068873    -0.000264223264    0.093934672751    -0.066659788822
            0.095301468880    -0.064215547601    0.000380068870    -0.000264223252    0.099636872846    -0.079536795741    0.000366966477    -0.000272166696
            0.000287768880    -0.000210775815    0.093934678557    -0.066659763361    0.000366966487    -0.000272166683    0.099022644215    -0.082405394578
0.325     0.052860653164    -0.012184498025    0.000093467213    -0.000104414151    0.061215696842    0.035496112050    0.000066676239    -0.000045601466
            0.000093467200    -0.000104414163    0.046104393212    -0.004604549013    0.000089939358    -0.000118621298    0.060628564537    0.038535529619
            0.061215696596    0.035496110480    0.000089939377    -0.000118621271    0.052128899730    -0.012476305535    0.000080179459    -0.000050404630
            0.000066676239    -0.000045601468    0.060628570154    0.038535559930    0.000080179452    -0.000050404647    0.045773331770    -0.004764705357
0.350     0.117068558701    -0.078805390659    0.000304910848    -0.000249512450    0.129172006236    -0.068330717897    0.000330118650    -0.000233157231
            0.000304910855    -0.000249512473    0.117208043292    -0.081722374006    0.000408417260    -0.000295930083    0.127487318523    -0.072923778359
            0.129172006236    -0.068330717897    0.000408417235    -0.000295930151    0.117520533257    -0.079578370479    0.000429229869    -0.000294912004
            0.000330118646    -0.000233157219    0.127487346982    -0.072923688326    0.000429229855    -0.000294912061    0.117821866540    -0.082334140919
0.375     0.037002079338    -0.076621287491    -0.000041616089    -0.000267888461    0.020581928879    -0.024456909905    -0.000062840954    -0.000216971358
            -0.000041616097    -0.000267888449    0.027706986689    -0.069541025815    -0.000062647272    -0.000337652640    0.015509766986    -0.018437130361
            0.020581929523    -0.024456910670    -0.000062647266    -0.000337652610    0.036359918198    -0.077423275859    -0.000076198187    -0.000271699034
            -0.000062840968    -0.000216971406    0.015509766664    -0.018437129325    -0.000076198181    -0.000271699015    0.027200529711    -0.069904957930
0.400     0.104547246251    -0.063124376533    0.000265569338    -0.000243977778    0.131813907658    -0.053477742136    0.000318480767    -0.000212557476
            0.000265569277    -0.000243977816    0.106697077294    -0.063101410647    0.000354360020    -0.000274227938    0.131576208218    -0.058654089305
            0.131813907658    -0.053477742136    0.000354360012    -0.000274227931    0.105059634558    -0.063832688546    0.000413538337    -0.000259319648
            0.000318480767    -0.000212557476    0.131576264362    -0.058654012480    0.000413538330    -0.000259319623    0.107481157408    -0.063344014423
0.425     0.012230735982    -0.129701572888    -0.000120993949    -0.000436681022    0.005667407810    -0.094334970532    -0.000125198439    -0.000408717403
            -0.000120993952    -0.000436681032    -0.005689371090    -0.120500063872    -0.000144585535    -0.000561940097    -0.005820952714    -0.086728510211
            0.005667411103    -0.094334970334    -0.000144585535    -0.000561940097    0.011256637553    -0.130834236935    -0.000150043209    -0.000520202169
            -0.000125198439    -0.000408717403    -0.005820955674    -0.086728509010    -0.000150043121    -0.000520202205    -0.006174072849    -0.121346504055
0.450     0.052101418150    -0.042392846828    0.000154547633    -0.000159614159    0.093059747742    -0.029260394704    0.000226272696    -0.000117238441
            0.000154547650    -0.000159614171    0.056780708379    -0.035663614931    0.000196179456    -0.000172162252    0.095966619206    -0.031293957663
            0.093059745835    -0.029260394104    0.000196179449    -0.000172162245    0.052511420915    -0.042698130712    0.000285264254    -0.000140970455
            0.000226272696    -0.000117238441    0.095966628713    -0.031293960764    0.000285264254    -0.000140970455    0.057455370188    -0.036038267863
0.475     0.017885076475    -0.164624035172    -0.000171508542    -0.000537282311    0.010561250493    -0.146227343626    -0.000149181943    -0.000539771281
            -0.000171508545    -0.000537282320    -0.002202995160    -0.156927197580    -0.000185576137    -0.000695802576    -0.006840804527    -0.139119653204
            0.010561250493    -0.146227343626    -0.000185576135    -0.000695802566    0.017308617101    -0.166151581830    -0.000168796398    -0.000692374457
            -0.000149181945    -0.000539771291    -0.006840766633    -0.139119625032    -0.000168796398    -0.000692374457    -0.002870506974    -0.158168534580
0.500     -0.031732381639    -0.034784687078    -0.000084953164    -0.000039204691    0.013908060390    -0.015453132748    -0.000011233280    0.000004682932
            -0.000084953218    -0.000039204698    -0.025700913615    -0.017579268260    -0.000119069659    -0.000045976844    0.019748856724    -0.008747801958
            0.013908056485    -0.015453134918    -0.000119069555    -0.000045976780    -0.031601423870    -0.035125615213    -0.000020795114    -0.000004514423
            -0.000011233276    0.000004682945    0.019748856876    -0.008747801613    -0.000020795153    -0.000004514432    -0.025292022237    -0.017635330733
0.525     0.027855032936    -0.160062325874    -0.000212544416    -0.000570083517    0.023276011848    -0.161737804378    -0.000159670518    -0.000604726936
            -0.000212544419    -0.000570083527    0.008971232014    -0.153621560783    -0.000217039327    -0.000727627386    0.002805685669    -0.156241600686
            0.023276017494    -0.161737803566    -0.000217039333    -0.000727627405    0.027423324517    -0.161922103789    -0.000165949314    -0.000768901158
            -0.000159670518    -0.000604726936    0.002805729120    -0.156241589904    -0.000165949305    -0.000768901119    0.008680370387    -0.155156113523
0.550     -0.119841923419    -0.054501202173    -0.000374036486    0.000005712134    -0.078430113414    -0.029545246290    -0.000317269213    0.000031728302
            -0.000374036496    0.000005712134    -0.116069697574    -0.024747863852    -0.000486704933    -0.000016334796    -0.073200176564    -0.010093564430
            -0.078430113414    -0.029545246290    -0.000486704866    -0.000016334709    -0.120206289379    -0.054805234316    -0.000405602164    0.000014020911
            -0.000317269213    0.000031728302    -0.073200172601    -0.010093563883    -0.000405602134    0.000014020910    -0.116007003865    -0.025138448768
0.575     0.030559867876    -0.111926006828    -0.000197471163    -0.000522339978    0.025820246880    -0.131360175815    -0.000116300009    -0.000582393922
            -0.000197471163    -0.000522339978    0.017927110782    -0.105769940164    -0.000198170941    -0.000643116566    0.007444849430    -0.127194237775
            0.025820246880    -0.131360175815    -0.000198170941    -0.000643116566    0.030591301023    -0.113827928366    -0.000108759834    -0.000721173760
            -0.000116300007    -0.000582393913    0.007444941033    -0.127194242431    -0.000108759819    -0.000721173743    0.017479984320    -0.107574687242
0.600     -0.178465246723    -0.087814472748    -0.000565110183    0.000019406632    -0.147895179079    -0.060858002910    -0.000533194071    0.000007211746
            -0.000565110170    0.000019406730    -0.179334116195    -0.048889132683    -0.000731498720    -0.000026884461    -0.146845656538    -0.029708909030
            -0.147895168457    -0.060858028722    -0.000731498610    -0.000026884457    -0.179122864954    -0.088589814311    -0.000682603213    -0.000035189805
            -0.000533194081    0.000007211746    -0.146845656538    -0.029708909030    -0.000682603223    -0.000035189805    -0.179799292298    -0.049254547107
0.625     -0.004428876572    -0.025195644501    -0.000090516045    -0.000341673947    0.022615927045    -0.060372686609    0.000003837262    -0.000409361486
            -0.000090516039    -0.000341673927    -0.009485934539    -0.015020014326    -0.000099057549    -0.000390793537    0.012330497854    -0.057496182682
            0.022615927397    -0.060372684341    -0.000099057551    -0.000390793547    -0.004448579403    -0.027143925800    0.000013525992    -0.000484625600
            0.000003837269    -0.000409361466    0.012330496686    -0.057496187023    0.000013525992    -0.000484625580    -0.009997995000    -0.016737243523
0.650     -0.195172438472    -0.107833971219    -0.000674507278    0.000081152093    -0.180688253444    -0.086800154289    -0.000668736915    0.000021284504
            -0.000674507288    0.000081152094    -0.198964756151    -0.065218863532    -0.000859730179    0.000020815871    -0.184200622336    -0.048254552582
            -0.180688253444    -0.086800154289    -0.000859730159    0.000020815870    -0.196202787458    -0.108937277408    -0.000848674715    -0.000045625810
            -0.000668736909    0.000021284387    -0.184200630758    -0.048254520433    -0.000848674697    -0.000045625958    -0.199695052809    -0.066036328644
0.675     -0.050064345861    0.067813898211    -0.000034379547    0.000023898288    -0.019392345276    0.043826700352    0.000047898609    -0.000034724214
            -0.000034379567    0.000023898310    -0.036700960645    0.082983074020    -0.000077761271    0.000062498431    -0.013763072006    0.048981769623
            -0.019392347704    0.043826705839    -0.000077761244    0.000062498410    -0.049998096064    0.066214074931    0.000028897426    -0.000024256376
            0.000047898621    -0.000034724251    -0.013763069572    0.048981760959    0.000028897464    -0.000024256420    -0.037284405094    0.081161117739
0.700     -0.174508868269    -0.107411060356    -0.000752942264    0.000129189200    -0.175722581796    -0.096923501187    -0.000770951538    0.000021984134
            -0.000752942264    0.000129189200    -0.177797301586    -0.066184258636    -0.000924434819    0.000070737819    -0.181971871443    -0.056404400659
            -0.175722581796    -0.096923501187    -0.000924434819    0.000070737819    -0.175588710972    -0.109016127260    -0.000947658908    -0.000061224886
            -0.000770951518    0.000021984133    -0.181971871443    -0.056404400659    -0.000947658918    -0.000061224887    -0.179048398201    -0.066956311464
0.725     -0.122264311646    0.143759078751    -0.000114473020    0.000315570006    -0.091733001520    0.120400210855    -0.000080195009    0.000270857060
            -0.000114473030    0.000315570034    -0.094694274337    0.166807016412    -0.000206404896    0.000419929609    -0.069951290480    0.134944531445
            -0.091733001520    0.120400210855    -0.000206404892    0.000419929600    -0.122614603199    0.142140588453    -0.000152790177    0.000350602560
            -0.000080195017    0.000270857089    -0.069951290480    0.134944531445    -0.000152790200    0.000350602615    -0.095453454924    0.165287393084
0.750     -0.115037967143    -0.077826897647    -0.000727880639    0.000058524121    -0.127719724234    -0.083951169008    -0.000759550545    -0.000088098621
            -0.000727880689    0.000058524125    -0.114235210798    -0.042953302614    -0.000850494354    0.000019983453    -0.133585051527    -0.048273141399
            -0.127719724234    -0.083951169008    -0.000850494317    0.000019983304    -0.116317970599    -0.079632530295    -0.000893303491    -0.000170434547
            -0.000759550555    -0.000088098622    -0.133584989612    -0.048273224463    -0.000893303521    -0.000170434391    -0.115641108973    -0.043833639766
0.775     -0.177937975687    0.170395937444    -0.000130974790    0.000469649274    -0.151243084468    0.159678253884    -0.000162537583    0.000430420613
            -0.000130974790    0.000469649274    -0.142521534802    0.201995387543    -0.000253592994    0.000607358465    -0.118363649487    0.185070544215
            -0.151243084468    0.159678253884    -0.000253592982    0.000607358438    -0.178686651597    0.168901205666    -0.000283657489    0.000547554452
