# GHz S RI R 45
0.000     0.029190852000    0.000000000000    0.000004000170    0.000000000000    0.000844696750    0.000000000000    -0.000020701375    0.000000000000
            0.000004000136    0.000000000000    0.029349221000    0.000000000000    0.000011360401    0.000000000000    0.000830182790    0.000000000000
            0.000844699060    0.000000000000    0.000011362472    0.000000000000    0.029208944000    0.000000000000    -0.000037354418    0.000000000000
            -0.000020701286    0.000000000000    0.000830147760    0.000000000000    -0.000037354557    0.000000000000    0.029214015000    0.000000000000
0.025     0.056166557167    -0.019957670440    -0.000118160808    0.000004951785    0.003056840385    0.000435334646    -0.000117987175    0.000016842824
            -0.000118160798    0.000004951785    0.050584295979    -0.018685069473    -0.000129150380    0.000006054116    0.003111400240    0.000412692998
            0.003056843276    0.000435334916    -0.000129150377    0.000006053957    0.056165874852    -0.020032370394    -0.000110922261    0.000006530083
            -0.000117987165    0.000016842823    0.003111373336    0.000412696574    -0.000110922263    0.000006530219    0.050651532037    -0.018922187158
0.050     0.024286226955    0.021354020137    0.000022503159    0.000233149285    0.000676793220    0.035661522403    0.000030274932    0.000250433256
            0.000022503196    0.000233149281    0.022082233275    0.023658745070    0.000024432491    0.000246049745    -0.002135633815    0.035393464705
            0.000676793220    0.035661522403    0.000024432394    0.000246049734    0.024126288540    0.021290758467    0.000003856312    0.000258581116
            0.000030274832    0.000250433238    -0.002135656475    0.035393470351    0.000003856339    0.000258581126    0.021920702696    0.023649097832
0.075     0.068851331875    -0.016373881099    0.000300205437    0.000000798778    0.028697882806    0.002029061644    0.000327856115    -0.000007881699
            0.000300205447    0.000000798727    0.063929368685    -0.010050410076    0.000319146028    -0.000002787354    0.028500448536    0.005005012806
            0.028697883779    0.002029062066    0.000319146000    -0.000002787171    0.068876358009    -0.016261473997    0.000355208716    0.000020994478
            0.000327856114    -0.000007881741    0.028500425625    0.005005021858    0.000355208733    0.000020994349    0.063883634841    -0.009933556311
0.100     0.020526557807    0.028208943515    -0.000002994842    -0.000460671025    -0.001311818156    0.052552249636    -0.000011400143    -0.000501656663
            -0.000002994842    -0.000460671025    0.015313729779    0.032323949571    -0.000001034732    -0.000476660987    -0.008880678283    0.051484106124
            -0.001311819048    0.052552248614    -0.000001034549    -0.000476660947    0.020606118109    0.028071558047    0.000024348497    -0.000534967748
            -0.000011400135    -0.000501656673    -0.008880701451    0.051484122423    0.000024348507    -0.000534967748    0.015404355243    0.032245339032
0.125     0.107848918374    0.007619624042    -0.000461386609    0.000022247464    0.069026533796    0.008081446350    -0.000511359565    0.000040314019
            -0.000461386619    0.000022247464    0.097480337657    0.027581270161    -0.000493465997    0.000017255236    0.066623728057    0.021198220468
            0.069026534662    0.008081447550    -0.000493465943    0.000017255062    0.107965319441    0.007482139738    -0.000567747253    -0.000004449754
            -0.000511359552    0.000040313928    0.066623708796    0.021198234828    -0.000567747273    -0.000004449754    0.097442859004    0.027474386570
0.150     0.016862640250    0.007833576483    -0.000092311869    0.000645080033    -0.001607400237    0.041002368947    -0.000084039299    0.000700585945
            -0.000092311859    0.000645080044    0.015301007201    0.014009611768    -0.000096117976    0.000666429441    -0.008807989420    0.039713641896
            -0.001607400913    0.041002367920    -0.000096118144    0.000666429376    0.016875826135    0.007496982386    -0.000124040673    0.000755248682
            -0.000084039381    0.000700585905    -0.008807998517    0.039713650121    -0.000124040596    0.000755248705    0.015191860452    0.013615959211
0.175     0.117793635914    -0.009233304431    0.000645480794    -0.000024151875    0.105111856730    0.018182844565    0.000710926010    -0.000035848732
            0.000645480774    -0.000024151881    0.110113429556    0.021151097748    0.000686443360    -0.000000914834    0.097035697284    0.046096593204
            0.105111857904    0.018182837777    0.000686443311    -0.000000914717    0.117899218364    -0.009262207341    0.000788995979    0.000023624897
            0.000710926003    -0.000035848688    0.097035676183    0.046096614317    0.000788996021    0.000023624824    0.109987946051    0.021409098285
0.200     0.017334708038    -0.032369578727    0.000211663065    -0.000721613584    0.004219930696    0.001320556890    0.000202485713    -0.000787006321
            0.000211663063    -0.000721613574    0.029877906213    -0.020905503002    0.000216362724    -0.000757914642    0.008909917206    0.004235815917
            0.004219930565    0.001320555636    0.000216362756    -0.000757914654    0.017603829291    -0.032877219011    0.000247918957    -0.000867402494
            0.000202485713    -0.000787006321    0.008909909525    0.004235837432    0.000247918964    -0.000867402461    0.030079399263    -0.021272870021
0.225     0.119884097114    -0.006097473636    -0.000881490522    -0.000042540260    0.121273276569    0.025629443672    -0.000959650350    -0.000038017118
            -0.000881490532    -0.000042540260    0.109572371687    0.033361139609    -0.000922196387    -0.000084366262    0.106642421015    0.065728780609
            0.121273276569    0.025629443672    -0.000922196178    -0.000084366567    0.120020731150    -0.006442355192    -0.001047752495    -0.000117060264
            -0.000959650110    -0.000038017612    0.106642411837    0.065728795499    -0.001047752734    -0.000117059921    0.109536550662    0.033409527919
0.250     0.024758070778    -0.083057361132    -0.000246887268    0.000734226131    0.018996164433    -0.053933134458    -0.000236366286    0.000810529458
            -0.000246887265    0.000734226122    0.062199585551    -0.058219597920    -0.000263202175    0.000796078689    0.047341012955    -0.037950031308
            0.018996164433    -0.053933134458    -0.000263202171    0.000796078680    0.024935503024    -0.083862467428    -0.000299258158    0.000921478827
            -0.000236366291    0.000810529477    0.047341006269    -0.037950002876    -0.000299258161    0.000921478837    0.062453988680    -0.058763236662
0.275     0.093805303468    -0.007733446836    0.001067951592    0.000251370720    0.106800663915    0.021167400569    0.001153008453    0.000259407018
            0.001067951874    0.000251370393    0.085317377063    0.027811149736    0.001105366831    0.000301542079    0.092480946300    0.062135404889
            0.106800664285    0.021167398705    0.001105366538    0.000301542393    0.093747669653    -0.008135254414    0.001245346878    0.000350185796
            0.001153008172    0.000259407356    0.092480943756    0.062135426607    0.001245346866    0.000350185839    0.084904359325    0.028010424839
0.300     0.034820294762    -0.125320796093    0.000212244566    -0.000836011285    0.037981475779    -0.103972162080    0.000205483287    -0.000927144532
            0.000212244564    -0.000836011275    0.098473838130    -0.081972043757    0.000258131214    -0.000920885477    0.093934672751    -0.066659788822
            0.037981475779    -0.103972162080    0.000258131214    -0.000920885477    0.035176733428    -0.126287917210    0.000302500925    -0.001062223771
            0.000205483283    -0.000927144513    0.093934678557    -0.066659763361    0.000302500330    -0.001062224356    0.099022644215    -0.082405394578
0.325     0.040268854472    -0.017894965119    -0.001099335128    -0.000534107484    0.065899165141    0.012735641569    -0.001177931029    -0.000552715600
            -0.001099335128    -0.000534107484    0.046104393212    -0.004604549013    -0.001140226480    -0.000580604716    0.060628564537    0.038535529619
            0.065899165141    0.012735641569    -0.001140226480    -0.000580604716    0.040054003278    -0.018681901519    -0.001283240436    -0.000646256020
            -0.001177931029    -0.000552715600    0.060628570154    0.038535559930    -0.001283240436    -0.000646256020    0.045773331770    -0.004764705357
0.350     0.036426431522    -0.140978235887    -0.000272776491    0.001068487401    0.050389085453    -0.131447573860    -0.000282305573    0.001174511887
            -0.000272776491    0.001068487401    0.117208043292    -0.081722374006    -0.000356966505    0.001158118609    0.127487318523    -0.072923778359
            0.050389085453    -0.131447573860    -0.000356966964    0.001158117944    0.036630131526    -0.142180984474    -0.000419068173    0.001313774337
            -0.000282305573    0.001174511887    0.127487346982    -0.072923688326    -0.000419068173    0.001313774337    0.117821866540    -0.082334140919
0.375     -0.021210968394    -0.052736491816    0.000972623133    0.000682250755    -0.007451195591    -0.006216298169    0.001047710923    0.000683563851
            0.000972623441    0.000682250490    0.027706986689    -0.069541025815    0.001043209707    0.000720606005    0.015509766986    -0.018437130361
            -0.007451194814    -0.006216299726    0.001043209694    0.000720606023    -0.021880283502    -0.053457749204    0.001187339295    0.000795806860
            0.001047710540    0.000683564071    0.015509766664    -0.018437129325    0.001187339295    0.000795806860    0.027200529711    -0.069904957930
0.400     0.025388067202    -0.125870407195    0.000538185648    -0.001304157522    0.048851630439    -0.126997508492    0.000574587110    -0.001414463870
            0.000538185633    -0.001304157420    0.106697077294    -0.063101410647    0.000649304204    -0.001378757678    0.131576208218    -0.058654089305
            0.048851630439    -0.126997508492    0.000649304204    -0.001378757678    0.025638650446    -0.126990042892    0.000739197465    -0.001540470837
            0.000574587085    -0.001414463880    0.131576264362    -0.058654012480    0.000739197465    -0.001540470837    0.107481157408    -0.063344014423
0.425     -0.088855914148    -0.061489521223    -0.000916162760    -0.000660173976    -0.074693752320    -0.036224029932    -0.001003075998    -0.000667517895
            -0.000916163153    -0.000660173773    -0.005689371090    -0.120500063872    -0.001028881872    -0.000719771365    -0.005820952714    -0.086728510211
            -0.074693752320    -0.036224029932    -0.001028881872    -0.000719771365    -0.089692305669    -0.062748420203    -0.001175088628    -0.000807256748
            -0.001003076115    -0.000667517720    -0.005820955674    -0.086728509010    -0.001175088628    -0.000807256748    -0.006174072849    -0.121346504055
0.450     -0.002096913785    -0.076275872126    -0.000965379471    0.001336742820    0.030390889740    -0.086265583509    -0.001027150258    0.001430645018
            -0.000965379471    0.001336742820    0.056780708379    -0.035663614931    -0.001073946839    0.001392571928    0.095966619206    -0.031293957663
            0.030390889740    -0.086265583509    -0.001073946839    0.001392571928    -0.002084782501    -0.077341360824    -0.001192860052    0.001544478339
            -0.001027150050    0.001430645783    0.095966628713    -0.031293960764    -0.001192859991    0.001544478259    0.057455370188    -0.036038267863
0.475     -0.126504949804    -0.072186912556    0.001109106035    0.000651776775    -0.122068501780    -0.058567990824    0.001218319699    0.000669921002
            0.001109106046    0.000651776755    -0.002202995160    -0.156927197580    0.001249636030    0.000760026602    -0.006840804527    -0.139119653204
            -0.122068501780    -0.058567990824    0.001249635298    0.000760026844    -0.127754844601    -0.073486298988    0.001402832700    0.000867251728
            0.001218319295    0.000669921112    -0.006840766633    -0.139119625032    0.001402832615    0.000867251676    -0.002870506974    -0.158168534580
0.500     -0.045156789783    -0.003833966729    0.001262748274    -0.001066824026    -0.008328964766    -0.015759571839    0.001328668014    -0.001134943301
            0.001262748255    -0.001066824048    -0.025700913615    -0.017579268260    0.001343738546    -0.001132140996    0.019748856724    -0.008747801958
            -0.008328967984    -0.015759571269    0.001343738546    -0.001132140996    -0.045233654864    -0.004456664621    0.001480218559    -0.001264140031
            0.001328667843    -0.001134944117    0.019748856876    -0.008747801613    0.001480218559    -0.001264140031    -0.025292022237    -0.017635330733
0.525     -0.132663468054    -0.059878613524    -0.001388446968    -0.000882575502    -0.139889648136    -0.059989093137    -0.001513540409    -0.000933982974
            -0.001388446968    -0.000882575502    0.008971232014    -0.153621560783    -0.001522191704    -0.001044433230    0.002805685669    -0.156241600686
            -0.139889648136    -0.059989093137    -0.001522191704    -0.001044433230    -0.133923675388    -0.061422857712    -0.001674720905    -0.001184002220
            -0.001513540331    -0.000933983291    0.002805729120    -0.156241589904    -0.001674720986    -0.001184002278    0.008680370387    -0.155156113523
0.550     -0.096873072998    0.069227771851    -0.001176900128    0.000817725044    -0.061229749787    0.060941463654    -0.001227008781    0.000876525475
            -0.001176900128    0.000817725044    -0.116069697574    -0.024747863852    -0.001243577236    0.000934678986    -0.073200176564    -0.010093564430
            -0.061229749787    0.060941463654    -0.001243577399    0.000934678769    -0.097299403846    0.068847414728    -0.001385839763    0.001054668565
            -0.001227008648    0.000876526349    -0.073200172601    -0.010093563883    -0.001385839559    0.001054670319    -0.116007003865    -0.025138448768
0.575     -0.104271849468    -0.023504107187    0.001477727139    0.001367018768    -0.124633750157    -0.030447014092    0.001597092328    0.001459939989
            0.001477727018    0.001367018752    0.017927110782    -0.105769940164    0.001576710752    0.001552485934    0.007444849430    -0.127194237775
            -0.124633750157    -0.030447014092    0.001576710752    0.001552485934    -0.105586312492    -0.025054287525    0.001709605799    0.001728002434
            0.001597092328    0.001459939989    0.007444941033    -0.127194242431    0.001709605799    0.001728002434    0.017479984320    -0.107574687242
0.600     -0.135712738945    0.122185877257    0.000993365619    -0.000926537226    -0.106191877829    0.121539050748    0.001035006461    -0.001000618665
            0.000993365692    -0.000926537294    -0.179334116195    -0.048889132683    0.001090793829    -0.001103473904    -0.146845656538    -0.029708909030
            -0.106191877829    0.121539050748    0.001090793759    -0.001103473833    -0.136320392911    0.122262239176    0.001246180576    -0.001222663662
            0.001035006397    -0.001000617869    -0.146845656538    -0.029708909030    0.001246180597    -0.001222663640    -0.179799292298    -0.049254547107
0.625     -0.052609395332    0.050828121507    -0.001149185352    -0.001819992619    -0.073483002978    0.011792051872    -0.001213166735    -0.001943244954
            -0.001149185352    -0.001819992619    -0.009485934539    -0.015020014326    -0.001205018948    -0.001980464061    0.012330497854    -0.057496182682
            -0.073483001990    0.011792051714    -0.001205018498    -0.001980464101    -0.053372057657    0.049089934925    -0.001302636335    -0.002174858854
            -0.001213166735    -0.001943244954    0.012330496686    -0.057496187023    -0.001302636335    -0.002174858854    -0.009997995000    -0.016737243523
0.650     -0.141575327628    0.149351906131    -0.001062520193    0.001239822104    -0.125623418251    0.158508446540    -0.001123991553    0.001337144728
            -0.001062520193    0.001239822104    -0.198964756151    -0.065218863532    -0.001225324885    0.001444054741    -0.184200622336    -0.048254552582
            -0.125623418251    0.158508446540    -0.001225324684    0.001444053993    -0.142462947830    0.149490871932    -0.001410636290    0.001558010304
            -0.001123991553    0.001337144728    -0.184200630758    -0.048254520433    -0.001410636223    0.001558010230    -0.199695052809    -0.066036328644
0.675     0.012052826740    0.119698069303    0.000566338062    0.001839258065    0.001888966123    0.083721731874    0.000600390460    0.001946247312
            0.000566338059    0.001839258170    -0.036700960645    0.082983074020    0.000633256747    0.001935517535    -0.013763072006    0.048981769623
            0.001888966213    0.083721735873    0.000633256350    0.001935517350    0.011578990494    0.118139641695    0.000698195661    0.002133361429
            0.000600389735    0.001946247012    -0.013763069572    0.048981760959    0.000698196058    0.002133361510    -0.037284405094    0.081161117739
0.700     -0.117171805083    0.148651416339    0.001468299571    -0.001502345187    -0.116645217829    0.167834286430    0.001572613330    -0.001603742914
            0.001468299544    -0.001502345213    -0.177797301586    -0.066184258636    0.001698063694    -0.001681748548    -0.181971871443    -0.056404400659
            -0.116645217829    0.167834286430    0.001698063431    -0.001681747819    -0.118201602585    0.148911715435    0.001920985989    -0.001771269836
            0.001572613330    -0.001603742914    -0.181971871443    -0.056404400659    0.001920985884    -0.001771269802    -0.179048398201    -0.066956311464
0.725     0.068923419266    0.192944258705    -0.000391192367    -0.001406414415    0.059073365442    0.160142707296    -0.000420423808    -0.001494601784
            -0.000391192367    -0.001406414415    -0.094694274337    0.166807016412    -0.000525615469    -0.001474209703    -0.069951290480    0.134944531445
            0.059073366108    0.160142717709    -0.000525615469    -0.001474209703    0.069105092897    0.191520625489    -0.000577656099    -0.001668667647
            -0.000420423836    -0.001494601880    -0.069951290480    0.134944531445    -0.000577656132    -0.001668667741    -0.095453454924    0.165287393084
0.750     -0.060375672672    0.115877218528    -0.002181259290    0.001360664532    -0.078227381658    0.141684751716    -0.002331198572    0.001429085897
            -0.002181259290    0.001360664532    -0.114235210798    -0.042953302614    -0.002437390343    0.001464753053    -0.133585051527    -0.048273141399
            -0.078227381658    0.141684751716    -0.002437390343    0.001464753053    -0.061664357017    0.115704632843    -0.002688288016    0.001505297912
            -0.002331198572    0.001429085897    -0.133584989612    -0.048273224463    -0.002688288103    0.001505297961    -0.115641108973    -0.043833639766
0.775     0.097499324679    0.235363254624    0.000656797231    0.001212936857    0.099045421051    0.210949490680    0.000704470139    0.001300131667
            0.000656797231    0.001212936857    -0.142521534802    0.201995387543    0.000858462704    0.001313506946    -0.118363649487    0.185070544215
            0.099045421051    0.210949490680    0.000858462704    0.001313506946    0.097911803366    0.234129056303    0.000905308980    0.001527738873
