# GHz S RI R 45
0.000     0.031022441000    0.000000000000    -0.000021249643    0.000000000000    0.000951398840    0.000000000000    -0.000013174535    0.000000000000
            -0.000021249180    0.000000000000    0.029349221000    0.000000000000    -0.000057896426    0.000000000000    0.000830182790    0.000000000000
            0.000951351830    0.000000000000    -0.000057896996    0.000000000000    0.030922546000    0.000000000000    0.000002530885    0.000000000000
            -0.000013173691    0.000000000000    0.000830147760    0.000000000000    0.000002524301    0.000000000000    0.029214015000    0.000000000000
0.025     0.057376144133    -0.019478595667    -0.000051582238    0.000012798290    0.002699910943    -0.000249302785    -0.000050970361    0.000013231092
            -0.000051582271    0.000012798049    0.050584295979    -0.018685069473    -0.000053621781    0.000034730601    0.003111400240    0.000412692998
            0.002699906080    -0.000249304337    -0.000053621787    0.000034730512    0.057173168172    -0.019368483721    -0.000079697192    0.000017419204
            -0.000050970325    0.000013230874    0.003111373336    0.000412696574    -0.000079697302    0.000017419185    0.050651532037    -0.018922187158
0.050     0.025392894241    0.019576505929    0.000021543687    0.000116302826    0.000195304114    0.034288385786    0.000021550003    0.000104040104
            0.000021543549    0.000116302821    0.022082233275    0.023658745070    0.000039536931    0.000142057613    -0.002135633815    0.035393464705
            0.000195297553    0.034288389823    0.000039536846    0.000142057606    0.025729553646    0.019618498121    0.000033667294    0.000142165638
            0.000021549750    0.000104040075    -0.002135656475    0.035393470351    0.000033667270    0.000142165634    0.021920702696    0.023649097832
0.075     0.068783193040    -0.015513772683    0.000148511695    -0.000003776744    0.027351385207    0.000039687157    0.000135691612    -0.000010039039
            0.000148511651    -0.000003776521    0.063929368685    -0.010050410076    0.000187606101    -0.000022881180    0.028500448536    0.005005012806
            0.027351383206    0.000039687929    0.000187606092    -0.000022881092    0.068688533683    -0.015955550570    0.000182316718    -0.000020320901
            0.000135691622    -0.000010038769    0.028500425625    0.005005021858    0.000182316703    -0.000020320857    0.063883634841    -0.009933556311
0.100     0.023602313009    0.025984239564    -0.000018967654    -0.000242994446    -0.002893341196    0.050688112379    -0.000017134329    -0.000207831922
            -0.000018967473    -0.000242994420    0.015313729779    0.032323949571    -0.000037037439    -0.000299912550    -0.008880678283    0.051484106124
            -0.002893345134    0.050688119165    -0.000037037348    -0.000299912542    0.023490253540    0.025979388607    -0.000024004192    -0.000267167405
            -0.000017134148    -0.000207831896    -0.008880701451    0.051484122423    -0.000024004187    -0.000267167406    0.015404355243    0.032245339032
0.125     0.107713271613    0.005453934547    -0.000219411820    0.000026220099    0.066128139265    0.005416868633    -0.000205780181    0.000023073399
            -0.000219411778    0.000026219939    0.097480337657    0.027581270161    -0.000287842402    0.000058089400    0.066623728057    0.021198220468
            0.066128143015    0.005416871845    -0.000287842383    0.000058089292    0.107725650136    0.005421747581    -0.000274205909    0.000027162531
            -0.000205780126    0.000023073175    0.066623708796    0.021198234828    -0.000274205924    0.000027162581    0.097442859004    0.027474386570
0.150     0.021979727337    0.006575414903    -0.000029561576    0.000344450283    -0.004762161565    0.039795005304    -0.000020535086    0.000292465965
            -0.000029561836    0.000344450211    0.015301007201    0.014009611768    -0.000012325464    0.000419582205    -0.008807989420    0.039713641896
            -0.004762166564    0.039795011756    -0.000012325544    0.000419582183    0.022112822869    0.006489841510    -0.000027255453    0.000372139061
            -0.000020535257    0.000292465923    -0.008807998517    0.039713650121    -0.000027255453    0.000372139051    0.015191860452    0.013615959211
0.175     0.115476663844    -0.013072655996    0.000302778886    -0.000048372640    0.101082340964    0.015738405363    0.000283739975    -0.000026906769
            0.000302778806    -0.000048372439    0.110113429556    0.021151097748    0.000392685370    -0.000067271726    0.097035697284    0.046096593204
            0.101082349883    0.015738413076    0.000392685343    -0.000067271650    0.115582566183    -0.013523744775    0.000375073473    -0.000017194290
            0.000283739887    -0.000026906529    0.097035676183    0.046096614317    0.000375073473    -0.000017194284    0.109987946051    0.021409098285
0.200     0.022444305732    -0.031460697694    0.000103047771    -0.000375116219    -0.000696271858    0.001940110298    0.000073475113    -0.000328711723
            0.000103047931    -0.000375116134    0.029877906213    -0.020905503002    0.000085978997    -0.000463598377    0.008909917206    0.004235815917
            -0.000696270948    0.001940105631    0.000085979158    -0.000463598296    0.022150912800    -0.031781650261    0.000096288855    -0.000424290796
            0.000073475268    -0.000328711637    0.008909909525    0.004235837432    0.000096288771    -0.000424290836    0.030079399263    -0.021272870021
0.225     0.118178213289    -0.013985711000    -0.000422819921    0.000040522565    0.116831071965    0.024790717699    -0.000382544469    0.000004101897
            -0.000422819856    0.000040522409    0.109572371687    0.033361139609    -0.000527793957    0.000045897904    0.106642421015    0.065728780609
            0.116831080017    0.024790727931    -0.000527793977    0.000045897906    0.118245148908    -0.013982032484    -0.000495310604    -0.000026869975
            -0.000382544380    0.000004101762    0.106642411837    0.065728795499    -0.000495310594    -0.000026869975    0.109536550662    0.033409527919
0.250     0.057359749290    -0.072363640958    -0.000124942211    0.000350239252    0.012799246790    -0.051939048034    -0.000088653032    0.000335284952
            -0.000124942432    0.000350239099    0.062199585551    -0.058219597920    -0.000090216198    0.000458202044    0.047341012955    -0.037950031308
            0.012799249988    -0.051939049306    -0.000090216200    0.000458202054    0.057612877546    -0.072843765559    -0.000125283117    0.000447279038
            -0.000088653243    0.000335284803    0.047341006269    -0.037950002876    -0.000125283117    0.000447279038    0.062453988680    -0.058763236662
0.275     0.094205097825    -0.018655596063    0.000531115576    0.000057073746    0.102613037619    0.022936152230    0.000465392309    0.000080602640
            0.000531115285    0.000057074117    0.085317377063    0.027811149736    0.000641635607    0.000069402113    0.092480946300    0.062135404889
            0.102613045377    0.022936163366    0.000641635616    0.000069402119    0.094264910751    -0.018856475313    0.000590593609    0.000140166671
            0.000465392283    0.000080602733    0.092480943756    0.062135426607    0.000590593573    0.000140166695    0.084904359325    0.028010424839
0.300     0.031086475354    -0.122954301191    0.000103767653    -0.000350359355    0.031701122002    -0.098923603210    0.000085214414    -0.000366567086
            0.000103767659    -0.000350359374    0.098473838130    -0.081972043757    0.000099915917    -0.000473796022    0.093934672751    -0.066659788822
            0.031701125054    -0.098923612733    0.000099915919    -0.000473796032    0.031011687102    -0.123725893185    0.000141581874    -0.000494539399
            0.000085214414    -0.000366567116    0.093934678557    -0.066659763361    0.000141581865    -0.000494539401    0.099022644215    -0.082405394578
0.325     0.043846999070    -0.028729024203    -0.000563317290    -0.000222026065    0.063867994037    0.017341995292    -0.000487255224    -0.000205103287
            -0.000563317327    -0.000222026079    0.046104393212    -0.004604549013    -0.000664637441    -0.000250591197    0.060628564537    0.038535529619
            0.063867997954    0.017341999946    -0.000664637450    -0.000250591200    0.043628206478    -0.028492847086    -0.000612374434    -0.000291940172
            -0.000487255242    -0.000205103295    0.060628570154    0.038535559930    -0.000612374425    -0.000291940168    0.045773331770    -0.004764705357
0.350     0.027921631534    -0.139845780487    -0.000101143898    0.000438186792    0.046900134581    -0.124862758581    -0.000112873984    0.000457486367
            -0.000101143984    0.000438186813    0.117208043292    -0.081722374006    -0.000127490910    0.000578624264    0.127487318523    -0.072923778359
            0.046900143792    -0.124862776485    -0.000127490914    0.000578624283    0.028438367452    -0.140648986557    -0.000199553587    0.000601972620
            -0.000112874501    0.000457485714    0.127487346982    -0.072923688326    -0.000199553584    0.000601972610    0.117821866540    -0.082334140919
0.375     -0.018880386448    -0.058247259363    0.000481758178    0.000354966753    -0.004930637937    0.001535613195    0.000435011042    0.000284147160
            0.000481758196    0.000354966779    0.027706986689    -0.069541025815    0.000573951338    0.000367367320    0.015509766986    -0.018437130361
            -0.004930639273    0.001535613611    0.000573951002    0.000367367529    -0.019326008274    -0.058669311322    0.000559916139    0.000385573019
            0.000435011053    0.000284147179    0.015509766664    -0.018437129325    0.000559916130    0.000385572998    0.027200529711    -0.069904957930
0.400     0.013815962917    -0.128100631594    0.000202716032    -0.000563888152    0.050402989997    -0.119636254175    0.000223092365    -0.000555193252
            0.000202716062    -0.000563888173    0.106697077294    -0.063101410647    0.000270842145    -0.000700781592    0.131576208218    -0.058654089305
            0.050402998055    -0.119636261631    0.000270842135    -0.000700781639    0.014358381792    -0.129048535601    0.000351898757    -0.000702801773
            0.000223092377    -0.000555193280    0.131576264362    -0.058654012480    0.000351898737    -0.000702801794    0.107481157408    -0.063344014423
0.425     -0.081991720289    -0.062448176142    -0.000402742275    -0.000384125335    -0.067496092544    -0.028482206386    -0.000412701352    -0.000292903439
            -0.000402741824    -0.000384125576    -0.005689371090    -0.120500063872    -0.000518291795    -0.000405936538    -0.005820952714    -0.086728510211
            -0.067496099915    -0.028482209496    -0.000518292189    -0.000405936408    -0.082786443080    -0.062616119413    -0.000540667265    -0.000409227803
            -0.000412701368    -0.000292903451    -0.005820955674    -0.086728509010    -0.000540667265    -0.000409227803    -0.006174072849    -0.121346504055
0.450     -0.012436015069    -0.082084762189    -0.000419332016    0.000623038483    0.037970777723    -0.080347490602    -0.000404410790    0.000580459631
            -0.000419332411    0.000623037662    0.056780708379    -0.035663614931    -0.000522450665    0.000731454893    0.095966619206    -0.031293957663
            0.037970784921    -0.080347494943    -0.000522450694    0.000731454934    -0.011292587241    -0.082791604401    -0.000573745163    0.000707547414
            -0.000404411157    0.000580458863    0.095966628713    -0.031293960764    -0.000573745299    0.000707547330    0.057455370188    -0.036038267863
0.475     -0.120251980130    -0.068872553882    0.000441400180    0.000379320772    -0.109692228069    -0.054930542315    0.000490553654    0.000304583935
            0.000441400222    0.000379320768    -0.002202995160    -0.156927197580    0.000588492696    0.000426779319    -0.006840804527    -0.139119653204
            -0.109692191657    -0.054930548027    0.000588492697    0.000426779335    -0.121051087279    -0.069877525831    0.000632560166    0.000449041853
            0.000490553671    0.000304583945    -0.006840766633    -0.139119625032    0.000632560166    0.000449041853    -0.002870506974    -0.158168534580
0.500     -0.050602774767    -0.013726422219    0.000626998142    -0.000528734214    0.004855067167    -0.014305618073    0.000543711810    -0.000484815693
            0.000626998174    -0.000528734222    -0.025700913615    -0.017579268260    0.000731131226    -0.000599288057    0.019748856724    -0.008747801958
            0.004855067844    -0.014305616787    0.000731131381    -0.000599287268    -0.049602400602    -0.014278825258    0.000729871246    -0.000577068719
            0.000543711832    -0.000484815729    0.019748856876    -0.008747801613    0.000729871145    -0.000577068702    -0.025292022237    -0.017635330733
0.525     -0.127953147519    -0.055801069608    -0.000558687528    -0.000466334290    -0.121727146835    -0.064651272581    -0.000606155612    -0.000413197620
            -0.000558687536    -0.000466334296    0.008971232014    -0.153621560783    -0.000721153083    -0.000569601263    0.002805685669    -0.156241600686
            -0.121727155666    -0.064651277271    -0.000721152696    -0.000569601366    -0.128968480715    -0.057104678495    -0.000749836214    -0.000606527671
            -0.000606155645    -0.000413197643    0.002805729120    -0.156241589904    -0.000749836514    -0.000606527697    0.008680370387    -0.155156113523
0.550     -0.095606326948    0.056818149543    -0.000664794977    0.000396241989    -0.045423947102    0.055417211834    -0.000526251498    0.000394811374
            -0.000664794997    0.000396241214    -0.116069697574    -0.024747863852    -0.000743824416    0.000458731485    -0.073200176564    -0.010093564430
            -0.045423951539    0.055417217247    -0.000743824391    0.000458731469    -0.094499186547    0.056799113815    -0.000705625957    0.000468648141
            -0.000526251514    0.000394811386    -0.073200172601    -0.010093563883    -0.000705625867    0.000468648258    -0.116007003865    -0.025138448768
0.575     -0.101314441749    -0.022864881356    0.000627782108    0.000687190088    -0.101359947662    -0.041620227809    0.000646744962    0.000620802359
            0.000627782081    0.000687190154    0.017927110782    -0.105769940164    0.000771369569    0.000847294679    0.007444849430    -0.127194237775
            -0.101359956913    -0.041620231607    0.000771369569    0.000847294679    -0.102080994987    -0.025095072253    0.000761572208    0.000871408845
            0.000646744529    0.000620802291    0.007444941033    -0.127194242431    0.000761572224    0.000871408832    0.017479984320    -0.107574687242
0.600     -0.130562721225    0.108904779671    0.000618064708    -0.000411382827    -0.094033216736    0.106521823230    0.000468274837    -0.000459062050
            0.000618064741    -0.000411382849    -0.179334116195    -0.048889132683    0.000686875829    -0.000503667874    -0.146845656538    -0.029708909030
            -0.094033223354    0.106521830727    0.000686875821    -0.000503667868    -0.130135309044    0.108962764937    0.000649554093    -0.000541579325
            0.000468274851    -0.000459062064    -0.146845656538    -0.029708909030    0.000649554093    -0.000541579325    -0.179799292298    -0.049254547107
0.625     -0.047853486319    0.047218867815    -0.000523775434    -0.000918123053    -0.050110087604    -0.010512015726    -0.000514359308    -0.000817936544
            -0.000523775484    -0.000918123140    -0.009485934539    -0.015020014326    -0.000594797668    -0.001125899285    0.012330497854    -0.057496182682
            -0.050110086625    -0.010512015521    -0.000594797668    -0.001125899285    -0.048480976812    0.044818523855    -0.000562367326    -0.001096238898
            -0.000514358597    -0.000817936365    0.012330496686    -0.057496187023    -0.000562367280    -0.001096238809    -0.009997995000    -0.016737243523
0.650     -0.137887445547    0.133561251757    -0.000657159940    0.000539997825    -0.123354035554    0.131091099323    -0.000523685206    0.000608416310
            -0.000657159790    0.000539997126    -0.198964756151    -0.065218863532    -0.000756790178    0.000669032114    -0.184200622336    -0.048254552582
            -0.123354049260    0.131091113889    -0.000756790178    0.000669032114    -0.137778386753    0.133884426352    -0.000736892339    0.000700169357
            -0.000523685272    0.000608416386    -0.184200630758    -0.048254520433    -0.000736892339    0.000700169357    -0.199695052809    -0.066036328644
0.675     0.013717743298    0.107294569291    0.000284731518    0.000968041745    0.017859728560    0.054439972141    0.000280946092    0.000809989545
            0.000284731124    0.000968041652    -0.036700960645    0.082983074020    0.000292804190    0.001146930990    -0.013763072006    0.048981769623
            0.017859736428    0.054439980084    0.000292803840    0.001146930873    0.014089189799    0.104133634946    0.000261978096    0.001077851564
            0.000280946059    0.000809989588    -0.013763069572    0.048981760959    0.000261978110    0.001077851458    -0.037284405094    0.081161117739
0.700     -0.119341160714    0.130387937673    0.000841774944    -0.000667347432    -0.127213349348    0.127171437144    0.000721283858    -0.000724598914
            0.000841774707    -0.000667346765    -0.177797301586    -0.066184258636    0.001003009411    -0.000804694223    -0.181971871443    -0.056404400659
            -0.127213356420    0.127171444213    0.001003009425    -0.000804694205    -0.120083183475    0.130550695664    0.000988999104    -0.000801831835
            0.000721284062    -0.000724598993    -0.181971871443    -0.056404400659    0.000988999026    -0.000801831772    -0.179048398201    -0.066956311464
0.725     0.063769191292    0.176900109690    -0.000218597583    -0.000791349436    0.063171268306    0.132167167488    -0.000251549498    -0.000608316473
            -0.000218597588    -0.000791349455    -0.094694274337    0.166807016412    -0.000218220428    -0.000920898617    -0.069951290480    0.134944531445
            0.063171274925    0.132167175408    -0.000218220433    -0.000920898636    0.064302737336    0.174203796748    -0.000206384563    -0.000837016568
            -0.000251549498    -0.000608316473    -0.069951290480    0.134944531445    -0.000206384560    -0.000837016558    -0.095453454924    0.165287393084
0.750     -0.070833235720    0.091616561499    -0.001174678028    0.000617946076    -0.101459772460    0.091029629105    -0.001045531319    0.000653076160
            -0.001174678028    0.000617946076    -0.114235210798    -0.042953302614    -0.001403530763    0.000715049174    -0.133585051527    -0.048273141399
            -0.101459795791    0.091029618075    -0.001403530976    0.000715048974    -0.072149543786    0.091787169102    -0.001370333087    0.000671378270
            -0.001045531319    0.000653076160    -0.133584989612    -0.048273224463    -0.001370332997    0.000671378226    -0.115641108973    -0.043833639766
0.775     0.087800812716    0.220002457655    0.000362398431    0.000715844949    0.084214750893    0.190584459633    0.000420167601    0.000538924825
            0.000362398459    0.000715845035    -0.142521534802    0.201995387543    0.000390472430    0.000829297398    -0.118363649487    0.185070544215
            0.084214729505    0.190584447219    0.000390472399    0.000829297369    0.088831703018    0.217517431870    0.000380163414    0.000757706015
