# GHz S RI R 45
0.000     0.029522614000    0.000000000000    -0.000032058393    0.000000000000    0.000951279390    0.000000000000    -0.000040103483    0.000000000000
            -0.000032058404    0.000000000000    0.029349221000    0.000000000000    -0.000003542629    0.000000000000    0.000830182790    0.000000000000
            0.000951270980    0.000000000000    -0.000003542586    0.000000000000    0.029336137000    0.000000000000    -0.000024010773    0.000000000000
            -0.000040103566    0.000000000000    0.000830147760    0.000000000000    -0.000024010799    0.000000000000    0.029214015000    0.000000000000
0.025     0.051318900954    -0.017582246880    0.000010033677    0.000014615461    0.001997274263    0.001398629984    0.000017418892    0.000039139532
            0.000010033671    0.000014615460    0.050584295979    -0.018685069473    0.000005632761    0.000010384806    0.003111400240    0.000412692998
            0.001997241687    0.001398636058    0.000005632757    0.000010384802    0.051240042537    -0.017723429131    0.000003117273    0.000013239668
            0.000017418901    0.000039139531    0.003111373336    0.000412696574    0.000003117283    0.000013239669    0.050651532037    -0.018922187158
0.050     0.024280846016    0.023813778820    -0.000011360880    -0.000038337569    -0.001265976333    0.035735493602    0.000010021649    -0.000037820160
            -0.000011360880    -0.000038337569    0.022082233275    0.023658745070    -0.000016502312    -0.000044867580    -0.002135633815    0.035393464705
            -0.001266007214    0.035735501514    -0.000016502293    -0.000044867480    0.023986683949    0.023774054911    -0.000006408244    -0.000044579869
            0.000010021650    -0.000037820163    -0.002135656475    0.035393470351    -0.000006408227    -0.000044579879    0.021920702696    0.023649097832
0.075     0.063783286785    -0.007337725744    -0.000015620125    0.000011164975    0.028049621972    0.005643035494    0.000000228613    0.000010090499
            -0.000015620127    0.000011164977    0.063929368685    -0.010050410076    -0.000020543173    0.000008903693    0.028500448536    0.005005012806
            0.028049591957    0.005643047793    -0.000020543203    0.000008903659    0.063692320741    -0.007144519411    -0.000026099781    0.000004216061
            0.000000228661    0.000010090477    0.028500425625    0.005005021858    -0.000026099767    0.000004216059    0.063883634841    -0.009933556311
0.100     0.022233322031    0.033816146694    -0.000009487931    -0.000062383498    -0.006302168774    0.052511150108    0.000008189833    -0.000074607935
            -0.000009487944    -0.000062383488    0.015313729779    0.032323949571    -0.000014711884    -0.000061173240    -0.008880678283    0.051484106124
            -0.006302190605    0.052511161588    -0.000014711883    -0.000061173237    0.022209941443    0.033776415597    -0.000007830620    -0.000071389850
            0.000008189795    -0.000074608014    -0.008880701451    0.051484122423    -0.000007830642    -0.000071389941    0.015404355243    0.032245339032
0.125     0.097999472831    0.026751599152    -0.000071133097    0.000009237945    0.066532807033    0.020787849668    -0.000065306434    -0.000003055133
            -0.000071133095    0.000009237945    0.097480337657    0.027581270161    -0.000070684262    0.000004887648    0.066623728057    0.021198220468
            0.066532777461    0.020787867194    -0.000070684257    0.000004887648    0.098064909947    0.026749361720    -0.000089547603    -0.000002434864
            -0.000065306428    -0.000003055133    0.066623708796    0.021198234828    -0.000089547610    -0.000002434864    0.097442859004    0.027474386570
0.150     0.026714115147    0.018363531862    -0.000007093912    -0.000045233267    -0.004616411370    0.041735936564    0.000001326518    -0.000059885093
            -0.000007093916    -0.000045233267    0.015301007201    0.014009611768    -0.000012129749    -0.000045512553    -0.008807989420    0.039713641896
            -0.004616428976    0.041735955745    -0.000012129756    -0.000045512547    0.026521095494    0.018101830646    -0.000011542563    -0.000052757963
            0.000001326525    -0.000059885102    -0.008807998517    0.039713650121    -0.000011542555    -0.000052757969    0.015191860452    0.013615959211
0.175     0.112648481818    0.015649375601    -0.000116425329    0.000003545095    0.098220487151    0.043283841113    -0.000121319721    -0.000013489011
            -0.000116425348    0.000003545136    0.110113429556    0.021151097748    -0.000112804711    -0.000005912259    0.097035697284    0.046096593204
            0.098220467424    0.043283861081    -0.000112804679    -0.000005912297    0.112623104008    0.015917171617    -0.000141364943    -0.000012023518
            -0.000121319721    -0.000013489011    0.097035676183    0.046096614317    -0.000141364953    -0.000012023519    0.109987946051    0.021409098285
0.200     0.042084986556    -0.014030520353    -0.000007983037    0.000011671893    0.013383603676    0.007069626322    -0.000010840457    0.000002241182
            -0.000007983045    0.000011671891    0.029877906213    -0.020905503002    -0.000017279436    0.000006506942    0.008909917206    0.004235815917
            0.013383590720    0.007069650848    -0.000017279438    0.000006506943    0.042295672266    -0.014349597557    -0.000022240193    0.000011303776
            -0.000010840458    0.000002241180    0.008909909525    0.004235837432    -0.000022240075    0.000011303643    0.030079399263    -0.021272870021
0.225     0.117909963163    0.020175328284    -0.000135439783    -0.000000590404    0.109880888701    0.060118435165    -0.000147897395    -0.000016411194
            -0.000135439783    -0.000000590404    0.109572371687    0.033361139609    -0.000133925841    -0.000013408111    0.106642421015    0.065728780609
            0.109880871913    0.060118465850    -0.000133925833    -0.000013408087    0.117983405061    0.020180842249    -0.000165679961    -0.000015746125
            -0.000147897395    -0.000016411194    0.106642411837    0.065728795499    -0.000165679955    -0.000015746183    0.109536550662    0.033409527919
0.250     0.068947442120    -0.052917344010    -0.000023512746    0.000088433730    0.050163194566    -0.035449840195    -0.000038187259    0.000088392977
            -0.000023512761    0.000088433724    0.062199585551    -0.058219597920    -0.000040824289    0.000079600081    0.047341012955    -0.037950031308
            0.050163183480    -0.035449802167    -0.000040824288    0.000079600079    0.069256915292    -0.053459196078    -0.000050191903    0.000099822487
            -0.000038187261    0.000088392981    0.047341006269    -0.037950002876    -0.000050191908    0.000099822496    0.062453988680    -0.058763236662
0.275     0.101960143746    0.007978874305    -0.000115126097    -0.000004596249    0.098520406757    0.053103434722    -0.000129601029    -0.000013865157
            -0.000115126097    -0.000004596249    0.085317377063    0.027811149736    -0.000118911454    -0.000016132663    0.092480946300    0.062135404889
            0.098520401196    0.053103445039    -0.000118911418    -0.000016132637    0.101700991684    0.008089602235    -0.000145109903    -0.000013413876
            -0.000129601064    -0.000013865206    0.092480943756    0.062135426607    -0.000145109903    -0.000013413876    0.084904359325    0.028010424839
0.300     0.098564115692    -0.082741162273    -0.000049890537    0.000152035049    0.094045914359    -0.066423516820    -0.000074764991    0.000161472120
            -0.000049890534    0.000152035039    0.098473838130    -0.081972043757    -0.000076105196    0.000143494096    0.093934672751    -0.066659788822
            0.094045906191    -0.066423511051    -0.000076105191    0.000143494087    0.099238993334    -0.083244104462    -0.000088524726    0.000176653865
            -0.000074764991    0.000161472120    0.093934678557    -0.066659763361    -0.000088524735    0.000176653882    0.099022644215    -0.082405394578
0.325     0.068884514312    -0.025940174319    -0.000050058743    0.000001521405    0.072447038080    0.027614042725    -0.000061070032    0.000004348607
            -0.000050058793    0.000001521354    0.046104393212    -0.004604549013    -0.000059198057    -0.000003014807    0.060628564537    0.038535529619
            0.072447036693    0.027614040748    -0.000059198010    -0.000003014804    0.068693623044    -0.026336718826    -0.000072003935    0.000006588593
            -0.000061070089    0.000004348547    0.060628570154    0.038535559930    -0.000072003958    0.000006588557    0.045773331770    -0.004764705357
0.350     0.109965675143    -0.092754015732    -0.000072426508    0.000186559300    0.124928262426    -0.076041255567    -0.000103151225    0.000202494951
            -0.000072426458    0.000186559363    0.117208043292    -0.081722374006    -0.000105345248    0.000182315440    0.127487318523    -0.072923778359
            0.124928252556    -0.076041252548    -0.000105345243    0.000182315432    0.110657192656    -0.093431240392    -0.000118657708    0.000221597792
            -0.000103151168    0.000202495014    0.127487346982    -0.072923688326    -0.000118657712    0.000221597801    0.117821866540    -0.082334140919
0.375     0.045983123031    -0.085543171000    0.000048851740    0.000037625242    0.025723634098    -0.026887413440    0.000044914745    0.000057387360
            0.000048851737    0.000037625208    0.027706986689    -0.069541025815    0.000037847058    0.000046229450    0.015509766986    -0.018437130361
            0.025723651269    -0.026887366565    0.000037847051    0.000046229445    0.045644832178    -0.086200857450    0.000042643338    0.000065950097
            0.000044914739    0.000057387363    0.015509766664    -0.018437129325    0.000042643346    0.000065950100    0.027200529711    -0.069904957930
0.400     0.094260450786    -0.087447741502    -0.000088637592    0.000185444188    0.126577876200    -0.065404191688    -0.000118635304    0.000203569105
            -0.000088637547    0.000185444343    0.106697077294    -0.063101410647    -0.000123190818    0.000187857035    0.131576208218    -0.058654089305
            0.126577875058    -0.065404193897    -0.000123190812    0.000187856955    0.095111041632    -0.087795806990    -0.000134047210    0.000224976797
            -0.000118635299    0.000203569096    0.131576264362    -0.058654012480    -0.000134047210    0.000224976797    0.107481157408    -0.063344014423
0.425     0.012420786331    -0.131819665147    0.000132550978    0.000099368607    0.004532504998    -0.093475476862    0.000134074586    0.000137416204
            0.000132550999    0.000099368579    -0.005689371090    -0.120500063872    0.000122229299    0.000122341785    -0.005820952714    -0.086728510211
            0.004532504756    -0.093475471868    0.000122229301    0.000122341782    0.012166747760    -0.133086064237    0.000141091921    0.000151992923
            0.000134074579    0.000137416197    -0.005820955674    -0.086728509010    0.000141091975    0.000151992873    -0.006174072849    -0.121346504055
0.450     0.043685476135    -0.069968207464    -0.000093285661    0.000129529647    0.089343937174    -0.042130914564    -0.000114348549    0.000144911080
            -0.000093285632    0.000129529655    0.056780708379    -0.035663614931    -0.000122485954    0.000137778388    0.095966619206    -0.031293957663
            0.089343999097    -0.042130846554    -0.000122485930    0.000137778409    0.044255758973    -0.070448445061    -0.000125955107    0.000164240641
            -0.000114348599    0.000144911143    0.095966628713    -0.031293960764    -0.000125955107    0.000164240641    0.057455370188    -0.036038267863
0.475     0.003541766576    -0.163416413691    0.000186462254    0.000158737030    0.002239113227    -0.143951846799    0.000190567938    0.000212412581
            0.000186462245    0.000158737010    -0.002202995160    -0.156927197580    0.000181385554    0.000196028866    -0.006840804527    -0.139119653204
            0.002239110714    -0.143951846838    0.000181385550    0.000196028855    0.003180606780    -0.165030623202    0.000208819834    0.000234449038
            0.000190568270    0.000212412458    -0.006840766633    -0.139119625032    0.000208819828    0.000234449031    -0.002870506974    -0.158168534580
0.500     -0.035833947818    -0.057216116289    -0.000048215632    0.000020523014    0.013242255515    -0.023926083829    -0.000050995131    0.000030557744
            -0.000048215633    0.000020523015    -0.025700913615    -0.017579268260    -0.000063964599    0.000031643131    0.019748856724    -0.008747801958
            0.013242255515    -0.023926083829    -0.000063964602    0.000031643132    -0.035591432255    -0.057442069789    -0.000053243654    0.000042688168
            -0.000050995131    0.000030557744    0.019748856876    -0.008747801613    -0.000053243655    0.000042688169    -0.025292022237    -0.017635330733
0.525     0.000906370669    -0.158979006322    0.000211620601    0.000204484753    0.011042620700    -0.159363344950    0.000214340894    0.000266611853
            0.000211620601    0.000204484753    0.008971232014    -0.153621560783    0.000214572037    0.000251616509    0.002805685669    -0.156241600686
            0.011042704159    -0.159363299071    0.000214572035    0.000251616524    0.000995114734    -0.160904742888    0.000242707382    0.000294047155
            0.000214340887    0.000266611806    0.002805729120    -0.156241589904    0.000242707700    0.000294047269    0.008680370387    -0.155156113523
0.550     -0.121573742568    -0.061907128152    0.000057080742    -0.000078117167    -0.077543151051    -0.029170389775    0.000079230262    -0.000070840647
            0.000057080742    -0.000078117170    -0.116069697574    -0.024747863852    0.000061956042    -0.000067660920    -0.073200176564    -0.010093564430
            -0.077543142628    -0.029170386606    0.000061956039    -0.000067660902    -0.121816765297    -0.062572393311    0.000092301674    -0.000070091936
            0.000079230261    -0.000070840648    -0.073200172601    -0.010093563883    0.000092301683    -0.000070091958    -0.116007003865    -0.025138448768
0.575     -0.000466437299    -0.112688424671    0.000180743382    0.000237736596    0.008244701094    -0.124168309440    0.000177153454    0.000297648103
            0.000180743386    0.000237736593    0.017927110782    -0.105769940164    0.000192532999    0.000287476515    0.007444849430    -0.127194237775
            0.008244689595    -0.124168300182    0.000192533004    0.000287476500    -0.000459942843    -0.114691397757    0.000212483010    0.000326118332
            0.000177153455    0.000297648091    0.007444941033    -0.127194242431    0.000212482999    0.000326118339    0.017479984320    -0.107574687242
0.600     -0.182726804496    -0.078095047195    0.000158938684    -0.000131486453    -0.148127439804    -0.052270926403    0.000204729110    -0.000121678131
            0.000158938670    -0.000131486438    -0.179334116195    -0.048889132683    0.000187167712    -0.000124743435    -0.146845656538    -0.029708909030
            -0.148127326643    -0.052270886471    0.000187167706    -0.000124743427    -0.183415008058    -0.078834261730    0.000236063292    -0.000134314433
            0.000204729099    -0.000121678110    -0.146845656538    -0.029708909030    0.000236063301    -0.000134314438    -0.179799292298    -0.049254547107
0.625     -0.029972019471    -0.022644923236    0.000076285562    0.000214990240    0.011019565671    -0.058431144110    0.000064377303    0.000258495400
            0.000076285553    0.000214990583    -0.009485934539    -0.015020014326    0.000093054654    0.000255050383    0.012330497854    -0.057496182682
            0.011019657359    -0.058431154295    0.000093054588    0.000255050353    -0.029923308987    -0.024383947312    0.000098265143    0.000277069596
            0.000064377379    0.000258495381    0.012330496686    -0.057496187023    0.000098265086    0.000277070264    -0.009997995000    -0.016737243523
0.650     -0.203742528258    -0.085590453976    0.000230170279    -0.000168450110    -0.181966066248    -0.074716590995    0.000292279985    -0.000152286143
            0.000230170168    -0.000168450177    -0.198964756151    -0.065218863532    0.000279015151    -0.000168491614    -0.184200622336    -0.048254552582
            -0.181966047746    -0.074716583399    0.000279015133    -0.000168491604    -0.204674614713    -0.086920411682    0.000340637921    -0.000178545958
            0.000292279835    -0.000152286214    -0.184200630758    -0.048254520433    0.000340637933    -0.000178545956    -0.199695052809    -0.066036328644
0.675     -0.064531875514    0.069899862333    -0.000039034721    0.000096651915    -0.018567577756    0.046223963969    -0.000053807564    0.000112707221
            -0.000039034721    0.000096651915    -0.036700960645    0.082983074020    -0.000017631243    0.000117777881    -0.013763072006    0.048981769623
            -0.018567529085    0.046223936102    -0.000017631233    0.000117777883    -0.064553281264    0.068250915240    -0.000022815209    0.000114254520
            -0.000053807542    0.000112707176    -0.013763069572    0.048981760959    -0.000022815206    0.000114254500    -0.037284405094    0.081161117739
0.700     -0.186723045950    -0.080796125413    0.000295369786    -0.000186745736    -0.175897002325    -0.086286960493    0.000363795807    -0.000161608342
            0.000295369786    -0.000186745736    -0.177797301586    -0.066184258636    0.000358329799    -0.000196617412    -0.181971871443    -0.056404400659
            -0.175897002325    -0.086286960493    0.000358329799    -0.000196617412    -0.187920869998    -0.082182176881    0.000424617214    -0.000200637332
            0.000363795807    -0.000161608342    -0.181971871443    -0.056404400659    0.000424617214    -0.000200637332    -0.179048398201    -0.066956311464
0.725     -0.121528142139    0.150443557064    -0.000074243757    -0.000063525414    -0.084339762070    0.125141991124    -0.000082121333    -0.000078256838
            -0.000074243748    -0.000063525406    -0.094694274337    0.166807016412    -0.000050305215    -0.000069738304    -0.069951290480    0.134944531445
            -0.084339756482    0.125141982831    -0.000050305255    -0.000069738257    -0.121756862908    0.149037396874    -0.000057482099    -0.000101793303
            -0.000082121339    -0.000078256817    -0.069951290480    0.134944531445    -0.000057482056    -0.000101793351    -0.095453454924    0.165287393084
0.750     -0.124587016102    -0.056820542240    0.000351878666    -0.000128055041    -0.124586001284    -0.079453669333    0.000413167267    -0.000090487921
            0.000351878666    -0.000128055041    -0.114235210798    -0.042953302614    0.000419663612    -0.000148037097    -0.133585051527    -0.048273141399
            -0.124585928952    -0.079453745556    0.000419663612    -0.000148037097    -0.125757689119    -0.058532946268    0.000478894488    -0.000138353036
            0.000413167277    -0.000090487923    -0.133584989612    -0.048273224463    0.000478894488    -0.000138353036    -0.115641108973    -0.043833639766
0.775     -0.166697348175    0.186649678974    -0.000070584402    -0.000164551129    -0.141785788316    0.164698098689    -0.000065332131    -0.000201974430
            -0.000070584302    -0.000164551215    -0.142521534802    0.201995387543    -0.000045043606    -0.000199552351    -0.118363649487    0.185070544215
            -0.141785775268    0.164698083532    -0.000045043730    -0.000199552251    -0.167425080842    0.185208513683    -0.000046521464    -0.000253269132
