!Keysight Technologies,N5227B,US51270452,A.15.40.11
!Date: Tuesday, January 25, 2022 10:48:49
!Correction: S11(C  4-Port  ) 
!S12(C  4-Port  ) 
!S13(C  4-Port  ) 
!S14(C  4-Port  ) 
!S21(C  4-Port  ) 
!S22(C  4-Port  ) 
!S23(C  4-Port  ) 
!S24(C  4-Port  ) 
!S31(C  4-Port  ) 
!S32(C  4-Port  ) 
!S33(C  4-Port  ) 
!S34(C  4-Port  ) 
!S41(C  4-Port  ) 
!S42(C  4-Port  ) 
!S43(C  4-Port  ) 
!S44(C  4-Port  ) 
!S4P File: Measurements: <S11,S12,S13,S14>,
!<S21,S22,S23,S24>,
!<S31,S32,S33,S34>,
!<S41,S42,S43,S44>:
# Hz S  dB   R 50
10000000 -42.41518 -10.764208 -71.289276 140.52527 -41.200611 3.5654709 -71.875351 -117.79108
-74.989532 -110.00831 -42.887012 3.9341562 -78.78595 -58.839832 -57.413292 90.390533
-56.518513 71.236588 -68.405899 -44.432602 -41.029156 -4.9847617 -82.746025 -105.92909
-65.361801 139.85645 -57.145538 89.483177 -77.071762 72.283134 -41.200611 3.5654709
20000000 -43.115711 -12.031755 -69.421631 112.89044 -39.620163 -9.1800642 -73.792068 80.279007
-63.935337 115.45949 -40.708481 -3.7585194 -61.924427 -158.30829 -48.83049 81.546165
-48.831478 83.590492 -64.826859 128.93544 -41.420063 -8.7011452 -65.120117 109.34157
-64.56855 118.068 -49.178772 85.567924 -64.375214 -142.22668 -39.620163 -9.1800642
30000000 -41.156334 -22.891575 -75.940262 -68.282753 -38.3582 -16.426981 -81.50872 -100.36377
-73.446724 -131.69141 -39.725719 -11.989768 -77.159492 -19.147488 -47.054401 78.117981
-46.901714 78.429878 -72.169754 -52.136002 -39.25351 -22.698427 -70.220154 -108.91994
-72.889389 -53.371677 -46.87571 77.366516 -78.428009 -42.052101 -38.3582 -16.426981
40000000 -39.765812 -32.160252 -77.836388 -46.04055 -37.473194 -22.875141 -78.780182 59.450768
-82.566887 40.062981 -38.799618 -21.663338 -83.793434 134.99094 -43.96196 76.026817
-43.990273 76.243271 -77.87896 -78.478203 -38.247017 -29.240005 -74.599518 96.616829
-83.133484 151.94746 -44.260662 74.520432 -83.204666 101.48464 -37.473194 -22.875141
50000000 -38.535061 -40.697155 -84.250992 -138.2939 -36.657005 -32.4884 -85.095734 -162.97249
-78.255058 -155.61981 -37.920555 -29.01042 -73.654732 -127.25689 -42.454506 73.953476
-42.353916 74.438309 -87.917183 -161.78711 -37.016193 -40.171799 -75.747147 -135.91464
-77.146118 -148.2357 -42.29987 73.884155 -79.012192 -155.18323 -36.657005 -32.4884
60000000 -37.145893 -47.518494 -77.175583 -16.349648 -35.923843 -39.381382 -72.490997 -172.39073
-75.69445 -139.02617 -36.918652 -36.764053 -82.994911 -119.94254 -40.838745 71.112572
-40.716377 71.602623 -95.632774 -154.06856 -35.972912 -46.627621 -74.821754 -122.8724
-92.055641 118.51202 -40.924683 71.326111 -92.566895 5.6475768 -35.923843 -39.381382
70000000 -35.976238 -54.032009 -77.826782 -103.05315 -34.883915 -45.717819 -84.571762 129.78934
-77.49987 -69.009773 -36.135265 -43.910351 -73.564377 -100.59344 -39.450848 67.808578
-39.452061 67.581116 -74.023125 -133.21655 -34.904224 -53.258106 -70.66407 -62.675331
-73.974541 -81.282791 -39.492989 68.763824 -81.217926 -54.441769 -34.883915 -45.717819
80000000 -35.011227 -59.901443 -77.76004 -115.4804 -34.258862 -51.64978 -82.061745 -134.1505
-86.312271 28.957157 -35.356312 -50.269768 -86.722298 -163.29259 -38.366352 66.240036
-38.329819 65.309547 -75.709358 -113.03812 -33.99654 -58.579037 -84.030487 -111.23001
-78.647095 -119.44987 -38.335667 65.798752 -77.751007 -132.68292 -34.258862 -51.64978
90000000 -34.048275 -64.961906 -73.679878 -126.89707 -33.513226 -56.865459 -89.831688 -165.30197
-78.973213 -98.532021 -34.663399 -56.771542 -80.269089 -99.542 -37.409481 63.050316
-37.354965 63.111507 -73.118843 -137.5807 -33.155907 -64.127754 -78.292877 -80.144508
-87.447403 82.043007 -37.443226 63.182919 -89.015434 -130.8262 -33.513226 -56.865459
100000000 -33.222858 -69.690475 -77.179558 -129.08746 -32.939404 -62.592197 -85.28215 -146.95946
-79.292046 -112.81548 -33.838722 -62.502251 -73.243713 -151.91354 -36.538799 60.925137
-36.418991 60.80867 -76.508972 -114.51173 -32.336903 -68.599815 -82.17675 -82.847633
-78.643578 -107.14848 -36.539967 60.26403 -79.943314 -156.17744 -32.939404 -62.592197
110000000 -32.483414 -73.778046 -77.302773 -102.97593 -32.236012 -67.82608 -78.582565 -108.73569
-75.017433 -144.02422 -33.208015 -67.831223 -71.028214 -132.91965 -35.756702 58.088177
-35.663189 58.022102 -75.486984 -117.71764 -31.601921 -73.161537 -77.798294 -161.57637
-80.720573 173.22423 -35.77301 57.961327 -76.486053 -147.62032 -32.236012 -67.82608
120000000 -31.750139 -77.697525 -79.910141 -139.914 -31.748711 -72.34594 -83.846191 -165.14468
-72.940315 -116.35182 -32.609657 -72.707367 -74.99678 -131.65459 -35.02211 55.438709
-34.973495 55.157513 -73.974205 -131.72104 -30.964659 -76.962593 -75.40181 -124.00838
-74.901505 -110.33804 -35.034073 55.496407 -81.594093 -144.99515 -31.748711 -72.34594
130000000 -31.153589 -81.260323 -82.674767 -102.96111 -31.207825 -76.691826 -76.949554 -121.25066
-78.506325 -116.15238 -32.007439 -77.533722 -73.083237 -136.0486 -34.362892 53.176559
-34.274906 52.461025 -72.297333 -131.83907 -30.432772 -80.944656 -77.688515 -159.79849
-88.387115 -150.21155 -34.345924 53.051979 -75.719589 -128.13063 -31.207825 -76.691826
140000000 -30.568171 -84.882851 -74.786621 -134.86246 -30.765984 -80.654808 -82.573502 -131.08212
-74.426033 -155.8765 -31.46981 -82.090576 -72.671906 -133.0957 -33.754791 50.313148
-33.685169 49.971916 -70.504539 -130.31395 -29.867119 -84.53968 -76.007294 -136.47083
-91.16922 109.19554 -33.763489 50.229988 -78.386093 -124.42347 -30.765984 -80.654808
150000000 -30.067085 -88.200569 -77.456863 -135.89183 -30.335623 -84.460991 -79.210251 -128.60184
-77.103821 -150.13087 -30.982195 -86.251785 -70.732079 -136.50247 -33.191254 47.754829
-33.147697 47.397877 -72.441475 -142.63028 -29.399729 -88.224106 -77.938164 -144.99539
-77.397499 -151.11916 -33.209358 47.667202 -73.662231 -136.49693 -30.335623 -84.460991
160000000 -29.585581 -91.425858 -70.372475 -170.35728 -29.922413 -88.507843 -75.548454 -128.97978
-71.49128 -176.63972 -30.496988 -90.579247 -69.162689 -134.65021 -32.685581 45.194775
-32.614872 44.723728 -72.808189 -137.14352 -28.974884 -91.456108 -77.25721 -119.82716
-72.983047 -157.34953 -32.688782 45.13269 -75.779396 -116.63364 -29.922413 -88.507843
170000000 -29.168137 -94.431641 -77.847221 -119.58451 -29.653141 -92.041786 -80.263557 -149.52853
-77.217453 -141.9059 -30.122904 -94.81601 -70.117859 -141.82614 -32.188084 42.585812
-32.135059 42.034195 -74.847977 -140.82516 -28.622324 -94.80204 -72.079979 -137.53262
-79.294708 -127.60201 -32.228176 42.354195 -76.524315 -91.709641 -29.653141 -92.041786
180000000 -28.796654 -97.512413 -73.928551 -159.07323 -29.361895 -95.579819 -73.502716 -123.37098
-74.340279 -170.9653 -29.705082 -98.692062 -71.476585 -155.72055 -31.72854 39.982742
-31.641064 39.53875 -71.409203 -160.32712 -28.274784 -97.859192 -69.944969 -142.03169
-76.865303 -137.89091 -31.734655 39.870079 -78.295601 -145.22984 -29.361895 -95.579819
190000000 -28.502171 -100.44476 -72.648285 -152.50923 -29.150648 -99.020447 -75.707222 -125.03646
-75.985466 -137.38597 -29.349846 -102.38506 -68.478615 -144.55991 -31.321985 37.324783
-31.225817 36.923206 -68.3125 -152.43462 -27.982105 -101.2952 -72.67337 -145.03859
-78.449982 172.29047 -31.310228 37.318436 -71.098839 -122.94378 -29.150648 -99.020447
200000000 -28.211273 -103.6943 -78.760864 -151.7056 -28.898815 -102.04216 -75.749413 -161.75972
-68.810356 -128.40855 -29.044476 -106.28345 -68.23468 -148.73953 -30.904718 34.685886
-30.823444 34.349411 -69.887047 -151.17169 -27.72406 -104.19349 -73.075027 -151.92415
-72.059792 -116.42329 -30.893375 34.551151 -72.670456 -154.13254 -28.898815 -102.04216
210000000 -27.949013 -106.26214 -74.932396 -138.70633 -28.726957 -105.6559 -74.477959 -154.83504
-70.225037 -149.24538 -28.710133 -109.45694 -68.59906 -146.09196 -30.519197 32.021065
-30.429573 31.603006 -67.378586 -157.29558 -27.508848 -107.2791 -74.648071 -152.57204
-78.012077 178.46791 -30.484974 31.996592 -71.983116 -130.80013 -28.726957 -105.6559
220000000 -27.703922 -109.12202 -73.317642 -161.32903 -28.552544 -109.14914 -75.426132 -148.05231
-69.71949 -159.04744 -28.418037 -113.11442 -67.945755 -140.45389 -30.144789 29.37689
-30.051363 29.050896 -70.29776 -156.81934 -27.315796 -110.26768 -71.350853 -171.18452
-82.385391 -139.21365 -30.138245 29.266354 -71.358078 -169.31946 -28.552544 -109.14914
230000000 -27.548395 -111.967 -70.735237 -155.48055 -28.443312 -112.43713 -76.033882 -160.46536
-69.566086 -155.79501 -28.18338 -116.40375 -68.639206 -146.63402 -29.789984 26.785988
-29.731318 26.3892 -68.082283 -152.79082 -27.176397 -113.24146 -71.361519 -148.9967
-75.797211 -137.96243 -29.785843 26.697138 -72.538055 -168.2067 -28.443312 -112.43713
240000000 -27.360472 -114.77531 -73.064316 -158.14445 -28.290295 -115.57589 -76.071625 -174.7726
-71.249222 -177.97078 -27.976477 -119.9528 -69.447578 -166.18633 -29.461023 24.230536
-29.41918 23.736237 -67.969025 -164.36815 -27.041162 -116.00311 -71.059311 -156.89482
-74.358925 176.8649 -29.451666 24.325361 -70.290169 -171.74504 -28.290295 -115.57589
250000000 -27.239784 -117.34426 -72.085564 177.14064 -28.272341 -119.05611 -72.775002 -163.62093
-70.255386 -177.36961 -27.792429 -123.24628 -66.488342 -164.98914 -29.152908 21.668703
-29.076056 21.141708 -68.861427 176.41083 -26.917856 -118.8924 -69.691612 -170.62079
-78.294907 -143.3073 -29.143888 21.527803 -69.919151 -179.0309 -28.272341 -119.05611
260000000 -27.14171 -119.85976 -69.916679 -168.53067 -28.228548 -122.2454 -76.757454 -165.63445
-70.146744 -165.40227 -27.625648 -126.23753 -67.334366 -170.10614 -28.840698 18.965105
-28.801067 18.421755 -66.283684 -173.3755 -26.864744 -121.96815 -69.793976 -159.68832
-71.573517 -176.45482 -28.806286 19.153481 -73.467903 -160.87045 -28.228548 -122.2454
270000000 -27.049822 -122.49957 -70.982468 -166.76688 -28.242102 -125.06573 -72.389656 162.74606
-69.869827 -174.19211 -27.482111 -129.33665 -65.907692 -166.44722 -28.54932 16.623148
-28.478052 15.898459 -67.682045 -176.66528 -26.771488 -124.69759 -69.913193 -159.81374
-71.797295 -174.48021 -28.565533 16.443996 -68.809319 -174.9171 -28.242102 -125.06573
280000000 -27.018879 -125.08635 -69.910301 178.04105 -28.231689 -128.2256 -75.668846 -172.00847
-68.858635 -163.26358 -27.377672 -132.42421 -67.353615 -174.81152 -28.284372 13.791051
-28.220001 13.343799 -66.941505 -168.09795 -26.747002 -127.72195 -70.522812 -161.77061
-78.094238 -155.39569 -28.271112 13.824967 -70.757286 -160.61708 -28.231689 -128.2256
290000000 -26.967567 -127.60484 -69.604652 -178.32111 -28.309204 -131.56819 -72.961029 -152.34891
-71.69854 -164.84691 -27.280355 -135.57472 -65.977341 -170.1772 -28.035351 11.146418
-27.933893 10.622579 -65.860741 174.86067 -26.785694 -130.56583 -68.380013 179.17857
-78.888748 178.67903 -28.012453 11.122881 -69.139282 170.69875 -28.309204 -131.56819
300000000 -26.971853 -130.24947 -68.853561 174.18311 -28.387125 -134.65634 -73.490677 179.603
-69.129967 -173.57462 -27.1905 -138.41512 -65.329926 -177.0444 -27.76956 8.5579491
-27.7022 7.8487096 -66.193718 -179.63919 -26.80233 -133.34175 -69.935852 -169.95854
-72.407608 -170.46664 -27.760395 8.6973047 -69.08802 -158.56316 -28.387125 -134.65634
310000000 -27.002037 -132.57182 -69.279732 -176.40186 -28.472658 -137.75464 -76.049339 157.41527
-67.924881 170.28444 -27.188688 -141.64005 -65.644478 176.61513 -27.523872 6.1961389
-27.465025 5.4166055 -65.2388 176.4548 -26.854015 -136.20981 -68.595749 -174.3396
-71.450897 172.78618 -27.522684 6.0442457 -69.072281 160.23108 -28.472658 -137.75464
320000000 -27.058186 -135.22586 -68.271904 -175.14551 -28.611599 -140.88293 -75.204208 168.10167
-68.778168 169.32364 -27.16361 -144.42073 -64.366798 176.66875 -27.283297 3.4416821
-27.219973 2.7084358 -64.704491 173.7563 -26.918571 -138.90108 -68.98307 176.11125
-69.438972 -169.1796 -27.280638 3.4770701 -68.745178 170.16876 -28.611599 -140.88293
330000000 -27.139416 -137.59235 -69.214638 -179.59378 -28.779221 -144.10287 -73.828781 -177.67986
-70.419815 167.32028 -27.180313 -147.01036 -64.645134 173.68292 -27.065519 0.74429774
-26.995136 -0.0046661845 -66.076942 171.58565 -27.006813 -141.7225 -69.663048 164.1203
-74.581551 -177.92981 -27.068199 0.82397842 -68.436028 167.70839 -28.779221 -144.10287
340000000 -27.213511 -140.00885 -69.106781 173.77962 -28.937992 -146.89165 -70.564209 155.25128
-69.159828 168.69542 -27.228119 -149.84592 -64.240074 170.23579 -26.87324 -1.7705849
-26.77157 -2.616066 -64.703827 174.86981 -27.142097 -144.52313 -69.26506 177.88196
-74.600922 173.80182 -26.843597 -1.8217709 -66.816147 160.34915 -28.937992 -146.89165
350000000 -27.349018 -142.14925 -69.823105 158.61423 -29.155554 -150.12317 -75.808571 157.85045
-68.755997 154.62592 -27.281834 -152.55415 -63.90477 167.39673 -26.644812 -4.3818622
-26.570658 -5.2217078 -65.778946 168.09018 -27.27923 -147.20085 -69.838264 166.55963
-70.266357 170.27426 -26.623926 -4.385952 -67.849236 165.6609 -29.155554 -150.12317
360000000 -27.492016 -144.50696 -68.989655 157.31676 -29.416718 -153.31413 -74.194214 172.52441
-67.206192 153.36688 -27.383518 -154.99339 -64.485344 167.68472 -26.441223 -7.052979
-26.365337 -7.8293767 -63.834476 173.00818 -27.427984 -149.74942 -67.429916 162.22395
-70.231041 170.20761 -26.412476 -6.9708395 -67.610603 174.96492 -29.416718 -153.31413
370000000 -27.675549 -146.63554 -69.137192 173.46002 -29.678148 -156.16431 -71.342522 150.48135
-66.518066 160.37997 -27.514339 -157.7982 -64.5345 163.34344 -26.245193 -9.5772362
-26.176027 -10.460309 -63.5271 162.28329 -27.616358 -152.46625 -68.739059 164.25546
-73.251617 165.65915 -26.251892 -9.6770487 -67.045815 152.86647 -29.678148 -156.16431
380000000 -27.894199 -148.87939 -68.288704 160.1505 -29.970175 -159.16495 -73.444839 158.44847
-66.840012 161.90036 -27.656645 -160.0119 -63.848137 168.43259 -26.064854 -12.233773
-25.985271 -13.11035 -64.2808 160.7907 -27.822119 -155.04086 -67.973007 160.26378
-68.49334 143.93831 -26.048189 -12.339126 -67.561646 158.31351 -29.970175 -159.16495
390000000 -28.106918 -150.72287 -69.045509 162.12859 -30.340466 -161.85086 -72.445297 151.20346
-67.257736 148.39604 -27.857031 -162.51491 -62.908916 153.09996 -25.882343 -14.903985
-25.812281 -15.783035 -63.111805 159.07347 -28.071547 -157.49657 -67.020218 165.81667
-69.185349 156.37637 -25.86145 -14.936464 -67.369133 155.41824 -30.340466 -161.85086
400000000 -28.378363 -152.46121 -66.792061 155.09491 -30.733202 -164.82544 -72.452408 158.61716
-67.031982 151.30882 -28.10467 -164.83206 -63.240253 153.20207 -25.7034 -17.476675
-25.642519 -18.412504 -63.8909 155.19762 -28.323196 -159.86552 -67.707977 157.6889
-70.6017 148.21732 -25.694761 -17.560978 -67.585365 155.18349 -30.733202 -164.82544
410000000 -28.666784 -154.3439 -67.195091 147.56773 -31.171419 -167.76384 -70.051636 143.87802
-66.218224 143.93764 -28.353708 -167.14919 -63.378147 154.23094 -25.536293 -20.06418
-25.477772 -21.112165 -63.259563 153.83249 -28.623295 -162.17809 -67.281105 149.10619
-71.505989 150.28427 -25.526522 -20.125891 -67.415375 153.06274 -31.171419 -167.76384
420000000 -28.970802 -155.76848 -66.310455 148.30962 -31.668701 -170.15903 -70.679314 148.7606
-66.325859 144.8485 -28.652601 -169.01483 -62.608627 145.87041 -25.368065 -22.785007
-25.306618 -23.731201 -62.964874 151.5157 -28.958536 -164.28981 -67.114082 145.28568
-70.285347 150.24193 -25.361092 -22.813684 -67.488853 149.54025 -31.668701 -170.15903
430000000 -29.328997 -157.16284 -67.56131 132.79143 -32.194534 -172.8624 -70.912514 142.36189
-67.194534 142.04475 -29.015387 -170.89574 -62.976215 147.07434 -25.214455 -25.412766
-25.159119 -26.426355 -64.024658 146.40753 -29.329355 -166.36716 -67.643112 147.89066
-70.325127 140.15602 -25.195705 -25.47187 -67.998627 142.50502 -32.194534 -172.8624
440000000 -29.722055 -158.37413 -66.346642 137.30963 -32.863155 -175.05315 -70.134056 141.24271
-66.265732 147.10352 -29.432447 -172.85355 -62.490932 141.71707 -25.065283 -28.002356
-25.010965 -29.100571 -62.409649 147.10947 -29.680374 -167.94907 -66.19751 141.96889
-69.803612 136.46841 -25.037893 -28.155399 -65.899193 141.10054 -32.863155 -175.05315
450000000 -30.130867 -159.15031 -65.976524 139.76614 -33.551807 -177.55762 -70.612823 144.97144
-66.975739 138.90883 -29.858368 -174.27698 -62.451241 141.353 -24.931152 -30.673008
-24.863523 -31.7721 -62.037968 139.54044 -30.138515 -169.33705 -66.202606 139.09109
-69.991173 125.27507 -24.907219 -30.75024 -66.311043 143.62938 -33.551807 -177.55762
460000000 -30.562159 -159.65373 -65.478775 135.42221 -34.341221 -179.22429 -71.123421 143.94807
-67.18515 134.23273 -30.397854 -175.56097 -62.283833 138.39104 -24.786497 -33.271076
-24.715513 -34.408455 -62.336693 138.17642 -30.631033 -170.49712 -66.408142 134.45052
-69.486008 137.37387 -24.765251 -33.368343 -65.614182 139.70509 -34.341221 -179.22429
470000000 -31.040365 -159.6566 -65.95359 132.49156 -35.24522 179.68507 -72.255516 125.98963
-65.839378 135.17596 -30.939831 -176.40031 -62.052238 134.6068 -24.643919 -35.95097
-24.571627 -37.096592 -62.50724 130.72697 -31.14205 -171.27173 -66.294563 134.1862
-70.690689 135.67259 -24.623482 -35.971924 -65.688721 137.21848 -35.24522 179.68507
480000000 -31.533476 -159.14139 -66.090767 129.36302 -36.271381 179.18373 -70.369209 122.27538
-65.600456 124.27895 -31.612295 -176.94617 -61.393497 134.44971 -24.510973 -38.56348
-24.450081 -39.796219 -62.17757 132.82152 -31.699114 -171.64847 -64.851875 131.61909
-68.160316 125.43694 -24.489857 -38.597301 -65.452461 130.99335 -36.271381 179.18373
490000000 -32.032253 -158.28426 -65.782425 125.02089 -37.497742 179.55307 -70.282852 128.39853
-64.820183 129.52184 -32.300186 -176.89336 -61.976818 129.17242 -24.381201 -41.229004
-24.322521 -42.470581 -61.858097 130.06523 -32.262329 -171.1483 -65.291931 126.636
-70.061455 115.27223 -24.367384 -41.290302 -65.26075 125.02294 -37.497742 179.55307
500000000 -32.534401 -156.81516 -65.527542 124.71854 -38.86055 -178.54623 -69.725273 120.20123
-65.838226 122.77526 -33.13858 -176.14861 -61.991211 130.10994 -24.260565 -43.872868
-24.195412 -45.22757 -61.552746 127.38684 -32.905544 -170.16667 -65.784111 118.5552
-68.327545 121.15417 -24.236582 -43.967091 -65.047447 127.39828 -38.86055 -178.54623
510000000 -33.075645 -154.1866 -66.041145 122.824 -40.460442 -174.06053 -68.984573 115.63226
-64.930969 125.37363 -34.033112 -174.5531 -60.638626 131.63629 -24.113243 -46.655979
-24.075624 -47.930244 -61.204876 130.44026 -33.596146 -168.4537 -65.908913 123.70922
-68.62764 121.37761 -24.131638 -46.609978 -65.669655 129.61581 -40.460442 -174.06053
520000000 -33.489582 -150.80292 -63.631767 112.14273 -42.235195 -164.82742 -70.55632 106.55805
-65.970749 111.41338 -35.011776 -171.30252 -60.618076 120.53403 -24.01738 -49.22184
-23.962988 -50.535091 -61.193951 121.50669 -34.185158 -164.86816 -65.777153 109.17347
-68.408829 114.07348 -23.999573 -49.337002 -64.407722 116.00947 -42.235195 -164.82742
530000000 -33.821087 -146.13434 -64.717949 113.03177 -43.710667 -149.47433 -68.002022 111.30571
-65.107277 106.49626 -35.969078 -166.00763 -60.720783 120.13696 -23.886812 -51.899681
-23.863174 -53.317131 -60.997356 117.69293 -34.800751 -160.06213 -64.219688 115.07418
-68.361931 101.34179 -23.884951 -52.084881 -64.55574 122.51556 -43.710667 -149.47433
540000000 -34.06633 -141.15765 -64.206329 111.75311 -44.287933 -127.17774 -68.042984 93.62648
-63.083397 118.24189 -36.951603 -159.23547 -60.867378 117.58984 -23.793346 -54.606548
-23.739687 -55.970642 -61.269173 113.10117 -35.277222 -153.87038 -64.466148 109.93762
-70.030624 113.64389 -23.775745 -54.699104 -65.827209 110.45248 -44.287933 -127.17774
550000000 -34.091633 -135.5007 -65.063393 110.85176 -42.887909 -107.86498 -68.786194 93.930084
-65.195267 107.36106 -37.649193 -148.364 -60.036068 107.15493 -23.694206 -57.267921
-23.646679 -58.678211 -60.292534 112.49628 -35.468506 -146.98889 -63.94239 117.79688
-67.527397 93.935074 -23.673086 -57.325806 -63.318752 105.47354 -42.887909 -107.86498
560000000 -33.868896 -129.7294 -64.568794 113.90511 -40.884773 -93.916565 -68.14621 97.504173
