!
!Touchstone File created by Channel Assembly Engine (Version 2.0.0_Beta1)
!Current time:  2022 6/29 11:36:59
# Hz S RI R 50
0	0.002240495	0.01662697	-8.695758e-05	0.0009104051	0.0001571647	-0.0001207492	-0.0005226349	-0.0001870979
	0.0002922877	0.0007086517	0.002769573	0.01629567	-2.471803e-05	0.0002738598	0.0002013546	-1.699668e-05
	0.0001923234	-0.0001848409	-0.0001947142	1.8632e-05	0.009709862	0.003489529	0.0001144521	0.0006047742
	-6.18493e-09	5.726533e-09	-7.697943e-05	-0.0002782674	-9.687193e-05	0.0009127847	0.008329656	0.002955495
1e+07	0.01528117	0.01378897	0.0004393164	0.002360578	-0.0002035088	0.0002558257	-0.0004267696	-0.0002702336
	0.0006059333	0.001849481	0.01666771	0.01394344	0.0003653829	0.0001509663	6.747325e-05	-0.0003604973
	0.0001930243	-0.0003711985	-4.197631e-05	0.0004023694	0.01555144	0.002755528	0.0003178596	0.001848806
	0.0001518531	-4.270619e-05	0.0002710635	-0.0003345808	0.0004868575	0.002201678	0.01334031	0.002546247
2e+07	0.01714341	0.002442815	0.00180383	0.004370381	0.000212239	-0.0004645768	-0.0002410344	-0.0002408725
	0.001346021	0.003800049	0.02000914	0.002756867	0.0003329601	-0.0004002817	-0.0005158529	-0.0002519952
	8.402373e-05	-0.0005418003	0.0006737838	0.0002105626	0.02312517	-0.0007381956	0.00072025	0.004027344
	-0.0001589705	-0.0004011081	0.0005908509	3.620878e-05	0.001943325	0.003895037	0.02010805	-0.0001019022
3e+07	0.01882467	-0.00106046	0.002516328	0.005988762	-0.0001147243	0.000176147	0.0001121704	1.304646e-05
	0.002622344	0.006142861	0.01991136	-0.002406004	-6.821805e-05	8.112829e-05	9.119819e-05	-5.35129e-05
	-1.198791e-06	2.212745e-05	-0.0002487774	-9.676031e-05	0.01734405	-0.00152325	0.002786482	0.006139624
	7.212151e-05	0.0001383349	-0.0001606421	-3.24155e-05	0.00247741	0.006184571	0.01648901	-0.001504125
4e+07	0.01765394	-0.000431504	0.004100504	0.00755622	-0.0001275683	-7.410806e-05	-9.090836e-05	0.0001026527
	0.003881928	0.007379644	0.01929459	-0.001751563	-0.0001730182	-0.0001222738	-0.0001027512	0.0001009037
	-0.0001749236	-0.0001484957	-2.155681e-05	9.206712e-05	0.01842415	-0.003857475	0.004038634	0.007601574
	-0.0001262441	-0.0001816909	-4.108597e-05	8.594402e-05	0.003919969	0.007459684	0.01778959	-0.003517953
5e+07	0.01704981	-0.004511834	0.005911286	0.008419391	-5.856905e-05	-6.535452e-05	-0.0001053028	-4.98648e-05
	0.005975913	0.008615332	0.01786856	-0.00652718	-9.208831e-05	-0.0001744111	-0.0001114736	-0.0001401242
	-1.961805e-05	-9.64683e-05	-0.0002359104	-0.0001339298	0.01699551	-0.01015014	0.005928053	0.008364026
	2.81035e-05	-8.692016e-05	-0.0001822222	-9.531933e-05	0.006007355	0.008380401	0.01613041	-0.009718446
6e+07	0.02119921	-0.007359751	0.007808622	0.009152091	-9.322972e-05	-0.0001147233	-0.0001334302	-6.424563e-05
	0.007878507	0.008890065	0.02152742	-0.009508813	2.764431e-05	-0.0002376023	-6.753816e-05	-0.0001506089
	1.660832e-05	-0.0001060677	-0.0003784533	-0.0001476773	0.01501544	-0.009551171	0.007803416	0.009057503
	-8.413452e-05	-1.725563e-05	-6.989249e-05	3.06898e-05	0.007835568	0.008835766	0.01410116	-0.009205754
7e+07	0.01513243	-0.008959876	0.009826905	0.009094446	-0.0001292115	5.615746e-05	-2.569185e-05	0.0001423701
	0.009942131	0.009043264	0.01540083	-0.01126394	-0.0002733929	3.74225e-05	-0.0001307739	6.412889e-05
	-0.0001564435	-2.88794e-05	-1.876027e-05	-0.0001446782	0.009436791	-0.01324497	0.009880651	0.009162953
	-0.0001345307	-0.0001399908	-0.0001554452	-0.0001407588	0.009930693	0.008871636	0.009038658	-0.01312875
8e+07	0.0107905	-0.01119144	0.0117858	0.00875157	-4.128243e-05	-6.90769e-05	-8.622788e-05	1.836375e-05
	0.01181399	0.008656532	0.0103471	-0.01353726	-0.0002204407	-9.005363e-05	-0.0001858324	-3.391286e-05
	-0.0001023385	-1.027313e-05	-0.0002514378	-0.0001420361	0.006224738	-0.01661073	0.01189124	0.008541325
	-0.0002243686	5.049354e-05	-8.292386e-05	-0.0001423592	0.01191943	0.008570153	0.005500799	-0.01675766
9e+07	0.007151954	-0.01127852	0.01365378	0.007731215	-7.992158e-05	-0.0001616168	-8.811898e-05	3.405404e-05
	0.01374371	0.007893293	0.006181245	-0.01356628	-0.0002196731	-5.515426e-05	-0.0002149416	0.0001051031
	-8.115069e-05	-5.799407e-05	-0.0002092447	3.872844e-05	0.003727091	-0.01772429	0.01366964	0.007680972
	-9.879542e-05	2.477836e-05	-0.0002059634	3.191914e-05	0.01373675	0.007725367	0.003153597	-0.01844338
1e+08	0.003181231	-0.009767587	0.01515228	0.006428642	-0.0001628437	8.25648e-06	-0.0001446	1.073782e-05
	0.01520611	0.006435197	0.001954968	-0.01186861	-0.0002551173	-6.392677e-05	-0.0001772478	8.0819e-05
	-0.0001270919	7.914027e-05	-0.000298426	7.292858e-05	0.0003008175	-0.01418485	0.01525391	0.006257159
	-0.0001025254	3.31768e-05	-0.0002262789	5.546072e-05	0.01524683	0.00616542	-0.0003160262	-0.01499727
1.1e+08	0.001186929	-0.009274322	0.01631339	0.004621101	-0.0001966811	7.193327e-05	-0.0001097012	8.668847e-05
	0.01642234	0.00465409	-0.0004019384	-0.01115551	-0.0002451424	0.0001412071	-0.0002650994	6.246625e-05
	-0.000173794	0.0001579221	-0.000321557	0.0001101193	-0.006543147	-0.01251783	0.01633723	0.004328608
	-0.0001707423	9.807954e-05	-0.0003239733	1.523882e-05	0.01639834	0.004456055	-0.007710347	-0.01388066
1.2e+08	-0.005334414	-0.005568253	0.01703451	0.00252337	-0.000228506	0.0001068934	-0.0001212373	7.622519e-05
	0.0171238	0.002528692	-0.007151824	-0.007087632	-0.0002953183	0.0001260921	-0.0002627786	0.0001600246
	-0.0002208539	-3.321695e-05	-0.0003036963	9.985799e-05	-0.01232617	-0.01345011	0.017032	0.002337885
	-0.0002119847	3.721017e-05	-0.0001746591	0.0001417661	0.01707537	0.002225334	-0.01362003	-0.01465553
1.3e+08	-0.008532457	-0.004129256	0.01726168	0.000179519	-0.0002134863	0.0001201638	-0.0001042761	4.659195e-05
	0.01738529	0.0001369197	-0.01057984	-0.005222696	-0.0003853895	0.0001975437	-0.0002347394	0.0001689975
	-0.0001621837	0.0001537419	-0.0002917178	0.0001242121	-0.01446107	-0.008478039	0.01726936	-0.0001016794
	-0.0001342459	3.072869e-05	-0.0002022629	0.0001431615	0.01723696	-0.0001308262	-0.01609266	-0.009943538
1.4e+08	-0.01103954	0.0004394874	0.01692718	-0.002222189	-0.0001674319	0.0001586851	-6.647654e-05	6.488692e-05
	0.0170339	-0.002247731	-0.01327108	-0.0002316685	-0.0002690751	0.00025227	-0.0001912507	0.0001942155
	-0.0001792644	0.0001569076	-0.0002619013	0.0003031772	-0.01847794	-0.005682724	0.01679702	-0.002539582
	-8.203592e-05	0.0001393058	-0.0002687782	0.0002400625	0.01677991	-0.002477395	-0.02056236	-0.007176765
1.5e+08	-0.0133583	0.004021032	0.01595995	-0.004737634	-0.0001571697	0.0001634095	-0.0001007256	0.0001424407
	0.01605952	-0.004784079	-0.01565925	0.003793854	-0.0002917025	0.0003468195	-0.0001960024	0.0002612633
	-0.0001644972	0.0001854033	-0.0002918815	0.0003339996	-0.01989204	0.0002820323	0.015769	-0.005052333
	-0.0001143943	0.0001652952	-0.0001532801	0.0002196983	0.01573249	-0.005013765	-0.02251592	-0.001238941
1.6e+08	-0.01498227	0.007502795	0.0144377	-0.007034514	3.061805e-05	0.0002722545	-0.0001431389	0.0001705719
	0.01448614	-0.007137945	-0.01713095	0.007629889	-0.0002458748	0.0003727223	-0.0001118447	0.000280711
	-0.0002262978	0.0002989744	-0.0002675196	0.0005371814	-0.02328208	0.005406751	0.01407773	-0.00739138
	-1.334828e-05	0.0001546226	-4.241277e-05	0.000339391	0.01400159	-0.007425242	-0.02657212	0.004031722
1.7e+08	-0.0149246	0.01248977	0.01217043	-0.009322677	-3.767153e-05	0.0003630183	1.375222e-05	0.0001535046
	0.01218776	-0.009300448	-0.01692567	0.01317355	-0.0002038174	0.0004905861	-0.0001383658	0.0003457155
	-0.0001810772	0.0002860779	-4.170847e-05	0.000452618	-0.02259737	0.0129484	0.01185493	-0.009519331
	-0.0001236756	7.683843e-05	-2.818905e-05	0.0002917027	0.01178885	-0.009452948	-0.02615323	0.011664
1.8e+08	-0.01320043	0.0188617	0.009479786	-0.01116803	2.093593e-05	0.0002888812	-8.609155e-05	0.0001819805
	0.009585214	-0.01118115	-0.01498278	0.01967763	-6.637957e-05	0.0004526592	-4.404198e-05	0.000328351
	3.522287e-05	0.0002294875	-0.0001469781	0.0005794202	-0.02280996	0.0199401	0.009018271	-0.01132392
	-3.883509e-05	0.0002145307	-4.410451e-06	0.0004624957	0.00899163	-0.0114157	-0.02676807	0.01917693
1.9e+08	-0.01294734	0.02586091	0.006223445	-0.01242031	-3.462451e-05	0.0002394902	0.0001308626	0.0002937992
	0.006209412	-0.01261915	-0.01433614	0.02718073	-2.077336e-06	0.0005117159	1.091246e-05	0.0004103968
	-3.404384e-05	0.0003350472	5.518556e-06	0.000538253	-0.02218974	0.02214563	0.005627445	-0.01255619
	1.11778e-05	0.0002241925	8.092426e-05	0.000481492	0.005617605	-0.01254769	-0.02648892	0.02153813
2e+08	-0.009548132	0.03040824	0.002422793	-0.01311707	-3.275006e-06	0.0002230353	7.341026e-05	0.0002641213
	0.002566813	-0.01335487	-0.01059234	0.03174384	5.746941e-05	0.0004456868	5.832431e-05	0.0004393116
	-3.178748e-08	0.0002911147	6.544588e-05	0.0006069485	-0.02068616	0.02771752	0.001709665	-0.01321401
	2.281812e-05	0.0002097228	0.0001014261	0.0004330868	0.001853791	-0.01330702	-0.02569767	0.02780123
2.1e+08	-0.006250196	0.03557308	-0.001645147	-0.01341505	0.0001191082	0.000264041	0.0001342173	0.0002433747
	-0.001574939	-0.01360657	-0.006770341	0.03696478	0.0001787558	0.0006072944	3.322876e-05	0.0003780191
	0.0001102391	0.0003688047	0.0001441341	0.0005525793	-0.01718562	0.03295266	-0.002405174	-0.01325594
	2.73485e-05	0.0002174547	9.764812e-05	0.0003843552	-0.002462039	-0.01334471	-0.02201944	0.03373228
2.2e+08	-0.003290735	0.03755491	-0.005978101	-0.01282741	0.0002221543	0.0003186711	0.0001290366	0.0001464894
	-0.005921375	-0.01305485	-0.003409737	0.03887226	0.0003502637	0.0005863012	0.0002180576	0.0003869963
	0.0002092589	0.0003158628	0.0002738394	0.0005206467	-0.01301395	0.03880376	-0.006658493	-0.01264833
	0.000126247	0.0002477213	0.0001088437	0.0003597519	-0.006625242	-0.01261626	-0.01793342	0.04016486
2.3e+08	0.002266303	0.04154674	-0.01024923	-0.01148417	0.0001873466	0.0003115686	9.566349e-05	0.0002132712
	-0.01025093	-0.01161962	0.002558796	0.04271055	0.000341168	0.0004411726	0.0002404099	0.0003116339
	0.0002203068	0.0002920467	0.0002699234	0.0004986599	-0.00912957	0.03910936	-0.01107129	-0.01104341
	0.0001368223	0.0001364512	0.00025289	0.0004583375	-0.01112923	-0.01110126	-0.01406334	0.04108146
2.4e+08	0.006652717	0.04405344	-0.0146353	-0.00936936	0.0003196179	0.0002908209	0.0001681566	0.0002391936
	-0.01473119	-0.009485912	0.007394273	0.04495184	0.0005057637	0.0005370156	0.0003225795	0.0003302233
	0.0002662471	0.0002636766	0.0004650605	0.0004254344	-0.001665621	0.0429854	-0.01556129	-0.008906252
	0.0001766162	0.0002145753	0.0002909266	0.00031198	-0.01553949	-0.009005059	-0.006523554	0.04589216
2.5e+08	0.01171996	0.04891366	-0.01879347	-0.006391808	0.000321483	0.0002156121	0.0001361287	0.0001622862
	-0.01885867	-0.006544099	0.01271687	0.04955201	0.0005456966	0.0004188331	0.0003354094	0.0003196581
	0.0002826445	0.0002167726	0.0006037734	0.0003762769	0.001976636	0.04303961	-0.01970123	-0.005756321
	0.0002438797	0.0001132927	0.00040329	0.0002010614	-0.01968165	-0.005794757	-0.00256825	0.04637898
2.6e+08	0.02053768	0.04675174	-0.0226409	-0.00269406	0.0002722882	0.0002482799	0.0002879356	0.000226129
	-0.02268102	-0.002796699	0.02177957	0.04687269	0.0006494548	0.0003183734	0.0004969402	0.0001711598
	0.0004302236	0.0001713584	0.0006881145	0.0003641679	0.004152171	0.04269842	-0.02338576	-0.001703504
	0.0002178114	0.0001169765	0.0004988737	0.0002708223	-0.02336139	-0.001783916	5.377449e-05	0.04658459
2.7e+08	0.02204704	0.04554409	-0.02602966	0.002008639	0.0003402765	0.0002136935	0.0003100719	0.0001547008
	-0.02603999	0.001774455	0.02360269	0.04527318	0.0007018568	0.000357271	0.0004878121	0.0001715307
	0.0003932575	0.0001650228	0.0007514224	0.0002685207	0.01240975	0.04368613	-0.02678825	0.002932033
	0.0004105981	6.320016e-05	0.0005628212	0.0001446969	-0.02674939	0.002835411	0.008660187	0.04813766
2.8e+08	0.02673668	0.04493557	-0.02867695	0.007084663	0.0005049141	0.0001296899	0.0002873465	5.82692e-05
	-0.02903429	0.00688774	0.02848079	0.04407298	0.0007716164	0.0001169167	0.0005011695	4.968688e-05
	0.000501563	0.0001140977	0.0007301847	0.0001536153	0.01551151	0.04326852	-0.02941493	0.008318214
	0.0002993645	1.42408e-06	0.0005010853	0.0001328411	-0.02936522	0.008289147	0.01262017	0.0482472
2.9e+08	0.0307899	0.0421438	-0.03087745	0.0127769	0.0005307732	3.119935e-05	0.0002721098	-1.317943e-05
	-0.03107659	0.01267713	0.03235557	0.04060191	0.000806603	1.402415e-05	0.0004985367	6.953641e-05
	0.0004678772	1.571895e-05	0.0007868839	-2.138553e-05	0.02107843	0.0424087	-0.0313334	0.01408039
	0.000332556	7.625173e-06	0.0004890021	6.613189e-05	-0.03133072	0.01423248	0.01871243	0.04763805
3e+08	0.03709876	0.03866882	-0.03229152	0.01899234	0.0004688076	-5.300182e-05	0.0002081722	-3.164816e-05
	-0.03235243	0.01891701	0.03849634	0.03656457	0.0008633991	-8.293224e-05	0.0005562852	-8.791154e-05
	0.0005025924	-8.119171e-05	0.0008738833	-7.444639e-05	0.02296643	0.03790673	-0.03238316	0.02051447
	0.0002891513	-0.000117411	0.0006039483	-4.594676e-06	-0.03233378	0.02068854	0.0213523	0.04308314
3.1e+08	0.04029084	0.03551139	-0.0325837	0.02556258	0.0004361242	-0.0001846041	0.0004068611	-0.0001430099
	-0.03273909	0.02562845	0.04142831	0.03285624	0.0008170241	-0.0002356685	0.0005710933	-0.0002199515
	0.0006195731	-0.0001605381	0.000836627	-0.0002598776	0.02856614	0.03668536	-0.03259405	0.02723885
	0.000216424	-0.0001058667	0.0005792242	-0.0001415154	-0.03264191	0.02719296	0.02774936	0.04236113
3.2e+08	0.03995807	0.03105725	-0.0317795	0.03230452	0.0004214	-0.0002433954	0.0002671143	-0.0002105383
	-0.03200813	0.03231634	0.04060672	0.02811602	0.0007406291	-0.0002809544	0.0006045748	-0.0002348862
	0.0004030699	-0.0002818596	0.0007574952	-0.0003688017	0.02610139	0.03288581	-0.03163371	0.03396131
	0.0003654013	-0.0002774437	0.0004903769	-0.0002222072	-0.03154686	0.03406609	0.02597969	0.03823502
3.3e+08	0.04349784	0.02720044	-0.03013655	0.03898971	0.0004231052	-0.0002365152	0.0002305343	-0.000171244
	-0.03042254	0.03914608	0.04359355	0.02351418	0.0006822374	-0.0004437098	0.000510643	-0.0003397847
	0.0003965996	-0.0003291881	0.0007692056	-0.000499488	0.02731875	0.02875654	-0.02955214	0.04081056
	0.0002446683	-0.0001905524	0.0005606079	-0.0003810474	-0.02958268	0.04082	0.02785883	0.03393147
3.4e+08	0.04376588	0.02283094	-0.02744557	0.04566351	0.0003718856	-0.0003609429	0.0003019927	-0.0002628975
	-0.02765155	0.04577024	0.04308657	0.01884922	0.0006994091	-0.0006208831	0.0004614561	-0.000371732
	0.0003140825	-0.0003707782	0.0006730327	-0.0006296049	0.02735692	0.02520869	-0.02655778	0.04734565
	0.0002368287	-0.0001935564	0.0004929898	-0.0004684657	-0.02646496	0.04741444	0.02885114	0.03008015
3.5e+08	0.0439226	0.01983508	-0.02373042	0.05200343	0.000245643	-0.0004128736	0.0002031088	-0.0003377388
	-0.02393417	0.05206481	0.04258661	0.01551108	0.0006496395	-0.0007152209	0.0004601567	-0.000522962
	0.0003508498	-0.0004227172	0.0006156931	-0.0007008208	0.02811677	0.02244932	-0.02260805	0.05356031
	0.0002379311	-0.0002420752	0.0004337826	-0.0005997321	-0.02255548	0.05368825	0.02993906	0.02661536
3.6e+08	0.04312735	0.01556468	-0.01909053	0.0577992	0.0002774615	-0.0004539211	0.0001598499	-0.0003019833
	-0.01928102	0.05795768	0.04102828	0.01123459	0.0005411529	-0.0008474425	0.0003391063	-0.0005645958
	0.0002255291	-0.0004441098	0.0004762091	-0.0008735265	0.02628396	0.0212878	-0.01742334	0.05930774
	0.0001832366	-0.0003863578	0.000305906	-0.0006157985	-0.01744279	0.05937139	0.02843257	0.02496964
3.7e+08	0.04120467	0.01190366	-0.01338631	0.06287279	0.0001811292	-0.0005301124	0.0001524363	-0.0003905131
	-0.01368797	0.06307135	0.03844623	0.007614322	0.0003462817	-0.0008742086	0.0002456009	-0.0007174062
	0.0001674887	-0.0004748822	0.0004151099	-0.0008871352	0.02413689	0.01816227	-0.01157203	0.06420152
	0.0001016796	-0.0003356115	0.0002594217	-0.0005869728	-0.01158009	0.06434501	0.02655453	0.02117247
3.8e+08	0.03851659	0.01082756	-0.007000827	0.06730646	0.0001290775	-0.0005659186	9.112639e-05	-0.0004383822
	-0.007210885	0.06751384	0.03494082	0.006758955	0.0001932111	-0.0009639345	0.0001209207	-0.000773617
	0.0001045497	-0.0006129552	0.0002435116	-0.001021644	0.02060926	0.01789122	-0.004782704	0.06835313
	8.059397e-05	-0.0003512864	0.0002079039	-0.0007280316	-0.00479717	0.0684685	0.02328939	0.02038979
3.9e+08	0.03577383	0.009432768	7.894499e-05	0.07072194	4.348378e-05	-0.0006167647	-2.478775e-06	-0.000330581
	-8.824631e-05	0.0709656	0.031306	0.00547478	8.282282e-05	-0.001062892	2.623752e-05	-0.0007672739
	6.990287e-05	-0.0006135551	5.215736e-05	-0.001030647	0.01877673	0.01510431	0.002401372	0.07154514
	-2.250391e-05	-0.0004173045	3.711064e-05	-0.0007418908	0.002454657	0.07160895	0.02147981	0.01692919
4e+08	0.03263761	0.007445933	0.007610836	0.07287268	-7.669884e-05	-0.0006289713	-6.205066e-05	-0.000417844
	0.007606089	0.07322267	0.02726568	0.003876193	-9.366073e-05	-0.001066369	-0.000128415	-0.0007557104
	-9.725451e-05	-0.0005962202	-7.20894e-05	-0.001025093	0.01528656	0.01783023	0.01027934	0.07334188
	-0.0001040365	-0.0004984678	-5.163261e-05	-0.000834635	0.0102755	0.0733957	0.01773139	0.01891057
4.1e+08	0.0298789	0.007001536	0.01563346	0.0739832	-0.0001706358	-0.0006476765	-0.0001221334	-0.0004485312
	0.01560654	0.07428834	0.02392125	0.004034675	-0.0002739089	-0.001018882	-0.0002077849	-0.0007338773
	-0.0001801963	-0.0005918269	-0.000271192	-0.00102925	0.0128576	0.01861863	0.01837718	0.07414602
	-0.0001263779	-0.0004645974	-0.0001728147	-0.0007341863	0.01842446	0.07420694	0.01498455	0.01916551
4.2e+08	0.02722084	0.007007103	0.02372347	0.07397473	-0.0003034582	-0.0005845366	-0.0001575932	-0.0004176446
	0.02374109	0.074292	0.02042352	0.004825666	-0.000399931	-0.001085514	-0.0003234439	-0.0007128559
	-0.0002450062	-0.0005576429	-0.0003817167	-0.001080837	0.01128891	0.02079111	0.02651641	0.07370702
	-0.0001804348	-0.0003859588	-0.000329149	-0.0007010663	0.02656628	0.07366168	0.01313101	0.02078254
4.3e+08	0.02551613	0.00988361	0.03165105	0.07267075	-0.0003814897	-0.0005679321	-0.0002543968	-0.0004250041
	0.03170013	0.07301593	0.01816347	0.008417639	-0.0006318748	-0.001005507	-0.0004096219	-0.0007769745
	-0.0003796229	-0.0005203002	-0.000580888	-0.001027064	0.009303195	0.02334444	0.03457715	0.07188858
	-0.0002145755	-0.0003179298	-0.0003913712	-0.0007077586	0.0345741	0.07190282	0.0106162	0.02304981
4.4e+08	0.02261201	0.009758533	0.03954064	0.07018854	-0.0004312176	-0.0004686162	-0.0002492289	-0.0002900034
	0.03962758	0.07052539	0.01490862	0.009221764	-0.000780903	-0.0009494691	-0.0005138158	-0.0006113419
	-0.0004853598	-0.0004870673	-0.0007589869	-0.0009412851	0.008264307	0.02594014	0.04239943	0.06888542
	-0.0003728794	-0.0003265253	-0.000543922	-0.0006464752	0.04246292	0.06893181	0.009011215	0.02529623
4.5e+08	0.02209301	0.01322042	0.04698255	0.06641231	-0.0005345847	-0.0004050605	-0.0003714359	-0.0002779505
	0.04713247	0.06675198	0.01417458	0.01371777	-0.000895559	-0.0007486094	-0.0006962166	-0.0005659632
	-0.0005902735	-0.0004005493	-0.0009794106	-0.0008259	0.007183414	0.02962708	0.04957606	0.06462088
	-0.0003911801	-0.0003340915	-0.0006531142	-0.0005153534	0.04971653	0.06467837	0.007282884	0.02902701
4.6e+08	0.02027897	0.01529323	0.05370618	0.06159348	-0.0005653766	-0.0003155045	-0.0004057685	-0.000190892
	0.05384242	0.0619591	0.0122114	0.01685383	-0.001096409	-0.0006852965	-0.0007847721	-0.0004277189
	-0.0006329174	-0.000329126	-0.001061142	-0.0006298874	0.008299923	0.03291883	0.05616503	0.05942282
	-0.0004203385	-0.0001918178	-0.0007494995	-0.000448104	0.05625799	0.05948336	0.007734373	0.0323721
4.7e+08	0.01931909	0.01744996	0.05951611	0.05571764	-0.0006700834	-0.000244843	-0.0004324137	-0.0001394189
	0.05973327	0.05606198	0.01125254	0.02018256	-0.001165194	-0.000513467	-0.0008286608	-0.0003242783
	-0.0006854291	-0.0002562431	-0.00112367	-0.0005289377	0.009226732	0.0366475	0.06165975	0.0529838
	-0.0004522958	-0.0001912536	-0.0008716921	-0.0002954599	0.0617243	0.05292567	0.007980435	0.0364307
4.8e+08	0.01944388	0.02150428	0.06440734	0.04900997	-0.0006898374	-0.0001618185	-0.0004934714	-4.604064e-05
	0.06466084	0.0491982	0.01162345	0.02522154	-0.001215038	-0.0003010922	-0.0008472052	-0.0001858794
