!
!Touchstone File created by Channel Assembly Engine (Version 2.0.0_Beta1)
!Current time:  2022 6/29 11:40:30
# Hz S RI R 50
0	0.002201114	0.01635213	0.007665727	0.002212514	-0.0002093824	4.365947e-05	0.0001846425	0.0001795532
	0.0002758766	0.0004335012	0.003608708	0.01745949	-0.0001908166	0.0001476958	1.387048e-09	-3.484632e-09
	7.928907e-09	-6.683001e-10	5.795633e-14	4.031589e-14	0.009087217	0.001569194	-3.401909e-05	0.0002718371
	-0.0004465892	0.0001473028	-3.885087e-09	-1.52151e-09	-1.764854e-05	0.0004510713	0.01062292	0.002557498
1e+07	0.01487508	0.0139392	0.008725051	0.0002651427	-0.0001865768	0.000192841	-0.0001411349	-0.0002072466
	0.0007388686	0.002073089	0.01633765	0.014409	0.0002358123	-0.0002901593	-2.74031e-05	-6.627751e-05
	-8.013208e-05	-0.0001600704	4.806067e-05	-0.0001051915	0.01372093	0.00225779	0.0002401703	0.002075961
	-0.0003716844	0.0003950739	5.805463e-05	0.0001283905	0.0002663791	0.002115351	0.01525084	0.00213647
2e+07	0.01615475	0.003269768	0.009656238	-0.002449115	-5.707815e-05	0.0003275334	7.776705e-05	0.0001854332
	0.00134301	0.004814054	0.01770388	0.00305872	-0.0002467588	0.0005072826	-6.0262e-05	0.0005421449
	-0.0001319252	0.0006128177	-0.0007814884	-0.0001153055	0.02104749	0.001232615	0.001457785	0.004777145
	-0.0001484905	0.0005635331	-0.0005420978	-0.0002467719	0.001179158	0.004726881	0.02189651	-6.216408e-05
3e+07	0.0176254	-0.0009672004	0.009837359	-0.004795052	6.304652e-06	-0.0001570858	-4.120473e-05	-7.181935e-05
	0.002503567	0.005978061	0.01920755	-0.002361893	7.681094e-05	-0.0002300632	-0.0001883964	-0.0002382992
	-0.0001839222	-9.992355e-05	0.0001060938	-8.568568e-05	0.01641492	-0.0007457113	0.002504507	0.005899181
	6.462235e-05	-0.0002134431	5.557039e-05	-0.0001039796	0.002601809	0.005945652	0.01737628	-0.002422697
4e+07	0.01678246	-0.0001802627	0.008970541	-0.00694262	3.945156e-05	-0.0001197513	9.404954e-05	6.281413e-05
	0.004210769	0.007662785	0.01831699	-0.001468898	-3.07284e-05	-0.0001216603	5.98007e-05	0.0001729225
	7.070928e-05	1.786002e-05	-2.06976e-05	5.975703e-05	0.01793829	-0.002668509	0.004274143	0.007649544
	-4.019201e-05	5.514662e-05	1.687614e-05	6.561866e-05	0.004259011	0.007385177	0.01898515	-0.004227361
5e+07	0.01602917	-0.004131935	0.006526597	-0.009416905	-5.921281e-05	-9.877955e-06	-5.261226e-05	1.437284e-05
	0.005878483	0.008608236	0.01680415	-0.006209711	-3.819087e-05	9.610282e-06	-0.0001564071	-3.288931e-05
	-0.0001186177	1.695611e-05	-0.0001908734	-7.049196e-05	0.01667722	-0.008327572	0.005897283	0.008474908
	-0.0001360955	1.707815e-06	-0.0001088792	1.475044e-05	0.006002892	0.008555953	0.01682583	-0.01043624
6e+07	0.02004914	-0.00708812	0.003840189	-0.01098479	7.811683e-05	-0.0001102759	-0.0001992599	0.0001186868
	0.007945336	0.009250612	0.02044131	-0.009025366	-1.582651e-05	3.55351e-06	-0.0001677425	-5.688365e-05
	-0.0001611062	-7.928323e-06	-6.462087e-05	-2.588075e-05	0.01513019	-0.008008965	0.007945053	0.009087122
	4.111986e-06	2.424671e-05	1.951633e-05	-1.239525e-05	0.007853402	0.009067467	0.01486571	-0.009817288
7e+07	0.01418119	-0.008685941	0.0004586709	-0.01257283	-0.000106165	-6.631176e-05	4.879813e-06	5.750322e-05
	0.01008405	0.009036104	0.01411201	-0.01072959	-0.000194122	-6.238121e-06	-8.624086e-05	-0.000272275
	-5.24725e-05	-0.000118782	-0.0001683812	-0.00011624	0.01008782	-0.01169395	0.0101319	0.008997423
	-0.0001148465	-0.0001576734	-1.373103e-05	-8.346146e-05	0.01001755	0.009136626	0.009573045	-0.01405477
8e+07	0.009688306	-0.01076432	-0.003421786	-0.0127122	-0.0001228134	-2.881882e-05	-7.657942e-05	7.334608e-06
	0.01205784	0.008623906	0.009351592	-0.01291928	-0.00015374	-4.324221e-05	-5.843734e-05	-1.833899e-05
	4.353179e-05	-1.773467e-05	-3.696724e-05	2.546698e-05	0.006959009	-0.01517371	0.01202941	0.008650922
	-0.0001121611	-1.836084e-05	-0.0001257589	8.763566e-06	0.01209232	0.00857333	0.006053019	-0.01726748
9e+07	0.006000743	-0.01083773	-0.007547927	-0.01237274	-0.0002011174	1.576725e-05	-2.316124e-05	2.161447e-05
	0.0138706	0.0077607	0.005159404	-0.01276918	-0.0002078561	5.617486e-05	-8.761429e-05	-7.975345e-05
	-0.0001000732	-4.463854e-05	-8.694928e-05	-3.679153e-05	0.004641658	-0.01644759	0.01386712	0.007564714
	3.752034e-05	1.730892e-05	-3.414023e-05	4.967969e-06	0.01381351	0.007590313	0.003545326	-0.01875686
1e+08	0.001990662	-0.00915036	-0.01189517	-0.01060258	-0.0001308839	2.997287e-05	-4.54663e-05	2.71367e-05
	0.01550519	0.006421901	0.0007718197	-0.01110831	-0.000144916	-4.38846e-06	-6.297592e-05	-4.146172e-05
	-0.0001048183	-6.152256e-06	-0.0001713448	0.0001231133	0.00139292	-0.01341545	0.01533912	0.006264217
	-0.0001117618	-1.783485e-05	-7.473668e-05	6.287982e-05	0.01532698	0.006097772	8.149019e-05	-0.01512303
1.1e+08	0.0001491382	-0.008565873	-0.01638059	-0.008220877	-0.0001307662	-1.53924e-05	-0.0001135358	-1.951834e-06
	0.01665113	0.004534569	-0.001662858	-0.01025023	-0.0001607547	2.237992e-05	-7.708088e-05	9.791975e-05
	-0.0001423665	9.667246e-05	-0.0002505733	0.0001068053	-0.005491506	-0.0120493	0.01645571	0.004356073
	-2.016983e-05	8.715058e-05	-0.0001147795	8.918046e-05	0.01641923	0.004328408	-0.00736849	-0.01371962
1.2e+08	-0.006502174	-0.00469153	-0.0199976	-0.004705025	-7.872255e-05	5.796791e-05	-2.960883e-05	5.491509e-05
	0.01731975	0.002359728	-0.008465565	-0.00606116	-0.000171018	9.087645e-05	-0.0001540458	5.695066e-05
	-0.0002121973	4.861262e-05	-0.0001513299	8.148592e-05	-0.01109322	-0.01314303	0.0171855	0.002200546
	-0.0001723904	2.087564e-05	-6.008492e-05	5.375812e-05	0.01716977	0.00222524	-0.0130549	-0.01448256
1.3e+08	-0.009583505	-0.003134656	-0.02336678	-0.0004668665	-7.021847e-05	7.408287e-06	-0.000125168	5.56062e-05
	0.01759654	-9.890081e-05	-0.01175994	-0.003954109	-0.0001931333	0.0001325355	-5.821862e-05	0.0001119887
	-0.0001086004	3.701728e-05	-0.0001673224	0.0001341954	-0.01332184	-0.008435722	0.0174233	-6.859316e-05
	-2.21795e-05	2.960556e-05	-0.0001358615	8.10777e-05	0.01743459	-0.000121542	-0.01540291	-0.009587935
1.4e+08	-0.01215688	0.001585423	-0.02581719	0.004525112	-0.000126447	0.0001221508	-5.4525e-05	4.651854e-05
	0.0171992	-0.00259498	-0.01452556	0.001117603	-0.0002229156	0.0001822901	-0.000107129	0.0001091587
	-7.756326e-05	0.0001659548	-0.0001656798	0.0001505397	-0.01756195	-0.005797267	0.01691482	-0.002680194
	2.529599e-05	9.480035e-06	-9.661996e-05	6.419432e-05	0.0168813	-0.002689934	-0.01960857	-0.006812155
1.5e+08	-0.01441849	0.005257802	-0.02748167	0.009985145	-8.060024e-05	0.0001003945	-7.579066e-05	7.293443e-05
	0.01619086	-0.005052581	-0.01683333	0.005384047	-0.0001226613	0.0001942271	-6.059422e-05	0.0001060001
	-5.558636e-05	0.0001227264	-0.0001727192	0.0002204683	-0.0191688	-0.0001634106	0.01589541	-0.00517695
	-5.173626e-05	0.000119507	-0.0001230122	0.0001575188	0.01584206	-0.005165864	-0.0212944	-0.001010768
1.6e+08	-0.0160601	0.008868809	-0.02817841	0.0161836	9.502764e-06	0.0002912491	-0.0001014511	0.0001237014
	0.0144866	-0.007517421	-0.01832579	0.009380847	-0.0001143599	0.0001876902	-9.866277e-05	8.718028e-05
	3.767804e-05	0.0002540403	-0.0001849536	0.0002786612	-0.02292763	0.004906705	0.01421818	-0.007544936
	-4.05743e-05	0.0002120179	-0.0001216014	9.729778e-05	0.01419339	-0.007551277	-0.02507631	0.004245028
1.7e+08	-0.01598978	0.01424365	-0.02757817	0.02212562	-8.273671e-05	9.042131e-05	-1.972325e-05	9.106502e-05
	0.01226406	-0.009702785	-0.01792429	0.01524799	-6.311709e-05	0.0001620624	-9.972542e-05	0.0002171351
	-4.508176e-05	0.000124136	-0.0001032307	0.0002803756	-0.02232568	0.01257072	0.01185582	-0.009673112
	-5.861993e-05	8.589132e-05	-0.000133705	4.821784e-05	0.0117249	-0.009612655	-0.02442552	0.01180818
1.8e+08	-0.01410113	0.02069871	-0.02608398	0.02818248	1.120004e-05	0.0001925578	-0.0001080535	0.0001703591
	0.009531123	-0.01166377	-0.01584325	0.02199307	2.010995e-05	0.0002574447	-7.32138e-05	0.0002963654
	4.841944e-05	0.0001779449	-2.432414e-07	0.0002555274	-0.02279292	0.01963945	0.009036784	-0.01150303
	-4.204535e-05	0.0001308077	-2.063499e-05	0.0001146426	0.008985035	-0.01149898	-0.02478873	0.01882786
1.9e+08	-0.01362896	0.02784722	-0.02334091	0.03380442	1.121163e-05	0.0002223124	-6.486927e-05	0.0001418576
	0.00618803	-0.01296622	-0.0149675	0.02969951	1.662862e-05	0.0003672279	-1.79812e-05	0.0002217429
	-3.155981e-05	0.000148358	-3.137457e-05	0.000359089	-0.0223202	0.02182394	0.005674936	-0.01270333
	7.123759e-05	9.059201e-05	-0.0001189976	0.0002377072	0.005676051	-0.01273864	-0.02417505	0.02087402
2e+08	-0.009913223	0.03266524	-0.01996607	0.03896939	1.687009e-05	0.0001080137	4.957258e-05	0.0001471519
	0.002399305	-0.01369823	-0.01104667	0.03450553	4.154555e-05	0.0003027375	3.217807e-05	0.0002092018
	-8.882665e-05	0.0003343712	3.542113e-05	0.0003675071	-0.02101725	0.02771922	0.001764821	-0.01343227
	-0.0001069991	0.0002121175	4.275075e-05	0.0002177497	0.001699162	-0.01346479	-0.02334442	0.02659674
2.1e+08	-0.006545469	0.03796091	-0.0153718	0.04378073	5.465994e-06	0.0001694863	5.516127e-05	0.0001711852
	-0.001868418	-0.01393613	-0.006982654	0.04001831	0.0001403765	0.0003833305	4.811116e-05	0.0001698703
	6.351163e-05	0.0002872424	5.747494e-05	0.0003494222	-0.01770447	0.03331536	-0.002466227	-0.01348596
	8.568664e-05	8.54577e-05	-2.475034e-05	0.0002381709	-0.002500923	-0.01359349	-0.01971046	0.03213931
2.2e+08	-0.003303382	0.04013158	-0.01009603	0.04777832	0.0001047597	0.0001765813	4.801731e-05	0.0001531097
	-0.006286069	-0.01340214	-0.003234282	0.0420964	0.0001279111	0.0002616758	0.0001678246	0.0001967954
	0.000149056	0.0002746073	6.538869e-05	0.0003754035	-0.01348375	0.03945535	-0.006845866	-0.01285019
	1.205783e-05	7.080694e-05	0.0001623457	0.0002013867	-0.006907446	-0.01285096	-0.01566036	0.03812107
2.3e+08	0.002551241	0.04425257	-0.004420531	0.05046986	0.0001415833	0.0002361005	8.854664e-05	0.0001205832
	-0.01062234	-0.01192687	0.003034871	0.04615745	0.0001773552	0.0003306621	0.0001067496	0.0002337628
	0.000164539	0.0002709662	0.0001316676	0.0003251429	-0.009544176	0.04005143	-0.01125325	-0.01134114
	3.654217e-05	0.0001493906	0.0001558125	0.0001622227	-0.01130222	-0.01133048	-0.01186568	0.03855518
2.4e+08	0.0074014	0.04688273	0.001695167	0.05257918	0.0001351662	0.0001614408	0.000125153	8.178104e-05
	-0.0151185	-0.009646665	0.008179584	0.04846719	0.0002745733	0.0002645885	0.0001667874	0.0002079536
	0.0002259501	0.0001307667	0.0002379263	0.0002137571	-0.001963607	0.0443552	-0.01574996	-0.009116349
	0.0001659098	7.617995e-05	0.0002340998	0.0001722115	-0.01572955	-0.009176573	-0.004835553	0.04301462
2.5e+08	0.01273685	0.05180445	0.008160983	0.05304282	0.0002233649	7.693593e-05	0.0001708455	0.0001347621
	-0.0193838	-0.006689125	0.0139982	0.05325915	0.0003265549	0.0001080687	0.0002668351	0.0001619204
	0.000265376	0.0001211143	0.000356955	0.0002701321	0.001991808	0.04463009	-0.01987444	-0.005914486
	6.003611e-05	9.68803e-05	0.0002787342	0.0001174476	-0.01995544	-0.005878008	-0.00109513	0.04304734
2.6e+08	0.02174757	0.0496518	0.01432068	0.05268366	0.0002689486	0.0001373274	0.0001192526	6.723971e-05
	-0.02327073	-0.002780284	0.02358065	0.05059146	0.0004274598	0.0001738512	0.0002494242	0.0001792158
	0.0002531586	0.0001490245	0.0003645695	0.0001782918	0.004385549	0.04457056	-0.02368167	-0.001866554
	0.000235715	8.315712e-05	0.0001632823	0.0001142514	-0.02373116	-0.002036635	0.001002625	0.04294731
2.7e+08	0.02378154	0.04844626	0.02006972	0.05116658	0.0002449183	0.0001035189	0.0002255325	-3.116732e-05
	-0.02678221	0.00180619	0.0258188	0.04907333	0.0003821353	8.745305e-05	0.0002620691	0.0001494408
	0.0002937712	7.779838e-05	0.0004403189	0.0001862385	0.01310839	0.04575938	-0.02705535	0.002703385
	0.0002354155	6.072029e-05	0.0003319067	8.42118e-05	-0.0270426	0.002832103	0.008977331	0.04417675
2.8e+08	0.02892664	0.04772159	0.02560159	0.04891953	0.0003017176	7.014823e-06	0.0001519055	2.93406e-05
	-0.0295573	0.00703567	0.03130512	0.04782635	0.0004111475	0.0001112963	0.0002622428	0.0001022551
	0.0003204057	0.0001157039	0.0004002855	5.922679e-05	0.01675214	0.04550647	-0.02972426	0.008273033
	0.0001042039	5.283482e-05	0.0002519845	0.0001044111	-0.02977192	0.008236662	0.0121776	0.04425713
2.9e+08	0.03330761	0.04484939	0.03044367	0.04543644	0.0003115908	-6.446422e-06	0.0001910707	8.826652e-05
	-0.03173986	0.0129857	0.03556743	0.04409109	0.0004764272	-6.796592e-05	0.0003589108	-2.467569e-05
	0.0002399701	5.038258e-05	0.0004702526	5.689926e-05	0.02288756	0.04455755	-0.03156865	0.01423512
	0.0001064452	-1.002305e-05	0.0003220514	-7.127318e-05	-0.03166907	0.01423793	0.01768241	0.04345702
3e+08	0.04015469	0.04106554	0.03440626	0.04151469	0.000327973	-8.746994e-05	0.0001954488	-3.379352e-05
	-0.03292394	0.01937294	0.04228695	0.03985823	0.0004568553	-7.151178e-05	0.0002995176	3.190466e-06
	0.0003289884	-1.728379e-05	0.0005078327	-5.438191e-05	0.02535815	0.04002122	-0.03263177	0.02066755
	0.0002258017	-4.043639e-07	0.0003222274	6.992817e-05	-0.03267519	0.02057453	0.0195163	0.03922623
3.1e+08	0.04380618	0.03771639	0.03768475	0.03703394	0.0003165279	-6.553676e-05	0.0001159734	-9.269708e-05
	-0.03329861	0.02598442	0.04584511	0.03579959	0.0004886011	-0.0001692254	0.0003446123	-6.068806e-05
	0.0003435565	-0.0001628213	0.0004675526	-0.0001577377	0.03155259	0.03854715	-0.0329257	0.0272455
	0.0002322048	-9.870713e-05	0.0002714814	-0.0001925877	-0.03291199	0.02735067	0.02527686	0.0386459
3.2e+08	0.04389559	0.0327936	0.03969996	0.03205266	0.0003478384	-0.0001028216	0.0001352911	-9.085252e-05
	-0.03247489	0.03293397	0.04556707	0.03056803	0.0004851822	-0.0002563659	0.0003009848	-0.0001449162
	0.0002875535	-0.0001863316	0.0005158116	-0.0002404699	0.02960138	0.03427069	-0.03193052	0.03421181
	0.0003099715	-6.132228e-05	0.0002913168	-0.0001811943	-0.0319507	0.03419207	0.02283755	0.03495424
3.3e+08	0.04777033	0.02842658	0.04081488	0.02698887	0.0002888506	-0.0001498819	0.0001715916	-8.284885e-05
	-0.03075324	0.03982029	0.04912145	0.02566758	0.000376088	-0.0002780204	0.0002216841	-0.0002156223
	0.0002135256	-0.0001851699	0.0004560099	-0.0003075484	0.03128902	0.02990505	-0.0297663	0.04111835
	0.0001556655	-7.686591e-05	0.0002708204	-0.000229457	-0.02978254	0.041061	0.02419829	0.03117115
3.4e+08	0.0484536	0.02360425	0.04101875	0.02217031	0.0002509284	-0.0002118325	0.0001436482	-0.0002384702
	-0.0279398	0.04656159	0.0490897	0.02040713	0.0004234761	-0.0003460596	0.0002584765	-0.000191383
	0.0002275209	-0.0002343028	0.0004158477	-0.0003992327	0.03171516	0.02563652	-0.02670009	0.04762546
	0.0001303421	-0.0001137405	0.0002520684	-0.0003464074	-0.02679356	0.0477443	0.02451792	0.02803844
3.5e+08	0.04891201	0.02005707	0.04020532	0.01731358	0.0001442711	-0.0002668461	6.930862e-05	-0.000134649
	-0.02408	0.05293652	0.0490296	0.01647113	0.0002953821	-0.0003820675	0.0001771013	-0.0002443331
	0.0001377398	-0.0003131099	0.0003615554	-0.0004777912	0.03277727	0.02212885	-0.02269175	0.05394142
	0.0001821827	-0.0002206769	0.0002180576	-0.0003102708	-0.02276286	0.05401964	0.02541732	0.02543069
3.6e+08	0.04827482	0.01521378	0.03841618	0.01293524	0.0001191156	-0.0003121062	0.0001068454	-0.0001473228
	-0.01926651	0.0588186	0.04780558	0.01158669	0.0003590312	-0.0004848048	0.0001710669	-0.0003599326
	0.0001145454	-0.0003921524	0.0002885732	-0.0004797359	0.03113813	0.02031075	-0.0175538	0.05965595
	0.0001565162	-0.0002401515	0.000240426	-0.0003059631	-0.01769193	0.05974071	0.02375324	0.02445075
3.7e+08	0.04649916	0.01089769	0.03599779	0.009304824	0.0001676917	-0.0002805813	3.352891e-05	-0.0002518168
	-0.0134808	0.06392149	0.04535575	0.007095693	0.0002086429	-0.0005887028	0.0001230888	-0.000317343
	0.0001312967	-0.0004222632	0.000195391	-0.0005214812	0.02887942	0.01622482	-0.01171134	0.06465105
	7.585796e-05	-0.000186502	7.12141e-05	-0.0004105881	-0.01162399	0.06465455	0.02191732	0.02161559
3.8e+08	0.0437975	0.009082144	0.03301818	0.006181015	6.916037e-05	-0.0003549185	3.108865e-05	-0.0001962151
	-0.006908438	0.06839428	0.04207597	0.005357056	0.0001143098	-0.0005605946	6.986548e-05	-0.000366049
	9.300606e-05	-0.0004145858	0.0002015725	-0.0005684529	0.02533792	0.0152141	-0.004841304	0.06876009
	-3.383497e-05	-0.0003501924	6.206255e-05	-0.0003872775	-0.004785453	0.06887143	0.01869816	0.02148458
3.9e+08	0.04099301	0.006819776	0.02953168	0.004072284	3.944901e-05	-0.0003293039	-1.703145e-05	-0.0002232147
	0.0003980742	0.07176746	0.03844095	0.003256476	4.22463e-05	-0.0006545991	7.448714e-05	-0.0004091341
	-5.153635e-05	-0.0004017739	-2.555075e-05	-0.0006722259	0.02324096	0.01160196	0.002543725	0.07196374
	4.144239e-06	-0.0003235793	-5.840674e-07	-0.0004004574	0.002554086	0.0720818	0.0173097	0.0190213
4e+08	0.03760472	0.004119597	0.02566937	0.00271337	-4.857152e-05	-0.0004253713	-1.261295e-05	-0.0002211946
	0.00818389	0.07392557	0.03443768	0.0007288933	-6.750757e-05	-0.000591558	-2.773098e-05	-0.0003810011
	-7.531307e-05	-0.0004080967	-9.311136e-05	-0.0006400553	0.01914111	0.01356816	0.0104024	0.07375286
	-6.520457e-05	-0.0002664452	-4.413382e-05	-0.0003875739	0.01047457	0.07380049	0.01402814	0.021741
4.1e+08	0.03453183	0.002876209	0.02174463	0.002208156	-0.0001415847	-0.0003838333	-0.0001197646	-0.0002679245
	0.01635708	0.07494243	0.03079475	-3.280164e-05	-0.0001546006	-0.000622105	-0.0001302595	-0.0003798889
	-0.0001867035	-0.000415641	-0.0001499136	-0.0006172491	0.01615291	0.01359201	0.01854852	0.07458094
	-7.605056e-05	-0.0002337587	-0.0001028316	-0.0003836987	0.01861053	0.07462723	0.01194048	0.02261014
4.2e+08	0.03143496	0.002210909	0.01814403	0.002609228	-0.0001963195	-0.0004089653	-0.0001168695	-0.0002464354
	0.02461209	0.07488282	0.02706723	-0.0001465467	-0.0002527503	-0.0006135823	-0.0001978211	-0.0003589489
	-0.0002210329	-0.0003901992	-0.0003287442	-0.000610403	0.01401414	0.01513042	0.02681509	0.07407416
	-0.0001160014	-0.0002579639	-0.0001647978	-0.0003565626	0.02685194	0.07410469	0.01084569	0.02480697
4.3e+08	0.02918033	0.004381951	0.01472807	0.00367707	-0.0002887884	-0.0002647042	-0.0001628775	-0.000208855
	0.03272853	0.07338712	0.02435606	0.002629039	-0.0003250595	-0.0004866583	-0.0002057565	-0.0003242928
	-0.0002516751	-0.0003178621	-0.0003632039	-0.0005562148	0.01116768	0.01734007	0.03488494	0.07222452
	-0.0001824023	-0.0002149012	-0.0002278625	-0.0002921212	0.03498295	0.07229885	0.009098041	0.02733677
4.4e+08	0.02556148	0.003700249	0.01179112	0.005582068	-0.000341855	-0.0002942179	-0.0002065675	-0.000203455
	0.04073409	0.07071213	0.02059273	0.002465278	-0.0004469266	-0.0005462374	-0.0003191565	-0.0003234561
	-0.0002869409	-0.0003475623	-0.0004954825	-0.0004971366	0.009128039	0.01963182	0.04274697	0.06916884
	-0.0002304955	-0.0001904083	-0.0003372971	-0.0003299527	0.04295729	0.06921909	0.008503931	0.02997394
4.5e+08	0.02432863	0.006589341	0.009270536	0.007892683	-0.0003751149	-0.0002816883	-0.0002029859	-0.0001829753
	0.04823517	0.06675026	0.01917206	0.006165234	-0.0005877862	-0.0004412334	-0.0003647769	-0.0002682622
	-0.0003361549	-0.0002440204	-0.0005523483	-0.0004385091	0.007190041	0.02313008	0.04996886	0.06481357
	-0.0002716115	-0.0001102655	-0.000341216	-0.0002929132	0.05012298	0.06486583	0.007669984	0.03362035
4.6e+08	0.021607	0.008217213	0.007611352	0.01057169	-0.0004457066	-0.0002213164	-0.0002114065	-0.0001472543
	0.05504297	0.06178374	0.0163974	0.008619159	-0.0006192945	-0.0003491001	-0.0003996742	-0.0001911529
	-0.0003672814	-0.0001716165	-0.0006268285	-0.0003510829	0.007334248	0.02649797	0.05652738	0.05958968
	-0.0002733461	-0.0001465877	-0.0004200786	-0.0002474618	0.05668811	0.05959312	0.009129794	0.0367593
4.7e+08	0.01967866	0.0101888	0.006681468	0.01344793	-0.0004485699	-0.0001378273	-0.0002221701	-4.041213e-05
	0.06099777	0.05567059	0.01451045	0.0112786	-0.0006695337	-0.0001864613	-0.000422973	-0.0001459096
	-0.0004448602	-0.0001611677	-0.0006953651	-0.0002429723	0.007226636	0.03037675	0.06210981	0.05304036
	-0.0002522119	-9.335044e-05	-0.0004476762	-0.0001796236	0.06223355	0.05308091	0.01034851	0.04033822
4.8e+08	0.0188859	0.01405387	0.006438819	0.01629654	-0.000457503	-6.215605e-05	-0.0002809963	-2.363358e-06
