!Keysight Technologies,N5227B,US51270452,A.15.40.11
!Date: Monday, January 24, 2022 14:44:22
!Correction: S11(C  4-Port  ) 
!S12(C  4-Port  ) 
!S13(C  4-Port  ) 
!S14(C  4-Port  ) 
!S21(C  4-Port  ) 
!S22(C  4-Port  ) 
!S23(C  4-Port  ) 
!S24(C  4-Port  ) 
!S31(C  4-Port  ) 
!S32(C  4-Port  ) 
!S33(C  4-Port  ) 
!S34(C  4-Port  ) 
!S41(C  4-Port  ) 
!S42(C  4-Port  ) 
!S43(C  4-Port  ) 
!S44(C  4-Port  ) 
!S4P File: Measurements: <S11,S12,S13,S14>,
!<S21,S22,S23,S24>,
!<S31,S32,S33,S34>,
!<S41,S42,S43,S44>:
# Hz S  dB   R 50
10000000 -37.247829 1.7098519 -0.17526913 -3.3508425 -54.545116 86.390724 -64.666908 -119.06242
-0.049567904 -2.2460556 -39.33696 20.542078 -57.770374 -127.98123 -56.404079 77.366829
-55.372913 73.425491 -68.931259 -118.39753 -38.159164 0.62559927 -0.10539701 -3.1073596
-61.340199 -116.79134 -55.050224 97.607544 -0.064827226 -2.6670206 -40.80888 14.005917
20000000 -38.020191 -5.6354327 -0.19450852 -5.9619055 -49.949455 90.524742 -65.988976 -97.97892
-0.04900448 -5.1873279 -37.056843 -11.3359 -57.431961 -147.40291 -48.275341 78.714455
-51.613232 64.866745 -55.453053 -77.003395 -38.439201 -4.4232974 -0.16582249 -5.7941561
-56.83522 -77.697281 -51.824223 65.571709 -0.039118763 -5.6184587 -37.099854 -12.282932
30000000 -36.846199 -18.540407 -0.20774563 -8.7299366 -46.875645 77.549866 -56.909542 -111.92153
-0.047865812 -8.0493851 -37.11404 -15.666868 -57.05957 -103.24056 -47.052757 79.683739
-46.320728 79.039192 -59.17226 -114.26093 -36.304413 -19.051645 -0.16081458 -8.4848461
-58.274242 -114.28912 -46.340458 78.423096 -0.072826214 -8.3446074 -36.26392 -17.230993
40000000 -35.961094 -27.503283 -0.21629651 -11.479218 -44.409344 77.881897 -55.287693 -106.15266
-0.050117262 -10.778642 -36.792221 -26.710474 -54.493557 -115.31195 -44.209354 74.782288
-44.457729 75.369141 -55.079128 -114.66867 -36.739517 -27.786261 -0.18946016 -11.214444
-54.639267 -105.36086 -44.244595 77.234047 -0.072525345 -11.134449 -35.99226 -26.464603
50000000 -35.685364 -33.338871 -0.22702201 -14.206511 -42.504055 72.311363 -53.703419 -110.80131
-0.063339777 -13.531225 -35.979935 -33.311176 -53.230682 -106.89864 -42.315979 74.193619
-42.344604 74.015663 -53.130714 -110.10374 -35.595345 -36.383427 -0.18853764 -13.960477
-53.49461 -112.17825 -42.464123 73.366882 -0.088467985 -13.854262 -35.49102 -33.502785
60000000 -34.449059 -37.494518 -0.22902828 -16.605551 -40.878471 70.276924 -52.831821 -113.592
-0.084697038 -17.109068 -35.382099 -48.913845 -51.726227 -111.36205 -40.678215 71.765724
-40.776237 70.648048 -51.318123 -109.62984 -34.274158 -41.686726 -0.19972974 -16.555809
-52.010067 -113.00787 -40.977871 71.745949 -0.093962319 -16.629213 -34.818996 -40.581753
70000000 -33.851128 -46.706203 -0.23714933 -19.335627 -39.681786 68.054977 -50.60083 -115.53926
-0.081111073 -19.8062 -34.846413 -53.560146 -50.487434 -115.30975 -39.585472 68.490822
-39.493835 67.966171 -51.255192 -113.32689 -33.782249 -46.7505 -0.20682056 -19.285397
-50.690941 -111.77014 -39.544861 68.162483 -0.10524584 -19.369675 -34.185909 -48.88348
80000000 -33.241318 -52.916798 -0.24440865 -22.137329 -38.500183 65.98819 -49.551189 -117.05949
-0.10076823 -22.146845 -34.135345 -56.225876 -49.58947 -114.99261 -38.461082 65.828049
-38.499737 65.731827 -49.570145 -114.55835 -32.953148 -54.660191 -0.21314698 -22.041006
-49.629959 -118.31602 -38.391239 66.18914 -0.11656991 -22.091518 -33.574326 -54.574966
90000000 -32.402035 -60.430351 -0.25292072 -24.883009 -37.47802 62.79208 -48.611145 -118.80819
-0.11392314 -24.7537 -33.236183 -59.603783 -48.487427 -117.95599 -37.586597 63.539303
-37.435249 63.372955 -48.536186 -119.24689 -32.481644 -61.083599 -0.22258608 -24.786562
-48.574055 -120.60021 -37.412609 63.50024 -0.12897332 -24.781275 -33.017235 -59.663887
100000000 -31.827312 -66.318016 -0.26193997 -27.623152 -36.635674 60.243771 -47.94508 -120.26819
-0.11984707 -27.44051 -32.691208 -65.030312 -47.745262 -120.09489 -36.653843 60.605087
-36.619823 60.70406 -47.692062 -120.48145 -31.934662 -64.981857 -0.23291634 -27.497679
-47.658836 -120.60423 -36.601646 60.901436 -0.13623874 -27.494839 -32.597847 -64.596039
110000000 -31.207424 -69.754356 -0.27164373 -30.303251 -35.85891 57.981045 -47.103119 -122.12228
-0.12399626 -30.146959 -32.147839 -69.748123 -46.92638 -123.01583 -35.794701 58.04755
-35.805405 57.89595 -46.995884 -122.94025 -31.316547 -69.158142 -0.23793349 -30.156546
-46.796875 -122.4667 -35.783127 58.287605 -0.14617266 -30.186762 -31.784147 -70.196785
120000000 -30.801985 -74.638168 -0.27896264 -33.004677 -35.125195 55.176025 -46.250336 -125.1493
-0.13680853 -32.866226 -31.704323 -75.438713 -46.145504 -124.55783 -35.115135 55.77776
-35.065968 55.395893 -46.234287 -124.30167 -30.7812 -74.212372 -0.24761492 -32.852337
-46.197132 -124.85976 -35.068153 55.590443 -0.15019381 -32.931061 -31.488642 -74.254486
130000000 -30.206285 -78.942596 -0.28622061 -35.686707 -34.440678 52.689323 -45.580692 -126.52618
-0.14182518 -35.56411 -31.103886 -80.364548 -45.466042 -126.7773 -34.422779 53.202785
-34.408657 52.520954 -45.585934 -126.8529 -30.415491 -78.276001 -0.2561827 -35.541428
-45.362125 -127.58356 -34.405781 53.046555 -0.16034424 -35.609638 -31.054001 -79.580261
140000000 -29.706032 -83.244385 -0.2951822 -38.402077 -33.833286 50.063847 -44.92308 -128.53656
-0.1527625 -38.271854 -30.702633 -84.704552 -44.78265 -130.03143 -33.837925 50.32972
-33.826004 50.185322 -44.948807 -128.91112 -30.038218 -82.013466 -0.26313454 -38.288181
-44.826496 -128.70889 -33.844925 50.26635 -0.16643327 -38.295864 -30.677683 -83.627419
150000000 -29.289043 -87.469337 -0.30398214 -41.101189 -33.286377 47.528687 -44.341377 -131.04425
-0.16053416 -40.962158 -30.252037 -88.729218 -44.306007 -130.93246 -33.259609 47.776226
-33.247829 47.517391 -44.305794 -131.31105 -29.707811 -86.03157 -0.26918304 -40.982639
-44.267223 -130.72032 -33.231125 47.788105 -0.17542303 -40.967648 -30.32247 -87.290024
160000000 -28.8477 -91.602829 -0.31190756 -43.783154 -32.70129 45.000652 -43.61694 -132.8833
-0.17206599 -43.671577 -29.797014 -92.59333 -43.551105 -133.60779 -32.706326 45.126583
-32.709389 44.864685 -43.654545 -133.32967 -29.493109 -87.937386 -0.27678362 -43.727551
-43.743511 -133.039 -32.716225 45.114899 -0.18042649 -43.670689 -30.169292 -91.089996
170000000 -28.604807 -94.626114 -0.31812027 -46.48362 -32.248161 42.133724 -43.278954 -135.9137
-0.17582546 -46.371029 -29.601532 -96.855713 -43.036095 -135.82198 -32.225262 42.39579
-32.196735 42.242798 -43.110313 -135.32738 -29.362864 -91.379051 -0.28440997 -46.424133
-43.072464 -136.12488 -32.21299 42.248997 -0.19482338 -46.361343 -29.807304 -93.844841
180000000 -28.319513 -97.664398 -0.32654989 -49.201481 -31.818056 39.562618 -42.726593 -137.87309
-0.18497597 -49.050125 -29.163595 -100.99216 -42.708279 -136.5359 -31.811785 40.088524
-31.767555 39.479267 -42.759762 -137.94939 -29.028105 -94.483376 -0.29667807 -49.060127
-42.511463 -137.47627 -31.740702 40.196663 -0.20026724 -49.128292 -29.579382 -96.769539
190000000 -27.99054 -101.11527 -0.33549839 -51.868469 -31.404778 36.874344 -42.297871 -139.47461
-0.19354245 -51.765888 -28.868629 -104.69302 -42.091713 -140.13763 -31.357607 37.400803
-31.353779 36.904659 -42.192356 -140.28864 -28.644285 -97.164589 -0.30887085 -51.718159
-42.184029 -139.16093 -31.348354 37.483479 -0.20696989 -51.79385 -29.341192 -100.75855
200000000 -27.682894 -103.71085 -0.35024863 -54.552746 -30.975767 34.196625 -41.819118 -142.21109
-0.20344351 -54.430538 -28.498142 -108.82803 -41.72543 -142.34656 -30.952095 34.694672
-30.954248 34.371674 -41.810371 -141.80022 -28.518566 -99.402557 -0.31502324 -54.38327
-41.741699 -142.11484 -30.955265 34.747211 -0.22193764 -54.484276 -29.078873 -102.83379
210000000 -27.447159 -107.05835 -0.35568729 -57.244549 -30.573645 31.41802 -41.374813 -144.95012
-0.21239693 -57.110424 -28.298647 -111.59985 -41.137024 -144.34787 -30.527908 32.148384
-30.559809 31.817385 -41.421669 -144.62888 -28.301983 -102.3678 -0.32594627 -57.057972
-41.242859 -144.67607 -30.529999 32.022541 -0.2289377 -57.161076 -28.996893 -106.76223
220000000 -27.270788 -109.7636 -0.36433405 -59.956337 -30.208773 28.856184 -40.96413 -147.02103
-0.2185559 -59.771103 -28.011969 -115.39326 -40.842621 -146.96036 -30.168455 29.532974
-30.165358 29.229607 -40.919323 -146.63826 -28.067894 -104.70056 -0.33491674 -59.743629
-40.779438 -146.85597 -30.215631 29.43693 -0.23672232 -59.819592 -28.80006 -109.7376
230000000 -27.076063 -112.94842 -0.36992595 -62.648628 -29.874025 26.326006 -40.373577 -149.09103
-0.23008992 -62.438251 -27.829567 -118.7288 -40.435703 -149.09119 -29.829977 26.847477
-29.82769 26.476406 -40.450432 -149.06277 -28.014349 -106.98066 -0.3405672 -62.482113
-40.374649 -149.3909 -29.841738 26.864454 -0.24509661 -62.455864 -28.682211 -112.91771
240000000 -26.858376 -116.29533 -0.37890479 -65.313728 -29.531797 23.854197 -40.144142 -151.12871
-0.23562683 -65.145279 -27.664839 -122.16251 -39.953751 -151.77222 -29.490894 24.291815
-29.498205 23.860249 -40.039967 -151.52197 -27.882219 -109.75502 -0.3514773 -65.158073
-39.969215 -151.1098 -29.502522 24.348261 -0.25542626 -65.103241 -28.507011 -116.18237
250000000 -26.712271 -118.99384 -0.38616553 -67.977615 -29.197657 21.131393 -39.684147 -153.75528
-0.247425 -67.821846 -27.522099 -125.46777 -39.535698 -154.00122 -29.202709 21.664854
-29.19433 21.168636 -39.676838 -154.3136 -27.768984 -112.62222 -0.35812888 -67.827293
-39.577694 -153.19492 -29.164351 21.690788 -0.26393878 -67.786766 -28.550594 -119.25892
260000000 -26.655952 -122.02287 -0.39689451 -70.647453 -28.913277 18.63063 -39.335396 -157.17363
-0.25270313 -70.495605 -27.472853 -128.46216 -39.213493 -156.27031 -28.879032 19.065922
-28.879044 18.489708 -39.248623 -156.51366 -27.738586 -115.0321 -0.36655208 -70.454948
-39.057396 -155.82086 -28.887239 18.871614 -0.26867604 -70.45134 -28.41329 -121.45944
270000000 -26.526981 -124.6727 -0.40681988 -73.316841 -28.623426 15.858491 -38.939846 -158.64143
-0.25951365 -73.173058 -27.303221 -131.13281 -38.858189 -158.95357 -28.571505 16.553116
-28.581551 15.83744 -38.887589 -158.71843 -27.604889 -117.19467 -0.37053487 -73.083008
-38.786396 -158.04858 -28.629753 16.54793 -0.28044215 -73.184792 -28.495649 -124.75191
280000000 -26.501236 -127.13927 -0.41524699 -75.99527 -28.362135 13.133063 -38.542912 -160.91908
-0.27023691 -75.852051 -27.314617 -134.56828 -38.453629 -161.18568 -28.318922 13.808252
-28.324169 13.321151 -38.583668 -160.97238 -27.554335 -120.23859 -0.37827098 -75.738106
-38.395958 -161.42415 -28.300152 13.752929 -0.28688315 -75.842407 -28.443617 -127.37884
290000000 -26.371243 -130.6451 -0.42082959 -78.669861 -28.102886 10.461214 -38.185863 -163.26582
-0.28183734 -78.505379 -27.326517 -138.06664 -38.018574 -163.5804 -28.06852 11.223517
-28.085096 10.754844 -38.114002 -163.48676 -27.511793 -122.75373 -0.38854676 -78.40435
-38.008083 -163.6362 -28.053581 11.076836 -0.29215604 -78.524826 -28.510098 -129.56317
300000000 -26.314219 -133.48428 -0.42806369 -81.35981 -27.846912 7.9401326 -37.817543 -166.02356
-0.28506035 -81.178909 -27.210911 -139.72455 -37.693653 -166.3344 -27.804436 8.7022219
-27.805948 7.9820333 -37.82209 -166.16968 -27.487244 -125.58215 -0.39506859 -81.098846
-37.721504 -165.7995 -27.795647 8.5378733 -0.29774749 -81.167747 -28.420523 -132.24352
310000000 -26.308319 -136.03508 -0.43386504 -84.001534 -27.615133 5.2632213 -37.439545 -168.40373
-0.29779544 -83.824257 -27.337933 -142.69177 -37.331287 -168.67758 -27.574007 5.9896245
-27.612608 5.4519267 -37.431011 -168.9541 -27.396133 -128.27831 -0.40045696 -83.816826
-37.252541 -168.59946 -27.55662 6.0982885 -0.30770975 -83.81369 -28.483061 -135.55305
320000000 -26.359764 -138.974 -0.44654837 -86.666183 -27.369711 2.8301682 -37.144859 -171.31351
-0.30489755 -86.491173 -27.246885 -145.0975 -37.034332 -171.58049 -27.345333 3.4872885
-27.363779 2.8798382 -37.112724 -171.14798 -27.567204 -131.50641 -0.4104892 -86.503746
-36.973415 -170.97948 -27.345144 3.2693491 -0.31638756 -86.43795 -28.494101 -138.02124
330000000 -26.387547 -141.97206 -0.45436203 -89.358147 -27.151051 0.14512794 -36.829247 -173.97763
-0.31159052 -89.157845 -27.329159 -147.7355 -36.707451 -173.75551 -27.120321 0.7994771
-27.130764 0.19737017 -36.785469 -174.14143 -27.594055 -134.61288 -0.42574579 -89.163399
-36.659554 -173.56084 -27.112404 0.72209281 -0.32713905 -89.122505 -28.632807 -141.14705
340000000 -26.475946 -145.02299 -0.46076649 -92.030602 -26.953577 -2.6132755 -36.458309 -176.15161
-0.31942093 -91.803246 -27.382988 -150.21964 -36.371479 -176.23882 -26.907785 -1.837683
-26.904793 -2.320869 -36.485691 -176.68597 -27.699329 -137.25235 -0.43423522 -91.785942
-36.348721 -176.22916 -26.895998 -1.8769686 -0.3339209 -91.782623 -28.777647 -143.50499
350000000 -26.575794 -147.62166 -0.46651947 -94.67952 -26.727118 -5.2704368 -36.191132 -178.79466
-0.32692134 -94.516129 -27.3501 -152.54315 -36.037357 -178.75963 -26.69171 -4.4541836
-26.713503 -5.0521908 -36.195526 -178.91074 -27.885117 -140.61462 -0.43923533 -94.430283
-36.035805 -178.92075 -26.682062 -4.475594 -0.34476075 -94.463135 -28.886854 -146.59688
360000000 -26.650183 -150.06175 -0.47348285 -97.345184 -26.510088 -7.908483 -35.899879 178.52718
-0.33170465 -97.159904 -27.442719 -154.90941 -35.799389 178.4599 -26.510508 -6.9186783
-26.496082 -7.57657 -35.935467 178.45341 -27.987602 -143.14128 -0.44732422 -97.050476
-35.687126 178.2672 -26.486065 -7.0162745 -0.34916398 -97.176025 -28.957561 -148.78716
370000000 -26.849337 -153.42058 -0.48340043 -100.03449 -26.330381 -10.507442 -35.581657 175.81433
-0.34046417 -99.807884 -27.542418 -157.61966 -35.509914 175.77089 -26.30621 -9.665349
-26.304291 -10.160275 -35.568218 175.74965 -28.22286 -145.55389 -0.45906025 -99.696548
-35.372311 175.77031 -26.301529 -9.6837349 -0.35621381 -99.847412 -29.176918 -152.03056
380000000 -27.016571 -155.25829 -0.48873851 -102.67509 -26.152063 -13.148543 -35.307617 172.97273
-0.34728453 -102.46754 -27.710201 -160.07423 -35.225693 172.83521 -26.122116 -12.173714
-26.112398 -12.955038 -35.308025 173.00629 -28.427637 -148.00255 -0.46413258 -102.35302
-35.124241 172.92569 -26.109005 -12.389773 -0.36355883 -102.48528 -29.391207 -154.02101
390000000 -27.251266 -158.03442 -0.49832082 -105.32753 -25.959702 -15.732853 -34.984985 170.3436
-0.35726315 -105.12656 -27.892147 -161.79637 -34.920567 170.21288 -25.950001 -14.836959
-25.94228 -15.50614 -35.015038 170.21245 -28.62546 -151.19327 -0.46971813 -105.01445
-34.876369 170.42746 -25.934092 -15.001459 -0.37118867 -105.10671 -29.509691 -156.87648
400000000 -27.470087 -160.32593 -0.50677049 -107.98242 -25.81205 -18.39377 -34.685177 167.52988
-0.36292475 -107.79964 -28.081429 -164.15176 -34.61095 167.60481 -25.76474 -17.439352
-25.772882 -18.307369 -34.74514 167.46835 -28.805183 -153.42497 -0.47316849 -107.70829
-34.579479 168.03717 -25.771881 -17.513866 -0.38286299 -107.72694 -29.818615 -159.4792
410000000 -27.755096 -163.10027 -0.51411515 -110.6032 -25.631159 -21.053181 -34.441261 164.90692
-0.37115625 -110.45208 -28.346992 -166.3096 -34.353775 164.97809 -25.607967 -20.049841
-25.586485 -20.906345 -34.433136 164.82695 -29.150703 -156.25816 -0.48447633 -110.36959
-34.280895 165.03943 -25.600636 -20.077349 -0.38509986 -110.37028 -30.111237 -161.96402
420000000 -28.106039 -165.33311 -0.52126187 -113.2765 -25.47155 -23.65666 -34.169361 162.02275
-0.37669483 -113.11796 -28.576128 -168.89662 -34.070248 161.93587 -25.435925 -22.755774
-25.437017 -23.564066 -34.182224 161.74394 -29.509636 -158.80257 -0.48699057 -113.02516
-33.990166 162.26665 -25.438599 -22.72319 -0.39278889 -113.01653 -30.423119 -164.35779
430000000 -28.406883 -167.51434 -0.52747935 -115.9057 -25.322649 -26.233692 -33.902916 159.60359
-0.3826043 -115.78487 -28.910744 -170.79645 -33.813831 159.40915 -25.284693 -25.286858
-25.280504 -26.192755 -33.896118 159.35945 -29.816885 -160.85179 -0.49710101 -115.6412
-33.769062 159.36682 -25.268789 -25.301903 -0.39888322 -115.68394 -30.838507 -167.31981
440000000 -28.863075 -169.43399 -0.53586709 -118.57227 -25.162266 -28.960739 -33.615093 156.36647
-0.39245313 -118.43033 -29.301832 -172.46503 -33.547607 156.60451 -25.130857 -27.887459
-25.136049 -28.78895 -33.673531 156.40941 -30.175135 -163.00183 -0.50371683 -118.2672
-33.501724 156.64305 -25.135714 -28.009432 -0.40450418 -118.35483 -31.197208 -169.63994
450000000 -29.356766 -170.80765 -0.54068196 -121.23526 -25.013763 -31.594025 -33.364731 153.62114
-0.39731771 -121.06876 -29.718987 -174.56924 -33.30505 153.61517 -24.982618 -30.468002
-24.984711 -31.497629 -33.402527 153.53777 -30.652496 -164.46956 -0.508811 -120.88342
-33.232113 153.53078 -24.977392 -30.627838 -0.41346574 -121.04892 -31.716757 -171.53191
460000000 -29.817503 -172.79005 -0.54477638 -123.88821 -24.869543 -34.328625 -33.11306 150.84622
-0.40468943 -123.71739 -30.172586 -176.32761 -33.057152 150.82581 -24.839783 -33.11137
-24.836388 -34.14291 -33.139183 150.73022 -31.091183 -165.91803 -0.51492709 -123.53439
-32.981308 150.6144 -24.83149 -33.24955 -0.41707572 -123.70932 -32.357094 -174.03943
470000000 -30.4172 -173.63409 -0.55325639 -126.56503 -24.73311 -37.011742 -32.855309 147.82596
-0.41101447 -126.37171 -30.727066 -177.15808 -32.8367 147.83336 -24.706249 -35.753597
-24.701164 -36.846695 -32.92548 147.73209 -31.604471 -166.24475 -0.52046865 -126.22172
-32.740253 147.82907 -24.708147 -35.919048 -0.42519334 -126.34982 -32.92255 -175.06438
480000000 -31.057764 -173.80765 -0.55774677 -129.24167 -24.59679 -39.699261 -32.623116 144.68852
-0.41660047 -129.01291 -31.377865 -178.10219 -32.549381 144.86819 -24.567886 -38.486462
-24.562462 -39.539581 -32.653042 144.69743 -32.096115 -167.0972 -0.53000695 -128.90695
-32.476543 144.73274 -24.558926 -38.588875 -0.43271068 -128.96059 -33.5695 -175.7278
490000000 -31.752615 -174.07245 -0.56440616 -131.90564 -24.473204 -42.338425 -32.409927 141.77269
-0.42293602 -131.6552 -31.993353 -178.70361 -32.347855 141.97504 -24.446175 -41.113838
-24.436838 -42.171604 -32.438961 141.9335 -32.555889 -167.07507 -0.53639954 -131.57228
-32.245174 142.10938 -24.434748 -41.164013 -0.43931869 -131.59573 -34.339081 -175.93925
500000000 -32.37331 -173.45023 -0.57164001 -134.5414 -24.352766 -45.005783 -32.195641 138.8736
-0.42780316 -134.31732 -32.779148 -179.17215 -32.124306 139.12489 -24.323477 -43.769806
-24.325449 -44.925446 -32.223652 139.01984 -33.116302 -167.05948 -0.54307991 -134.24716
-32.046074 139.09174 -24.314978 -43.786633 -0.44546205 -134.23579 -34.936779 -176.93614
510000000 -33.284267 -173.20094 -0.57912844 -137.18945 -24.230589 -47.687111 -31.904648 135.8429
-0.43016219 -136.98921 -33.73753 -177.98825 -31.872711 136.30679 -24.170212 -46.414524
-24.192545 -47.521751 -31.959585 136.16689 -33.661137 -165.62099 -0.55384099 -136.90331
-31.779608 136.40947 -24.195757 -46.335205 -0.4505001 -136.90923 -36.191429 -175.64038
520000000 -33.940342 -170.26955 -0.5829277 -139.83684 -24.124973 -50.432407 -31.69718 133.03572
-0.43872842 -139.61583 -34.543457 -176.30048 -31.690023 133.34996 -24.082119 -49.056992
-24.075081 -50.296665 -31.769321 133.06712 -34.161572 -163.99522 -0.5610705 -139.50113
-31.583395 132.88884 -24.066359 -49.192444 -0.45812759 -139.57439 -37.039818 -173.61993
530000000 -34.769173 -165.47363 -0.59317023 -142.50459 -24.022303 -53.183052 -31.518448 129.84721
-0.44554207 -142.26013 -35.560619 -173.88094 -31.474451 130.07472 -23.96933 -51.628189
-23.970911 -52.902142 -31.570642 130.32454 -34.527122 -162.09425 -0.56527525 -142.08925
-31.392778 129.93956 -23.965714 -51.731197 -0.4667097 -142.22342 -37.947388 -170.63341
540000000 -35.562675 -159.70605 -0.59827185 -145.16223 -23.887661 -55.887688 -31.322466 126.96401
-0.45391685 -144.91025 -36.873436 -169.29129 -31.246206 127.29031 -23.856562 -54.408451
-23.865805 -55.616341 -31.358171 127.2076 -35.057907 -157.70435 -0.57335854 -144.75856
-31.134853 126.92567 -23.844412 -54.441322 -0.47077158 -144.87582 -39.421288 -165.65355
550000000 -36.027958 -151.98296 -0.60451198 -147.82185 -23.79299 -58.65028 -31.136011 123.52216
