!Keysight Technologies,N5227B,US51270452,A.15.40.11
!Date: Tuesday, January 25, 2022 13:25:28
!Correction: S11(C  4-Port  ) 
!S12(C  4-Port  ) 
!S13(C  4-Port  ) 
!S14(C  4-Port  ) 
!S21(C  4-Port  ) 
!S22(C  4-Port  ) 
!S23(C  4-Port  ) 
!S24(C  4-Port  ) 
!S31(C  4-Port  ) 
!S32(C  4-Port  ) 
!S33(C  4-Port  ) 
!S34(C  4-Port  ) 
!S41(C  4-Port  ) 
!S42(C  4-Port  ) 
!S43(C  4-Port  ) 
!S44(C  4-Port  ) 
!S4P File: Measurements: <S11,S12,S13,S14>,
!<S21,S22,S23,S24>,
!<S31,S32,S33,S34>,
!<S41,S42,S43,S44>:
# Hz S  dB   R 50
10000000 -41.929653 -10.926481 -69.572784 134.97475 -55.53051 84.974129 -65.792145 -141.18275
-67.618195 -55.923058 -40.91338 7.6064682 -67.909966 102.54015 -58.913383 85.274788
-58.187 72.352341 -67.921539 28.915146 -40.620037 -7.4060726 -68.572563 -72.925415
-76.082207 -9.1002293 -56.386005 81.566383 -67.368179 -44.380642 -43.369896 6.2357259
20000000 -41.662632 -14.348882 -65.690628 -52.452019 -49.365368 73.559982 -69.206924 -122.00442
-65.099144 -67.883469 -38.499844 -10.049964 -62.901203 30.642298 -51.474884 90.515602
-51.465679 76.085739 -65.523216 -37.266102 -39.33606 -5.5828586 -64.678604 -140.96878
-67.18187 -98.310867 -50.257725 66.680504 -64.431152 16.800966 -41.096817 -13.898555
30000000 -40.225113 -18.484524 -73.415703 142.46854 -46.869827 78.359718 -78.816841 26.033113
-92.963104 113.00219 -38.756939 -12.863683 -71.329926 -138.96109 -46.378761 76.733826
-46.513531 78.221924 -79.361534 149.46056 -38.813671 -20.47691 -79.387863 -11.004144
-75.998825 82.244278 -46.605274 80.264717 -75.566307 -148.80196 -39.326584 -15.24982
40000000 -39.190262 -28.966692 -76.465096 -124.12186 -44.205601 76.409119 -77.106979 157.26501
-72.604401 -113.7823 -37.911606 -23.695103 -80.312981 129.08011 -44.225983 77.446671
-44.609928 76.982841 -73.323593 -119.04103 -37.682583 -26.405066 -76.682228 161.25784
-72.919205 -98.907394 -44.496208 77.490959 -80.247055 141.44598 -38.387989 -24.975027
50000000 -38.033192 -36.693672 -80.95079 -99.588943 -42.47126 73.180725 -78.494278 -122.40514
-79.954201 -69.009354 -36.769279 -31.381834 -71.158493 -117.943 -42.512806 73.142151
-42.26368 73.980354 -73.9198 -85.606056 -36.616566 -36.554859 -74.759613 -96.266388
-80.601746 -39.633808 -42.429287 72.839355 -73.564522 -119.90113 -37.242992 -33.879482
60000000 -36.894886 -42.92643 -76.396515 -90.655281 -40.879349 71.561249 -76.383163 -115.8514
-79.214226 -42.982121 -36.050682 -38.631397 -67.672974 -120.52841 -40.971466 71.444687
-40.960915 69.878456 -72.213081 -44.961334 -35.639305 -42.971165 -75.438187 -75.722214
-81.171463 -130.24129 -41.062321 70.101608 -82.205605 -165.40752 -36.346825 -41.754398
70000000 -35.891216 -50.469234 -76.799606 -158.51741 -39.631031 68.454811 -76.580688 145.17691
-75.750992 -124.73793 -35.291801 -46.223091 -76.487244 -52.608131 -39.589714 69.202164
-39.558655 67.9319 -70.963745 -142.86583 -34.709152 -48.969307 -76.513268 -161.15218
-74.009918 -89.061127 -39.648632 67.587929 -73.346519 -93.04055 -35.344658 -47.598919
80000000 -34.989906 -56.030506 -81.646553 -69.577751 -38.500103 66.263908 -80.877686 -140.72839
-79.513702 -122.86723 -34.576801 -51.598686 -70.549362 -99.275444 -38.485851 65.883728
-38.498383 65.772591 -72.24041 -106.5265 -33.872963 -55.286041 -74.25206 -118.38341
-72.529846 -141.42241 -38.460117 65.987076 -75.411346 -68.925415 -34.424931 -53.674229
90000000 -34.141369 -61.377029 -74.647751 -58.789597 -37.499683 63.088299 -80.280624 -143.53954
-79.776741 -86.958168 -33.950558 -57.64653 -73.211548 -133.01405 -37.532307 63.635895
-37.428009 63.753677 -72.674667 -108.35192 -33.081417 -60.750427 -72.203621 -148.51466
-79.613693 -136.56503 -37.484718 63.800217 -73.389549 -131.32977 -33.561737 -58.226974
100000000 -33.35944 -66.184097 -75.490234 -119.1008 -36.63068 60.780045 -76.504631 -120.44745
-76.221992 -148.07994 -33.295765 -63.642189 -69.974129 -129.95726 -36.589397 60.873398
-36.59816 60.815792 -71.331268 -102.18238 -32.408524 -65.218979 -73.951111 -140.73334
-79.0718 -134.06026 -36.59037 60.506802 -72.377502 -129.96696 -32.883892 -63.616554
110000000 -32.631828 -70.832306 -73.272659 -129.85695 -35.854664 58.090836 -76.795692 -148.01988
-72.324303 -152.0945 -32.767902 -68.727341 -69.10791 -128.76154 -35.816692 57.892662
-35.798985 58.288677 -70.667656 -139.72072 -31.74752 -69.823326 -70.990463 -123.03881
-73.851913 -139.67735 -35.798809 58.395058 -69.510277 -112.54408 -32.103874 -68.080269
120000000 -31.97192 -74.704933 -71.676933 -128.78381 -35.138458 55.345058 -76.599609 -135.74323
-72.710915 -94.854019 -32.153893 -73.5728 -69.603752 -121.66142 -35.119431 55.676102
-35.096489 55.467396 -69.580406 -126.83107 -31.179115 -73.784561 -69.954926 -135.06203
-73.040016 -113.38113 -35.077961 55.376038 -72.666725 -142.47171 -31.551598 -72.661667
130000000 -31.384609 -78.590454 -71.911743 -126.66963 -34.47654 52.7117 -78.535538 -121.19032
-72.732063 -140.81706 -31.625626 -78.299942 -69.681274 -120.4203 -34.416954 52.84346
-34.415451 52.78516 -66.96022 -124.48618 -30.652693 -77.877083 -70.472084 -133.04716
-76.914497 -110.13074 -34.423248 52.714111 -71.832207 -132.62245 -30.959881 -76.493469
140000000 -30.863918 -82.357063 -72.433563 -134.45099 -33.880932 50.345486 -80.339783 -135.01512
-72.137573 -132.02145 -31.1745 -82.622726 -67.62925 -140.05933 -33.833103 50.409534
-33.836578 50.479031 -68.355957 -134.17487 -30.167456 -81.780212 -70.985054 -136.42503
-75.525955 -150.2477 -33.856342 50.519341 -68.543549 -132.63486 -30.459467 -80.266891
150000000 -30.390659 -85.988914 -72.554794 -130.88826 -33.308372 47.53513 -74.838829 -139.46561
-71.801178 -132.94569 -30.748625 -87.112404 -66.744171 -133.48659 -33.263439 47.720169
-33.265911 47.647964 -66.53978 -134.82411 -29.731833 -85.542374 -69.38723 -137.93973
-73.624496 -139.83223 -33.285503 47.716545 -71.130455 -139.6129 -29.98085 -84.024551
160000000 -29.958982 -89.492363 -70.925858 -174.93556 -32.782177 45.331993 -72.681648 -128.4339
-68.179901 -131.05887 -30.359716 -91.38269 -64.099709 -141.77208 -32.764507 45.102451
-32.737843 45.284214 -66.650108 -135.13356 -29.37191 -89.035812 -70.059959 -146.71716
-75.878372 -163.01743 -32.769608 44.889549 -68.996887 -161.01166 -29.525885 -87.645096
170000000 -29.601877 -92.341293 -68.409241 -156.23282 -32.27726 42.237999 -75.922173 -166.97183
-69.029182 -129.67699 -30.007265 -95.268921 -66.480461 -156.76796 -32.238636 42.733082
-32.281994 42.299736 -65.139854 -139.62161 -29.043156 -92.316376 -68.227547 -140.29935
-76.325111 -103.61135 -32.271206 42.652122 -70.294319 -156.42735 -29.229441 -90.759979
180000000 -29.235823 -95.745125 -70.418114 -159.9996 -31.812851 39.766811 -73.542793 -130.42082
-72.350113 -164.33192 -29.655104 -99.12999 -64.103943 -141.58669 -31.789318 40.045059
-31.797779 39.992901 -66.431084 -147.58345 -28.738657 -95.505768 -69.24086 -148.19458
-72.860695 -145.33273 -31.760683 39.929478 -66.346436 -155.19016 -28.872366 -94.422867
190000000 -28.950483 -98.806992 -71.924789 -141.35902 -31.405769 37.181522 -69.491035 -173.77827
-69.069954 -143.6656 -29.316048 -102.95008 -64.998245 -150.13445 -31.370935 37.250267
-31.340157 37.091389 -65.439049 -149.59763 -28.478722 -99.094383 -67.347366 -151.24277
-72.600304 -152.11908 -31.374144 37.230694 -65.85199 -159.06943 -28.592421 -97.452614
200000000 -28.685539 -101.95025 -72.609634 -142.22496 -31.010639 34.395718 -70.842278 -158.70528
-70.309105 -143.13179 -29.095102 -106.73591 -63.880436 -149.50351 -30.971861 34.54105
-30.934881 34.711575 -66.53981 -150.64215 -28.276894 -102.15632 -66.656967 -150.82405
-73.110504 -149.22798 -30.944138 34.854939 -66.635887 -156.41412 -28.296759 -100.48034
210000000 -28.468565 -104.88434 -70.360947 -161.12268 -30.599545 31.885332 -70.728539 -165.82262
-67.898689 -153.34233 -28.848963 -109.95211 -64.467438 -151.41121 -30.590206 32.042202
-30.545307 32.092884 -63.566765 -153.54953 -28.125622 -105.38542 -67.99263 -141.94745
-72.772255 -143.60817 -30.559954 31.965836 -67.634689 -150.92146 -28.11178 -103.86038
220000000 -28.258184 -107.83355 -67.807365 -165.55826 -30.241135 29.27813 -73.794426 -171.6795
-68.039345 -163.92796 -28.601366 -113.53183 -64.214455 -158.30141 -30.217476 29.574606
-30.183064 29.525576 -62.904884 -161.68124 -27.967791 -108.47507 -66.634842 -160.06694
-70.719772 -157.31342 -30.229753 29.613565 -68.088081 -147.20154 -27.908512 -107.07018
230000000 -28.137772 -110.8093 -68.355652 -155.479 -29.892786 26.652538 -72.173851 -148.41562
-68.317818 -161.47878 -28.416777 -116.85813 -64.503601 -152.94705 -29.886395 26.804951
-29.858385 26.767223 -64.643341 -162.30928 -27.896006 -111.68262 -67.667809 -162.0993
-73.877182 -169.05449 -29.86401 26.763414 -65.196289 -153.41081 -27.760599 -110.00658
240000000 -27.984911 -113.56996 -66.886436 -165.81168 -29.560083 24.16856 -70.247993 -153.09322
-68.10685 -163.21602 -28.289722 -120.50468 -63.59362 -165.68768 -29.5355 24.258472
-29.518829 24.154203 -62.233585 -161.60364 -27.797846 -114.79723 -66.302017 -162.42422
-70.689888 -157.29303 -29.518036 24.398737 -66.972534 -160.95891 -27.617395 -113.28387
250000000 -27.907009 -116.41883 -67.838493 -167.92108 -29.243385 21.529697 -73.029648 -151.45863
-68.490189 -164.26976 -28.146936 -123.72842 -62.497517 -170.11497 -29.212179 21.668253
-29.202766 21.638042 -62.840431 -164.46832 -27.748461 -117.83385 -66.259338 -158.19986
-70.947838 -176.73642 -29.209057 21.740175 -66.458252 -175.30728 -27.559397 -116.31311
260000000 -27.838118 -119.35329 -68.205635 -152.85727 -28.94618 18.961622 -68.269341 -157.15071
-66.213158 -174.15338 -28.036474 -126.93348 -61.695557 -168.16345 -28.92415 19.012701
-28.922398 19.061789 -62.377037 -169.41454 -27.748419 -121.10536 -65.152832 -176.31854
-71.632545 -167.22417 -28.917789 19.14784 -64.43354 -167.43108 -27.495319 -119.40674
270000000 -27.796909 -122.00542 -67.44194 -157.16628 -28.668713 16.198082 -68.730873 -162.78075
-66.907906 -166.19148 -27.955982 -130.02275 -61.486099 -169.59589 -28.6304 16.468473
-28.639891 16.532114 -61.614162 -162.65092 -27.72039 -124.28738 -65.265633 -169.99063
-67.159607 179.76729 -28.628927 16.637608 -64.232605 -174.63716 -27.462101 -122.1512
280000000 -27.808054 -124.69112 -65.181137 -168.68628 -28.426531 13.749502 -70.161026 -171.27592
-65.277176 -170.18338 -27.930708 -133.16051 -62.057472 -171.23833 -28.356237 13.855571
-28.329941 13.866953 -61.688946 -174.62222 -27.768496 -127.56832 -65.481812 -177.36153
-69.990509 177.6646 -28.365723 13.921638 -65.199409 -168.13316 -27.433067 -125.41055
290000000 -27.796951 -127.55313 -64.98436 -173.53204 -28.126146 11.196928 -70.78418 -179.19936
-66.088631 -174.73087 -27.886732 -136.25771 -61.59552 -178.4474 -28.082508 11.424543
-28.076397 11.297138 -61.377594 -176.03893 -27.829653 -130.82356 -65.441933 -168.92052
-69.052605 -175.19217 -28.087696 11.193952 -65.614929 -168.9859 -27.461802 -128.34608
300000000 -27.848642 -130.16179 -66.011307 -176.98065 -27.846802 8.4712143 -72.97567 -178.54877
-65.353012 -179.71404 -27.875381 -139.25049 -60.642017 -175.62987 -27.82456 8.7743587
-27.832754 8.5825272 -60.732025 -176.26161 -27.915432 -133.93416 -64.471176 -179.55692
-69.619514 167.72771 -27.834656 8.5129194 -63.85556 -171.06154 -27.520819 -131.63545
310000000 -27.946562 -132.72096 -65.986305 172.95239 -27.636198 5.9226809 -66.784073 176.45549
-63.397808 -178.94977 -27.943768 -142.56462 -60.68166 178.27513 -27.59339 6.1194777
-27.600222 5.8595839 -60.909916 179.45149 -28.038616 -137.07048 -63.757042 174.70062
-71.860748 170.40219 -27.584879 6.1971083 -63.999355 -178.10989 -27.572758 -134.47252
320000000 -28.055655 -135.44769 -65.732498 171.86003 -27.405008 3.3247204 -68.841919 163.92764
-65.626747 167.3026 -27.977026 -145.28487 -60.966534 175.95023 -27.3585 3.6370411
-27.357092 3.4029086 -61.505424 -179.12428 -28.173647 -140.04735 -63.22924 -179.5119
-66.235252 164.97693 -27.368692 3.4569781 -64.821632 177.79536 -27.673071 -137.5694
330000000 -28.18424 -137.87964 -65.744835 179.07126 -27.189827 0.7113533 -70.271713 172.1015
-65.200981 168.52953 -28.070919 -148.35663 -60.203815 174.94594 -27.133488 0.97932398
-27.121452 0.68740618 -61.267654 175.05997 -28.359373 -143.57936 -63.707279 174.55989
-69.572083 170.63316 -27.126926 0.9877013 -62.815918 173.87083 -27.814638 -140.65588
340000000 -28.345921 -140.54956 -65.147064 170.34134 -26.961788 -1.9419453 -67.372299 173.46358
-65.714104 164.92084 -28.185781 -151.12254 -60.165207 171.22711 -26.929033 -1.5847849
-26.914566 -1.9031928 -60.044525 172.56212 -28.575037 -146.89072 -63.973778 175.5248
-69.672821 175.55927 -26.93572 -1.7341723 -62.790398 170.91132 -27.891539 -143.56131
350000000 -28.561499 -142.9068 -65.807594 161.58295 -26.752279 -4.5879855 -67.515221 161.87042
-64.631187 170.4884 -28.317011 -153.87062 -60.04533 171.85878 -26.70924 -4.110394
-26.71414 -4.4623489 -59.756622 172.66476 -28.794241 -150.23665 -62.576336 171.9218
-68.753349 175.52794 -26.69825 -4.2771211 -62.050835 166.54951 -28.09984 -146.90765
360000000 -28.767193 -145.58234 -64.903519 168.29192 -26.546425 -7.1453633 -68.724464 164.9827
-65.448311 164.14352 -28.494545 -156.59608 -59.47728 165.45348 -26.509771 -6.9294457
-26.499062 -7.0771422 -59.405579 169.13139 -29.010052 -153.58701 -63.052761 167.74588
-66.771164 162.5752 -26.497433 -6.9560838 -62.660454 163.46909 -28.330101 -149.84886
370000000 -29.040821 -147.99126 -64.435349 161.95703 -26.363176 -9.86273 -66.922066 164.51018
-65.367508 162.77614 -28.692873 -159.23586 -59.619099 168.08539 -26.33222 -9.479825
-26.30175 -9.6515169 -59.957569 164.46103 -29.257835 -156.81145 -61.816124 161.84805
-68.491394 160.34596 -26.306988 -9.5507402 -63.261837 167.03656 -28.550802 -152.96886
380000000 -29.341986 -150.44022 -64.118515 162.38618 -26.172928 -12.478066 -66.351974 161.38333
-63.537796 159.05563 -28.928682 -161.78593 -59.006916 162.56776 -26.139139 -12.148597
-26.122807 -12.323022 -59.573708 160.66644 -29.566223 -160.14723 -61.536545 158.31128
-68.219391 162.56375 -26.117754 -12.173781 -61.825401 165.17479 -28.802038 -155.65251
390000000 -29.67174 -152.34334 -63.588352 159.65138 -25.991642 -15.093387 -68.970688 155.59395
-63.583282 162.14534 -29.219826 -164.45825 -59.160248 158.39542 -25.952959 -14.65478
-25.941685 -14.953218 -58.88274 159.88733 -29.878845 -163.49332 -61.716145 157.4868
-66.961823 152.84241 -25.94286 -14.729636 -61.98925 158.4469 -29.106459 -158.81471
400000000 -30.041004 -154.27972 -63.316628 154.97995 -25.830296 -17.611996 -66.802498 153.63773
-63.759495 152.62982 -29.54389 -166.67482 -59.175747 157.64249 -25.776257 -17.328802
-25.767078 -17.625341 -58.790676 156.70496 -30.243399 -166.91295 -61.67255 152.22502
-65.236954 150.17651 -25.766579 -17.323751 -60.947987 158.17873 -29.430685 -161.86664
410000000 -30.464058 -156.3593 -62.844707 153.26215 -25.663471 -20.332418 -65.987244 152.91231
-63.532902 151.29868 -29.912907 -169.10625 -58.856098 153.25664 -25.615707 -19.942516
-25.610106 -20.261848 -58.926952 152.83104 -30.620913 -170.07596 -61.721878 152.16708
-65.693817 153.04126 -25.603743 -19.985245 -61.818398 154.87042 -29.811993 -164.98886
420000000 -30.886637 -158.0054 -62.999123 146.76924 -25.501886 -22.957914 -66.333687 153.51105
-63.649467 150.78036 -30.350832 -171.28308 -58.195602 154.7901 -25.443703 -22.58392
-25.447678 -22.88228 -58.133183 153.71516 -31.061871 -173.47601 -61.502033 149.70187
-66.725929 149.51366 -25.448465 -22.65431 -61.57637 149.26189 -30.204494 -167.73679
430000000 -31.414276 -159.51955 -62.629246 146.50404 -25.348177 -25.579693 -65.408211 149.55263
-63.167568 144.39145 -30.80192 -173.21461 -57.940834 150.79272 -25.288454 -25.268545
-25.2906 -25.472841 -57.875351 148.08548 -31.519037 -176.78918 -60.469727 152.45879
-67.618462 146.63629 -25.286531 -25.258194 -61.195313 151.4203 -30.661741 -170.53342
440000000 -31.958216 -160.82014 -63.261707 144.03999 -25.19598 -28.24231 -67.645287 146.08769
-62.588207 141.90994 -31.352297 -175.07916 -57.719654 147.74219 -25.137285 -27.868423
-25.140291 -28.121294 -57.588127 147.01888 -32.01862 -179.72655 -61.304852 146.50972
-65.413559 138.1288 -25.124737 -27.894913 -60.806667 146.63181 -31.144234 -173.3488
450000000 -32.591202 -161.70856 -62.787811 139.9718 -25.045094 -30.936735 -65.957115 139.72507
-62.270958 137.22868 -31.936939 -176.69771 -57.22147 143.00003 -24.99897 -30.510059
-24.986485 -30.812508 -58.007965 142.577 -32.627899 177.37856 -60.276722 141.84222
-65.08429 143.50003 -24.975863 -30.573822 -60.94067 141.26065 -31.729107 -176.18895
460000000 -33.256172 -161.98158 -63.099518 138.11009 -24.904835 -33.596481 -66.266197 134.24069
-62.26981 136.66118 -32.632675 -177.84793 -57.542141 139.76663 -24.849499 -33.177151
-24.849661 -33.386692 -57.13615 140.79024 -33.277668 174.61774 -60.318798 137.46573
-66.010147 133.85344 -24.831543 -33.18346 -60.522369 139.99171 -32.357513 -178.76495
470000000 -33.954674 -161.54605 -62.238964 135.34933 -24.773884 -36.20153 -66.122635 133.25392
-62.036278 135.83987 -33.402786 -178.31047 -57.468658 140.41367 -24.711861 -35.777309
-24.715462 -36.005539 -57.238724 138.94109 -34.014782 172.02121 -60.328945 136.60204
-65.462936 138.26653 -24.706898 -35.863106 -60.05645 134.0401 -33.078548 178.83058
480000000 -34.756721 -160.57996 -62.29546 134.5732 -24.639544 -38.820263 -65.382614 126.84355
-61.919495 131.42696 -34.292992 -178.40092 -56.856602 133.95021 -24.579933 -38.468567
-24.591028 -38.736744 -57.387184 135.22853 -34.819622 169.84073 -60.549309 133.73186
-65.57206 128.66502 -24.569834 -38.472836 -60.236912 133.86511 -33.847565 177.11168
490000000 -35.576321 -158.59926 -61.799328 124.21235 -24.515158 -41.490997 -65.041824 127.14963
-61.61689 128.87823 -35.239037 -177.41902 -56.77747 131.99883 -24.451809 -41.048382
-24.464783 -41.412987 -56.845242 130.22124 -35.710743 168.201 -59.929695 132.93147
-65.304108 126.70624 -24.44459 -41.096268 -59.518177 130.17764 -34.757378 175.50209
500000000 -36.391476 -155.04138 -62.155952 128.51862 -24.390013 -44.148636 -64.641243 125.91551
-61.522789 126.27454 -36.421265 -175.36906 -57.032429 128.72211 -24.315706 -43.783806
-24.344238 -44.089603 -56.779354 130.27562 -36.80801 166.94038 -59.418457 128.43576
-65.083046 127.76395 -24.315264 -43.83189 -59.355988 128.31799 -35.85107 174.47272
510000000 -37.284515 -149.66776 -61.153301 125.84898 -24.271065 -46.907291 -66.965973 118.31468
-61.270718 125.81159 -37.606522 -171.00334 -56.099682 126.80099 -24.204021 -46.451176
-24.222116 -46.708893 -56.531227 128.77036 -38.131256 166.66374 -60.478657 131.45222
-64.672836 119.29765 -24.192955 -46.534336 -58.840698 126.30627 -36.975311 173.32201
520000000 -37.804134 -142.63309 -62.481323 130.59694 -24.168505 -49.552326 -64.579735 119.25595
-61.053185 120.42756 -38.974888 -163.92253 -56.245998 121.74385 -24.074162 -49.072128
-24.113596 -49.479019 -56.502289 124.35046 -39.608677 168.37022 -59.532619 119.29549
-64.817833 123.89022 -24.084589 -48.991413 -58.535225 124.30659 -38.506771 175.2084
530000000 -38.189903 -133.1481 -61.775421 120.53468 -24.057346 -52.213844 -64.234116 116.15456
-61.388454 120.4771 -40.105217 -152.81863 -56.038647 122.58353 -23.960083 -51.699265
-23.999462 -52.02523 -56.123089 120.30898 -41.463795 172.92984 -58.886608 116.88635
-64.263824 105.41154 -23.960928 -51.778511 -58.635891 115.96231 -40.181442 178.87866
540000000 -38.156445 -123.62074 -60.512173 112.71323 -23.935478 -54.860336 -65.79184 112.11024
-60.911587 113.72071 -40.771484 -139.43562 -55.993713 118.72771 -23.870955 -54.429222
-23.900431 -54.691509 -56.312561 121.1003 -43.514507 -177.48631 -59.347855 115.91104
-64.374443 114.97611 -23.868505 -54.470387 -58.690922 114.17464 -42.235355 -173.43599
550000000 -37.663612 -114.07014 -60.70118 110.89299 -23.850752 -57.664577 -64.316597 105.05323
-61.345894 107.53579 -40.257172 -122.38355 -55.630215 115.37295 -23.761976 -57.123566
-23.781666 -57.458508 -55.983418 113.15471 -45.154655 -160.22878 -59.387238 114.14792
-64.706924 108.1871 -23.759455 -57.168793 -58.43922 116.26721 -44.095245 -156.38846
560000000 -36.736973 -106.22571 -60.279289 109.06921 -23.737764 -60.294247 -63.552094 96.64994
