!
!Touchstone File created by Channel Assembly Engine (Version 2.0.0_Beta1)
!Current time:  2022 6/29 11:28:37
# Hz S RI R 50
0	0.001651099	0.01601762	-0.0001241427	0.001347153	0.0003875475	0.0002825078	-1.358675e-08	-2.479578e-08
	-0.0004270631	0.001221472	0.001801438	0.01752719	-0.000367638	0.0002674427	0.000146999	0.0007221362
	0.0005303423	-0.000167898	0.0004141016	0.0001617294	0.008634231	0.002496413	-5.309741e-05	0.001322707
	-0.0002628402	0.000124625	0.000445808	-0.0002701676	6.249628e-07	6.398827e-05	0.01031052	0.003378911
1e+07	0.01476608	0.01353066	0.0003367192	0.002675905	-0.0003222121	-0.000172437	-0.000101796	-3.737905e-05
	0.0003125375	0.00267215	0.01502128	0.01510417	-6.259979e-05	0.0004050306	-0.0004613891	-0.0004118491
	-0.0005512513	2.697337e-05	-0.0001140993	-0.0004784877	0.01378931	0.002931612	0.0006124023	0.002672586
	-2.244455e-05	-0.0003923391	0.0002719144	0.0003947767	0.0002311164	0.001960269	0.01554374	0.002508787
2e+07	0.0167995	0.002483838	0.001267066	0.004613529	0.0001572995	5.777854e-05	0.0003356483	0.0001047458
	0.00198308	0.00438132	0.01734306	0.004104834	0.000222105	0.0003016778	0.0003905592	3.413612e-05
	0.0004615593	9.80408e-05	-0.0003632942	0.0004056262	0.02144929	0.001315764	0.002008124	0.004381507
	0.0005000552	0.0001702674	-0.0003072814	0.0002393006	0.001533436	0.004854339	0.0224404	-0.0005792513
3e+07	0.01786607	-0.001468943	0.002611769	0.005917993	-0.0002171099	-8.602817e-05	-0.0002028074	7.852936e-05
	0.00242985	0.006089051	0.0187435	-0.001569684	-0.0002801208	-0.000395412	-0.0003752884	-8.101293e-05
	-0.0003260414	-6.231797e-05	-9.299072e-05	-0.000406609	0.01618659	-0.0005260574	0.002310945	0.006117434
	-0.0003239782	-8.79384e-05	-0.0001458291	-0.0003639221	0.00238399	0.006120291	0.0174345	-0.002391647
4e+07	0.01665402	-0.001027476	0.004162432	0.007574735	-4.003908e-05	-5.292106e-05	-4.912964e-05	-4.143378e-05
	0.004036681	0.007409108	0.0181005	-0.0006135769	-4.918239e-05	-0.0001696704	-0.0001945148	-2.431278e-05
	-0.0002866663	-0.0003117325	-0.0002991282	6.513279e-06	0.0181301	-0.002336222	0.004242625	0.007690471
	-0.0002165018	-0.0002501317	-0.0002173759	-6.31513e-05	0.004372459	0.007571289	0.01877942	-0.004430112
5e+07	0.01589763	-0.005053411	0.005963818	0.008463574	-0.0002623372	-9.932558e-05	-0.0002096052	-0.0001527578
	0.006019612	0.008545112	0.01696151	-0.005244139	-0.0003720943	-0.000180611	-0.0003096571	-0.0002094213
	-0.0001464309	-0.0001224007	-0.0003701935	-0.0003121907	0.01666962	-0.008438191	0.005912435	0.008409244
	-6.033624e-05	-0.0001897319	-0.0002534963	-0.0002148549	0.00591845	0.008602713	0.01681108	-0.01073578
6e+07	0.01970612	-0.007796069	0.007787667	0.009087825	-0.0002556144	-0.00021932	-0.0001462905	-6.719753e-05
	0.007981547	0.009032401	0.02073262	-0.008176691	-0.0004299873	-3.464349e-05	-0.0004744742	-0.000242311
	-0.0002345083	-0.000147509	-0.0004785651	-0.0003785263	0.01508711	-0.008016066	0.007770436	0.009054882
	-0.0003161967	-1.668694e-05	-0.000256041	-0.000314316	0.007767313	0.009073616	0.01479183	-0.009964006
7e+07	0.01334061	-0.009437185	0.00995454	0.009070926	-0.000295737	-0.0001919073	-0.0001924188	-8.695064e-05
	0.00993424	0.008947188	0.01503366	-0.009858702	-0.0004604099	-0.0001627905	-0.0003514095	-0.0001288487
	-0.0004025251	-0.0002716978	-0.0005045164	-0.0002037396	0.009953692	-0.01175375	0.01002418	0.009056023
	-0.0001967085	-0.0001696864	-0.0003054237	-0.0001814121	0.009877278	0.009074554	0.009442054	-0.014186
8e+07	0.00873162	-0.01142705	0.01188757	0.008832588	-0.0003280649	0.0001421681	-0.0001654042	-0.0001037803
	0.01200093	0.008701423	0.01042235	-0.01206297	-0.0005430573	-0.0001645413	-0.0003424089	-5.161059e-05
	-0.0003627499	-8.627187e-05	-0.0005314496	-0.0001355901	0.006958818	-0.01533455	0.01194361	0.008608672
	-0.0002983999	-6.40202e-05	-0.0004548057	-9.279594e-05	0.01198367	0.008609988	0.005715019	-0.01745491
9e+07	0.004913231	-0.01127006	0.01369936	0.007820659	-0.0004530761	-4.897721e-05	-0.0003952764	0.0001026233
	0.01386307	0.007737127	0.006294199	-0.0120924	-0.0006503031	2.334732e-05	-0.0005345404	5.693269e-05
	-0.0003704447	-4.341538e-05	-0.000596532	6.265441e-05	0.004673655	-0.01651833	0.01383415	0.007690093
	-0.0003642904	-4.42619e-06	-0.0005428879	0.0001091896	0.01390655	0.007594119	0.003261179	-0.01891751
1e+08	0.0007037894	-0.009363508	0.01520138	0.006462108	-0.0004031021	4.199748e-05	-0.0003023452	0.0001322886
	0.0153072	0.006423756	0.002270929	-0.01074348	-0.0006844686	0.0001140435	-0.000551887	3.346984e-05
	-0.0003988777	8.044662e-05	-0.0006792716	0.0001015508	0.001403685	-0.01332888	0.01516872	0.006213452
	-0.000331443	0.0001453929	-0.0005637049	9.491703e-05	0.01527237	0.006225126	-0.0003999683	-0.01540117
1.1e+08	-0.00122274	-0.008513891	0.01641619	0.004631101	-0.0004812224	0.0002619917	-0.0004254464	0.0001020766
	0.01649019	0.004660745	3.997137e-05	-0.010247	-0.0006881177	0.0002255165	-0.0006377145	0.0001411606
	-0.0005874645	0.0002303381	-0.0007589056	0.0001859238	-0.005416049	-0.01197897	0.01629551	0.004456498
	-0.0003308113	0.0001011322	-0.000609964	0.0001744661	0.01649829	0.004406406	-0.007700098	-0.01410153
1.2e+08	-0.008030409	-0.004373408	0.017114	0.002515614	-0.0005259379	0.0002183371	-0.0003253151	0.0002473696
	0.01727488	0.002396035	-0.006755115	-0.006216025	-0.0007161791	0.0003299925	-0.0006359258	0.0002945978
	-0.0004974774	0.0002295438	-0.0006817802	0.0003974011	-0.01121967	-0.01318211	0.01714542	0.002289853
	-0.0003487116	0.0001291158	-0.0006149938	0.0002522954	0.01713664	0.002256454	-0.01342416	-0.01467199
1.3e+08	-0.01110215	-0.002466532	0.01734314	0.0001538115	-0.0004569107	0.0003378442	-0.0003815399	0.0001942582
	0.01748591	7.452917e-05	-0.01016414	-0.004433882	-0.0006996894	0.000473189	-0.0006129451	0.0003917175
	-0.0004992223	0.0003313598	-0.0007789335	0.0005212134	-0.01341013	-0.008418344	0.01729169	-5.17103e-05
	-0.0003895135	0.0001935155	-0.0005771226	0.0004567367	0.01734513	-0.0001466305	-0.01584548	-0.00970418
1.4e+08	-0.01357964	0.002531652	0.01695781	-0.002366511	-0.0003753013	0.0004376102	-0.0002712871	0.0003239501
	0.01711502	-0.002434478	-0.01286647	0.0002411977	-0.0006326637	0.0006678231	-0.000531423	0.0005101132
	-0.0004212845	0.000441909	-0.0006699174	0.000608002	-0.01760767	-0.005775569	0.01683223	-0.002581489
	-0.0003640609	0.0003652793	-0.0004926537	0.0005139219	0.0168364	-0.002644229	-0.0200603	-0.006941382
1.5e+08	-0.01565771	0.006647845	0.01605972	-0.004847079	-0.00038124	0.0005594837	-0.000283927	0.0004096833
	0.01618474	-0.004921713	-0.01530496	0.004119296	-0.0005981187	0.0007320069	-0.0005045911	0.000547536
	-0.0004098023	0.0005401298	-0.0006570123	0.0007602508	-0.01916091	-4.434533e-05	0.01577566	-0.005009767
	-0.0002675861	0.000404714	-0.0004668088	0.0006483217	0.01584087	-0.00519548	-0.02174079	-0.0009816409
1.6e+08	-0.01689669	0.01050889	0.01437047	-0.007166205	-0.0003270413	0.0005386717	-0.0002538764	0.000499793
	0.0143395	-0.007294052	-0.01689994	0.007808351	-0.0004485216	0.0009163264	-0.0003801763	0.0006898971
	-0.0003405331	0.000676445	-0.0004945588	0.0008512845	-0.02283011	0.005009726	0.01406392	-0.007553415
	-0.0002206322	0.0004727401	-0.0003574732	0.0008405626	0.01423579	-0.007485485	-0.02541196	0.004129346
1.7e+08	-0.01660285	0.0159675	0.01228286	-0.009357793	-0.0002902606	0.0005797137	-0.0002782514	0.0005075802
	0.01237542	-0.009560177	-0.01691832	0.01340165	-0.0004983366	0.0009574517	-0.0003736394	0.0008046654
	-0.000243944	0.0007465887	-0.0002690808	0.001066074	-0.02242881	0.01260452	0.01171584	-0.009503945
	-0.0002125768	0.0005188503	-0.0002871205	0.0008118365	0.011862	-0.009616448	-0.02496961	0.01172855
1.8e+08	-0.01442098	0.02290416	0.009461421	-0.01132682	-0.0001937573	0.0008309834	4.934873e-06	0.0005478637
	0.009458354	-0.01140224	-0.01514288	0.01995046	-0.0002347372	0.001165143	-0.0002360065	0.0009804585
	-0.00018794	0.0008533202	-0.0002163854	0.001149048	-0.02280717	0.01971202	0.00881879	-0.01137447
	-0.0001873732	0.000610638	-0.0002425014	0.001037822	0.008957807	-0.0114673	-0.0252642	0.01889343
1.9e+08	-0.01381279	0.03018385	0.00619147	-0.01258535	-2.995182e-06	0.0008553314	2.601822e-05	0.0005221392
	0.006260435	-0.01274297	-0.01487272	0.02747216	-6.690392e-05	0.001236215	-7.557315e-05	0.0009504789
	-1.037981e-05	0.0008669353	-0.0001234684	0.001292209	-0.02239423	0.02200435	0.005631574	-0.0126811
	-3.183492e-05	0.0005960624	-8.374226e-05	0.001070933	0.005685804	-0.01275439	-0.02472282	0.02104623
2e+08	-0.009689356	0.03495811	0.002448761	-0.01332541	0.0001257617	0.0008735397	8.096762e-05	0.0006770805
	0.002465773	-0.01353411	-0.01120035	0.03225454	0.0001094186	0.001358135	0.0001842754	0.001016953
	0.0001343084	0.0009065335	9.962581e-05	0.001345486	-0.0211915	0.02782331	0.00172749	-0.01344666
	0.0001097871	0.0005924281	7.222514e-05	0.001010349	0.001792782	-0.01344593	-0.02375721	0.02688822
2.1e+08	-0.005857602	0.04028406	-0.001705636	-0.01349221	0.0001749908	0.0008878047	0.0002195656	0.0006682988
	-0.001621854	-0.01365032	-0.007617241	0.03778022	0.0003638216	0.001322557	0.0002975999	0.001038877
	0.0002340557	0.000832784	0.0003697844	0.001289749	-0.01764752	0.03346981	-0.002403201	-0.01342836
	0.0002245042	0.0005558391	0.0002682996	0.0009912012	-0.002514208	-0.01353982	-0.02017715	0.0324641
2.2e+08	-0.002203401	0.04235213	-0.006005722	-0.01291527	0.0004101563	0.0008313978	0.0002813431	0.0006306078
	-0.006123977	-0.01313277	-0.004340245	0.03999492	0.0006458943	0.001312032	0.0004565332	0.0009625355
	0.0003981344	0.000856226	0.0006476698	0.001274819	-0.01340563	0.03954457	-0.006744352	-0.01271897
	0.0003175983	0.00069885	0.0004640285	0.00103668	-0.006854431	-0.01274508	-0.01612834	0.03830522
2.3e+08	0.004048162	0.0462981	-0.0103581	-0.0115291	0.0004978863	0.0007688804	0.0003956439	0.0006008173
	-0.01037323	-0.01182062	0.001529432	0.04434665	0.0008151036	0.001246846	0.000648307	0.001034835
	0.0006057598	0.0008677271	0.0008491521	0.00129945	-0.00947037	0.04022032	-0.01113625	-0.01124868
	0.000375427	0.000621009	0.0005834806	0.00094489	-0.01124357	-0.01129797	-0.01223825	0.03894064
2.4e+08	0.009165947	0.04871284	-0.01479168	-0.00927196	0.0007028945	0.0007239657	0.0005452047	0.0005825428
	-0.01487039	-0.009590066	0.006437835	0.04691745	0.001046319	0.001180294	0.0008370575	0.000950404
	0.0006960393	0.0007923627	0.00105776	0.001106848	-0.001861629	0.04448536	-0.01569579	-0.00895771
	0.0005394035	0.0006409691	0.0008174268	0.001033105	-0.0157015	-0.009084134	-0.005125325	0.0433189
2.5e+08	0.01492676	0.05329377	-0.01889374	-0.006407937	0.0007658286	0.000615857	0.0006036045	0.0004367449
	-0.01901569	-0.006611973	0.01185991	0.0518505	0.001187373	0.001019659	0.0009759423	0.0008106932
	0.0008851454	0.0006098298	0.001223781	0.00106062	0.002043944	0.04475563	-0.01979939	-0.005906394
	0.0007055173	0.0005242473	0.001009019	0.0008772712	-0.01988601	-0.005914387	-0.001507467	0.04349455
2.6e+08	0.0243114	0.05080895	-0.02275117	-0.00268096	0.0009379675	0.0005084924	0.0006993649	0.0003739362
	-0.02302443	-0.002845429	0.02119611	0.04974305	0.001403123	0.0008616878	0.001086931	0.0006262792
	0.0009337523	0.0006419729	0.001534217	0.0009220652	0.004616077	0.04471148	-0.02346854	-0.001748777
	0.0007250462	0.0003992359	0.001272813	0.000705184	-0.02347754	-0.001864079	0.0006657298	0.04358692
2.7e+08	0.02640364	0.04922121	-0.02613409	0.00190773	0.001083931	0.000408953	0.0007431524	0.0003149414
	-0.02638989	0.001780354	0.02334612	0.04849082	0.001626596	0.0006209784	0.001309416	0.0005313279
	0.001083374	0.0003177293	0.001649918	0.000634621	0.0134331	0.04587458	-0.02683867	0.002809315
	0.0006827204	0.0002888897	0.001318987	0.000527032	-0.02704617	0.002925146	0.008754775	0.0446769
2.8e+08	0.03168889	0.04819917	-0.02901668	0.007203586	0.001175502	0.0002616545	0.0008482674	0.0002028937
	-0.02920187	0.006895722	0.02858865	0.04783673	0.001768409	0.0003525136	0.001395709	0.0003057922
	0.001146499	0.0002452177	0.00175127	0.0005011633	0.01704012	0.04558503	-0.02959549	0.008267525
	0.0009271245	0.0002092652	0.001495785	0.0003627476	-0.029696	0.008241085	0.01186767	0.04470362
2.9e+08	0.03614753	0.04476564	-0.03103223	0.01290524	0.001186388	8.109554e-05	0.0008844036	-2.887399e-06
	-0.03122176	0.0127176	0.03317164	0.04468828	0.001832169	0.0001800886	0.001473914	6.953747e-05
	0.001166442	0.0001327341	0.001807767	0.0001095896	0.02305257	0.04457988	-0.03140013	0.01416012
	0.0009182288	1.238549e-05	0.001619039	7.201105e-05	-0.03159962	0.01417608	0.01745141	0.04401652
3e+08	0.04280198	0.04063115	-0.03233099	0.01907366	0.001269693	-0.0001693542	0.0008672744	-0.0001130784
	-0.03258365	0.01897173	0.03975276	0.04072306	0.001894968	-0.0001861189	0.001496247	-0.000115868
	0.001207752	-0.0001739985	0.0019379	-6.943551e-05	0.02549024	0.03997496	-0.0325093	0.02058269
	0.0009436004	-0.0001258746	0.001550969	-0.0001136547	-0.03261209	0.02056343	0.01947906	0.03974073
3.1e+08	0.0464439	0.03675976	-0.03268319	0.02575926	0.001296887	-0.0004057684	0.0009292887	-0.0003022284
	-0.0329288	0.02572166	0.04363165	0.03729895	0.002012049	-0.0004511413	0.001610948	-0.0004892754
	0.001200916	-0.0003737433	0.002008147	-0.0004908149	0.03187966	0.0385836	-0.0326923	0.02726459
	0.001002924	-0.0003382674	0.001602176	-0.0003989893	-0.03279766	0.02731338	0.02512853	0.03918776
3.2e+08	0.04624373	0.03147668	-0.03191635	0.03246564	0.001193086	-0.0005227711	0.0009389909	-0.0004687569
	-0.03218008	0.03253835	0.04355789	0.0324051	0.001834268	-0.0007576215	0.001586841	-0.0007032385
	0.001255965	-0.0005997102	0.00194222	-0.0007975687	0.02989627	0.03421978	-0.03175823	0.03413082
	0.0008607645	-0.0003333494	0.00131073	-0.0005899894	-0.03186043	0.03417538	0.02283903	0.03545626
3.3e+08	0.04997033	0.02683536	-0.03018469	0.03925779	0.001143562	-0.0008534875	0.0008411823	-0.0006148107
	-0.0305467	0.03925356	0.04746697	0.02776495	0.001832802	-0.001104355	0.001438273	-0.0009123184
	0.001195274	-0.0007558364	0.001819741	-0.001133215	0.03153496	0.02962836	-0.0294922	0.0409897
	0.0008818868	-0.0005644648	0.001485557	-0.0009277828	-0.02968461	0.04110969	0.02415717	0.03174138
3.4e+08	0.05026916	0.02169807	-0.02750783	0.04585548	0.001004797	-0.0009564661	0.0007476154	-0.0007205591
	-0.02771192	0.04592458	0.04780989	0.02277158	0.001658116	-0.00139768	0.001398328	-0.001155354
	0.001030097	-0.0009404641	0.001618566	-0.001365297	0.03205379	0.02535391	-0.02660052	0.04755246
	0.000735543	-0.0008111797	0.001308843	-0.001156981	-0.02667857	0.0477323	0.0244478	0.0284018
3.5e+08	0.05034277	0.01794951	-0.02373179	0.05212623	0.0008900804	-0.001146185	0.0006693599	-0.0008779306
	-0.02396341	0.05229739	0.04812433	0.01905563	0.001517872	-0.001667095	0.001210089	-0.001402445
	0.0009289926	-0.001141747	0.001524006	-0.001596032	0.03293975	0.02195152	-0.02251271	0.05374086
	0.0006323712	-0.0008903874	0.001183335	-0.001365407	-0.02265764	0.05391405	0.02551768	0.02580652
3.6e+08	0.04934662	0.01289526	-0.01903255	0.05802704	0.0007349449	-0.0012606	0.0005623642	-0.001022766
	-0.01923725	0.05812146	0.04738158	0.01418645	0.001227185	-0.001948527	0.0009619385	-0.001525996
	0.0007477895	-0.00131323	0.001207181	-0.001931059	0.03124507	0.01999744	-0.01744257	0.05945667
	0.0005336193	-0.0009564067	0.0009277163	-0.001590679	-0.01761792	0.05957019	0.0237615	0.02492069
3.7e+08	0.04720138	0.008526507	-0.01331895	0.06308303	0.0005796465	-0.001416396	0.0004046601	-0.001090265
	-0.01365355	0.06328547	0.04547469	0.009775977	0.0008997145	-0.002166247	0.0006191938	-0.001803777
	0.0006108669	-0.001469376	0.0009105842	-0.002110766	0.02906728	0.01595537	-0.0116176	0.0644047
	0.0003409561	-0.00115572	0.0007185175	-0.00169477	-0.01157929	0.06461925	0.02196938	0.02209193
3.8e+08	0.04415294	0.006781962	-0.006885049	0.06751654	0.0003426147	-0.001566057	0.0001945243	-0.001187812
	-0.007179002	0.06775388	0.04264155	0.008046962	0.0005489388	-0.002300674	0.0004891708	-0.001958645
	0.0003958918	-0.001520971	0.0006303911	-0.002351227	0.02541899	0.01481703	-0.004819955	0.06851824
	0.0001906972	-0.001188569	0.0004492821	-0.001888598	-0.00476453	0.06873629	0.01875773	0.02200772
3.9e+08	0.04093101	0.004641964	0.0001888117	0.07086998	7.489591e-05	-0.001652605	1.623588e-05	-0.001188499
	3.665749e-07	0.07114659	0.03941049	0.005750055	0.0002417865	-0.002473616	0.0001650757	-0.001961444
	0.0001523454	-0.001642757	0.0002267825	-0.002480051	0.02326607	0.01123086	0.002490181	0.07172049
	7.052357e-05	-0.001292059	0.0001338872	-0.001918281	0.00252826	0.07192254	0.01722285	0.0195077
4e+08	0.03718967	0.002120156	0.007878087	0.07306343	-0.0001785512	-0.001659389	-0.0001473183	-0.001185286
	0.007769058	0.07342036	0.03576771	0.002975726	-0.0002001937	-0.002525143	-0.0001920931	-0.002023484
	-0.0001226419	-0.00170213	-0.0001270312	-0.002597269	0.01912161	0.01314731	0.01035687	0.07345911
	-0.0001497635	-0.001215046	-0.0002624628	-0.002103194	0.01040667	0.07367805	0.01401313	0.02211622
4.1e+08	0.03375783	0.001128025	0.01581029	0.07412871	-0.0004263138	-0.001684462	-0.0003617805	-0.001221125
	0.01579701	0.07450106	0.03259926	0.001953874	-0.0005080765	-0.002557393	-0.0004813509	-0.002063086
	-0.0004437495	-0.0016491	-0.000526572	-0.002502432	0.0162536	0.01322667	0.01855089	0.07426651
	-0.0003791681	-0.001170295	-0.0004593404	-0.001989599	0.01860487	0.07440783	0.01196431	0.02307867
4.2e+08	0.03054168	0.0006237372	0.02382757	0.07406401	-0.0007334961	-0.001579344	-0.0005640234	-0.001180596
	0.02400632	0.07446254	0.02907197	0.001509995	-0.0009304673	-0.00251327	-0.0008751218	-0.002001019
	-0.000712432	-0.001621151	-0.0010007	-0.00248822	0.01388901	0.01474097	0.02661364	0.07382159
	-0.0005609167	-0.001177517	-0.0007997365	-0.001989477	0.02673119	0.07397143	0.0108691	0.02526214
4.3e+08	0.02810051	0.003177321	0.03190253	0.07274499	-0.0009954399	-0.001434853	-0.000706305	-0.001105416
	0.03194325	0.07305889	0.02659392	0.003889124	-0.001376004	-0.002358916	-0.001147715	-0.00185572
	-0.0009552584	-0.001477806	-0.001436874	-0.002416456	0.01090676	0.01692893	0.03464569	0.07198906
	-0.0007170692	-0.001121432	-0.001144247	-0.001945155	0.03475825	0.07213799	0.009112533	0.02778091
4.4e+08	0.02451016	0.002768052	0.03978651	0.07020677	-0.001206265	-0.001314241	-0.000888229	-0.0009428136
	0.03987578	0.07058657	0.02294038	0.003457443	-0.001758237	-0.002218926	-0.001400968	-0.001698631
	-0.001212909	-0.001367021	-0.001735274	-0.00221899	0.008898422	0.0192775	0.04249753	0.06899097
	-0.0009192259	-0.001027084	-0.001480284	-0.001710577	0.04267657	0.06904695	0.008462151	0.03035366
4.5e+08	0.02321417	0.005991469	0.04721443	0.06631916	-0.001494115	-0.001169285	-0.001075132	-0.0008643349
	0.04733573	0.06676355	0.02157894	0.00662505	-0.002117434	-0.001911818	-0.001744194	-0.001502093
	-0.001477584	-0.001220998	-0.002153004	-0.001898098	0.006882006	0.02282077	0.04976049	0.06477635
	-0.001111584	-0.0008953748	-0.001712617	-0.001461888	0.04990324	0.06482293	0.00768602	0.03409882
4.6e+08	0.02061667	0.007884212	0.05391699	0.06149439	-0.001616025	-0.0009217899	-0.001198206	-0.0006846445
	0.05412266	0.06190459	0.01884336	0.008713667	-0.002418443	-0.001605482	-0.001986152	-0.001306618
	-0.00168419	-0.0009449176	-0.002518747	-0.001545372	0.006920406	0.02605983	0.0563202	0.05952244
	-0.001235236	-0.0006864973	-0.002014921	-0.001296097	0.05657621	0.05956792	0.009142708	0.03734862
4.7e+08	0.01889331	0.01007858	0.05980185	0.05553093	-0.001750984	-0.0007380405	-0.001369598	-0.0004333637
	0.05996249	0.05590971	0.01689174	0.01102413	-0.002694341	-0.001202092	-0.002172413	-0.00095162
	-0.00183924	-0.0007683232	-0.002785771	-0.001206318	0.006814947	0.03013487	0.06187097	0.05298396
	-0.001380489	-0.0004846277	-0.002251422	-0.0009381491	0.06203074	0.0529695	0.01033665	0.04092801
4.8e+08	0.0182713	0.01411867	0.06463731	0.04874229	-0.001926934	-0.0003782288	-0.001482061	-0.0002490788
	0.0648602	0.04907136	0.01610172	0.01514165	-0.002952817	-0.0008357143	-0.00237987	-0.0005733028
	-0.001965744	-0.0004770486	-0.002974776	-0.0007798707	0.007583953	0.03363134	0.06637153	0.04594932
	-0.001443182	-0.0002392059	-0.002381146	-0.0005627593	0.06654218	0.04594681	0.01233945	0.04376821
