# GHz S RI R 45
0.000     0.021604052000    0.000000000000    0.000000619679    0.000000000000    0.000629871460    -0.000000000000    -0.000009290812    0.000000000000
            0.000000619748    0.000000000000    0.021417920000    0.000000000000    0.000001084620    0.000000000000    0.000351640230    0.000000000000
            0.000629871470    -0.000000000000    0.000001084744    0.000000000000    0.021425718000    0.000000000000    -0.000031808788    0.000000000000
            -0.000009290791    0.000000000000    0.000351641920    0.000000000000    -0.000031808749    0.000000000000    0.021236003000    0.000000000000
0.025     0.028035160097    0.008393669849    -0.000021620157    -0.000059292747    0.003619390633    0.010291678277    -0.000019865714    -0.000056231101
            -0.000021620123    -0.000059292748    0.026238942049    0.009547302143    -0.000021710923    -0.000062298362    0.002259865926    0.011587035387
            0.003619373700    0.010291727694    -0.000021710800    -0.000062298393    0.027988326395    0.008388804971    -0.000013177232    -0.000044397337
            -0.000019865631    -0.000056231115    0.002259744181    0.011586868608    -0.000013177277    -0.000044397318    0.026236785604    0.009619755019
0.050     0.036841649742    0.009815818750    -0.000063554334    -0.000098843282    0.011634815595    0.017508450473    -0.000060439493    -0.000105542316
            -0.000063554334    -0.000098843282    0.031245993046    0.014030371387    -0.000065888239    -0.000104353920    0.007356334181    0.021531080011
            0.011634806140    0.017508462760    -0.000065888155    -0.000104353949    0.036819826880    0.009817075793    -0.000046844911    -0.000113564586
            -0.000060439396    -0.000105542360    0.007356364349    0.021531067591    -0.000046844930    -0.000113564578    0.031238953110    0.014009861428
0.075     0.046376671086    0.005657082693    -0.000120743162    -0.000119922442    0.022465972562    0.019481866875    -0.000123119876    -0.000133034060
            -0.000120743169    -0.000119922449    0.035925093052    0.016088382646    -0.000126354472    -0.000126683843    0.014511989349    0.028833323400
            0.022465966291    0.019481871054    -0.000126354347    -0.000126683939    0.046406576258    0.005653889596    -0.000118019928    -0.000153833914
            -0.000123119830    -0.000133034103    0.014511995784    0.028833322401    -0.000118019955    -0.000153833893    0.035822302471    0.016060271619
0.100     0.053861356840    -0.004350774309    -0.000186969996    -0.000118297940    0.033209902122    0.015379981133    -0.000197347452    -0.000134138490
            -0.000186969917    -0.000118298027    0.039345784962    0.016118085489    -0.000196307393    -0.000124853521    0.022373711300    0.033113062022
            0.033209903030    0.015379981553    -0.000196307272    -0.000124853637    0.053967676713    -0.004379336001    -0.000204987724    -0.000160574053
            -0.000197347389    -0.000134138547    0.022373713015    0.033113062070    -0.000204987724    -0.000160574053    0.039148094591    0.016166540866
0.125     0.056314847750    -0.019029464944    -0.000254951025    -0.000092415665    0.040879608321    0.005775679477    -0.000274136727    -0.000107256536
            -0.000254951000    -0.000092415707    0.040576477721    0.015069466668    -0.000267935968    -0.000097344296    0.029634684097    0.034624227614
            0.040879608321    0.005775679477    -0.000267935906    -0.000097344379    0.056513564268    -0.019107034697    -0.000295147429    -0.000133189081
            -0.000274136671    -0.000107256625    0.029634686001    0.034624228617    -0.000295147452    -0.000133189030    0.040337528893    0.015260263054
0.150     0.051686304399    -0.035733423053    -0.000318011599    -0.000042684464    0.043014323167    -0.007497480287    -0.000345533486    -0.000052873251
            -0.000318011609    -0.000042684465    0.039438741998    0.014219522793    -0.000334115411    -0.000044676550    0.035202987605    0.034127732635
            0.043014323167    -0.007497480287    -0.000334115340    -0.000044676778    0.051988773912    -0.035910695941    -0.000378721486    -0.000073134838
            -0.000345533448    -0.000052873369    0.035202979372    0.034127735381    -0.000378721509    -0.000073134774    0.039228531247    0.014580654138
0.175     0.039046551448    -0.051050976220    -0.000370143964    0.000029847398    0.038159501005    -0.021598309167    -0.000404241246    0.000027546070
            -0.000370143954    0.000029847397    0.036151406837    0.014867850852    -0.000388494684    0.000031850995    0.038486424847    0.032816368068
            0.038159501005    -0.021598309167    -0.000388494655    0.000031850856    0.039441758000    -0.051384840994    -0.000446992031    0.000016914113
            -0.000404241231    0.000027545998    0.038486426941    0.032816368693    -0.000446992041    0.000016914113    0.036056604336    0.015382862926
0.200     0.019138165565    -0.061297390232    -0.000405065366    0.000123625724    0.026241704413    -0.033210326465    -0.000442930495    0.000131715515
            -0.000405065366    0.000123625724    0.031564974866    0.018183379743    -0.000424568096    0.000130434068    0.039523506561    0.032024773987
            0.026241704413    -0.033210326465    -0.000424568096    0.000130434068    0.019588467188    -0.061843018715    -0.000491869103    0.000133612158
            -0.000442930495    0.000131715515    0.039523499977    0.032024778937    -0.000491869103    0.000133612158    0.031655693885    0.018789929355
0.225     -0.005653760233    -0.063271066594    -0.000415384521    0.000235742021    0.008690595835    -0.039168986583    -0.000453418459    0.000255589732
            -0.000415384521    0.000235742021    0.027080482940    0.024866245574    -0.000434735179    0.000247889533    0.038987597971    0.032919952310
            0.008690595835    -0.039168986583    -0.000434735265    0.000247889080    -0.005214043490    -0.064070398905    -0.000504632684    0.000271718295
            -0.000453418560    0.000255589268    0.038987600649    0.032919952240    -0.000504632570    0.000271718802    0.027388745658    0.025469494545
0.250     -0.031589249333    -0.054977768735    -0.000393021400    0.000360314848    -0.011710069891    -0.037130580461    -0.000427314260    0.000391984170
            -0.000393021400    0.000360314848    0.024384974845    0.034917469173    -0.000410737294    0.000378041202    0.038054889433    0.036222924350
            -0.011710069891    -0.037130580461    -0.000410737294    0.000378041202    -0.031248267630    -0.056045406764    -0.000476628139    0.000423036844
            -0.000427314274    0.000391984184    0.038054893503    0.036222924426    -0.000476628154    0.000423036857    0.024890430537    0.035414660784
0.275     -0.054193449509    -0.036169424177    -0.000330910676    0.000487170072    -0.031271112566    -0.026134803626    -0.000357759427    0.000529347862
            -0.000330910682    0.000487170080    0.025091800658    0.047522219040    -0.000345352011    0.000510312020    0.038138810137    0.042002839303
            -0.031271112566    -0.026134803626    -0.000345352011    0.000510312020    -0.054049502698    -0.037481334959    -0.000400914505    0.000574844768
            -0.000357759707    0.000529347479    0.038138813742    0.042002837381    -0.000400914511    0.000574844777    0.025723316826    0.047828816118
0.300     -0.069095100649    -0.008596905837    -0.000225879358    0.000602047867    -0.046096574048    -0.006933485605    -0.000242266100    0.000652305293
            -0.000225879358    0.000602047867    0.030349541074    0.061155980493    -0.000235354003    0.000629946376    0.040555610022    0.049633501400
            -0.046096574048    -0.006933485605    -0.000235353999    0.000629946367    -0.069238690380    -0.010084418765    -0.000275137499    0.000710654702
            -0.000242266100    0.000652305293    0.040555614752    0.049633500117    -0.000275137499    0.000710654702    0.030999442781    0.061230768252
0.325     -0.072920792445    0.024180010714    -0.000081133608    0.000688692708    -0.052877203410    0.018050149690    -0.000085070429    0.000743847667
            -0.000081133609    0.000688692718    0.040534269082    0.073850557016    -0.000084083291    0.000720102657    0.046193138629    0.057911309172
            -0.052877203410    0.018050149690    -0.000084083291    0.000720102657    -0.073413012909    0.022626103795    -0.000104025044    0.000812260835
            -0.000085070429    0.000743847667    0.046193142672    0.057911305947    -0.000104025044    0.000812260835    0.041083095738    0.073709332485
0.350     -0.064037138725    0.057376752715    0.000092856228    0.000732637181    -0.049595975216    0.045138628994    0.000102258320    0.000789255855
            0.000092856239    0.000732637169    0.055116036720    0.083614039575    0.000097618685    0.000765759724    0.055297310428    0.065335131988
            -0.049595975216    0.045138628994    0.000097617813    0.000765759382    -0.064891875823    0.055892081729    0.000100033191    0.000863920309
            0.000102258318    0.000789255845    0.055297314343    0.065335127365    0.000100033190    0.000863920299    0.055461780513    0.083329675009
0.375     -0.042916998016    0.085854902810    0.000279949420    0.000724793063    -0.035935906794    0.070090056434    0.000302590254    0.000779574022
            0.000279949424    0.000724793072    0.072735425409    0.088838239003    0.000292996568    0.000757415043    0.067408646855    0.070432880929
            -0.035935906794    0.070090056434    0.000292996568    0.000757415043    -0.044089860895    0.084579565388    0.000318689766    0.000855910436
            0.000302589800    0.000779573941    0.067408648623    0.070432877854    0.000318689770    0.000855910445    0.072818906953    0.088526787199
0.400     -0.012086343089    0.105047402312    0.000461848650    0.000663710923    -0.013331720756    0.088878610084    0.000496920841    0.000713735420
            0.000461848656    0.000663710931    0.091477187793    0.088634978092    0.000482992582    0.000693474039    0.081480583812    0.072075724792
            -0.013331720756    0.088878610084    0.000482992582    0.000693474039    -0.013474790619    0.104100704456    0.000531555132    0.000786847871
            0.000496920835    0.000713735412    0.081480587586    0.072075720526    0.000531555132    0.000786847871    0.091297680501    0.088431684894
0.425     0.024325430348    0.111716692195    0.000622029207    0.000555241435    0.015319653513    0.098354235550    0.000668279028    0.000598020862
            0.000622029207    0.000555241435    0.109236064482    0.082978267634    0.000650304074    0.000579955630    0.096090434954    0.069670885176
            0.015319653513    0.098354235550    0.000650304067    0.000579955623    0.022871118284    0.111173666720    0.000720212524    0.000663202564
            0.000668279036    0.000598020869    0.096090429290    0.069670875952    0.000720212519    0.000663202583    0.108854414566    0.083009713170
0.450     0.061256340746    0.104433976953    0.000748785134    0.000410394645    0.046145569380    0.096697874214    0.000804711341    0.000443779831
            0.000748785143    0.000410394650    0.124100412401    0.072684849340    0.000782589150    0.000428335398    0.109709303058    0.063250604973
            0.046145569380    0.096697874214    0.000782589141    0.000428335394    0.059914037080    0.104307570418    0.000871494996    0.000496963907
            0.000804711341    0.000443779831    0.109709305265    0.063250601143    0.000871494996    0.000496963907    0.123628712826    0.073042717025
0.475     0.093451268629    0.083734751268    0.000836339944    0.000242079630    0.074852513294    0.083623324833    0.000900233430    0.000264124775
            0.000836339939    0.000242079613    0.134648947392    0.059235676019    0.000873695459    0.000252174181    0.120938151735    0.053438408143
            0.074852513294    0.083623324833    0.000873694694    0.000252174704    0.092402579530    0.083967013811    0.000978547396    0.000302215414
            0.000900233046    0.000264125055    0.120938153600    0.053438403921    0.000978547396    0.000302215414    0.134231893714    0.059960036647
0.500     0.116154454765    0.052031182027    0.000884333058    0.000062107666    0.097269528921    0.060407510825    0.000954188900    0.000070960855
            0.000884333058    0.000062107666    0.140157250460    0.044530332501    0.000923210798    0.000063990971    0.128723791643    0.041359978199
            0.097269528921    0.060407510825    0.000923210798    0.000063990971    0.115558016507    0.052492405146    0.001040301000    0.000091934925
            0.000954188900    0.000070960855    0.128723791643    0.041359978199    0.001040301000    0.000091934925    0.139948827961    0.045601614026
0.525     0.125698788096    0.013330603465    0.000895840373    -0.000120963118    0.109837898720    0.029774865054    0.000969191366    -0.000127049215
            0.000895840373    -0.000120963116    0.140682562425    0.030591798786    0.000934453130    -0.000127058699    0.132516164659    0.028482527736
            0.109837898720    0.029774865054    0.000934453130    -0.000127058699    0.125664351818    0.013829432256    0.001059346355    -0.000124206518
            0.000969191390    -0.000127049182    0.132516165156    0.028482525423    0.001059346454    -0.000124206532    0.140830894773    0.031934866040
0.550     0.120003300777    -0.027180603207    0.000874846826    -0.000302595107    0.110087835081    -0.004324234376    0.000948543304    -0.000325105131
            0.000874846836    -0.000302595110    0.137067031167    0.019280124981    0.000911832528    -0.000316072095    0.132395603684    0.016405769849
            0.110087835081    -0.004324234376    0.000911832528    -0.000316072095    0.120567593727    -0.026878782573    0.001039221921    -0.000340648373
            0.000948543304    -0.000325105131    0.132395594017    0.016405766540    0.001039222271    -0.000340649231    0.137706441385    0.020749319744
0.575     0.098958538339    -0.063693492592    0.000823524866    -0.000481486439    0.097071312443    -0.037079971866    0.000893655506    -0.000521241180
            0.000823524866    -0.000481486439    0.130837651079    0.012004390195    0.000857955219    -0.000501669940    0.129072907457    0.006601974733
            0.097071312443    -0.037079971866    0.000857955210    -0.000501669935    0.100065844230    -0.063836915665    0.000981635943    -0.000554923275
            0.000893655506    -0.000521241180    0.129072897597    0.006601971744    0.000981635943    -0.000554923275    0.132024531471    0.013366741346
0.600     0.064668347834    -0.090496749387    0.000740480362    -0.000657377808    0.071731720297    -0.063388576403    0.000802581914    -0.000714110615
            0.000740480369    -0.000657377815    0.124025448755    0.009462830200    0.000771689061    -0.000683780796    0.123859403186    0.000197093218
            0.071731720297    -0.063388576403    0.000771688987    -0.000683780730    0.066160744917    -0.091311116631    0.000884808739    -0.000765437844
            0.000802581915    -0.000714109712    0.123859403191    0.000197090378    0.000884808739    -0.000765437844    0.125682659119    0.010486645348
0.625     0.021430113999    -0.102843330637    0.000620342862    -0.000827635796    0.037055157805    -0.078619267802    0.000669798139    -0.000899708665
            0.000620342862    -0.000827635796    0.118848317355    0.011443561070    0.000647624181    -0.000860098573    0.118522581415    -0.002336016735
            0.037055157805    -0.078619267802    0.000647624286    -0.000860098118    0.023053837600    -0.104491240731    0.000743149349    -0.000968043961
            0.000669798139    -0.000899708665    0.118522581382    -0.002336018390    0.000743149366    -0.000968043948    0.120811850461    0.011961333811
0.650     -0.024674855102    -0.097880716784    0.000456070644    -0.000983957495    -0.002133718643    -0.079526519017    0.000488627857    -0.001068201244
            0.000456070644    -0.000983957495    0.117311501602    0.016761106165    0.000478354208    -0.001022531006    0.114945318741    -0.001388107754
            -0.002133718643    -0.079526519017    0.000478354518    -0.001022530088    -0.023240574719    -0.100420791845    0.000549677187    -0.001152623676
            0.000488627857    -0.001068201244    0.114945328687    -0.001388112328    0.000549677187    -0.001152623676    0.119363022263    0.016684017899
0.675     -0.066652378961    -0.075399048864    0.000243561480    -0.001110848418    -0.039850178127    -0.065052795399    0.000255991109    -0.001202703362
            0.000243561460    -0.001110848422    0.120749641900    0.023393684771    0.000259213827    -0.001155444955    0.114671309014    0.001786860123
            -0.039850178127    -0.065052795399    0.000259214104    -0.001155444585    -0.065748041764    -0.078758780110    0.000300909747    -0.001301624324
            0.000255991635    -0.001202702637    0.114671309064    0.001786856921    0.000300909747    -0.001301624324    0.122646501778    0.022728692419
0.700     -0.097844873608    -0.038127683284    -0.000013041915    -0.001188034517    -0.070044139565    -0.036762097499    -0.000022409197    -0.001282024264
            -0.000013041936    -0.001188034517    0.129474565265    0.028851697846    -0.000006162727    -0.001237949361    0.118519762380    0.005314158627
            -0.070044139565    -0.036762097499    -0.000006162076    -0.001237948664    -0.097770028246    -0.042097687734    0.000002342582    -0.001392727330
            -0.000022409197    -0.001282024264    0.118519762389    0.005314158420    0.000002342606    -0.001392727330    0.130992374620    0.027708389113
0.725     -0.113241614122    0.008642772405    -0.000298429026    -0.001196132104    -0.087816705809    0.001362180767    -0.000329466283    -0.001286573575
            -0.000298429026    -0.001196132104    0.142626571138    0.030715962351    -0.000302608758    -0.001249647472    0.126340148683    0.007123797294
            -0.087816705809    0.001362180767    -0.000302608758    -0.001249647472    -0.114197681915    0.004384237930    -0.000328615493    -0.001404870422
            -0.000329466283    -0.001286573575    0.126340148844    0.007123794427    -0.000328615493    -0.001404870422    0.143604377140    0.029290744155
0.750     -0.110462183119    0.058066242093    -0.000587759516    -0.001123675462    -0.090396937595    0.043717300917    -0.000638688764    -0.001205362918
            -0.000587759516    -0.001123675462    0.158347615479    0.027180981538    -0.000604851221    -0.001177923874    0.137067053875    0.005441401835
            -0.090396937595    0.043717300917    -0.000604851267    -0.001177923963    -0.112510395861    0.053903317793    -0.000664457185    -0.001325580635
            -0.000638688764    -0.001205362918    0.137067053866    0.005441402075    -0.000664457185    -0.001325580635    0.158720689775    0.025722540887
0.775     -0.090088195132    0.103074606719    -0.000852360874    -0.000971444152    -0.077533497641    0.084229491391    -0.000920159080    -0.001040150870
            -0.000852360874    -0.000971444152    0.174183872002    0.017438225699    -0.000883172694    -0.001022637751    0.148973820139    -0.000838522913
            -0.077533497641    0.084229491391    -0.000883172694    -0.001022637751    -0.093136369183    0.099391028373    -0.000973585748    -0.001155542594
            -0.000920159080    -0.001040150870    0.148973810099    -0.000838529851    -0.000973585748    -0.001155542594    0.173996550628    0.016200364665
