# GHz S RI R 45
0.000     0.022304647000    0.000000000000    -0.000075374311    0.000000000000    0.000448407580    0.000000000000    -0.000041591542    0.000000000000
            -0.000075373821    0.000000000000    0.021417920000    0.000000000000    -0.000054450388    0.000000000000    0.000351640230    0.000000000000
            0.000448382810    0.000000000000    -0.000054450275    0.000000000000    0.022255578000    0.000000000000    -0.000049440368    0.000000000000
            -0.000041591190    0.000000000000    0.000351641920    0.000000000000    -0.000049440746    0.000000000000    0.021236003000    0.000000000000
0.025     0.027826393132    0.010026113620    -0.000111246059    -0.000035241423    0.002628066657    0.012299234780    -0.000099068533    -0.000047642715
            -0.000111246044    -0.000035241440    0.026238942049    0.009547302143    -0.000115652212    -0.000050977072    0.002259865926    0.011587035387
            0.002627918168    0.012299064039    -0.000115652230    -0.000050977056    0.027749210104    0.010021662555    -0.000088288920    -0.000036013217
            -0.000099068409    -0.000047642719    0.002259744181    0.011586868608    -0.000088289118    -0.000036013190    0.026236785604    0.009619755019
0.050     0.033718539742    0.014282609327    -0.000130346486    -0.000035407492    0.008710571412    0.022565866501    -0.000125458634    -0.000037588251
            -0.000130346476    -0.000035407489    0.031245993046    0.014030371387    -0.000143960805    -0.000040495679    0.007356334181    0.021531080011
            0.008710576374    0.022565857082    -0.000143960833    -0.000040495687    0.033597989280    0.014319682067    -0.000108205743    -0.000033621037
            -0.000125458659    -0.000037588235    0.007356364349    0.021531067591    -0.000108206739    -0.000033620932    0.031238953110    0.014009861428
0.075     0.039237725569    0.015361977789    -0.000142244812    -0.000036521228    0.017080631077    0.029332488896    -0.000136623121    -0.000031380302
            -0.000142243835    -0.000036521374    0.035925093052    0.016088382646    -0.000156037207    -0.000033953294    0.014511989349    0.028833323400
            0.017080611172    0.029332492387    -0.000156037246    -0.000033953303    0.039085420819    0.015479968635    -0.000119551612    -0.000032629380
            -0.000136623151    -0.000031380309    0.014511995784    0.028833322401    -0.000119551622    -0.000032629382    0.035822302471    0.016060271619
0.100     0.042958466101    0.013705403763    -0.000154330902    -0.000037259144    0.025800035081    0.032193058803    -0.000145826148    -0.000027066454
            -0.000154330893    -0.000037259142    0.039345784962    0.016118085489    -0.000165960695    -0.000029403560    0.022373711300    0.033113062022
            0.025800009597    0.032193063849    -0.000165960734    -0.000029403567    0.042810582650    0.013939371678    -0.000130597794    -0.000031579997
            -0.000145825217    -0.000027066649    0.022373713015    0.033113062070    -0.000130597803    -0.000031579999    0.039148094591    0.016166540866
0.125     0.043512818392    0.010653520561    -0.000167320874    -0.000035990914    0.033046796747    0.031694938518    -0.000154976298    -0.000022560229
            -0.000167320384    -0.000035991053    0.040576477721    0.015069466668    -0.000175778157    -0.000024705448    0.029634684097    0.034624227614
            0.033046773704    0.031694945208    -0.000175777715    -0.000024705574    0.043421800057    0.011019651664    -0.000142184761    -0.000028778732
            -0.000154976338    -0.000022560235    0.029634686001    0.034624228617    -0.000142184761    -0.000028778732    0.040337528893    0.015260263054
0.150     0.040512499763    0.008015230082    -0.000180763032    -0.000032124200    0.037430539512    0.029145176737    -0.000164221151    -0.000016757370
            -0.000180763022    -0.000032124199    0.039438741998    0.014219522793    -0.000185707030    -0.000018746306    0.035202987605    0.034127732635
            0.037430512925    0.029145186467    -0.000185706135    -0.000018746608    0.040559970459    0.008493508542    -0.000153912866    -0.000023548349
            -0.000164221190    -0.000016757374    0.035202979372    0.034127735381    -0.000153912876    -0.000023548351    0.039228531247    0.014580654138
0.175     0.034332080158    0.007788725656    -0.000193967708    -0.000025284064    0.038380247108    0.026402106873    -0.000173139850    -0.000009113389
            -0.000193967698    -0.000025284063    0.036151406837    0.014867850852    -0.000195399298    -0.000010958556    0.038486424847    0.032816368068
            0.038380225338    0.026402115582    -0.000195398889    -0.000010958704    0.034581299505    0.008313871481    -0.000165046092    -0.000015548788
            -0.000173139431    -0.000009113549    0.038486426941    0.032816368693    -0.000165046102    -0.000015548789    0.036056604336    0.015382862926
0.200     0.026337757520    0.011702520857    -0.000206243847    -0.000015634874    0.036315914189    0.025411867694    -0.000181192809    0.000000450771
            -0.000206243837    -0.000015634873    0.031564974866    0.018183379743    -0.000204370248    -0.000001220120    0.039523506561    0.032024773987
            0.036315889789    0.025411879890    -0.000204370298    -0.000001220120    0.026814966608    0.012176293661    -0.000174873204    -0.000004984596
            -0.000181192859    0.000000450771    0.039523499977    0.032024778937    -0.000174873214    -0.000004984596    0.031655693885    0.018789929355
0.225     0.018726552904    0.020708545212    -0.000216831581    -0.000003413606    0.032602414224    0.027713835424    -0.000187736362    0.000011780449
            -0.000216831128    -0.000003413826    0.027080482940    0.024866245574    -0.000212007142    0.000010406230    0.038987597971    0.032919952310
            0.032602394585    0.027713846175    -0.000212007190    0.000010406269    0.019405808200    0.021020337450    -0.000182626765    0.000007777041
            -0.000187735975    0.000011780227    0.038987600649    0.032919952240    -0.000182626785    0.000007777042    0.027388745658    0.025469494545
0.250     0.014081621504    0.034616351680    -0.000225209764    0.000010767921    0.029270565594    0.034004342641    -0.000192315423    0.000024374582
            -0.000225208896    0.000010767446    0.024384974845    0.034917469173    -0.000217830884    0.000023508495    0.038054889433    0.036222924350
            0.029270549986    0.034004352117    -0.000217830929    0.000023508539    0.014881610460    0.034671719736    -0.000187850602    0.000022019313
            -0.000192315493    0.000024374590    0.038054893503    0.036222924426    -0.000187850622    0.000022019315    0.024890430537    0.035414660784
0.275     0.014761370387    0.051946983908    -0.000230945430    0.000026178338    0.028518349805    0.043868580746    -0.000194614645    0.000037559380
            -0.000230945006    0.000026178086    0.025091800658    0.047522219040    -0.000221447895    0.000037497012    0.038138810137    0.042002839303
            0.028518328366    0.043868594683    -0.000221447944    0.000037497020    0.015555774616    0.051695707249    -0.000190231184    0.000036890926
            -0.000194614703    0.000037559391    0.038138813742    0.042002837381    -0.000190232042    0.000036891437    0.025723316826    0.047828816118
0.300     0.022255646640    0.070162209733    -0.000234061351    0.000041944935    0.032126320018    0.055817026790    -0.000194734705    0.000050566527
            -0.000234061351    0.000041944935    0.030349541074    0.061155980493    -0.000222846505    0.000051623908    0.040555610022    0.049633501400
            0.032126307852    0.055817034946    -0.000222845729    0.000051623400    0.022899925162    0.069618091327    -0.000189953548    0.000051491524
            -0.000194734773    0.000050566545    0.040555614752    0.049633500117    -0.000189953558    0.000051491563    0.030999442781    0.061230768252
0.325     0.036726700343    0.086188915641    -0.000234813318    0.000057283738    0.040953861959    0.067624094270    -0.000193033023    0.000062730549
            -0.000234813318    0.000057283738    0.040534269082    0.073850557016    -0.000222270812    0.000065193912    0.046193138629    0.057911309172
            0.040953825082    0.067624121280    -0.000222270474    0.000065193645    0.037090511502    0.085434261512    -0.000187444752    0.000065047822
            -0.000193032686    0.000062730290    0.046193142672    0.057911305947    -0.000187445158    0.000065048146    0.041083095738    0.073709332485
0.350     0.056897637972    0.097147738010    -0.000233850626    0.000071664358    0.054710766058    0.076892366075    -0.000190186846    0.000073672781
            -0.000233850626    0.000071664358    0.055116036720    0.083614039575    -0.000220322547    0.000077737268    0.055297310428    0.065335131988
            0.054710769505    0.076892362396    -0.000220321835    0.000077736671    0.056897352907    0.096321387219    -0.000183491365    0.000077135871
            -0.000190186889    0.000073672836    0.055297314343    0.065335127365    -0.000183491370    0.000077135910    0.055461780513    0.083329675009
0.375     0.080319336520    0.101000744425    -0.000231852360    0.000084890105    0.072038086168    0.081613886703    -0.000186879960    0.000083354440
            -0.000231851634    0.000084889472    0.072735425409    0.088838239003    -0.000217662160    0.000089111054    0.067408646855    0.070432880929
            0.072038053406    0.081613915621    -0.000217662182    0.000089111107    0.079940097092    0.100270154420    -0.000178853231    0.000087682164
            -0.000186880001    0.000083354497    0.067408648623    0.070432877854    -0.000178853610    0.000087682504    0.072818906953    0.088526787199
0.400     0.103918381300    0.096975259583    -0.000229504775    0.000097148047    0.090857454764    0.080591464318    -0.000183728056    0.000092093775
            -0.000229504775    0.000097148047    0.091477187793    0.088634978092    -0.000214941862    0.000099535364    0.081480583812    0.072075724792
            0.090857457577    0.080591461146    -0.000214941881    0.000099535418    0.103220785713    0.096503925535    -0.000174225194    0.000097025677
            -0.000183728085    0.000092093830    0.081480587586    0.072075720526    -0.000174225212    0.000097025686    0.091297680501    0.088431684894
0.425     0.124613027141    0.085645156647    -0.000227211707    0.000108853955    0.108802146402    0.073605456482    -0.000181047322    0.000100404092
            -0.000227211377    0.000108853601    0.109236064482    0.082978267634    -0.000212548864    0.000109467793    0.096090434954    0.069670885176
            0.108802147686    0.073605454583    -0.000212548880    0.000109467848    0.123724884564    0.085559893873    -0.000169962263    0.000105685255
            -0.000181047340    0.000100404143    0.096090429290    0.069670875952    -0.000169962922    0.000105685994    0.108854414566    0.083009713170
0.450     0.139857482075    0.068758577507    -0.000225131056    0.000120569970    0.123637359289    0.061398609050    -0.000178879696    0.000108890940
            -0.000225131035    0.000120570009    0.124100412401    0.072684849340    -0.000210611901    0.000119496545    0.109709303058    0.063250604973
            0.123637360361    0.061398606893    -0.000210611915    0.000119496601    0.138953129847    0.069124649853    -0.000166132156    0.000114297763
            -0.000178879703    0.000108890987    0.109709305265    0.063250601143    -0.000166132164    0.000114297769    0.123628712826    0.073042717025
0.475     0.148007371680    0.048895959427    -0.000223089057    0.000132794377    0.133576258625    0.045522145774    -0.000176948434    0.000118058979
            -0.000223089057    0.000132794377    0.134648947392    0.059235676019    -0.000208932420    0.000130159147    0.120938151735    0.053438408143
            0.133576259419    0.045522143443    -0.000208932423    0.000130159199    0.147280420511    0.049702189121    -0.000162461827    0.000123359444
            -0.000176948439    0.000118059027    0.120938153600    0.053438403921    -0.000162461814    0.000123359479    0.134231893714    0.059960036647
0.500     0.148539250157    0.029078607112    -0.000220707120    0.000145917610    0.137538353617    0.028138607765    -0.000174780114    0.000128255753
            -0.000220707120    0.000145917610    0.140157250460    0.044530332501    -0.000207096635    0.000141868347    0.128723791643    0.041359978199
            0.137538353126    0.028138610166    -0.000207096668    0.000141868369    0.148169385816    0.030233266331    -0.000158480278    0.000133216686
            -0.000174780130    0.000128255765    0.128723791643    0.041359978199    -0.000158480796    0.000133217499    0.139948827961    0.045601614026
0.525     0.142129842130    0.012351229347    -0.000217422473    0.000160074498    0.135341553795    0.011757530696    -0.000171752673    0.000139550595
            -0.000217422195    0.000160074117    0.140682562425    0.030591798786    -0.000204502048    0.000154790413    0.132516164659    0.028482527736
            0.135341553795    0.011757530696    -0.000204502045    0.000154790467    0.142252066695    0.013690052870    -0.000153578712    0.000143902353
            -0.000171752672    0.000139550644    0.132516165156    0.028482525423    -0.000153578720    0.000143902360    0.140830894773    0.031934866040
0.550     0.130652721372    0.001353307681    -0.000212632378    0.000175161153    0.127864691489    -0.001098491718    -0.000167241525    0.000151743090
            -0.000212632370    0.000175161147    0.137067031167    0.019280124981    -0.000200498969    0.000168831623    0.132395603684    0.016405769849
            0.127864691490    -0.001098491652    -0.000200499089    0.000168831604    0.131324808197    0.002659271683    -0.000147155395    0.000155188727
            -0.000167241623    0.000151743072    0.132395594017    0.016405766540    -0.000147155402    0.000155188734    0.137706441385    0.020749319744
0.575     0.117024158759    -0.002153411258    -0.000205768328    0.000190751063    0.117080140849    -0.008355359190    -0.000160713581    0.000164317012
            -0.000205768083    0.000190750636    0.130837651079    0.012004390195    -0.000194465246    0.000183575445    0.129072907457    0.006601974733
            0.117080096940    -0.008355272054    -0.000194465275    0.000183575473    0.118204838544    -0.001116356111    -0.000138725814    0.000166517486
            -0.000160713373    0.000164316628    0.129072897597    0.006601971744    -0.000138725821    0.000166517493    0.132024531471    0.013366741346
0.600     0.104855597163    0.002241372757    -0.000196458936    0.000206167860    0.105883455307    -0.008921103705    -0.000151876943    0.000176520135
            -0.000196458966    0.000206167818    0.124025448755    0.009462830200    -0.000185973981    0.000198324997    0.123859403186    0.000197093218
            0.105883455354    -0.008921103151    -0.000185973981    0.000198325066    0.106397623500    0.002800378134    -0.000128056204    0.000177122010
            -0.000151876939    0.000176520192    0.123859403191    0.000197090378    -0.000128056216    0.000177122027    0.125682659119    0.010486645348
0.625     0.097806083056    0.013245496438    -0.000184651239    0.000220507815    0.097574580427    -0.003172300342    -0.000140802863    0.000187428637
            -0.000184651239    0.000220507815    0.118848317355    0.011443561070    -0.000174920353    0.000212145109    0.118522581415    -0.002336016735
            0.097574580427    -0.003172300342    -0.000174920397    0.000212145163    0.099473117760    0.013193914982    -0.000115294052    0.000186061481
            -0.000140802709    0.000187428227    0.118522581382    -0.002336018390    -0.000115294213    0.000186061958    0.120811850461    0.011961333811
0.650     0.098715960093    0.027865502473    -0.000170747948    0.000232863658    0.095059128945    0.006879941753    -0.000128028393    0.000196180808
            -0.000170747648    0.000232862738    0.117311501602    0.016761106165    -0.000161678001    0.000224069601    0.114945318741    -0.001388107754
            0.095059132129    0.006879939315    -0.000161677687    0.000224068754    0.100225653510    0.027189388884    -0.000101053476    0.000192491487
            -0.000128028112    0.000196179928    0.114945328687    -0.001388112328    -0.000101053783    0.000192492399    0.119363022263    0.016684017899
0.675     0.108735726215    0.041939506960    -0.000155604943    0.000242529209    0.099960100821    0.017932682451    -0.000114511975    0.000202195142
            -0.000155604700    0.000242528272    0.120749641900    0.023393684771    -0.000147096928    0.000233330652    0.114671309014    0.001786860123
            0.099960092370    0.017932729556    -0.000147096914    0.000233330720    0.109822584468    0.040757692940    -0.000086383241    0.000195861376
            -0.000114511965    0.000202195206    0.114671309064    0.001786856921    -0.000086383495    0.000195862324    0.122646501778    0.022728692419
0.700     0.126879849043    0.051150522268    -0.000140397370    0.000249305776    0.112083300345    0.026248056550    -0.000101455702    0.000205433808
            -0.000140397141    0.000249304861    0.129474565265    0.028851697846    -0.000132382382    0.000239667390    0.118519762380    0.005314158627
            0.112083280187    0.026248142624    -0.000132382401    0.000239667425    0.127357720810    0.049693524637    -0.000072556324    0.000196199322
            -0.000101455689    0.000205433870    0.118519762389    0.005314158420    -0.000072556558    0.000196200270    0.130992374620    0.027708389113
0.725     0.150227521678    0.052159838156    -0.000126299435    0.000253594075    0.129463274237    0.028676312686    -0.000089979964    0.000206456039
            -0.000126299358    0.000253593588    0.142626571138    0.030715962351    -0.000118760167    0.000243447083    0.126340148683    0.007123797294
            0.129463255218    0.028676398549    -0.000118759993    0.000243446188    0.150034028634    0.050716951330    -0.000060757431    0.000194154090
            -0.000089979952    0.000206456110    0.126340148844    0.007123794427    -0.000060757437    0.000194154109    0.143604377140    0.029290744155
0.750     0.174739064821    0.043390119972    -0.000114150949    0.000256367359    0.149003745947    0.023414703014    -0.000080809495    0.000206336991
            -0.000114150940    0.000256367341    0.158347615479    0.027180981538    -0.000107136866    0.000245633037    0.137067053875    0.005441401835
            0.149003731276    0.023414796375    -0.000107136736    0.000245632155    0.173944151645    0.042246437357    -0.000051729763    0.000190910530
            -0.000080809470    0.000206337033    0.137067053866    0.005441402075    -0.000051729881    0.000190911492    0.158720689775    0.025722540887
0.775     0.196262404773    0.025209851403    -0.000104202166    0.000258871655    0.167304182436    0.010236339074    -0.000074062988    0.000206363702
            -0.000104202134    0.000258871183    0.174183872002    0.017438225699    -0.000097820759    0.000247500956    0.148973820139    -0.000838522913
            0.167304180114    0.010236377034    -0.000097820731    0.000247501010    0.195047468275    0.024589030552    -0.000045583180    0.000187865996
            -0.000074062967    0.000206363305    0.148973810099    -0.000838529851    -0.000045583154    0.000187866033    0.173996550628    0.016200364665
