# GHz S RI R 45
0.000     0.021717670000    0.000000000000    -0.000057087537    0.000000000000    0.000387193020    0.000000000000    -0.000028467827    0.000000000000
            -0.000057087774    0.000000000000    0.021417920000    0.000000000000    -0.000040070791    0.000000000000    0.000351640230    0.000000000000
            0.000387191930    0.000000000000    -0.000040070785    0.000000000000    0.021672146000    0.000000000000    -0.000028118674    0.000000000000
            -0.000028467494    0.000000000000    0.000351641920    0.000000000000    -0.000028118675    0.000000000000    0.021236003000    0.000000000000
0.025     0.027117510535    0.009986366352    -0.000011222844    0.000032105708    0.002581201178    0.012009816924    -0.000020584894    0.000011333780
            -0.000011222841    0.000032105702    0.026238942049    0.009547302143    -0.000017861233    0.000018076798    0.002259865926    0.011587035387
            0.002581077621    0.012009651186    -0.000017861230    0.000018076801    0.027026440580    0.009988775416    -0.000017392725    0.000016070352
            -0.000020584892    0.000011333779    0.002259744181    0.011586868608    -0.000017392738    0.000016070348    0.026236785604    0.009619755019
0.050     0.032674081550    0.014353405583    0.000002717500    0.000016941648    0.008155364619    0.022035942846    -0.000019337994    0.000014687179
            0.000002717486    0.000016941652    0.031245993046    0.014030371387    -0.000012107125    0.000013236029    0.007356334181    0.021531080011
            0.008155394618    0.022035931744    -0.000012107126    0.000013236030    0.032541701413    0.014402530307    -0.000014657651    0.000021312086
            -0.000019337902    0.000014687168    0.007356364349    0.021531067591    -0.000014657568    0.000021312077    0.031238953110    0.014009861428
0.075     0.037822208220    0.015924557304    -0.000000249555    0.000008849953    0.015824862903    0.029078851866    -0.000021953049    0.000020557606
            -0.000000249566    0.000008849970    0.035925093052    0.016088382646    -0.000015905681    0.000012532241    0.014511989349    0.028833323400
            0.015824867919    0.029078851414    -0.000015905638    0.000012532230    0.037654207437    0.016054402796    -0.000016501586    0.000029265781
            -0.000021953055    0.000020557605    0.014511995784    0.028833322401    -0.000016501555    0.000029265774    0.035822302471    0.016060271619
0.100     0.041433308057    0.015129617677    -0.000007738531    0.000006719347    0.024034112008    0.032753381755    -0.000025437671    0.000029285107
            -0.000007738513    0.000006719350    0.039345784962    0.016118085489    -0.000022791754    0.000016064628    0.022373711300    0.033113062022
            0.024034110273    0.032753381788    -0.000022791757    0.000016064624    0.041255962430    0.015375014269    -0.000019314571    0.000040234794
            -0.000025437678    0.000029285105    0.022373713015    0.033113062070    -0.000019314493    0.000040234775    0.039148094591    0.016166540866
0.125     0.042372530769    0.013125430252    -0.000016991032    0.000010423110    0.031281800670    0.033432291308    -0.000028584059    0.000041119215
            -0.000016991010    0.000010423113    0.040576477721    0.015069466668    -0.000030845902    0.000024253628    0.029634684097    0.034624227614
            0.031281799403    0.033432291124    -0.000030845904    0.000024253629    0.042241195834    0.013499729801    -0.000021761195    0.000054553468
            -0.000028584060    0.000041119216    0.029634686001    0.034624228617    -0.000021761216    0.000054553466    0.040337528893    0.015260263054
0.150     0.040388192563    0.011404234488    -0.000025954647    0.000019043414    0.036359691702    0.032096575058    -0.000030167822    0.000055851242
            -0.000025954623    0.000019043418    0.039438741998    0.014219522793    -0.000038471642    0.000036992742    0.035202987605    0.034127732635
            0.036359690392    0.032096575031    -0.000038471652    0.000036992739    0.040352301177    0.011902142621    -0.000022535557    0.000072028792
            -0.000030167822    0.000055851242    0.035202979372    0.034127735381    -0.000022535584    0.000072028790    0.039228531247    0.014580654138
0.175     0.035762682185    0.011599125264    -0.000033051416    0.000032359773    0.038690401043    0.030206140174    -0.000029157284    0.000073280710
            -0.000033051391    0.000032359771    0.036151406837    0.014867850852    -0.000044178020    0.000054416323    0.038486424847    0.032816368068
            0.038690408941    0.030206136558    -0.000044178032    0.000054416318    0.035876564007    0.012188004095    -0.000020418696    0.000092571300
            -0.000029157298    0.000073280707    0.038486426941    0.032816368693    -0.000020418713    0.000092571300    0.036056604336    0.015382862926
0.200     0.029579167372    0.015147738060    -0.000036805017    0.000049612409    0.038468232757    0.029340265948    -0.000024439578    0.000092741105
            -0.000036804988    0.000049612407    0.031564974866    0.018183379743    -0.000046235327    0.000076096850    0.039523506561    0.032024773987
            0.038468230655    0.029340265407    -0.000046235329    0.000076096854    0.029881981882    0.015766180327    -0.000014129714    0.000115484162
            -0.000024439579    0.000092741106    0.039523499977    0.032024778937    -0.000014129745    0.000115484158    0.031655693885    0.018789929355
0.225     0.023607136644    0.022877628397    -0.000035868104    0.000069811201    0.036647876570    0.030814464983    -0.000015082578    0.000113314776
            -0.000035868168    0.000069811236    0.027080482940    0.024866245574    -0.000042963983    0.000101155732    0.038987597971    0.032919952310
            0.036647873963    0.030814464975    -0.000042963983    0.000101155732    0.024107128298    0.023445297106    -0.000002484133    0.000139792550
            -0.000015082582    0.000113314775    0.038987600649    0.032919952240    -0.000002484082    0.000139792511    0.027388745658    0.025469494545
0.250     0.019952688602    0.034715359749    -0.000029080458    0.000091386197    0.034751071742    0.035339271252    -0.000000353227    0.000133546753
            -0.000029080521    0.000091386231    0.024384974845    0.034917469173    -0.000032790006    0.000127901200    0.038054889433    0.036222924350
            0.034751069106    0.035339271040    -0.000032790031    0.000127901204    0.020618599054    0.035150213443    0.000015422238    0.000163835394
            -0.000000353231    0.000133546753    0.038054893503    0.036222924426    0.000015422208    0.000163835407    0.024890430537    0.035414660784
0.275     0.020589128938    0.049552219043    -0.000015920668    0.000112286259    0.034511467875    0.042787991232    0.000019872693    0.000151660986
            -0.000015920685    0.000112286267    0.025091800658    0.047522219040    -0.000014875091    0.000153947762    0.038138810137    0.042002839303
            0.034511468622    0.042787990630    -0.000014875097    0.000153947772    0.021350982440    0.049790893005    0.000039856923    0.000185569826
            0.000019872687    0.000151660986    0.038138813742    0.042002837381    0.000039856883    0.000185569845    0.025723316826    0.047828816118
0.300     0.026848405469    0.065401370175    0.000003328014    0.000130195122    0.037437084202    0.052183503664    0.000044983926    0.000165716242
            0.000003328036    0.000130195101    0.030349541074    0.061155980493    0.000010662308    0.000176461129    0.040555610022    0.049633501400
            0.037437081469    0.052183505624    0.000010662308    0.000176461129    0.027610569976    0.065417483234    0.000070191708    0.000202711961
            0.000044983915    0.000165716245    0.040555614752    0.049633500117    0.000070191677    0.000202711972    0.030999442781    0.061230768252
0.325     0.039040815375    0.079772796463    0.000027245601    0.000143033413    0.044408734014    0.061902078042    0.000073411166    0.000174137994
            0.000027245586    0.000143033416    0.040534269082    0.073850557016    0.000042299278    0.000192786441    0.046193138629    0.057911309172
            0.044408730275    0.061902081955    0.000042299314    0.000192786412    0.039700576471    0.079586963981    0.000104727581    0.000213367721
            0.000073411151    0.000174138011    0.046193142672    0.057911305947    0.000104727544    0.000213367750    0.041083095738    0.073709332485
0.350     0.056316955351    0.090232648102    0.000053660586    0.000149531922    0.055454940557    0.070070307580    0.000103010849    0.000176158473
            0.000053660604    0.000149531905    0.055116036720    0.083614039575    0.000077518607    0.000201123482    0.055297310428    0.065335131988
            0.055454938731    0.070070310300    0.000077518681    0.000201123421    0.056789138643    0.089912011479    0.000141046471    0.000216522608
            0.000103010843    0.000176158476    0.055297314343    0.065335127365    0.000141046520    0.000216522576    0.055461780513    0.083329675009
0.375     0.076820037047    0.094926541128    0.000079981659    0.000149598838    0.069745206845    0.074989413746    0.000131438167    0.000172138876
            0.000079981675    0.000149598818    0.072735425409    0.088838239003    0.000113156417    0.000201036271    0.067408646855    0.070432880929
            0.069745211037    0.074989423503    0.000113156454    0.000201036238    0.077056094526    0.094572304805    0.000176470633    0.000212420326
            0.000131438164    0.000172138891    0.067408648623    0.070432877854    0.000176470647    0.000212420328    0.072818906953    0.088526787199
0.400     0.098077724440    0.092972001648    0.000104070800    0.000144310835    0.085803040820    0.075498927159    0.000156925382    0.000163448559
            0.000104070748    0.000144310885    0.091477187793    0.088634978092    0.000146408911    0.000193501128    0.081480583812    0.072075724792
            0.085803038184    0.075498930154    0.000146408904    0.000193501133    0.098078105521    0.092700183464    0.000208886695    0.000202455712
            0.000156925386    0.000163448569    0.081480587586    0.072075720526    0.000208886677    0.000202455744    0.091297680501    0.088431684894
0.425     0.117487764506    0.084587839515    0.000124571586    0.000135540668    0.101811301682    0.071160279131    0.000178572566    0.000152076750
            0.000124571565    0.000135540674    0.109236064482    0.082978267634    0.000175243389    0.000180572256    0.096090434954    0.069670885176
            0.101811300440    0.071160280908    0.000175243382    0.000180572248    0.117304123796    0.084506624350    0.000237113186    0.000188760948
            0.000178572561    0.000152076756    0.096090429290    0.069670875952    0.000237113174    0.000188760979    0.108854414566    0.083009713170
0.450     0.132788621667    0.071015037941    0.000141310060    0.000125351112    0.115948000018    0.062301342444    0.000196634031    0.000140009222
            0.000141310076    0.000125351095    0.124100412401    0.072684849340    0.000198945872    0.000164732230    0.109709303058    0.063250604973
            0.115947998930    0.062301344468    0.000198945866    0.000164732237    0.132515505342    0.071204496680    0.000261213430    0.000173540102
            0.000196634034    0.000140009235    0.109709305265    0.063250601143    0.000261213444    0.000173540117    0.123628712826    0.073042717025
0.475     0.142403170646    0.054260524582    0.000154979928    0.000115498316    0.126655357353    0.049927271434    0.000212171762    0.000128768108
            0.000154979871    0.000115498375    0.134648947392    0.059235676019    0.000217859722    0.000148343614    0.120938151735    0.053438408143
            0.126655357353    0.049927271434    0.000217859723    0.000148343631    0.142164077396    0.054759998956    0.000282161972    0.000158558442
            0.000212171760    0.000128768112    0.120938153600    0.053438403921    0.000282161990    0.000158558452    0.134231893714    0.059960036647
0.500     0.145660080014    0.036771209935    0.000166974118    0.000107036057    0.132867534112    0.035579474609    0.000226815288    0.000119050997
            0.000166974095    0.000107036112    0.140157250460    0.044530332501    0.000233304175    0.000133147563    0.128723791643    0.041359978199
            0.132867543150    0.035579479514    0.000233304120    0.000133147537    0.145589068455    0.037577760320    0.000301594843    0.000144747787
            0.000226815292    0.000119050989    0.128723791643    0.041359978199    0.000301594855    0.000144747831    0.139948827961    0.045601614026
0.525     0.142876494958    0.021010864256    0.000178810446    0.000100252428    0.134170413039    0.021097417518    0.000242177086    0.000110728636
            0.000178810451    0.000100252418    0.140682562425    0.030591798786    0.000247008096    0.000120128317    0.132516164659    0.028482527736
            0.134170422623    0.021097420944    0.000247008080    0.000120128304    0.143099777282    0.022149754234    0.000321226056    0.000132179428
            0.000242177099    0.000110728631    0.132516165156    0.028482525423    0.000321226074    0.000132179462    0.140830894773    0.031934866040
0.550     0.135888456194    0.009743450830    0.000192277117    0.000094579597    0.131278385513    0.008756523914    0.000259823792    0.000102639703
            0.000192277096    0.000094579616    0.137067031167    0.019280124981    0.000260988285    0.000109281493    0.132395603684    0.016405769849
            0.131278385513    0.008756523914    0.000260988254    0.000109281517    0.135979319270    0.010673289319    0.000342656658    0.000119975681
            0.000259823790    0.000102639708    0.132395594017    0.016405766540    0.000342656733    0.000119975620    0.137706441385    0.020749319744
0.575     0.125632616570    0.003883346005    0.000208066756    0.000089323429    0.124630908616    -0.000088447050    0.000280432766    0.000093858606
            0.000208066756    0.000089323429    0.130837651079    0.012004390195    0.000277052175    0.000100092823    0.129072907457    0.006601974733
            0.124630908616    -0.000088447050    0.000277052168    0.000100092843    0.126358586103    0.004807834870    0.000366923170    0.000106968049
            0.000280432784    0.000093858585    0.129072897597    0.006601971744    0.000366923210    0.000106968019    0.132024531471    0.013366741346
0.600     0.115874879086    0.004322432157    0.000227211306    0.000082618295    0.116853307561    -0.004135120527    0.000304315617    0.000082172954
            0.000227211317    0.000082618236    0.124025448755    0.009462830200    0.000296749093    0.000090863659    0.123859403186    0.000197093218
            0.116853307575    -0.004135120119    0.000296749072    0.000090863693    0.117011968936    0.005171186235    0.000394518968    0.000091162541
            0.000304315596    0.000082172994    0.123859403191    0.000197090378    0.000394518965    0.000091162555    0.125682659119    0.010486645348
0.625     0.109311758026    0.010431887073    0.000249726881    0.000072655844    0.110212465701    -0.003390992168    0.000330938704    0.000065724506
            0.000249726862    0.000072655838    0.118848317355    0.011443561070    0.000320818137    0.000079340497    0.118522581415    -0.002336016735
            0.110212465713    -0.003390991783    0.000320818143    0.000079340516    0.110825363175    0.010853963727    0.000425063143    0.000070517091
            0.000330938708    0.000065724537    0.118522581382    -0.002336018390    0.000425063138    0.000070517120    0.120811850461    0.011961333811
0.650     0.108405319658    0.020235008809    0.000274916698    0.000057285862    0.106853874830    0.001285739359    0.000359010142    0.000042613772
            0.000274916695    0.000057285827    0.117311501602    0.016761106165    0.000349146947    0.000062737583    0.114945318741    -0.001388107754
            0.106853874830    0.001285739340    0.000349146948    0.000062737577    0.109924861976    0.020194700903    0.000457508680    0.000042905492
            0.000359010124    0.000042613758    0.114945328687    -0.001388112328    0.000457508668    0.000042905514    0.119363022263    0.016684017899
0.675     0.114515060169    0.030712819692    0.000300824538    0.000034538785    0.108544131838    0.007818177102    0.000386118753    0.000011384849
            0.000300824523    0.000034538833    0.120749641900    0.023393684771    0.000379958218    0.000038105078    0.114671309014    0.001786860123
            0.108544131565    0.007818180891    0.000379958223    0.000038105032    0.115881110107    0.030293451536    0.000489431685    0.000006437565
            0.000386118764    0.000011384830    0.114671309064    0.001786856921    0.000489431695    0.000006437577    0.122646501778    0.022728692419
0.700     0.127470851059    0.038456689303    0.000324390404    0.000003321655    0.115742330207    0.013497499053    0.000409037108    -0.000028363192
            0.000324390394    0.000003321636    0.129474565265    0.028851697846    0.000409884320    0.000003372003    0.118519762380    0.005314158627
            0.115742330207    0.013497499053    0.000409884320    0.000003372002    0.128551105132    0.037767719767    0.000517386213    -0.000039657694
            0.000409037091    -0.000028363146    0.118519762389    0.005314158420    0.000517386213    -0.000039657694    0.130992374620    0.027708389113
0.725     0.145525527730    0.040474381497    0.000341901685    -0.000035770823    0.127569209018    0.015730006677    0.000424221388    -0.000075352573
            0.000341901682    -0.000035770854    0.142626571138    0.030715962351    0.000434452136    -0.000041626752    0.126340148683    0.007123797294
            0.127569208607    0.015730010016    0.000434452147    -0.000041626742    0.146242118198    0.039673234387    0.000537423343    -0.000094348660
            0.000424221393    -0.000075352543    0.126340148844    0.007123794427    0.000537423343    -0.000094348607    0.143604377140    0.029290744155
0.750     0.165780627780    0.034893866286    0.000350099452    -0.000080269612    0.142089186700    0.012654271745    0.000428861510    -0.000126598141
            0.000350099456    -0.000080269684    0.158347615479    0.027180981538    0.000449353013    -0.000094793172    0.137067053875    0.005441401835
            0.142089186037    0.012654279184    0.000449353009    -0.000094793097    0.166132114580    0.034157771097    0.000546238636    -0.000154689973
            0.000428861510    -0.000126598141    0.137067053866    0.005441402075    0.000546238648    -0.000154689966    0.158720689775    0.025722540887
0.775     0.184872144233    0.021323173534    0.000347210890    -0.000126159509    0.156816523607    0.003491154348    0.000421771108    -0.000177837017
            0.000347210879    -0.000126159540    0.174183872002    0.017438225699    0.000451669549    -0.000151973426    0.148973820139    -0.000838522913
            0.156816523601    0.003491154622    0.000451669545    -0.000151973468    0.184934714820    0.020811369548    0.000542174724    -0.000216226162
            0.000421771114    -0.000177837029    0.148973810099    -0.000838529851    0.000542174735    -0.000216226134    0.173996550628    0.016200364665
0.800     0.199691230137    0.000794337457    0.000333621474    -0.000169042014    0.169290150427    -0.011435452913    0.000403926372    -0.000224686945
            0.000333621471    -0.000169042020    0.187615183019    0.001785608455    0.000440797622    -0.000208170454    0.160087531411    -0.011979442397
