# GHz S RI R 45
0.000     0.021369265000    0.000000000000    -0.000005081429    0.000000000000    0.000625146740    -0.000000000000    -0.000008205479    0.000000000000
            -0.000005081254    0.000000000000    0.021417920000    0.000000000000    -0.000048721031    0.000000000000    0.000351640230    0.000000000000
            0.000625138600    -0.000000000000    -0.000048720934    0.000000000000    0.021245975000    0.000000000000    0.000004804046    -0.000000000000
            -0.000008205284    0.000000000000    0.000351641920    0.000000000000    0.000004803974    -0.000000000000    0.021236003000    0.000000000000
0.025     0.027654489104    0.008131966674    -0.000018608008    -0.000031910123    0.003540162052    0.009967248436    -0.000016033855    -0.000026100033
            -0.000018607843    -0.000031910212    0.026238942049    0.009547302143    -0.000047812927    -0.000025771289    0.002259865926    0.011587035387
            0.003540136620    0.009967302039    -0.000047812838    -0.000025771305    0.027597256271    0.008128111572    -0.000028952775    -0.000045832864
            -0.000016033677    -0.000026100081    0.002259744181    0.011586868608    -0.000028952822    -0.000045832851    0.026236785604    0.009619755019
0.050     0.036340131990    0.009477884347    -0.000044138004    -0.000050731316    0.011381816728    0.016969707503    -0.000035415298    -0.000046040040
            -0.000044137926    -0.000050731351    0.031245993046    0.014030371387    -0.000078952253    -0.000055743776    0.007356334181    0.021531080011
            0.011381800818    0.016969725398    -0.000078952163    -0.000055743817    0.036288638988    0.009475406782    -0.000061568668    -0.000058426280
            -0.000035415124    -0.000046040114    0.007356364349    0.021531067591    -0.000061568668    -0.000058426280    0.031238953110    0.014009861428
0.075     0.045845457035    0.005358600475    -0.000076609645    -0.000055703404    0.022037780315    0.018886368500    -0.000063725043    -0.000055905337
            -0.000076609490    -0.000055703516    0.035925093052    0.016088382646    -0.000124000833    -0.000057529653    0.014511989349    0.028833323400
            0.022037770426    0.018886380039    -0.000124000747    -0.000057529719    0.045808777243    0.005363887521    -0.000095510064    -0.000061328542
            -0.000063724917    -0.000055905483    0.014511995784    0.028833322401    -0.000095510102    -0.000061328519    0.035822302471    0.016060271619
0.100     0.053473023897    -0.004542307055    -0.000109564666    -0.000046216928    0.032718212795    0.014869625491    -0.000096369721    -0.000053811592
            -0.000109564606    -0.000046216993    0.039345784962    0.016118085489    -0.000165022594    -0.000036584387    0.022373711300    0.033113062022
            0.032718214360    0.014869631714    -0.000165022526    -0.000036584462    0.053471994527    -0.004527949847    -0.000131345668    -0.000052007009
            -0.000096369575    -0.000053811731    0.022373713015    0.033113062070    -0.000131345741    -0.000052006932    0.039148094591    0.016166540866
0.125     0.056303564644    -0.019138683111    -0.000137464931    -0.000025165036    0.040528321935    0.005411551697    -0.000129219822    -0.000039202000
            -0.000137464860    -0.000025165147    0.040576477721    0.015069466668    -0.000195535686    -0.000000934655    0.029634684097    0.034624227614
            0.040528325267    0.005411556965    -0.000195535636    -0.000000934757    0.056363342471    -0.019137950619    -0.000165193839    -0.000030418623
            -0.000129219720    -0.000039202166    0.029634686001    0.034624228617    -0.000165193894    -0.000030418544    0.040337528893    0.015260263054
0.150     0.052283447333    -0.035953627111    -0.000157932396    0.000003815132    0.043051392063    -0.007785998106    -0.000158677170    -0.000012735031
            -0.000157932320    0.000003814964    0.039438741998    0.014219522793    -0.000212722214    0.000042854885    0.035202987605    0.034127732635
            0.043051397798    -0.007785994488    -0.000212722170    0.000042854799    0.052427969337    -0.035986077648    -0.000193849411    0.000002678873
            -0.000158677133    -0.000012735111    0.035202979372    0.034127735381    -0.000193849411    0.000002678873    0.039228531247    0.014580654138
0.175     0.040405309666    -0.051718518105    -0.000170906556    0.000037322310    0.038800527652    -0.022035013217    -0.000181633809    0.000024545491
            -0.000170906511    0.000037322144    0.036151406837    0.014867850852    -0.000217939006    0.000088890855    0.038486424847    0.032816368068
            0.038800537099    -0.022035008730    -0.000217938991    0.000088890760    0.040643807807    -0.051828299941    -0.000214728435    0.000045723027
            -0.000181633775    0.000024545293    0.038486426941    0.032816368693    -0.000214728447    0.000045723069    0.036056604336    0.015382862926
0.200     0.021245794159    -0.062857343942    -0.000177695498    0.000073870506    0.027585741900    -0.034154855674    -0.000195190206    0.000071272214
            -0.000177695498    0.000073870324    0.031564974866    0.018183379743    -0.000214692503    0.000134806458    0.039523506561    0.032024773987
            0.027585747426    -0.034154857638    -0.000214692489    0.000134806293    0.021564033821    -0.063099495913    -0.000225699330    0.000097061332
            -0.000195190211    0.000071272023    0.039523499977    0.032024778937    -0.000225699333    0.000097061426    0.031655693885    0.018789929355
0.225     -0.003041670876    -0.066196125403    -0.000178940720    0.000114081427    0.010644312508    -0.041056047214    -0.000196165809    0.000125507064
            -0.000178940752    0.000114081227    0.027080482940    0.024866245574    -0.000205369276    0.000181737821    0.038987597971    0.032919952310
            0.010644321645    -0.041056050010    -0.000205369276    0.000181737821    -0.002687236820    -0.066622988204    -0.000224413896    0.000155146153
            -0.000196165838    0.000125506889    0.038987600649    0.032919952240    -0.000224413896    0.000155146153    0.027388745658    0.025469494545
0.250     -0.028972032652    -0.059647661462    -0.000173227434    0.000159465752    -0.009476436945    -0.040366834614    -0.000181329320    0.000184150025
            -0.000173227494    0.000159465584    0.024384974845    0.034917469173    -0.000189229524    0.000232634925    0.038054889433    0.036222924350
            -0.009476431043    -0.040366841135    -0.000189229524    0.000232634925    -0.028652292001    -0.060293481889    -0.000208081979    0.000217681451
            -0.000181329399    0.000184149849    0.038054893503    0.036222924426    -0.000208081986    0.000217681458    0.024890430537    0.035414660784
0.275     -0.052284611823    -0.042734680422    -0.000156703032    0.000210345163    -0.029310967249    -0.030969818696    -0.000147979500    0.000242356663
            -0.000156703304    0.000210344761    0.025091800658    0.047522219040    -0.000161692466    0.000289069201    0.038138810137    0.042002839303
            -0.029310963905    -0.030969825991    -0.000161692461    0.000289069192    -0.052089429083    -0.043601539179    -0.000173770598    0.000280888486
            -0.000147979500    0.000242356663    0.038138813742    0.042002837381    -0.000173770598    0.000280888486    0.025723316826    0.047828816118
0.300     -0.068703598759    -0.016863576409    -0.000124424540    0.000264089036    -0.045100878782    -0.013340722580    -0.000095166530    0.000293664675
            -0.000124424536    0.000264089027    0.030349541074    0.061155980493    -0.000116092625    0.000348721488    0.040555610022    0.049633501400
            -0.045100881659    -0.013340723431    -0.000116092625    0.000348721488    -0.068726820878    -0.017912397192    -0.000119660778    0.000339020109
            -0.000095166479    0.000293664692    0.040555614752    0.049633500117    -0.000119660778    0.000339020109    0.030999442781    0.061230768252
0.325     -0.074772551784    0.014796833677    -0.000072673774    0.000314447159    -0.053524648347    0.010439644399    -0.000024753640    0.000330804503
            -0.000072673822    0.000314447117    0.040534269082    0.073850557016    -0.000046843172    0.000404115358    0.046193138629    0.057911309172
            -0.053524653113    0.010439635632    -0.000046843194    0.000404115365    -0.075091767892    0.013648287729    -0.000046373887    0.000384898473
            -0.000024753634    0.000330804503    0.046193142672    0.057911305947    -0.000046373855    0.000384898487    0.041083095738    0.073709332485
0.350     -0.068579467343    0.047799467419    -0.000001376238    0.000352782736    -0.052377165751    0.037013930360    0.000058165555    0.000347418296
            -0.000001376232    0.000352782736    0.055116036720    0.083614039575    0.000047261845    0.000444081737    0.055297310428    0.065335131988
            -0.052377168201    0.037013932091    0.000047261845    0.000444081737    -0.069236362984    0.046668348754    0.000041985987    0.000411443476
            0.000058164755    0.000347417954    0.055297314343    0.065335127365    0.000041985981    0.000411443487    0.055461780513    0.083329675009
0.375     -0.050166535766    0.077191071570    0.000084595270    0.000370446209    -0.041006871895    0.062347311378    0.000145963433    0.000339668640
            0.000084595274    0.000370446198    0.072735425409    0.088838239003    0.000161134026    0.000456773175    0.067408646855    0.070432880929
            -0.041006873543    0.062347313884    0.000161133563    0.000456773084    -0.051152099333    0.076212600847    0.000137985030    0.000413542531
            0.000145963439    0.000339668637    0.067408648623    0.070432877854    0.000137985059    0.000413542522    0.072818906953    0.088526787199
0.400     -0.021569996796    0.098376676636    0.000175591805    0.000361472646    -0.020442633587    0.082447786032    0.000230145971    0.000307346309
            0.000175591805    0.000361472646    0.091477187793    0.088634978092    0.000283863088    0.000433500237    0.081480583812    0.072075724792
            -0.020442634309    0.082447788943    0.000283863088    0.000433500237    -0.022817414121    0.097681607479    0.000231771117    0.000389487981
            0.000230145971    0.000307346309    0.081480587586    0.072075720526    0.000231771171    0.000389487949    0.091297680501    0.088431684894
0.425     0.013522713525    0.107875716777    0.000258074676    0.000323514558    0.006805290009    0.094017138394    0.000303209565    0.000253720123
            0.000258074658    0.000323514547    0.109236064482    0.082978267634    0.000401081969    0.000371445376    0.096090434954    0.069670885176
            0.006805286944    0.094017141624    0.000401081970    0.000371445390    0.012135009985    0.107565920838    0.000311874064    0.000340417156
            0.000303209569    0.000253720117    0.096090429290    0.069670875952    0.000311874058    0.000340417161    0.108854414566    0.083009713170
0.450     0.050356120786    0.103850748504    0.000316845655    0.000252860826    0.037158051110    0.094942212830    0.000359913474    0.000184609098
            0.000316844801    0.000252861158    0.124100412401    0.072684849340    0.000498282764    0.000274805671    0.109709303058    0.063250604973
            0.037158051440    0.094942223439    0.000498282789    0.000274805606    0.048993873849    0.103977237837    0.000366302551    0.000263761686
            0.000359913487    0.000184609137    0.109709305265    0.063250601143    0.000366302595    0.000263761728    0.123628712826    0.073042717025
0.475     0.083801116937    0.086339189715    0.000358528968    0.000139373664    0.066486383846    0.084552156464    0.000396936709    0.000106157316
            0.000358528961    0.000139373655    0.134648947392    0.059235676019    0.000563182462    0.000153077148    0.120938151735    0.053438408143
            0.066486339017    0.084552166271    0.000563182462    0.000153077148    0.082658161803    0.086883108418    0.000406807768    0.000146888709
            0.000396936719    0.000106157318    0.120938153600    0.053438403921    0.000406807768    0.000146888709    0.134231893714    0.059960036647
0.500     0.109038881738    0.057238795835    0.000402784006    0.000021396637    0.090653176592    0.063693849837    0.000414373821    0.000021853639
            0.000402783966    0.000021396628    0.140157250460    0.044530332501    0.000590453031    0.000017494963    0.128723791643    0.041359978199
            0.090653182551    0.063693858750    0.000590452353    0.000017495580    0.108332381908    0.058088421163    0.000456836685    0.000028270449
            0.000414373842    0.000021853631    0.128723791643    0.041359978199    0.000456836714    0.000028270460    0.139948827961    0.045601614026
0.525     0.122164716627    0.020083047665    0.000418712783    -0.000078730376    0.106107940668    0.034600393029    0.000416386071    -0.000065007324
            0.000418712784    -0.000078730369    0.140682562425    0.030591798786    0.000582066211    -0.000118046593    0.132516164659    0.028482527736
            0.106107949571    0.034600397981    0.000582065938    -0.000118046230    0.122285474420    0.020953981386    0.000483295621    -0.000075217299
            0.000416386081    -0.000065007326    0.132516165156    0.028482525423    0.000483295889    -0.000075217662    0.140830894773    0.031934866040
0.550     0.120698095097    -0.020335535417    0.000404407919    -0.000168931501    0.109711532800    0.002138363057    0.000404725299    -0.000149629430
            0.000404407916    -0.000168931509    0.137067031167    0.019280124981    0.000541837721    -0.000236367717    0.132395603684    0.016405769849
            0.109711542764    0.002138364975    0.000541837721    -0.000236367717    0.121167945185    -0.017889238530    0.000481682503    -0.000171169244
            0.000404725299    -0.000149629430    0.132395594017    0.016405766540    0.000481682503    -0.000171169244    0.137706441385    0.020749319744
0.575     0.103954310598    -0.058458435597    0.000369189675    -0.000248711908    0.100249115017    -0.031885905959    0.000378682706    -0.000231914262
            0.000369189671    -0.000248711914    0.130837651079    0.012004390195    0.000477984046    -0.000342356504    0.129072907457    0.006601974733
            0.100249124546    -0.031885908990    0.000477984054    -0.000342356510    0.104902742652    -0.056986571622    0.000456593614    -0.000271931730
            0.000378682689    -0.000231914251    0.129072897597    0.006601971744    0.000456593592    -0.000271931728    0.132024531471    0.013366741346
0.600     0.073320923795    -0.088434569394    0.000320214245    -0.000316951576    0.078446479334    -0.060500456639    0.000337487583    -0.000311443719
            0.000320214245    -0.000316951576    0.124025448755    0.009462830200    0.000401748246    -0.000426977852    0.123859403186    0.000197093218
            0.078446484349    -0.060500458324    0.000401748254    -0.000426977845    0.075067456320    -0.087781444939    0.000412213724    -0.000368717595
            0.000337487590    -0.000311443725    0.123859403191    0.000197090378    0.000412213724    -0.000368717595    0.125682659119    0.010486645348
0.625     0.033145182358    -0.105524826196    0.000263982806    -0.000375262840    0.046882277234    -0.079539963793    0.000281319392    -0.000386728599
            0.000263982788    -0.000375262829    0.118848317355    0.011443561070    0.000318554388    -0.000494852704    0.118522581415    -0.002336016735
            0.046882282177    -0.079539969005    0.000318554396    -0.000494852734    0.034843751622    -0.105894353906    0.000347058394    -0.000460664429
            0.000281319523    -0.000386727687    0.118522581382    -0.002336018390    0.000347058408    -0.000460664431    0.120811850461    0.011961333811
0.650     -0.012116224526    -0.106990670937    0.000199255463    -0.000428138560    0.009087369701    -0.085822642869    0.000205710439    -0.000456606718
            0.000199255755    -0.000428137685    0.117311501602    0.016761106165    0.000230185791    -0.000551175293    0.114945318741    -0.001388107754
            0.009087372041    -0.085822650665    0.000230185778    -0.000551175288    -0.010486061777    -0.107973055516    0.000259361181    -0.000544084549
            0.000205710439    -0.000456606740    0.114945328687    -0.001388112328    0.000259361190    -0.000544084545    0.119363022263    0.016684017899
0.675     -0.055899792424    -0.091176300958    0.000123491407    -0.000474574179    -0.029454242195    -0.077253212157    0.000108657041    -0.000513016290
            0.000123491628    -0.000474573770    0.120749641900    0.023393684771    0.000133821366    -0.000599134597    0.114671309014    0.001786860123
            -0.029454244332    -0.077253217763    0.000133821585    -0.000599134199    -0.054488439569    -0.092873148199    0.000147848703    -0.000612439685
            0.000108657034    -0.000513016302    0.114671309064    0.001786856921    0.000147848714    -0.000612439682    0.122646501778    0.022728692419
0.700     -0.091527540427    -0.059765349657    0.000033761469    -0.000511677516    -0.062849382123    -0.054475586109    -0.000007865701    -0.000547322193
            0.000033762060    -0.000511676826    0.129474565265    0.028851697846    0.000024466860    -0.000637355215    0.118519762380    0.005314158627
            -0.062849388924    -0.054475592004    0.000024466837    -0.000637355196    -0.090617827238    -0.062115155560    0.000014078216    -0.000656863412
            -0.000007865711    -0.000547322203    0.118519762389    0.005314158420    0.000014078216    -0.000656863412    0.130992374620    0.027708389113
0.725     -0.113556061709    -0.016960510801    -0.000071184504    -0.000533019206    -0.085945559122    -0.020453690047    -0.000137478470    -0.000550950719
            -0.000071184512    -0.000533019195    0.142626571138    0.030715962351    -0.000101301607    -0.000659287870    0.126340148683    0.007123797294
            -0.085945564959    -0.020453691436    -0.000101301605    -0.000659287860    -0.113392095173    -0.019761029213    -0.000135809586    -0.000668042261
            -0.000137478473    -0.000550950728    0.126340148844    0.007123794427    -0.000135809586    -0.000668042261    0.143604377140    0.029290744155
0.750     -0.118678754670    0.031227612736    -0.000188439048    -0.000530646835    -0.095240204616    0.020044514483    -0.000269401484    -0.000518359823
            -0.000188439048    -0.000530646835    0.158347615479    0.027180981538    -0.000242082551    -0.000655360988    0.137067053875    0.005441401835
            -0.095240212028    0.020044498684    -0.000242082547    -0.000655360978    -0.119407175726    0.028272456692    -0.000290921906    -0.000639297786
            -0.000269401484    -0.000518359823    0.137067053866    0.005441402075    -0.000290921906    -0.000639297786    0.158720689775    0.025722540887
0.775     -0.106246978075    0.078068235507    -0.000310542250    -0.000497994985    -0.089435065233    0.061357981375    -0.000390644739    -0.000449313297
            -0.000310542255    -0.000497994993    0.174183872002    0.017438225699    -0.000390518180    -0.000616547506    0.148973820139    -0.000838522913
            -0.089435042958    0.061357943137    -0.000390518170    -0.000616547489    -0.107888751385    0.075296489070    -0.000437556302    -0.000569109489
            -0.000390644745    -0.000449313305    0.148973810099    -0.000838529851    -0.000437556302    -0.000569109489    0.173996550628    0.016200364665
