# GHz S RI R 45
0.000     0.020937073000    0.000000000000    -0.000043827843    0.000000000000    0.000550801700    -0.000000000000    -0.000032991134    0.000000000000
            -0.000043828187    0.000000000000    0.021417920000    0.000000000000    -0.000020541877    0.000000000000    0.000351640230    0.000000000000
            0.000550720380    -0.000000000000    -0.000020541572    0.000000000000    0.020897911000    0.000000000000    -0.000016669623    0.000000000000
            -0.000032991334    0.000000000000    0.000351641920    0.000000000000    -0.000016669942    0.000000000000    0.021236003000    0.000000000000
0.025     0.027622371738    0.008749006874    -0.000037535206    -0.000044838079    0.003805207442    0.010546114348    -0.000039723696    -0.000045490526
            -0.000037535401    -0.000044838042    0.026238942049    0.009547302143    -0.000042686071    -0.000069803503    0.002259865926    0.011587035387
            0.003805111315    0.010546191556    -0.000042685789    -0.000069803562    0.027555020297    0.008699526253    -0.000040163583    -0.000061014913
            -0.000039723844    -0.000045490487    0.002259744181    0.011586868608    -0.000040163831    -0.000061014849    0.026236785604    0.009619755019
0.050     0.037023986007    0.010350648171    -0.000073076698    -0.000102746166    0.012413577767    0.017775529672    -0.000075538809    -0.000088592950
            -0.000073076865    -0.000102746096    0.031245993046    0.014030371387    -0.000093565871    -0.000122182865    0.007356334181    0.021531080011
            0.012413504738    0.017775591648    -0.000093565609    -0.000122182965    0.036953051508    0.010267969125    -0.000084960544    -0.000102205717
            -0.000075538994    -0.000088592885    0.007356364349    0.021531067591    -0.000084960791    -0.000102205615    0.031238953110    0.014009861428
0.075     0.047489114070    0.006068443057    -0.000140651489    -0.000132964123    0.024091077365    0.019432226937    -0.000133312641    -0.000109108644
            -0.000140651550    -0.000132964087    0.035925093052    0.016088382646    -0.000167680635    -0.000149101383    0.014511989349    0.028833323400
            0.024091029905    0.019432296925    -0.000167680341    -0.000149101593    0.047424332203    0.005962716456    -0.000147391008    -0.000121982501
            -0.000133312775    -0.000109108559    0.014511995784    0.028833322401    -0.000147391211    -0.000121982365    0.035822302471    0.016060271619
0.100     0.056113655449    -0.004542463689    -0.000220912270    -0.000131494879    0.035796635489    0.014560805239    -0.000200057578    -0.000103670764
            -0.000220912333    -0.000131494812    0.039345784962    0.016118085489    -0.000253844022    -0.000145154352    0.022373711300    0.033113062022
            0.035796617453    0.014560886736    -0.000253843732    -0.000145154657    0.056077810975    -0.004664850321    -0.000218784178    -0.000115945883
            -0.000200057730    -0.000103670621    0.022373713015    0.033113062070    -0.000218784312    -0.000115945758    0.039148094591    0.016166540866
0.125     0.059704552951    -0.020399424997    -0.000301896782    -0.000097657473    0.044343435401    0.003672490623    -0.000266305243    -0.000071687854
            -0.000301896818    -0.000097657426    0.040576477721    0.015069466668    -0.000341428500    -0.000108326061    0.029634684097    0.034624227614
            0.044343443972    0.003672568868    -0.000341428339    -0.000108326273    0.059729286394    -0.020558456544    -0.000290303441    -0.000082760027
            -0.000266305297    -0.000071687769    0.029634686001    0.034624228617    -0.000290303575    -0.000082759846    0.040337528893    0.015260263054
0.150     0.055964158084    -0.038895651173    -0.000373949887    -0.000033810216    0.047057134034    -0.011378738501    -0.000324304348    -0.000015386159
            -0.000373949877    -0.000033810215    0.039438741998    0.014219522793    -0.000420868883    -0.000039949246    0.035202987605    0.034127732635
            0.047057164324    -0.011378672803    -0.000420868883    -0.000039949246    0.056079197669    -0.039108772937    -0.000354216882    -0.000024046226
            -0.000324304348    -0.000015386159    0.035202979372    0.034127735381    -0.000354216892    -0.000024046227    0.039228531247    0.014580654138
0.175     0.043705521812    -0.056542077731    -0.000428939608    0.000056562520    0.042270453271    -0.027654857517    -0.000367715099    0.000062331672
            -0.000428939598    0.000056562518    0.036151406837    0.014867850852    -0.000483780480    0.000057466743    0.038486424847    0.032816368068
            0.042270506496    -0.027654801734    -0.000483780480    0.000057466743    0.043928236230    -0.056856206662    -0.000404091725    0.000057891178
            -0.000367715201    0.000062332151    0.038486426941    0.032816368693    -0.000404091725    0.000057891178    0.036056604336    0.015382862926
0.200     0.023429004990    -0.069478132534    -0.000459877879    0.000169172497    0.029726251501    -0.041661135949    -0.000391048356    0.000158092087
            -0.000459877882    0.000169173501    0.031564974866    0.018183379743    -0.000522350666    0.000180422242    0.039523506561    0.032024773987
            0.029726325947    -0.041661098799    -0.000522350660    0.000180421220    0.023752399732    -0.069955898623    -0.000433977877    0.000160314097
            -0.000391048347    0.000158092083    0.039523499977    0.032024778937    -0.000433977877    0.000160314097    0.031655693885    0.018789929355
0.225     -0.002669779573    -0.074225534564    -0.000459568595    0.000298350869    0.010726372301    -0.049977132992    -0.000388344886    0.000267602995
            -0.000459568630    0.000298350778    0.027080482940    0.024866245574    -0.000528099474    0.000323874917    0.038987597971    0.032919952310
            0.010726449447    -0.049977122571    -0.000528099547    0.000323874454    -0.002285596277    -0.074930917661    -0.000437069779    0.000279572926
            -0.000388344817    0.000267603448    0.038987600649    0.032919952240    -0.000437069695    0.000279573410    0.027388745658    0.025469494545
0.250     -0.030942430263    -0.068419947159    -0.000421232027    0.000436073773    -0.011984741472    -0.049936857875    -0.000353611057    0.000384493237
            -0.000421232027    0.000436073773    0.024384974845    0.034917469173    -0.000492476412    0.000479780776    0.038054889433    0.036222924350
            -0.011984671047    -0.049936871691    -0.000492476803    0.000479779816    -0.030570455052    -0.069401122754    -0.000405998579    0.000409536119
            -0.000353611057    0.000384493237    0.038054893503    0.036222924426    -0.000405998579    0.000409536119    0.024890430537    0.035414660784
0.275     -0.056858183956    -0.051378412095    -0.000339651323    0.000570635739    -0.034630314379    -0.040214822231    -0.000281864564    0.000498973915
            -0.000339651328    0.000570635748    0.025091800658    0.047522219040    -0.000408295539    0.000635629328    0.038138810137    0.042002839303
            -0.034630242074    -0.040214866019    -0.000408295539    0.000635629328    -0.056597168849    -0.052651073195    -0.000334095792    0.000540019577
            -0.000281864574    0.000498973933    0.038138813742    0.042002837381    -0.000334095709    0.000540019652    0.025723316826    0.047828816118
0.300     -0.075797143513    -0.024414902807    -0.000213745742    0.000687294390    -0.053065199110    -0.021208613273    -0.000171633699    0.000598163803
            -0.000213745751    0.000687294418    0.030349541074    0.061155980493    -0.000272810434    0.000774797277    0.040555610022    0.049633501400
            -0.053065138867    -0.021208685864    -0.000272810427    0.000774797258    -0.075755581603    -0.025949149658    -0.000218302800    0.000656783555
            -0.000171633002    0.000598164523    0.040555614752    0.049633500117    -0.000218302797    0.000656783546    0.030999442781    0.061230768252
0.325     -0.083928962647    0.009256161891    -0.000048636756    0.000769964207    -0.063557782357    0.004923066904    -0.000027043189    0.000667631507
            -0.000048636756    0.000769964207    0.040534269082    0.073850557016    -0.000090292750    0.000878523683    0.046193138629    0.057911309172
            -0.063557748491    0.004922986165    -0.000090293140    0.000878523412    -0.084203388045    0.007539854024    -0.000061781100    0.000743222513
            -0.000027042803    0.000667631772    0.046193142672    0.057911305947    -0.000061780337    0.000743223068    0.041083095738    0.073709332485
0.350     -0.078997866557    0.044995871723    0.000143763542    0.000804955250    -0.063536853383    0.034584312996    0.000141404035    0.000694853008
            0.000143763544    0.000804955260    0.055116036720    0.083614039575    0.000126893399    0.000930069485    0.055297310428    0.065335131988
            -0.063536850075    0.034584224947    0.000126893399    0.000930069485    -0.079649678223    0.043219880918    0.000124813993    0.000784184310
            0.000141404033    0.000694852998    0.055297314343    0.065335127365    0.000124814843    0.000784184712    0.055461780513    0.083329675009
0.375     -0.060788711142    0.077531259481    0.000346282701    0.000784089865    -0.052089487267    0.063365361227    0.000318158295    0.000672289545
            0.000346283164    0.000784089988    0.072735425409    0.088838239003    0.000359822871    0.000918567225    0.067408646855    0.070432880929
            -0.052089493510    0.063365323732    0.000359822407    0.000918567127    -0.061825571876    0.075844064657    0.000324571765    0.000769706453
            0.000318158291    0.000672289536    0.067408648623    0.070432877854    0.000324572223    0.000769706563    0.072818906953    0.088526787199
0.400     -0.031214363832    0.101862968415    0.000539983697    0.000706875588    -0.030139956187    0.086814210132    0.000485842589    0.000599568131
            0.000539984629    0.000706875657    0.091477187793    0.088634978092    0.000586762761    0.000841816189    0.081480583812    0.072075724792
            -0.030140015220    0.086814135651    0.000586762761    0.000841816189    -0.032580618398    0.100414680402    0.000517741521    0.000697822728
            0.000485842578    0.000599568139    0.081480587586    0.072075720526    0.000517741515    0.000697822720    0.091297680501    0.088431684894
0.425     0.006003609398    0.114078953878    0.000707837327    0.000580071603    -0.000271931728    0.101153704483    0.000628819319    0.000483217399
            0.000707837327    0.000580071603    0.109236064482    0.082978267634    0.000787525394    0.000706187362    0.096090434954    0.069670885176
            -0.000272003978    0.101153654289    0.000787524949    0.000706187409    0.004426960080    0.112994942665    0.000685898268    0.000574662294
            0.000628819319    0.000483217399    0.096090429290    0.069670875952    0.000685898261    0.000574662287    0.108854414566    0.083009713170
0.450     0.045921538758    0.111947288212    0.000837773580    0.000415622523    0.033689833836    0.103845140776    0.000736175156    0.000334759622
            0.000837773578    0.000415622504    0.124100412401    0.072684849340    0.000947167672    0.000524543855    0.109709303058    0.063250604973
            0.033689749534    0.103845115560    0.000947166827    0.000524544143    0.044306499012    0.111302119983    0.000815558767    0.000412587756
            0.000736175192    0.000334759638    0.109709305265    0.063250601143    0.000815558746    0.000412587799    0.123628712826    0.073042717025
0.475     0.083095034610    0.095197254136    0.000923735930    0.000227490077    0.067233746065    0.093901144308    0.000802887445    0.000167655412
            0.000923735932    0.000227490112    0.134648947392    0.059235676019    0.001057636303    0.000312645674    0.120938151735    0.053438408143
            0.067233656318    0.093901147072    0.001057636303    0.000312645674    0.081652459286    0.094993223961    0.000899933323    0.000226774804
            0.000802887455    0.000167655414    0.120938153600    0.053438403921    0.000899933718    0.000226774586    0.134231893714    0.059960036647
0.500     0.112305189007    0.065540134728    0.000965327583    0.000028695398    0.095756131391    0.072000558313    0.000829545479    -0.000005638284
            0.000965327573    0.000028695401    0.140157250460    0.044530332501    0.001117736512    0.000085558245    0.128723791643    0.041359978199
            0.095756047445    0.072000586759    0.001117735767    0.000085558814    0.111282878958    0.065680882716    0.000938997930    0.000031669330
            0.000829545479    -0.000005638276    0.128723791643    0.041359978199    0.000938997910    0.000031669342    0.139948827961    0.045601614026
0.525     0.129205805180    0.026457484251    0.000965932905    -0.000170808690    0.115222132908    0.040371977393    0.000820573593    -0.000175894899
            0.000965933170    -0.000170809032    0.140682562425    0.030591798786    0.001132011648    -0.000145712702    0.132516164659    0.028482527736
            0.115222061059    0.040372031245    0.001132011749    -0.000145712701    0.129071434154    0.026669048540    0.000938391643    -0.000162403702
            0.000820573871    -0.000175895273    0.132516165156    0.028482525423    0.000938391602    -0.000162403701    0.140830894773    0.031934866040
0.550     0.130873204962    -0.017174960978    0.000930273372    -0.000365132274    0.121860167865    0.004108293108    0.000781729711    -0.000338225968
            0.000930273356    -0.000365132287    0.137067031167    0.019280124981    0.001103747442    -0.000361784075    0.132395603684    0.016405769849
            0.121860125292    0.004108368752    0.001103746979    -0.000361783240    0.130938116013    -0.015125129166    0.000903331023    -0.000338810687
            0.000781729751    -0.000338225952    0.132395594017    0.016405766540    0.000903331029    -0.000338810672    0.137706441385    0.020749319744
0.575     0.116204869711    -0.059587958833    0.000861897667    -0.000551811876    0.114270879503    -0.034916829758    0.000717485791    -0.000491478955
            0.000861897760    -0.000551811915    0.130837651079    0.012004390195    0.001035685829    -0.000584682457    0.129072907457    0.006601974733
            0.114270862391    -0.034916783098    0.001035685829    -0.000584682457    0.116854560923    -0.058599208821    0.000837413086    -0.000517463115
            0.000717485791    -0.000491478937    0.129072897597    0.006601971744    0.000837413086    -0.000517463095    0.132024531471    0.013366741346
0.600     0.086204024617    -0.094568620794    0.000760652241    -0.000728993271    0.092690039723    -0.069106183160    0.000628559443    -0.000635708011
            0.000760652194    -0.000728993175    0.124025448755    0.009462830200    0.000934041443    -0.000797173751    0.123859403186    0.000197093218
            0.092690044264    -0.069106093418    0.000934041457    -0.000797173735    0.087814939515    -0.094408481862    0.000747656070    -0.000685633011
            0.000628559578    -0.000635708946    0.123859403191    0.000197090378    0.000747656070    -0.000685633011    0.125682659119    0.010486645348
0.625     0.045079251102    -0.116855254808    0.000627906357    -0.000894185920    0.059537016611    -0.093773291788    0.000515844987    -0.000770780202
            0.000627906357    -0.000894185920    0.118848317355    0.011443561070    0.000792354964    -0.001000874970    0.118522581415    -0.002336016735
            0.059537053641    -0.093773209052    0.000792354964    -0.001000874970    0.046739401441    -0.117837261069    0.000628511155    -0.000847076119
            0.000515844982    -0.000770780194    0.118522581382    -0.002336018390    0.000628511155    -0.000847076119    0.120811850461    0.011961333811
0.650     -0.002880995671    -0.123322092323    0.000454628260    -0.001045857982    0.018286659168    -0.105201477185    0.000370251454    -0.000896737227
            0.000454628260    -0.001045857982    0.117311501602    0.016761106165    0.000603191575    -0.001189842424    0.114945318741    -0.001388107754
            0.018286722214    -0.105201415476    0.000603191575    -0.001189842424    -0.001215918716    -0.124987105697    0.000472291671    -0.000998765355
            0.000370251439    -0.000896737234    0.114945328687    -0.001388112328    0.000472291671    -0.000998765355    0.119363022263    0.016684017899
0.675     -0.051088339438    -0.111589184118    0.000236355086    -0.001167930889    -0.025442524107    -0.100592096671    0.000186002302    -0.001000237459
            0.000236355086    -0.001167930889    0.120749641900    0.023393684771    0.000360103507    -0.001349826440    0.114671309014    0.001786860123
            -0.025442481638    -0.100592076468    0.000360103507    -0.001349826440    -0.049554503483    -0.114081064656    0.000271204238    -0.001129443131
            0.000186002320    -0.001000237456    0.114671309064    0.001786856921    0.000271204238    -0.001129443131    0.122646501778    0.022728692419
0.700     -0.092508456846    -0.082703390973    -0.000023529889    -0.001242564432    -0.065320471089    -0.079954813966    -0.000035866020    -0.001065060675
            -0.000023529868    -0.001242564433    0.129474565265    0.028851697846    0.000063661281    -0.001459584233    0.118519762380    0.005314158627
            -0.065320384938    -0.079954793959    0.000063661281    -0.001459584233    -0.091416318422    -0.086006742827    0.000023441536    -0.001220288367
            -0.000035866001    -0.001065060676    0.118519762389    0.005314158420    0.000023441557    -0.001220288366    0.130992374620    0.027708389113
0.725     -0.121095487128    -0.040369838411    -0.000312414923    -0.001251365016    -0.095503282256    -0.045784849113    -0.000285471182    -0.001073517451
            -0.000312414923    -0.001251365016    0.142626571138    0.030715962351    -0.000273889412    -0.001495725665    0.126340148683    0.007123797294
            -0.095503195161    -0.045784868858    -0.000273889412    -0.001495725665    -0.120738023260    -0.044312033811    -0.000261896348    -0.001249396549
            -0.000285471182    -0.001073517451    0.126340148844    0.007123794427    -0.000261896348    -0.001249396549    0.143604377140    0.029290744155
0.750     -0.132744067712    0.009639994585    -0.000608194122    -0.001181663524    -0.111611886769    -0.002673413355    -0.000543373775    -0.001012597925
            -0.000608194122    -0.001181663524    0.158347615479    0.027180981538    -0.000628165342    -0.001440454653    0.137067053875    0.005441401835
            -0.111611815390    -0.002673470118    -0.000628165342    -0.001440454653    -0.133327044142    0.005346996117    -0.000563775745    -0.001199216991
            -0.000543373775    -0.001012597925    0.137067053866    0.005441402075    -0.000563775745    -0.001199216991    0.158720689775    0.025722540887
0.775     -0.125940677533    0.060491406016    -0.000883504844    -0.001031454044    -0.111426649661    0.043528748860    -0.000784374016    -0.000879107733
            -0.000883504844    -0.001031454044    0.174183872002    0.017438225699    -0.000967076265    -0.001287860330    0.148973820139    -0.000838522913
            -0.111426590340    0.043528680855    -0.000967076265    -0.001287860330    -0.127544115805    0.056201175183    -0.000853132276    -0.001062995228
            -0.000784374016    -0.000879107733    0.148973810099    -0.000838529851    -0.000853132276    -0.001062995228    0.173996550628    0.016200364665
