# GHz S RI R 45
0.000     0.022736300000    0.000000000000    0.000023848236    -0.000000000000    0.000558192170    0.000000000000    -0.000003039452    0.000000000000
            0.000023848137    -0.000000000000    0.021417920000    0.000000000000    0.000002272998    0.000000000000    0.000351640230    0.000000000000
            0.000558110460    0.000000000000    0.000002272852    0.000000000000    0.022676918000    0.000000000000    0.000001363326    0.000000000000
            -0.000003039559    0.000000000000    0.000351641920    0.000000000000    0.000001363422    0.000000000000    0.021236003000    0.000000000000
0.025     0.028257696611    0.009550168762    -0.000009193186    -0.000018515382    0.002902318627    0.011767840624    0.000000929773    0.000004347793
            -0.000009193281    -0.000018515378    0.026238942049    0.009547302143    -0.000005898482    -0.000002798242    0.002259865926    0.011587035387
            0.002902111735    0.011767678446    -0.000005898627    -0.000002798235    0.028207153176    0.009602236168    -0.000002402889    -0.000000878895
            0.000000929665    0.000004347801    0.002259744181    0.011586868608    -0.000002402792    -0.000000878899    0.026236785604    0.009619755019
0.050     0.034214524299    0.013081122065    -0.000018845121    -0.000002647909    0.009011991202    0.021280862557    0.000003755021    0.000004739328
            -0.000018845221    -0.000002647899    0.031245993046    0.014030371387    -0.000007048211    0.000003179108    0.007356334181    0.021531080011
            0.009011940634    0.021280858994    -0.000007048358    0.000003179124    0.034208591644    0.013193102919    -0.000002349546    0.000002441749
            0.000003754916    0.000004739338    0.007356364349    0.021531067591    -0.000002349455    0.000002441740    0.031238953110    0.014009861428
0.075     0.039674488325    0.013361749056    -0.000016412164    0.000008151193    0.017289201749    0.027229088166    0.000006248665    0.000004802611
            -0.000016412255    0.000008151177    0.035925093052    0.016088382646    -0.000004233513    0.000007071621    0.014511989349    0.028833323400
            0.017289127689    0.027229099654    -0.000004233657    0.000007071643    0.039748160690    0.013501783801    -0.000000008716    0.000004432673
            0.000006248560    0.000004802627    0.014511995784    0.028833322401    -0.000000008624    0.000004432660    0.035822302471    0.016060271619
0.100     0.043206216465    0.010830751690    -0.000010318081    0.000014601315    0.025775191898    0.029203764271    0.000008990913    0.000004169882
            -0.000010318177    0.000014601316    0.039345784962    0.016118085489    -0.000000041725    0.000008857699    0.022373711300    0.033113062022
            0.025775112930    0.029203780617    -0.000000041868    0.000008857729    0.043373136773    0.010953491409    0.000003249483    0.000004866343
            0.000008990781    0.000004169908    0.022373713015    0.033113062070    0.000003249574    0.000004866327    0.039148094591    0.016166540866
0.125     0.043390291821    0.006788106819    -0.000002938794    0.000017441674    0.032605147016    0.027761010800    0.000011793917    0.000002570668
            -0.000002938884    0.000017441695    0.040576477721    0.015069466668    0.000004495360    0.000008692869    0.029634684097    0.034624227614
            0.032605069838    0.027761030487    0.000004495218    0.000008692906    0.043635769037    0.006847486086    0.000006656220    0.000003771592
            0.000011793825    0.000002570692    0.029634686001    0.034624228617    0.000006656314    0.000003771569    0.040337528893    0.015260263054
0.150     0.039784552334    0.003146368981    0.000004580147    0.000017213868    0.036334434835    0.024243365319    0.000014318964    -0.000000083228
            0.000004580058    0.000017213893    0.039438741998    0.014219522793    0.000008761032    0.000006768209    0.035202987605    0.034127732635
            0.036334350171    0.024243391312    0.000008760891    0.000006768252    0.040085864110    0.003100815458    0.000009667508    0.000001231213
            0.000014318872    -0.000000083199    0.035202979372    0.034127735381    0.000009667595    0.000001231187    0.039228531247    0.014580654138
0.175     0.032702338400    0.001930891258    0.000011366875    0.000014409279    0.036344208945    0.020573086966    0.000016189734    -0.000003725372
            0.000011366800    0.000014409274    0.036151406837    0.014867850852    0.000012242199    0.000003403593    0.038486424847    0.032816368068
            0.036344133890    0.020573113999    0.000012242086    0.000003403637    0.033012270139    0.001748963234    0.000011827240    -0.000002449996
            0.000016189644    -0.000003725338    0.038486426941    0.032816368693    0.000011827338    -0.000002450030    0.036056604336    0.015382862926
0.200     0.023457704569    0.004963000964    0.000016794800    0.000009500673    0.033023679008    0.018793873940    0.000017060817    -0.000008155004
            0.000016794719    0.000009500751    0.031564974866    0.018183379743    0.000014567358    -0.000001100592    0.039523506561    0.032024773987
            0.033023605588    0.018793903883    0.000014567271    -0.000001100554    0.023713049334    0.004636242376    0.000012786933    -0.000006959622
            0.000017060731    -0.000008154964    0.039523499977    0.032024778937    0.000012787028    -0.000006959661    0.031655693885    0.018789929355
0.225     0.014239077839    0.013332266033    0.000020379607    0.000003133711    0.027749625365    0.020568769391    0.000016652419    -0.000013027959
            0.000020379510    0.000003133749    0.027080482940    0.024866245574    0.000015462007    -0.000006287569    0.038987597971    0.032919952310
            0.027749553194    0.020568802944    0.000015461872    -0.000006287509    0.014372645030    0.012882510346    0.000012354512    -0.000011830925
            0.000016652332    -0.000013027915    0.038987600649    0.032919952240    0.000012354607    -0.000011830968    0.027388745658    0.025469494545
0.250     0.007686167687    0.027006715282    0.000021813145    -0.000004052864    0.022621738208    0.026725468600    0.000014817956    -0.000017901949
            0.000021813055    -0.000004052813    0.024384974845    0.034917469173    0.000014757300    -0.000011704535    0.038054889433    0.036222924350
            0.022621659697    0.026725510163    0.000014757120    -0.000011704442    0.007641683054    0.026487333742    0.000010444566    -0.000016602294
            0.000014817873    -0.000017901903    0.038054893503    0.036222924426    0.000010444658    -0.000016602342    0.024890430537    0.035414660784
0.275     0.006297786195    0.044648646457    0.000021057800    -0.000011262110    0.019975514850    0.036956041489    0.000011600945    -0.000022257994
            0.000021057713    -0.000011262055    0.025091800658    0.047522219040    0.000012492189    -0.000016782916    0.038138810137    0.042002839303
            0.019975447092    0.036956082661    0.000012492063    -0.000016782839    0.006044881954    0.044138540180    0.000007201728    -0.000020763739
            0.000011600865    -0.000022257944    0.038138813742    0.042002837381    0.000007201818    -0.000020763793    0.025723316826    0.047828816118
0.300     0.011776418885    0.063795996178    0.000018302446    -0.000017824588    0.021783240783    0.049815150929    0.000007265561    -0.000025637742
            0.000018302364    -0.000017824531    0.030349541074    0.061155980493    0.000008876189    -0.000021041403    0.040555610022    0.049633501400
            0.021783175499    0.049815195848    0.000008876112    -0.000021041350    0.011322975153    0.063386315460    0.000002914692    -0.000023911128
            0.000007265486    -0.000025637689    0.040555614752    0.049633500117    0.000002914699    -0.000023911133    0.030999442781    0.061230768252
0.325     0.024535453110    0.081347228175    0.000014052325    -0.000023164881    0.029117851827    0.063028461925    0.000002276714    -0.000027725993
            0.000014052246    -0.000023164822    0.040534269082    0.073850557016    0.000004359288    -0.000024101055    0.046193138629    0.057911309172
            0.029117789654    0.063028509375    0.000004359137    -0.000024100941    0.023930575288    0.081121915306    -0.000001930049    -0.000025794063
            0.000002276643    -0.000027725930    0.046193142672    0.057911305947    -0.000001929962    -0.000025794129    0.041083095738    0.073709332485
0.350     0.043524560146    0.094274543462    0.000008883354    -0.000027038090    0.041869800924    0.074050189951    -0.000002833983    -0.000028474337
            0.000008883278    -0.000027038029    0.055116036720    0.083614039575    -0.000000560627    -0.000025844691    0.055297310428    0.065335131988
            0.041869740609    0.074050240137    -0.000000560779    -0.000025844564    0.042853478351    0.094291866455    -0.000006846416    -0.000026411334
            -0.000002834123    -0.000028474229    0.055297314343    0.065335127365    -0.000006846412    -0.000026411338    0.055461780513    0.083329675009
0.375     0.066439801426    0.100293834926    0.000003430239    -0.000029459061    0.058782672220    0.080649447972    -0.000007580327    -0.000028077767
            0.000003430163    -0.000029459002    0.072735425409    0.088838239003    -0.000005374142    -0.000026383380    0.067408646855    0.070432880929
            0.058782600463    0.080649515123    -0.000005374211    -0.000026383319    0.065809964444    0.100570952140    -0.000011391479    -0.000025982480
            -0.000007580428    -0.000028077675    0.067408648623    0.070432877854    -0.000011391439    -0.000025982513    0.072818906953    0.088526787199
0.400     0.090228724430    0.098338583524    -0.000001895932    -0.000030696535    0.077771027992    0.081377798355    -0.000011682079    -0.000026913970
            -0.000001896002    -0.000030696468    0.091477187793    0.088634978092    -0.000009770619    -0.000026018466    0.081480583812    0.072075724792
            0.077770958397    0.081377864866    -0.000009770684    -0.000026018403    0.089749835570    0.098845467775    -0.000015346358    -0.000024868584
            -0.000011682143    -0.000026913912    0.081480587586    0.072075720526    -0.000015346284    -0.000024868658    0.091297680501    0.088431684894
0.425     0.111701007854    0.088702834836    -0.000006841388    -0.000031115796    0.096355735515    0.075788262409    -0.000015069060    -0.000025405797
            -0.000006841420    -0.000031115760    0.109236064482    0.082978267634    -0.000013600890    -0.000025118105    0.096090434954    0.069670885176
            0.096355668131    0.075788331904    -0.000013601020    -0.000025117958    0.111465403763    0.089363610296    -0.000018670722    -0.000023456966
            -0.000015069122    -0.000025405730    0.096090429290    0.069670875952    -0.000018670687    -0.000023457006    0.108854414566    0.083009713170
0.450     0.128091770180    0.072923706560    -0.000011426239    -0.000031067019    0.112103205065    0.064459811956    -0.000017896399    -0.000023904191
            -0.000011426308    -0.000031066940    0.124100412401    0.072684849340    -0.000016941372    -0.000024010881    0.109709303058    0.063250604973
            0.112103149145    0.064459889148    -0.000016941492    -0.000024010740    0.128155929936    0.073625841948    -0.000021532781    -0.000022046507
            -0.000017896461    -0.000023904127    0.109709305265    0.063250601143    -0.000021532716    -0.000022046588    0.123628712826    0.073042717025
0.475     0.137464987192    0.053472669631    -0.000015775470    -0.000030804673    0.122975611895    0.048868251816    -0.000020428113    -0.000022620405
            -0.000015775527    -0.000030804573    0.134648947392    0.059235676019    -0.000019965917    -0.000022927752    0.120938151735    0.053438408143
            0.122975576251    0.048868287357    -0.000019966002    -0.000022927640    0.137836846199    0.054084256861    -0.000024175397    -0.000020808486
            -0.000020428171    -0.000022620334    0.120938153600    0.053438403921    -0.000024175342    -0.000020808563    0.134231893714    0.059960036647
0.500     0.138972658896    0.033386977213    -0.000020142158    -0.000030431609    0.127618152563    0.031201460669    -0.000022991302    -0.000021591893
            -0.000020142159    -0.000030431609    0.140157250460    0.044530332501    -0.000022943683    -0.000021956601    0.128723791643    0.041359978199
            0.127618102728    0.031201538184    -0.000022943764    -0.000021956487    0.139603654051    0.033774565587    -0.000026894697    -0.000019752867
            -0.000022991364    -0.000021591808    0.128723791643    0.041359978199    -0.000026894646    -0.000019752945    0.139948827961    0.045601614026
0.525     0.132980649007    0.015858187118    -0.000024756759    -0.000029916541    0.125585094851    0.014102948154    -0.000025873085    -0.000020708099
            -0.000024756818    -0.000029916454    0.140682562425    0.030591798786    -0.000026129840    -0.000021059565    0.132516164659    0.028482527736
            0.125585045329    0.014103030708    -0.000026129914    -0.000021059444    0.133765669243    0.015911533347    -0.000029938139    -0.000018768038
            -0.000025873149    -0.000020708009    0.132516165156    0.028482525423    -0.000029938092    -0.000018768117    0.140830894773    0.031934866040
0.550     0.121109590699    0.003805688760    -0.000029845441    -0.000029070984    0.117538108293    0.000343423292    -0.000029299208    -0.000019717971
            -0.000029845498    -0.000029070918    0.137067031167    0.019280124981    -0.000029766544    -0.000020053201    0.132395603684    0.016405769849
            0.117538058045    0.000343508157    -0.000029766615    -0.000020053074    0.121894394171    0.003461031584    -0.000033503886    -0.000017615333
            -0.000029299260    -0.000019717879    0.132395594017    0.016405766540    -0.000033503836    -0.000017615419    0.137706441385    0.020749319744
0.575     0.106140662852    -0.000610747811    -0.000035514784    -0.000027599414    0.105332653425    -0.007647148228    -0.000033369087    -0.000018279580
            -0.000035514822    -0.000027599334    0.130837651079    0.012004390195    -0.000033994516    -0.000018643315    0.129072907457    0.006601974733
            0.105332609616    -0.007647061145    -0.000033994580    -0.000018643188    0.106742140730    -0.001349421304    -0.000037675166    -0.000015979232
            -0.000033369137    -0.000018279486    0.129072897597    0.006601971744    -0.000037675125    -0.000015979315    0.132024531471    0.013366741346
0.600     0.091730410185    0.003493866516    -0.000041746686    -0.000025088363    0.091909811993    -0.008347004137    -0.000038037186    -0.000015969421
            -0.000041746725    -0.000025088267    0.124025448755    0.009462830200    -0.000038827496    -0.000016416472    0.123859403186    0.000197093218
            0.091909773873    -0.008346915278    -0.000038827554    -0.000016416345    0.091968481812    0.002447426857    -0.000042409128    -0.000013458630
            -0.000038037230    -0.000015969322    0.123859403191    0.000197090378    -0.000042409091    -0.000013458716    0.125682659119    0.010486645348
0.625     0.081818548728    0.015290812722    -0.000048280973    -0.000021110349    0.080833129607    -0.001711330652    -0.000043036821    -0.000012363512
            -0.000048281003    -0.000021110262    0.118848317355    0.011443561070    -0.000044047255    -0.000012929118    0.118522581415    -0.002336016735
            0.080833095532    -0.001711239316    -0.000044047302    -0.000012928991    0.081557159359    0.014102812133    -0.000047451272    -0.000009646490
            -0.000043036860    -0.000012363410    0.118522581382    -0.002336018390    -0.000047451237    -0.000009646586    0.120811850461    0.011961333811
0.650     0.079761192763    0.032109588466    -0.000054618495    -0.000015306516    0.075490822598    0.010537550343    -0.000047868955    -0.000007128381
            -0.000054618531    -0.000015306434    0.117311501602    0.016761106165    -0.000049185627    -0.000007800402    0.114945318741    -0.001388107754
            0.075490822525    0.010537550870    -0.000049185684    -0.000007800226    0.078947548166    0.031003851880    -0.000052321313    -0.000004211088
            -0.000047868984    -0.000007128292    0.114945328687    -0.001388112328    -0.000052321283    -0.000004211187    0.119363022263    0.016684017899
0.675     0.087377830933    0.049835544122    -0.000060028173    -0.000007591199    0.078127256141    0.025123471927    -0.000051832686    -0.000000194202
            -0.000060028193    -0.000007591095    0.120749641900    0.023393684771    -0.000053538478    -0.000000907757    0.114671309014    0.001786860123
            0.078127244527    0.025123517844    -0.000053538521    -0.000000907618    0.086066516755    0.049049563702    -0.000056332123    0.000002925308
            -0.000051832708    -0.000000194112    0.114671309064    0.001786856921    -0.000056332095    0.000002925208    0.122646501778    0.022728692419
0.700     0.104332508283    0.063857927220    -0.000063738934    0.000001764013    0.089139939824    0.038016706429    -0.000054193964    0.000008154633
            -0.000063738939    0.000001764124    0.129474565265    0.028851697846    -0.000056343956    0.000007511293    0.118519762380    0.005314158627
            0.089139920808    0.038016799451    -0.000056344001    0.000007511489    0.102683409212    0.063589457405    -0.000058756386    0.000011496440
            -0.000054194004    0.000008154813    0.118519762389    0.005314158420    -0.000058756366    0.000011496340    0.130992374620    0.027708389113
0.725     0.128150855630    0.070254029184    -0.000065147855    0.000012083968    0.106952987887    0.045513312116    -0.000054398942    0.000017255870
            -0.000065147867    0.000012084064    0.142626571138    0.030715962351    -0.000056998599    0.000016818675    0.126340148683    0.007123797294
            0.106952978951    0.045513409731    -0.000056998630    0.000016818879    0.126399641593    0.070613996321    -0.000059033159    0.000020857685
            -0.000054398959    0.000017255959    0.126340148844    0.007123794427    -0.000059033145    0.000020857587    0.143604377140    0.029290744155
0.750     0.154917419750    0.066728495144    -0.000064036397    0.000022488597    0.128553643072    0.045150779420    -0.000052269613    0.000026248106
            -0.000064036404    0.000022488600    0.158347615479    0.027180981538    -0.000055271453    0.000026156361    0.137067053875    0.005441401835
            0.128553643072    0.045150779420    -0.000055271479    0.000026156539    0.153326499501    0.067717715321    -0.000056968716    0.000030162708
            -0.000052269627    0.000026248193    0.137067053866    0.005441402075    -0.000056968704    0.000030162612    0.158720689775    0.025722540887
0.775     0.180283402232    0.052974738832    -0.000060612090    0.000032091569    0.150338947683    0.036101677282    -0.000048051121    0.000034283402
            -0.000060612099    0.000032091655    0.174183872002    0.017438225699    -0.000051355074    0.000034654016    0.148973820139    -0.000838522913
            0.150338946695    0.036101724223    -0.000051355086    0.000034654103    0.179091968810    0.054485616730    -0.000052782862    0.000038567095
            -0.000048051135    0.000034283539    0.148973810099    -0.000838529851    -0.000052782862    0.000038567039    0.173996550628    0.016200364665
