# GHz S RI R 45
0.000     0.021815287000    0.000000000000    -0.000014956364    0.000000000000    0.000543619620    0.000000000000    -0.000003461089    0.000000000000
            -0.000014956385    0.000000000000    0.021417920000    0.000000000000    -0.000001505014    0.000000000000    0.000351640230    0.000000000000
            0.000543619570    0.000000000000    -0.000001504979    0.000000000000    0.021808222000    0.000000000000    -0.000007575951    0.000000000000
            -0.000003461074    0.000000000000    0.000351641920    0.000000000000    -0.000007575981    0.000000000000    0.021236003000    0.000000000000
0.025     0.026955417013    0.009129104634    -0.000019149295    -0.000010765107    0.002517075188    0.011032647540    -0.000015898399    -0.000017346198
            -0.000019149295    -0.000010765102    0.026238942049    0.009547302143    -0.000016220978    -0.000017690372    0.002259865926    0.011587035387
            0.002516951476    0.011032480882    -0.000016220982    -0.000017690370    0.026879745924    0.009163748206    -0.000012664641    -0.000013603235
            -0.000015898402    -0.000017346196    0.002259744181    0.011586868608    -0.000012664642    -0.000013603236    0.026236785604    0.009619755019
0.050     0.032207071607    0.012851257841    -0.000022958462    -0.000017922035    0.007718966431    0.020289665792    -0.000022836220    -0.000022505653
            -0.000022958462    -0.000017922034    0.031245993046    0.014030371387    -0.000023768631    -0.000020711997    0.007356334181    0.021531080011
            0.007718996531    0.020289654341    -0.000023768630    -0.000020711996    0.032117014797    0.012944759392    -0.000017190490    -0.000022636721
            -0.000022836225    -0.000022505650    0.007356364349    0.021531067591    -0.000017190490    -0.000022636722    0.031238953110    0.014009861428
0.075     0.037036081157    0.013894774827    -0.000027247592    -0.000024421122    0.014935370447    0.026704910436    -0.000027228357    -0.000028087850
            -0.000027247592    -0.000024421122    0.035925093052    0.016088382646    -0.000027748131    -0.000024539494    0.014511989349    0.028833323400
            0.014935376084    0.026704909575    -0.000027748083    -0.000024539503    0.036945043456    0.014068082383    -0.000022101221    -0.000031020199
            -0.000027228357    -0.000028087850    0.014511995784    0.028833322401    -0.000022101221    -0.000031020199    0.035822302471    0.016060271619
0.100     0.040365420128    0.012636420918    -0.000032169003    -0.000030300513    0.022669113171    0.029887666865    -0.000031559964    -0.000033968664
            -0.000032169001    -0.000030300512    0.039345784962    0.016118085489    -0.000031352212    -0.000028952161    0.022373711300    0.033113062022
            0.022669113171    0.029887666865    -0.000031352214    -0.000028952162    0.040300483162    0.012905233126    -0.000027684828    -0.000038803600
            -0.000031560065    -0.000033968643    0.022373713015    0.033113062070    -0.000027684926    -0.000038803580    0.039148094591    0.016166540866
0.125     0.041082197884    0.010099474171    -0.000037741680    -0.000035552133    0.029478379780    0.030155695822    -0.000036358287    -0.000040041448
            -0.000037741679    -0.000035552132    0.040576477721    0.015069466668    -0.000035224666    -0.000033777836    0.029634684097    0.034624227614
            0.029478379780    0.030155695822    -0.000035224672    -0.000033777830    0.041078745299    0.010468821334    -0.000034010145    -0.000046092517
            -0.000036358288    -0.000040041450    0.029634686001    0.034624228617    -0.000034010146    -0.000046092518    0.040337528893    0.015260263054
0.150     0.038874535950    0.007759695361    -0.000043894753    -0.000040409313    0.034170938995    0.028403203120    -0.000041850696    -0.000046385767
            -0.000043894751    -0.000040409311    0.039438741998    0.014219522793    -0.000039648907    -0.000039028205    0.035202987605    0.034127732635
            0.034170938995    0.028403203120    -0.000039648899    -0.000039028211    0.038983171006    0.008212737468    -0.000041126442    -0.000053151094
            -0.000041850696    -0.000046385767    0.035202979372    0.034127735381    -0.000041126443    -0.000053151096    0.039228531247    0.014580654138
0.175     0.033931832645    0.007159940317    -0.000050872557    -0.000044964108    0.036122543766    0.026002235298    -0.000048554075    -0.000053014404
            -0.000050872597    -0.000044964097    0.036151406837    0.014867850852    -0.000045144905    -0.000044695431    0.038486424847    0.032816368068
            0.036122543766    0.026002235298    -0.000045144857    -0.000044695447    0.034193465603    0.007651581552    -0.000049422320    -0.000060095660
            -0.000048554077    -0.000053014406    0.038486426941    0.032816368693    -0.000049422321    -0.000060095660    0.036056604336    0.015382862926
0.200     0.027189471722    0.009726134944    -0.000058990851    -0.000049226105    0.035423660345    0.024480683413    -0.000056952160    -0.000059767277
            -0.000058990850    -0.000049226104    0.031564974866    0.018183379743    -0.000052182516    -0.000050613836    0.039523506561    0.032024773987
            0.035423660345    0.024480683413    -0.000052182505    -0.000050613843    0.027621158082    0.010190476670    -0.000059380425    -0.000066849510
            -0.000056952161    -0.000059767279    0.039523499977    0.032024778937    -0.000059380519    -0.000066849474    0.031655693885    0.018789929355
0.225     0.020256857730    0.016371353692    -0.000068656305    -0.000052853691    0.032891412252    0.025171522767    -0.000067634813    -0.000066104636
            -0.000068656305    -0.000052853691    0.027080482940    0.024866245574    -0.000061342282    -0.000056263717    0.038987597971    0.032919952310
            0.032891412252    0.025171522767    -0.000061342282    -0.000056263717    0.020843327998    0.016734910771    -0.000071544436    -0.000072914798
            -0.000067634817    -0.000066104639    0.038987600649    0.032919952240    -0.000071544436    -0.000072914798    0.027388745658    0.025469494545
0.250     0.015122563840    0.027206043598    -0.000080107529    -0.000055257242    0.029919236447    0.028889664654    -0.000080884892    -0.000071186152
            -0.000080107530    -0.000055257242    0.024384974845    0.034917469173    -0.000072897484    -0.000060843855    0.038054889433    0.036222924350
            0.029919236447    0.028889664654    -0.000072897470    -0.000060843865    0.015812963295    0.027404495621    -0.000086212904    -0.000077455158
            -0.000080884900    -0.000071186159    0.038054893503    0.036222924426    -0.000086212904    -0.000077455158    0.024890430537    0.035414660784
0.275     0.013742768781    0.041378288428    -0.000093260534    -0.000055563841    0.028173785960    0.035691751136    -0.000096625348    -0.000073871461
            -0.000093260534    -0.000055563841    0.025091800658    0.047522219040    -0.000086787715    -0.000063263515    0.038138810137    0.042002839303
            0.028173785960    0.035691751136    -0.000086787677    -0.000063263533    0.014457436823    0.041373792774    -0.000103247594    -0.000079329303
            -0.000096625397    -0.000073871446    0.038138813742    0.042002837381    -0.000103247594    -0.000079329303    0.025723316826    0.047828816118
0.300     0.017572257627    0.057169231224    -0.000107533628    -0.000052933388    0.029201901642    0.044820849445    -0.000114135650    -0.000073080648
            -0.000107533628    -0.000052933388    0.030349541074    0.061155980493    -0.000102325015    -0.000062499395    0.040555610022    0.049633501400
            0.029201901642    0.044820849445    -0.000102325015    -0.000062499395    0.018216920106    0.056962991889    -0.000121883646    -0.000077447416
            -0.000114135650    -0.000073080648    0.040555614752    0.049633500117    -0.000121883654    -0.000077447421    0.030999442781    0.061230768252
0.325     0.027184220979    0.072287619884    -0.000121862613    -0.000046783506    0.034043729170    0.054846058841    -0.000132162285    -0.000068044849
            -0.000121862685    -0.000046783461    0.040534269082    0.073850557016    -0.000118323649    -0.000057827019    0.046193138629    0.057911309172
            0.034043729170    0.054846058841    -0.000118323649    -0.000057827019    0.027669548656    0.071924734242    -0.000140766192    -0.000071078061
            -0.000132162365    -0.000068044803    0.046193142672    0.057911305947    -0.000140766235    -0.000071078020    0.041083095738    0.073709332485
0.350     0.042081186961    0.084354867036    -0.000134921234    -0.000037136165    0.042977347769    0.063991684240    -0.000149112488    -0.000058712110
            -0.000134921302    -0.000037136107    0.055116036720    0.083614039575    -0.000133274418    -0.000049216292    0.055297310428    0.065335131988
            0.042977347769    0.063991684240    -0.000133274418    -0.000049216292    0.042343460265    0.083919311474    -0.000158231876    -0.000060231258
            -0.000149112565    -0.000058712050    0.055297314343    0.065335127365    -0.000158231876    -0.000060231258    0.055461780513    0.083329675009
0.375     0.060764268207    0.091395702759    -0.000145467117    -0.000024654744    0.055451994153    0.070526400183    -0.000163493808    -0.000045766676
            -0.000145467155    -0.000024654698    0.072735425409    0.088838239003    -0.000145783831    -0.000037335365    0.067408646855    0.070432880929
            0.055451994153    0.070526400183    -0.000145783831    -0.000037335365    0.060780665021    0.090995292349    -0.000172724144    -0.000045712065
            -0.000163493808    -0.000045766676    0.067408648623    0.070432877854    -0.000172724151    -0.000045712035    0.072818906953    0.088526787199
0.400     0.081030561774    0.092248039921    -0.000152721229    -0.000010554309    0.070227290200    0.073129833966    -0.000174316465    -0.000030559361
            -0.000152721304    -0.000010554234    0.091477187793    0.088634978092    -0.000154945636    -0.000023480517    0.081480583812    0.072075724792
            0.070227288924    0.073129835192    -0.000154945574    -0.000023480591    0.080827514671    0.091995081724    -0.000183247195    -0.000028995015
            -0.000174316465    -0.000030559361    0.081480587586    0.072075720526    -0.000183247195    -0.000028995015    0.091297680501    0.088431684894
0.425     0.100398764108    0.086755900481    -0.000156549690    0.000003757180    0.085630204738    0.071117353696    -0.000181327214    -0.000014679260
            -0.000156549720    0.000003757208    0.109236064482    0.082978267634    -0.000160563593    -0.000009153926    0.096090434954    0.069670885176
            0.085630204738    0.071117353696    -0.000160563593    -0.000009153926    0.100049810315    0.086745577618    -0.000189588104    -0.000011811008
            -0.000181327214    -0.000014679260    0.096090429290    0.069670875952    -0.000189588168    -0.000011810945    0.108854414566    0.083009713170
0.450     0.116554633234    0.075768870276    -0.000157482545    0.000017001212    0.099865426621    0.064535950745    -0.000185033798    0.000000385468
            -0.000157482545    0.000017001212    0.124100412401    0.072684849340    -0.000163158160    0.000004255634    0.109709303058    0.063250604973
            0.099865426621    0.064535950745    -0.000163158150    0.000004255634    0.116169696278    0.076060804895    -0.000192348121    0.000004247365
            -0.000185033858    0.000000385532    0.109709305265    0.063250601143    -0.000192348121    0.000004247365    0.123628712826    0.073042717025
0.475     0.127712107226    0.060960300013    -0.000156506157    0.000028327017    0.111291860970    0.054124246714    -0.000186492069    0.000013613967
            -0.000156506157    0.000028327017    0.134648947392    0.059235676019    -0.000163760549    0.000015820042    0.120938151735    0.053438408143
            0.111291860970    0.054124246714    -0.000163760549    0.000015820042    0.127421803552    0.061566500083    -0.000192711683    0.000018083024
            -0.000186492352    0.000013614348    0.120938153600    0.053438403921    -0.000192711683    0.000018083024    0.134231893714    0.059960036647
0.500     0.132871652394    0.044559340190    -0.000154846990    0.000037408938    0.118662742384    0.041209513612    -0.000187067045    0.000024567561
            -0.000154846990    0.000037408938    0.140157250460    0.044530332501    -0.000163667907    0.000025168969    0.128723791643    0.041359978199
            0.118662742384    0.041209513612    -0.000163667907    0.000025168969    0.132805903615    0.045437864655    -0.000192186558    0.000029241759
            -0.000187067045    0.000024567561    0.128723791643    0.041359978199    -0.000192186558    0.000029241759    0.139948827961    0.045601614026
0.525     0.131953730582    0.029023165181    -0.000153692012    0.000044470871    0.121308649493    0.027533998770    -0.000188115818    0.000033445732
            -0.000153692012    0.000044470871    0.140682562425    0.030591798786    -0.000164156581    0.000032535351    0.132516164659    0.028482527736
            0.121308649493    0.027533998770    -0.000164156591    0.000032535353    0.132221711235    0.030080447439    -0.000192280661    0.000037953686
            -0.000188115818    0.000033445732    0.132516165156    0.028482525423    -0.000192280918    0.000037954086    0.140830894773    0.031934866040
0.550     0.125843931960    0.016699962874    -0.000154050057    0.000050196053    0.119289763860    0.015040688213    -0.000190815501    0.000040999096
            -0.000154050057    0.000050196053    0.137067031167    0.019280124981    -0.000166309769    0.000038657957    0.132395603684    0.016405769849
            0.119289763860    0.015040688213    -0.000166309769    0.000038657957    0.126511633806    0.017800258332    -0.000194291548    0.000045060877
            -0.000190815501    0.000040999096    0.132395594017    0.016405766540    -0.000194291548    0.000045060877    0.137706441385    0.020749319744
0.575     0.116321789374    0.009470135744    -0.000156581077    0.000055644565    0.113471825956    0.005577924386    -0.000195949237    0.000048438640
            -0.000156581077    0.000055644565    0.130837651079    0.012004390195    -0.000170835102    0.000044699124    0.129072907457    0.006601974733
            0.113471825965    0.005577924187    -0.000170835102    0.000044699124    0.117396483981    0.010453410840    -0.000199092120    0.000051901767
            -0.000195949237    0.000048438640    0.129072897597    0.006601971744    -0.000199092120    0.000051901767    0.132024531471    0.013366741346
0.600     0.105877800776    0.008395795980    -0.000161524858    0.000062155882    0.105504098955    0.000555242802    -0.000203810609    0.000057330302
            -0.000161524858    0.000062155882    0.124025448755    0.009462830200    -0.000177968847    0.000052135245    0.123859403186    0.000197093218
            0.105504098955    0.000555242802    -0.000177968847    0.000052135245    0.107298641261    0.009103366620    -0.000207007058    0.000060204860
            -0.000203810609    0.000057330302    0.123859403191    0.000197090378    -0.000207007068    0.000060204862    0.125682659119    0.010486645348
0.625     0.097355522675    0.013416916416    -0.000168503625    0.000071226238    0.097605623769    0.000570666564    -0.000213950203    0.000069439525
            -0.000168503804    0.000071226660    0.118848317355    0.011443561070    -0.000187254030    0.000062607809    0.118522581415    -0.002336016735
            0.097605623769    0.000570666547    -0.000187254009    0.000062607839    0.098996680031    0.013721223904    -0.000217548983    0.000071909497
            -0.000213950203    0.000069439525    0.118522581382    -0.002336018390    -0.000217549337    0.000071910372    0.120811850461    0.011961333811
0.650     0.093441084075    0.023201361243    -0.000176414729    0.000084256843    0.092165311718    0.005150805489    -0.000225049675    0.000086410650
            -0.000176414726    0.000084256804    0.117311501602    0.016761106165    -0.000197434129    0.000077633518    0.114945318741    -0.001388107754
            0.092165312708    0.005150805706    -0.000197434129    0.000077633518    0.095128601579    0.023036009257    -0.000229278141    0.000088805703
            -0.000225049669    0.000086410693    0.114945328687    -0.001388112328    -0.000229278141    0.000088805703    0.119363022263    0.016684017899
0.675     0.096048856214    0.035262603306    -0.000183365769    0.000102129924    0.091175116458    0.012712447694    -0.000234864979    0.000109261239
            -0.000183365769    0.000102129924    0.120749641900    0.023393684771    -0.000206396680    0.000098138761    0.114671309014    0.001786860123
            0.091175117692    0.012712446081    -0.000206396680    0.000098138761    0.097591390361    0.034641759190    -0.000239774276    0.000111992354
            -0.000234864988    0.000109261243    0.114671309064    0.001786856921    -0.000239774294    0.000111992363    0.122646501778    0.022728692419
0.700     0.105807546626    0.046410040765    -0.000186987377    0.000124752659    0.095705492008    0.020860603277    -0.000240615720    0.000137865785
            -0.000186987377    0.000124752659    0.129474565265    0.028851697846    -0.000211531229    0.000123972414    0.118519762380    0.005314158627
            0.095705492008    0.020860603277    -0.000211531229    0.000123972414    0.107034353357    0.045430468482    -0.000246045801    0.000141327454
            -0.000240615720    0.000137865785    0.118519762389    0.005314158420    -0.000246045801    0.000141327454    0.130992374620    0.027708389113
0.725     0.121823577920    0.053447575198    -0.000184986395    0.000150756690    0.105587212027    0.026944708533    -0.000239618243    0.000170624726
            -0.000184986403    0.000150756697    0.142626571138    0.030715962351    -0.000210333090    0.000153594403    0.126340148683    0.007123797294
            0.105587212027    0.026944708533    -0.000210333090    0.000153594403    0.122620964558    0.052271444359    -0.000245230042    0.000175100541
            -0.000239618230    0.000170624780    0.126340148844    0.007123794427    -0.000245230042    0.000175100541    0.143604377140    0.029290744155
0.750     0.141868463893    0.053903946723    -0.000175927018    0.000177676295    0.119476639130    0.028701357028    -0.000230179683    0.000204681706
            -0.000175927018    0.000177676295    0.158347615479    0.027180981538    -0.000201245799    0.000184285647    0.137067053875    0.005441401835
            0.119476639130    0.028701357028    -0.000201245799    0.000184285647    0.142202561661    0.052726769219    -0.000235525645    0.000210261208
            -0.000230179683    0.000204681706    0.137067053866    0.005441402075    -0.000235525645    0.000210261208    0.158720689775    0.025722540887
0.775     0.162895003325    0.046545904188    -0.000159718946    0.000202524568    0.135216568227    0.024728644184    -0.000212136837    0.000236581427
            -0.000159718929    0.000202524620    0.174183872002    0.017438225699    -0.000184174407    0.000212771056    0.148973820139    -0.000838522913
            0.135216568227    0.024728644184    -0.000184174400    0.000212771049    0.162816382790    0.045557550366    -0.000216764704    0.000243132586
            -0.000212136851    0.000236581442    0.148973810099    -0.000838529851    -0.000216764711    0.000243132593    0.173996550628    0.016200364665
