# GHz S RI R 45
0.000     0.022083216000    0.000000000000    0.000080430485    -0.000000000000    0.000509792300    0.000000000000    0.000059539583    -0.000000000000
            0.000080430487    -0.000000000000    0.021417920000    0.000000000000    0.000049988039    -0.000000000000    0.000351640230    0.000000000000
            0.000509793600    0.000000000000    0.000049988029    -0.000000000000    0.022057022000    0.000000000000    0.000060133380    -0.000000000000
            0.000059539629    -0.000000000000    0.000351641920    0.000000000000    0.000060133306    -0.000000000000    0.021236003000    0.000000000000
0.025     0.027652825361    0.010039395167    0.000098341190    0.000036115451    0.002769874495    0.012176485543    0.000097162277    0.000047668972
            0.000098341191    0.000036115449    0.026238942049    0.009547302143    0.000100748706    0.000057402156    0.002259865926    0.011587035387
            0.002769752232    0.012176318501    0.000100748789    0.000057402131    0.027564314255    0.009981937393    0.000092391742    0.000044688393
            0.000097162319    0.000047668953    0.002259744181    0.011586868608    0.000092391651    0.000044688397    0.026236785604    0.009619755019
0.050     0.033403176182    0.014318878321    0.000115464898    0.000056348562    0.008615851263    0.022279031733    0.000120730999    0.000059012319
            0.000115464898    0.000056348562    0.031245993046    0.014030371387    0.000129862179    0.000064781157    0.007356334181    0.021531080011
            0.008615881981    0.022279019853    0.000129862222    0.000064781161    0.033231580066    0.014245037658    0.000113771497    0.000058636348
            0.000120731043    0.000059012319    0.007356364349    0.021531067591    0.000113771499    0.000058636344    0.031238953110    0.014009861428
0.075     0.038754547938    0.015621693565    0.000134871835    0.000072759360    0.016638408821    0.029149595821    0.000139023736    0.000069354234
            0.000134871837    0.000072759358    0.035925093052    0.016088382646    0.000149515110    0.000072346137    0.014511989349    0.028833323400
            0.016638414391    0.029149594944    0.000149515150    0.000072346147    0.038482208806    0.015598126713    0.000131701320    0.000071157699
            0.000139023778    0.000069354239    0.014511995784    0.028833322401    0.000131701322    0.000071157696    0.035822302471    0.016060271619
0.100     0.042445870493    0.014371202013    0.000157357215    0.000084576340    0.025102925943    0.032384954736    0.000158462882    0.000077475433
            0.000157357215    0.000084576340    0.039345784962    0.016118085489    0.000169417044    0.000078435730    0.022373711300    0.033113062022
            0.025102927686    0.032384954651    0.000169417094    0.000078435742    0.042097162936    0.014466332233    0.000151273806    0.000081170886
            0.000158462934    0.000077475441    0.022373713015    0.033113062070    0.000151273808    0.000081170884    0.039148094591    0.016166540866
0.125     0.043236474168    0.011805786523    0.000181897096    0.000090714423    0.032349419978    0.032438421112    0.000179211513    0.000081894123
            0.000181897088    0.000090714418    0.040576477721    0.015069466668    0.000190211889    0.000081246096    0.029634684097    0.034624227614
            0.032349421250    0.032438421256    0.000190211950    0.000081246107    0.042875633709    0.012071204742    0.000172472979    0.000087277081
            0.000179211566    0.000081894129    0.029634686001    0.034624228617    0.000172472981    0.000087277078    0.040337528893    0.015260263054
0.150     0.040777637745    0.009559030215    0.000207051530    0.000091646477    0.037072638423    0.030452761014    0.000200473323    0.000082588554
            0.000207051528    0.000091646481    0.039438741998    0.014219522793    0.000211276473    0.000080564386    0.035202987605    0.034127732635
            0.037072639195    0.030452761649    0.000211276526    0.000080564390    0.040490456158    0.010005627900    0.000194401425    0.000089514008
            0.000200473387    0.000082588556    0.035202979372    0.034127735381    0.000194401425    0.000089514008    0.039228531247    0.014580654138
0.175     0.035391210815    0.009454315609    0.000231794193    0.000087588231    0.038694514152    0.028088151412    0.000221594497    0.000079556480
            0.000231794193    0.000087588231    0.036151406837    0.014867850852    0.000232020389    0.000076356961    0.038486424847    0.032816368068
            0.038694515771    0.028088152587    0.000232020453    0.000076356960    0.035267792823    0.010044085016    0.000216364205    0.000087883773
            0.000221594560    0.000079556481    0.038486426941    0.032816368693    0.000216364207    0.000087883769    0.036056604336    0.015382862926
0.200     0.028292653155    0.013081198087    0.000255571412    0.000079272501    0.037517436321    0.027111905999    0.000242222473    0.000073253209
            0.000255571410    0.000079272506    0.031564974866    0.018183379743    0.000252145099    0.000069044477    0.039523506561    0.032024773987
            0.037517429631    0.027111910135    0.000252145174    0.000069044469    0.028397480649    0.013728738847    0.000237973162    0.000082867842
            0.000242222548    0.000073253204    0.039523499977    0.032024778937    0.000237973171    0.000082867845    0.031655693885    0.018789929355
0.225     0.021458629331    0.021339252232    0.000277789778    0.000067013130    0.034699483431    0.028957816152    0.000261978363    0.000063793961
            0.000277789777    0.000067013135    0.027080482940    0.024866245574    0.000271310473    0.000058727672    0.038987597971    0.032919952310
            0.034699485978    0.028957816222    0.000271310539    0.000058727651    0.021806387279    0.021930073967    0.000258839576    0.000074597246
            0.000261978439    0.000063793946    0.038987600649    0.032919952240    0.000258839139    0.000074597462    0.027388745658    0.025469494545
0.250     0.017230282131    0.034110178694    0.000298190561    0.000051214767    0.032017582219    0.034338025939    0.000280693311    0.000051355954
            0.000298190570    0.000051214770    0.024384974845    0.034917469173    0.000289375634    0.000045565928    0.038054889433    0.036222924350
            0.032017585980    0.034338025167    0.000289375700    0.000045565898    0.017774544333    0.034529800891    0.000278806879    0.000063262633
            0.000280693387    0.000051355927    0.038054893503    0.036222924426    0.000278806888    0.000063262636    0.024890430537    0.035414660784
0.275     0.017777415681    0.050115184064    0.000316156912    0.000032135126    0.031443687357    0.042990373805    0.000297872607    0.000035956994
            0.000316156901    0.000032135129    0.025091800658    0.047522219040    0.000305863574    0.000029562407    0.038138810137    0.042002839303
            0.031443691539    0.042990373224    0.000305863648    0.000029562370    0.018415660809    0.050281881341    0.000297404600    0.000048865163
            0.000297872682    0.000035956955    0.038138813742    0.042002837381    0.000297404611    0.000048865160    0.025723316826    0.047828816118
0.300     0.024521943711    0.067104352641    0.000331261726    0.000010149679    0.034633318466    0.053687606016    0.000313073373    0.000017731154
            0.000331261736    0.000010149678    0.030349541074    0.061155980493    0.000320341742    0.000010843379    0.040555610022    0.049633501400
            0.034633322214    0.053687603598    0.000320341793    0.000010843335    0.025118693545    0.066995236560    0.000314204072    0.000031501563
            0.000313073446    0.000017731098    0.040555614752    0.049633500117    0.000314204083    0.000031501557    0.030999442781    0.061230768252
0.325     0.037716922849    0.082301918896    0.000342789679    -0.000014136585    0.042471669150    0.064503853733    0.000325553072    -0.000002972236
            0.000342789689    -0.000014136589    0.040534269082    0.073850557016    0.000332080987    -0.000010244570    0.046193138629    0.057911309172
            0.042471673653    0.064503850768    0.000332081035    -0.000010244624    0.038136183435    0.081963920299    0.000328455370    0.000011461661
            0.000325553142    -0.000002972302    0.046193142672    0.057911305947    0.000328455380    0.000011461653    0.041083095738    0.073709332485
0.350     0.056316672526    0.093048297726    0.000350361472    -0.000039910371    0.054841203691    0.073294150304    0.000334779023    -0.000025526436
            0.000350361481    -0.000039910380    0.055116036720    0.083614039575    0.000340560959    -0.000033075436    0.055297310428    0.065335131988
            0.054841206331    0.073294145831    0.000340561004    -0.000033075493    0.056457492980    0.092591208815    0.000339585087    -0.000010678442
            0.000334779088    -0.000025526506    0.055297314343    0.065335127365    0.000339585096    -0.000010678457    0.055461780513    0.083329675009
0.375     0.078181764316    0.097385663054    0.000353701024    -0.000066052374    0.070654261319    0.078188384557    0.000340314744    -0.000048965570
            0.000353701033    -0.000066052382    0.072735425409    0.088838239003    0.000345362221    -0.000056685258    0.067408646855    0.070432880929
            0.070654265413    0.078188380858    0.000345362263    -0.000056685314    0.078003816404    0.096958610165    0.000347091850    -0.000033990772
            0.000340314794    -0.000048965647    0.067408648623    0.070432877854    0.000347091859    -0.000033990784    0.072818906953    0.088526787199
0.400     0.100544292727    0.094472109525    0.000353092317    -0.000091476207    0.088130055802    0.077989625934    0.000342229609    -0.000072238269
            0.000353092316    -0.000091476213    0.091477187793    0.088634978092    0.000346574729    -0.000080029270    0.081480583812    0.072075724792
            0.088130058525    0.077989622857    0.000346574757    -0.000080029328    0.100080621571    0.094230282930    0.000350968259    -0.000057424660
            0.000342229643    -0.000072238351    0.081480587586    0.072075720526    0.000350968265    -0.000057424682    0.091297680501    0.088431684894
0.425     0.120560596364    0.084689101384    0.000349128281    -0.000115140017    0.105164710061    0.072354892649    0.000340945357    -0.000094298495
            0.000349128270    -0.000115140020    0.109236064482    0.082978267634    0.000344639758    -0.000102076910    0.096090434954    0.069670885176
            0.105164704349    0.072354883310    0.000344639783    -0.000102076964    0.119911916212    0.084761852805    0.000351567835    -0.000079911763
            0.000340945387    -0.000094298574    0.096090429290    0.069670875952    0.000351567832    -0.000079911775    0.108854414566    0.083009713170
0.450     0.135820381305    0.069522029490    0.000342808243    -0.000136437289    0.119712582762    0.061813892090    0.000337315646    -0.000114439983
            0.000342808232    -0.000136437291    0.124100412401    0.072684849340    0.000340427040    -0.000122143281    0.109709303058    0.063250604973
            0.119712576035    0.061813883323    0.000340427061    -0.000122143342    0.135136623687    0.069984661041    0.000349693208    -0.000100688038
            0.000337315662    -0.000114440060    0.109709305265    0.063250601143    0.000349693205    -0.000100688050    0.123628712826    0.073042717025
0.475     0.144704294235    0.051259813786    0.000335207166    -0.000155103108    0.130084410514    0.047649292501    0.000332347606    -0.000132301477
            0.000335207164    -0.000155103114    0.134648947392    0.059235676019    0.000334950250    -0.000139893794    0.120938151735    0.053438408143
            0.130084411346    0.047649290230    0.000334950555    -0.000139894231    0.144158125301    0.052119830026    0.000346330302    -0.000119330002
            0.000332347622    -0.000132301544    0.120938153600    0.053438403921    0.000346330298    -0.000119330015    0.134231893714    0.059960036647
0.500     0.146607049839    0.032639462531    0.000327385063    -0.000171404809    0.135195925001    0.031729585007    0.000327090000    -0.000148017305
            0.000327385057    -0.000171404820    0.140157250460    0.044530332501    0.000329250584    -0.000155497644    0.128723791643    0.041359978199
            0.135195925001    0.031729585007    0.000329250604    -0.000155497695    0.146364651736    0.033835664865    0.000342534377    -0.000135907732
            0.000327089463    -0.000148016574    0.128723791643    0.041359978199    0.000342534370    -0.000135907750    0.139948827961    0.045601614026
0.525     0.142019960385    0.016454449026    0.000320145887    -0.000185884611    0.134755665555    0.016270435934    0.000322399154    -0.000162061636
            0.000320145879    -0.000185884606    0.140682562425    0.030591798786    0.000324163833    -0.000169453794    0.132516164659    0.028482527736
            0.134755655826    0.016270433089    0.000324163851    -0.000169453846    0.142228492272    0.017866504296    0.000339197290    -0.000150850226
            0.000322399161    -0.000162061689    0.132516165156    0.028482525423    0.000339197284    -0.000150850237    0.140830894773    0.031934866040
0.550     0.132525697364    0.005162471998    0.000313974911    -0.000199395582    0.129413544747    0.003518630175    0.000318847921    -0.000175236555
            0.000313974903    -0.000199395577    0.137067031167    0.019280124981    0.000320221803    -0.000182578508    0.132395603684    0.016405769849
            0.129413544747    0.003518630175    0.000320221831    -0.000182578561    0.133306049761    0.006589006088    0.000336936861    -0.000164929251
            0.000318847926    -0.000175236609    0.132395594017    0.016405766540    0.000336936858    -0.000164929257    0.137706441385    0.020749319744
0.575     0.120657856535    0.000464336116    0.000308981843    -0.000212788516    0.120738169133    -0.004643007844    0.000316646044    -0.000188441128
            0.000308981831    -0.000212788516    0.130837651079    0.012004390195    0.000317593002    -0.000195752621    0.129072907457    0.006601974733
            0.120738178274    -0.004643030354    0.000317593043    -0.000195752707    0.122010376898    0.001607808744    0.000336024590    -0.000179041928
            0.000316646047    -0.000188441182    0.129072897597    0.006601971744    0.000336024578    -0.000179041929    0.132024531471    0.013366741346
0.600     0.109604115803    0.002891122843    0.000304926842    -0.000226927962    0.111114901733    -0.007064503056    0.000315632329    -0.000202626161
            0.000304926842    -0.000226927962    0.124025448755    0.009462830200    0.000316088900    -0.000209892469    0.123859403186    0.000197093218
            0.111114901733    -0.007064503056    0.000316088922    -0.000209892508    0.111352159296    0.003498363981    0.000336365343    -0.000194169594
            0.000315632346    -0.000202626227    0.123859403191    0.000197090378    0.000336364950    -0.000194168694    0.125682659119    0.010486645348
0.625     0.102660011120    0.011494703873    0.000301273379    -0.000242472578    0.103407366114    -0.003801265937    0.000315277891    -0.000218627101
            0.000301273382    -0.000242472607    0.118848317355    0.011443561070    0.000315175198    -0.000225776182    0.118522581415    -0.002336016735
            0.103407366088    -0.003801266659    0.000315175211    -0.000225776233    0.104539215496    0.011434601054    0.000337468556    -0.000211226368
            0.000315277896    -0.000218627129    0.118522581382    -0.002336018390    0.000337468392    -0.000211225913    0.120811850461    0.011961333811
0.650     0.102504443679    0.023817641173    0.000297213339    -0.000259886209    0.100277565898    0.003662020736    0.000314690094    -0.000237066519
            0.000297213349    -0.000259886227    0.117311501602    0.016761106165    0.000313992003    -0.000243971560    0.114945318741    -0.001388107754
            0.100277575891    0.003662021100    0.000313992009    -0.000243971617    0.104220173943    0.023084583992    0.000338435240    -0.000230930517
            0.000314690085    -0.000237066581    0.114945328687    -0.001388112328    0.000338435207    -0.000230930494    0.119363022263    0.016684017899
0.675     0.110439103695    0.036285234020    0.000291770448    -0.000279257752    0.103409526468    0.012636525914    0.000312702816    -0.000258164926
            0.000291770448    -0.000279257781    0.120749641900    0.023393684771    0.000311438084    -0.000264668347    0.114671309014    0.001786860123
            0.103409526468    0.012636525914    0.000311438082    -0.000264668457    0.111716330485    0.035002287816    0.000338036125    -0.000253595127
            0.000312702800    -0.000258164977    0.114671309064    0.001786856921    0.000338036124    -0.000253595163    0.122646501778    0.022728692419
0.700     0.125934846159    0.045015949143    0.000283883569    -0.000300255022    0.112991807227    0.019887722697    0.000308019954    -0.000281607577
            0.000283883566    -0.000300254956    0.129474565265    0.028851697846    0.000306291065    -0.000287562329    0.118519762380    0.005314158627
            0.112991807227    0.019887722697    0.000306291066    -0.000287562401    0.126574769742    0.043418076200    0.000334867678    -0.000278958715
            0.000308019915    -0.000281607649    0.118519762389    0.005314158420    0.000334867655    -0.000278958727    0.130992374620    0.027708389113
0.725     0.146686924487    0.046797662167    0.000272664464    -0.000322012753    0.127636236706    0.022490553712    0.000299508216    -0.000306448590
            0.000272664460    -0.000322012782    0.142626571138    0.030715962351    0.000297482082    -0.000311752779    0.126340148683    0.007123797294
            0.127636238001    0.022490546361    0.000297482052    -0.000311752877    0.146612180032    0.045184425213    0.000327664067    -0.000306075821
            0.000299508209    -0.000306448722    0.126340148844    0.007123794427    0.000327664086    -0.000306075859    0.143604377140    0.029290744155
0.750     0.169222439230    0.039850270386    0.000257643898    -0.000343242922    0.144821709240    0.018548921138    0.000286528963    -0.000331207216
            0.000257643886    -0.000343242993    0.158347615479    0.027180981538    0.000284397656    -0.000335832147    0.137067053875    0.005441401835
            0.144821709240    0.018548921138    0.000284397625    -0.000335832278    0.168491789630    0.038525088283    0.000315666832    -0.000333398941
            0.000286528941    -0.000331207354    0.137067053866    0.005441402075    0.000315666832    -0.000333398872    0.158720689775    0.025722540887
0.775     0.189750692725    0.024119631350    0.000239033847    -0.000362479841    0.161568569087    0.007510988032    0.000269203276    -0.000354187594
            0.000239033848    -0.000362479828    0.174183872002    0.017438225699    0.000267156249    -0.000358171361    0.148973820139    -0.000838522913
            0.161568569087    0.007510988032    0.000267156197    -0.000358171499    0.188543163527    0.023330594550    0.000298917047    -0.000359122090
            0.000269203226    -0.000354187720    0.148973810099    -0.000838529851    0.000298917047    -0.000359122090    0.173996550628    0.016200364665
0.800     0.204959792814    0.001089780523    0.000217718587    -0.000378453473    0.175100291631    -0.009917584300    0.000248438930    -0.000373877036
