# GHz S RI R 45
0.000     0.020996761000    0.000000000000    -0.000005452656    0.000000000000    0.000597044370    -0.000000000000    -0.000002398956    0.000000000000
            -0.000005452634    0.000000000000    0.021417920000    0.000000000000    -0.000006298670    0.000000000000    0.000351640230    0.000000000000
            0.000597046420    -0.000000000000    -0.000006298648    0.000000000000    0.020927182000    0.000000000000    -0.000013009521    0.000000000000
            -0.000002399007    0.000000000000    0.000351641920    0.000000000000    -0.000013009528    0.000000000000    0.021236003000    0.000000000000
0.025     0.027266109309    0.008040379304    0.000001346397    -0.000005364414    0.003465410449    0.009716599878    0.000007213553    -0.000003185596
            0.000001346420    -0.000005364416    0.026238942049    0.009547302143    -0.000007105146    -0.000009897178    0.002259865926    0.011587035387
            0.003465395396    0.009716647715    -0.000007105112    -0.000009897183    0.027190913125    0.007953460577    -0.000002690378    -0.000002064584
            0.000007213581    -0.000003185602    0.002259744181    0.011586868608    -0.000002690380    -0.000002064578    0.026236785604    0.009619755019
0.050     0.035914021378    0.009394507113    -0.000004233096    -0.000017997901    0.011194981897    0.016545062266    0.000003325063    -0.000016757944
            -0.000004233087    -0.000017997904    0.031245993046    0.014030371387    -0.000014969113    -0.000019900504    0.007356334181    0.021531080011
            0.011194973743    0.016545072612    -0.000014969093    -0.000019900513    0.035813693246    0.009239983958    -0.000002929338    -0.000017217293
            0.000003325091    -0.000016757956    0.007356364349    0.021531067591    -0.000002929360    -0.000017217285    0.031238953110    0.014009861428
0.075     0.045465057131    0.005368232476    -0.000016872684    -0.000024302750    0.021749982903    0.018404783853    -0.000007599438    -0.000024578107
            -0.000016872671    -0.000024302758    0.035925093052    0.016088382646    -0.000027880070    -0.000024658838    0.014511989349    0.028833323400
            0.021749977401    0.018404785711    -0.000027880056    -0.000024658852    0.045338477284    0.005163501297    -0.000015243666    -0.000026407317
            -0.000007599415    -0.000024578122    0.014511995784    0.028833322401    -0.000015243683    -0.000026407303    0.035822302471    0.016060271619
0.100     0.053300841769    -0.004401627740    -0.000031600232    -0.000023650249    0.032431309802    0.014432913430    -0.000021140478    -0.000026358881
            -0.000031600216    -0.000023650263    0.039345784962    0.016118085489    -0.000042703343    -0.000023486923    0.022373711300    0.033113062022
            0.032431310305    0.014432912298    -0.000042703276    -0.000023486992    0.053159900654    -0.004640345783    -0.000030908875    -0.000028616571
            -0.000021140456    -0.000026358901    0.022373713015    0.033113062070    -0.000030908885    -0.000028616560    0.039148094591    0.016166540866
0.125     0.056552455001    -0.018946380483    -0.000045355338    -0.000016643193    0.040418082644    0.005049695923    -0.000034648454    -0.000022511305
            -0.000045355333    -0.000016643201    0.040576477721    0.015069466668    -0.000057197582    -0.000016397091    0.029634684097    0.034624227614
            0.040418081828    0.005049694388    -0.000057197584    -0.000016397092    0.056411846353    -0.019213027909    -0.000046933964    -0.000024200415
            -0.000034648438    -0.000022511329    0.029634686001    0.034624228617    -0.000046933973    -0.000024200399    0.040337528893    0.015260263054
0.150     0.053150658451    -0.035888285406    -0.000056199686    -0.000004463863    0.043322578429    -0.008154737066    -0.000046491195    -0.000013713995
            -0.000056199685    -0.000004463863    0.039438741998    0.014219522793    -0.000069627852    -0.000004049113    0.035202987605    0.034127732635
            0.043322577162    -0.008154738394    -0.000069627814    -0.000004049209    0.053041444950    -0.036185632897    -0.000061383289    -0.000013826725
            -0.000046491183    -0.000013714027    0.035202979372    0.034127735381    -0.000061383293    -0.000013826726    0.039228531247    0.014580654138
0.175     0.042007766971    -0.052098829296    -0.000062786245    0.000011393781    0.039623196001    -0.022621105477    -0.000055349890    -0.000000920410
            -0.000062786233    0.000011393734    0.036151406837    0.014867850852    -0.000078646902    0.000012716523    0.038486424847    0.032816368068
            0.039623194738    -0.022621105673    -0.000078646902    0.000012716523    0.041950475066    -0.052453982993    -0.000072668176    0.000001612120
            -0.000055349886    -0.000000920429    0.038486426941    0.032816368693    -0.000072668176    0.000001612120    0.036056604336    0.015382862926
0.200     0.023545044470    -0.064096486432    -0.000064424333    0.000029532861    0.029024188525    -0.035280997457    -0.000060296871    0.000014958872
            -0.000064424330    0.000029532764    0.031564974866    0.018183379743    -0.000083218333    0.000033005136    0.039523506561    0.032024773987
            0.029024187890    -0.035280996684    -0.000083218337    0.000033005036    0.023542065095    -0.064550372739    -0.000079554170    0.000021205006
            -0.000060296866    0.000014958782    0.039523499977    0.032024778937    -0.000079554169    0.000021205021    0.031655693885    0.018789929355
0.225     -0.000295715715    -0.068723210771    -0.000060638175    0.000048504538    0.012593097722    -0.043103278103    -0.000060487464    0.000032798408
            -0.000060638173    0.000048504536    0.027080482940    0.024866245574    -0.000082294355    0.000055780918    0.038987597971    0.032919952310
            0.012593096689    -0.043103277363    -0.000082294373    0.000055780825    -0.000266433226    -0.069320231982    -0.000080829851    0.000043786178
            -0.000060487474    0.000032798359    0.038987600649    0.032919952240    -0.000080829852    0.000043786178    0.027388745658    0.025469494545
0.250     -0.026258075207    -0.063798595634    -0.000051195689    0.000066908430    -0.007329153133    -0.043684990308    -0.000055242546    0.000051316182
            -0.000051195689    0.000066908429    0.024384974845    0.034917469173    -0.000074889605    0.000079717650    0.038054889433    0.036222924350
            -0.007329153133    -0.043684990308    -0.000074889605    0.000079717650    -0.026244259543    -0.064573128451    -0.000075414398    0.000067893682
            -0.000055242583    0.000051316091    0.038054893503    0.036222924426    -0.000075414398    0.000067893682    0.024890430537    0.035414660784
0.275     -0.050270453273    -0.048631363871    -0.000036130300    0.000083056379    -0.027471537941    -0.035766797575    -0.000044191359    0.000068799480
            -0.000036130299    0.000083056377    0.025091800658    0.047522219040    -0.000060223188    0.000102914644    0.038138810137    0.042002839303
            -0.027471537332    -0.035766796782    -0.000060223188    0.000102914644    -0.050340212133    -0.049594123908    -0.000062534653    0.000091470175
            -0.000044191384    0.000068799439    0.038138813742    0.042002837381    -0.000062534653    0.000091470175    0.025723316826    0.047828816118
0.300     -0.068140682717    -0.024312836781    -0.000015970799    0.000095186097    -0.044196100319    -0.019577652030    -0.000027528818    0.000083324573
            -0.000015970864    0.000095186026    0.030349541074    0.061155980493    -0.000038143504    0.000122993816    0.040555610022    0.049633501400
            -0.044196104650    -0.019577644721    -0.000038143526    0.000122993809    -0.068370819743    -0.025440192490    -0.000042102478    0.000112048283
            -0.000027528876    0.000083324507    0.040555614752    0.049633500117    -0.000042102478    0.000112048283    0.030999442781    0.061230768252
0.325     -0.076336521709    0.006346952825    0.000008011634    0.000101538010    -0.054171822646    0.003108330993    -0.000006274204    0.000092933105
            0.000008011596    0.000101537983    0.040534269082    0.073850557016    -0.000009484894    0.000137323691    0.046193138629    0.057911309172
            -0.054171821648    0.003108330935    -0.000009484972    0.000137323635    -0.076794890063    0.005116919886    -0.000015057872    0.000126984371
            -0.000006274204    0.000092933104    0.046193142672    0.057911305947    -0.000015057870    0.000126984372    0.041083095738    0.073709332485
0.350     -0.072693212875    0.039215414243    0.000033868053    0.000100882683    -0.055028611705    0.029226383650    0.000017796342    0.000096150905
            0.000033868053    0.000100882683    0.055116036720    0.083614039575    0.000023816749    0.000143645521    0.055297310428    0.065335131988
            -0.055028611705    0.029226383650    0.000023816746    0.000143645521    -0.073420594028    0.037978645094    0.000016606091    0.000134088377
            0.000017796341    0.000096150902    0.055297314343    0.065335127365    0.000016606100    0.000134088376    0.055461780513    0.083329675009
0.375     -0.056857533440    0.069521173055    0.000059149296    0.000092804503    -0.045814421863    0.054939278333    0.000042366443    0.000092310522
            0.000059149297    0.000092804502    0.072735425409    0.088838239003    0.000058948239    0.000140572189    0.067408646855    0.070432880929
            -0.045814421223    0.054939277565    0.000058948146    0.000140572174    -0.057852366085    0.068394936667    0.000050080214    0.000132083193
            0.000042366394    0.000092310512    0.067408648623    0.070432877854    0.000050080263    0.000132083206    0.072818906953    0.088526787199
0.400     -0.030406006924    0.092658100172    0.000081469201    0.000077913296    -0.027185377372    0.076299852872    0.000065117979    0.000081738652
            0.000081469102    0.000077913284    0.091477187793    0.088634978092    0.000092789978    0.000127968855    0.081480583812    0.072075724792
            -0.027185377036    0.076299851930    0.000092789884    0.000127968849    -0.031615526947    0.091761808541    0.000082343477    0.000120927613
            0.000065117980    0.000081738651    0.081480587586    0.072075720526    0.000082343479    0.000120927612    0.091297680501    0.088431684894
0.425     0.003400303958    0.104931531068    0.000098896145    0.000057687058    -0.001286691732    0.089887783347    0.000084138577    0.000065604130
            0.000098896145    0.000057687058    0.109236064482    0.082978267634    0.000122509197    0.000106893945    0.096090434954    0.069670885176
            -0.001286690149    0.089887782370    0.000122509195    0.000106893947    0.002080178190    0.104366331516    0.000110712894    0.000101709911
            0.000084138577    0.000065604130    0.096090429290    0.069670875952    0.000110712898    0.000101709907    0.108854414566    0.083009713170
0.450     0.040113021760    0.104125253625    0.000110340831    0.000034105433    0.028586842218    0.093327409591    0.000098263227    0.000045564340
            0.000110340831    0.000034105433    0.124100412401    0.072684849340    0.000146067619    0.000079267921    0.109709303058    0.063250604973
            0.028586843554    0.093327408136    0.000146067618    0.000079267923    0.038831034193    0.103954575786    0.000133320150    0.000076296354
            0.000098263227    0.000045564340    0.109709305265    0.063250601143    0.000133320153    0.000076296349    0.123628712826    0.073042717025
0.475     0.074736025741    0.089802195328    0.000115541483    0.000009210454    0.058463863006    0.085599212179    0.000107067687    0.000023346671
            0.000115541483    0.000009210453    0.134648947392    0.059235676019    0.000162372262    0.000047347707    0.120938151735    0.053438408143
            0.058463863006    0.085599212179    0.000162372260    0.000047347713    0.073674744046    0.090035493857    0.000149208386    0.000046810480
            0.000107067687    0.000023346671    0.120938153600    0.053438403921    0.000149208386    0.000046810480    0.134231893714    0.059960036647
0.500     0.102391583648    0.063371695870    0.000115008258    -0.000015330043    0.084214373679    0.067182028825    0.000110787130    0.000000361413
            0.000115008259    -0.000015330039    0.140157250460    0.044530332501    0.000171288118    0.000013210122    0.128723791643    0.041359978199
            0.084214374851    0.067182027355    0.000171288118    0.000013210126    0.101756502321    0.063944672547    0.000158302621    0.000015139424
            0.000110787060    0.000000361473    0.128723791643    0.041359978199    0.000158302631    0.000015139425    0.139948827961    0.045601614026
0.525     0.118950341836    0.027954764840    0.000109698394    -0.000038311006    0.102060449632    0.040032308202    0.000110017072    -0.000022376430
            0.000109698395    -0.000038311004    0.140682562425    0.030591798786    0.000173311227    -0.000021497085    0.132516164659    0.028482527736
            0.102060450331    0.040032306421    0.000173311227    -0.000021497083    0.118941010298    0.028686594908    0.000161068395    -0.000017276122
            0.000110017049    -0.000022376393    0.132516165156    0.028482525423    0.000161068395    -0.000017276121    0.140830894773    0.031934866040
0.550     0.121661813700    -0.011958610948    0.000100673491    -0.000059175258    0.109118474138    0.007404192787    0.000105392093    -0.000044369972
            0.000100673490    -0.000059175260    0.137067031167    0.019280124981    0.000169124381    -0.000055766511    0.132395603684    0.016405769849
            0.109118464174    0.007404191919    0.000169124383    -0.000055766505    0.122345683437    -0.011388098262    0.000158069051    -0.000049615202
            0.000105392051    -0.000044369894    0.132395594017    0.016405766540    0.000158069061    -0.000049615205    0.137706441385    0.020749319744
0.575     0.109532544274    -0.051202302047    0.000088755370    -0.000077999018    0.103781895568    -0.026590102203    0.000097287216    -0.000065597902
            0.000088755363    -0.000077999012    0.130837651079    0.012004390195    0.000159233103    -0.000089158369    0.129072907457    0.006601974733
            0.103781895568    -0.026590102203    0.000159233104    -0.000089158366    0.110760270720    -0.051052785974    0.000149613234    -0.000081530786
            0.000097287207    -0.000065597862    0.129072897597    0.006601971744    0.000149613234    -0.000081530786    0.132024531471    0.013366741346
0.600     0.083307811902    -0.084418088509    0.000074113228    -0.000095089246    0.085902022468    -0.057333587993    0.000085491155    -0.000086112974
            0.000074113222    -0.000095089238    0.124025448755    0.009462830200    0.000143652963    -0.000121496689    0.123859403186    0.000197093218
            0.085902021467    -0.057333589492    0.000143652967    -0.000121496684    0.084930593774    -0.084813162715    0.000135511059    -0.000112840455
            0.000085491157    -0.000086112972    0.123859403191    0.000197090378    0.000135511064    -0.000112840464    0.125682659119    0.010486645348
0.625     0.045746246211    -0.106551940776    0.000056406833    -0.000110453053    0.057125874128    -0.080176482355    0.000069371968    -0.000105554015
            0.000056406833    -0.000110453053    0.118848317355    0.011443561070    0.000121802774    -0.000152382183    0.118522581415    -0.002336016735
            0.057125874128    -0.080176482355    0.000121802776    -0.000152382181    0.047631055073    -0.107622903959    0.000115007359    -0.000143036109
            0.000069371996    -0.000105554009    0.118522581382    -0.002336018390    0.000115007368    -0.000143036090    0.120811850461    0.011961333811
0.650     0.001516910327    -0.113802760778    0.000035036318    -0.000123530801    0.020910769031    -0.091276365692    0.000048191353    -0.000122898208
            0.000035036318    -0.000123530801    0.117311501602    0.016761106165    0.000092758243    -0.000180676415    0.114945318741    -0.001388107754
            0.020910769031    -0.091276365692    0.000092758243    -0.000180676415    0.003464719973    -0.115667400244    0.000087082452    -0.000170793673
            0.000048191353    -0.000122898208    0.114945328687    -0.001388112328    0.000087082457    -0.000170793682    0.119363022263    0.016684017899
0.675     -0.043422268747    -0.104374292184    0.000009608920    -0.000132996161    -0.017898818035    -0.088330704788    0.000021595671    -0.000136329495
            0.000009608920    -0.000132996161    0.120749641900    0.023393684771    0.000055859034    -0.000204194963    0.114671309014    0.001786860123
            -0.017898817836    -0.088330703808    0.000055859034    -0.000204194963    -0.041674208824    -0.107074586082    0.000051109843    -0.000193714651
            0.000021595670    -0.000136329475    0.114671309064    0.001786856921    0.000051109827    -0.000193714635    0.122646501778    0.022728692419
0.700     -0.082723022665    -0.078917396380    -0.000019478953    -0.000136939981    -0.053796910588    -0.071105410097    -0.000009792882    -0.000143515586
            -0.000019478942    -0.000136939922    0.129474565265    0.028851697846    0.000011508827    -0.000219919566    0.118519762380    0.005314158627
            -0.053796910588    -0.071105410097    0.000011508852    -0.000219919605    -0.081458133519    -0.082386090511    0.000007652004    -0.000208624746
            -0.000009792882    -0.000143515586    0.118519762389    0.005314158420    0.000007652004    -0.000208624746    0.130992374620    0.027708389113
0.725     -0.110693101873    -0.040545979313    -0.000050652255    -0.000133481938    -0.081537085311    -0.041578297982    -0.000044049820    -0.000142280438
            -0.000050652255    -0.000133481938    0.142626571138    0.030715962351    -0.000038278647    -0.000224727784    0.126340148683    0.007123797294
            -0.081537082639    -0.041578296619    -0.000038278647    -0.000224727784    -0.110164376010    -0.044601426701    -0.000041043625    -0.000212363530
            -0.000044049820    -0.000142280438    0.126340148844    0.007123794427    -0.000041043625    -0.000212363530    0.143604377140    0.029290744155
0.750     -0.123286009365    0.005630598694    -0.000081286674    -0.000121548497    -0.097064595095    -0.003645664184    -0.000078148804    -0.000131422982
            -0.000081286701    -0.000121548491    0.158347615479    0.027180981538    -0.000089921425    -0.000216428633    0.137067053875    0.005441401835
            -0.097064594096    -0.003645664146    -0.000089921429    -0.000216428642    -0.123666221854    0.001263863432    -0.000091168776    -0.000202853665
            -0.000078148010    -0.000131422535    0.137067053866    0.005441402075    -0.000091168748    -0.000202853700    0.158720689775    0.025722540887
0.775     -0.118760892240    0.053376998419    -0.000108334091    -0.000101421981    -0.098177742232    0.037575178821    -0.000108658808    -0.000111240769
            -0.000108333654    -0.000101421819    0.174183872002    0.017438225699    -0.000138975405    -0.000194544014    0.148973820139    -0.000838522913
            -0.098177742232    0.037575178821    -0.000138974981    -0.000194543851    -0.120109620920    0.049029498842    -0.000138141293    -0.000179840107
            -0.000108658808    -0.000111240769    0.148973810099    -0.000838529851    -0.000138141293    -0.000179840107    0.173996550628    0.016200364665
