# GHz S RI R 45
0.000     0.021318708000    0.000000000000    -0.000090084110    0.000000000000    0.000595862660    -0.000000000000    -0.000100572280    0.000000000000
            -0.000090083660    0.000000000000    0.021417920000    0.000000000000    -0.000059798665    0.000000000000    0.000351640230    0.000000000000
            0.000595859630    -0.000000000000    -0.000059797824    0.000000000000    0.021235202000    0.000000000000    -0.000062258032    0.000000000000
            -0.000100571600    0.000000000000    0.000351641920    0.000000000000    -0.000062258411    0.000000000000    0.021236003000    0.000000000000
0.025     0.028029018099    0.008898467789    -0.000115446961    -0.000190171965    0.003883888922    0.010804256549    -0.000084818037    -0.000129909243
            -0.000115446528    -0.000190172075    0.026238942049    0.009547302143    -0.000129577238    -0.000266172453    0.002259865926    0.011587035387
            0.003883868472    0.010804307469    -0.000129576407    -0.000266172635    0.027970565260    0.008889720387    -0.000104536405    -0.000202176830
            -0.000084817441    -0.000129909370    0.002259744181    0.011586868608    -0.000104536905    -0.000202176673    0.026236785604    0.009619755019
0.050     0.037493885186    0.010534306073    -0.000260793301    -0.000371521595    0.012613372709    0.018224439915    -0.000188295208    -0.000291879622
            -0.000260792937    -0.000371521766    0.031245993046    0.014030371387    -0.000323507663    -0.000479478118    0.007356334181    0.021531080011
            0.012613361241    0.018224453933    -0.000323506821    -0.000479478494    0.037450806467    0.010534768258    -0.000255895621    -0.000375625441
            -0.000188294593    -0.000291879899    0.007356364349    0.021531067591    -0.000255896065    -0.000375625247    0.031238953110    0.014009861428
0.075     0.047940961928    0.006179912632    -0.000495977497    -0.000463570112    0.024405757886    0.019933973470    -0.000379289282    -0.000374494248
            -0.000495977101    -0.000463570389    0.035925093052    0.016088382646    -0.000611954529    -0.000591879722    0.014511989349    0.028833323400
            0.024405750501    0.019933980931    -0.000611953676    -0.000591880345    0.047937893961    0.006186797720    -0.000487240421    -0.000463153366
            -0.000379288812    -0.000374494568    0.014511995784    0.028833322401    -0.000487241022    -0.000463152966    0.035822302471    0.016060271619
0.100     0.056372197030    -0.004562682461    -0.000770658489    -0.000450843446    0.036109798581    0.014995979030    -0.000603340602    -0.000367263027
            -0.000770658489    -0.000450843446    0.039345784962    0.016118085489    -0.000948177684    -0.000583293604    0.022373711300    0.033113062022
            0.036109799381    0.014995982318    -0.000948176920    -0.000583294274    0.056437227655    -0.004560511497    -0.000754031152    -0.000450533306
            -0.000603339956    -0.000367263644    0.022373713015    0.033113062070    -0.000754031830    -0.000450532639    0.039148094591    0.016166540866
0.125     0.059536450069    -0.020519073727    -0.001046857881    -0.000329750043    0.044453781032    0.004003976843    -0.000826632641    -0.000270469467
            -0.001046857671    -0.000329750379    0.040576477721    0.015069466668    -0.001290755688    -0.000447691718    0.029634684097    0.034624227614
            0.044453782821    0.004003979272    -0.001290755438    -0.000447692136    0.059695848690    -0.020535941656    -0.001020971099    -0.000336315327
            -0.000826632348    -0.000270470010    0.029634686001    0.034624228617    -0.001020971099    -0.000336315327    0.040337528893    0.015260263054
0.150     0.055128242798    -0.038906304314    -0.001292556887    -0.000106929144    0.046727478070    -0.011058903738    -0.001023421883    -0.000092168390
            -0.001292556887    -0.000106929144    0.039438741998    0.014219522793    -0.001603853610    -0.000190193337    0.035202987605    0.034127732635
            0.046727480595    -0.011058901752    -0.001603853212    -0.000190194141    0.055405856199    -0.038991446072    -0.001260182070    -0.000128251732
            -0.001023421604    -0.000092169266    0.035202979372    0.034127735381    -0.001260182070    -0.000128251732    0.039228531247    0.014580654138
0.175     0.042048342813    -0.056091991707    -0.001480329244    0.000207026914    0.041302108448    -0.027105256387    -0.001173010300    0.000157479532
            -0.001480329244    0.000207026914    0.036151406837    0.014867850852    -0.001856278998    0.000180410705    0.038486424847    0.032816368068
            0.041302111539    -0.027105255322    -0.001856278763    0.000180410029    0.042448697337    -0.056305412093    -0.001449479682    0.000164399865
            -0.001173010112    0.000157478673    0.038486426941    0.032816368693    -0.001449479824    0.000164400393    0.036056604336    0.015382862926
0.200     0.020967594226    -0.068105139066    -0.001585434228    0.000598649012    0.028042294134    -0.040509444918    -0.001257512180    0.000467810246
            -0.001585434261    0.000598648075    0.031564974866    0.018183379743    -0.002018011574    0.000652916844    0.039523506561    0.032024773987
            0.028042296686    -0.040509445584    -0.002018011517    0.000652916047    0.021467714411    -0.068512762108    -0.001568469300    0.000532789046
            -0.001257512226    0.000467809263    0.039523499977    0.032024778937    -0.001568469300    0.000532789046    0.031655693885    0.018789929355
0.225     -0.005680337991    -0.071437731122    -0.001581726387    0.001049213307    0.008446890762    -0.047781934074    -0.001257098337    0.000825191533
            -0.001581726320    0.001049212866    0.027080482940    0.024866245574    -0.002054873587    0.001210299041    0.038987597971    0.032919952310
            0.008446893612    -0.047781935601    -0.002054873751    0.001210298172    -0.005136765285    -0.072099392628    -0.001592508348    0.000965570757
            -0.001257098435    0.000825190655    0.038987600649    0.032919952240    -0.001592508348    0.000965570757    0.027388745658    0.025469494545
0.250     -0.033982573418    -0.063819324653    -0.001443810399    0.001530609876    -0.014498708101    -0.046291877296    -0.001151102606    0.001209121585
            -0.001443810926    0.001530608829    0.024384974845    0.034917469173    -0.001930499680    0.001822987525    0.038054889433    0.036222924350
            -0.014498700619    -0.046291881735    -0.001930500098    0.001822986645    -0.033482700128    -0.064771905234    -0.001493085681    0.001442560294
            -0.001151102963    0.001209120693    0.038054893503    0.036222924426    -0.001493085141    0.001442561284    0.024890430537    0.035414660784
0.275     -0.059183166903    -0.044802109931    -0.001152052091    0.002000759099    -0.036789884023    -0.034881056654    -0.000921982710    0.001587042243
            -0.001152052141    0.002000759186    0.025091800658    0.047522219040    -0.001612970129    0.002442007209    0.038138810137    0.042002839303
            -0.036789884748    -0.034881057343    -0.001612970445    0.002442006761    -0.058834870898    -0.046044180645    -0.001242854654    0.001927383194
            -0.000921983213    0.001587041834    0.038138813742    0.042002837381    -0.001242854480    0.001927383663    0.025723316826    0.047828816118
0.300     -0.076555989355    -0.016057563679    -0.000702239045    0.002405809076    -0.054142429932    -0.014238012566    -0.000563941775    0.001915400063
            -0.000702239745    0.002405808351    0.030349541074    0.061155980493    -0.001088005637    0.002999883291    0.040555610022    0.049633501400
            -0.054142431866    -0.014238013074    -0.001088012059    0.002999876494    -0.076469136878    -0.017538226929    -0.000827189478    0.002366836753
            -0.000563942637    0.001915399288    0.040555614752    0.049633500117    -0.000827189445    0.002366836658    0.030999442781    0.061230768252
0.325     -0.082349857285    0.018788282859    -0.000113416125    0.002687156302    -0.062842373857    0.013117616198    -0.000090642533    0.002145014199
            -0.000113416129    0.002687156402    0.040534269082    0.073850557016    -0.000370631880    0.003418922006    0.046193138629    0.057911309172
            -0.062842375815    0.013117616607    -0.000370631870    0.003418921906    -0.082612682597    0.017169308237    -0.000255359439    0.002696979814
            -0.000090642496    0.002145014201    0.046193142672    0.057911305947    -0.000255359439    0.002696979814    0.041083095738    0.073709332485
0.350     -0.074594301536    0.054735232821    0.000570116291    0.002795327998    -0.060521617472    0.043251572727    0.000462217172    0.002233245990
            0.000570116311    0.002795328096    0.055116036720    0.083614039575    0.000489806797    0.003628761584    0.055297310428    0.065335131988
            -0.060521618285    0.043251573309    0.000489806797    0.003628761584    -0.075250955503    0.053116761149    0.000433867728    0.002858086733
            0.000462217172    0.002233245990    0.055297314343    0.065335127365    0.000433867728    0.002858086733    0.055461780513    0.083329675009
0.375     -0.053523949738    0.086304405834    0.001285001944    0.002701841556    -0.046627349135    0.071535296834    0.001041553530    0.002154861112
            0.001285001944    0.002701841556    0.072735425409    0.088838239003    0.001415590238    0.003583143116    0.067408646855    0.070432880929
            -0.046627362712    0.071535290371    0.001415590300    0.003583143092    -0.054558466996    0.084842831716    0.001176225103    0.002809868512
            0.001041553530    0.002154861112    0.067408648623    0.070432877854    0.001176225103    0.002809868512    0.072818906953    0.088526787199
0.400     -0.021570240716    0.108513969369    0.001962039837    0.002406808975    -0.022521452086    0.093483577167    0.001588351701    0.001909363276
            0.001962039837    0.002406808975    0.091477187793    0.088634978092    0.002316349531    0.003272141215    0.081480583812    0.072075724792
            -0.022521468636    0.093483574208    0.002316349531    0.003272141215    -0.022901166265    0.107356702163    0.001895235274    0.002543000337
            0.001588351701    0.001909363276    0.081480587586    0.072075720526    0.001895235230    0.002543000370    0.091297680501    0.088431684894
0.425     0.017071902609    0.117698756668    0.002539991924    0.001936905897    0.008795721740    0.105483028810    0.002050005162    0.001519863752
            0.002539991878    0.001936905792    0.109236064482    0.082978267634    0.003107630898    0.002722410553    0.096090434954    0.069670885176
            0.008795718058    0.105483029117    0.003107626218    0.002722411342    0.015585192032    0.116956819539    0.002518520085    0.002080417869
            0.002050005162    0.001519863752    0.096090429290    0.069670875952    0.002518520085    0.002080417869    0.108854414566    0.083009713170
0.450     0.057125422311    0.112051298107    0.002976455876    0.001337213205    0.043184463051    0.105316370184    0.002390450563    0.001026150771
            0.002976455876    0.001337213205    0.124100412401    0.072684849340    0.003726944902    0.001988715271    0.109709303058    0.063250604973
            0.043184461213    0.105316370938    0.003726944902    0.001988715271    0.055666694040    0.111776968591    0.002992592362    0.001470393193
            0.002390450563    0.001026150771    0.109709305265    0.063250601143    0.002992592272    0.001470393149    0.123628712826    0.073042717025
0.475     0.093002476577    0.091822987245    0.003251341254    0.000659430853    0.075960510196    0.092413442710    0.002593758925    0.000474156163
            0.003251341254    0.000659430853    0.134648947392    0.059235676019    0.004141372468    0.001138847632    0.120938151735    0.053438408143
            0.075960508583    0.092413444035    0.004141372371    0.001138847606    0.091774489409    0.091995119096    0.003290336986    0.000773513090
            0.002593758925    0.000474156163    0.120938153600    0.053438403921    0.003290336972    0.000773513148    0.134231893714    0.059960036647
0.500     0.119538624601    0.059264949493    0.003365048571    -0.000048861902    0.102487703638    0.067913657826    0.002662941238    -0.000093952091
            0.003365048571    -0.000048861901    0.140157250460    0.044530332501    0.004347600685    0.000238345336    0.128723791643    0.041359978199
            0.102487703638    0.067913657826    0.004347600690    0.000238345260    0.118735646161    0.059782289525    0.003411877142    0.000048728824
            0.002662941137    -0.000093952116    0.128723791643    0.041359978199    0.003411884030    0.000048722735    0.139948827961    0.045601614026
0.525     0.132622574201    0.018356693402    0.003331389597    -0.000751686617    0.118716799320    0.034557161175    0.002613791289    -0.000647076028
            0.003331389734    -0.000751686465    0.140682562425    0.030591798786    0.004363910112    -0.000661939195    0.132516164659    0.028482527736
            0.118716799320    0.034557161175    0.004363910103    -0.000661939256    0.132401372592    0.019042725009    0.003378118367    -0.000658542197
            0.002613791386    -0.000647076052    0.132516165156    0.028482525423    0.003378121141    -0.000658545736    0.140830894773    0.031934866040
0.550     0.129730596125    -0.025608086489    0.003169101988    -0.001427800515    0.121707127896    -0.003537948883    0.002466819337    -0.001168714729
            0.003169102054    -0.001427800611    0.137067031167    0.019280124981    0.004218407182    -0.001532638570    0.132395603684    0.016405769849
            0.121707137978    -0.003537946199    0.004218407182    -0.001532638570    0.130180514517    -0.024990327985    0.003219830611    -0.001323704438
            0.002466819751    -0.001168714556    0.132395594017    0.016405766540    0.003219830981    -0.001323704591    0.137706441385    0.020749319744
0.575     0.110340503456    -0.066580423504    0.002892596486    -0.002068563263    0.110092832742    -0.041252741664    0.002238415273    -0.001655231617
            0.002892596450    -0.002068563313    0.130837651079    0.012004390195    0.003934571654    -0.002365129522    0.129072907457    0.006601974733
            0.110092832742    -0.041252741664    0.003934571654    -0.002365129522    0.111457704837    -0.066301079615    0.002964164734    -0.001942943833
            0.002238415273    -0.001655231617    0.129072897597    0.006601971744    0.002964164734    -0.001942943833    0.132024531471    0.013366741346
0.600     0.076208221019    -0.098474621372    0.002505462042    -0.002671465944    0.084489871133    -0.073040647065    0.001934373009    -0.002110433258
            0.002505462042    -0.002671465944    0.124025448755    0.009462830200    0.003519730303    -0.003163453450    0.123859403186    0.000197093218
            0.084489879973    -0.073040652131    0.003519730303    -0.003163453450    0.077877748429    -0.098801100329    0.002623491790    -0.002526880584
            0.001934373046    -0.002110433224    0.123859403191    0.000197090378    0.002623491835    -0.002526880538    0.125682659119    0.010486645348
0.625     0.031389312743    -0.116036399096    0.001997913193    -0.003229212160    0.047687407219    -0.093704911648    0.001546029033    -0.002535732258
            0.001997913193    -0.003229212160    0.118848317355    0.011443561070    0.002958670438    -0.003928715322    0.118522581415    -0.002336016735
            0.047687408854    -0.093704910816    0.002958670438    -0.003928715322    0.033384324391    -0.117189649066    0.002187255918    -0.003087077140
            0.001546028952    -0.002535732424    0.118522581382    -0.002336018390    0.002187255918    -0.003087077140    0.120811850461    0.011961333811
0.650     -0.018105961712    -0.115792362299    0.001352647938    -0.003718437091    0.004503536622    -0.099339904341    0.001054370700    -0.002918296217
            0.001352647873    -0.003718437114    0.117311501602    0.016761106165    0.002219438279    -0.004640892178    0.114945318741    -0.001388107754
            0.004503536804    -0.099339908337    0.002219438279    -0.004640892178    -0.016102260550    -0.117900587994    0.001625023027    -0.003617584798
            0.001054370649    -0.002918296235    0.114945328687    -0.001388112328    0.001625022964    -0.003617584826    0.119363022263    0.016684017899
0.675     -0.065115583191    -0.096854806134    0.000558942830    -0.004093030872    -0.038832615005    -0.088194155424    0.000442784873    -0.003223100896
            0.000558942830    -0.004093030872    0.120749641900    0.023393684771    0.001271713985    -0.005245676183    0.114671309014    0.001786860123
            -0.038832598727    -0.088194201927    0.001271713985    -0.005245676183    -0.063467021826    -0.099916260433    0.000902652020    -0.004080446583
            0.000442784858    -0.003223101201    0.114671309064    0.001786856921    0.000902652227    -0.004080446845    0.122646501778    0.022728692419
0.700     -0.102528233908    -0.061329732181    -0.000369602316    -0.004289692269    -0.075737929943    -0.061220413308    -0.000285632660    -0.003396165777
            -0.000369602391    -0.004289692263    0.129474565265    0.028851697846    0.000112938290    -0.005657438730    0.118519762380    0.005314158627
            -0.075737936165    -0.061220418337    0.000112938290    -0.005657438730    -0.101584713251    -0.065195573029    0.000006965750    -0.004405697793
            -0.000285632719    -0.003396165772    0.118519762389    0.005314158420    0.000006965827    -0.004405697793    0.130992374620    0.027708389113
0.725     -0.124612824298    -0.014081238126    -0.001383219599    -0.004245242171    -0.100520056648    -0.022014321915    -0.001095432840    -0.003379536116
            -0.001383219568    -0.004245242076    0.142626571138    0.030715962351    -0.001210975949    -0.005779499784    0.126340148683    0.007123797294
            -0.100520056648    -0.022014321915    -0.001210972185    -0.005779496895    -0.124648471087    -0.018468887945    -0.001033085268    -0.004508286224
            -0.001095432840    -0.003379536116    0.126340148844    0.007123794427    -0.001033085245    -0.004508286126    0.143604377140    0.029290744155
0.750     -0.128111125653    0.038143724494    -0.002398731244    -0.003920327185    -0.109472881179    0.023857419806    -0.001919150974    -0.003133227830
            -0.002398723120    -0.003920323129    0.158347615479    0.027180981538    -0.002602583937    -0.005536487506    0.137067053875    0.005441401835
            -0.109472881179    0.023857419806    -0.002602583852    -0.005536487325    -0.129272353574    0.033609375842    -0.002140852762    -0.004317337321
            -0.001919150974    -0.003133227830    0.137067053866    0.005441402075    -0.002140852762    -0.004317337321    0.158720689775    0.025722540887
0.775     -0.112740628754    0.087999703432    -0.003317022066    -0.003316231343    -0.101446456748    0.069961483311    -0.002671932608    -0.002652050203
            -0.003317022645    -0.003316230764    0.174183872002    0.017438225699    -0.003930653475    -0.004901611563    0.148973820139    -0.000838522913
            -0.101446456748    0.069961483311    -0.003930653475    -0.004901611563    -0.115019958227    0.083726242704    -0.003206107843    -0.003802496809
            -0.002671932608    -0.002652050203    0.148973810099    -0.000838529851    -0.003206107778    -0.003802496733    0.173996550628    0.016200364665
