# GHz S RI R 45
0.000     0.022443139000    0.000000000000    0.000014350768    0.000000000000    0.000342036390    0.000000000000    0.000023431832    0.000000000000
            0.000014350665    0.000000000000    0.021417920000    0.000000000000    0.000042788236    0.000000000000    0.000351640230    0.000000000000
            0.000342011830    0.000000000000    0.000042788049    0.000000000000    0.022357093000    0.000000000000    0.000022494114    0.000000000000
            0.000023431547    0.000000000000    0.000351641920    0.000000000000    0.000022494128    0.000000000000    0.021236003000    0.000000000000
0.025     0.028237982971    0.010405516991    -0.000046142434    -0.000021348139    0.002708645825    0.012640527095    -0.000028948599    -0.000017888262
            -0.000046142538    -0.000021348128    0.026238942049    0.009547302143    -0.000042534281    -0.000033495876    0.002259865926    0.011587035387
            0.002708496843    0.012640361637    -0.000042534458    -0.000033495859    0.028129405348    0.010365833035    -0.000021388028    -0.000009232238
            -0.000028948874    -0.000017888236    0.002259744181    0.011586868608    -0.000021388017    -0.000009232238    0.026236785604    0.009619755019
0.050     0.034564901053    0.014663264728    -0.000057894276    0.000021411286    0.009158987570    0.023001328492    -0.000038438361    0.000019802566
            -0.000057894375    0.000021411300    0.031245993046    0.014030371387    -0.000060424652    0.000023151652    0.007356334181    0.021531080011
            0.009158992206    0.023001319111    -0.000060424838    0.000023151675    0.034396065455    0.014612989744    -0.000025755579    0.000028882979
            -0.000038438645    0.000019802602    0.007356364349    0.021531067591    -0.000025755569    0.000028882978    0.031238953110    0.014009861428
0.075     0.040462177412    0.015434346877    -0.000043273580    0.000050963130    0.017913389131    0.029589835913    -0.000025369902    0.000045803198
            -0.000043273682    0.000050963143    0.035925093052    0.016088382646    -0.000042915060    0.000062269611    0.014511989349    0.028833323400
            0.017913368978    0.029589838762    -0.000042915243    0.000062269644    0.040221026797    0.015431159422    -0.000009797014    0.000055269611
            -0.000025370139    0.000045803229    0.014511995784    0.028833322401    -0.000009797004    0.000055269612    0.035822302471    0.016060271619
0.100     0.044341373424    0.013224778935    -0.000020110859    0.000068433570    0.026874707171    0.032019536308    -0.000004649244    0.000061256634
            -0.000020110967    0.000068433586    0.039345784962    0.016118085489    -0.000013680960    0.000085744620    0.022373711300    0.033113062022
            0.026874681489    0.032019540891    -0.000013681139    0.000085744664    0.044058290135    0.013325310396    0.000013864581    0.000070849864
            -0.000004649525    0.000061256694    0.022373713015    0.033113062070    0.000013864602    0.000070849864    0.039148094591    0.016166540866
0.125     0.044696147859    0.009526122884    0.000005453737    0.000075443317    0.034082148065    0.030944348877    0.000018163671    0.000067522459
            0.000005453643    0.000075443338    0.040576477721    0.015069466668    0.000018923487    0.000095718458    0.029634684097    0.034624227614
            0.034082120757    0.030944356639    0.000018923307    0.000095718510    0.044442601731    0.009756706994    0.000039599203    0.000076682405
            0.000018163416    0.000067522528    0.029634686001    0.034624228617    0.000039599212    0.000076682406    0.040337528893    0.015260263054
0.150     0.041129031529    0.006350021275    0.000030457980    0.000073760120    0.038078727857    0.027843173594    0.000040605301    0.000066116855
            0.000030457886    0.000073760146    0.039438741998    0.014219522793    0.000051193807    0.000094457350    0.035202987605    0.034127732635
            0.038078700528    0.027843182168    0.000051193636    0.000094457409    0.040975887580    0.006702641401    0.000064823664    0.000074194835
            0.000040605032    0.000066116943    0.035202979372    0.034127735381    0.000064823680    0.000074194834    0.039228531247    0.014580654138
0.175     0.034076088690    0.005895451175    0.000052632357    0.000065101572    0.038323130482    0.024770374691    0.000060596671    0.000058526181
            0.000052632256    0.000065101608    0.036151406837    0.014867850852    0.000080054289    0.000084130787    0.038486424847    0.032816368068
            0.038323113030    0.024770381428    0.000080054129    0.000084130857    0.034094130313    0.006320337497    0.000087245022    0.000064940109
            0.000060596454    0.000058526264    0.038486426941    0.032816368693    0.000087245044    0.000064940113    0.036056604336    0.015382862926
0.200     0.025079894168    0.010053339515    0.000070858981    0.000051072601    0.035370116290    0.023841537560    0.000077203940    0.000046162014
            0.000070858878    0.000051072642    0.031564974866    0.018183379743    0.000104088134    0.000066802311    0.039523506561    0.032024773987
            0.035370090120    0.023841549548    0.000104087979    0.000066802386    0.025312164098    0.010460860114    0.000105853779    0.000050491026
            0.000077203781    0.000046162088    0.039523499977    0.032024778937    0.000105853801    0.000050491027    0.031655693885    0.018789929355
0.225     0.016597327690    0.019834288905    0.000084252613    0.000033315552    0.030805834001    0.026683147153    0.000089601322    0.000030455328
            0.000084252516    0.000033315599    0.027080482940    0.024866245574    0.000122080207    0.000044583234    0.038987597971    0.032919952310
            0.030805809211    0.026683160500    0.000122080051    0.000044583312    0.017037650523    0.020112750339    0.000119744725    0.000032432599
            0.000089601076    0.000030455452    0.038987600649    0.032919952240    0.000119744737    0.000032432593    0.027388745658    0.025469494545
0.250     0.011492377565    0.034960403400    0.000092513964    0.000013214600    0.026918814212    0.033950852069    0.000097581148    0.000012620165
            0.000092513873    0.000013214652    0.024384974845    0.034917469173    0.000133718913    0.000019255897    0.038054889433    0.036222924350
            0.026918788589    0.033950866005    0.000133718934    0.000019255887    0.012075607706    0.035004096484    0.000128773336    0.000012126738
            0.000097580906    0.000012620301    0.038054893503    0.036222924426    0.000128773356    0.000012126733    0.024890430537    0.035414660784
0.275     0.012338923087    0.053715419581    0.000095509017    -0.000007746780    0.026124069674    0.045048874559    0.000100988351    -0.000006071030
            0.000095508965    -0.000007746751    0.025091800658    0.047522219040    0.000138811880    -0.000007322474    0.038138810137    0.042002839303
            0.026124055237    0.045048884087    0.000138811483    -0.000007322213    0.012948072580    0.053456584927    0.000132805209    -0.000009049883
            0.000100988119    -0.000006070885    0.038138813742    0.042002837381    0.000132805229    -0.000009049890    0.025723316826    0.047828816118
0.300     0.020696681603    0.073225286155    0.000093504613    -0.000028356737    0.030300993203    0.058204017872    0.000100090766    -0.000024591374
            0.000093504527    -0.000028356675    0.030349541074    0.061155980493    0.000137757085    -0.000033681702    0.040555610022    0.049633501400
            0.030300996250    0.058204016286    0.000137757103    -0.000033681714    0.021186860974    0.072657492480    0.000132213520    -0.000030019885
            0.000100090537    -0.000024591218    0.040555614752    0.049633500117    0.000132213538    -0.000030019897    0.030999442781    0.061230768252
0.325     0.036612985752    0.090076241197    0.000087019589    -0.000047408331    0.040246031884    0.070885397320    0.000095271524    -0.000041914436
            0.000087019593    -0.000047408327    0.040534269082    0.073850557016    0.000131131426    -0.000058368826    0.046193138629    0.057911309172
            0.040245994513    0.070885426587    0.000131131432    -0.000058368837    0.036844525723    0.089264170222    0.000127408191    -0.000049721840
            0.000095270760    -0.000041913862    0.046193142672    0.057911305947    0.000127408208    -0.000049721849    0.041083095738    0.073709332485
0.350     0.058535355433    0.101146156062    0.000076819018    -0.000064098743    0.055458913413    0.080460915917    0.000087186322    -0.000057363756
            0.000076819012    -0.000064098735    0.055116036720    0.083614039575    0.000119861097    -0.000080441750    0.055297310428    0.065335131988
            0.055458914250    0.080460914126    0.000119861111    -0.000080441765    0.058408436173    0.100215892013    0.000119113009    -0.000067490082
            0.000087186337    -0.000057363770    0.055297314343    0.065335127365    0.000119113015    -0.000067490093    0.055461780513    0.083329675009
0.375     0.083656207313    0.104317546583    0.000063815790    -0.000077818837    0.074287372732    0.084820126607    0.000076539242    -0.000070387336
            0.000063815782    -0.000077818830    0.072735425409    0.088838239003    0.000104947290    -0.000099134338    0.067408646855    0.070432880929
            0.074287375692    0.084820124014    0.000104946948    -0.000099134016    0.083136398025    0.103431448709    0.000108025906    -0.000082754543
            0.000076538901    -0.000070387013    0.067408648623    0.070432877854    0.000108025916    -0.000082754563    0.072818906953    0.088526787199
0.400     0.108554486716    0.098911106828    0.000048880561    -0.000088370891    0.094354741592    0.082807670389    0.000064070300    -0.000080790213
            0.000048880566    -0.000088370888    0.091477187793    0.088634978092    0.000087411715    -0.000114177338    0.081480583812    0.072075724792
            0.094354743037    0.082807668742    0.000087411729    -0.000114177364    0.107681737435    0.098234740410    0.000094912945    -0.000095329394
            0.000064069630    -0.000080789544    0.081480587586    0.072075720526    0.000094912959    -0.000095329408    0.091297680501    0.088431684894
0.425     0.129882772427    0.085728155178    0.000032826005    -0.000095734696    0.113050936240    0.074361697824    0.000050429507    -0.000088480888
            0.000032825938    -0.000095734625    0.109236064482    0.082978267634    0.000068168149    -0.000125447776    0.096090434954    0.069670885176
            0.113050901928    0.074361731791    0.000068168154    -0.000125447785    0.128765712392    0.085398431501    0.000080410553    -0.000105083630
            0.000050429185    -0.000088480565    0.096090429290    0.069670875952    0.000080410561    -0.000105083648    0.108854414566    0.083009713170
0.450     0.144947642138    0.066824023686    0.000016246820    -0.000100101310    0.127982288576    0.060457649167    0.000036158535    -0.000093577417
            0.000016246756    -0.000100101250    0.124100412401    0.072684849340    0.000047954579    -0.000133106177    0.109709303058    0.063250604973
            0.127982288576    0.060457649167    0.000047954591    -0.000133106194    0.143745393760    0.066923447636    0.000065082400    -0.000112121916
            0.000036157930    -0.000093576696    0.109709305265    0.063250601143    0.000065082415    -0.000112121942    0.123628712826    0.073042717025
0.475     0.152081538046    0.045113646121    -0.000000382363    -0.000101692861    0.137295270382    0.042919463422    0.000021676367    -0.000096194494
            -0.000000382429    -0.000101692781    0.134648947392    0.059235676019    0.000027353607    -0.000137313715    0.120938151735    0.053438408143
            0.137295270382    0.042919463422    0.000027353320    -0.000137313364    0.150978728060    0.045657481324    0.000049360927    -0.000116506393
            0.000021676222    -0.000096194324    0.120938153600    0.053438403921    0.000049360933    -0.000116506412    0.134231893714    0.059960036647
0.500     0.150855779125    0.023935391499    -0.000016773209    -0.000100742693    0.139937874107    0.024195192712    0.000007307914    -0.000096510664
            -0.000016773278    -0.000100742610    0.140157250460    0.044530332501    0.000006792382    -0.000138309694    0.128723791643    0.041359978199
            0.139937864591    0.024195189055    0.000006792395    -0.000138309703    0.150036413695    0.024877649746    0.000033614494    -0.000118402257
            0.000007307752    -0.000096510446    0.128723791643    0.041359978199    0.000033614497    -0.000118402276    0.139948827961    0.045601614026
0.525     0.142145301957    0.006515090144    -0.000032685017    -0.000097418837    0.135854550371    0.007021717148    -0.000006687462    -0.000094640309
            -0.000032685066    -0.000097418757    0.140682562425    0.030591798786    -0.000013380221    -0.000136246427    0.132516164659    0.028482527736
            0.135854518205    0.007021758279    -0.000013380464    -0.000136246022    0.141781338658    0.007855648266    0.000018147243    -0.000117886976
            -0.000006687572    -0.000094640055    0.132516165156    0.028482525423    0.000018147247    -0.000117886986    0.140830894773    0.031934866040
0.550     0.129041730081    -0.003673245677    -0.000047970810    -0.000091810271    0.126707956501    -0.005510382894    -0.000020082346    -0.000090717849
            -0.000047970863    -0.000091810176    0.137067031167    0.019280124981    -0.000032874698    -0.000131257441    0.132395603684    0.016405769849
            0.126707956501    -0.005510382894    -0.000032875149    -0.000131256617    0.128369392784    -0.002637734005    0.000003253314    -0.000115099231
            -0.000020082476    -0.000090717612    0.132395594017    0.016405766540    0.000003253312    -0.000115099241    0.137706441385    0.020749319744
0.575     0.112961778164    -0.005584811906    -0.000062348803    -0.000083988407    0.113754590209    -0.011562390885    -0.000032601059    -0.000084816479
            -0.000062348829    -0.000083988350    0.130837651079    0.012004390195    -0.000051341039    -0.000123435889    0.129072907457    0.006601974733
            0.113754564479    -0.011562347349    -0.000051341126    -0.000123435733    0.113114912018    -0.004714815334    -0.000010755459    -0.000110131466
            -0.000032601168    -0.000084816275    0.129072897597    0.006601971744    -0.000010755457    -0.000110131487    0.132024531471    0.013366741346
0.600     0.099536139743    0.001219661868    -0.000075556017    -0.000073946429    0.101305991643    -0.010050473637    -0.000043980830    -0.000077067031
            -0.000075556066    -0.000073946321    0.124025448755    0.009462830200    -0.000068396017    -0.000112867483    0.123859403186    0.000197093218
            0.101305991713    -0.010050472929    -0.000068396088    -0.000112867335    0.100141292992    0.001888053878    -0.000023554787    -0.000103158875
            -0.000043980952    -0.000077066776    0.123859403191    0.000197090378    -0.000023554789    -0.000103158884    0.125682659119    0.010486645348
0.625     0.092513428617    0.015075581780    -0.000087184087    -0.000061794333    0.092875208542    -0.001909987354    -0.000053919251    -0.000067635988
            -0.000087184116    -0.000061794240    0.118848317355    0.011443561070    -0.000083570135    -0.000099720634    0.118522581415    -0.002336016735
            0.092875208542    -0.001909987354    -0.000083570199    -0.000099720463    0.093407201468    0.015072440779    -0.000034819702    -0.000094384859
            -0.000053919352    -0.000067635728    0.118522581382    -0.002336018390    -0.000034819709    -0.000094384878    0.120811850461    0.011961333811
0.650     0.094861504605    0.032319647878    -0.000096789976    -0.000047764153    0.091350268219    0.010519339207    -0.000062099320    -0.000056817844
            -0.000096790008    -0.000047764043    0.117311501602    0.016761106165    -0.000096369514    -0.000084346150    0.114945318741    -0.001388107754
            0.091350268201    0.010519339366    -0.000096369572    -0.000084345992    0.095482078425    0.031741627847    -0.000044228290    -0.000084179819
            -0.000062099409    -0.000056817587    0.114945328687    -0.001388112328    -0.000044228283    -0.000084179840    0.119363022263    0.016684017899
0.675     0.107470214797    0.048084618675    -0.000103985709    -0.000032301754    0.098365574592    0.023261885292    -0.000068325479    -0.000044998818
            -0.000103985728    -0.000032301660    0.120749641900    0.023393684771    -0.000106405572    -0.000067253996    0.114671309014    0.001786860123
            0.098365574592    0.023261885292    -0.000106405632    -0.000067253826    0.107624293847    0.047156879971    -0.000051615051    -0.000072969144
            -0.000068325551    -0.000044998558    0.114671309064    0.001786856921    -0.000051615058    -0.000072969154    0.122646501778    0.022728692419
0.700     0.128747741405    0.057593282104    -0.000108563160    -0.000015960010    0.113202762923    0.032079360486    -0.000072526260    -0.000032635013
            -0.000108563174    -0.000015959915    0.129474565265    0.028851697846    -0.000113469849    -0.000049092420    0.118519762380    0.005314158627
            0.113202767402    0.032079344680    -0.000113469899    -0.000049092253    0.128319664476    0.056561256133    -0.000056954856    -0.000061253131
            -0.000072526291    -0.000032634859    0.118519762389    0.005314158420    -0.000056954845    -0.000061253163    0.130992374620    0.027708389113
0.725     0.155030160865    0.057440290578    -0.000110556500    0.000000674877    0.133227039021    0.033712301445    -0.000074835120    -0.000020104613
            -0.000110556510    0.000000674974    0.142626571138    0.030715962351    -0.000117631823    -0.000030475306    0.126340148683    0.007123797294
            0.133227028430    0.033712343300    -0.000117631865    -0.000030475142    0.154017863434    0.056578483633    -0.000060440955    -0.000049393080
            -0.000074835167    -0.000020104360    0.126340148844    0.007123794427    -0.000060440959    -0.000049393101    0.143604377140    0.029290744155
0.750     0.181648329100    0.046357245042    -0.000110173947    0.000017176783    0.154768447805    0.026597057477    -0.000075449354    -0.000007668868
            -0.000110173952    0.000017176882    0.158347615479    0.027180981538    -0.000119111345    -0.000011878227    0.137067053875    0.005441401835
            0.154768433368    0.026597141485    -0.000119111373    -0.000011878041    0.180169416347    0.045913061674    -0.000062309999    -0.000037638867
            -0.000075449391    -0.000007668619    0.137067053866    0.005441402075    -0.000062310005    -0.000037638885    0.158720689775    0.025722540887
0.775     0.204089605567    0.025237773594    -0.000107704754    0.000033298626    0.174088407369    0.010944584511    -0.000074600234    0.000004618579
            -0.000107704754    0.000033298729    0.174183872002    0.017438225699    -0.000118218475    0.000006464670    0.148973820139    -0.000838522913
            0.174088407923    0.010944575700    -0.000118218496    0.000006464836    0.202355188344    0.025381881159    -0.000062824486    -0.000025968534
            -0.000074600261    0.000004618789    0.148973810099    -0.000838529851    -0.000062824495    -0.000025968551    0.173996550628    0.016200364665
0.800     0.218856828126    -0.003388618813    -0.000103339209    0.000048982251    0.188111853059    -0.011647455394    -0.000072357776    0.000016785179
