# GHz S RI R 45
0.000     0.020523895000    0.000000000000    -0.000009980503    0.000000000000    0.000512254180    -0.000000000000    -0.000007900368    0.000000000000
            -0.000009980620    0.000000000000    0.021417920000    0.000000000000    -0.000020561221    0.000000000000    0.000351640230    0.000000000000
            0.000512249680    -0.000000000000    -0.000020561050    0.000000000000    0.020491243000    0.000000000000    -0.000024166672    0.000000000000
            -0.000007900404    0.000000000000    0.000351641920    0.000000000000    -0.000024166856    0.000000000000    0.021236003000    0.000000000000
0.025     0.027225802066    0.008508494166    -0.000011954547    -0.000023497299    0.003734580491    0.010274158868    -0.000011872190    -0.000021876569
            -0.000011954617    -0.000023497285    0.026238942049    0.009547302143    -0.000019273628    -0.000025348504    0.002259865926    0.011587035387
            0.003734558992    0.010274210307    -0.000019273487    -0.000025348530    0.027148575467    0.008404740020    -0.000013806599    -0.000016522531
            -0.000011872225    -0.000021876561    0.002259744181    0.011586868608    -0.000013806755    -0.000016522496    0.026236785604    0.009619755019
0.050     0.036632799927    0.009965018569    -0.000029931795    -0.000047101285    0.012269660470    0.017296143185    -0.000028515340    -0.000041437811
            -0.000029931859    -0.000047101258    0.031245993046    0.014030371387    -0.000039609472    -0.000055276625    0.007356334181    0.021531080011
            0.012269647389    0.017296157369    -0.000039609234    -0.000055276720    0.036509763451    0.009799410818    -0.000027802754    -0.000047359932
            -0.000028515373    -0.000041437798    0.007356364349    0.021531067591    -0.000027802907    -0.000047359870    0.031238953110    0.014009861428
0.075     0.047208070518    0.005594761440    -0.000059659601    -0.000059178342    0.023903060658    0.018844496496    -0.000054570036    -0.000051107896
            -0.000059659662    -0.000059178299    0.035925093052    0.016088382646    -0.000076372140    -0.000069890222    0.014511989349    0.028833323400
            0.023903052180    0.018844504019    -0.000076372001    -0.000069890315    0.047039187476    0.005394619873    -0.000060461762    -0.000063315976
            -0.000054570047    -0.000051107888    0.014511995784    0.028833322401    -0.000060461908    -0.000063315885    0.035822302471    0.016060271619
0.100     0.056112888927    -0.005096417086    -0.000094330687    -0.000057719264    0.035677704341    0.013943100868    -0.000084649010    -0.000049139886
            -0.000094330697    -0.000057719248    0.039345784962    0.016118085489    -0.000119158250    -0.000066897126    0.022373711300    0.033113062022
            0.035677704299    0.013943103723    -0.000119158116    -0.000066897242    0.055914204894    -0.005303108266    -0.000099354784    -0.000062591412
            -0.000084649021    -0.000049139873    0.022373713015    0.033113062070    -0.000099354845    -0.000062591354    0.039148094591    0.016166540866
0.125     0.060178567778    -0.021145164903    -0.000128807525    -0.000042471211    0.044471519189    0.003028367858    -0.000114410293    -0.000035290186
            -0.000128807583    -0.000042471131    0.040576477721    0.015069466668    -0.000160940290    -0.000046236630    0.029634684097    0.034624227614
            0.044471520968    0.003028371176    -0.000160940167    -0.000046236807    0.059984354600    -0.021343620342    -0.000137587382    -0.000045507445
            -0.000114410309    -0.000035290169    0.029634686001    0.034624228617    -0.000137587451    -0.000045507361    0.040337528893    0.015260263054
0.150     0.057113551709    -0.040031847566    -0.000158930236    -0.000014616980    0.047630223339    -0.012156424945    -0.000140310786    -0.000010598637
            -0.000158930238    -0.000014616953    0.039438741998    0.014219522793    -0.000196196146    -0.000009946867    0.035202987605    0.034127732635
            0.047630225914    -0.012156422946    -0.000196196032    -0.000009947136    0.056957436077    -0.040220089979    -0.000170092599    -0.000014088679
            -0.000140310787    -0.000010598612    0.035202979372    0.034127735381    -0.000170092636    -0.000014088592    0.039228531247    0.014580654138
0.175     0.045625619308    -0.058409105949    -0.000181321272    0.000024019608    0.043444884208    -0.028798401244    -0.000159486198    0.000023395001
            -0.000181321283    0.000024019674    0.036151406837    0.014867850852    -0.000220625779    0.000039008057    0.038486424847    0.032816368068
            0.043444887383    -0.028798400074    -0.000220625737    0.000039007891    0.045546991888    -0.058612191152    -0.000192990101    0.000028870939
            -0.000159486222    0.000023395118    0.038486426941    0.032816368693    -0.000192990145    0.000028871118    0.036056604336    0.015382862926
0.200     0.026054198214    -0.072501269206    -0.000193296936    0.000071344352    0.031548123429    -0.043512201300    -0.000169638726    0.000064946476
            -0.000193296936    0.000071344467    0.031564974866    0.018183379743    -0.000231264861    0.000097324102    0.039523506561    0.032024773987
            0.031548126122    -0.043512201818    -0.000231264853    0.000097324146    0.026076020702    -0.072770380382    -0.000203669254    0.000080415415
            -0.000169638718    0.000064946609    0.039523499977    0.032024778937    -0.000203669263    0.000080415500    0.031655693885    0.018789929355
0.225     0.000382950596    -0.078840955961    -0.000192274484    0.000124816661    0.013066036475    -0.052935007893    -0.000168477039    0.000111953002
            -0.000192274474    0.000124816750    0.027080482940    0.024866245574    -0.000225595794    0.000161322248    0.038987597971    0.032919952310
            0.013066039726    -0.052935009150    -0.000225595840    0.000161321805    0.000497279938    -0.079240370653    -0.000199878103    0.000137298104
            -0.000168477020    0.000111953031    0.038987600649    0.032919952240    -0.000199878089    0.000137298197    0.027388745658    0.025469494545
0.250     -0.027973178481    -0.074968763595    -0.000175897448    0.000181200288    -0.009474566280    -0.054367803822    -0.000153824901    0.000161662294
            -0.000175897448    0.000181200288    0.024384974845    0.034917469173    -0.000201663099    0.000226910936    0.038054889433    0.036222924350
            -0.009474564726    -0.054367806123    -0.000201663099    0.000226910936    -0.027809286455    -0.075558521260    -0.000179789448    0.000195957666
            -0.000153824879    0.000161662384    0.038054893503    0.036222924426    -0.000179789442    0.000195957659    0.024890430537    0.035414660784
0.275     -0.054683697830    -0.059980199009    -0.000142375612    0.000235991649    -0.032507909111    -0.046332862544    -0.000123937126    0.000210119608
            -0.000142375607    0.000235991640    0.025091800658    0.047522219040    -0.000158183143    0.000288873916    0.038138810137    0.042002839303
            -0.032507909686    -0.046332863362    -0.000158183380    0.000288873512    -0.054544949525    -0.060798063763    -0.000142098606    0.000251753440
            -0.000123937132    0.000210119616    0.038138813742    0.042002837381    -0.000142098606    0.000251753440    0.025723316826    0.047828816118
0.300     -0.075222267691    -0.034854129415    -0.000091355928    0.000283615966    -0.052023765794    -0.028957008009    -0.000078344426    0.000252301266
            -0.000091355937    0.000283615995    0.030349541074    0.061155980493    -0.000095389819    0.000341152723    0.040555610022    0.049633501400
            -0.052023767541    -0.028957008981    -0.000095389754    0.000341152720    -0.075203861746    -0.035900342163    -0.000086816943    0.000299196956
            -0.000078344432    0.000252301285    0.040555614752    0.049633500117    -0.000086816960    0.000299197014    0.030999442781    0.061230768252
0.325     -0.085680995805    -0.002414553498    -0.000024738289    0.000317937957    -0.064281312755    -0.004053924202    -0.000018646326    0.000282579158
            -0.000024738266    0.000317937949    0.040534269082    0.073850557016    -0.000015844132    0.000377188674    0.046193138629    0.057911309172
            -0.064281313753    -0.004053924265    -0.000015844496    0.000377188388    -0.085879634353    -0.003642637663    -0.000016105494    0.000332214949
            -0.000018646305    0.000282579139    0.046193142672    0.057911305947    -0.000016105493    0.000332214929    0.041083095738    0.073709332485
0.350     -0.083527251393    0.033046901904    0.000053057880    0.000333599350    -0.066519616001    0.025112930252    0.000051180415    0.000295975750
            0.000053057922    0.000333599353    0.055116036720    0.083614039575    0.000075291388    0.000391367295    0.055297310428    0.065335131988
            -0.066519621319    0.025112918995    0.000075291431    0.000391367297    -0.084018719174    0.031730014984    0.000065423162    0.000345514264
            0.000051180453    0.000295975754    0.055297314343    0.065335127365    0.000065423122    0.000345514251    0.055461780513    0.083329675009
0.375     -0.068104850482    0.066456562881    0.000135520645    0.000327199135    -0.057476059181    0.054355751760    0.000125162732    0.000289298824
            0.000135520672    0.000327199103    0.072735425409    0.088838239003    0.000170631170    0.000380190978    0.067408646855    0.070432880929
            -0.057476069394    0.054355742416    0.000170631182    0.000380191005    -0.068923596368    0.065179810332    0.000150990366    0.000335715495
            0.000125162747    0.000289298818    0.067408648623    0.070432877854    0.000150990344    0.000335715494    0.072818906953    0.088526787199
0.400     -0.040814183239    0.092791288882    0.000215295089    0.000298191759    -0.037642347808    0.079260283388    0.000196482078    0.000262020428
            0.000215295108    0.000298191709    0.091477187793    0.088634978092    0.000261924896    0.000343299066    0.081480583812    0.072075724792
            -0.037642348237    0.079260284291    0.000261923993    0.000343298988    -0.041938433122    0.091701172517    0.000232922666    0.000302371500
            0.000196482096    0.000262020452    0.081480587586    0.072075720526    0.000232922635    0.000302371537    0.091297680501    0.088431684894
0.425     -0.004911447276    0.107883069444    0.000285553788    0.000248867900    -0.009188854558    0.095887492329    0.000258784149    0.000216298392
            0.000285553814    0.000248867870    0.109236064482    0.082978267634    0.000341487167    0.000283474432    0.096090434954    0.069670885176
            -0.009188856422    0.095887494160    0.000341487205    0.000283474434    -0.006256522627    0.107120424950    0.000304002499    0.000248026859
            0.000258784148    0.000216298361    0.096090429290    0.069670875952    0.000304002987    0.000248027274    0.108854414566    0.083009713170
0.450     0.034974583108    0.109064091435    0.000341230895    0.000183668943    0.024362074876    0.101377492245    0.000307362608    0.000156349204
            0.000341230885    0.000183668899    0.124100412401    0.072684849340    0.000403629980    0.000205933998    0.109709303058    0.063250604973
            0.024362073106    0.101377492670    0.000403630007    0.000205934012    0.033553683566    0.108739875134    0.000358868301    0.000177587370
            0.000307362632    0.000156349223    0.109709305265    0.063250601143    0.000358868304    0.000177587410    0.123628712826    0.073042717025
0.475     0.073507016154    0.095541053249    0.000379552912    0.000108024819    0.058639650625    0.094339434760    0.000339696923    0.000087353235
            0.000379552926    0.000108024808    0.134648947392    0.059235676019    0.000445269739    0.000117060329    0.120938151735    0.053438408143
            0.058639650625    0.094339434760    0.000445269755    0.000117060308    0.072208250967    0.095713965458    0.000394634200    0.000097129287
            0.000339697339    0.000087353025    0.120938153600    0.053438403921    0.000394634608    0.000097129095    0.134231893714    0.059960036647
0.500     0.105361063558    0.068518043921    0.000400013266    0.000027191175    0.089005125521    0.075054794586    0.000355461674    0.000014332863
            0.000400013296    0.000027191172    0.140157250460    0.044530332501    0.000465996853    0.000023053723    0.128723791643    0.041359978199
            0.089005125521    0.075054794586    0.000465996088    0.000023054228    0.104426186853    0.069167780959    0.000411016120    0.000012591334
            0.000355461714    0.000014332865    0.128723791643    0.041359978199    0.000411016138    0.000012591379    0.139948827961    0.045601614026
0.525     0.125923985869    0.031084543810    0.000403758872    -0.000054612799    0.111140123099    0.045475656018    0.000355962725    -0.000058692566
            0.000403759208    -0.000054613147    0.140682562425    0.030591798786    0.000467369617    -0.000071138394    0.132516164659    0.028482527736
            0.111140080253    0.045475681513    0.000467369605    -0.000071138411    0.125609317482    0.032056605000    0.000409684431    -0.000071279140
            0.000355962710    -0.000058692593    0.132516165156    0.028482525423    0.000409684406    -0.000071279112    0.140830894773    0.031934866040
0.550     0.132002993976    -0.012135282736    0.000392817427    -0.000134757456    0.121667408253    0.009033841625    0.000343371729    -0.000129291055
            0.000392817472    -0.000134757479    0.137067031167    0.019280124981    0.000451878402    -0.000162471534    0.132395603684    0.016405769849
            0.121667408095    0.009033843749    0.000451878362    -0.000162471555    0.132437250962    -0.011169460533    0.000393262540    -0.000151616860
            0.000343371720    -0.000129291051    0.132395594017    0.016405766540    0.000393262540    -0.000151616860    0.137706441385    0.020749319744
0.575     0.122250941248    -0.055744012171    0.000368874515    -0.000212420747    0.118584947757    -0.029854563785    0.000319548452    -0.000196794387
            0.000368874504    -0.000212420766    0.130837651079    0.012004390195    0.000421737665    -0.000249749781    0.129072907457    0.006601974733
            0.118584948278    -0.029854561716    0.000421737665    -0.000249749801    0.123322484226    -0.055070013226    0.000364149840    -0.000227391435
            0.000319548452    -0.000196794387    0.129072897597    0.006601971744    0.000364149844    -0.000227391428    0.132024531471    0.013366741346
0.600     0.097112192903    -0.094093082243    0.000332018260    -0.000287537144    0.101445438094    -0.066189906783    0.000284894408    -0.000261361685
            0.000332018217    -0.000287537147    0.124025448755    0.009462830200    0.000377835564    -0.000332952302    0.123859403186    0.000197093218
            0.101445447624    -0.066189910477    0.000377835588    -0.000332952335    0.098707259033    -0.093854156884    0.000323520988    -0.000298833474
            0.000284894408    -0.000261361685    0.123859403191    0.000197090378    0.000323520988    -0.000298833474    0.125682659119    0.010486645348
0.625     0.059101446932    -0.121746811730    0.000280872836    -0.000359378115    0.071689850085    -0.094864450992    0.000238342429    -0.000322717709
            0.000280872811    -0.000359378121    0.118848317355    0.011443561070    0.000319178318    -0.000411920336    0.118522581415    -0.002336016735
            0.071689859426    -0.094864456467    0.000319178315    -0.000411920376    0.061129748907    -0.122109222261    0.000270681751    -0.000366233903
            0.000238342435    -0.000322717742    0.118522581382    -0.002336018390    0.000270681783    -0.000366233892    0.120811850461    0.011961333811
0.650     0.012736489899    -0.134438731330    0.000213172019    -0.000425603194    0.032682157198    -0.111511371855    0.000177797486    -0.000379154101
            0.000213172039    -0.000425603252    0.117311501602    0.016761106165    0.000243278686    -0.000484794565    0.114945318741    -0.001388107754
            0.032682163037    -0.111511370144    0.000243278639    -0.000484794555    0.015031105135    -0.135576479914    0.000203317393    -0.000428378358
            0.000177797486    -0.000379154101    0.114945328687    -0.001388112328    0.000203317232    -0.000428379254    0.119363022263    0.016684017899
0.675     -0.036052641344    -0.129820971938    0.000126989561    -0.000481411798    -0.010686695751    -0.113237965863    0.000101281118    -0.000426625275
            0.000126989544    -0.000481411834    0.120749641900    0.023393684771    0.000147636961    -0.000546852830    0.114671309014    0.001786860123
            -0.010686693775    -0.113237966049    0.000147636917    -0.000546852821    -0.033745078896    -0.131846851646    0.000118882169    -0.000481332774
            0.000101281111    -0.000426625277    0.114671309064    0.001786856921    0.000118882016    -0.000481333203    0.122646501778    0.022728692419
0.700     -0.080755210201    -0.107928983496    0.000022609042    -0.000519770477    -0.052662129109    -0.099183291690    0.000008735865    -0.000458872322
            0.000022609036    -0.000519770537    0.129474565265    0.028851697846    0.000031940957    -0.000590598269    0.118519762380    0.005314158627
            -0.052662133798    -0.099183300522    0.000031940934    -0.000590598230    -0.078737025316    -0.110850127085    0.000016707546    -0.000518414683
            0.000008735832    -0.000458872273    0.118519762389    0.005314158420    0.000016707071    -0.000518415419    0.130992374620    0.027708389113
0.725     -0.115256398405    -0.071276067875    -0.000095965241    -0.000532905167    -0.087488038179    -0.070742035128    -0.000096478722    -0.000468771822
            -0.000095965232    -0.000532905117    0.142626571138    0.030715962351    -0.000100065380    -0.000607328231    0.126340148683    0.007123797294
            -0.087488045955    -0.070742041415    -0.000100065089    -0.000607327914    -0.113828671486    -0.074977047908    -0.000100137732    -0.000531611070
            -0.000096478722    -0.000468771822    0.126340148844    0.007123794427    -0.000100137730    -0.000531611060    0.143604377140    0.029290744155
0.750     -0.134810797056    -0.024529341698    -0.000220745766    -0.000514700518    -0.110332449904    -0.031414764447    -0.000207237311    -0.000450592952
            -0.000220745786    -0.000514700564    0.158347615479    0.027180981538    -0.000240049564    -0.000589803935    0.137067053875    0.005441401835
            -0.110332449904    -0.031414764447    -0.000240049549    -0.000589803898    -0.134220148589    -0.028780554808    -0.000224230874    -0.000514096316
            -0.000207237294    -0.000450592915    0.137067053866    0.005441402075    -0.000224230764    -0.000514096309    0.158720689775    0.025722540887
0.775     -0.136781040489    0.026211676955    -0.000341051506    -0.000462791879    -0.118036079058    0.013744054096    -0.000313803637    -0.000402018866
            -0.000341051500    -0.000462791871    0.174183872002    0.017438225699    -0.000376363497    -0.000534748709    0.148973820139    -0.000838522913
            -0.118036088990    0.013744055253    -0.000376363086    -0.000534748522    -0.137176918073    0.021724799627    -0.000344913072    -0.000462652795
            -0.000313803655    -0.000402018889    0.148973810099    -0.000838529851    -0.000344913078    -0.000462652803    0.173996550628    0.016200364665
