# GHz S RI R 45
0.000     0.021451521000    0.000000000000    0.978095420000    -0.000000000000    0.000591191920    -0.000000000000    -0.000730624240    0.000000000000
            0.978095420000    -0.000000000000    0.021417920000    0.000000000000    -0.000730763110    0.000000000000    0.000351640230    0.000000000000
            0.000591161440    -0.000000000000    -0.000730798240    0.000000000000    0.021426517000    0.000000000000    0.978156400000    -0.000000000000
            -0.000730659390    0.000000000000    0.000351641920    0.000000000000    0.978156400000    -0.000000000000    0.021236003000    0.000000000000
0.025     0.028423492299    0.009174597490    0.951122691859    -0.212336526451    0.003955741634    0.011099250660    -0.001290211143    -0.002131095181
            0.951122691859    -0.212336526451    0.026238942049    0.009547302143    -0.001286626644    -0.002130077954    0.002259865926    0.011587035387
            0.003955694957    0.011099310821    -0.001286661728    -0.002130133518    0.028352100138    0.009104520174    0.951236072488    -0.212031135277
            -0.001290347453    -0.002131159129    0.002259744181    0.011586868608    0.951236072488    -0.212031135277    0.026236785604    0.009619755019
0.050     0.038055002095    0.010900040897    0.880939388718    -0.410076239475    0.012852800422    0.018696792761    -0.003002325146    -0.003734276849
            0.880939388718    -0.410076239475    0.031245993046    0.014030371387    -0.002998054699    -0.003735160849    0.007356334181    0.021531080011
            0.012852767187    0.018696824102    -0.002998088032    -0.003735155637    0.037974064023    0.010787725183    0.881253699622    -0.409492408113
            -0.003002359487    -0.003734272849    0.007356364349    0.021531067591    0.881253699622    -0.409492408113    0.031238953110    0.014009861428
0.075     0.048600630449    0.006485696621    0.770880858499    -0.587349422904    0.024800625113    0.020424605118    -0.005320264673    -0.004339606076
            0.770880858499    -0.587349422904    0.035925093052    0.016088382646    -0.005315060597    -0.004340308545    0.014511989349    0.028833323400
            0.024800603783    0.020424632591    -0.005315087496    -0.004340290308    0.048522679310    0.006331655650    0.771516857192    -0.586583546116
            -0.005320291649    -0.004339587875    0.014511995784    0.028833322401    0.771516857192    -0.586583546116    0.035822302471    0.016060271619
0.100     0.056958544878    -0.004419791521    0.626258691947    -0.736332988910    0.036530672379    0.015367716776    -0.007760485094    -0.003985391069
            0.626258691947    -0.736332988910    0.039345784962    0.016118085489    -0.007751045276    -0.003986480815    0.022373711300    0.033113062022
            0.036530667332    0.015367741668    -0.007751068780    -0.003986456980    0.056896958374    -0.004619519719    0.627294471555    -0.735510684548
            -0.007760509414    -0.003985369325    0.022373713015    0.033113062070    0.627294471555    -0.735510684548    0.039148094591    0.016166540866
0.125     0.059790470370    -0.020521967994    0.453839039034    -0.850604535809    0.044676720182    0.004212213968    -0.010067416476    -0.002868998651
            0.453839039034    -0.850604535809    0.040576477721    0.015069466668    -0.010044216164    -0.002884405586    0.029634684097    0.034624227614
            0.044676723384    0.004212243928    -0.010044237766    -0.002884373837    0.059751894685    -0.020783078303    0.455311349273    -0.849868660367
            -0.010067433644    -0.002868971247    0.029634686001    0.034624228617    0.455311349273    -0.849868660367    0.040337528893    0.015260263054
0.150     0.054801889359    -0.038889537967    0.261830267721    -0.925315610373    0.046492046299    -0.010914377615    -0.012164668239    -0.001101595796
            0.261830267721    -0.925315610373    0.039438741998    0.014219522793    -0.012131548223    -0.001142857542    0.035202987605    0.034127732635
            0.046492057855    -0.010914354643    -0.012131561569    -0.001142822485    0.054799136981    -0.039226922907    0.263734236348    -0.924819579555
            -0.012164678706    -0.001101568917    0.035202979372    0.034127735381    0.263734236348    -0.924819579555    0.039228531247    0.014580654138
0.175     0.040968453898    -0.055721115464    0.058965843285    -0.957434032973    0.040394528178    -0.026761329015    -0.014046193528    0.001303035867
            0.058965843285    -0.957434032973    0.036151406837    0.014867850852    -0.014014387509    0.001224995858    0.038486424847    0.032816368068
            0.040394545891    -0.026761311331    -0.014014393267    0.001225033331    0.040997466149    -0.056168730850    0.061253404016    -0.957328903128
            -0.014046200074    0.001303073564    0.038486426941    0.032816368693    0.061253404016    -0.957328903128    0.036056604336    0.015382862926
0.200     0.019135304348    -0.066922742137    -0.145581675344    -0.945684895974    0.026385778191    -0.039563518145    -0.015640950771    0.004481274842
            -0.145581675344    -0.945684895974    0.031564974866    0.018183379743    -0.015628561933    0.004361244239    0.039523506561    0.032024773987
            0.026385801126    -0.039563507657    -0.015628561825    0.004361270670    0.019170056968    -0.067518214476    -0.143001964292    -0.946112486832
            -0.015640950037    0.004481310079    0.039523499977    0.032024778937    -0.143001964292    -0.946112486832    0.031655693885    0.018789929355
0.225     -0.008017781267    -0.068955642272    -0.342455664726    -0.890661283541    0.006181488244    -0.045763534238    -0.016667473327    0.008620791344
            -0.342455664726    -0.890661283541    0.027080482940    0.024866245574    -0.016695371621    0.008462986361    0.038987597971    0.032919952310
            0.006181522857    -0.045763531581    -0.016695363401    0.008463022483    -0.008027185476    -0.069727299782    -0.339719010951    -0.891741259120
            -0.016667466275    0.008620824569    0.038987600649    0.032919952240    -0.339719010951    -0.891741259120    0.027388745658    0.025469494545
0.250     -0.036307726731    -0.059649915114    -0.522481078193    -0.794975622478    -0.016974077047    -0.042779890323    -0.016598516027    0.013766754328
            -0.522481078193    -0.794975622478    0.024384974845    0.034917469173    -0.016684314873    0.013585182236    0.038054889433    0.036222924350
            -0.016974037870    -0.042779900488    -0.016684300512    0.013585214127    -0.036430955048    -0.060603327420    -0.519765322375    -0.796793006620
            -0.016598499696    0.013766789682    0.038054893503    0.036222924426    -0.519765322375    -0.796793006620    0.024890430537    0.035414660784
0.275     -0.060756629264    -0.038806690906    -0.677159061836    -0.663302369912    -0.038840550135    -0.029645485626    -0.014774520658    0.019620825505
            -0.677159061836    -0.663302369912    0.025091800658    0.047522219040    -0.014927755541    0.019435512240    0.038138810137    0.042002839303
            -0.038840540987    -0.029645489372    -0.014927740062    0.019435534217    -0.061071455346    -0.039912696851    -0.674670249460    -0.665894277998
            -0.014774499879    0.019620854921    0.038138813742    0.042002837381    -0.674670249460    -0.665894277998    0.025723316826    0.047828816118
0.300     -0.076548007288    -0.008465421529    -0.799254427855    -0.502252374494    -0.055002717299    -0.007367256524    -0.010656145981    0.025453857152
            -0.799254427855    -0.502252374494    0.030349541074    0.061155980493    -0.010876682026    0.025284132490    0.040555610022    0.049633501400
            -0.055002715317    -0.007367256258    -0.010876651859    0.025284159619    -0.077123623421    -0.009655072488    -0.797216767418    -0.505588819740
            -0.010656115461    0.025453884022    0.040555614752    0.049633500117    -0.797216767418    -0.505588819740    0.030999442781    0.061230768252
0.325     -0.080035606886    0.027336502220    -0.883343391826    -0.319980342168    -0.061787771679    0.021155092237    -0.004107004742    0.030200311179
            -0.883343391826    -0.319980342168    0.040534269082    0.073850557016    -0.004388981144    0.030059071170    0.046193138629    0.057911309172
            -0.061787769787    0.021155091589    -0.004388948685    0.030059091069    -0.080911948872    0.026168113939    -0.881975151531    -0.323966528454
            -0.004106972637    0.030200331692    0.046193142672    0.057911305947    -0.881975151531    -0.323966528454    0.041083095738    0.073709332485
0.350     -0.069561639365    0.063255975098    -0.926212761902    -0.125577868778    -0.057062899696    0.051645592528    0.004423742576    0.032738677616
            -0.926212771812    -0.125577870121    0.055116036720    0.083614039575    0.004084684311    0.032629269967    0.055297310428    0.065335131988
            -0.057062889199    0.051645601145    0.004084719577    0.032629283693    -0.070731983773    0.062236025490    -0.925701307810    -0.130053526739
            0.004423777690    0.032738692044    0.055297314343    0.065335127365    -0.925701307810    -0.130053526739    0.055461780513    0.083329675009
0.375     -0.045826100189    0.093643420737    -0.926942891245    0.071630327098    -0.040663682481    0.079271866532    0.013923049999    0.032240731144
            -0.926942891245    0.071630327098    0.072735425409    0.088838239003    0.013520735333    0.032160221641    0.067408646855    0.070432880929
            -0.040663696916    0.079271826534    0.013520763812    0.032160228109    -0.047227495857    0.092899759382    -0.927426221973    0.066874269347
            0.013923083250    0.032240738570    0.067408648623    0.070432877854    -0.927426221973    0.066874269347    0.072818906953    0.088526787199
0.400     -0.011774411947    0.113576718918    -0.886737259022    0.262742329643    -0.014404549964    0.099541748504    0.023050097716    0.028459692855
            -0.886737259022    0.262742329643    0.091477187793    0.088634978092    0.022561039965    0.028407239064    0.081480583812    0.072075724792
            -0.014404548226    0.099541748755    0.022561076454    0.028407238178    -0.013288254522    0.113213694998    -0.888294630631    0.257945846699
            0.023050135041    0.028459692222    0.081480587586    0.072075720526    -0.888294630631    0.257945846699    0.091297680501    0.088431684894
0.425     0.027950073461    0.119672213154    -0.808536481770    0.439729723845    0.018296571198    0.109031646765    0.030496646177    0.021825545261
            -0.808536481770    0.439729723845    0.109236064482    0.082978267634    0.029877322669    0.021814964442    0.096090434954    0.069670885176
            0.018296573101    0.109031646446    0.029877354905    0.021814957600    0.026487868977    0.119748847799    -0.811185965823    0.435144238647
            0.030496677348    0.021825537789    0.096090429290    0.069670875952    -0.811185965823    0.435144238647    0.108854414566    0.083009713170
0.450     0.067772324255    0.110566064028    -0.696583331751    0.595675510297    0.052994479623    0.105864900104    0.035344795835    0.013322157933
            -0.696583331751    0.595675510297    0.124100412401    0.072684849340    0.034534516206    0.013398496231    0.109709303058    0.063250604973
            0.052994392573    0.105864887766    0.034534547694    0.013398486950    0.066554962544    0.111079680004    -0.700283907170    0.591545939794
            0.035344827140    0.013322148597    0.109709305265    0.063250601143    -0.700283907170    0.591545939794    0.123628712826    0.073042717025
0.475     0.101993721449    0.087034942167    -0.556043586003    0.724795206020    0.084843810525    0.089899577184    0.037286835738    0.004182186250
            -0.556043586003    0.724795206020    0.134648947392    0.059235676019    0.036220907121    0.004444636464    0.120938151735    0.053438408143
            0.084843805230    0.089899568431    0.036220945599    0.004444610256    0.101224437103    0.087910203859    -0.560708551639    0.721351856849
            0.037286873936    0.004182159695    0.120938153600    0.053438403921    -0.560708551639    0.721351856849    0.134231893714    0.059960036647
0.500     0.125522702399    0.051874260165    -0.392773867424    0.822376115900    0.109196066661    0.062741899683    0.036628982013    -0.004495427591
            -0.392773867424    0.822376115900    0.140157250460    0.044530332501    0.035289473646    -0.003860915797    0.128723791643    0.041359978199
            0.109196066661    0.062741899683    0.035289473646    -0.003860915797    0.125397352660    0.052948468970    -0.398273237087    0.819828597673
            0.036628982013    -0.004495427591    0.128723791643    0.041359978199    -0.398273237087    0.819828597673    0.139948827961    0.045601614026
0.525     0.134509879090    0.009605181717    -0.213210208605    0.884696187617    0.122145468072    0.027618690767    0.034012284970    -0.012024984614
            -0.213210208605    0.884696187617    0.140682562425    0.030591798786    0.032594204333    -0.010769945962    0.132516164659    0.028482527736
            0.122145411703    0.027618758691    0.032594206599    -0.010769942294    0.135173485223    0.010591652995    -0.219381020373    0.883233095792
            0.034012337738    -0.012025057364    0.132516165156    0.028482525423    -0.219381020373    0.883233095792    0.140830894773    0.031934866040
0.550     0.126970620460    -0.034016115024    -0.024375565122    0.909030924666    0.121113369623    -0.010903109124    0.030129402392    -0.017972534708
            -0.024375565122    0.909030924666    0.137067031167    0.019280124981    0.029177596613    -0.016164289477    0.132395603684    0.016405769849
            0.121113359549    -0.010903109496    0.029177633385    -0.016164373740    0.128368783027    -0.033515497816    -0.031026977204    0.908815263324
            0.030129401533    -0.017972534196    0.132395594017    0.016405766540    -0.031026977204    0.908815263324    0.137706441385    0.020749319744
0.575     0.103089352836    -0.072829176010    0.166074266934    0.893773025374    0.105254738633    -0.047464476100    0.026122762130    -0.022246916178
            0.166074266934    0.893773025374    0.130837651079    0.012004390195    0.025881859537    -0.020519531917    0.129072907457    0.006601974733
            0.105254737805    -0.047464477937    0.025881879359    -0.020519621198    0.104930567815    -0.073069377292    0.159171373156    0.894967434237
            0.026122771662    -0.022246962052    0.129072897597    0.006601971744    0.159171373156    0.894967434237    0.132024531471    0.013366741346
0.600     0.065183883738    -0.100821322362    0.349898773237    0.838754124965    0.075710792574    -0.076401341702    0.022813599051    -0.025959209548
            0.349898773237    0.838754124965    0.124025448755    0.009462830200    0.022996927511    -0.024665292586    0.123859403186    0.000197093218
            0.075710819090    -0.076401259112    0.022996929973    -0.024665383262    0.067210758401    -0.101883400517    0.343045419325    0.841487418178
            0.022813600651    -0.025959300001    0.123859403191    0.000197090378    0.343045423100    0.841487427438    0.125682659119    0.010486645348
0.625     0.017980440988    -0.112878020399    0.518518523874    0.745611226237    0.035964199803    -0.092519008584    0.019682425359    -0.030283200859
            0.518518523874    0.745611226237    0.118848317355    0.011443561070    0.020078492468    -0.029396647372    0.118522581415    -0.002336016735
            0.035964254548    -0.092518939023    0.020078485889    -0.029396690618    0.019954762352    -0.114832832571    0.512081060741    0.749934468242
            0.019682416370    -0.030283244866    0.118522581382    -0.002336018390    0.512081047652    0.749934477179    0.120811850461    0.011961333811
0.650     -0.031770296449    -0.106029493969    0.663520550765    0.618108745081    -0.008382332668    -0.092275801706    0.015569275361    -0.035574893812
            0.663520558082    0.618108751897    0.117311501602    0.016761106165    0.016092593319    -0.035025083714    0.114945318741    -0.001388107754
            -0.008382333465    -0.092275792597    0.016092561353    -0.035025168833    -0.030144111444    -0.108889558687    0.657899978862    0.623975675698
            0.015569241414    -0.035574978530    0.114945328687    -0.001388112328    0.657899978862    0.623975675698    0.119363022263    0.016684017899
0.675     -0.076385386713    -0.080303943919    0.777378922542    0.462262555016    -0.050479241784    -0.074704998110    0.009272352897    -0.041300000995
            0.777378922542    0.462262555016    0.120749641900    0.023393684771    0.009860993650    -0.041049356341    0.114671309014    0.001786860123
            -0.050479196671    -0.074704987559    0.009860970566    -0.041049392740    -0.075426038159    -0.083958746498    0.772979761528    0.469508748356
            0.009272329413    -0.041300038039    0.114671309064    0.001786856921    0.772979761528    0.469508748356    0.122646501778    0.022728692419
0.700     -0.108695670510    -0.038986310209    0.854312596086    0.286061051786    -0.083532943760    -0.041850899500    0.000060855782    -0.046135430864
            0.854312605568    0.286061054961    0.129474565265    0.028851697846    0.000641248596    -0.046157689922    0.118519762380    0.005314158627
            -0.083532943760    -0.041850899500    0.000641247805    -0.046157690933    -0.108676011023    -0.043189685344    0.851498305223    0.294402018248
            0.000060854977    -0.046135430865    0.118519762389    0.005314158420    0.851498305223    0.294402018248    0.130992374620    0.027708389113
0.725     -0.123501584470    0.011894656413    0.890944877733    0.098782324751    -0.102199544914    0.001545495874    -0.011891333892    -0.048358256197
            0.890944877733    0.098782324751    0.142626571138    0.030715962351    -0.011398459836    -0.048611587141    0.126340148683    0.007123797294
            -0.102199534915    0.001545495723    -0.011398459836    -0.048611587141    -0.124585921335    0.007495755251    0.889995724115    0.107821570598
            -0.011891375771    -0.048358280912    0.126340148844    0.007123794427    0.889995724115    0.107821570598    0.143604377140    0.029290744155
0.750     -0.118603738354    0.064770028654    0.886577913380    -0.089987509988    -0.103649206934    0.049038208467    -0.025384203813    -0.046460403989
            0.886577913380    -0.089987509988    0.158347615479    0.027180981538    -0.025044948683    -0.046877488507    0.137067053875    0.005441401835
            -0.103649151737    0.049038138073    -0.025044938616    -0.046877489351    -0.120806720690    0.060577617843    0.887650378763    -0.080710308009
            -0.025384201896    -0.046460400478    0.137067053866    0.005441402075    0.887650378623    -0.080710309558    0.158720689775    0.025722540887
0.775     -0.095055899113    0.112046141651    0.842963505797    -0.271258556129    -0.087918653161    0.093817332645    -0.038466814586    -0.039723019552
            0.842963505797    -0.271258556129    0.174183872002    0.017438225699    -0.038315485766    -0.040217313549    0.148973820139    -0.000838522913
            -0.087918653161    0.093817332645    -0.038315485766    -0.040217313549    -0.098235694803    0.108444189598    0.846084941537    -0.262229889009
            -0.038466901426    -0.039723039861    0.148973810099    -0.000838529851    0.846084941537    -0.262229889009    0.173996550628    0.016200364665
