# GHz S RI R 45
0.000     0.020502382000    0.000000000000    -0.000000786888    0.000000000000    0.000560917280    -0.000000000000    -0.000007604220    0.000000000000
            -0.000000786772    0.000000000000    0.021417920000    0.000000000000    0.000000841714    -0.000000000000    0.000351640230    0.000000000000
            0.000560937710    -0.000000000000    0.000000841746    -0.000000000000    0.020473078000    0.000000000000    0.000002824937    -0.000000000000
            -0.000007604111    0.000000000000    0.000351641920    0.000000000000    0.000002824919    -0.000000000000    0.021236003000    0.000000000000
0.025     0.026849876425    0.007698373240    -0.000000573131    -0.000001713108    0.003399639900    0.009431216544    0.000004191109    0.000004777029
            -0.000000572980    -0.000001713084    0.026238942049    0.009547302143    0.000005488848    0.000001170772    0.002259865926    0.011587035387
            0.003399641942    0.009431258328    0.000005488876    0.000001170767    0.026787163762    0.007670584761    0.000002837404    -0.000001384075
            0.000004191218    0.000004777023    0.002259744181    0.011586868608    0.000002837387    -0.000001384072    0.026236785604    0.009619755019
0.050     0.035445142390    0.008795375799    -0.000002299301    -0.000003602078    0.011057482065    0.016032862034    0.000006075098    -0.000002779090
            -0.000002299197    -0.000003602124    0.031245993046    0.014030371387    0.000006171552    -0.000002555680    0.007356334181    0.021531080011
            0.011057487966    0.016032861609    0.000006171580    -0.000002555691    0.035376669366    0.008772805165    0.000002018005    -0.000002829843
            0.000006075201    -0.000002779133    0.007356364349    0.021531067591    0.000002017988    -0.000002829835    0.031238953110    0.014009861428
0.075     0.045002788347    0.004599508263    -0.000004914426    -0.000004211837    0.021563679070    0.017757460020    0.000002894322    -0.000007378618
            -0.000004914340    -0.000004211898    0.035925093052    0.016088382646    0.000004718286    -0.000005179083    0.014511989349    0.028833323400
            0.021563683578    0.017757446680    0.000004718313    -0.000005179100    0.044948673163    0.004590534687    0.000000723071    -0.000003796429
            0.000002894404    -0.000007378679    0.014511995784    0.028833322401    0.000000723060    -0.000003796421    0.035822302471    0.016060271619
0.100     0.052982488702    -0.005290030247    -0.000007715981    -0.000003452561    0.032295110609    0.013724861684    -0.000001756310    -0.000009237387
            -0.000007715905    -0.000003452643    0.039345784962    0.016118085489    0.000002544686    -0.000006819628    0.022373711300    0.033113062022
            0.032295115715    0.013724844556    0.000002544710    -0.000006819653    0.052970438659    -0.005281453774    -0.000000808195    -0.000004278187
            -0.000001756238    -0.000009237465    0.022373713015    0.033113062070    -0.000000808208    -0.000004278174    0.039148094591    0.016166540866
0.125     0.056559782008    -0.019996986397    -0.000010127358    -0.000001493363    0.040490898749    0.004289993246    -0.000006490790    -0.000008787945
            -0.000010127291    -0.000001493464    0.040576477721    0.015069466668    0.000000047715    -0.000007630230    0.029634684097    0.034624227614
            0.040490897690    0.004289974768    0.000000047734    -0.000007630254    0.056627378216    -0.019969416819    -0.000002459350    -0.000004312845
            -0.000006490733    -0.000008788029    0.029634686001    0.034624228617    -0.000002459361    -0.000004312830    0.040337528893    0.015260263054
0.150     0.053682650993    -0.037248735911    -0.000011806286    0.000001393008    0.043784066822    -0.009055960126    -0.000010636858    -0.000006471370
            -0.000011806249    0.000001392901    0.039438741998    0.014219522793    -0.000002622926    -0.000007670654    0.035202987605    0.034127732635
            0.043784059270    -0.009055976892    -0.000002622913    -0.000007670681    0.053860913927    -0.037238362005    -0.000004193073    -0.000003879127
            -0.000010636823    -0.000006471466    0.035202979372    0.034127735381    -0.000004193080    -0.000003879110    0.039228531247    0.014580654138
0.175     0.043184244893    -0.054048269754    -0.000012530226    0.000004895260    0.040618913900    -0.023866933752    -0.000013698176    -0.000002755855
            -0.000012530203    0.000004895153    0.036151406837    0.014867850852    -0.000005338240    -0.000006905309    0.038486424847    0.032816368068
            0.040618901287    -0.023866947322    -0.000005338232    -0.000006905338    0.043498579054    -0.054103537181    -0.000005946804    -0.000002898165
            -0.000013698155    -0.000002755950    0.038486426941    0.032816368693    -0.000005946807    -0.000002898152    0.036056604336    0.015382862926
0.200     0.025348638892    -0.067003066093    -0.000012181738    0.000008745023    0.030603415953    -0.037174079348    -0.000015384759    0.000001957360
            -0.000012181733    0.000008744913    0.031564974866    0.018183379743    -0.000007911757    -0.000005232322    0.039523506561    0.032024773987
            0.030603399136    -0.037174088011    -0.000007911752    -0.000005232362    0.025804153135    -0.067188778577    -0.000007570602    -0.000001235281
            -0.000015384753    0.000001957259    0.039523499977    0.032024778937    -0.000007570593    -0.000001235262    0.031655693885    0.018789929355
0.225     0.001930573042    -0.072980522486    -0.000010654027    0.000012655596    0.014650627927    -0.046001003564    -0.000015457335    0.000007204025
            -0.000010654047    0.000012655480    0.027080482940    0.024866245574    -0.000010025609    -0.000002599252    0.038987597971    0.032919952310
            0.014650609354    -0.046001006330    -0.000010025611    -0.000002599282    0.002500556684    -0.073367564643    -0.000008779071    0.000001177461
            -0.000015457351    0.000007203920    0.038987600649    0.032919952240    -0.000008779068    0.000001177478    0.027388745658    0.025469494545
0.250     -0.024025319261    -0.069731140660    -0.000007870664    0.000016311690    -0.005090978035    -0.047920695203    -0.000013763501    0.000012507392
            -0.000007870704    0.000016311582    0.024384974845    0.034917469173    -0.000011265149    0.000000911173    0.038054889433    0.036222924350
            -0.005090996224    -0.047920691259    -0.000011265161    0.000000911137    -0.023401884763    -0.070380567228    -0.000009189495    0.000004265770
            -0.000013763533    0.000012507302    0.038054893503    0.036222924426    -0.000009189487    0.000004265788    0.024890430537    0.035414660784
0.275     -0.048635790939    -0.056381383230    -0.000003830912    0.000019293612    -0.025539676761    -0.041545632909    -0.000010285296    0.000017268831
            -0.000003830966    0.000019293529    0.025091800658    0.047522219040    -0.000011221167    0.000004975281    0.038138810137    0.042002839303
            -0.025539691787    -0.041545624845    -0.000011221183    0.000004975253    -0.048049445416    -0.057327645573    -0.000008439823    0.000007716217
            -0.000010285348    0.000017268746    0.038138813742    0.042002837381    -0.000008439814    0.000007716228    0.025723316826    0.047828816118
0.300     -0.067809052309    -0.033735025574    0.000001309240    0.000021139345    -0.043184201009    -0.026872018225    -0.000005202236    0.000020878487
            0.000001309181    0.000021139274    0.030349541074    0.061155980493    -0.000009631467    0.000009059429    0.040555610022    0.049633501400
            -0.043184212937    -0.026872004736    -0.000009631489    0.000009059402    -0.067367583368    -0.034972727378    -0.000006322235    0.000011020188
            -0.000005202299    0.000020878415    0.040555614752    0.049633500117    -0.000006322223    0.000011020203    0.030999442781    0.061230768252
0.325     -0.077966658864    -0.004257421225    0.000007168548    0.000021407229    -0.054697598123    -0.005371474012    0.000001033177    0.000022769912
            0.000007168472    0.000021407173    0.040534269082    0.073850557016    -0.000006522001    0.000012501242    0.046193138629    0.057911309172
            -0.054697605969    -0.005371455505    -0.000006522024    0.000012501222    -0.077776167456    -0.005733811885    -0.000002917543    0.000013568886
            0.000001033105    0.000022769855    0.046193142672    0.057911305947    -0.000002917533    0.000013568895    0.041083095738    0.073709332485
0.350     -0.076721727248    0.028238072992    0.000013173997    0.000019827423    -0.057557440585    0.020190326089    0.000007767209    0.000022592351
            0.000013173906    0.000019827380    0.055116036720    0.083614039575    -0.000002227491    0.000014701302    0.055297310428    0.065335131988
            -0.057557440585    0.020190326089    -0.000002227522    0.000014701286    -0.076865420344    0.026621485507    0.000001404447    0.000014841343
            0.000007767125    0.000022592309    0.055297314343    0.065335127365    0.000001404449    0.000014841346    0.055461780513    0.083329675009
0.375     -0.063346768875    0.059181009338    0.000018640846    0.000016391479    -0.050514956287    0.046187676939    0.000014223622    0.000020291327
            0.000018640712    0.000016391437    0.072735425409    0.088838239003    0.000002656899    0.000015278552    0.067408646855    0.070432880929
            -0.050514956287    0.046187676939    0.000002656871    0.000015278543    -0.063865534890    0.057557001724    0.000006049512    0.000014553364
            0.000014223534    0.000020291300    0.067408648623    0.070432877854    0.000006049529    0.000014553369    0.072818906953    0.088526787199
0.400     -0.038965507370    0.083977694163    0.000022942674    0.000011384674    -0.033845694709    0.068729595707    0.000019704429    0.000016130285
            0.000022942580    0.000011384670    0.091477187793    0.088634978092    0.000007459816    0.000014167994    0.081480583812    0.072075724792
            -0.033845642175    0.068729670624    0.000007459786    0.000014167986    -0.039844468180    0.082494467822    0.000010388196    0.000012729757
            0.000019704337    0.000016130275    0.081480587586    0.072075720526    0.000010388209    0.000012729761    0.091297680501    0.088431684894
0.425     -0.006408606898    0.098740014937    0.000025629514    0.000005323014    -0.009317184635    0.084275786399    0.000023696219    0.000010617637
            0.000025629424    0.000005323022    0.109236064482    0.082978267634    0.000011579267    0.000011608254    0.096090434954    0.069670885176
            -0.009317150390    0.084275813325    0.000011579238    0.000011608256    -0.007572540966    0.097537305505    0.000013899390    0.000009674038
            0.000023696127    0.000010617646    0.096090429290    0.069670875952    0.000013899406    0.000009674039    0.108854414566    0.083009713170
0.450     0.030191930357    0.100889461586    0.000026510851    -0.000001172132    0.020070462741    0.090181544338    0.000025961038    0.000004362584
            0.000026510763    -0.000001172107    0.124100412401    0.072684849340    0.000014624317    0.000008031971    0.109709303058    0.063250604973
            0.020070546711    0.090181572776    0.000014624290    0.000008031978    0.028873553861    0.100074485820    0.000016291023    0.000005840641
            0.000025960949    0.000004362614    0.109709305265    0.063250601143    0.000016291044    0.000005840638    0.123628712826    0.073042717025
0.475     0.065991210867    0.089529449289    0.000025622977    -0.000007518477    0.050512560334    0.085067841813    0.000026487686    -0.000002062752
            0.000025622893    -0.000007518433    0.134648947392    0.059235676019    0.000016420574    0.000003922155    0.120938151735    0.053438408143
            0.050512648637    0.085067841715    0.000016420548    0.000003922168    0.064689522423    0.089155878384    0.000017490563    0.000001691158
            0.000026487604    -0.000002062710    0.120938153600    0.053438403921    0.000017490605    0.000001691135    0.134231893714    0.059960036647
0.500     0.096091004248    0.065582632771    0.000023238468    -0.000013302903    0.077910777520    0.069020859185    0.000025484662    -0.000008259472
            0.000023238395    -0.000013302849    0.140157250460    0.044530332501    0.000017054629    -0.000000348732    0.128723791643    0.041359978199
            0.077910777520    0.069020859185    0.000017054551    -0.000000348678    0.094997347967    0.065636678285    0.000017650930    -0.000002457952
            0.000025484585    -0.000008259419    0.128723791643    0.041359978199    0.000017650929    -0.000002457950    0.139948827961    0.045601614026
0.525     0.116179421912    0.031686641692    0.000019727166    -0.000018218069    0.098392120693    0.043597065806    0.000023241866    -0.000013933144
            0.000019727105    -0.000018218001    0.140682562425    0.030591798786    0.000016745255    -0.000004475358    0.132516164659    0.028482527736
            0.098392188461    0.043597011603    0.000016745192    -0.000004475287    0.115479269045    0.032081497791    0.000017020713    -0.000006393836
            0.000023241803    -0.000013933075    0.132516165156    0.028482525423    0.000017020742    -0.000006393865    0.140830894773    0.031934866040
0.550     0.123098105465    -0.008102704724    0.000015414761    -0.000022151485    0.108812353442    0.011678331471    0.000019988895    -0.000018964067
            0.000015414713    -0.000022151407    0.137067031167    0.019280124981    0.000015686380    -0.000008344139    0.132395603684    0.016405769849
            0.108812353442    0.011678331471    0.000015686330    -0.000008344061    0.122943171565    -0.007523065832    0.000015781022    -0.000010089504
            0.000019988848    -0.000018963989    0.132395594017    0.016405766540    0.000015781024    -0.000010089504    0.137706441385    0.020749319744
0.575     0.115280012021    -0.048774188125    0.000010557979    -0.000025121030    0.107180954374    -0.022826700601    0.000015876661    -0.000023321731
            0.000010557949    -0.000025120945    0.130837651079    0.012004390195    0.000014009924    -0.000011973994    0.129072907457    0.006601974733
            0.107180954374    -0.022826700601    0.000014009905    -0.000011973947    0.115760385694    -0.048220168767    0.000014009429    -0.000013625834
            0.000015876613    -0.000023321602    0.129072897597    0.006601971744    0.000014009429    -0.000013625829    0.132024531471    0.013366741346
0.600     0.093034214221    -0.084954508078    0.000005290328    -0.000027194280    0.093006225227    -0.055419208838    0.000010939540    -0.000026984731
            0.000005290313    -0.000027194191    0.124025448755    0.009462830200    0.000011701705    -0.000015439803    0.123859403186    0.000197093218
            0.093006225227    -0.055419208838    0.000011701704    -0.000015439801    0.094154928785    -0.084668337341    0.000011618254    -0.000017096736
            0.000010939525    -0.000026984639    0.123859403191    0.000197090378    0.000011618252    -0.000017096735    0.125682659119    0.010486645348
0.625     0.058617833169    -0.111588767269    -0.000000360659    -0.000028390984    0.067473446757    -0.081564096323    0.000005136487    -0.000029840516
            -0.000000360657    -0.000028390892    0.118848317355    0.011443561070    0.000008611135    -0.000018738112    0.118522581415    -0.002336016735
            0.067473446757    -0.081564096323    0.000008611133    -0.000018738062    0.060287261020    -0.111814119584    0.000008383330    -0.000020477330
            0.000005136488    -0.000029840423    0.118522581382    -0.002336018390    0.000008383330    -0.000020477373    0.120811850461    0.011961333811
0.650     0.016064555750    -0.124660954625    -0.000006415588    -0.000028607766    0.033428209327    -0.097336328231    -0.000001574163    -0.000031623102
            -0.000006415567    -0.000028607677    0.117311501602    0.016761106165    0.000004502186    -0.000021686590    0.114945318741    -0.001388107754
            0.033428209327    -0.097336328231    0.000004502274    -0.000021686606    0.018096058989    -0.125604752329    0.000004023329    -0.000023523215
            -0.000001574145    -0.000031623012    0.114945328687    -0.001388112328    0.000004023330    -0.000023523216    0.119363022263    0.016684017899
0.675     -0.029265846107    -0.121835446044    -0.000012818093    -0.000027598134    -0.004908666949    -0.100044050379    -0.000009087990    -0.000031917528
            -0.000012818059    -0.000027598048    0.120749641900    0.023393684771    -0.000000772775    -0.000023863493    0.114671309014    0.001786860123
            -0.004908666949    -0.100044050379    -0.000000772774    -0.000023863491    -0.027135994571    -0.123630523825    -0.000001612439    -0.000025735525
            -0.000009087960    -0.000031917442    0.114671309064    0.001786856921    -0.000001612438    -0.000025735525    0.122646501778    0.022728692419
0.700     -0.071397934412    -0.102915248142    -0.000019322844    -0.000025043586    -0.042489221950    -0.088742773024    -0.000017049460    -0.000030263597
            -0.000019322767    -0.000025043548    0.129474565265    0.028851697846    -0.000007120390    -0.000024678286    0.118519762380    0.005314158627
            -0.042489221950    -0.088742773024    -0.000007120334    -0.000024678157    -0.069477136497    -0.105589783708    -0.000008384409    -0.000026457678
            -0.000017049409    -0.000030263520    0.118519762389    0.005314158420    -0.000008384408    -0.000026457677    0.130992374620    0.027708389113
0.725     -0.104613700008    -0.069975854653    -0.000025441435    -0.000020709617    -0.074179969640    -0.064469913278    -0.000024811375    -0.000026341347
            -0.000025441340    -0.000020709517    0.142626571138    0.030715962351    -0.000014079430    -0.000023559105    0.126340148683    0.007123797294
            -0.074179969640    -0.064469913278    -0.000014079401    -0.000023559067    -0.103210373309    -0.073438437828    -0.000015757902    -0.000025090500
            -0.000024811312    -0.000026341281    0.126340148844    0.007123794427    -0.000015757901    -0.000025090499    0.143604377140    0.029290744155
0.750     -0.124345849927    -0.027119827775    -0.000030517232    -0.000014604220    -0.095577443611    -0.030153261078    -0.000031545943    -0.000020141154
            -0.000030517156    -0.000014604171    0.158347615479    0.027180981538    -0.000020882836    -0.000020176410    0.137067053875    0.005441401835
            -0.095577443611    -0.030153261078    -0.000020882832    -0.000020176405    -0.123720184847    -0.031164894322    -0.000022887262    -0.000021324450
            -0.000031545870    -0.000020141099    0.137067053866    0.005441402075    -0.000022887328    -0.000021324503    0.158720689775    0.025722540887
0.775     -0.127884871335    0.020131279875    -0.000033894188    -0.000007071222    -0.103690417240    0.009834406314    -0.000036442480    -0.000012053828
            -0.000033894105    -0.000007071186    0.174183872002    0.017438225699    -0.000026626839    -0.000014616063    0.148973820139    -0.000838522913
            -0.103690455345    0.009834428188    -0.000026626793    -0.000014616043    -0.128207421701    0.015798270543    -0.000028819186    -0.000015302722
            -0.000036442396    -0.000012053793    0.148973810099    -0.000838529851    -0.000028819180    -0.000015302725    0.173996550628    0.016200364665
