# GHz S RI R 45
0.000     0.037658368000    0.000000000000    -0.000021281936    0.000000000000    0.001112438400    0.000000000000    -0.000013065382    0.000000000000
            -0.000021281539    0.000000000000    0.036818260000    0.000000000000    -0.000065759728    0.000000000000    0.000989215010    0.000000000000
            0.001112393700    0.000000000000    -0.000065760301    0.000000000000    0.037560352000    0.000000000000    0.000002164965    0.000000000000
            -0.000013064545    0.000000000000    0.000989180640    0.000000000000    0.000002158378    0.000000000000    0.036687420000    0.000000000000
0.025     0.063700679153    0.005896760717    -0.000047058715    -0.000022613376    0.013175021486    0.011101959013    -0.000046167532    -0.000023770920
            -0.000047058568    -0.000022613568    0.058055825681    0.003259111850    -0.000070427236    -0.000000455346    0.012915845319    0.012518776454
            0.013175015704    0.011101961219    -0.000070427178    -0.000000455420    0.063631798386    0.005835290912    -0.000070405974    -0.000040665966
            -0.000046167351    -0.000023771051    0.012915822157    0.012518780236    -0.000070406038    -0.000040666052    0.058258304240    0.003265401253
0.050     0.063967916884    -0.023060288449    -0.000102823163    0.000005558930    0.017741308943    -0.001211886611    -0.000095630225    0.000011018875
            -0.000102823161    0.000005558786    0.053038293969    -0.018393623424    -0.000125734375    0.000031630728    0.018935049725    0.001129518945
            0.017741304975    -0.001211885998    -0.000125734362    0.000031630655    0.063836303221    -0.023026766952    -0.000133778150    0.000022531570
            -0.000095630197    0.000011018635    0.018935027127    0.001129528310    -0.000133778144    0.000022531545    0.053123533613    -0.018627844682
0.075     0.032646363650    -0.027028438939    -0.000126582258    0.000116704484    -0.003731931778    0.002681718358    -0.000103989356    0.000108051530
            -0.000126582386    0.000116704316    0.024733770356    -0.015341599666    -0.000137122892    0.000164816763    -0.003506033816    0.001549511976
            -0.003731938318    0.002681721082    -0.000137122936    0.000164816700    0.032648361561    -0.026884462069    -0.000130929669    0.000150343471
            -0.000103989563    0.000108051331    -0.003506055055    0.001549525020    -0.000130929682    0.000150343433    0.024642060380    -0.015594368813
0.100     0.028733469990    0.008145621125    0.000008585706    0.000249282341    -0.000787893853    0.042186188059    0.000007129784    0.000208692024
            0.000008585522    0.000249282317    0.020330053596    0.021177079733    0.000037101305    0.000305304504    -0.011848077898    0.040940555046
            -0.000787897665    0.042186194989    0.000037101211    0.000305304485    0.028939777639    0.008202869459    0.000015142456    0.000269309278
            0.000007129596    0.000208691990    -0.011848099417    0.040940575885    0.000015142451    0.000269309269    0.020100315027    0.021016537940
0.125     0.074653142511    0.016051263760    0.000238719420    0.000167773692    0.054756768924    0.056081193623    0.000193102233    0.000159558648
            0.000238719274    0.000167773795    0.060139770387    0.040529358752    0.000306713070    0.000195936485    0.032857994561    0.073780256495
            0.054756772555    0.056081201259    0.000306713000    0.000195936539    0.074911889751    0.015902930909    0.000247414516    0.000207782267
            0.000193102032    0.000159558765    0.032857980127    0.073780276059    0.000247414553    0.000207782239    0.059855752482    0.040528849642
0.150     0.102845362125    -0.037774706814    0.000272322982    -0.000061286990    0.095836033783    0.000814512449    0.000263995016    -0.000028290718
            0.000272322896    -0.000061286736    0.098700885140    0.011106650436    0.000353279627    -0.000088655239    0.089138838208    0.046504469630
            0.095836042767    0.000814514432    0.000353279597    -0.000088655153    0.103066367596    -0.038098711932    0.000347097993    -0.000028609699
            0.000263994964    -0.000028290548    0.089138826033    0.046504492967    0.000347097993    -0.000028609696    0.098665415066    0.011342774197
0.175     0.061711496832    -0.091842718218    0.000179544865    -0.000182933136    0.059067422474    -0.061338487516    0.000190450730    -0.000192511486
            0.000179544949    -0.000182932928    0.093443892974    -0.035933076893    0.000223209668    -0.000269480142    0.090620959314    -0.014813688541
            0.059067427767    -0.061338486584    0.000223209703    -0.000269480061    0.061763145594    -0.092352834401    0.000258413576    -0.000253254647
            0.000190450841    -0.000192511249    0.090620951453    -0.014813662247    0.000258413583    -0.000253254654    0.093789493121    -0.035912362813
0.200     0.000730918550    -0.079214612955    0.000092960542    -0.000304458672    -0.006942532712    -0.047591384552    0.000052112269    -0.000298455893
            0.000092960698    -0.000304458593    0.057436795390    -0.053296321049    0.000058547031    -0.000398383259    0.041083083204    -0.037156543241
            -0.006942526933    -0.047591391458    0.000058547183    -0.000398383186    0.000459836396    -0.079669280966    0.000066196229    -0.000395264158
            0.000052112418    -0.000298455826    0.041083087550    -0.037156514583    0.000066196144    -0.000395264202    0.057655614632    -0.053723891883
0.225     -0.003119430788    -0.032832957706    -0.000192393161    -0.000394818884    -0.003860522947    0.012632121896    -0.000182994244    -0.000327375842
            -0.000192392945    -0.000394818967    0.032839666329    -0.035300703261    -0.000272424018    -0.000437457620    0.011186529553    0.000921389631
            -0.003860520291    0.012632128981    -0.000272424024    -0.000437457628    -0.003493742855    -0.032812950909    -0.000236331801    -0.000419533855
            -0.000182994048    -0.000327375894    0.011186529917    0.000921409573    -0.000236331801    -0.000419533855    0.032644958403    -0.035652028341
0.250     0.033604819441    -0.035445964504    -0.000506618468    -0.000115105355    0.058515493840    0.011391413759    -0.000435878955    -0.000118573074
            -0.000506618329    -0.000115105603    0.041567879525    -0.012392040006    -0.000593943640    -0.000113041267    0.043903583928    0.039274839662
            0.058515499332    0.011391416948    -0.000593943650    -0.000113041269    0.033822252031    -0.035098343127    -0.000548021159    -0.000161918932
            -0.000435878795    -0.000118573357    0.043903592338    0.039274869257    -0.000548021149    -0.000161918929    0.041488541087    -0.012307776811
0.275     0.028527237266    -0.085366223754    -0.000415786764    0.000316668606    0.070799815203    -0.064566565028    -0.000420073178    0.000270052159
            -0.000415786842    0.000316668091    0.070841886879    -0.013937355555    -0.000509447859    0.000378157231    0.100922970788    0.019098014118
            0.070799828578    -0.064566568172    -0.000509447941    0.000378157154    0.029423342718    -0.085553258969    -0.000549171988    0.000317724121
            -0.000420073216    0.000270052080    0.100922986773    0.019098037213    -0.000549171962    0.000317724106    0.071350540868    -0.013986542880
0.300     -0.034303725220    -0.108121365126    -0.000079780479    0.000477244031    -0.005985939409    -0.112411246106    -0.000091860369    0.000502767004
            -0.000079780491    0.000477244049    0.093922051269    -0.051917883044    -0.000104146749    0.000619019933    0.116665683276    -0.049221702344
            -0.005985937979    -0.112411256196    -0.000104146752    0.000619019953    -0.033671573025    -0.109245016474    -0.000158063279    0.000641052170
            -0.000091860374    0.000502767034    0.116665702798    -0.049221681797    -0.000158063276    0.000641052160    0.094462271389    -0.052717881845
0.325     -0.095289516873    -0.068167956819    0.000206602021    0.000424314160    -0.088946805370    -0.066548000012    0.000271608878    0.000416794152
            0.000206601981    0.000424314135    0.072753894482    -0.112390001605    0.000313853716    0.000535936912    0.067425670417    -0.108893228081
            -0.088946801762    -0.066548021527    0.000313853727    0.000535936952    -0.095627923849    -0.069334263263    0.000325926723    0.000567783537
            0.000271608889    0.000416794169    0.067425691323    -0.108893215136    0.000325926738    0.000567783540    0.072530253867    -0.113477786898
0.350     -0.107174110952    -0.001594398499    0.000456989990    0.000255598364    -0.092443480792    0.019588886335    0.000462440494    0.000154619443
            0.000456990042    0.000255598415    -0.005537861500    -0.140362226885    0.000589878175    0.000244334479    -0.011964134423    -0.107574053230
            -0.092443488619    0.019588887993    0.000589878194    0.000244334487    -0.107722313063    -0.001830819622    0.000600757680    0.000225047428
            0.000462439861    0.000154619949    -0.011964056445    -0.107574001532    0.000600757670    0.000225047425    -0.006209946467    -0.140792935654
0.375     -0.075189711203    0.042455342550    0.000608044154    -0.000107903696    -0.032887478643    0.053084121055    0.000503352647    -0.000151125287
            0.000608044174    -0.000107903700    -0.080281018618    -0.083639824622    0.000686778565    -0.000168099610    -0.052716409304    -0.042685220006
            -0.032887481277    0.053084125306    0.000686778497    -0.000168099213    -0.074712783050    0.042556091984    0.000649649392    -0.000173393671
            0.000503352666    -0.000151125293    -0.052716407750    -0.042685218747    0.000649649363    -0.000173393663    -0.080374479132    -0.083518348981
0.400     -0.040794303965    0.043348488571    0.000432767118    -0.000585204704    0.001598709636    0.015571362495    0.000356634469    -0.000521983000
            0.000432767152    -0.000585204729    -0.059718387013    0.005926593510    0.000503887179    -0.000679310470    -0.010265028857    0.015666286424
            0.001598712081    0.015571362244    0.000503887203    -0.000679310477    -0.039732484876    0.042294908570    0.000485162825    -0.000631096885
            0.000356634484    -0.000521983002    -0.010264932019    0.015666305640    0.000485162787    -0.000631096926    -0.059139023521    0.005503776444
0.425     -0.042952119457    0.024022249373    -0.000154826744    -0.000816787247    -0.040138689189    -0.020424935674    -0.000163538442    -0.000747381063
            -0.000154826287    -0.000816787171    0.031164144481    0.002145109685    -0.000174237084    -0.000999021877    0.060030274003    -0.022766183008
            -0.040138691863    -0.020424937035    -0.000174237485    -0.000999022010    -0.043037412901    0.022029631933    -0.000135462011    -0.000961430236
            -0.000163538450    -0.000747381103    0.060030276948    -0.022766186522    -0.000135462010    -0.000961430226    0.031380282174    0.000948315441
0.450     -0.080504401843    0.039437584462    -0.000768261055    -0.000437637388    -0.104308824171    0.020280399293    -0.000755392597    -0.000369366507
            -0.000768260256    -0.000437637820    0.037518481640    -0.106048534369    -0.000967273893    -0.000539316789    0.034090977622    -0.122075031034
            -0.104308837527    0.020280382996    -0.000967273988    -0.000539316621    -0.081757974107    0.038473689514    -0.000925542487    -0.000546786882
            -0.000755391835    -0.000369366951    0.034090975492    -0.122075031629    -0.000925542573    -0.000546786933    0.037029780206    -0.107100679147
0.475     -0.089549443681    0.111314212527    -0.000811349007    0.000278172618    -0.098677182060    0.118836644260    -0.000733063886    0.000349047355
            -0.000811348987    0.000278172769    -0.090207922633    -0.153558444483    -0.000994249753    0.000387711350    -0.094291222184    -0.141119665681
            -0.098677196412    0.118836619344    -0.000994249753    0.000387711350    -0.089915683659    0.111664239444    -0.000965753860    0.000369527751
            -0.000733063913    0.000349047368    -0.094291186443    -0.141119665508    -0.000965753860    0.000369527751    -0.090590589613    -0.154113384583
0.500     -0.020247242682    0.181256739044    -0.000348912069    0.000695387218    -0.006158948976    0.175198026920    -0.000215598164    0.000669886050
            -0.000348912065    0.000695387209    -0.205513937404    -0.049422543428    -0.000375766931    0.000857882723    -0.182221016703    -0.031890626530
            -0.006158955443    0.175198036699    -0.000375767131    0.000857881958    -0.019061907058    0.180961730635    -0.000346861402    0.000813994374
            -0.000215598318    0.000669886127    -0.182221016703    -0.031890626530    -0.000346861410    0.000813994392    -0.205434193654    -0.050239216861
0.525     0.091835793340    0.166792645222    0.000118868006    0.000685972536    0.091130602238    0.132280554546    0.000180122153    0.000554125659
            0.000118867985    0.000685972560    -0.173890658510    0.105590047337    0.000159623774    0.000801664030    -0.137315763872    0.097038287619
            0.091130607911    0.132280562781    0.000159623456    0.000801663819    0.092888511776    0.164654295561    0.000136620592    0.000725886464
            0.000180122146    0.000554125672    -0.137315723039    0.097038258763    0.000136620908    0.000725886680    -0.174107452430    0.104079776044
0.550     0.138308477104    0.061700068002    0.000458722719    0.000598839284    0.099254984248    0.033927319025    0.000400348388    0.000470876257
            0.000458721898    0.000598839359    -0.030208662081    0.143806709451    0.000552283404    0.000714418551    -0.011776178432    0.112294482024
            0.099254994894    0.033927318795    0.000552283379    0.000714418545    0.137394738648    0.058999852592    0.000460442283    0.000685587999
            0.000400348391    0.000470876294    -0.011776175429    0.112294472284    0.000460442278    0.000685587991    -0.031357837401    0.142365916498
0.575     0.053580798161    -0.007038209717    0.001055359323    0.000225476597    0.006792080391    0.009178218371    0.000925076111    0.000172929531
            0.001055359417    0.000225476636    0.037484334588    0.022394740430    0.001269350946    0.000248033794    0.025155796254    -0.006703405820
            0.006792087713    0.009178214196    0.001269351036    0.000248033858    0.051838252068    -0.007613757144    0.001183313866    0.000306938859
            0.000925075832    0.000172929880    0.025155833579    -0.006703491003    0.001183313856    0.000306938900    0.036150777761    0.021965357212
0.600     0.003258670866    0.082610134596    0.000883834860    -0.000947322250    -0.018646940827    0.117848616423    0.000749763817    -0.000881722613
            0.000883834877    -0.000947322235    -0.091254834502    -0.046119965555    0.001033141327    -0.001137696336    -0.106510669031    -0.054736557600
            -0.018646946504    0.117848625649    0.001033141327    -0.001137696336    0.003016570226    0.083030712902    0.001019379423    -0.001019455075
            0.000749763897    -0.000881722676    -0.106510669031    -0.054736557600    0.001019379440    -0.001019455057    -0.091705138004    -0.046591225029
0.625     0.107987649392    0.149611658380    -0.000306348477    -0.001139476068    0.109042378003    0.170986440190    -0.000333376415    -0.000998961464
            -0.000306348503    -0.001139476165    -0.188450930583    0.069547882300    -0.000365912686    -0.001341918689    -0.194273635499    0.073718335143
            0.109042377411    0.170986452428    -0.000365912712    -0.001341918785    0.108905054454    0.148527970690    -0.000263330624    -0.001251731630
            -0.000333375813    -0.000998960822    -0.194273635499    0.073718335143    -0.000263330624    -0.001251731630    -0.189045017264    0.068244571109
0.650     0.230389614146    0.062094217511    -0.000836722884    -0.000395897543    0.221082398727    0.067618305448    -0.000766593618    -0.000310352409
            -0.000836722200    -0.000395897398    -0.134861403841    0.207419163824    -0.000980635380    -0.000477708298    -0.128276071838    0.207472481657
            0.221082425055    0.067618321940    -0.000980635380    -0.000477708298    0.230202340592    0.059744866181    -0.000848092290    -0.000523917421
            -0.000766593675    -0.000310352588    -0.128276066579    0.207472473151    -0.000848092248    -0.000523917394    -0.136424416996    0.206127942106
0.675     0.217267710447    -0.107704659134    -0.000645706264    0.000128554716    0.190792278561    -0.088966108736    -0.000580757099    0.000158707110
            -0.000645705943    0.000128554535    -0.004400208412    0.246132811056    -0.000780848702    0.000134274528    0.004454530434    0.232733733983
            0.190792307303    -0.088966118084    -0.000780848337    0.000134274466    0.215597845864    -0.109415856964    -0.000764608554    0.000017230295
            -0.000580757148    0.000158707123    0.004454530243    0.232733723984    -0.000764608507    0.000017230160    -0.006347711835    0.245849156157
0.700     0.049979630142    -0.183682039973    -0.000569505664    0.000220128139    0.032998750868    -0.138800947086    -0.000468854281    0.000251479117
            -0.000569505373    0.000220127341    0.091596317564    0.173677078820    -0.000691960186    0.000285345150    0.087194778085    0.149115278903
            0.032998757697    -0.138800986578    -0.000691960195    0.000285345154    0.048503331018    -0.183684828035    -0.000737049875    0.000243263549
            -0.000468854325    0.000251479141    0.087194778085    0.149115278903    -0.000737049875    0.000243263549    0.090574681709    0.174159813294
0.725     -0.067392551435    -0.045914916574    -0.000630996017    0.000895082443    -0.055168309639    0.004219962480    -0.000489124003    0.000783976354
            -0.000630996017    0.000895082443    0.064958052528    0.078238629245    -0.000706067442    0.001052003153    0.039001027551    0.059726113206
            -0.055168323599    0.004219963547    -0.000706067498    0.001052003237    -0.066939390321    -0.045796133563    -0.000722402480    0.000993213882
            -0.000489124008    0.000783976362    0.039001026508    0.059726113887    -0.000722402480    0.000993213882    0.064968154779    0.077731188736
0.750     0.058979518367    0.060838355246    0.000664493791    0.001271993278    0.088736158783    0.093203013617    0.000598758685    0.001087302894
            0.000664493767    0.001271993178    -0.014526195847    0.099660406894    0.000738892704    0.001452396004    -0.048284443645    0.106236529316
            0.088736150649    0.093203021361    0.000738892724    0.001452396106    0.059679027164    0.058933319250    0.000594917864    0.001415462100
            0.000598758666    0.001087302904    -0.048284505399    0.106236468295    0.000594917850    0.001415461998    -0.015726198912    0.097914455004
0.775     0.164388779647    -0.071233502721    0.001299867839    0.000017378196    0.191909156396    -0.056465791478    0.001168576604    0.000020143241
            0.001299867938    0.000017378277    -0.002788953301    0.184086284542    0.001474462939    0.000085449675    -0.015712254412    0.214651738989
            0.191909191351    -0.056465743532    0.001474463042    0.000085449640    0.163298933182    -0.073465875398    0.001385566463    0.000250315864
            0.001168576703    0.000020143297    -0.015712254412    0.214651738989    0.001385566454    0.000250315912    -0.005504043713    0.183465666807
