# GHz S RI R 45
0.000     0.036668628000    0.000000000000    0.000003831377    0.000000000000    0.001006135200    0.000000000000    -0.000024562473    0.000000000000
            0.000003831575    0.000000000000    0.036818260000    0.000000000000    0.000011289525    0.000000000000    0.000989215010    0.000000000000
            0.001006138100    0.000000000000    0.000011291578    0.000000000000    0.036685231000    0.000000000000    -0.000037088693    0.000000000000
            -0.000024562386    0.000000000000    0.000989180640    0.000000000000    -0.000037088829    0.000000000000    0.036687420000    0.000000000000
0.025     0.063648135721    0.005859206943    -0.000089205099    -0.000074579475    0.013477655418    0.011925081162    -0.000100886331    -0.000062528191
            -0.000089205263    -0.000074579559    0.058055825681    0.003259111850    -0.000097684216    -0.000082586685    0.012915845319    0.012518776454
            0.013477654085    0.011925084177    -0.000097684041    -0.000082586829    0.063649969610    0.005843967170    -0.000085385363    -0.000069143827
            -0.000100886360    -0.000062528258    0.012915822157    0.012518780236    -0.000085385526    -0.000069143737    0.058258304240    0.003265401253
0.050     0.063354263104    -0.023828413866    -0.000212938969    0.000002870082    0.018706189612    0.000052754524    -0.000229675893    0.000014613222
            -0.000212939039    0.000002870082    0.053038293969    -0.018393623424    -0.000227990425    0.000006981390    0.018935049725    0.001129518945
            0.018706189611    0.000052754795    -0.000227990407    0.000006981310    0.063400571756    -0.023899642208    -0.000239918842    -0.000013550317
            -0.000229676278    0.000014613166    0.018935027127    0.001129528310    -0.000239918792    -0.000013550314    0.053123533613    -0.018627844682
0.075     0.030253362969    -0.027513263286    -0.000247505051    0.000218893740    -0.002107533373    0.003891969182    -0.000260065378    0.000249931101
            -0.000247505013    0.000218893783    0.024733770356    -0.015341599666    -0.000254501389    0.000233231909    -0.003506033816    0.001549511976
            -0.002107532945    0.003891968391    -0.000254501537    0.000233231717    0.030275537269    -0.027681364538    -0.000298352423    0.000242052286
            -0.000260065334    0.000249931146    -0.003506055055    0.001549525020    -0.000298352338    0.000242052390    0.024642060380    -0.015594368813
0.100     0.025176791538    0.010322920229    -0.000017643234    0.000464585729    0.000978444980    0.043137909985    -0.000002310992    0.000505625629
            -0.000017643234    0.000464585729    0.020330053596    0.021177079733    -0.000019627937    0.000477185776    -0.011848077898    0.040940555046
            0.000978444182    0.043137908003    -0.000019628126    0.000477185728    0.025107574108    0.010145426428    -0.000045290513    0.000536101884
            -0.000002310992    0.000505625629    -0.011848099417    0.040940575885    -0.000045290513    0.000536101874    0.020100315027    0.021016537940
0.125     0.073341451370    0.021185039261    0.000414098855    0.000383536810    0.056817520416    0.057330240459    0.000459802691    0.000408114613
            0.000414098848    0.000383536803    0.060139770387    0.040529358752    0.000414770693    0.000409477593    0.032857994561    0.073780256495
            0.056817520416    0.057330240459    0.000414770536    0.000409477667    0.073285873872    0.021125741328    0.000451904850    0.000482072119
            0.000459802640    0.000408114640    0.032857980127    0.073780276059    0.000451904923    0.000482072078    0.059855752482    0.040528849642
0.150     0.105630282933    -0.033554006761    0.000595705731    -0.000042491351    0.099233065846    0.002042749616    0.000656507035    -0.000057080197
            0.000595705720    -0.000042491355    0.098700885140    0.011106650436    0.000634268399    -0.000013960118    0.089138838208    0.046504469630
            0.099233065821    0.002042750828    0.000634268333    -0.000013959942    0.105817701441    -0.033584340334    0.000727468514    0.000009540374
            0.000656507003    -0.000057080101    0.089138826033    0.046504492967    0.000727468555    0.000009540295    0.098665415066    0.011342774197
0.175     0.064733514960    -0.092370253669    0.000432327582    -0.000412417321    0.063760018553    -0.062190287427    0.000468899233    -0.000476236101
            0.000432327574    -0.000412417314    0.093443892974    -0.035933076893    0.000489642410    -0.000438152502    0.090620959314    -0.014813688541
            0.063760012410    -0.062190292293    0.000489642457    -0.000438152375    0.065150587771    -0.092695796647    0.000579815281    -0.000496181417
            0.000468899259    -0.000476236061    0.090620951453    -0.014813662247    0.000579815251    -0.000496181514    0.093789493121    -0.035912362813
0.200     -0.002025012734    -0.081225613412    0.000146207874    -0.000646938271    -0.003798121595    -0.051448374351    0.000120077739    -0.000719260994
            0.000146207895    -0.000646938256    0.057436795390    -0.053296321049    0.000153946569    -0.000707931525    0.041083083204    -0.037156543241
            -0.003798121668    -0.051448375348    0.000153946604    -0.000707931507    -0.001777165905    -0.081955694813    0.000178809672    -0.000821182630
            0.000120077739    -0.000719260994    0.041083087550    -0.037156514583    0.000178809659    -0.000821182643    0.057655614632    -0.053723891883
0.225     -0.009736449857    -0.028010076821    -0.000362974479    -0.000755883856    -0.004137637866    0.008763285470    -0.000424953121    -0.000786164239
            -0.000362974479    -0.000755883856    0.032839666329    -0.035300703261    -0.000389282761    -0.000793063573    0.011186529553    0.000921389631
            -0.004137637738    0.008763285199    -0.000389282306    -0.000793063696    -0.009851022018    -0.028754563817    -0.000452739330    -0.000900997234
            -0.000424952653    -0.000786164356    0.011186529917    0.000921409573    -0.000452739846    -0.000900997086    0.032644958403    -0.035652028341
0.250     0.033407905417    -0.023528666479    -0.000981399933    -0.000320918826    0.057363712504    0.009712245327    -0.001047502873    -0.000316024581
            -0.000981399933    -0.000320918826    0.041567879525    -0.012392040006    -0.001014729370    -0.000354199412    0.043903583928    0.039274839662
            0.057363712487    0.009712245427    -0.001014729370    -0.000354199412    0.033291805159    -0.024018376899    -0.001147230363    -0.000394071244
            -0.001047502818    -0.000316024763    0.043903592338    0.039274869257    -0.001147230268    -0.000394071211    0.041488541087    -0.012307776811
0.275     0.038127675954    -0.077430873727    -0.000982179570    0.000596808556    0.070704572261    -0.066741721665    -0.001049813058    0.000650125828
            -0.000982179532    0.000596809003    0.070841886879    -0.013937355555    -0.001065023628    0.000581327725    0.100922970788    0.019098014118
            0.070704572113    -0.066741726192    -0.001065023655    0.000581327258    0.038317360183    -0.078066977816    -0.001199825873    0.000652873521
            -0.001049813114    0.000650125356    0.100922986773    0.019098037213    -0.001199825987    0.000652873312    0.071350540868    -0.013986542880
0.300     -0.025356712895    -0.111179029421    -0.000208481940    0.001142469207    -0.007901997314    -0.117113607300    -0.000211803593    0.001251356826
            -0.000208482139    0.001142469171    0.093922051269    -0.051917883044    -0.000298723059    0.001228444713    0.116665683276    -0.049221702344
            -0.007901997314    -0.117113607300    -0.000298723059    0.001228444713    -0.025319070543    -0.112345553646    -0.000343348930    0.001383831763
            -0.000211803861    0.001251356679    0.116665702798    -0.049221681797    -0.000343348326    0.001383832428    0.094462271389    -0.052717881845
0.325     -0.097323937602    -0.073734034290    0.000607488925    0.000909984601    -0.096169657454    -0.070602530587    0.000699118009    0.000975775339
            0.000607488639    0.000909984551    0.072753894482    -0.112390001605    0.000641119184    0.001056928352    0.067425670417    -0.108893228081
            -0.096169657454    -0.070602530587    0.000641119114    0.001056928278    -0.097975238096    -0.074948756803    0.000720425920    0.001199340209
            0.000699117797    0.000975775367    0.067425691323    -0.108893215136    0.000720425920    0.001199340209    0.072530253867    -0.113477786898
0.350     -0.114877532621    0.003071616276    0.000976857833    0.000340286075    -0.102933086822    0.020790456341    0.001064051860    0.000313943381
            0.000976857827    0.000340286092    -0.005537861500    -0.140362226885    0.001122039805    0.000385716384    -0.011964134423    -0.107574053230
            -0.102933086822    0.020790456341    0.001122039103    0.000385716887    -0.115809423175    0.002537526602    0.001274070169    0.000436104869
            0.001064051764    0.000313943353    -0.011964056445    -0.107574001532    0.001274070184    0.000436104825    -0.006209946467    -0.140792935654
0.375     -0.074289798634    0.055672755397    0.001094131535    -0.000256705473    -0.041666570559    0.059405501546    0.001137128204    -0.000302151412
            0.001094131640    -0.000256705901    -0.080281018618    -0.083639824622    0.001190806057    -0.000331737449    -0.052716409304    -0.042685220006
            -0.041666570559    0.059405501546    0.001190806057    -0.000331737449    -0.074624364561    0.055559310138    0.001340096371    -0.000389678291
            0.001137128121    -0.000302150944    -0.052716407750    -0.042685218747    0.001340096371    -0.000389678291    -0.080374479132    -0.083518348981
0.400     -0.028949434716    0.049882368898    0.000875193040    -0.001113265688    -0.004914221315    0.022634312205    0.000913445797    -0.001180627302
            0.000875193098    -0.001113265642    -0.059718387013    0.005926593510    0.000905159855    -0.001186944830    -0.010265028857    0.015666286424
            -0.004914221740    0.022634314160    0.000905159855    -0.001186944830    -0.028711546430    0.049207119153    0.000989653483    -0.001333966312
            0.000913445797    -0.001180627302    -0.010264932019    0.015666305640    0.000989653506    -0.001333966295    -0.059139023521    0.005503776444
0.425     -0.035728123332    0.018287544848    -0.000326701699    -0.001714673954    -0.049828021443    -0.012213193130    -0.000357229853    -0.001829450816
            -0.000326702036    -0.001714674093    0.031164144481    0.002145109685    -0.000298594898    -0.001828612332    0.060030274003    -0.022766183008
            -0.049828019501    -0.012213192654    -0.000298594898    -0.001828612332    -0.036030796051    0.016909478743    -0.000336801848    -0.002010600713
            -0.000357229853    -0.001829450816    0.060030276948    -0.022766186522    -0.000336801848    -0.002010600713    0.031380282174    0.000948315441
0.450     -0.086414151544    0.035918336947    -0.001689753987    -0.000800720851    -0.113549058783    0.036870773554    -0.001818827020    -0.000843740531
            -0.001689753987    -0.000800720851    0.037518481640    -0.106048534369    -0.001812210948    -0.000962629419    0.034090977622    -0.122075031034
            -0.113549058783    0.036870773554    -0.001812210948    -0.000962629419    -0.087556649852    0.034989924113    -0.001977323384    -0.001071791308
            -0.001818827768    -0.000843740106    0.034090975492    -0.122075031629    -0.001977323384    -0.001071791308    0.037029780206    -0.107100679147
0.475     -0.096385166663    0.120266880045    -0.001519454052    0.000756553268    -0.098581634798    0.140875702945    -0.001618748137    0.000831023734
            -0.001519454009    0.000756553577    -0.090207922633    -0.153558444483    -0.001772360319    0.000808117622    -0.094291222184    -0.141119665681
            -0.098581634798    0.140875702945    -0.001772360055    0.000808116754    -0.097225217846    0.120276748644    -0.001968354973    0.000847578072
            -0.001618747871    0.000831023597    -0.094291186443    -0.141119665508    -0.001968354973    0.000847578072    -0.090590589613    -0.154113384583
0.500     -0.017469133623    0.194906491748    -0.000483721052    0.001296895647    0.001115008476    0.192852086718    -0.000497645963    0.001390297132
            -0.000483721052    0.001296895647    -0.205513937404    -0.049422543428    -0.000539516484    0.001545203078    -0.182221016703    -0.031890626530
            0.001115001744    0.192852086756    -0.000539516484    0.001545203078    -0.017316511111    0.194853509445    -0.000651690841    0.001704018470
            -0.000497645680    0.001390297871    -0.182221016703    -0.031890626530    -0.000651690841    0.001704018470    -0.205434193654    -0.050239216861
0.525     0.101288223932    0.175037463133    0.000174869119    0.001185676918    0.097381570401    0.146980303112    0.000196897517    0.001259959730
            0.000174869098    0.001185676921    -0.173890658510    0.105590047337    0.000322031006    0.001308864339    -0.137315763872    0.097038287619
            0.097381567836    0.146980304812    0.000322030983    0.001308864345    0.101667278296    0.174041083954    0.000338151332    0.001493149136
            0.000196897532    0.001259959829    -0.137315723039    0.097038258763    0.000338151380    0.001493149227    -0.174107452430    0.104079776044
0.550     0.145403720870    0.063833222320    0.000811053826    0.001228953700    0.106081766159    0.053478226310    0.000873000632    0.001300566619
            0.000811053826    0.001228953700    -0.030208662081    0.143806709451    0.000901078367    0.001226586227    -0.011776178432    0.112294482024
            0.106081766159    0.053478226310    0.000901078340    0.001226586371    0.144954045915    0.062412871260    0.001021336636    0.001365473226
            0.000873001390    0.001300566472    -0.011776175429    0.112294472284    0.001021338330    0.001365472957    -0.031357837401    0.142365916498
0.575     0.064795583857    0.007431383027    0.002095254728    0.000407658819    0.024694113582    0.033183386757    0.002224488977    0.000424700361
            0.002095254714    0.000407658892    0.037484334588    0.022394740430    0.002211824849    0.000450935615    0.025155796254    -0.006703405820
            0.024694113582    0.033183386757    0.002211824849    0.000450935615    0.063501112098    0.006599604280    0.002410762665    0.000494239176
            0.002224488977    0.000424700361    0.025155833579    -0.006703491003    0.002410762665    0.000494239176    0.036150777761    0.021965357212
0.600     0.009709818875    0.092773067201    0.001610081465    -0.001842669269    0.014766468592    0.133187683738    0.001722781780    -0.001943134262
            0.001610081496    -0.001842669110    -0.091254834502    -0.046119965555    0.001807214678    -0.001992084574    -0.106510669031    -0.054736557600
            0.014766465166    0.133187674056    0.001807214680    -0.001992084436    0.009784140387    0.092661972084    0.002008607136    -0.002111266001
            0.001722781420    -0.001943133378    -0.106510669031    -0.054736557600    0.002008607099    -0.002111266036    -0.091705138004    -0.046591225029
0.625     0.119692932222    0.155711751442    -0.000538652438    -0.002042873472    0.142162783779    0.164645098230    -0.000548181838    -0.002197196304
            -0.000538652438    -0.002042873472    -0.188450930583    0.069547882300    -0.000617446566    -0.002328004203    -0.194273635499    0.073718335143
            0.142162780905    0.164645100711    -0.000617446083    -0.002328004021    0.120503274757    0.154644863459    -0.000563500832    -0.002570052901
            -0.000548181838    -0.002197196304    -0.194273635499    0.073718335143    -0.000563500832    -0.002570052901    -0.189045017264    0.068244571109
0.650     0.241295575239    0.064994509436    -0.001407808889    -0.000847302431    0.237801180185    0.055576230663    -0.001518252107    -0.000935563928
            -0.001407808889    -0.000847302431    -0.134861403841    0.207419163824    -0.001673839234    -0.000890970647    -0.128276071838    0.207472481657
            0.237801180185    0.055576230663    -0.001673838461    -0.000890970611    0.241538665448    0.062875533312    -0.001807973559    -0.001093383164
            -0.001518252107    -0.000935563928    -0.128276066579    0.207472473151    -0.001807973473    -0.001093383112    -0.136424416996    0.206127942106
0.675     0.228955551525    -0.104684588069    -0.001325851930    0.000004931259    0.203309702204    -0.090671696678    -0.001446784072    0.000010351126
            -0.001325852030    0.000004931260    -0.004400208412    0.246132811056    -0.001448801480    0.000156910510    0.004454530434    0.232733733983
            0.203309703787    -0.090671693130    -0.001448801209    0.000156910225    0.228113636261    -0.106778430355    -0.001667828186    0.000103263420
            -0.001446783375    0.000010350616    0.004454530243    0.232733723984    -0.001667828385    0.000103263432    -0.006347711835    0.245849156157
0.700     0.066325323208    -0.184172801544    -0.001315626193    0.000498284171    0.059984568077    -0.140325172289    -0.001407323154    0.000556425403
            -0.001315626193    0.000498284171    0.091596317564    0.173677078820    -0.001309994731    0.000595522369    0.087194778085    0.149115278903
            0.059984568077    -0.140325172289    -0.001309994497    0.000595521434    0.065264560298    -0.185382515459    -0.001503011066    0.000676241886
            -0.001407323154    0.000556425403    0.087194778085    0.149115278903    -0.001503010975    0.000676241845    0.090574681709    0.174159813294
0.725     -0.052069929373    -0.056429993558    -0.001142425043    0.001786062171    -0.022318996995    -0.020355677756    -0.001211920074    0.001900925246
            -0.001142425043    0.001786062171    0.064958052528    0.078238629245    -0.001166466653    0.001884611987    0.039001027551    0.059726113206
            -0.022318999951    -0.020355680452    -0.001166466653    0.001884611987    -0.052301583084    -0.057557911127    -0.001297550303    0.002068958499
            -0.001211919689    0.001900925373    0.039001026508    0.059726113887    -0.001297550250    0.002068958414    0.064968154779    0.077731188736
0.750     0.064224381447    0.043999000567    0.001106508521    0.002416201602    0.100168665950    0.046691538513    0.001153375191    0.002598806037
            0.001106508479    0.002416201622    -0.014526195847    0.099660406894    0.001215278161    0.002577165858    -0.048284443645    0.106236529316
            0.100168662691    0.046691545506    0.001215278116    0.002577165879    0.063976381099    0.041937918862    0.001243734421    0.002854824279
            0.001153375232    0.002598806129    -0.048284505399    0.106236468295    0.001243734510    0.002854824349    -0.015726198912    0.097914455004
0.775     0.157398542727    -0.085622739797    0.002474424746    0.000363276858    0.169890333440    -0.099911098216    0.002679038525    0.000432075300
            0.002474424746    0.000363276858    -0.002788953301    0.184086284542    0.002705084240    0.000334409113    -0.015712254412    0.214651738989
            0.169890333440    -0.099911098216    0.002705084240    0.000334409113    0.156216159692    -0.087942351169    0.002960244551    0.000510090761
            0.002679038525    0.000432075300    -0.015712254412    0.214651738989    0.002960244551    0.000510090756    -0.005504043713    0.183465666807
