# GHz S RI R 45
0.000     0.036993842000    0.000000000000    -0.000031857211    0.000000000000    0.001110149500    0.000000000000    -0.000039802993    0.000000000000
            -0.000031857220    0.000000000000    0.036818260000    0.000000000000    -0.000003489905    0.000000000000    0.000989215010    0.000000000000
            0.001110140800    0.000000000000    -0.000003489864    0.000000000000    0.036813347000    0.000000000000    -0.000023649912    0.000000000000
            -0.000039803075    0.000000000000    0.000989180640    0.000000000000    -0.000023649938    0.000000000000    0.036687420000    0.000000000000
0.025     0.058180934685    0.003826753220    -0.000020713975    0.000012726081    0.012818904662    0.012387259800    -0.000012668815    0.000025919270
            -0.000020713978    0.000012726078    0.058055825681    0.003259111850    -0.000025100821    -0.000001648473    0.012915845319    0.012518776454
            0.012818869022    0.012387266461    -0.000025100822    -0.000001648481    0.058162775255    0.003781326330    -0.000021319663    0.000004007023
            -0.000012668809    0.000025919269    0.012915822157    0.012518780236    -0.000021319655    0.000004007021    0.058258304240    0.003265401253
0.050     0.053178549872    -0.016242549200    -0.000002026462    0.000014962130    0.018438331699    0.001644958622    0.000013841588    0.000021217194
            -0.000002026463    0.000014962130    0.053038293969    -0.018393623424    -0.000009872619    0.000012015929    0.018935049725    0.001129518945
            0.018438299438    0.001644971379    -0.000009872596    0.000012016020    0.053152038374    -0.016342310434    -0.000010623671    0.000009075018
            0.000013841591    0.000021217194    0.018935027127    0.001129528310    -0.000010623656    0.000009075018    0.053123533613    -0.018627844682
0.075     0.027598470999    -0.011028328010    0.000016002586    -0.000006926266    -0.003150945681    0.003204576873    0.000035412394    -0.000010556469
            0.000016002585    -0.000006926266    0.024733770356    -0.015341599666    0.000009918907    -0.000008151178    -0.003506033816    0.001549511976
            -0.003150969648    0.003204593417    0.000009918856    -0.000008151159    0.027501292290    -0.011204376363    0.000009729556    -0.000007210694
            0.000035412436    -0.000010556499    -0.003506055055    0.001549525020    0.000009729573    -0.000007210701    0.024642060380    -0.015594368813
0.100     0.028482646680    0.023778928004    -0.000000260651    -0.000047962487    -0.008708614634    0.042474400773    0.000014678435    -0.000061266093
            -0.000000260664    -0.000047962476    0.020330053596    0.021177079733    -0.000005465961    -0.000046391633    -0.011848077898    0.040940555046
            -0.008708633277    0.042474416345    -0.000005465966    -0.000046391629    0.028218675309    0.023648522937    -0.000001327919    -0.000052243572
            0.000014678430    -0.000061266184    -0.011848099417    0.040940575885    -0.000001327908    -0.000052243677    0.020100315027    0.021016537940
0.125     0.069545953931    0.036330837750    -0.000058516260    -0.000057595345    0.037095410801    0.072101564179    -0.000052376831    -0.000075462328
            -0.000058516258    -0.000057595343    0.060139770387    0.040529358752    -0.000058113855    -0.000055568639    0.032857994561    0.073780256495
            0.037095388949    0.072101586667    -0.000058113851    -0.000055568636    0.069249391960    0.036459803350    -0.000063815286    -0.000070961878
            -0.000052376831    -0.000075462328    0.032857980127    0.073780276059    -0.000063815292    -0.000070961884    0.059855752482    0.040528849642
0.150     0.101970364397    0.003128987338    -0.000106285572    -0.000007974881    0.090642178214    0.042576897844    -0.000109132606    -0.000025402740
            -0.000106285572    -0.000007974881    0.098700885140    0.011106650436    -0.000103026406    -0.000013398695    0.089138838208    0.046504469630
            0.090642167068    0.042576921574    -0.000103026396    -0.000013398694    0.101984422660    0.003480024636    -0.000124867301    -0.000022661168
            -0.000109132606    -0.000025402740    0.089138826033    0.046504492967    -0.000124867321    -0.000022661171    0.098665415066    0.011342774197
0.175     0.091706898065    -0.037781480092    -0.000092980756    0.000063626811    0.089435058384    -0.016061074872    -0.000103680773    0.000050380127
            -0.000092980742    0.000063626849    0.093443892974    -0.035933076893    -0.000096974148    0.000052231836    0.090620959314    -0.014813688541
            0.089435046841    -0.016061048630    -0.000096974167    0.000052231781    0.092162100192    -0.037638676166    -0.000121762922    0.000060208338
            -0.000103680773    0.000050380127    0.090620951453    -0.014813662247    -0.000121762929    0.000060208369    0.093789493121    -0.035912362813
0.200     0.063136475958    -0.047270278168    -0.000026266761    0.000087865598    0.043354083323    -0.034394981680    -0.000041220368    0.000082452216
            -0.000026266760    0.000087865596    0.057436795390    -0.053296321049    -0.000037920101    0.000081407188    0.041083083204    -0.037156543241
            0.043354078878    -0.034394953495    -0.000037920101    0.000081407187    0.063589946876    -0.047642525763    -0.000051845641    0.000098998620
            -0.000041220369    0.000082452218    0.041083087550    -0.037156514583    -0.000051845538    0.000098998550    0.057655614632    -0.053723891883
0.225     0.052757050591    -0.035708642508    0.000013896714    0.000035840238    0.020300655672    0.000369879042    0.000001009442    0.000037101345
            0.000013896712    0.000035840240    0.032839666329    -0.035300703261    0.000005463488    0.000035934326    0.011186529553    0.000921389631
            0.020300655995    0.000369916192    0.000005463483    0.000035934325    0.052800031812    -0.036200989863    0.000000292040    0.000049765279
            0.000001009442    0.000037101342    0.011186529917    0.000921409573    0.000000292043    0.000049765232    0.032644958403    -0.035652028341
0.250     0.061510766352    -0.032058951709    -0.000037523569    -0.000012961585    0.052287577431    0.029506932522    -0.000047445307    -0.000012499020
            -0.000037523569    -0.000012961577    0.041567879525    -0.012392040006    -0.000041014304    -0.000017547419    0.043903583928    0.039274839662
            0.052287584072    0.029506967553    -0.000041014305    -0.000017547411    0.061465542560    -0.032169679013    -0.000048900377    -0.000009393160
            -0.000047445310    -0.000012499021    0.043903592338    0.039274869257    -0.000048900377    -0.000009393169    0.041488541087    -0.012307776811
0.275     0.072892667852    -0.042335889951    -0.000116492547    0.000039423799    0.100329180163    0.007286685039    -0.000133136991    0.000036567909
            -0.000116492547    0.000039423799    0.070841886879    -0.013937355555    -0.000127822694    0.000027991916    0.100922970788    0.019098014118
            0.100329179349    0.007286696246    -0.000127822640    0.000027991927    0.073361624925    -0.042352530233    -0.000144284363    0.000040221432
            -0.000133137052    0.000036567876    0.100922986773    0.019098037213    -0.000144284372    0.000040221435    0.071350540868    -0.013986542880
0.300     0.082540745779    -0.068277446256    -0.000097950202    0.000162051695    0.111945039533    -0.054269474742    -0.000127632745    0.000168983590
            -0.000097950197    0.000162051687    0.093922051269    -0.051917883044    -0.000121714400    0.000158261308    0.116665683276    -0.049221702344
            0.111945038585    -0.054269476696    -0.000121714394    0.000158261300    0.083332463273    -0.068905675381    -0.000139842225    0.000185910994
            -0.000127632745    0.000168983590    0.116665702798    -0.049221681797    -0.000139842243    0.000185911018    0.094462271389    -0.052717881845
0.325     0.069267952826    -0.114602833085    0.000036227073    0.000215444057    0.069198244943    -0.109016417493    0.000008114970    0.000245975606
            0.000036227149    0.000215444094    0.072753894482    -0.112390001605    0.000014162938    0.000227884924    0.067425670417    -0.108893228081
            0.069198243040    -0.109016418701    0.000014162976    0.000227884882    0.069576803857    -0.115818867862    0.000011190140    0.000270745940
            0.000008115044    0.000245975644    0.067425691323    -0.108893215136    0.000011190165    0.000270745979    0.072530253867    -0.113477786898
0.350     0.007204077802    -0.148494543059    0.000155413125    0.000122794033    -0.003126092904    -0.113965493431    0.000151494098    0.000165503906
            0.000155413187    0.000122793971    -0.005537861500    -0.140362226885    0.000146895779    0.000140151987    -0.011964134423    -0.107574053230
            -0.003126094893    -0.113965493377    0.000146895777    0.000140151975    0.006849756607    -0.149469199697    0.000169453349    0.000179612181
            0.000151494160    0.000165503835    -0.011964056445    -0.107574001532    0.000169453352    0.000179612192    -0.006209946467    -0.140792935654
0.375     -0.068596488003    -0.112756045943    0.000123439567    -0.000022209710    -0.048193048074    -0.059420331551    0.000139663381    0.000003551934
            0.000123439550    -0.000022209747    -0.080281018618    -0.083639824622    0.000120133808    -0.000012645031    -0.052716409304    -0.042685220006
            -0.048192995837    -0.059420309540    0.000120133788    -0.000012645034    -0.068857632825    -0.113073360831    0.000153685324    0.000002183173
            0.000139663371    0.000003551938    -0.052716407750    -0.042685218747    0.000153685344    0.000002183176    -0.080374479132    -0.083518348981
0.400     -0.069635110342    -0.030266083752    -0.000031117795    -0.000028539164    -0.017441365152    -0.000117360669    -0.000027534091    -0.000024407788
            -0.000031117789    -0.000028539149    -0.059718387013    0.005926593510    -0.000041972990    -0.000019382982    -0.010265028857    0.015666286424
            -0.017441361152    -0.000117360642    -0.000041972912    -0.000019382955    -0.069196526868    -0.030587176669    -0.000027033135    -0.000022864576
            -0.000027534089    -0.000024407778    -0.010264932019    0.015666305640    -0.000027033136    -0.000022864577    -0.059139023521    0.005503776444
0.425     0.006792006291    -0.019805004891    -0.000060608088    0.000158151524    0.052159326540    -0.026502032828    -0.000082782167    0.000176155865
            -0.000060608103    0.000158151562    0.031164144481    0.002145109685    -0.000071300756    0.000181475024    0.060030274003    -0.022766183008
            0.052159324689    -0.026502036470    -0.000071300756    0.000181475024    0.007488376124    -0.020829734611    -0.000077793110    0.000195626866
            -0.000082782140    0.000176155888    0.060030276948    -0.022766186522    -0.000077793174    0.000195626927    0.031380282174    0.000948315441
0.450     0.017671196664    -0.113276993141    0.000162146577    0.000232993423    0.034424100624    -0.125631491055    0.000151327224    0.000286824088
            0.000162146583    0.000232993407    0.037518481640    -0.106048534369    0.000169001276    0.000264701852    0.034090977622    -0.122075031034
            0.034424187038    -0.125631488114    0.000169001290    0.000264701843    0.017878686788    -0.114797275654    0.000182156554    0.000308455379
            0.000151327282    0.000286824149    0.034090975492    -0.122075031629    0.000182156559    0.000308455376    0.037029780206    -0.107100679147
0.475     -0.098864967326    -0.159828833912    0.000302994933    0.000032737451    -0.090325157828    -0.152669646496    0.000335249639    0.000088518688
            0.000302994926    0.000032737422    -0.090207922633    -0.153558444483    0.000326333834    0.000054836679    -0.094291222184    -0.141119665681
            -0.090325152736    -0.152669637890    0.000326333817    0.000054836658    -0.099112071151    -0.161209007440    0.000381983282    0.000085839285
            0.000335250016    0.000088518594    -0.094291186443    -0.141119665508    0.000381983276    0.000085839262    -0.090590589613    -0.154113384583
0.500     -0.211557243017    -0.065099997144    0.000199418844    -0.000150587855    -0.184957783374    -0.050298578461    0.000251951755    -0.000133399831
            0.000199418857    -0.000150587854    -0.205513937404    -0.049422543428    0.000225329733    -0.000141817388    -0.182221016703    -0.031890626530
            -0.184957783374    -0.050298578461    0.000225329728    -0.000141817396    -0.211802036084    -0.066305320664    0.000287381978    -0.000159115117
            0.000251951755    -0.000133399831    -0.182221016703    -0.031890626530    0.000287381969    -0.000159115113    -0.205434193654    -0.050239216861
0.525     -0.189176377109    0.084816796901    0.000026569226    -0.000162592747    -0.149228074391    0.082485127084    0.000053995774    -0.000178505733
            0.000026569225    -0.000162592737    -0.173890658510    0.105590047337    0.000049635450    -0.000158616217    -0.137315763872    0.097038287619
            -0.149228001267    0.082485052663    0.000049635451    -0.000158616238    -0.189414306716    0.083479553212    0.000071435850    -0.000202903243
            0.000053995766    -0.000178505684    -0.137315723039    0.097038258763    0.000071435554    -0.000202903486    -0.174107452430    0.104079776044
0.550     -0.053592345819    0.128633233331    -0.000070996605    -0.000013404194    -0.021553129452    0.106487050758    -0.000082125115    -0.000016010084
            -0.000070996607    -0.000013404194    -0.030208662081    0.143806709451    -0.000045047376    -0.000009054707    -0.011776178432    0.112294482024
            -0.021553127468    0.106487040957    -0.000045047360    -0.000009054696    -0.054100556725    0.127243244516    -0.000061834422    -0.000026233031
            -0.000082125116    -0.000016010084    -0.011776175429    0.112294472284    -0.000061834442    -0.000026233039    -0.031357837401    0.142365916498
0.575     -0.000298635065    0.016193142510    0.000101129775    0.000143311263    0.022984238487    -0.013717262504    0.000097952438    0.000183384649
            0.000101129783    0.000143311257    0.037484334588    0.022394740430    0.000136247493    0.000141799575    0.025155796254    -0.006703405820
            0.022984227548    -0.013717265224    0.000136247505    0.000141799563    -0.000978991859    0.014987246347    0.000139919892    0.000168571575
            0.000097952443    0.000183384635    0.025155833579    -0.006703491003    0.000139919877    0.000168571587    0.036150777761    0.021965357212
0.600     -0.114285062843    -0.044113213118    0.000293431633    -0.000072661018    -0.108952147363    -0.069302859360    0.000338054155    -0.000035515501
            0.000293431620    -0.000072661031    -0.091254834502    -0.046119965555    0.000332158208    -0.000087521431    -0.106510669031    -0.054736557600
            -0.108952111076    -0.069302916407    0.000332158195    -0.000087521440    -0.114596637785    -0.045303618825    0.000386791887    -0.000079491523
            0.000338054143    -0.000035515516    -0.106510669031    -0.054736557600    0.000386791889    -0.000079491510    -0.091705138004    -0.046591225029
0.625     -0.201844165387    0.073333521554    0.000121552033    -0.000270459139    -0.203198282239    0.052646424746    0.000176940386    -0.000279246773
            0.000121552251    -0.000270459447    -0.188450930583    0.069547882300    0.000158517905    -0.000296330998    -0.194273635499    0.073718335143
            -0.203198252214    0.052646341276    0.000158518019    -0.000296330926    -0.202318967826    0.071773367368    0.000205549726    -0.000344512219
            0.000176940337    -0.000279246792    -0.194273635499    0.073718335143    0.000205550259    -0.000344512797    -0.189045017264    0.068244571109
0.650     -0.143463645722    0.205216007868    -0.000053305712    -0.000226198107    -0.146849147648    0.190789638540    -0.000030067707    -0.000264403346
            -0.000053305824    -0.000226198050    -0.134861403841    0.207419163824    -0.000018749547    -0.000265807452    -0.128276071838    0.207472481657
            -0.146849129350    0.190789614766    -0.000018749546    -0.000265807442    -0.144440373259    0.203694473169    -0.000023336575    -0.000328436050
            -0.000030067839    -0.000264403270    -0.128276066579    0.207472473151    -0.000023336565    -0.000328436060    -0.136424416996    0.206127942106
0.675     -0.015813370424    0.237513955251    -0.000122478432    -0.000123724286    -0.014275913650    0.224989501129    -0.000139193420    -0.000152443619
            -0.000122478432    -0.000123724286    -0.004400208412    0.246132811056    -0.000101080302    -0.000178045787    0.004454530434    0.232733733983
            -0.014275909851    0.224989441249    -0.000101080297    -0.000178045779    -0.016991333745    0.236550394271    -0.000138754584    -0.000206902242
            -0.000139193387    -0.000152443690    0.004454530243    0.232733723984    -0.000138754570    -0.000206902299    -0.006347711835    0.245849156157
0.700     0.070878462518    0.164843637280    -0.000106784629    0.000002841966    0.074274248007    0.142142759443    -0.000133494988    0.000012500336
            -0.000106784629    0.000002841966    0.091596317564    0.173677078820    -0.000105725989    -0.000051791561    0.087194778085    0.149115278903
            0.074274248007    0.142142759443    -0.000105725989    -0.000051791561    0.070305175599    0.164340764236    -0.000129331061    -0.000041946731
            -0.000133494988    0.000012500336    0.087194778085    0.149115278903    -0.000129331051    -0.000041946728    0.090574681709    0.174159813294
0.725     0.039426334392    0.083071664519    0.000057832471    0.000033223238    0.026816955313    0.049175284510    0.000064055214    0.000061764030
            0.000057832464    0.000033223213    0.064958052528    0.078238629245    0.000052809064    -0.000008751389    0.039001027551    0.059726113206
            0.026816951401    0.049175285505    0.000052809101    -0.000008751395    0.039627255129    0.081840157251    0.000066630934    -0.000002907062
            0.000064055224    0.000061764013    0.039001026508    0.059726113887    0.000066630892    -0.000002907060    0.064968154779    0.077731188736
0.750     -0.025290353654    0.112759206845    0.000094841331    -0.000168727088    -0.062568671914    0.089820116790    0.000124719475    -0.000169427148
            0.000094841331    -0.000168727088    -0.014526195847    0.099660406894    0.000101369906    -0.000212512196    -0.048284443645    0.106236529316
            -0.062568733149    0.089820037572    0.000101369910    -0.000212512205    -0.025869260132    0.110444316778    0.000115592053    -0.000244477450
            0.000124719478    -0.000169427158    -0.048284505399    0.106236468295    0.000115592053    -0.000244477450    -0.015726198912    0.097914455004
0.775     -0.002421101131    0.187773112102    -0.000102722321    -0.000239543034    -0.053528355177    0.193602493289    -0.000094098447    -0.000274059514
            -0.000102722283    -0.000239543061    -0.002788953301    0.184086284542    -0.000100216662    -0.000308102859    -0.015712254412    0.214651738989
            -0.053528355177    0.193602493289    -0.000100216716    -0.000308102842    -0.004337856964    0.186007965700    -0.000122360372    -0.000350925962
