# GHz S RI R 45
0.000     0.036929549000    0.000000000000    0.962461010000    -0.000000000000    0.001113604400    0.000000000000    -0.001357365200    0.000000000000
            0.962461010000    -0.000000000000    0.036818260000    0.000000000000    -0.001381279900    0.000000000000    0.000989215010    0.000000000000
            0.001113549100    0.000000000000    -0.001381298700    0.000000000000    0.036910025000    0.000000000000    0.962505930000    -0.000000000000
            -0.001357388800    0.000000000000    0.000989180640    0.000000000000    0.962505920000    -0.000000000000    0.036687420000    0.000000000000
0.025     0.063563350048    0.006943098547    0.694335235838    -0.649159361250    0.012957906493    0.012171569284    -0.004596815549    -0.002391939251
            0.694335235838    -0.649159361250    0.058055825681    0.003259111850    -0.004585673916    -0.002382820002    0.012915845319    0.012518776454
            0.012957874133    0.012171578904    -0.004585699918    -0.002382797938    0.063558621434    0.007005255241    0.694323246988    -0.649165390182
            -0.004596843566    -0.002391915088    0.012915822157    0.012518780236    0.694323246988    -0.649165390182    0.058258304240    0.003265401253
0.050     0.064664765604    -0.020719169978    0.072861667541    -0.940873527003    0.018537450378    0.001982961929    -0.009582294720    0.000672894558
            0.072861667541    -0.940873527003    0.053038293969    -0.018393623424    -0.009578080846    0.000667864757    0.018935049725    0.001129518945
            0.018537422259    0.001982980356    -0.009578084500    0.000667898609    0.064778739960    -0.020598008448    0.072853110349    -0.940865634103
            -0.009582298938    0.000672930148    0.018935027127    0.001129528310    0.072853110349    -0.940865634103    0.053123533613    -0.018627844682
0.075     0.035519637696    -0.024538250147    -0.578390795141    -0.738671061032    0.000201092541    0.006214915132    -0.011499914677    0.010293872280
            -0.578390795141    -0.738671061032    0.024733770356    -0.015341599666    -0.011496568577    0.010292160233    -0.003506033816    0.001549511976
            0.000201073740    0.006214938152    -0.011496550001    0.010292186980    0.035816474810    -0.024509869624    -0.578392000180    -0.738661976201
            -0.011499893250    0.010293903714    -0.003506055055    0.001549525020    -0.578392000180    -0.738661976201    0.024642060380    -0.015594368813
0.100     0.032944264438    0.008737208022    -0.918162750226    -0.152966149954    0.005522442946    0.042981809439    -0.000768742620    0.022158498054
            -0.918162750226    -0.152966149954    0.020330053596    0.021177079733    -0.000763987797    0.022148586515    -0.011848077898    0.040940555046
            0.005522432119    0.042981832003    -0.000763954408    0.022148594671    0.033286321543    0.008539610671    -0.918161180967    -0.152957983062
            -0.000768708443    0.022158506243    -0.011848099417    0.040940575885    -0.918161180967    -0.152957983062    0.020100315027    0.021016537940
0.125     0.078034152114    0.014914721820    -0.774573990069    0.499471475710    0.059771405141    0.054023759631    0.019845461123    0.018046843633
            -0.774573990069    0.499471475710    0.060139770387    0.040529358752    0.019836617277    0.018031806908    0.032857994561    0.073780256495
            0.059771396871    0.054023788169    0.019836648816    0.018031790052    0.078272041699    0.014590248830    -0.774565892430    0.499486542672
            0.019845490789    0.018046828847    0.032857980127    0.073780276059    -0.774565892430    0.499486542672    0.059855752482    0.040528849642
0.150     0.105310507116    -0.038814207595    -0.239182796603    0.882394741436    0.099013708342    -0.000997618800    0.027795578212    -0.002141621210
            -0.239182796603    0.882394741436    0.098700885140    0.011106650436    0.027773784288    -0.002134709466    0.089138838208    0.046504469630
            0.099013706609    -0.000997592271    0.027773796804    -0.002134742366    0.105508570284    -0.039163310717    -0.239153622712    0.882390796100
            0.027795587366    -0.002141645583    0.089138826033    0.046504492967    -0.239153622712    0.882390796100    0.098665415066    0.011342774197
0.175     0.064944163867    -0.092933881245    0.411037452281    0.813283774572    0.063416730259    -0.062340670321    0.020248499343    -0.018597529598
            0.411037452281    0.813283774572    0.093443892974    -0.035933076893    0.020254872543    -0.018576951809    0.090620959314    -0.014813688541
            0.063416736971    -0.062340642096    0.020254860489    -0.018576985664    0.065160152985    -0.093380358864    0.411040858624    0.813252752744
            0.020248487582    -0.018597563099    0.090620951453    -0.014813662247    0.411040872817    0.813252745570    0.093789493121    -0.035912362813
0.200     0.004294209839    -0.082544634886    0.850295102817    0.326248440328    -0.000630815508    -0.051430518546    0.007852438238    -0.029620878828
            0.850295102817    0.326248440328    0.057436795390    -0.053296321049    0.007864328312    -0.029628659343    0.041083083204    -0.037156543241
            -0.000630799057    -0.051430494745    0.007864305286    -0.029628672697    0.004405503448    -0.083141452296    0.850277377231    0.326240873106
            0.007852406684    -0.029620895469    0.041083087550    -0.037156514583    0.850277377231    0.326240873106    0.057655614632    -0.053723891883
0.225     -0.001638636656    -0.038551574548    0.845243519943    -0.332014447767    0.000520521087    0.003894035849    -0.014935205298    -0.035366880014
            0.845243516430    -0.332014429359    0.032839666329    -0.035300703261    -0.014942463241    -0.035368839361    0.011186529553    0.000921389631
            0.000520550877    0.003894057392    -0.014942502615    -0.035368829240    -0.001737481233    -0.039080754951    0.845240564217    -0.332015517473
            -0.014935238496    -0.035366872508    0.011186529917    0.000921409573    0.845240564217    -0.332015517473    0.032644958403    -0.035652028341
0.250     0.031628444362    -0.042034422892    0.396512379465    -0.809193747197    0.057062700899    0.000114612339    -0.043086553038    -0.018148759266
            0.396512379465    -0.809193747197    0.041567879525    -0.012392040006    -0.043078181425    -0.018149022007    0.043903583928    0.039274839662
            0.057062731873    0.000114624960    -0.043078204636    -0.018148987521    0.031625258068    -0.042339213944    0.396495056643    -0.809202858919
            -0.043086572159    -0.018148731903    0.043903592338    0.039274869257    0.396495042520    -0.809202865840    0.041488541087    -0.012307776811
0.275     0.022486922841    -0.091130212243    -0.247716307594    -0.856203141670    0.063049152269    -0.073826426393    -0.048377686132    0.021369031864
            -0.247716310373    -0.856203151276    0.070841886879    -0.013937355555    -0.048398632602    0.021346189060    0.100922970788    0.019098014118
            0.063049161309    -0.073826423932    -0.048398632470    0.021346209183    0.022849849242    -0.091559964112    -0.247736005098    -0.856178308609
            -0.048377681276    0.021369070083    0.100922986773    0.019098037213    -0.247736005098    -0.856178308609    0.071350540868    -0.013986542880
0.300     -0.044270912005    -0.110435731165    -0.748914497927    -0.465648955903    -0.017987073962    -0.116509173852    -0.018918342620    0.052820846514
            -0.748914506419    -0.465648961183    0.093922051269    -0.051917883044    -0.018968312314    0.052867823852    0.116665683276    -0.049221702344
            -0.017987074470    -0.116509163655    -0.018968289360    0.052867846961    -0.043916423683    -0.111400177785    -0.748889599929    -0.465622601122
            -0.018918319684    0.052820869600    0.116665702798    -0.049221681797    -0.748889599929    -0.465622601122    0.094462271389    -0.052717881845
0.325     -0.106279457738    -0.064793745736    -0.862149613276    0.151214352748    -0.100821937635    -0.065041995967    0.023650733322    0.051286278567
            -0.862149613276    0.151214352748    0.072753894482    -0.112390001605    0.023712596574    0.051376169784    0.067425670417    -0.108893228081
            -0.100821929232    -0.065041990546    0.023712631973    0.051376171067    -0.106473764997    -0.065977072350    -0.862119829393    0.151190827498
            0.023650767771    0.051286280300    0.067425691323    -0.108893215136    -0.862119829393    0.151190827498    0.072530253867    -0.113477786898
0.350     -0.115389264664    0.006097176757    -0.539924028272    0.685444821478    -0.102215386796    0.023668325377    0.050554443039    0.022997456736
            -0.539924028272    0.685444821478    -0.005537861500    -0.140362226885    0.050680078015    0.022950421140    -0.011964134423    -0.107574053230
            -0.102215386796    0.023668325377    0.050680103185    0.022950399495    -0.115932084006    0.005343847205    -0.539950263776    0.685406510917
            0.050554467716    0.022997433884    -0.011964056445    -0.107574001532    -0.539950257587    0.685406503061    -0.006209946467    -0.140792935654
0.375     -0.080822157578    0.050017565576    0.058171001910    0.870905984813    -0.042876862963    0.056917229893    0.056173411164    -0.011747344025
            0.058171001910    0.870905984813    -0.080281018618    -0.083639824622    0.056173220528    -0.011876419440    -0.052716409304    -0.042685220006
            -0.042876843414    0.056917183272    0.056173225130    -0.011876446019    -0.081026914174    0.049604583113    0.058115479554    0.870935378575
            0.056173416759    -0.011747375894    -0.052716407750    -0.042685218747    0.058115479554    0.870935378575    -0.080374479132    -0.083518348981
0.400     -0.048529804028    0.050742973036    0.630056304694    0.603434198940    -0.013328226879    0.021906979836    0.043841971327    -0.049640283566
            0.630056304694    0.603434198940    -0.059718387013    0.005926593510    0.043773842316    -0.049700037066    -0.010265028857    0.015666286424
            -0.013328230182    0.021906976656    0.043773824183    -0.049700063698    -0.048356180222    0.049950271416    0.630081060504    0.603507817215
            0.043841953231    -0.049640310222    -0.010264932019    0.015666305640    0.630081060504    0.603507817215    -0.059139023521    0.005503776444
0.425     -0.054204330480    0.039100443415    0.865455731569    0.016205992412    -0.057023793308    -0.003052584857    -0.002184860265    -0.080881263368
            0.865455731541    0.016205993923    0.031164144481    0.002145109685    -0.002278490929    -0.080937566206    0.060030274003    -0.022766183008
            -0.057023793308    -0.003052584857    -0.002278519463    -0.080937575407    -0.054479691264    0.037846987161    0.865529332884    0.016195390125
            -0.002184888795    -0.080881273601    0.060030276948    -0.022766186522    0.865529332912    0.016195388615    0.031380282174    0.000948315441
0.450     -0.083540932927    0.065990243675    0.636915939154    -0.562664602141    -0.111197841986    0.051249753321    -0.072554341428    -0.059572445001
            0.636915946649    -0.562664608762    0.037518481640    -0.106048534369    -0.072760598226    -0.059512327485    0.034090977622    -0.122075031034
            -0.111197859601    0.051249667318    -0.072760619450    -0.059512323649    -0.084410128114    0.065187521807    0.636922878355    -0.562700896082
            -0.072554362645    -0.059572441222    0.034090975492    -0.122075031629    0.636922878355    -0.562700896082    0.037029780206    -0.107100679147
0.475     -0.076339415453    0.136457706715    0.097274838984    -0.824016526286    -0.087620185745    0.147586461847    -0.096039671565    0.020749019694
            0.097274838984    -0.824016526286    -0.090207922633    -0.153558444483    -0.096081831907    0.021060872791    -0.094291222184    -0.141119665681
            -0.087620180640    0.147586453248    -0.096081848976    0.021060911683    -0.076801378293    0.136398271282    0.097312592759    -0.824025048164
            -0.096039686804    0.020749058075    -0.094291186443    -0.141119665508    0.097312592759    -0.824025048164    -0.090590589613    -0.154113384583
0.500     -0.000826041851    0.193394315879    -0.459326289327    -0.673773979729    0.010451675262    0.190306071283    -0.042340979927    0.081506169965
            -0.459326289327    -0.673773979729    -0.205513937404    -0.049422543428    -0.042025376594    0.081678577791    -0.182221016703    -0.031890626530
            0.010451675262    0.190306071283    -0.042025376594    0.081678577791    -0.000352241399    0.193089648714    -0.459301970290    -0.673901799922
            -0.042340979927    0.081506169965    -0.182221016703    -0.031890626530    -0.459301970290    -0.673901799922    -0.205434193654    -0.050239216861
0.525     0.104074661170    0.171392999459    -0.787960010741    -0.210451086962    0.099387001618    0.141760395002    0.021827061706    0.073945031707
            -0.787960010741    -0.210451086962    -0.173890658510    0.105590047337    0.022078259818    0.073738891473    -0.137315763872    0.097038287619
            0.099386925211    0.141760338655    0.022078250662    0.073738888995    0.104633901272    0.170024573053    -0.788151694923    -0.210543694418
            0.021827121565    0.073945077640    -0.137315723039    0.097038258763    -0.788151694923    -0.210543694418    -0.174107452430    0.104079776044
0.550     0.145043615647    0.073266780080    -0.742109500935    0.371287253512    0.103765880654    0.054001914148    0.047941057988    0.046628671753
            -0.742109500935    0.371287253512    -0.030208662081    0.143806709451    0.047905686592    0.046431924447    -0.011776178432    0.112294482024
            0.103765870841    0.054001911343    0.047905769847    0.046431917576    0.144556538912    0.071442863118    -0.742272329127    0.371480005079
            0.047941057174    0.046628672590    -0.011776175429    0.112294472284    -0.742272329127    0.371480005079    -0.031357837401    0.142365916498
0.575     0.081571545071    0.021383470067    -0.291012937325    0.788367420708    0.029307574658    0.038332619321    0.081648105073    0.023773118070
            -0.291012937325    0.788367420708    0.037484334588    0.022394740430    0.081657919499    0.023667407738    0.025155796254    -0.006703405820
            0.029307571066    0.038332627102    0.081657973490    0.023667350775    0.080430112165    0.020399719430    -0.290908363160    0.788564086131
            0.081648129564    0.023773091192    0.025155833579    -0.006703491003    -0.290908363160    0.788564086131    0.036150777761    0.021965357212
0.600     0.039723638635    0.088493365828    0.327783858118    0.754435208919    0.024892531444    0.129979463643    0.098314662583    -0.061577311772
            0.327783840965    0.754435205468    -0.091254834502    -0.046119965555    0.098119400965    -0.061887374433    -0.106510669031    -0.054736557600
            0.024892460731    0.129979487367    0.098119399152    -0.061887452285    0.039513319743    0.088410050673    0.327927657859    0.754459488137
            0.098314668417    -0.061577396654    -0.106510669031    -0.054736557600    0.327927657859    0.754459488137    -0.091705138004    -0.046591225029
0.625     0.138155659901    0.132073667082    0.714990749632    0.328360920441    0.145893725161    0.155392780017    0.003320463821    -0.126552876730
            0.714990740544    0.328360916268    -0.188450930583    0.069547882300    0.002783327773    -0.126425575475    -0.194273635499    0.073718335143
            0.145893657229    0.155392816363    0.002783304162    -0.126425606002    0.138857609409    0.131149323108    0.715135869718    0.328318979484
            0.003320440312    -0.126552907358    -0.194273635499    0.073718335143    0.715135869718    0.328318979484    -0.189045017264    0.068244571109
0.650     0.240566678114    0.039242031288    0.738130848469    -0.202986797449    0.235444727470    0.045456309984    -0.092646748918    -0.069462432418
            0.738130852012    -0.202986784566    -0.134861403841    0.207419163824    -0.092703683476    -0.068853153458    -0.128276071838    0.207472481657
            0.235444710212    0.045456293865    -0.092703755678    -0.068853156874    0.240772546741    0.037220767556    0.738215772893    -0.203172044061
            -0.092646821170    -0.069462436071    -0.128276066579    0.207472473151    0.738215772893    -0.203172044061    -0.136424416996    0.206127942106
0.675     0.217109178095    -0.119106969519    0.440203167260    -0.631414407417    0.195086226305    -0.097295302206    -0.089027945081    0.018482535400
            0.440203167260    -0.631414407417    -0.004400208412    0.246132811056    -0.088528760576    0.018708711431    0.004454530434    0.232733733983
            0.195086181103    -0.097295258403    -0.088528792532    0.018708734326    0.216186811763    -0.121068989492    0.440066233998    -0.631590086384
            -0.089028008147    0.018482580909    0.004454530243    0.232733723984    0.440066245022    -0.631590078703    -0.006347711835    0.245849156157
0.700     0.058139686487    -0.187001574189    -0.084586638043    -0.789968538857    0.050301948985    -0.139544376875    -0.047575387435    0.043835134183
            -0.084586638043    -0.789968538857    0.091596317564    0.173677078820    -0.047338321742    0.043582087524    0.087194778085    0.149115278903
            0.050301948985    -0.139544376875    -0.047338322477    0.043582088201    0.057037538370    -0.187898875526    -0.084745327164    -0.789929525395
            -0.047575388170    0.043835134861    0.087194778085    0.149115278903    -0.084745327164    -0.789929525395    0.090574681709    0.174159813294
0.725     -0.051295736469    -0.062454963024    -0.621031355726    -0.531327464900    -0.027233558929    -0.016179099263    -0.041594758977    0.064356943821
            -0.621031355726    -0.531327464900    0.064958052528    0.078238629245    -0.041538632197    0.064324636424    0.039001027551    0.059726113206
            -0.027233552911    -0.016179095688    -0.041538632197    0.064324636424    -0.051245529912    -0.063165949743    -0.621096038770    -0.531315218799
            -0.041594738851    0.064356986596    0.039001026508    0.059726113887    -0.621096038770    -0.531315218799    0.064968154779    0.077731188736
0.750     0.059892868897    0.029014732466    -0.803905041748    0.051176819548    0.097379561226    0.050479418045    0.021737256873    0.111091879315
            -0.803905041748    0.051176819548    -0.014526195847    0.099660406894    0.022012968790    0.110780180770    -0.048284443645    0.106236529316
            0.097379585421    0.050479501745    0.022012962989    0.110780181922    0.060217140182    0.027007833773    -0.804090535793    0.051330102387
            0.021737249118    0.111091880832    -0.048284505399    0.106236468295    -0.804090545773    0.051330103024    -0.015726198912    0.097914455004
0.775     0.140079777113    -0.100058749316    -0.534776640035    0.555024709428    0.177119010142    -0.092313466006    0.119620884413    0.052871895177
            -0.534776640035    0.555024709428    -0.002788953301    0.184086284542    0.119223338014    0.052314153472    -0.015712254412    0.214651738989
            0.177118998052    -0.092313467566    0.119223338014    0.052314153472    0.139162544428    -0.102715901290    -0.534601928601    0.555334918663
            0.119620960515    0.052871871414    -0.015712254412    0.214651738989    -0.534601928601    0.555334918663    -0.005504043713    0.183465666807
