# GHz S RI R 45
0.000     0.037459669000    0.000000000000    -0.000100851930    0.000000000000    0.001169336900    0.000000000000    -0.000114347820    0.000000000000
            -0.000100850140    0.000000000000    0.036818260000    0.000000000000    -0.000076915149    0.000000000000    0.000989215010    0.000000000000
            0.001169415100    0.000000000000    -0.000076912405    0.000000000000    0.037367874000    0.000000000000    -0.000073713696    0.000000000000
            -0.000114347270    0.000000000000    0.000989180640    0.000000000000    -0.000073716847    0.000000000000    0.036687420000    0.000000000000
0.025     0.062684561705    0.005180379488    -0.000351581867    -0.000220533037    0.012999873078    0.011782738290    -0.000270398864    -0.000164923486
            -0.000351581501    -0.000220533321    0.058055825681    0.003259111850    -0.000442042029    -0.000303428273    0.012915845319    0.012518776454
            0.012999894199    0.011782667338    -0.000442041219    -0.000303428852    0.062761528756    0.005217278972    -0.000351935667    -0.000239101968
            -0.000270398402    -0.000164923917    0.012915822157    0.012518780236    -0.000351935114    -0.000239101323    0.058258304240    0.003265401253
0.050     0.062052028629    -0.022989705285    -0.000807139019    0.000033054008    0.018353694024    0.000963238837    -0.000649291053    0.000010980200
            -0.000807139026    0.000033053585    0.053038293969    -0.018393623424    -0.001016700439    0.000035332694    0.018935049725    0.001129518945
            0.018353634101    0.000963197628    -0.001016700370    0.000035331804    0.062174092824    -0.023076878821    -0.000818102124    0.000026875230
            -0.000649291027    0.000010979406    0.018935027127    0.001129528310    -0.000818102517    0.000026874528    0.053123533613    -0.018627844682
0.075     0.030775158461    -0.025962054297    -0.000939649199    0.000857389885    -0.001038930318    0.004766203632    -0.000779642793    0.000690543412
            -0.000939649498    0.000857389557    0.024733770356    -0.015341599666    -0.001174888379    0.001059401657    -0.003506033816    0.001549511976
            -0.001038990621    0.004766248417    -0.001174888860    0.001059400975    0.030744863735    -0.026109089153    -0.000950021373    0.000860275426
            -0.000779643154    0.000690543004    -0.003506055055    0.001549525020    -0.000950021073    0.000860275758    0.024642060380    -0.015594368813
0.100     0.026939397666    0.010188937019    -0.000063810766    0.001793726944    0.003254846424    0.042439652177    -0.000058838020    0.001474981922
            -0.000063810679    0.001793727147    0.020330053596    0.021177079733    -0.000108368223    0.002212459404    -0.011848077898    0.040940555046
            0.003254868813    0.042439720666    -0.000108369068    0.002212459263    0.026845084027    0.010211774047    -0.000070649149    0.001800026081
            -0.000058838763    0.001474981793    -0.011848099417    0.040940575885    -0.000070648273    0.001800026215    0.020100315027    0.021016537940
0.125     0.073814151297    0.019691207208    0.001602691276    0.001516529687    0.057560768537    0.055306578332    0.001318710335    0.001241722247
            0.001602691018    0.001516529814    0.060139770387    0.040529358752    0.001925974557    0.001916562981    0.032857994561    0.073780256495
            0.057560839818    0.055306579198    0.001925974252    0.001916563146    0.073907497619    0.019814795728    0.001594356413    0.001527554367
            0.001318709981    0.001241722477    0.032857980127    0.073780276059    0.001594355895    0.001527554618    0.059855752482    0.040528849642
0.150     0.104866167172    -0.033334035579    0.002380716942    -0.000148614391    0.098566117697    0.001650044455    0.001947695765    -0.000130147017
            0.002380716837    -0.000148614464    0.098700885140    0.011106650436    0.002952366701    -0.000071917492    0.089138838208    0.046504469630
            0.098566139788    0.001649979435    0.002952366320    -0.000071916704    0.105118777857    -0.033420882600    0.002383278683    -0.000121403323
            0.001947695762    -0.000130147065    0.089138826033    0.046504492967    0.002383278788    -0.000121403245    0.098665415066    0.011342774197
0.175     0.066512703241    -0.089837542240    0.001715533154    -0.001691970150    0.065499435068    -0.060041030838    0.001399379017    -0.001388104045
            0.001715533071    -0.001691969949    0.093443892974    -0.035933076893    0.002247250389    -0.002028607043    0.090620959314    -0.014813688541
            0.065499380425    -0.060041071210    0.002247250658    -0.002028606147    0.066604374949    -0.090133716243    0.001752904116    -0.001673761553
            0.001399378839    -0.001388102948    0.090620951453    -0.014813662247    0.001752903940    -0.001673762028    0.093789493121    -0.035912362813
0.200     0.004644104451    -0.080661275548    0.000483500947    -0.002555947540    0.002935369090    -0.051257752153    0.000390951584    -0.002100120884
            0.000483502006    -0.002555947034    0.057436795390    -0.053296321049    0.000720615616    -0.003226718238    0.041083083204    -0.037156543241
            0.002935313735    -0.051257710249    0.000720616530    -0.003226717829    0.004517563607    -0.080841530782    0.000522145021    -0.002583271320
            0.000390952519    -0.002100120405    0.041083087550    -0.037156514583    0.000522144885    -0.002583271348    0.057655614632    -0.053723891883
0.225     -0.002388819676    -0.033767249502    -0.001424558596    -0.002878664438    0.003201680699    0.002312134243    -0.001191690710    -0.002362441642
            -0.001424558182    -0.002878664865    0.032839666329    -0.035300703261    -0.001712831318    -0.003658961763    0.011186529553    0.000921389631
            0.003201704274    0.002312200836    -0.001712830637    -0.003658961971    -0.002386607730    -0.033736643293    -0.001421955419    -0.002917028555
            -0.001191689885    -0.002362442058    0.011186529917    0.000921409573    -0.001421954822    -0.002917028623    0.032644958403    -0.035652028341
0.250     0.035613122688    -0.032536729859    -0.003773301478    -0.001293703039    0.058860144220    -0.000345461283    -0.003118999434    -0.001026450323
            -0.003773301121    -0.001293704388    0.041567879525    -0.012392040006    -0.004631756762    -0.001740009001    0.043903583928    0.039274839662
            0.058860216215    -0.000345462311    -0.004631756949    -0.001740009072    0.035867802835    -0.032657644418    -0.003777275790    -0.001330376265
            -0.003118999160    -0.001026450836    0.043903592338    0.039274869257    -0.003777276254    -0.001330374947    0.041488541087    -0.012307776811
0.275     0.036844875974    -0.082892768912    -0.003937218061    0.002259048404    0.068367559056    -0.072028816298    -0.003206923080    0.001903762166
            -0.003937218234    0.002259048504    0.070841886879    -0.013937355555    -0.004989246749    0.002565619584    0.100922970788    0.019098014118
            0.068367575189    -0.072028868543    -0.004989247197    0.002565618713    0.036986029837    -0.083331282253    -0.003985279295    0.002200726611
            -0.003206923412    0.001903761607    0.100922986773    0.019098037213    -0.003985279383    0.002200726660    0.071350540868    -0.013986542880
0.300     -0.022169624196    -0.113467601784    -0.000935501798    0.004604101996    -0.005884941568    -0.118565732003    -0.000709409146    0.003792520961
            -0.000935501678    0.004604101408    0.093922051269    -0.051917883044    -0.001523015902    0.005658988881    0.116665683276    -0.049221702344
            -0.005884995285    -0.118565769386    -0.001523021620    0.005658982579    -0.022362873741    -0.113879730194    -0.001057551075    0.004627165748
            -0.000709409697    0.003792520247    0.116665702798    -0.049221681797    -0.001057551008    0.004627165456    0.094462271389    -0.052717881845
0.325     -0.088312100493    -0.082246816125    0.002521723792    0.003746241349    -0.087275768192    -0.078374522432    0.002125803333    0.003043424538
            0.002521723680    0.003746241183    0.072753894482    -0.112390001605    0.002869782831    0.004973206004    0.067425670417    -0.108893228081
            -0.087275824110    -0.078374490098    0.002869782818    0.004973205780    -0.088544742973    -0.082369914408    0.002486971146    0.003894295814
            0.002125803271    0.003043424337    0.067425691323    -0.108893215136    0.002486971078    0.003894295858    0.072530253867    -0.113477786898
0.350     -0.110146265846    -0.016632750017    0.004065355698    0.001202764238    -0.098506010458    0.000910577352    0.003360110746    0.000919017487
            0.004065355443    0.001202764394    -0.005537861500    -0.140362226885    0.005165060178    0.001860134167    -0.011964134423    -0.107574053230
            -0.098505990982    0.000910628754    0.005165060019    0.001860134313    -0.110139780064    -0.016708811789    0.004176867284    0.001294425489
            0.003360110586    0.000919017695    -0.011964056445    -0.107574001532    0.004176866721    0.001294425954    -0.006209946467    -0.140792935654
0.375     -0.083365567843    0.033899425803    0.004164033519    -0.001260760545    -0.052572022687    0.037490040043    0.003390668380    -0.001102651416
            0.004164033938    -0.001260760195    -0.080281018618    -0.083639824622    0.005433568886    -0.001430219876    -0.052716409304    -0.042685220006
            -0.052571948478    0.037490042489    0.005433569179    -0.001430219547    -0.083344338738    0.033587033375    0.004269069545    -0.001277747234
            0.003390668667    -0.001102651182    -0.052716407750    -0.042685218747    0.004269069325    -0.001277746924    -0.080374479132    -0.083518348981
0.400     -0.047183903230    0.039751033552    0.003204747830    -0.004188450030    -0.024624680044    0.014349356501    0.002577375327    -0.003493179994
            0.003204747890    -0.004188450109    -0.059718387013    0.005926593510    0.004236790184    -0.005169140383    -0.010265028857    0.015666286424
            -0.024624680908    0.014349357005    0.004236790247    -0.005169140460    -0.047369411781    0.039420030650    0.003304242040    -0.004239545474
            0.002577375447    -0.003493180030    -0.010264932019    0.015666305640    0.003304241978    -0.004239545395    -0.059139023521    0.005503776444
0.425     -0.045206709895    0.018436423571    -0.000948384454    -0.006599171052    -0.057123258987    -0.010384804494    -0.000917870150    -0.005454138516
            -0.000948384856    -0.006599171398    0.031164144481    0.002145109685    -0.000807653360    -0.008330708999    0.060030274003    -0.022766183008
            -0.057123325373    -0.010384847461    -0.000807649570    -0.008330707759    -0.045443874048    0.018361467220    -0.000898475837    -0.006782356750
            -0.000917870502    -0.005454138863    0.060030276948    -0.022766186522    -0.000898475771    -0.006782356255    0.031380282174    0.000948315441
0.450     -0.086042748341    0.027073990852    -0.006611410886    -0.003668284922    -0.112368608832    0.029494277974    -0.005596846967    -0.002851914382
            -0.006611410974    -0.003668284971    0.037518481640    -0.106048534369    -0.008029312737    -0.005102191808    0.034090977622    -0.122075031034
            -0.112368671391    0.029494315358    -0.008029312737    -0.005102191808    -0.086000922150    0.027069127708    -0.006808273252    -0.003836892628
            -0.005596846967    -0.002851914382    0.034090975492    -0.122075031629    -0.006808273252    -0.003836892628    0.037029780206    -0.107100679147
0.475     -0.107135948251    0.098941899948    -0.006668481434    0.003032919370    -0.109391041536    0.120423387738    -0.005382038420    0.002754794389
            -0.006668481252    0.003032919288    -0.090207922633    -0.153558444483    -0.008706852550    0.003263805264    -0.094291222184    -0.141119665681
            -0.109391026395    0.120423455531    -0.008706852269    0.003263805159    -0.107009282947    0.098647783797    -0.006897156176    0.003164125695
            -0.005382038242    0.002754794298    -0.094291186443    -0.141119665508    -0.006897156728    0.003164124491    -0.090590589613    -0.154113384583
0.500     -0.047497337248    0.181238769348    -0.001844875840    0.005901824217    -0.029085502217    0.181387397311    -0.001255282064    0.004881275629
            -0.001844875661    0.005901823644    -0.205513937404    -0.049422543428    -0.002900018971    0.007394197648    -0.182221016703    -0.031890626530
            -0.029085430986    0.181387398605    -0.002900019044    0.007394197834    -0.047663583618    0.180865620243    -0.001816835836    0.006103320728
            -0.001255281939    0.004881275145    -0.182221016703    -0.031890626530    -0.001816834751    0.006103328771    -0.205434193654    -0.050239216861
0.525     0.067731710296    0.184657126397    0.001521788151    0.004655082222    0.065293317334    0.159393238392    0.001383881646    0.003680078803
            0.001521787246    0.004655082202    -0.173890658510    0.105590047337    0.001586569177    0.006187829685    -0.137315763872    0.097038287619
            0.065293340110    0.159393175029    0.001586568820    0.006187830086    0.067479907158    0.184616933673    0.001606849754    0.004706180329
            0.001383881126    0.003680078785    -0.137315723039    0.097038258763    0.001606853070    0.004706182789    -0.174107452430    0.104079776044
0.550     0.131860446289    0.089945088201    0.003129077686    0.004018882062    0.095249918247    0.080827619462    0.002600128855    0.003202138900
            0.003129077695    0.004018882942    -0.030208662081    0.143806709451    0.003902180821    0.005398570270    -0.011776178432    0.112294482024
            0.095249882945    0.080827583786    0.003902180737    0.005398570947    0.132015143077    0.090068711338    0.003197086740    0.004108278471
            0.002600129717    0.003202139618    -0.011776175429    0.112294472284    0.003197087600    0.004108277801    -0.031357837401    0.142365916498
0.575     0.068048115621    0.008117381869    0.007582938835    0.002075522400    0.034805545457    0.044800089176    0.006353507168    0.001515495608
            0.007582939522    0.002075522162    0.037484334588    0.022394740430    0.009505926886    0.002907821387    0.025155796254    -0.006703405820
            0.034805479223    0.044800133035    0.009505927466    0.002907821202    0.068541076103    0.007648049682    0.007842321216    0.002037247136
            0.006353507734    0.001515495391    0.025155833579    -0.006703491003    0.007842320854    0.002037247334    0.036150777761    0.021965357212
0.600     0.005191172517    0.083067711402    0.007203112226    -0.006903900829    0.010549429835    0.124446729423    0.005632195172    -0.006081789739
            0.007203112009    -0.006903901344    -0.091254834502    -0.046119965555    0.009378565765    -0.008148965289    -0.106510669031    -0.054736557600
            0.010549443592    0.124446788472    0.009378566520    -0.008148965945    0.005300825483    0.082311488131    0.007201451031    -0.007266068212
            0.005632194679    -0.006081790059    -0.106510669031    -0.054736557600    0.007201451031    -0.007266068212    -0.091705138004    -0.046591225029
0.625     0.095456620052    0.161108555713    -0.002038925155    -0.009159036055    0.119331174772    0.172934185172    -0.002237567035    -0.007293226681
            -0.002038925220    -0.009159036348    -0.188450930583    0.069547882300    -0.001765641697    -0.011577523397    -0.194273635499    0.073718335143
            0.119331204241    0.172934189137    -0.001765641697    -0.011577523397    0.095094902643    0.160616467238    -0.002395518518    -0.009191243053
            -0.002237567123    -0.007293226968    -0.194273635499    0.073718335143    -0.002395518467    -0.009191242860    -0.189045017264    0.068244571109
0.650     0.226320696578    0.095541693391    -0.006750411902    -0.003494398027    0.226945837346    0.086857119640    -0.005517778414    -0.002346117612
            -0.006750412080    -0.003494398119    -0.134861403841    0.207419163824    -0.008117890817    -0.005042682541    -0.128276071838    0.207472481657
            0.226945877248    0.086857071335    -0.008117890477    -0.005042682330    0.226161884941    0.095506202838    -0.006804306188    -0.003202726564
            -0.005517778506    -0.002346117651    -0.128276066579    0.207472473151    -0.006804306459    -0.003202726692    -0.136424416996    0.206127942106
0.675     0.244283857391    -0.067088544931    -0.005636967308    0.001218410484    0.221597275872    -0.055258992088    -0.004309174853    0.001153506633
            -0.005636966429    0.001218410294    -0.004400208412    0.246132811056    -0.007273573052    0.000895304131    0.004454530434    0.232733733983
            0.221597297207    -0.055258989192    -0.007273572258    0.000895304033    0.244652382466    -0.067274475871    -0.005421914506    0.001251721679
            -0.004309174370    0.001153506504    0.004454530243    0.232733723984    -0.005421915601    0.001251720935    -0.006347711835    0.245849156157
0.700     0.108782517833    -0.172607130218    -0.004051877639    0.002540684711    0.102230770114    -0.130678648058    -0.003174220982    0.002038946664
            -0.004051877723    0.002540684764    0.091596317564    0.173677078820    -0.005599784241    0.002928560553    0.087194778085    0.149115278903
            0.102230792480    -0.130678681347    -0.005599784241    0.002928560553    0.109128492177    -0.173478784121    -0.004088037143    0.002412433949
            -0.003174221066    0.002038946718    0.087194778085    0.149115278903    -0.004088037057    0.002412433898    0.090574681709    0.174159813294
0.725     -0.026816370312    -0.082109181261    -0.004203838571    0.006027682062    0.002608117439    -0.044799223639    -0.003289726166    0.005040401038
            -0.004203838857    0.006027682472    0.064958052528    0.078238629245    -0.005614329601    0.007531026871    0.039001027551    0.059726113206
            0.002608116477    -0.044799193644    -0.005614330974    0.007531023227    -0.027272873840    -0.083123973329    -0.004197224684    0.006160423143
            -0.003289726439    0.005040401457    0.039001026508    0.059726113887    -0.004197223327    0.006160423463    0.064968154779    0.077731188736
0.750     0.057694718028    0.031555627248    0.003702472535    0.009880057199    0.096645552154    0.036066943390    0.003498194826    0.007847804499
            0.003702465946    0.009880053260    -0.014526195847    0.099660406894    0.003914872593    0.012395089046    -0.048284443645    0.106236529316
            0.096645624660    0.036066949310    0.003914873242    0.012395088841    0.057003900172    0.031332668799    0.003898226957    0.009695643944
            0.003498195097    0.007847805473    -0.048284505399    0.106236468295    0.003898226618    0.009695644080    -0.015726198912    0.097914455004
0.775     0.164445775450    -0.071504430106    0.010615250577    0.001782676026    0.181786895506    -0.090286997777    0.008495336665    0.000786753249
            0.010615251585    0.001782676062    -0.002788953301    0.184086284542    0.012750297257    0.003267017352    -0.015712254412    0.214651738989
            0.181786933485    -0.090287056194    0.012750297371    0.003267016907    0.164430011889    -0.071448356665    0.010292200727    0.001554814465
            0.008495337266    0.000786753260    -0.015712254412    0.214651738989    0.010292201672    0.001554814902    -0.005504043713    0.183465666807
