# GHz S RI R 45
0.000     0.016548702616    0.001908096756    -0.000004896112    -0.000010798674    0.000677173484    0.001633787986    -0.000004236239    -0.000009214159
            -0.000004896366    -0.000010798672    0.017260992693    0.001776924861    -0.000005536237    -0.000013014324    0.000704879921    0.001655070012
            0.000677173303    0.001633787953    -0.000005536320    -0.000013014324    0.016510686424    0.001916800001    -0.000004464478    -0.000010911822
            -0.000004236237    -0.000009214159    0.000704880162    0.001655070018    -0.000004464509    -0.000010911822    0.017190894783    0.001788924775
0.025     0.021713421871    0.009399967817    -0.000011480612    -0.000023520996    0.002857162399    0.009421794505    -0.000009902994    -0.000019800330
            -0.000011480615    -0.000023521002    0.021290169277    0.010155021651    -0.000013385459    -0.000028012589    0.002077345681    0.010275162881
            0.002855921968    0.009421591163    -0.000013385465    -0.000028012588    0.021648621496    0.009361914958    -0.000010801436    -0.000022020907
            -0.000009903017    -0.000019800376    0.002077600004    0.010274589099    -0.000010801432    -0.000022020900    0.021213247281    0.010125646568
0.050     0.029448811032    0.013580233673    -0.000025992554    -0.000040427333    0.008967993269    0.017009353774    -0.000022263563    -0.000033825669
            -0.000025992554    -0.000040427334    0.026173842618    0.016130103933    -0.000030510824    -0.000048069540    0.005983716648    0.019525269434
            0.008967989155    0.017009358204    -0.000030510825    -0.000048069541    0.029395737458    0.013530350343    -0.000024579976    -0.000037489253
            -0.000022263563    -0.000033825670    0.005983812331    0.019525264166    -0.000024579976    -0.000037489253    0.026029554736    0.016091720236
0.075     0.038792025114    0.013959656915    -0.000045446171    -0.000051481197    0.017902452743    0.021424543218    -0.000038720283    -0.000042784131
            -0.000045446171    -0.000051481197    0.031443134967    0.020127133205    -0.000053393776    -0.000061295937    0.011773260756    0.027092660818
            0.017902409945    0.021424512519    -0.000053393776    -0.000061295938    0.038763296277    0.013888066906    -0.000042793266    -0.000047292419
            -0.000038720284    -0.000042784131    0.011773255629    0.027092661956    -0.000042793266    -0.000047292419    0.031219786622    0.020124385396
0.100     0.048490443590    0.010023617623    -0.000068363119    -0.000056085694    0.028280832690    0.021847456953    -0.000057928667    -0.000046210005
            -0.000068363119    -0.000056085694    0.036628746096    0.022222814752    -0.000080360344    -0.000067021511    0.018728796561    0.032608873746
            0.028280832690    0.021847456953    -0.000080360344    -0.000067021511    0.048501685575    0.009926349622    -0.000063957989    -0.000050982394
            -0.000057928676    -0.000046209995    0.018728770808    0.032608881618    -0.000063957990    -0.000050982394    0.036326870306    0.022302319384
0.125     0.056858533922    0.001632606459    -0.000093048560    -0.000053710806    0.038539222607    0.017964571615    -0.000078403267    -0.000043753765
            -0.000093048560    -0.000053710806    0.040955224691    0.022618775484    -0.000109462930    -0.000064624151    0.026129804105    0.035973060424
            0.038539222607    0.017964571615    -0.000109462930    -0.000064624151    0.056928200051    0.001488170573    -0.000086438128    -0.000048212284
            -0.000078403267    -0.000043753765    0.026129804105    0.035973060424    -0.000086438129    -0.000048212284    0.040603106233    0.022832785118
0.150     0.062359921189    -0.010475621325    -0.000117793433    -0.000044324897    0.047106485975    0.009961902696    -0.000098699696    -0.000035521896
            -0.000117793433    -0.000044324897    0.044180362791    0.021920167185    -0.000138742390    -0.000054056578    0.033214297976    0.037269289233
            0.047106485975    0.009961902696    -0.000138742390    -0.000054056578    0.062505374929    -0.010674063295    -0.000108659050    -0.000039140725
            -0.000098699696    -0.000035521896    0.033214297976    0.037269289233    -0.000108659050    -0.000039140725    0.043813037405    0.022300260330
0.175     0.063628384296    -0.025284791045    -0.000141115505    -0.000028152124    0.052535456084    -0.001426188373    -0.000117654860    -0.000021816171
            -0.000141115505    -0.000028152124    0.045879099406    0.020660072247    -0.000166487658    -0.000035554751    0.039347391639    0.036881998552
            0.052535456084    -0.001426188373    -0.000166487658    -0.000035554751    0.063863209839    -0.025563700810    -0.000129367306    -0.000024138626
            -0.000117654860    -0.000021816171    0.039347391639    0.036881998552    -0.000129367306    -0.000024138626    0.045556561486    0.021224387208
0.200     0.059689977542    -0.041285872893    -0.000161720941    -0.000005584683    0.053691198041    -0.015008088280    -0.000134318443    -0.000003021795
            -0.000161720941    -0.000005584683    0.045910874175    0.019573200933    -0.000191210452    -0.000009556792    0.044084811319    0.035389381271
            0.053691198041    -0.015008088280    -0.000191210452    -0.000009556792    0.060018617381    -0.041682093167    -0.000147568568    -0.000003655618
            -0.000134318443    -0.000003021795    0.044084811319    0.035389381271    -0.000147568568    -0.000003655618    0.045702236678    0.020313878121
0.225     0.050106580261    -0.056656503014    -0.000178366223    0.000022961545    0.049872047662    -0.029251009987    -0.000147798929    0.000020542530
            -0.000178366223    0.000022961545    0.044459614286    0.019412951758    -0.000211484166    0.000023483848    0.047225605633    0.033478652030
            0.049872047662    -0.029251009987    -0.000211484166    0.000023483848    0.050520722314    -0.057213323205    -0.000162345383    0.000021948774
            -0.000147798929    0.000020542530    0.047225605633    0.033478652030    -0.000162345383    0.000021948774    0.044429713365    0.020293486832
0.250     0.035088490041    -0.069459803870    -0.000189781945    0.000056962983    0.040911893366    -0.042434175762    -0.000157150908    0.000048552122
            -0.000189781945    0.000056962983    0.042008031226    0.020841601688    -0.000225852165    0.000063004927    0.048843216175    0.031865836434
            0.040911893366    -0.042434175762    -0.000225852165    0.000063004927    0.035563585082    -0.070221695258    -0.000172731601    0.000052347983
            -0.000157150908    0.000048552122    0.048843216175    0.031865836434    -0.000172731601    0.000052347983    0.042205095117    0.021800391504
0.275     0.015489139916    -0.077862708813    -0.000194551841    0.000095702991    0.027220733778    -0.052818748788    -0.000161224583    0.000080576343
            -0.000194551841    0.000095702991    0.039284794329    0.024298162840    -0.000232675526    0.000108245551    0.049278771755    0.031183869842
            0.027220733778    -0.052818748788    -0.000232675526    0.000108245551    0.015983403335    -0.078869324389    -0.000177519807    0.000087137316
            -0.000161224583    0.000080576343    0.049278771755    0.031183869842    -0.000177519807    0.000087137316    0.039731455836    0.025256182024
0.300     -0.007230857182    -0.080357821912    -0.000191180908    0.000138080467    0.009781293539    -0.058847022573    -0.000158699517    0.000115879292
            -0.000191180908    0.000138080467    0.037169802859    0.029932041959    -0.000230203920    0.000158015849    0.049102559899    0.031895401756
            0.009781293539    -0.058847022573    -0.000230203920    0.000158015849    -0.006776731283    -0.081637534656    -0.000175286929    0.000125603558
            -0.000158699517    0.000115879292    0.049102559899    0.031895401756    -0.000175286929    0.000125603558    0.037857218457    0.030804114117
0.325     -0.031137657279    -0.075945011460    -0.000178191702    0.000182442663    -0.009925428915    -0.059318740555    -0.000148160217    0.000153200835
            -0.000178191702    0.000182442663    0.036576303925    0.037539991490    -0.000216667390    0.000210493472    0.049031502136    0.034204765697
            -0.009925428915    -0.059318740555    -0.000216667390    0.000210493472    -0.030796504695    -0.077507958180    -0.000164462696    0.000166469891
            -0.000148160217    0.000153200835    0.049031502136    0.034204765697    -0.000164462696    0.000166469891    0.037463302591    0.038247748318
0.350     -0.054003357738    -0.064293081967    -0.000154440412    0.000226493979    -0.030056115876    -0.053561033273    -0.000128407155    0.000190638093
            -0.000154440412    0.000226493979    0.038318875765    0.046582479726    -0.000190635107    0.000263117738    0.049829323670    0.038023488484
            -0.030056115876    -0.053561033273    -0.000190635107    0.000263117738    -0.053855916222    -0.066124922700    -0.000143658380    0.000207753405
            -0.000128407155    0.000190638093    0.049829323670    0.038023488484    -0.000143658380    0.000207753405    0.039336182756    0.047066008635
0.375     -0.073538711619    -0.045807426528    -0.000119405884    0.000267346697    -0.048590403425    -0.041526635203    -0.000098762663    0.000225642816
            -0.000119405884    0.000267346697    0.042985622094    0.056220041159    -0.000151348387    0.000312603683    0.052180850627    0.042959814998
            -0.048590403425    -0.041526635203    -0.000151348387    0.000312603683    -0.073665378111    -0.047865657711    -0.000112004003    0.000246733207
            -0.000098762663    0.000225642816    0.052180850627    0.042959814998    -0.000112004003    0.000246733207    0.044044152487    0.056448500459
0.400     -0.087652407186    -0.021636878494    -0.000073520838    0.000301801073    -0.063561293188    -0.023837831933    -0.000059421794    0.000255276681
            -0.000073520838    0.000301801073    0.050838743331    0.065425754113    -0.000099097652    0.000355258238    0.056588783667    0.048377540163
            -0.063561293188    -0.023837831933    -0.000099097652    0.000355258238    -0.088123126569    -0.023849746381    -0.000069559718    0.000280197455
            -0.000059421794    0.000255276681    0.056588783667    0.048377540163    -0.000069559718    0.000280197455    0.051842609747    0.065403192373
0.425     -0.094686914771    0.006430119504    -0.000018304917    0.000326702015    -0.073269251613    -0.001732085112    -0.000011643957    0.000276552100
            -0.000018304917    0.000326702015    0.061755752561    0.073107544113    -0.000035424967    0.000387355416    0.063282183710    0.053474562350
            -0.073269251613    -0.001732085112    -0.000035424967    0.000387355416    -0.095551227885    0.004161363739    -0.000017540440    0.000304814758
            -0.000011643957    0.000276552100    0.063282183710    0.053474562350    -0.000017540440    0.000304814758    0.062616026026    0.072873336723
0.450     -0.093621688745    0.036139608476    0.000043646669    0.000339447567    -0.076486441994    0.023060940341    0.000042241727    0.000286948146
            0.000043646669    0.000339447567    0.075236728561    0.078263664258    0.000036885316    0.000405718442    0.072185550165    0.057407567788
            -0.076486441994    0.023060940341    0.000036885316    0.000405718442    -0.094899186190    0.033936976232    0.000041634917    0.000317690393
            0.000042241727    0.000286948146    0.072185550165    0.057407567788    0.000041634917    0.000317690393    0.075883186564    0.077887093113
0.475     -0.084181920457    0.065008891181    0.000108966658    0.000338348741    -0.072575679624    0.048507206573    0.000099070719    0.000284800474
            0.000108966658    0.000338348741    0.090453347865    0.080106228281    0.000114094750    0.000408146198    0.082917595882    0.059398747951
            -0.072575679624    0.048507206573    0.000114094750    0.000408146198    -0.085856072665    0.063014347551    0.000104580780    0.000316817042
            0.000099070719    0.000284800474    0.082917595882    0.059398747951    0.000104580780    0.000316817042    0.090844350020    0.079677462074
0.500     -0.066872956163    0.090584425658    0.000173912431    0.000322915228    -0.061554789787    0.072497098326    0.000155271240    0.000269618112
            0.000173912431    0.000322915228    0.106359364478    0.078167898902    0.000192001552    0.000393782221    0.094852090261    0.058846088810
            -0.061554789787    0.072497098326    0.000192001552    0.000393782221    -0.068886080306    0.088979282631    0.000167446275    0.000301460911
            0.000155271240    0.000269618112    0.094852090261    0.058846088810    0.000167446275    0.000301460911    0.106484702558    0.077784853797
0.525     -0.042908325493    0.110678407536    0.000234861292    0.000293821894    -0.044061128485    0.093164477403    0.000207344563    0.000242096284
            0.000234861292    0.000293821894    0.121808360756    0.072343836402    0.000266820195    0.000363303228    0.107185075411    0.055387366719
            -0.044061128485    0.093164477403    0.000266820195    0.000363303228    -0.045208796507    0.109907600993    0.000226697260    0.000272364830
            0.000207344563    0.000242096284    0.107185075411    0.055387366719    0.000226697260    0.000272364830    0.121683544736    0.072108325460
0.550     -0.014083810524    0.123590213089    0.000288795871    0.000252788804    -0.022317714485    0.107771387568    0.000252379397    0.000204025629
            0.000288795871    0.000252788804    0.135691910838    0.062896650700    0.000330318109    0.000319894226    0.119051967127    0.048949325538
            -0.022317714485    0.107771387568    0.000330318109    0.000319894226    -0.017907777172    0.121880630330    0.000275076896    0.000232710293
            0.000252379397    0.000204025629    0.119051967127    0.048949325538    0.000275076896    0.000232710293    0.135367476526    0.062924264704
0.575     0.017420178654    0.128125563659    0.000333281384    0.000202114492    0.004513215753    0.116426556591    0.000288134099    0.000157777285
            0.000333281384    0.000202114492    0.147038900036    0.050411755707    0.000387547853    0.000261086278    0.129620182075    0.039711504880
            0.004513215753    0.116426556591    0.000387547853    0.000261086278    0.014446925301    0.127285509415    0.000316783824    0.000180626374
            0.000288134099    0.000157777285    0.129620182075    0.039711504880    0.000316783824    0.000180626374    0.146637006264    0.050801068397
0.600     0.049104230040    0.123658095433    0.000366581088    0.000144474059    0.032466722446    0.117646166869    0.000313114887    0.000106166676
            0.000366581088    0.000144474059    0.155113777931    0.035735245300    0.000431972176    0.000194846809    0.138132250704    0.028077698703
            0.032466722446    0.117646166869    0.000431972176    0.000194846809    0.046342304145    0.123771411029    0.000346398421    0.000123581475
            0.000313114887    0.000106166676    0.138132250704    0.028077698703    0.000346398421    0.000123581475    0.154785588987    0.036509303657
0.625     0.078047362079    0.111031238569    0.000388789224    0.000084136580    0.059728154556    0.111546214656    0.000327667729    0.000053284844
            0.000388789224    0.000084136580    0.159465834206    0.019885345905    0.000463312434    0.000122966198    0.143957887351    0.014677804856
            0.059728154556    0.111546214656    0.000463312434    0.000122966198    0.076133166217    0.111642944609    0.000363979771    0.000063610194
            0.000327667729    0.000053284844    0.143957887351    0.014677804856    0.000363979771    0.000063610194    0.159344764616    0.021013010253
0.650     0.103061648841    0.091029696165    0.000401194079    0.000021500771    0.084886427798    0.098263705261    0.000333200827    -0.000000148108
            0.000401194079    0.000021500771    0.159964551793    0.003959590038    0.000481795805    0.000048267528    0.146688112156    0.000314826191
            0.084886427798    0.098263705261    0.000481795805    0.000048267528    0.101608273751    0.091782981781    0.000370245909    0.000003523019
            0.000333200827    -0.000000148108    0.146688112156    0.000314826114    0.000370245909    0.000003523020    0.160167652825    0.005375114865
0.675     0.121782147430    0.064687057310    0.000403421353    -0.000041208357    0.105757778723    0.078455529935    0.000329979747    -0.000051982892
            0.000403421353    -0.000041208357    0.156796872527    -0.010953770756    0.000488267151    -0.000026911124    0.146154999307    -0.014111885117
            0.105757778723    0.078455529935    0.000488267151    -0.000026911124    0.120832191566    0.065613512234    0.000366620047    -0.000054451508
            0.000329979747    -0.000051982892    0.146154999307    -0.014111885117    0.000366620047    -0.000054451508    0.157420873955    -0.009350156147
0.700     0.132654231112    0.034027004076    0.000396713141    -0.000102454688    0.120692100613    0.053502773267    0.000319687569    -0.000100939719
            0.000396713141    -0.000102454688    0.150464063051    -0.023862300050    0.000483949615    -0.000100935968    0.142471101812    -0.027672081503
            0.120692100613    0.053502773267    0.000483949615    -0.000100935968    0.132297231112    0.035011548621    0.000354940707    -0.000108940406
            0.000319687569    -0.000100939719    0.142471101812    -0.027672081503    0.000354940707    -0.000108940406    0.151575972177    -0.022200375536
0.725     0.134747816759    0.001323872153    0.000382206187    -0.000161564267    0.128435961591    0.025129630248    0.000303878323    -0.000146681807
            0.000382206187    -0.000161564267    0.141742897477    -0.033951714990    0.000470102889    -0.000172853199    0.136024297211    -0.039484887965
            0.128435961591    0.025129630248    0.000470102889    -0.000172853199    0.135026746818    0.002199508664    0.000337057419    -0.000159473923
            0.000303878323    -0.000146681807    0.136024297211    -0.039484887965    0.000337057419    -0.000159473923    0.143368854069    -0.032383377794
0.750     0.127756383863    -0.030974592555    0.000360745101    -0.000218369277    0.128215374226    -0.004638742128    0.000283720015    -0.000189576534
            0.000360745101    -0.000218369277    0.131642156804    -0.040666369646    0.000447748181    -0.000242387741    0.127484955163    -0.048805105945
            0.128215374226    -0.004638742128    0.000447748181    -0.000242387741    0.128659873842    -0.030393373094    0.000314493992    -0.000206399828
            0.000283720015    -0.000189576534    0.127484955163    -0.048805105945    0.000314493992    -0.000206399828    0.133760811354    -0.039351831959
0.775     0.112037645902    -0.060389453389    0.000332653486    -0.000273020841    0.119807022491    -0.033586894231    0.000259726167    -0.000230377996
            0.000332653486    -0.000273020841    0.121322287219    -0.043778679409    0.000417344400    -0.000309676592    0.117750948783    -0.055118650445
            0.119807022491    -0.033586894231    0.000417344400    -0.000309676592    0.113497491042    -0.060287576018    0.000288067776    -0.000250633275
            0.000259726167    -0.000230377996    0.117750948783    -0.055118650445    0.000288067776    -0.000250633275    0.123859894681    -0.042872092790
