# GHz S RI R 45
0.000     0.017650290259    0.001777306115    0.000001867162    0.000003747654    0.000740555764    0.001657090028    0.000002031057    0.000004386090
            0.000001867008    0.000003747656    0.017260992693    0.001776924861    0.000002247890    0.000004405517    0.000704879921    0.001655070012
            0.000740555550    0.001657090015    0.000002247898    0.000004405517    0.017606746546    0.001765188480    0.000002454503    0.000005228346
            0.000002031398    0.000004386084    0.000704880162    0.001655070018    0.000002454423    0.000005228347    0.017190894783    0.001788924775
0.025     0.022052281241    0.010565758089    0.000003512938    0.000008789202    0.002274521625    0.010661032366    0.000003751528    0.000009864179
            0.000003512957    0.000008789196    0.021290169277    0.010155021651    0.000004426968    0.000010821849    0.002077345681    0.010275162881
            0.002266613099    0.010658845951    0.000004426972    0.000010821864    0.021983359193    0.010492599814    0.000004562234    0.000011948948
            0.000003751547    0.000009864190    0.002077600004    0.010274589099    0.000004562227    0.000011948939    0.021213247281    0.010125646568
0.050     0.027406923223    0.016674809137    0.000006846136    0.000015865838    0.006567543567    0.020140568234    0.000007171548    0.000017945998
            0.000006846136    0.000015865838    0.026173842618    0.016130103933    0.000008790799    0.000019358986    0.005983716648    0.019525269434
            0.006567603745    0.020140502330    0.000008790799    0.000019358986    0.027285996266    0.016581585771    0.000008774537    0.000021712529
            0.000007171548    0.000017945998    0.005983812331    0.019525264166    0.000008774537    0.000021712529    0.026029554736    0.016091720236
0.075     0.033239248787    0.020495952031    0.000011113089    0.000021758007    0.012894251334    0.027672137507    0.000011551997    0.000024957109
            0.000011113090    0.000021758007    0.031443134967    0.020127133205    0.000014354922    0.000026239020    0.011773260756    0.027092660818
            0.012894249934    0.027672190011    0.000014354922    0.000026239020    0.033058231157    0.020395456644    0.000014171875    0.000030124782
            0.000011551997    0.000024957109    0.011773255629    0.027092661956    0.000014171875    0.000030124782    0.031219786622    0.020124385396
0.100     0.038924799693    0.022074974736    0.000016000986    0.000026539909    0.020383041074    0.032842874187    0.000016687449    0.000031021047
            0.000016000986    0.000026539909    0.036628746096    0.022222814752    0.000020633137    0.000031507498    0.018728796561    0.032608873746
            0.020383041074    0.032842874187    0.000020633138    0.000031507499    0.038683030875    0.022000985956    0.000020485112    0.000037314440
            0.000016687450    0.000031021048    0.018728770808    0.032608881618    0.000020485112    0.000037314440    0.036326870306    0.022302319384
0.125     0.043572551905    0.021702484448    0.000021212511    0.000030293008    0.028155060450    0.035565819241    0.000022393723    0.000036199136
            0.000021212511    0.000030293008    0.040955224691    0.022618775484    0.000027132050    0.000035270675    0.026129804105    0.035973060424
            0.028155060450    0.035565819241    0.000027132050    0.000035270675    0.043295667086    0.021683083741    0.000027452011    0.000043342242
            0.000022393723    0.000036199136    0.026129804105    0.035973060424    0.000027452011    0.000043342242    0.040603106233    0.022832785118
0.150     0.046677476478    0.020004461598    0.000026496732    0.000033240208    0.035332651291    0.036024572698    0.000028514387    0.000040652705
            0.000026496732    0.000033240208    0.044180362791    0.021920167185    0.000033422555    0.000037865663    0.033214297976    0.037269289233
            0.035332651291    0.036024572698    0.000033422555    0.000037865663    0.046386883592    0.020060062559    0.000034837597    0.000048408709
            0.000028514387    0.000040652705    0.033214297976    0.037269289233    0.000034837597    0.000048408709    0.043813037405    0.022300260330
0.175     0.047798961698    0.017750130118    0.000031759527    0.000035639449    0.041190765852    0.034728269346    0.000035025928    0.000044533492
            0.000031759527    0.000035639449    0.045879099406    0.020660072247    0.000039294462    0.000039725000    0.039347391639    0.036881998552
            0.041190765852    0.034728269346    0.000039294462    0.000039725000    0.047531786749    0.017890283071    0.000042566580    0.000052722592
            0.000035025928    0.000044533492    0.039347391639    0.036881998552    0.000042566580    0.000052722592    0.045556561486    0.021224387208
0.200     0.046814630387    0.015879720113    0.000037046405    0.000037763986    0.045254653904    0.032421011710    0.000042004205    0.000047984554
            0.000037046405    0.000037763986    0.045910874175    0.019573200933    0.000044758220    0.000041338270    0.044084811319    0.035389381271
            0.045254653904    0.032421011710    0.000044758220    0.000041338270    0.046613292068    0.016095753329    0.000050692050    0.000056503107
            0.000042004205    0.000047984554    0.044084811319    0.035389381271    0.000050692050    0.000056503107    0.045702236678    0.020313878121
0.225     0.043998097868    0.015339239061    0.000042542098    0.000039808527    0.047367582483    0.029965289140    0.000049616708    0.000051053074
            0.000042542098    0.000039808527    0.044459614286    0.019412951758    0.000050057761    0.000043115975    0.047225605633    0.033478652030
            0.047367582483    0.029965289140    0.000050057761    0.000043115975    0.043901504170    0.015602846539    0.000059395602    0.000059870516
            0.000049616708    0.000051053074    0.047225605633    0.033478652030    0.000059395602    0.000059870516    0.044429713365    0.020293486832
0.250     0.039998955505    0.016945052234    0.000048538906    0.000041860335    0.047722100549    0.028228674059    0.000058084948    0.000053683812
            0.000048538906    0.000041860335    0.042008031226    0.020841601688    0.000055635667    0.000045328598    0.048843216175    0.031865836434
            0.047722100549    0.028228674059    0.000055635667    0.000045328598    0.040033536616    0.017210738482    0.000068947527    0.000062832552
            0.000058084948    0.000053683812    0.048843216175    0.031865836434    0.000068947527    0.000062832552    0.042205095117    0.021800391504
0.275     0.035778441368    0.021217053911    0.000055378561    0.000043826913    0.046840396343    0.027942340962    0.000067626363    0.000055662659
            0.000055378561    0.000043826913    0.039284794329    0.024298162840    0.000062056669    0.000047993680    0.049278771755    0.031183869842
            0.046840396343    0.027942340962    0.000062056669    0.000047993680    0.035951641925    0.021427667453    0.000079641543    0.000065206801
            0.000067626363    0.000055662659    0.049278771755    0.031183869842    0.000079641543    0.000065206801    0.039731455836    0.025256182024
0.300     0.032481529726    0.028287245493    0.000063384485    0.000045434494    0.045512846176    0.029587994875    0.000078395699    0.000056638577
            0.000063384485    0.000045434494    0.037169802859    0.029932041959    0.000069909157    0.000050851084    0.049102559899    0.031895401756
            0.045512846176    0.029587994875    0.000069909157    0.000050851084    0.032777326440    0.028382443908    0.000091724027    0.000066635839
            0.000078395699    0.000056638577    0.049102559899    0.031895401756    0.000091724027    0.000066635839    0.037857218457    0.030804114117
0.325     0.031277063422    0.037822612098    0.000072759015    0.000046211383    0.044680668341    0.033294950839    0.000090397121    0.000056122864
            0.000072759015    0.000046211383    0.036576303925    0.037539991490    0.000079660408    0.000053329090    0.049031502136    0.034204765697
            0.044680668341    0.033294950839    0.000079660408    0.000053329090    0.031654461183    0.037747898948    0.000105287970    0.000066578966
            0.000090397121    0.000056122864    0.049031502136    0.034204765697    0.000105287970    0.000066578966    0.037463302591    0.038247748318
0.350     0.033176012633    0.049048149002    0.000083506287    0.000045559381    0.045293967842    0.038805627076    0.000103434364    0.000053574047
            0.000083506287    0.000045559381    0.038318875765    0.046582479726    0.000091535715    0.000054623357    0.049829323670    0.038023488484
            0.045293967842    0.038805627076    0.000091535715    0.000054623357    0.033572902515    0.048765540232    0.000120202912    0.000064400533
            0.000103434364    0.000053574047    0.049829323670    0.038023488484    0.000120202912    0.000064400533    0.039336182756    0.047066008635
0.375     0.038859495909    0.060813609048    0.000095345072    0.000042833896    0.048145890766    0.045485738282    0.000117050089    0.000048475547
            0.000095345072    0.000042833896    0.042985622094    0.056220041159    0.000105384831    0.000053794793    0.052180850627    0.042959814998
            0.048145890766    0.045485738282    0.000105384831    0.000053794793    0.039199363150    0.060309114098    0.000136037606    0.000059457559
            0.000117050089    0.000048475547    0.052180850627    0.042959814998    0.000136037606    0.000059457559    0.044044152487    0.056448500459
0.400     0.048552071423    0.071754098895    0.000107711860    0.000037496547    0.053740737573    0.052422065822    0.000130562273    0.000040476050
            0.000107711860    0.000037496547    0.050838743331    0.065425754113    0.000120661498    0.000049964513    0.056588783667    0.048377540163
            0.053740737573    0.052422065822    0.000120661498    0.000049964513    0.048754264362    0.071042712806    0.000152081104    0.000051259755
            0.000130562273    0.000040476050    0.056588783667    0.048377540163    0.000152081104    0.000051259755    0.051842609747    0.065403192373
0.425     0.061959241192    0.080470455173    0.000119796746    0.000029236561    0.062195753182    0.058550568025    0.000143113388    0.000029483200
            0.000119796746    0.000029236561    0.061755752561    0.073107544113    0.000136437650    0.000042480756    0.063282183710    0.053474562350
            0.062195753182    0.058550568025    0.000136437650    0.000042480756    0.061950057458    0.079596252371    0.000167392777    0.000039586983
            0.000143113388    0.000029483200    0.063282183710    0.053474562350    0.000167392777    0.000039586983    0.062616026026    0.072873336723
0.450     0.078298625938    0.085738914655    0.000130686760    0.000018081746    0.073227690546    0.062827910622    0.000153824630    0.000015746238
            0.000130686760    0.000018081746    0.075236728561    0.078263664258    0.000151557423    0.000031083012    0.072185550165    0.057407567788
            0.073227690546    0.062827910622    0.000151557423    0.000031083012    0.078020973710    0.084770361309    0.000180964873    0.000024594685
            0.000153824630    0.000015746238    0.072185550165    0.057407567788    0.000180964873    0.000024594685    0.075883186564    0.077887093113
0.475     0.096396405411    0.086671221671    0.000139500381    0.000004417268    0.086188345398    0.064371027421    0.000161924442    -0.000000159040
            0.000139500381    0.000004417268    0.090453347865    0.080106228281    0.000164800517    0.000015963410    0.082917595882    0.059398747951
            0.086188345398    0.064371027421    0.000164800517    0.000015963410    0.095815653694    0.085693242362    0.000191860696    0.000006814039
            0.000161924442    -0.000000159040    0.082917595882    0.059398747951    0.000191860696    0.000006814039    0.090844350020    0.079677462074
0.500     0.114856883785    0.082833082168    0.000145573451    -0.000011064215    0.100174998674    0.062578951956    0.000166908551    -0.000017400061
            0.000145573451    -0.000011064215    0.106359364478    0.078167898902    0.000175098549    -0.000002248868    0.094852090261    0.058846088810
            0.100174998674    0.062578951956    0.000175098549    -0.000002248868    0.113955775338    0.081935885875    0.000199407125    -0.000012907104
            0.000166908551    -0.000017400061    0.094852090261    0.058846088810    0.000199407125    -0.000012907104    0.106484702558    0.077784853797
0.525     0.132288004156    0.074296467603    0.000148548875    -0.000027491811    0.114175000802    0.057194435029    0.000168598851    -0.000035035476
            0.000148548875    -0.000027491811    0.121808360756    0.072343836402    0.000181665904    -0.000022602072    0.107185075411    0.055387366719
            0.114175000802    0.057194435029    0.000181665904    -0.000022602072    0.130999481223    0.073541451296    0.000203263581    -0.000033544288
            0.000168598851    -0.000035035476    0.107185075411    0.055387366719    0.000203263581    -0.000033544288    0.121683544736    0.072108325460
0.550     0.146656381279    0.061899312685    0.000148361016    -0.000043706082    0.126703394817    0.048515368708    0.000167300930    -0.000051966050
            0.000148361016    -0.000043706082    0.135691910838    0.062896650700    0.000184173973    -0.000043922541    0.119051967127    0.048949325538
            0.126703394817    0.048515368708    0.000184173973    -0.000043922541    0.145641727713    0.061026875075    0.000203559989    -0.000054002013
            0.000167300930    -0.000051966050    0.119051967127    0.048949325538    0.000203559989    -0.000054002013    0.135367476526    0.062924264704
0.575     0.157976116906    0.045599754130    0.000145264530    -0.000059331677    0.137420794179    0.036337105083    0.000163195729    -0.000067668553
            0.000145264530    -0.000059331677    0.147038900036    0.050411755707    0.000182474914    -0.000065088169    0.129620182075    0.039711504880
            0.137420794179    0.036337105083    0.000182474914    -0.000065088169    0.156700610767    0.045250542319    0.000200559071    -0.000073412881
            0.000163195729    -0.000067668553    0.129620182075    0.039711504880    0.000200559071    -0.000073412881    0.146637006264    0.050801068397
0.600     0.164830407796    0.027447039584    0.000139885820    -0.000073385140    0.145086397266    0.021917272165    0.000157230185    -0.000081471531
            0.000139885820    -0.000073385140    0.155113777931    0.035735245300    0.000177024357    -0.000085012908    0.138132250704    0.028077698703
            0.145086397266    0.021917272165    0.000177024357    -0.000085012908    0.163382273472    0.027411070967    0.000195027832    -0.000091067285
            0.000157230185    -0.000081471531    0.138132250704    0.028077698703    0.000195027832    -0.000091067285    0.154785588987    0.036509303657
0.625     0.166876628343    0.008574270545    0.000132839581    -0.000085522071    0.149251036512    0.006124432848    0.000150135016    -0.000093142767
            0.000132839581    -0.000085522071    0.159465834206    0.019885345905    0.000168458370    -0.000102860136    0.143957887351    0.014677804856
            0.149251036512    0.006124432848    0.000168458370    -0.000102860136    0.165483976256    0.009013575167    0.000187742720    -0.000106613809
            0.000150135016    -0.000093142767    0.143957887351    0.014677804856    0.000187742720    -0.000106613809    0.159344764616    0.021013010253
0.650     0.164146333954    -0.009598810600    0.000124814873    -0.000095553486    0.149575494484    -0.010197863525    0.000142674089    -0.000102687454
            0.000124814873    -0.000095553486    0.159964551793    0.003959590038    0.000157517838    -0.000118000831    0.146688112156    0.000314826191
            0.149575494484    -0.010197863525    0.000157517838    -0.000118000831    0.162993996414    -0.008902751158    0.000179450706    -0.000119876023
            0.000142674089    -0.000102687454    0.146688112156    0.000314826114    0.000179450706    -0.000119876023    0.160167652825    0.005375114865
0.675     0.157090680705    -0.025712036028    0.000116510295    -0.000103515064    0.145981579473    -0.025814499651    0.000135571953    -0.000110370522
            0.000116510295    -0.000103515064    0.156796872527    -0.010953770756    0.000145160055    -0.000130035519    0.146154999307    -0.014111885117
            0.145981579473    -0.025814499651    0.000145160055    -0.000130035519    0.156194552898    -0.024857424041    0.000170984499    -0.000130968000
            0.000135571953    -0.000110370522    0.146154999307    -0.014111885117    0.000170984499    -0.000130968000    0.157420873955    -0.009350156147
0.700     0.146548771845    -0.038571365935    0.000108542355    -0.000109642512    0.138851799721    -0.039576717110    0.000129395705    -0.000116677320
            0.000108542355    -0.000109642512    0.150464063051    -0.023862300050    0.000132380597    -0.000138886373    0.142471101812    -0.027672081503
            0.138851799721    -0.039576717110    0.000132380597    -0.000138886373    0.145934921054    -0.037649429322    0.000163025509    -0.000140270932
            0.000129395705    -0.000116677320    0.142471101812    -0.027672081503    0.000163025509    -0.000140270932    0.151575972177    -0.022200375536
0.725     0.133707381097    -0.047259304839    0.000101413060    -0.000114303839    0.128901061957    -0.050468213660    0.000124508296    -0.000122218980
            0.000101413060    -0.000114303839    0.141742897477    -0.033951714990    0.000120151576    -0.000144735033    0.136024297211    -0.039484887965
            0.128901061957    -0.050468213660    0.000120151576    -0.000144735033    0.133376607728    -0.046373618693    0.000156077496    -0.000148319508
            0.000124508296    -0.000122218980    0.136024297211    -0.039484887965    0.000156077496    -0.000148319508    0.143368854069    -0.032383377794
0.750     0.120032122424    -0.051249254971    0.000095518773    -0.000118001573    0.117186026633    -0.057711261038    0.000121078159    -0.000127705804
            0.000095518773    -0.000118001573    0.131642156804    -0.040666369646    0.000109396098    -0.000148057196    0.127484955163    -0.048805105945
            0.117186026633    -0.057711261038    0.000109396098    -0.000148057196    0.119949666167    -0.050503751809    0.000150476838    -0.000155788799
            0.000121078159    -0.000127705804    0.127484955163    -0.048805105945    0.000150476838    -0.000155788799    0.133760811354    -0.039351831959
0.775     0.107146014623    -0.050504293518    0.000091107464    -0.000121338161    0.105020918452    -0.060898819658    0.000119036892    -0.000133872737
            0.000091107464    -0.000121338161    0.121322287219    -0.043778679409    0.000100891046    -0.000149611364    0.117750948783    -0.055118650445
            0.105020918452    -0.060898819658    0.000100891046    -0.000149611364    0.107239120287    -0.049989413893    0.000146333876    -0.000163437787
            0.000119036892    -0.000133872737    0.117750948783    -0.055118650445    0.000146333876    -0.000163437787    0.123859894681    -0.042872092790
0.800     0.096669679054    -0.045550582745    0.000088263187    -0.000125035693    0.093861220863    -0.060103334716    0.000118090773    -0.000141457679
            0.000088263187    -0.000125035693    0.111999609332    -0.043446573353    0.000095184756    -0.000150457157    0.107889376362    -0.058227265375
