# GHz S RI R 45
0.000     0.016136813260    0.001748184784    -0.000001748091    -0.000003773750    0.000604899567    0.001475075223    -0.000001588752    -0.000003474399
            -0.000001748091    -0.000003773750    0.017260992693    0.001776924861    -0.000001948308    -0.000004153822    0.000704879921    0.001655070012
            0.000604899785    0.001475075242    -0.000001948308    -0.000004153822    0.016096375872    0.001761339006    -0.000001750498    -0.000003787632
            -0.000001588754    -0.000003474399    0.000704880162    0.001655070018    -0.000001750501    -0.000003787632    0.017190894783    0.001788924775
0.025     0.021163927387    0.008690007346    -0.000004117438    -0.000008058828    0.002629900036    0.008736685490    -0.000003772302    -0.000007423555
            -0.000004117435    -0.000008058825    0.021290169277    0.010155021651    -0.000004549798    -0.000008875862    0.002077345681    0.010275162881
            0.002628242092    0.008735371740    -0.000004549804    -0.000008875872    0.021103769148    0.008659172670    -0.000004124793    -0.000008096179
            -0.000003772308    -0.000007423566    0.002077600004    0.010274589099    -0.000004124796    -0.000008096181    0.021213247281    0.010125646568
0.050     0.028460383856    0.012418893166    -0.000009084963    -0.000013606651    0.008306752764    0.015804031884    -0.000008359873    -0.000012531740
            -0.000009084963    -0.000013606651    0.026173842618    0.016130103933    -0.000010002883    -0.000014993485    0.005983716648    0.019525269434
            0.008306721296    0.015803987419    -0.000010002886    -0.000014993484    0.028411287809    0.012366972712    -0.000009114866    -0.000013673844
            -0.000008359873    -0.000012531740    0.005983812331    0.019525264166    -0.000009114866    -0.000013673844    0.026029554736    0.016091720236
0.075     0.037287990815    0.012644041521    -0.000015532094    -0.000017197232    0.016638191257    0.019987722483    -0.000014314408    -0.000015822223
            -0.000015532094    -0.000017197232    0.031443134967    0.020127133205    -0.000017073843    -0.000018969054    0.011773260756    0.027092660818
            0.016638184105    0.019987724533    -0.000017073843    -0.000018969054    0.037264919254    0.012569348048    -0.000015587221    -0.000017277859
            -0.000014314408    -0.000015822223    0.011773255629    0.027092661956    -0.000015587221    -0.000017277859    0.031219786622    0.020124385396
0.100     0.046541398241    0.008876593980    -0.000023041551    -0.000018709306    0.026403489046    0.020530841006    -0.000021237958    -0.000017182962
            -0.000023041551    -0.000018709306    0.036628746096    0.022222814752    -0.000025313325    -0.000020677265    0.018728796561    0.032608873746
            0.026403488687    0.020530841466    -0.000025313325    -0.000020677265    0.046559768597    0.008771920955    -0.000023114225    -0.000018792849
            -0.000021237958    -0.000017182962    0.018728770808    0.032608881618    -0.000023114225    -0.000018792849    0.036326870306    0.022302319384
0.125     0.054655010589    0.000962445063    -0.000031096560    -0.000017997980    0.036207959441    0.017111426216    -0.000028647676    -0.000016487672
            -0.000031096560    -0.000017997980    0.040955224691    0.022618775484    -0.000034162113    -0.000019958904    0.026129804105    0.035973060424
            0.036207963606    0.017111412722    -0.000034162113    -0.000019958904    0.054732109262    0.000812249010    -0.000031175697    -0.000018082324
            -0.000028647676    -0.000016487672    0.026129804105    0.035973060424    -0.000031175697    -0.000018082324    0.040603106233    0.022832785118
0.150     0.060331573416    -0.010520253285    -0.000039178220    -0.000015065940    0.044633794100    0.009838033215    -0.000036058739    -0.000013750510
            -0.000039178220    -0.000015065940    0.044180362791    0.021920167185    -0.000043058047    -0.000016815228    0.033214297976    0.037269289233
            0.044633794100    0.009838033215    -0.000043058047    -0.000016815228    0.060472653515    -0.010727684691    -0.000039250447    -0.000015161277
            -0.000036058739    -0.000013750510    0.033214297976    0.037269289233    -0.000039250447    -0.000015161277    0.043813037405    0.022300260330
0.175     0.062210095470    -0.024701597705    -0.000046839147    -0.000009986227    0.050352951348    -0.000691184652    -0.000043064792    -0.000009051063
            -0.000046839147    -0.000009986227    0.045879099406    0.020660072247    -0.000051515489    -0.000011321834    0.039347391639    0.036881998552
            0.050352951349    -0.000691184634    -0.000051515489    -0.000011321834    0.062425609729    -0.024988864343    -0.000046900588    -0.000010116217
            -0.000043064792    -0.000009051063    0.039347391639    0.036881998552    -0.000046900588    -0.000010116217    0.045556561486    0.021224387208
0.200     0.059339318215    -0.040238837260    -0.000053693762    -0.000002877997    0.052292565472    -0.013464275689    -0.000049320905    -0.000002505816
            -0.000053693762    -0.000002877997    0.045910874175    0.019573200933    -0.000059116274    -0.000003604314    0.044084811319    0.035389381271
            0.052292565472    -0.013464275689    -0.000059116274    -0.000003604314    0.059632290057    -0.040639469581    -0.000053757649    -0.000003067989
            -0.000049320905    -0.000002505816    0.044084811319    0.035389381271    -0.000053757649    -0.000003067989    0.045702236678    0.020313878121
0.225     0.051243882763    -0.055506640666    -0.000059369332    0.000006148482    0.049743918444    -0.027151415000    -0.000054496170    0.000005782396
            -0.000059369332    0.000006148482    0.044459614286    0.019412951758    -0.000065455597    0.000006223074    0.047225605633    0.033478652030
            0.049743918444    -0.027151415000    -0.000065455597    0.000006223074    0.051603577034    -0.056059669416    -0.000059466821    0.000005874357
            -0.000054496170    0.000005782396    0.047225605633    0.033478652030    -0.000059466822    0.000005874357    0.044429713365    0.020293486832
0.250     0.038011416845    -0.068758143052    -0.000063479306    0.000016955567    0.042456097534    -0.040232646780    -0.000058246238    0.000015692454
            -0.000063479306    0.000016955567    0.042008031226    0.020841601688    -0.000070113402    0.000018018837    0.048843216175    0.031865836434
            0.042456097534    -0.040232646780    -0.000070113402    0.000018018837    0.038411806753    -0.069501467925    -0.000063659636    0.000016587729
            -0.000058246238    0.000015692454    0.048843216175    0.031865836434    -0.000063659636    0.000016587729    0.042205095117    0.021800391504
0.275     0.020293685480    -0.078304385793    -0.000065581248    0.000029355830    0.030676491013    -0.051141653560    -0.000060169775    0.000027065937
            -0.000065581248    0.000029355830    0.039284794329    0.024298162840    -0.000072605993    0.000031587947    0.049278771755    0.031183869842
            0.030676491013    -0.051141653560    -0.000072605993    0.000031587947    0.020693887937    -0.079270291575    -0.000065902874    0.000028910931
            -0.000060169775    0.000027065937    0.049278771755    0.031183869842    -0.000065902874    0.000028910931    0.039731455836    0.025256182024
0.300     -0.000711450938    -0.082704285983    -0.000065194987    0.000043047870    0.015156418899    -0.058432676900    -0.000059824636    0.000039636340
            -0.000065194987    0.000043047870    0.037169802859    0.029932041959    -0.000072405525    0.000046613775    0.049102559899    0.031895401756
            0.015156418899    -0.058432676900    -0.000072405525    0.000046613775    -0.000367052553    -0.083913941232    -0.000065714126    0.000042571473
            -0.000059824636    0.000039636340    0.049102559899    0.031895401756    -0.000065714126    0.000042571473    0.037857218457    0.030804114117
0.325     -0.023364204768    -0.080924285336    -0.000061826322    0.000057560259    -0.002902515129    -0.060931620629    -0.000056746040    0.000052984126
            -0.000061826322    0.000057560259    0.036576303925    0.037539991490    -0.000068963508    0.000062595968    0.049031502136    0.034204765697
            -0.002902515129    -0.060931620629    -0.000068963508    0.000062595968    -0.023141704112    -0.082381721524    -0.000062583571    0.000057125244
            -0.000056746040    0.000052984126    0.049031502136    0.034204765697    -0.000062583571    0.000057125244    0.037463302591    0.038247748318
0.350     -0.045721590895    -0.072484181293    -0.000055066077    0.000072214566    -0.021949096270    -0.057882690873    -0.000050541878    0.000066489713
            -0.000055066077    0.000072214566    0.038318875765    0.046582479726    -0.000061819083    0.000078805726    0.049829323670    0.038023488484
            -0.021949096270    -0.057882690873    -0.000061819083    0.000078805726    -0.045693557645    -0.074172690979    -0.000056069246    0.000071917500
            -0.000050541878    0.000066489713    0.049829323670    0.038023488484    -0.000056069246    0.000071917500    0.039336182756    0.047066008635
0.375     -0.065726449435    -0.057529026193    -0.000044674609    0.000086134245    -0.040225576200    -0.049042281488    -0.000040970743    0.000079343816
            -0.000044674609    0.000086134245    0.042985622094    0.056220041159    -0.000050689203    0.000094295862    0.052180850627    0.042959814998
            -0.040225576200    -0.049042281488    -0.000050689203    0.000094295862    -0.065964574835    -0.059407612887    -0.000045893341    0.000086075725
            -0.000040970743    0.000079343816    0.052180850627    0.042959814998    -0.000045893341    0.000086075725    0.044044152487    0.056448500459
0.400     -0.081417627846    -0.036856505524    -0.000030694300    0.000098316105    -0.055948468670    -0.034736407481    -0.000028058343    0.000090606310
            -0.000030694300    0.000098316105    0.050838743331    0.065425754113    -0.000035594547    0.000107972055    0.056588783667    0.048377540163
            -0.055948468670    -0.034736407481    -0.000035594547    0.000107972055    -0.081985455049    -0.038860086180    -0.000032055668    0.000098585184
            -0.000028058343    0.000090606310    0.056588783667    0.048377540163    -0.000032055668    0.000098585184    0.051842609747    0.065403192373
0.425     -0.091133283085    -0.011856445930    -0.000013502745    0.000107733526    -0.067486508785    -0.015841033564    -0.000012147120    0.000099310735
            -0.000013502745    0.000107733526    0.061755752561    0.073107544113    -0.000016920142    0.000118708536    0.063282183710    0.053474562350
            -0.067486508785    -0.015841033564    -0.000016920142    0.000118708536    -0.092078523913    -0.013897656474    -0.000014901414    0.000108391832
            -0.000012147120    0.000099310735    0.063282183710    0.053474562350    -0.000014901414    0.000108391832    0.062616026026    0.072873336723
0.450     -0.093694906416    0.015605948431    0.000006174353    0.000113492101    -0.073539959311    0.006288152508    0.000006092904    0.000104608781
            0.000006174353    0.000113492101    0.075236728561    0.078263664258    0.000004568559    0.000125512812    0.072185550165    0.057407567788
            -0.073539959311    0.006288152508    0.000004568559    0.000125512812    -0.095043893875    0.013632474772    0.000004861499    0.000114557542
            0.000006092904    0.000104608781    0.072185550165    0.057407567788    0.000004861499    0.000114557542    0.075883186564    0.077887093113
0.475     -0.088528999658    0.043363472022    0.000027330605    0.000114944357    -0.073266553515    0.029943347160    0.000025714099    0.000105881172
            0.000027330605    0.000114944357    0.090453347865    0.080106228281    0.000027796686    0.000127654164    0.082917595882    0.059398747951
            -0.073266553515    0.029943347160    0.000027796686    0.000127654164    -0.090283010326    0.041577139869    0.000026232279    0.000116389649
            0.000025714099    0.000105881172    0.082917595882    0.059398747951    0.000026232279    0.000116389649    0.090844350020    0.079677462074
0.500     -0.075740419281    0.069145405879    0.000048803713    0.000111801060    -0.066377814217    0.053226340105    0.000045620064    0.000102850983
            0.000048803713    0.000111801060    0.106359364478    0.078167898902    0.000051515233    0.000124788324    0.094852090261    0.058846088810
            -0.066377814217    0.053226340105    0.000051515233    0.000124788324    -0.077869816044    0.067683229227    0.000048029439    0.000113561333
            0.000045620064    0.000102850983    0.094852090261    0.058846088810    0.000048029439    0.000113561333    0.106484702558    0.077784853797
0.525     -0.056126585263    0.090780971084    0.000069392148    0.000104172024    -0.053169287932    0.074220224820    0.000064669747    0.000095623446
            0.000069392148    0.000104172024    0.121808360756    0.072343836402    0.000074436304    0.000116981104    0.107185075411    0.055387366719
            -0.053169287932    0.074220224820    0.000074436304    0.000116981104    -0.058538087873    0.089805365255    0.000069041774    0.000106138550
            0.000064669747    0.000095623446    0.107185075411    0.055387366719    0.000069041774    0.000106138550    0.121683544736    0.072108325460
0.550     -0.031147851704    0.106472505531    0.000088047884    0.000092560044    -0.034508228539    0.091215463498    0.000081876002    0.000084678891
            0.000088047884    0.000092560044    0.135691910838    0.062896650700    0.000095404241    0.000104678815    0.119051967127    0.048949325538
            -0.034508228539    0.091215463498    0.000095404241    0.000104678815    -0.033611717913    0.106104101859    0.000088176013    0.000094554117
            0.000081876002    0.000084678891    0.119051967127    0.048949325538    0.000088176013    0.000094554117    0.135367476526    0.062924264704
0.575     -0.002625049394    0.115024459904    0.000104050116    0.000077678883    -0.011638965231    0.102868513775    0.000096552511    0.000070697904
            0.000104050116    0.000077678883    0.147038900036    0.050411755707    0.000113510307    0.000088604771    0.129620182075    0.039711504880
            -0.011638965231    0.102868513775    0.000113510307    0.000088604771    -0.004881432344    0.115196661593    0.000104581832    0.000079498345
            0.000096552511    0.000070697904    0.129620182075    0.039711504880    0.000104581832    0.000079498345    0.146637006264    0.050801068397
0.600     0.027473386155    0.115672453451    0.000116906057    0.000060286496    0.013916795063    0.108155692869    0.000108233237    0.000054407314
            0.000116906057    0.000060286496    0.155113777931    0.035735245300    0.000128155712    0.000069668380    0.138132250704    0.028077698703
            0.013916795063    0.108155692869    0.000128155712    0.000069668380    0.025546553619    0.116268254823    0.000117695962    0.000061841432
            0.000108233237    0.000054407314    0.138132250704    0.028077698703    0.000117695962    0.000061841432    0.154785588987    0.036509303657
0.625     0.056932147086    0.108161605311    0.000126342046    0.000041227434    0.040339578790    0.106480589872    0.000116664824    0.000036622547
            0.000126342046    0.000041227434    0.159465834206    0.019885345905    0.000139067890    0.000048821744    0.143957887351    0.014677804856
            0.040339578790    0.106480589872    0.000139067890    0.000048821744    0.055422888407    0.109115381492    0.000127269324    0.000042502771
            0.000116664824    0.000036622547    0.143957887351    0.014677804856    0.000127269324    0.000042502771    0.159344764616    0.021013010253
0.650     0.083524802604    0.092911524994    0.000132383802    0.000021306648    0.065706157487    0.097797060540    0.000121889335    0.000018124693
            0.000132383802    0.000021306648    0.159964551793    0.003959590038    0.000146269856    0.000026943744    0.146688112156    0.000314826191
            0.065706157487    0.097797060540    0.000146269856    0.000026943744    0.082534594299    0.094149548325    0.000133347511    0.000022337481
            0.000121889335    0.000018124693    0.146688112156    0.000314826114    0.000133347511    0.000022337481    0.160167652825    0.005375114865
0.675     0.105238591712    0.070944872382    0.000135268207    0.000001172650    0.088154555263    0.082573760647    0.000124155175    -0.000000460696
            0.000135268207    0.000001172650    0.156796872527    -0.010953770756    0.000150002502    0.000004746503    0.146154999307    -0.014111885117
            0.088154555263    0.082573760647    0.000150002502    0.000004746503    0.104864131722    0.072355395697    0.000136191652    0.000002027951
            0.000124155175    -0.000000460696    0.146154999307    -0.014111885117    0.000136191652    0.000002027951    0.157420873955    -0.009350156147
0.700     0.120419136191    0.043785139527    0.000135352417    -0.000018743960    0.106014361452    0.061758403852    0.000123832223    -0.000018720454
            0.000135352417    -0.000018743960    0.150464063051    -0.023862300050    0.000150645219    -0.000017288114    0.142471101812    -0.027672081503
            0.106014361452    0.061758403852    0.000150645219    -0.000017288114    0.120731492305    0.045219683668    0.000136202031    -0.000017961626
            0.000123832223    -0.000018720454    0.142471101812    -0.027672081503    0.000136202031    -0.000017961626    0.151575972177    -0.022200375536
0.725     0.127873463743    0.013343105622    0.000133000534    -0.000038230422    0.117904349767    0.036710223659    0.000121301257    -0.000036463146
            0.000133000534    -0.000038230422    0.141742897477    -0.033951714990    0.000148591220    -0.000038917014    0.136024297211    -0.039484887965
            0.117904349767    0.036710223659    0.000148591220    -0.000038917014    0.128905408907    0.014625550664    0.000133796272    -0.000037412338
            0.000121301257    -0.000036463146    0.136024297211    -0.039484887965    0.000133796272    -0.000037412338    0.143368854069    -0.032383377794
0.750     0.126956699441    -0.018214832615    0.000128493254    -0.000057269123    0.122842842654    0.009121116689    0.000116863277    -0.000053688281
            0.000128493254    -0.000057269123    0.131642156804    -0.040666369646    0.000144150382    -0.000060114577    0.127484955163    -0.048805105945
            0.122842842654    0.009121116689    0.000144150382    -0.000060114577    0.128693194478    -0.017275119603    0.000129313820    -0.000056325071
            0.000116863277    -0.000053688281    0.127484955163    -0.048805105945    0.000129313820    -0.000056325071    0.133760811354    -0.039351831959
0.775     0.117620213000    -0.048611860073    0.000121936998    -0.000075961656    0.120314274136    -0.019089334022    0.000110647936    -0.000070530021
            0.000121936998    -0.000075961656    0.121322287219    -0.043778679409    0.000137443657    -0.000080995088    0.117750948783    -0.055118650445
            0.120314274136    -0.019089334022    0.000137443657    -0.000080995088    0.119993332780    -0.048205713968    0.000122910669    -0.000074848005
            0.000110647936    -0.000070530021    0.117750948783    -0.055118650445    0.000122910669    -0.000074848005    0.123859894681    -0.042872092790
