# GHz S RI R 45
0.000     0.016019480664    0.001561392733    0.000000327195    0.000001222787    0.000598759554    0.001388810236    0.000000376755    0.000001304238
            0.000000327195    0.000001222787    0.017260992693    0.001776924861    0.000000283715    0.000001140421    0.000704879921    0.001655070012
            0.000598759360    0.001388810320    0.000000283715    0.000001140421    0.015985870437    0.001545308042    0.000000351535    0.000001253101
            0.000000376755    0.000001304238    0.000704880162    0.001655070018    0.000000351535    0.000001253101    0.017190894783    0.001788924775
0.025     0.020975334882    0.008399991769    0.000001033615    0.000002675786    0.002577221970    0.008596710154    0.000001142925    0.000002848955
            0.000001033613    0.000002675781    0.021290169277    0.010155021651    0.000000928231    0.000002503544    0.002077345681    0.010275162881
            0.002577523497    0.008595939492    0.000000928235    0.000002503547    0.020908127616    0.008334079876    0.000001077000    0.000002742721
            0.000001142927    0.000002848959    0.002077600004    0.010274589099    0.000001076998    0.000002742722    0.021213247281    0.010125646568
0.050     0.028052042150    0.011998566946    0.000002602337    0.000004621599    0.008149808293    0.015572727089    0.000002824620    0.000004899099
            0.000002602337    0.000004621599    0.026173842618    0.016130103933    0.000002385654    0.000004349345    0.005983716648    0.019525269434
            0.008149835073    0.015572718718    0.000002385654    0.000004349345    0.027952553459    0.011917246163    0.000002687289    0.000004734588
            0.000002824620    0.000004899099    0.005983812331    0.019525264166    0.000002687289    0.000004734588    0.026029554736    0.016091720236
0.075     0.036649034042    0.012194146715    0.000004697192    0.000005973881    0.016357055876    0.019712760586    0.000005053769    0.000006311431
            0.000004697192    0.000005973881    0.031443134967    0.020127133205    0.000004349564    0.000005642688    0.011773260756    0.027092660818
            0.016357051698    0.019712765352    0.000004349564    0.000005642688    0.036521323226    0.012106729616    0.000004833490    0.000006115659
            0.000005053769    0.000006311431    0.011773255629    0.027092661956    0.000004833490    0.000006115659    0.031219786622    0.020124385396
0.100     0.045665969126    0.008480343539    0.000007192313    0.000006668656    0.025982327395    0.020257211408    0.000007698951    0.000007023336
            0.000007192313    0.000006668656    0.036628746096    0.022222814752    0.000006697683    0.000006319234    0.018728796561    0.032608873746
            0.025982328183    0.020257212023    0.000006697683    0.000006319234    0.045520414831    0.008409100025    0.000007387149    0.000006823403
            0.000007698951    0.000007023336    0.018728770808    0.032608881618    0.000007387149    0.000006823403    0.036326870306    0.022302319384
0.125     0.053569086565    0.000702147081    0.000009923369    0.000006645836    0.035643863649    0.016888850893    0.000010585124    0.000006972197
            0.000009923369    0.000006645836    0.040955224691    0.022618775484    0.000009275018    0.000006321071    0.026129804105    0.035973060424
            0.035643862451    0.016888851087    0.000009275018    0.000006321071    0.053430831433    0.000676348145    0.000010180091    0.000006795962
            0.000010585124    0.000006972197    0.026129804105    0.035973060424    0.000010180091    0.000006795962    0.040603106233    0.022832785118
0.150     0.059067430106    -0.010567155146    0.000012727950    0.000005890979    0.043935783110    0.009715295202    0.000013539805    0.000006146864
            0.000012727950    0.000005890979    0.044180362791    0.021920167185    0.000011927989    0.000005632131    0.033214297976    0.037269289233
            0.043935783110    0.009715295202    0.000011927989    0.000005632131    0.058965616681    -0.010543987259    0.000013045739    0.000006019990
            0.000013539805    0.000006146864    0.033214297976    0.037269289233    0.000013045739    0.000006019990    0.043813037405    0.022300260330
0.175     0.060827050523    -0.024469708520    0.000015461099    0.000004411200    0.049542698175    -0.000665964627    0.000016408749    0.000004557282
            0.000015461099    0.000004411200    0.045879099406    0.020660072247    0.000014519568    0.000004257972    0.039347391639    0.036881998552
            0.049542698176    -0.000665964610    0.000014519568    0.000004257972    0.060803525468    -0.024400751126    0.000015834578    0.000004503503
            0.000016408749    0.000004557282    0.039347391639    0.036881998552    0.000015834578    0.000004503503    0.045556561486    0.021224387208
0.200     0.057913886812    -0.039679664545    0.000017994010    0.000002226948    0.051405670355    -0.013246634470    0.000019056133    0.000002229340
            0.000017994010    0.000002226948    0.045910874175    0.019573200933    0.000016927861    0.000002216361    0.044084811319    0.035389381271
            0.051405670355    -0.013246634470    0.000016927861    0.000002216361    0.058012754820    -0.039585947248    0.000018414496    0.000002269994
            0.000019056133    0.000002229340    0.044084811319    0.035389381271    0.000018414496    0.000002269994    0.045702236678    0.020313878121
0.225     0.049866537605    -0.054590720890    0.000020200123    -0.000000642145    0.048830075515    -0.026704200539    0.000021349946    -0.000000811902
            0.000020200123    -0.000000642145    0.044459614286    0.019412951758    0.000019032549    -0.000000475423    0.047225605633    0.033478652030
            0.048830076393    -0.026704201018    0.000019032549    -0.000000475423    0.050125112188    -0.054512290262    0.000020656745    -0.000000657295
            0.000021349946    -0.000000811902    0.047225605633    0.033478652030    0.000020656745    -0.000000657295    0.044429713365    0.020293486832
0.250     0.036782836561    -0.067478454587    0.000021943229    -0.000004169553    0.041578158636    -0.039530216214    0.000023150396    -0.000004534444
            0.000021943229    -0.000004169553    0.042008031226    0.020841601688    0.000020703955    -0.000003793525    0.048843216175    0.031865836434
            0.041578158636    -0.039530216214    0.000020703955    -0.000003793525    0.037224589607    -0.067470548003    0.000022425161    -0.000004247850
            0.000023150396    -0.000004534444    0.048843216175    0.031865836434    0.000022425162    -0.000004247850    0.042205095117    0.021800391504
0.275     0.019320310332    -0.076680213566    0.000023064791    -0.000008311858    0.029908617418    -0.050174249109    0.000024296179    -0.000008890413
            0.000023064791    -0.000008311858    0.039284794329    0.024298162840    0.000021791317    -0.000007697718    0.049278771755    0.031183869842
            0.029908617418    -0.050174249109    0.000021791317    -0.000007697718    0.019949586182    -0.076808659383    0.000023562782    -0.000008455434
            0.000024296179    -0.000008890413    0.049278771755    0.031183869842    0.000023562782    -0.000008455434    0.039731455836    0.025256182024
0.300     -0.001324234094    -0.080784211148    0.000023386832    -0.000012986075    0.014579730878    -0.057211345478    0.000024606178    -0.000013792525
            0.000023386832    -0.000012986075    0.037169802859    0.029932041959    0.000022124871    -0.000012109944    0.049102559899    0.031895401756
            0.014579730878    -0.057211345478    0.000022124871    -0.000012109944    -0.000526510706    -0.081119124336    0.000023894252    -0.000013195616
            0.000024606178    -0.000013792525    0.049102559899    0.031895401756    0.000023894252    -0.000013195616    0.037857218457    0.030804114117
0.325     -0.023519453691    -0.078787244485    0.000022721801    -0.000018049425    -0.003205209868    -0.059491479359    0.000023889564    -0.000019093921
            0.000022721801    -0.000018049425    0.036576303925    0.037539991490    0.000021526357    -0.000016895455    0.049031502136    0.034204765697
            -0.003205209868    -0.059491479359    0.000021526357    -0.000016895455    -0.022597498583    -0.079393924621    0.000023234833    -0.000018326586
            0.000023889564    -0.000019093921    0.049031502136    0.034204765697    0.000023234833    -0.000018326586    0.037463302591    0.038247748318
0.350     -0.045340366012    -0.070238814807    0.000020902869    -0.000023284743    -0.021901000916    -0.056284564413    0.000021975306    -0.000024572448
            0.000020902869    -0.000023284743    0.038318875765    0.046582479726    0.000019836689    -0.000021848525    0.049829323670    0.038023488484
            -0.021901000916    -0.056284564413    0.000019836689    -0.000021848525    -0.044361831355    -0.071169384859    0.000021419224    -0.000023634008
            0.000021975306    -0.000024572448    0.049829323670    0.038023488484    0.000021419224    -0.000023634008    0.039336182756    0.047066008635
0.375     -0.064756349026    -0.055310079002    0.000017816594    -0.000028400741    -0.039763911198    -0.047372527812    0.000018745380    -0.000029929987
            0.000017816594    -0.000028400741    0.042985622094    0.056220041159    0.000016947768    -0.000026693206    0.052180850627    0.042959814998
            -0.039763911198    -0.047372527812    0.000016947768    -0.000026693206    -0.063808087917    -0.056594539205    0.000018333190    -0.000028830933
            0.000018745380    -0.000029929987    0.052180850627    0.042959814998    0.000018333190    -0.000028830933    0.044044152487    0.056448500459
0.400     -0.079842726939    -0.034818275640    0.000013440791    -0.000033051623    -0.055033511637    -0.033102685256    0.000014173874    -0.000034811856
            0.000013440791    -0.000033051623    0.050838743331    0.065425754113    0.000012838101    -0.000031101939    0.056588783667    0.048377540163
            -0.055033511637    -0.033102685256    0.000012838101    -0.000031101939    -0.079022505502    -0.036457939346    0.000013950733    -0.000033575922
            0.000014173874    -0.000034811856    0.056588783667    0.048377540163    0.000013950733    -0.000033575922    0.051842609747    0.065403192373
0.425     -0.088980885254    -0.010163247070    0.000007867385    -0.000036873979    -0.066108582535    -0.014366363616    0.000008350541    -0.000038843341
            0.000007867385    -0.000036873979    0.061755752561    0.073107544113    0.000007593943    -0.000034730390    0.063282183710    0.053474562350
            -0.066108582535    -0.014366363616    0.000007593943    -0.000034730390    -0.088387823180    -0.012126736982    0.000008356762    -0.000037508230
            0.000008350541    -0.000038843341    0.063282183710    0.053474562350    0.000008356762    -0.000037508230    0.062616026026    0.072873336723
0.450     -0.091041187488    0.016793080523    0.000001306675    -0.000039536229    -0.071725338646    0.007475156570    0.000001487167    -0.000041678989
            0.000001306675    -0.000039536229    0.075236728561    0.078263664258    0.000001413562    -0.000037264977    0.072185550165    0.057407567788
            -0.071725338646    0.007475156570    0.000001413562    -0.000037264977    -0.090764050330    0.014569697739    0.000001753106    -0.000040295463
            0.000001487167    -0.000041678989    0.072185550165    0.057407567788    0.000001753106    -0.000040295463    0.075883186564    0.077887093113
0.475     -0.085501117221    0.043903676436    -0.000005927414    -0.000040795835    -0.071080161785    0.030721492698    -0.000006096894    -0.000043060712
            -0.000005927414    -0.000040795835    0.090453347865    0.080106228281    -0.000005405761    -0.000038477464    0.082917595882    0.059398747951
            -0.071080161785    0.030721492698    -0.000005405761    -0.000038477464    -0.085608757099    0.041513408978    -0.000005554890    -0.000041688102
            -0.000006096894    -0.000043060712    0.082917595882    0.059398747951    -0.000005554890    -0.000041688102    0.090844350020    0.079677462074
0.500     -0.072509238760    0.068943754073    -0.000013431461    -0.000040515474    -0.063918860035    0.053498924743    -0.000013991201    -0.000042837704
            -0.000013431461    -0.000040515474    0.106359364478    0.078167898902    -0.000012481053    -0.000038238663    0.094852090261    0.058846088810
            -0.063918860035    0.053498924743    -0.000012481053    -0.000038238663    -0.073041732755    0.066502232920    -0.000013174378    -0.000041540059
            -0.000013991201    -0.000042837704    0.094852090261    0.058846088810    -0.000013174378    -0.000041540059    0.106484702558    0.077784853797
0.525     -0.052866958369    0.089819098745    -0.000020806756    -0.000038670242    -0.050547416769    0.073931981770    -0.000021782634    -0.000040976337
            -0.000020806756    -0.000038670242    0.121808360756    0.072343836402    -0.000019434789    -0.000036523682    0.107185075411    0.055387366719
            -0.050547416769    0.073931981770    -0.000019434789    -0.000036523682    -0.053831249826    0.087454004089    -0.000020708686    -0.000039815843
            -0.000021782634    -0.000040976337    0.107185075411    0.055387366719    -0.000020708686    -0.000039815843    0.121683544736    0.072108325460
0.550     -0.027954197086    0.104761163107    -0.000027689415    -0.000035374854    -0.031804318070    0.090319092712    -0.000029091433    -0.000037584112
            -0.000027689415    -0.000035374854    0.135691910838    0.062896650700    -0.000025925168    -0.000033442552    0.119051967127    0.048949325538
            -0.031804318070    0.090319092712    -0.000025925168    -0.000033442552    -0.029321709124    0.102599854115    -0.000027793696    -0.000036616510
            -0.000029091433    -0.000037584112    0.119051967127    0.048949325538    -0.000027793696    -0.000036616510    0.135367476526    0.062924264704
0.575     0.000398680857    0.112473213405    -0.000033783590    -0.000030840397    -0.008973913710    0.101265343274    -0.000035604927    -0.000032866881
            -0.000033783590    -0.000030840397    0.147038900036    0.050411755707    -0.000031671910    -0.000029196852    0.129620182075    0.039711504880
            -0.008973913710    0.101265343274    -0.000031671910    -0.000029196852    -0.001307963589    0.110629138271    -0.000034127012    -0.000032137467
            -0.000035604927    -0.000032866881    0.129620182075    0.039711504880    -0.000034127012    -0.000032137467    0.146637006264    0.050801068397
0.600     0.030071169040    0.112233978821    -0.000038886383    -0.000025338488    0.016322588787    0.105798126072    -0.000041099614    -0.000027095489
            -0.000038886383    -0.000025338488    0.155113777931    0.035735245300    -0.000036483506    -0.000024043176    0.138132250704    0.028077698703
            0.016322588787    0.105798126072    -0.000036483506    -0.000024043176    0.028123502764    0.110795358661    -0.000039491470    -0.000026634735
            -0.000041099614    -0.000027095489    0.138132250704    0.028077698703    -0.000039491470    -0.000026634735    0.154785588987    0.036509303657
0.625     0.058826154119    0.103937027964    -0.000042899443    -0.000019160006    0.042258348852    0.103420967250    -0.000045457350    -0.000020567690
            -0.000042899443    -0.000019160006    0.159465834206    0.019885345905    -0.000040269287    -0.000018256189    0.143957887351    0.014677804856
            0.042258348852    0.103420967250    -0.000040269287    -0.000018256189    0.056765591131    0.102961022610    -0.000043771518    -0.000020390620
            -0.000045457350    -0.000020567690    0.143957887351    0.014677804856    -0.000043771518    -0.000020390620    0.159344764616    0.021013010253
0.650     0.084489955393    0.088090977080    -0.000045821936    -0.000012573379    0.066940816031    0.094152000881    -0.000048659877    -0.000013562822
            -0.000045821936    -0.000012573379    0.159964551793    0.003959590038    -0.000043031584    -0.000012088858    0.146688112156    0.000314826191
            0.066940816031    0.094152000881    -0.000043031584    -0.000012088858    0.082462701849    0.087599128277    -0.000046947935    -0.000013671434
            -0.000048659877    -0.000013562822    0.146688112156    0.000314826114    -0.000046947935    -0.000013671434    0.160167652825    0.005375114865
0.675     0.105108367486    0.065771913530    -0.000047726701    -0.000005791540    0.088540929227    0.078509489730    -0.000050766465    -0.000006308586
            -0.000047726701    -0.000005791540    0.156796872527    -0.010953770756    -0.000044842755    -0.000005742127    0.146154999307    -0.014111885117
            0.088540929227    0.078509489730    -0.000044842755    -0.000005742127    0.103266854446    0.065746582974    -0.000049075092    -0.000006694888
            -0.000050766465    -0.000006308586    0.146154999307    -0.014111885117    -0.000049075092    -0.000006694888    0.157420873955    -0.009350156147
0.700     0.119089363575    0.038542739640    -0.000048729306    0.000001048736    0.105427274037    0.057484826077    -0.000051882254    0.000001040940
            -0.000048729306    0.000001048736    0.150464063051    -0.023862300050    -0.000045815106    0.000000656249    0.142471101812    -0.027672081503
            0.105427274037    0.057484826077    -0.000045815106    0.000000656249    0.117579740220    0.038924990566    -0.000050251444    0.000000390893
            -0.000051882254    0.000001040940    0.142471101812    -0.027672081503    -0.000050251444    0.000000390893    0.151575972177    -0.022200375536
0.725     0.125311341216    0.008342323047    -0.000048948617    0.000007893985    0.116268940166    0.032475176239    -0.000052120223    0.000008413238
            -0.000048948617    0.000007893985    0.141742897477    -0.033951714990    -0.000046063801    0.000007058124    0.136024297211    -0.039484887965
            0.116268940166    0.032475176239    -0.000046063801    0.000007058124    0.124261234169    0.009033105606    -0.000050582580    0.000007515272
            -0.000052120223    0.000008413238    0.136024297211    -0.039484887965    -0.000050582580    0.000007515272    0.143368854069    -0.032383377794
0.750     0.123208976541    -0.022650286620    -0.000048466929    0.000014765369    0.120146542648    0.005199554866    -0.000051561594    0.000015808972
            -0.000048466929    0.000014765369    0.131642156804    -0.040666369646    -0.000045668436    0.000013487795    0.127484955163    -0.048805105945
            0.120146542648    0.005199554866    -0.000045668436    0.000013487795    0.122716492279    -0.021784871941    -0.000050144226    0.000014678143
            -0.000051561594    0.000015808972    0.127484955163    -0.048805105945    -0.000050144226    0.000014678143    0.133760811354    -0.039351831959
0.775     0.112819796036    -0.052164185331    -0.000047294687    0.000021731708    0.116618100024    -0.022411074290    -0.000050221057    0.000023277500
            -0.000047294687    0.000021731708    0.121322287219    -0.043778679409    -0.000044639747    0.000020014971    0.117750948783    -0.055118650445
            0.116618100024    -0.022411074290    -0.000044639747    0.000020014971    0.112944169715    -0.051285581915    -0.000048948509    0.000021925404
            -0.000050221057    0.000023277500    0.117750948783    -0.055118650445    -0.000048948509    0.000021925404    0.123859894681    -0.042872092790
