# GHz S RI R 45
0.000     0.017054481953    0.001908067674    0.982627169006    -0.008271255554    0.000706636696    0.001635385015    -0.000695057696    -0.000585724101
            0.982627169006    -0.008271255554    0.017260992693    0.001776924861    -0.000694843280    -0.000585630523    0.000704879921    0.001655070012
            0.000706636839    0.001635384953    -0.000694843397    -0.000585630415    0.017028723043    0.001918822827    0.982676534020    -0.008273243593
            -0.000695057726    -0.000585724126    0.000704880162    0.001655070018    0.982676534020    -0.008273243593    0.017190894783    0.001788924775
0.025     0.022511234304    0.009847482742    0.964986294677    -0.168902731595    0.002990335778    0.009971889911    -0.001213094443    -0.002057658033
            0.964986289371    -0.168902761910    0.021290169277    0.010155021651    -0.001210376244    -0.002057182371    0.002077345681    0.010275162881
            0.002989538430    0.009971938980    -0.001210496526    -0.002057608648    0.022446610073    0.009807405029    0.965125974204    -0.168603272402
            -0.001212926486    -0.002057245930    0.002077600004    0.010274589099    0.965125957136    -0.168603370101    0.021213247281    0.010125646568
0.050     0.030500970266    0.014210607667    0.919982493281    -0.328825599454    0.009365474475    0.017965148858    -0.002626826498    -0.003601779112
            0.919982493281    -0.328825599454    0.026173842618    0.016130103933    -0.002626525834    -0.003600123449    0.005983716648    0.019525269434
            0.009365462789    0.017965144801    -0.002626489405    -0.003600131582    0.030441375620    0.014131388013    0.920277127950    -0.328195095085
            -0.002626741285    -0.003601773185    0.005983812331    0.019525264166    0.920277127950    -0.328195095085    0.026029554736    0.016091720236
0.075     0.040044003114    0.014557073901    0.849337030862    -0.478027860540    0.018614592925    0.022569932764    -0.004533047672    -0.004422503966
            0.849337030862    -0.478027860540    0.031443134967    0.020127133205    -0.004531313546    -0.004418855235    0.011773260756    0.027092660818
            0.018614585502    0.022569934998    -0.004531307851    -0.004418852767    0.039995986514    0.014445081227    0.849902724029    -0.477163126932
            -0.004533041976    -0.004422501498    0.011773255629    0.027092661956    0.849902724029    -0.477163126932    0.031219786622    0.020124385396
0.100     0.049765854285    0.010386930513    0.755108662398    -0.612556441483    0.029223471008    0.022942358993    -0.006622212030    -0.004513833050
            0.755108662398    -0.612556441483    0.036628746096    0.022222814752    -0.006616300241    -0.004508376165    0.018728796561    0.032608873746
            0.029223471008    0.022942358993    -0.006616297219    -0.004508379179    0.049740967792    0.010239473518    0.756024309462    -0.611539407072
            -0.006622209953    -0.004513838406    0.018728770808    0.032608881618    0.756024309462    -0.611539407072    0.036326870306    0.022302319384
0.125     0.057844463239    0.001631221556    0.640050795960    -0.728845360341    0.039491769396    0.018814054770    -0.008665633092    -0.003980790336
            0.640050795960    -0.728845360341    0.040955224691    0.022618775484    -0.008643627004    -0.003983286890    0.026129804105    0.035973060424
            0.039491769396    0.018814054770    -0.008643628004    -0.003983287350    0.057847813903    0.001439476812    0.641373938521    -0.727776270387
            -0.008665632820    -0.003980790211    0.026129804105    0.035973060424    0.641373938521    -0.727776270387    0.040603106233    0.022832785118
0.150     0.062671679456    -0.010814626652    0.507749760559    -0.823802770970    0.047733078586    0.010478143994    -0.010538817723    -0.002914879719
            0.507749760559    -0.823802770970    0.044180362791    0.021920167185    -0.010499338762    -0.002933672646    0.033214297976    0.037269289233
            0.047733078586    0.010478143994    -0.010499338762    -0.002933672646    0.062724169042    -0.011056280285    0.509513285268    -0.822794505611
            -0.010538817723    -0.002914879719    0.033214297976    0.037269289233    0.509513285268    -0.822794505611    0.043813037405    0.022300260330
0.175     0.062843819784    -0.025753988685    0.362036429148    -0.895093354952    0.052435141614    -0.001171914416    -0.012180893522    -0.001436545303
            0.362036429148    -0.895093354952    0.045879099406    0.020660072247    -0.012125749430    -0.001482410487    0.039347391639    0.036881998552
            0.052435141614    -0.001171914416    -0.012125749430    -0.001482410487    0.062957012278    -0.026069617026    0.364247480503    -0.894265941827
            -0.012180893522    -0.001436545303    0.039347391639    0.036881998552    0.364247480503    -0.894265941827    0.045556561486    0.021224387208
0.200     0.057435694526    -0.041474087115    0.206974445566    -0.940995993936    0.052464608379    -0.014755540845    -0.013602548382    0.000374001910
            0.206974445566    -0.940995993936    0.045910874175    0.019573200933    -0.013538465912    0.000289367967    0.044084811319    0.035389381271
            0.052464608379    -0.014755540845    -0.013538465912    0.000289367967    0.057610805052    -0.041896434631    0.209614737589    -0.940471130650
            -0.013602548382    0.000374001910    0.044084811319    0.035389381271    0.209614737589    -0.940471130650    0.045702236678    0.020313878121
0.225     0.046145983500    -0.055958772786    0.046824088884    -0.960397175126    0.047199406407    -0.028545160536    -0.014836392678    0.002513756367
            0.046824088884    -0.960397175126    0.044459614286    0.019412951758    -0.014775516013    0.002380418035    0.047225605633    0.033478652030
            0.047199406407    -0.028545160536    -0.014775516013    0.002380418035    0.046371265895    -0.056525596530    0.049846111845    -0.960294035818
            -0.014836392678    0.002513756367    0.047225605633    0.033478652030    0.049846111845    -0.960294035818    0.044429713365    0.020293486832
0.250     0.029406011558    -0.067123871128    -0.114015996880    -0.952826039038    0.036635477794    -0.040648877970    -0.015879806919    0.005055200995
            -0.114015996880    -0.952826039038    0.042008031226    0.020841601688    -0.015838770967    0.004867177733    0.048843216175    0.031865836434
            0.036635477794    -0.040648877970    -0.015838770967    0.004867177733    0.029654389961    -0.067872884448    -0.110686327752    -0.953259263082
            -0.015879806919    0.005055200995    0.048843216175    0.031865836434    -0.110686327752    -0.953259263082    0.042205095117    0.021800391504
0.275     0.008361414303    -0.073067967592    -0.271070564975    -0.918499251504    0.021422620796    -0.049213492831    -0.016639647932    0.008110446890
            -0.271070564975    -0.918499251504    0.039284794329    0.024298162840    -0.016637342912    0.007867786319    0.049278771755    0.031183869842
            0.021422620796    -0.049213492831    -0.016637342912    0.007867786319    0.008588870770    -0.074030282114    -0.267531749970    -0.919571197705
            -0.016639647932    0.008110446890    0.049278771755    0.031183869842    -0.267531749970    -0.919571197705    0.039731455836    0.025256182024
0.300     -0.015193615447    -0.072326819716    -0.419882473589    -0.858372266713    0.002841657611    -0.052657324579    -0.016909344365    0.011766881232
            -0.419882473589    -0.858372266713    0.037169802859    0.029932041959    -0.016964344386    0.011475239027    0.049102559899    0.031895401756
            0.002841657611    -0.052657324579    -0.016964344386    0.011475239027    -0.015046812460    -0.073521022891    -0.416265591773    -0.860165509536
            -0.016909344365    0.011766881232    0.049102559899    0.031895401756    -0.416265591773    -0.860165509536    0.037857218457    0.030804114117
0.325     -0.038990233925    -0.064078026857    -0.556143666150    -0.774179615275    -0.017303461830    -0.049877082584    -0.016382111475    0.016011055913
            -0.556143666150    -0.774179615275    0.036576303925    0.037539991490    -0.016510252836    0.015680125208    0.049031502136    0.034204765697
            -0.017303461830    -0.049877082584    -0.016510252836    0.015680125208    -0.038995637645    -0.065502655256    -0.552603756475    -0.776749507717
            -0.016382111475    0.016011055913    0.049031502136    0.034204765697    -0.552603756475    -0.776749507717    0.037463302591    0.038247748318
0.350     -0.060523031255    -0.048308917361    -0.675874330797    -0.668441727839    -0.036874189658    -0.040431963886    -0.014712221993    0.020668161807
            -0.675874330797    -0.668441727839    0.038318875765    0.046582479726    -0.014925178294    0.020309318546    0.049829323670    0.038023488484
            -0.036874189658    -0.040431963886    -0.014925178294    0.020309318546    -0.060756269876    -0.049936759238    -0.672581366835    -0.671809634166
            -0.014712221993    0.020668161807    0.049829323670    0.038023488484    -0.672581366835    -0.671809634166    0.039336182756    0.047066008635
0.375     -0.077342625750    -0.025864702056    -0.775590682959    -0.544409594904    -0.053641380986    -0.024634301869    -0.011603014356    0.025376956788
            -0.775590682959    -0.544409594904    0.042985622094    0.056220041159    -0.011909517675    0.024998369631    0.052180850627    0.042959814998
            -0.053641380986    -0.024634301869    -0.011909517675    0.024998369631    -0.077874757976    -0.027641097265    -0.772725958953    -0.548557704777
            -0.011603014356    0.025376956788    0.052180850627    0.042959814998    -0.772725958953    -0.548557704777    0.044044152487    0.056448500459
0.400     -0.087368630058    0.001594123747    -0.852495265286    -0.405961898277    -0.065572201647    -0.003554534760    -0.006906267386    0.029618921305
            -0.852495265286    -0.405961898277    0.050838743331    0.065425754113    -0.007315961924    0.029222233751    0.056588783667    0.048377540163
            -0.065572201647    -0.003554534760    -0.007315961924    0.029222233751    -0.088256191917    -0.000249646995    -0.850239374145    -0.410827915101
            -0.006906267386    0.029618921305    0.056588783667    0.048377540163    -0.850239374145    -0.410827915101    0.051842609747    0.065403192373
0.425     -0.089155648642    0.031768063112    -0.904613494678    -0.257421885807    -0.071080296969    0.021095027631    -0.000696633959    0.032794256690
            -0.904613494678    -0.257421885807    0.061755752561    0.073107544113    -0.001228324705    0.032371289065    0.063282183710    0.053474562350
            -0.071080296969    0.021095027631    -0.001228324705    0.032371289065    -0.090431904567    0.029960101079    -0.903134171487    -0.262897945863
            -0.000696633959    0.032794256690    0.063282183710    0.053474562350    -0.903134171487    -0.262897945863    0.062616026026    0.072873336723
0.450     -0.082088884226    0.061978806943    -0.930870055382    -0.103332610395    -0.069233307966    0.047161019926    0.006700921068    0.034334002217
            -0.930870055382    -0.103332610395    0.075236728561    0.078263664258    0.006007560044    0.033869325555    0.072185550165    0.057407567788
            -0.069233307966    0.047161019926    0.006007560044    0.033869325555    -0.083757352393    0.060324124543    -0.930308700124    -0.109276278629
            0.006700921068    0.034334002217    0.072185550165    0.057407567788    -0.930308700124    -0.109276278629    0.075883186564    0.077887093113
0.475     -0.066449951644    0.089475588298    -0.931081882853    0.051750731232    -0.059842141323    0.072302235517    0.014745084136    0.033804924967
            -0.931081882853    0.051750731232    0.090453347865    0.080106228281    0.013813031547    0.033290249334    0.082917595882    0.059398747951
            -0.059842141323    0.072302235517    0.013813031547    0.033290249334    -0.068481821848    0.088100409576    -0.931550494892    0.045513157439
            0.014745084136    0.033804924967    0.082917595882    0.059398747951    -0.931550494892    0.045513157439    0.090844350020    0.079677462074
0.500     -0.043384025228    0.111738983372    -0.905897214976    0.203478338674    -0.043471550819    0.094255369573    0.022757812419    0.030970003318
            -0.905897214976    0.203478338674    0.106359364478    0.078167898902    0.021465668022    0.030456074769    0.094852090261    0.058846088810
            -0.043471550819    0.094255369573    0.021465668022    0.030456074769    -0.045709778065    0.110777727505    -0.907463452958    0.197143736526
            0.022757812419    0.030970003318    0.094852090261    0.058846088810    -0.907463452958    0.197143736526    0.106484702558    0.077784853797
0.525     -0.014775644926    0.126735537217    -0.856661334139    0.347851135022    -0.021352222018    0.111058698996    0.029945232622    0.025772294696
            -0.856661334139    0.347851135022    0.121808360756    0.072343836402    0.028223937527    0.025484654822    0.107185075411    0.055387366719
            -0.021352222018    0.111058698996    0.028223937527    0.025484654822    -0.017249921702    0.126324389023    -0.859352360038    0.341620338040
            0.029945232622    0.025772294696    0.107185075411    0.055387366719    -0.859352360038    0.341620338040    0.121683544736    0.072108325460
0.550     0.016952581087    0.133186705855    -0.785260090243    0.481327909594    0.004772901223    0.121277567130    0.035280498354    0.018534275030
            -0.785260090243    0.481327909594    0.135691910838    0.062896650700    0.033461747544    0.018790511482    0.119051967127    0.048949325538
            0.004772901223    0.121277567130    0.033461747544    0.018790511482    0.014596245933    0.133368740638    -0.789064689420    0.475391888020
            0.035280498354    0.018534275030    0.119051967127    0.048949325538    -0.789064689420    0.475391888020    0.135367476526    0.062924264704
0.575     0.049278683822    0.130657756041    -0.693973532910    0.600804691984    0.032941789790    0.124068258940    0.038094398868    0.010411426205
            -0.693973532910    0.600804691984    0.147038900036    0.050411755707    0.036752147003    0.011026020095    0.129620182075    0.039711504880
            0.032941789790    0.124068258940    0.036752147003    0.011026020095    0.047265731974    0.131279582188    -0.698865326266    0.595351429323
            0.038094398868    0.010411426205    0.129620182075    0.039711504880    -0.698865326266    0.595351429323    0.146637006264    0.050801068397
0.600     0.079754302080    0.119274636579    -0.585409600464    0.703628955721    0.061074300532    0.119068566100    0.038712311820    0.002393601242
            -0.585409600464    0.703628955721    0.155113777931    0.035735245300    0.037906759914    0.002964119748    0.138132250704    0.028077698703
            0.061074300532    0.119068566100    0.037906759914    0.002964119748    0.078156486547    0.120186689149    -0.591331370851    0.698849834068
            0.038712311820    0.002393601242    0.138132250704    0.028077698703    -0.591331370851    0.698849834068    0.154785588987    0.036509303657
0.625     0.105945977690    0.099806736774    -0.462413385526    0.787600989612    0.086995932737    0.106485915544    0.037477989189    -0.005066487605
            -0.462413385526    0.787600989612    0.159465834206    0.019885345905    0.037010631855    -0.004653623656    0.143957887351    0.014677804856
            0.086995932737    0.106485915544    0.037010632904    -0.004653623329    0.104824680627    0.100922802508    -0.469267306521    0.783679371113
            0.037477989189    -0.005066487605    0.143957887351    0.014677804856    -0.469267306521    0.783679371113    0.159344764616    0.021013010253
0.650     0.125722961295    0.073714491841    -0.327987026757    0.850924506598    0.108664548671    0.087132473957    0.034713171967    -0.011529005893
            -0.327987026757    0.850924506598    0.159964551793    0.003959590038    0.034426413169    -0.011236754248    0.146688112156    0.000314826191
            0.108664548671    0.087132473957    0.034426413365    -0.011236753647    0.125153139921    0.074933552508    -0.335651316477    0.848028709915
            0.034713171967    -0.011529005893    0.146688112156    0.000314826114    -0.335651316477    0.848028709915    0.160167652825    0.005375114865
0.675     0.137439183764    0.042986629425    -0.185295495032    0.892161473466    0.124305984258    0.062333266418    0.030914066120    -0.016649685720
            -0.185295495032    0.892161473466    0.156796872527    -0.010953770756    0.030720237796    -0.016417913773    0.146154999307    -0.014111885117
            0.124305984258    0.062333266418    0.030720237796    -0.016417913773    0.137478551173    0.044169529310    -0.193622418053    0.890444785141
            0.030914066120    -0.016649685720    0.146154999307    -0.014111885117    -0.193622418053    0.890444785141    0.157420873955    -0.009350156147
0.700     0.140033158070    0.009990978698    -0.037669768478    0.910238541161    0.132532705166    0.033859904671    0.026683980969    -0.020322507017
            -0.037669768478    0.910238541161    0.150464063051    -0.023862300050    0.026545475950    -0.020100960833    0.142471101812    -0.027672081503
            0.132532705166    0.033859904671    0.026545475950    -0.020100960833    0.140701116167    0.010968385058    -0.046487243620    0.909840448147
            0.026683980969    -0.020322507017    0.142471101812    -0.027672081503    -0.046487243620    0.909840448147    0.151575972177    -0.022200375536
0.725     0.133099881540    -0.022666825875    0.111374106415    0.904467458898    0.132436369436    0.003847299151    0.022598389690    -0.022712516980
            0.111374106415    0.904467458898    0.141742897477    -0.033951714990    0.022510814000    -0.022467363279    0.136024297211    -0.039484887965
            0.132436369436    0.003847299151    0.022510814000    -0.022467363279    0.134365361598    -0.022080439961    0.102267591075    0.905507069551
            0.022598390087    -0.022712516585    0.136024297211    -0.039484887965    0.102267591075    0.905507069551    0.143368854069    -0.032383377794
0.750     0.116956579351    -0.052306596793    0.258135785397    0.874605752754    0.123712946621    -0.025321323161    0.019078816652    -0.024221513352
            0.258135785397    0.874605752754    0.131642156804    -0.040666369646    0.019057581979    -0.023937759079    0.127484955163    -0.048805105945
            0.123712946621    -0.025321323161    0.019057581979    -0.023937759079    0.118732028158    -0.052294937794    0.248965886657    0.877181697001
            0.019078816652    -0.024221513352    0.127484955163    -0.048805105945    0.248965886657    0.877181697001    0.133760811354    -0.039351831959
0.775     0.092674499486    -0.076359704378    0.398741861085    0.820948641469    0.106741257810    -0.051167435187    0.016295975533    -0.025391113388
            0.398741861085    0.820948641469    0.121322287219    -0.043778679409    0.016365684532    -0.025073387067    0.117750948783    -0.055118650445
            0.106741257810    -0.051167435187    0.016365684532    -0.025073387067    0.094814765885    -0.077086576636    0.389768570923    0.825127898470
            0.016295975533    -0.025391113388    0.117750948783    -0.055118650445    0.389768570923    0.825127898470    0.123859894681    -0.042872092790
