# GHz S RI R 45
0.000     0.017844902769    0.001434318164    0.000000039500    -0.000000031462    0.000773600352    0.001399783264    0.000000080811    0.000000032787
            0.000000039500    -0.000000031462    0.017260992693    0.001776924861    0.000000059190    -0.000000009358    0.000704879921    0.001655070012
            0.000773600035    0.001399783211    0.000000059190    -0.000000009358    0.017785718191    0.001444319050    0.000000108622    0.000000065313
            0.000000080811    0.000000032787    0.000704880162    0.001655070018    0.000000108622    0.000000065313    0.017190894783    0.001788924775
0.025     0.022030465445    0.009838540301    0.000000053689    -0.000000074797    0.002236201620    0.010241064362    0.000000124984    0.000000066358
            0.000000053689    -0.000000074797    0.021290169277    0.010155021651    0.000000085604    -0.000000025466    0.002077345681    0.010275162881
            0.002238563356    0.010239459249    0.000000085605    -0.000000025467    0.021972871804    0.009887302420    0.000000170990    0.000000138538
            0.000000124984    0.000000066358    0.002077600004    0.010274589099    0.000000170990    0.000000138538    0.021213247281    0.010125646568
0.050     0.027132163939    0.015452854923    0.000000064199    -0.000000168102    0.006479726525    0.019357738614    0.000000189807    0.000000077287
            0.000000064199    -0.000000168102    0.026173842618    0.016130103933    0.000000118109    -0.000000085642    0.005983716648    0.019525269434
            0.006479856287    0.019357798522    0.000000118109    -0.000000085642    0.027081587618    0.015551757629    0.000000265304    0.000000199883
            0.000000189807    0.000000077287    0.005983812331    0.019525264166    0.000000265304    0.000000199883    0.026029554736    0.016091720236
0.075     0.032735844873    0.018829500607    0.000000067183    -0.000000267718    0.012748948057    0.026496695801    0.000000251016    0.000000067197
            0.000000067183    -0.000000267718    0.031443134967    0.020127133205    0.000000143343    -0.000000158060    0.011773260756    0.027092660818
            0.012748946988    0.026496701865    0.000000143343    -0.000000158060    0.032702578523    0.018981427781    0.000000357380    0.000000231666
            0.000000251016    0.000000067197    0.011773255629    0.027092661956    0.000000357380    0.000000231666    0.031219786622    0.020124385396
0.100     0.038188324659    0.019959527143    0.000000063246    -0.000000371780    0.020146492395    0.031212710869    0.000000313396    0.000000042559
            0.000000063246    -0.000000371780    0.036628746096    0.022222814752    0.000000163589    -0.000000239323    0.018728796561    0.032608873746
            0.020146470619    0.031212717783    0.000000163589    -0.000000239323    0.038182417792    0.020162511094    0.000000454097    0.000000243843
            0.000000313396    0.000000042559    0.018728770808    0.032608881618    0.000000454097    0.000000243843    0.036326870306    0.022302319384
0.125     0.042502440360    0.019071226575    0.000000053300    -0.000000480361    0.027749910216    0.033413460703    0.000000377379    0.000000004532
            0.000000053300    -0.000000480361    0.040955224691    0.022618775484    0.000000180144    -0.000000328790    0.026129804105    0.035973060424
            0.027749910216    0.033413460703    0.000000180144    -0.000000328790    0.042547054367    0.019320949801    0.000000555916    0.000000237457
            0.000000377379    0.000000004532    0.026129804105    0.035973060424    0.000000555916    0.000000237457    0.040603106233    0.022832785118
0.150     0.045275315592    0.016855230908    0.000000036696    -0.000000592448    0.034633837432    0.033286874157    0.000000441609    -0.000000045081
            0.000000036696    -0.000000592448    0.044180362791    0.021920167185    0.000000191475    -0.000000425046    0.033214297976    0.037269289233
            0.034633837432    0.033286874157    0.000000191475    -0.000000425046    0.045369025244    0.017134238771    0.000000661320    0.000000215260
            0.000000441609    -0.000000045081    0.033214297976    0.037269289233    0.000000661320    0.000000215260    0.043813037405    0.022300260330
0.175     0.045954792926    0.014038686803    0.000000013987    -0.000000709204    0.040029740248    0.031375314436    0.000000507632    -0.000000106042
            0.000000013987    -0.000000709204    0.045879099406    0.020660072247    0.000000198740    -0.000000528770    0.039347391639    0.036881998552
            0.040029740248    0.031375314436    0.000000198740    -0.000000528770    0.046099766092    0.014333826098    0.000000771790    0.000000177503
            0.000000507632    -0.000000106042    0.039347391639    0.036881998552    0.000000771790    0.000000177503    0.045556561486    0.021224387208
0.200     0.044356907114    0.011586748788    -0.000000015218    -0.000000831482    0.043428674466    0.028470816166    0.000000575630    -0.000000179643
            -0.000000015218    -0.000000831482    0.045910874175    0.019573200933    0.000000201388    -0.000000640672    0.044084811319    0.035389381271
            0.043428674466    0.028470816166    0.000000201388    -0.000000640672    0.044553622463    0.011884160085    0.000000888129    0.000000122985
            0.000000575630    -0.000000179643    0.044084811319    0.035389381271    0.000000888129    0.000000122985    0.045702236678    0.020313878121
0.225     0.040716774171    0.010496443463    -0.000000052138    -0.000000961702    0.044654795791    0.025499692952    0.000000646672    -0.000000268375
            -0.000000052138    -0.000000961702    0.044459614286    0.019412951758    0.000000199043    -0.000000763268    0.047225605633    0.033478652030
            0.044654795791    0.025499692952    0.000000199043    -0.000000763268    0.040961265038    0.010781425382    0.000001011466    0.000000048816
            0.000000646672    -0.000000268375    0.047225605633    0.033478652030    0.000001011466    0.000000048816    0.044429713365    0.020293486832
0.250     0.035664543667    0.011649842815    -0.000000099185    -0.000001101152    0.043901801088    0.023404037836    0.000000719229    -0.000000376048
            -0.000000099185    -0.000001101152    0.042008031226    0.020841601688    0.000000189373    -0.000000898269    0.048843216175    0.031865836434
            0.043901801088    0.023404037836    0.000000189373    -0.000000898269    0.035946544626    0.011908654618    0.000001140907    -0.000000049596
            0.000000719229    -0.000000376048    0.048843216175    0.031865836434    0.000001140907    -0.000000049596    0.042205095117    0.021800391504
0.275     0.030163434919    0.015647281826    -0.000000160314    -0.000001251769    0.041720009185    0.022994530245    0.000000791346    -0.000000507385
            -0.000000160314    -0.000001251769    0.039284794329    0.024298162840    0.000000169122    -0.000001048549    0.049278771755    0.031183869842
            0.041720009185    0.022994530245    0.000000169122    -0.000001048549    0.030466693082    0.015870265245    0.000001274333    -0.000000178006
            0.000000791346    -0.000000507385    0.049278771755    0.031183869842    0.000001274333    -0.000000178006    0.039731455836    0.025256182024
0.300     0.025389171525    0.022705352646    -0.000000240479    -0.000001413098    0.038956419539    0.024826836256    0.000000856999    -0.000000666903
            -0.000000240479    -0.000001413098    0.037169802859    0.029932041959    0.000000132967    -0.000001214788    0.049102559899    0.031895401756
            0.038956419539    0.024826836256    0.000000132967    -0.000001214788    0.025692693739    0.022889774530    0.000001405626    -0.000000342583
            0.000000856999    -0.000000666903    0.049102559899    0.031895401756    0.000001405626    -0.000000342583    0.037857218457    0.030804114117
0.325     0.022574602232    0.032571464468    -0.000000345934    -0.000001583973    0.036638752737    0.029088485911    0.000000908812    -0.000000858138
            -0.000000345934    -0.000001583973    0.036576303925    0.037539991490    0.000000074434    -0.000001397357    0.049031502136    0.034204765697
            0.036638752737    0.029088485911    0.000000074434    -0.000001397357    0.022855467953    0.032723464826    0.000001526309    -0.000000548229
            0.000000908812    -0.000000858138    0.049031502136    0.034204765697    0.000001526309    -0.000000548229    0.037463302591    0.038247748318
0.350     0.022826332293    0.044530848670    -0.000000482662    -0.000001759521    0.035826167813    0.035550829022    0.000000935478    -0.000001081299
            -0.000000482662    -0.000001759521    0.038318875765    0.046582479726    -0.000000013963    -0.000001592636    0.049829323670    0.038023488484
            0.035826167813    0.035550829022    -0.000000013963    -0.000001592636    0.023064124534    0.044667150672    0.000001623593    -0.000000796889
            0.000000935478    -0.000001081299    0.049829323670    0.038023488484    0.000001623593    -0.000000796889    0.039336182756    0.047066008635
0.375     0.026946353650    0.057460977794    -0.000000656278    -0.000001933191    0.037434813523    0.043570386679    0.000000925955    -0.000001332949
            -0.000000656278    -0.000001933191    0.042985622094    0.056220041159    -0.000000139358    -0.000001795244    0.052180850627    0.042959814998
            0.037434813523    0.043570386679    -0.000000139358    -0.000001795244    0.027126967067    0.057607196533    0.000001684112    -0.000001085836
            0.000000925955    -0.000001332949    0.052180850627    0.042959814998    0.000001684112    -0.000001085836    0.044044152487    0.056448500459
0.400     0.035290522774    0.069980756715    -0.000000869400    -0.000002094570    0.042087448548    0.052180871570    0.000000868723    -0.000001603825
            -0.000000869400    -0.000002094570    0.050838743331    0.065425754113    -0.000000306929    -0.000001995006    0.056588783667    0.048377540163
            0.042087448548    0.052180871570    -0.000000306929    -0.000001995006    0.035410388247    0.070169283274    0.000001693673    -0.000001406410
            0.000000868723    -0.000001603825    0.056588783667    0.048377540163    0.000001693673    -0.000001406410    0.051842609747    0.065403192373
0.425     0.047689370206    0.080629366507    -0.000001121699    -0.000002232690    0.050000776416    0.060224087548    0.000000756959    -0.000001881002
            -0.000001121699    -0.000002232690    0.061755752561    0.073107544113    -0.000000518558    -0.000002180719    0.063282183710    0.053474562350
            0.050000776416    0.060224087548    -0.000000518558    -0.000002180719    0.047757785415    0.080894712711    0.000001642685    -0.000001744756
            0.000000756959    -0.000001881002    0.063282183710    0.053474562350    0.000001642685    -0.000001744756    0.062616026026    0.072873336723
0.450     0.063460542931    0.088079352276    -0.000001407426    -0.000002335333    0.060953627477    0.066530881074    0.000000588168    -0.000002147511
            -0.000001407426    -0.000002335333    0.075236728561    0.078263664258    -0.000000771043    -0.000002338704    0.072185550165    0.057407567788
            0.060953627477    0.066530881074    -0.000000771043    -0.000002338704    0.063499725252    0.088452234593    0.000001525968    -0.000002082642
            0.000000588168    -0.000002147511    0.072185550165    0.057407567788    0.000001525968    -0.000002082642    0.075883186564    0.077887093113
0.475     0.081493721336    0.091310061820    -0.000001717623    -0.000002393459    0.074316355665    0.070077281284    0.000000367062    -0.000002387445
            -0.000001717623    -0.000002393459    0.090453347865    0.080106228281    -0.000001056931    -0.000002458138    0.082917595882    0.059398747951
            0.074316355665    0.070077281284    -0.000001056931    -0.000002458138    0.081533878365    0.091811935531    0.000001346487    -0.000002401595
            0.000000367062    -0.000002387445    0.082917595882    0.059398747951    0.000001346487    -0.000002401595    0.090844350020    0.079677462074
0.500     0.100410587121    0.089741861421    -0.000002038678    -0.000002401801    0.089156218337    0.070123656423    0.000000103756    -0.000002587282
            -0.000002038678    -0.000002401801    0.106359364478    0.078167898902    -0.000001363739    -0.000002531088    0.094852090261    0.058846088810
            0.089156218337    0.070123656423    -0.000001363739    -0.000002531088    0.100477361367    0.090377514773    0.000001113096    -0.000002685512
            0.000000103756    -0.000002587282    0.094852090261    0.058846088810    0.000001113096    -0.000002685512    0.106484702558    0.077784853797
0.525     0.118800807275    0.083314244340    -0.000002356374    -0.000002360533    0.104393160286    0.066297865737    -0.000000186331    -0.000002739560
            -0.000002356374    -0.000002360533    0.121808360756    0.072343836402    -0.000001676965    -0.000002555443    0.107185075411    0.055387366719
            0.104393160286    0.066297865737    -0.000001676965    -0.000002555443    0.118833577977    0.084034133846    0.000000841581    -0.000002923784
            -0.000000186331    -0.000002739560    0.107185075411    0.055387366719    0.000000841581    -0.000002923784    0.121683544736    0.072108325460
0.550     0.134407798243    0.072696679720    -0.000002656137    -0.000002278906    0.118368644524    0.058777697277    -0.000000484330    -0.000002843746
            -0.000002656137    -0.000002278906    0.135691910838    0.062896650700    -0.000001981935    -0.000002535294    0.119051967127    0.048949325538
            0.118368644524    0.058777697277    -0.000001981935    -0.000002535294    0.135195860166    0.073171279222    0.000000549417    -0.000003112403
            -0.000000484330    -0.000002843746    0.119051967127    0.048949325538    0.000000549417    -0.000003112403    0.135367476526    0.062924264704
0.575     0.147447446064    0.057745284450    -0.000002926983    -0.000002159476    0.130763692763    0.047321090686    -0.000000779321    -0.000002899817
            -0.000002926983    -0.000002159476    0.147038900036    0.050411755707    -0.000002266414    -0.000002476621    0.129620182075    0.039711504880
            0.130763692763    0.047321090686    -0.000002266414    -0.000002476621    0.148244977389    0.058533383489    0.000000252643    -0.000003252110
            -0.000000779321    -0.000002899817    0.129620182075    0.039711504880    0.000000252643    -0.000003252110    0.146637006264    0.050801068397
0.600     0.156153677142    0.040490545766    -0.000003164786    -0.000002021091    0.140090511901    0.033173924024    -0.000001057222    -0.000002921083
            -0.000003164786    -0.000002021091    0.155113777931    0.035735245300    -0.000002523375    -0.000002393501    0.138132250704    0.028077698703
            0.140090511901    0.033173924024    -0.000002523375    -0.000002393501    0.157015589481    0.041265184068    -0.000000034640    -0.000003352415
            -0.000001057222    -0.000002921083    0.138132250704    0.028077698703    -0.000000034640    -0.000003352415    0.154785588987    0.036509303657
0.625     0.160073533027    0.022006933647    -0.000003369493    -0.000001877591    0.145781298208    0.017236983000    -0.000001311385    -0.000002920527
            -0.000003369493    -0.000001877591    0.159465834206    0.019885345905    -0.000002752091    -0.000002299669    0.143957887351    0.014677804856
            0.145781298208    0.017236983000    -0.000002752091    -0.000002299669    0.161136120540    0.022915183531    -0.000000303910    -0.000003426744
            -0.000001311385    -0.000002920527    0.143957887351    0.014677804856    -0.000000303910    -0.000003426744    0.159344764616    0.021013010253
0.650     0.159080169172    0.003726484292    -0.000003544931    -0.000001742232    0.147394747112    0.000392609273    -0.000001540002    -0.000002911218
            -0.000003544931    -0.000001742232    0.159964551793    0.003959590038    -0.000002953132    -0.000002207618    0.146688112156    0.000314826191
            0.147394747113    0.000392609196    -0.000002953132    -0.000002207618    0.160467742565    0.004505456226    -0.000000551210    -0.000003487290
            -0.000001540002    -0.000002911218    0.146688112156    0.000314826114    -0.000000551210    -0.000003487290    0.160167652825    0.005375114865
0.675     0.153469072793    -0.012927074433    -0.000003701647    -0.000001626926    0.144723197840    -0.016034828723    -0.000001746530    -0.000002908145
            -0.000003701647    -0.000001626926    0.156796872527    -0.010953770756    -0.000003135190    -0.000002131027    0.146154999307    -0.014111885117
            0.144723197840    -0.016034828723    -0.000003135190    -0.000002131027    0.155084863106    -0.012390562312    -0.000000777475    -0.000003550449
            -0.000001746530    -0.000002908145    0.146154999307    -0.014111885117    -0.000000777475    -0.000003550449    0.157420873955    -0.009350156147
0.700     0.143937497245    -0.026645826495    -0.000003852895    -0.000001539234    0.138058517148    -0.030762939984    -0.000001939315    -0.000002923166
            -0.000003852895    -0.000001539234    0.150464063051    -0.023862300050    -0.000003310206    -0.000002078600    0.142471101812    -0.027672081503
            0.138058517148    -0.030762939984    -0.000003310206    -0.000002078600    0.145697243947    -0.026414709962    -0.000000990065    -0.000003629652
            -0.000001939315    -0.000002923166    0.142471101812    -0.027672081503    -0.000000990065    -0.000003629652    0.151575972177    -0.022200375536
0.725     0.131563016736    -0.036346556530    -0.000004015646    -0.000001482113    0.128063566719    -0.042613002183    -0.000002131256    -0.000002966386
            -0.000004015646    -0.000001482113    0.141742897477    -0.033951714990    -0.000003494095    -0.000002055329    0.136024297211    -0.039484887965
            0.128063566719    -0.042613002183    -0.000003494095    -0.000002055329    0.133369393645    -0.036462875640    -0.000001200895    -0.000003736986
            -0.000002131256    -0.000002966386    0.136024297211    -0.039484887965    -0.000001200895    -0.000003736986    0.143368854069    -0.032383377794
0.750     0.117756378692    -0.041291386240    -0.000004207316    -0.000001452996    0.115791426746    -0.050616706291    -0.000002338752    -0.000003043062
            -0.000004207316    -0.000001452996    0.131642156804    -0.040666369646    -0.000003704028    -0.000002060736    0.127484955163    -0.048805105945
            0.115791426746    -0.050616706291    -0.000003704028    -0.000002060736    0.119498265931    -0.041766622208    -0.000001426650    -0.000003879914
            -0.000002338752    -0.000003043062    0.127484955163    -0.048805105945    -0.000001426650    -0.000003879914    0.133760811354    -0.039351831959
0.775     0.104161831404    -0.041203671595    -0.000004446490    -0.000001443182    0.102620230395    -0.054165176126    -0.000002581908    -0.000003154188
            -0.000004446490    -0.000001443182    0.121322287219    -0.043778679409    -0.000003959167    -0.000002088731    0.117750948783    -0.055118650445
            0.102620230395    -0.054165176126    -0.000003959167    -0.000002088731    0.105721491350    -0.042011877035    -0.000001688163    -0.000004061825
            -0.000002581908    -0.000003154188    0.117750948783    -0.055118650445    -0.000001688163    -0.000004061825    0.123859894681    -0.042872092790
