# GHz S RI R 45
0.000     0.016932854571    0.001741115155    -0.000014787194    -0.000039104315    0.000681301594    0.001468191397    -0.000011424014    -0.000029363724
            -0.000014787240    -0.000039104313    0.017260992693    0.001776924861    -0.000020830765    -0.000054452288    0.000704879921    0.001655070012
            0.000681302284    0.001468191407    -0.000020830818    -0.000054452286    0.016845945571    0.001755701861    -0.000015057457    -0.000039518232
            -0.000011424014    -0.000029363724    0.000704880162    0.001655070018    -0.000015057355    -0.000039518233    0.017190894783    0.001788924775
0.025     0.022000090554    0.009211856388    -0.000038416951    -0.000084697282    0.002788700136    0.009313567491    -0.000029734103    -0.000064267933
            -0.000038416943    -0.000084697304    0.021290169277    0.010155021651    -0.000053503839    -0.000117616368    0.002077345681    0.010275162881
            0.002786272192    0.009312072101    -0.000053503860    -0.000117616413    0.021931672752    0.009223158723    -0.000039093804    -0.000085487553
            -0.000029734667    -0.000064267800    0.002077600004    0.010274589099    -0.000039093857    -0.000085487630    0.021213247281    0.010125646568
0.050     0.029472919973    0.013251117838    -0.000090698625    -0.000145345352    0.008672573783    0.016858774473    -0.000069944474    -0.000109784362
            -0.000090698625    -0.000145345352    0.026173842618    0.016130103933    -0.000125357990    -0.000201777020    0.005983716648    0.019525269434
            0.008672553386    0.016858768098    -0.000125357990    -0.000201777020    0.029444941769    0.013286405562    -0.000092189092    -0.000146259589
            -0.000069944474    -0.000109784362    0.005983812331    0.019525264166    -0.000092189589    -0.000146260435    0.026029554736    0.016091720236
0.075     0.038429398452    0.013612097174    -0.000160639488    -0.000184887312    0.017279214151    0.021327366018    -0.000123457739    -0.000138742365
            -0.000160639488    -0.000184887312    0.031443134967    0.020127133205    -0.000221042743    -0.000257263143    0.011773260756    0.027092660818
            0.017279206050    0.021327367434    -0.000221042743    -0.000257263143    0.038455663261    0.013659669029    -0.000162762696    -0.000185247761
            -0.000123457746    -0.000138742373    0.011773255629    0.027092661956    -0.000162762696    -0.000185247761    0.031219786622    0.020124385396
0.100     0.047647292056    0.009802792452    -0.000242947502    -0.000201246266    0.027250437386    0.021934726521    -0.000185866387    -0.000149628938
            -0.000242947502    -0.000201246266    0.036628746096    0.022222814752    -0.000333677997    -0.000281552877    0.018728796561    0.032608873746
            0.027250437003    0.021934726997    -0.000333677997    -0.000281552877    0.047751269707    0.009846365107    -0.000245079020    -0.000200601211
            -0.000185866387    -0.000149628938    0.018728770808    0.032608881618    -0.000245079020    -0.000200601211    0.036326870306    0.022302319384
0.125     0.055457715431    0.001741842508    -0.000331534772    -0.000192521660    0.037066486541    0.018394711461    -0.000252268138    -0.000141326343
            -0.000331534798    -0.000192521675    0.040955224691    0.022618775484    -0.000455243562    -0.000272117508    0.026129804105    0.035973060424
            0.037066486541    0.018394711461    -0.000455243562    -0.000272117508    0.055658293237    0.001769239139    -0.000332755730    -0.000190905642
            -0.000252268138    -0.000141326343    0.026129804105    0.035973060424    -0.000332755730    -0.000190905642    0.040603106233    0.022832785118
0.150     0.060444961102    -0.009875890467    -0.000420377151    -0.000158590689    0.045200725345    0.010907181851    -0.000318027996    -0.000114174131
            -0.000420377151    -0.000158590689    0.044180362791    0.021920167185    -0.000577835085    -0.000228756013    0.033214297976    0.037269289233
            0.045200725345    0.010907181851    -0.000577835085    -0.000228756013    0.060761138219    -0.009905053053    -0.000419808815    -0.000156689977
            -0.000318027996    -0.000114174131    0.033214297976    0.037269289233    -0.000419808815    -0.000156689977    0.043813037405    0.022300260330
0.175     0.061234276055    -0.024003552101    -0.000504076089    -0.000100154479    0.050259730000    0.000208867526    -0.000379248020    -0.000069128523
            -0.000504076089    -0.000100154479    0.045879099406    0.020660072247    -0.000694369491    -0.000152310065    0.039347391639    0.036881998552
            0.050259730000    0.000208867544    -0.000694369491    -0.000152310065    0.061674320412    -0.024132116169    -0.000501279792    -0.000099253162
            -0.000379248020    -0.000069128523    0.039347391639    0.036881998552    -0.000501279792    -0.000099253162    0.045556561486    0.021224387208
0.200     0.056915791879    -0.039114393319    -0.000577892649    -0.000018581318    0.051161438382    -0.012520690632    -0.000432739377    -0.000007496831
            -0.000577892649    -0.000018581318    0.045910874175    0.019573200933    -0.000798667186    -0.000044418917    0.044084811319    0.035389381271
            0.051161438382    -0.012520690632    -0.000798667186    -0.000044418917    0.057475088207    -0.039389625545    -0.000573216449    -0.000020283308
            -0.000432739377    -0.000007496831    0.044084811319    0.035389381271    -0.000573216449    -0.000020283308    0.045702236678    0.020313878121
0.225     0.047127033441    -0.053403841318    -0.000637245015    0.000084622094    0.047254786530    -0.025774292955    -0.000475520679    0.000069591780
            -0.000637245015    0.000084622094    0.044459614286    0.019412951758    -0.000884745851    0.000093171955    0.047225605633    0.033478652030
            0.047254786530    -0.025774292955    -0.000884745851    0.000093171955    0.047785002064    -0.053875820297    -0.000631981052    0.000078859997
            -0.000475520679    0.000069591780    0.047225605633    0.033478652030    -0.000631981052    0.000078859997    0.044429713365    0.020293486832
0.250     0.032144481813    -0.064979974494    -0.000677442288    0.000207532175    0.038419125444    -0.037869402616    -0.000504471846    0.000160930953
            -0.000677442288    0.000207532175    0.042008031226    0.020841601688    -0.000946436077    0.000258308857    0.048843216175    0.031865836434
            0.038419125444    -0.037869402616    -0.000946436077    0.000258308857    0.032862524106    -0.065695357687    -0.000673758103    0.000196890207
            -0.000504471846    0.000160930953    0.048843216175    0.031865836434    -0.000673758103    0.000196890207    0.042205095117    0.021800391504
0.275     0.012876347587    -0.072072202301    -0.000693259518    0.000347449276    0.025103055032    -0.047118902614    -0.000515854191    0.000264959527
            -0.000693259518    0.000347449276    0.039284794329    0.024298162840    -0.000976710077    0.000447965871    0.049278771755    0.031183869842
            0.025103055032    -0.047118902614    -0.000976710077    0.000447965871    0.013597779702    -0.073068468817    -0.000693818265    0.000332246934
            -0.000515854191    0.000264959527    0.049278771755    0.031183869842    -0.000693818265    0.000332246934    0.039731455836    0.025256182024
0.300     -0.009177466579    -0.073251948009    -0.000679216189    0.000500221222    0.008317466604    -0.052028792568    -0.000505448383    0.000379058339
            -0.000679216189    0.000500221222    0.037169802859    0.029932041959    -0.000967994527    0.000657224233    0.049102559899    0.031895401756
            0.008317466604    -0.052028792568    -0.000967994527    0.000657224233    -0.008525398738    -0.074550258772    -0.000686605119    0.000482126053
            -0.000505448383    0.000379058339    0.049102559899    0.031895401756    -0.000686605119    0.000482126053    0.037857218457    0.030804114117
0.325     -0.032061218425    -0.067614062885    -0.000629999296    0.000659586569    -0.010442403498    -0.051476736687    -0.000468819579    0.000498938416
            -0.000629999296    0.000659586569    0.036576303925    0.037539991490    -0.000912634146    0.000878429101    0.049031502136    0.034204765697
            -0.010442403498    -0.051476736687    -0.000912634146    0.000878429101    -0.031562092301    -0.069212637307    -0.000646005199    0.000641589731
            -0.000468819579    0.000498938416    0.049031502136    0.034204765697    -0.000646005199    0.000641589731    0.037463302591    0.038247748318
0.350     -0.053551415261    -0.054936086064    -0.000541610425    0.000816987525    -0.029339683683    -0.044877880971    -0.000402328192    0.000618256995
            -0.000541610425    0.000816987525    0.038318875765    0.046582479726    -0.000804363477    0.001100710152    0.049829323670    0.038023488484
            -0.029339683683    -0.044877880971    -0.000804363477    0.001100710152    -0.053291997280    -0.056805401183    -0.000566607522    0.000802944805
            -0.000402328192    0.000618256995    0.049829323670    0.038023488484    -0.000566607522    0.000802944805    0.039336182756    0.047066008635
0.375     -0.071397783052    -0.035740317434    -0.000412446951    0.000961743825    -0.046388511626    -0.032280639477    -0.000304131738    0.000728667299
            -0.000412446951    0.000961743825    0.042985622094    0.056220041159    -0.000639808079    0.001310072320    0.052180850627    0.042959814998
            -0.046388511626    -0.032280639477    -0.000639808079    0.001310072320    -0.071458306796    -0.037821111132    -0.000445016167    0.000955655470
            -0.000304131738    0.000728667299    0.052180850627    0.042959814998    -0.000445016167    0.000955655470    0.044044152487    0.056448500459
0.400     -0.083588859700    -0.011287366380    -0.000244522546    0.001082145857    -0.059689558098    -0.014399374829    -0.000175266012    0.000820710335
            -0.000244522546    0.001082145857    0.050838743331    0.065425754113    -0.000420162645    0.001490700542    0.056588783667    0.048377540163
            -0.059689558098    -0.014399374829    -0.000420162645    0.001490700542    -0.084032052629    -0.013492564089    -0.000281423622    0.001087291118
            -0.000175266012    0.000820710335    0.056588783667    0.048377540163    -0.000281423622    0.001087291118    0.051842609747    0.065403192373
0.425     -0.088590603134    0.016542827460    -0.000043879037    0.001166839956    -0.067647914891    0.007452099015    -0.000020245865    0.000884939095
            -0.000043879037    0.001166839956    0.061755752561    0.073107544113    -0.000151992399    0.001626648323    0.063282183710    0.053474562350
            -0.067647914891    0.007452099015    -0.000151992399    0.001626648323    -0.089451943348    0.014323044097    -0.000080471950    0.001184955664
            -0.000020245865    0.000884939095    0.063282183710    0.053474562350    -0.000080471950    0.001184955664    0.062616026026    0.072873336723
0.450     -0.085541605556    0.045444314133    0.000179627198    0.001206730596    -0.069171208922    0.031499125951    0.000153063419    0.000913615814
            0.000179627198    0.001206730596    0.075236728561    0.078263664258    0.000152789181    0.001704330009    0.072185550165    0.057407567788
            -0.069171208922    0.031499125951    0.000152789181    0.001704330009    -0.086821739714    0.043333007838    0.000148503375    0.001237440018
            0.000153063419    0.000913615814    0.072185550165    0.057407567788    0.000148503375    0.001237440018    0.075883186564    0.077887093113
0.475     -0.074349121087    0.072935783944    0.000413385490    0.001196202786    -0.063779045562    0.055704043743    0.000334284781    0.000901898732
            0.000413385490    0.001196202786    0.090453347865    0.080106228281    0.000478070471    0.001714332392    0.082917595882    0.059398747951
            -0.063779045562    0.055704043743    0.000478070471    0.001714332392    -0.076009527886    0.071058145766    0.000392513512    0.001236923488
            0.000334284781    0.000901898732    0.082917595882    0.059398747951    0.000392513512    0.001236923488    0.090844350020    0.079677462074
0.500     -0.055699606764    0.096627512344    0.000643696643    0.001134137930    -0.051651381133    0.077989928745    0.000511977581    0.000848781552
            0.000643696643    0.001134137930    0.106359364478    0.078167898902    0.000805554289    0.001653016226    0.094852090261    0.058846088810
            -0.051651381133    0.077989928745    0.000805554289    0.001653016226    -0.057663488869    0.095098290892    0.000636466664    0.001180421431
            0.000511977581    0.000848781552    0.094852090261    0.058846088810    0.000636466664    0.001180421431    0.106484702558    0.077784853797
0.525     -0.030967565865    0.114457663385    0.000857523792    0.001023737263    -0.033577615537    0.096441667574    0.000675165942    0.000757068981
            0.000857523792    0.001023737263    0.121808360756    0.072343836402    0.001116962118    0.001522598905    0.107185075411    0.055387366719
            -0.033577615537    0.096441667574    0.001116962118    0.001522598905    -0.033125183430    0.113369338542    0.000865224560    0.001070089279
            0.000675165942    0.000757068981    0.107185075411    0.055387366719    0.000865224560    0.001070089279    0.121683544736    0.072108325460
0.550     -0.002063843836    0.124883847512    0.001044151286    0.000871811071    -0.010862206843    0.109483964688    0.000814864794    0.000632773514
            0.001044151286    0.000871811071    0.135691910838    0.062896650700    0.001396389869    0.001330617234    0.119051967127    0.048949325538
            -0.010862206843    0.109483964688    0.001396389869    0.001330617234    -0.004281213310    0.124295331059    0.001065634500    0.000912741171
            0.000814864794    0.000632773514    0.119051967127    0.048949325538    0.001065634500    0.000912741171    0.135367476526    0.062924264704
0.575     0.028757249212    0.126995511863    0.001195962468    0.000687426140    0.014816817053    0.115987724839    0.000924868759    0.000483873439
            0.001195962468    0.000687426140    0.147038900036    0.050411755707    0.001631566993    0.001088354816    0.129620182075    0.039711504880
            0.014816817053    0.115987724839    0.001631566993    0.001088354816    0.026627994722    0.126922180496    0.001227887045    0.000718385228
            0.000924868759    0.000483873439    0.129620182075    0.039711504880    0.001227887045    0.000718385228    0.146637006264    0.050801068397
0.600     0.059099146333    0.120564545931    0.001308892672    0.000480669459    0.041554527084    0.115344724534    0.001002011439    0.000319260283
            0.001308892672    0.000480669459    0.155113777931    0.035735245300    0.001814894363    0.000809152668    0.138132250704    0.028077698703
            0.041554527084    0.115344724534    0.001814894363    0.000809152668    0.057211148039    0.120973182994    0.001346096867    0.000498908237
            0.001002011439    0.000319260283    0.138132250704    0.028077698703    0.001346096867    0.000498908237    0.154785588987    0.036509303657
0.625     0.086611360833    0.106026007074    0.001381987224    0.000261298774    0.067360541643    0.107475880067    0.001046055838    0.000147617153
            0.001381987224    0.000261298774    0.159465834206    0.019885345905    0.001943254717    0.000506627793    0.143957887351    0.014677804856
            0.067360541643    0.107475880067    0.001943254717    0.000506627793    0.085112510352    0.106836988105    0.001418548059    0.000266537808
            0.001046055838    0.000147617153    0.143957887351    0.014677804856    0.001418548059    0.000266537808    0.159344764616    0.021013010253
0.650     0.109162395634    0.084426122142    0.001416959047    0.000037685477    0.090297243335    0.092829832887    0.001059253029    -0.000023658339
            0.001416959047    0.000037685477    0.159964551793    0.003959590038    0.002017658286    0.000193135251    0.146688112156    0.000314826191
            0.090297243335    0.092829832887    0.002017658286    0.000193135251    0.108181788524    0.085518226868    0.001447442127    0.000032305708
            0.001059253029    -0.000023658339    0.146688112156    0.000314826114    0.001447442127    0.000032305708    0.160167652825    0.005375114865
0.675     0.124975099350    0.057336478725    0.001417110510    -0.000183765950    0.108591657476    0.072343191403    0.001045446111    -0.000189099743
            0.001417110510    -0.000183765950    0.156796872527    -0.010953770756    0.002041951381    -0.000121438909    0.146154999307    -0.014111885117
            0.108591657476    0.072343191403    0.002041951381    -0.000121438909    0.124610137122    0.058553072994    0.001437743938    -0.000195193214
            0.001045446111    -0.000189099743    0.146154999307    -0.014111885117    0.001437743938    -0.000195193214    0.157420873955    -0.009350156147
0.700     0.132744854217    0.026749448530    0.001386575941    -0.000399034793    0.120756031560    0.047398947743    0.001009290032    -0.000345508054
            0.001386575941    -0.000399034793    0.150464063051    -0.023862300050    0.002021678325    -0.000430348605    0.142471101812    -0.027672081503
            0.120756031560    0.047398947743    0.002021678325    -0.000430348605    0.133049015497    0.027907255269    0.001396130036    -0.000410468898
            0.001009290032    -0.000345508054    0.142471101812    -0.027672081503    0.001396130036    -0.000410468898    0.151575972177    -0.022200375536
0.725     0.131725777741    -0.005042851038    0.001329107731    -0.000606093306    0.125681488950    0.019756664515    0.000955137582    -0.000491904451
            0.001329107731    -0.000606093306    0.141742897477    -0.033951714990    0.001962395232    -0.000730131038    0.136024297211    -0.039484887965
            0.125681488950    0.019756664515    0.001962395232    -0.000730131038    0.132700204609    -0.004143876606    0.001329413495    -0.000611450589
            0.000955137582    -0.000491904451    0.136024297211    -0.039484887965    0.001329413495    -0.000611450589    0.143368854069    -0.032383377794
0.750     0.121804161635    -0.035591569000    0.001247362600    -0.000804782260    0.122751186539    -0.008538288245    0.000886298053    -0.000629151759
            0.001247362600    -0.000804782260    0.131642156804    -0.040666369646    0.001868425006    -0.001020169143    0.127484955163    -0.048805105945
            0.122751186539    -0.008538288245    0.001868425006    -0.001020169143    0.123391765112    -0.035153378713    0.001243219293    -0.000799216687
            0.000886298053    -0.000629151759    0.127484955163    -0.048805105945    0.001243219293    -0.000799216687    0.133760811354    -0.039351831959
0.775     0.103539855271    -0.062450819666    0.001142059254    -0.000995652307    0.111916841168    -0.035275212386    0.000804136393    -0.000759221796
            0.001142059254    -0.000995652307    0.121322287219    -0.043778679409    0.001741365989    -0.001301622929    0.117750948783    -0.055118650445
            0.111916841168    -0.035275212386    0.001741365989    -0.001301622929    0.105623165576    -0.062661025026    0.001140511105    -0.000976976907
            0.000804136393    -0.000759221796    0.117750948783    -0.055118650445    0.001140511105    -0.000976976907    0.123859894681    -0.042872092790
