# GHz S RI R 45
0.000     0.018157735324    0.001280182399    -0.000000008733    -0.000000084681    0.000783615428    0.001233518007    0.000000010163    -0.000000052627
            -0.000000008733    -0.000000084681    0.017260992693    0.001776924861    -0.000000006100    -0.000000083971    0.000704879921    0.001655070012
            0.000783615482    0.001233518091    -0.000000006101    -0.000000083971    0.018174902599    0.001292155728    0.000000014881    -0.000000049510
            0.000000010163    -0.000000052627    0.000704880162    0.001655070018    0.000000014881    -0.000000049510    0.017190894783    0.001788924775
0.025     0.022480793712    0.009737571816    -0.000000028857    -0.000000193839    0.002288630862    0.010101885738    0.000000005936    -0.000000123606
            -0.000000028857    -0.000000193839    0.021290169277    0.010155021651    -0.000000024898    -0.000000191979    0.002077345681    0.010275162881
            0.002288623558    0.010100182242    -0.000000024898    -0.000000191979    0.022400455406    0.009702471419    0.000000013240    -0.000000116237
            0.000000005936    -0.000000123606    0.002077600004    0.010274589099    0.000000013240    -0.000000116237    0.021213247281    0.010125646568
0.050     0.027750978694    0.015144180320    -0.000000076034    -0.000000364262    0.006666514928    0.019028717517    -0.000000015410    -0.000000242757
            -0.000000076034    -0.000000364262    0.026173842618    0.016130103933    -0.000000070480    -0.000000362151    0.005983716648    0.019525269434
            0.006666570746    0.019028681008    -0.000000070480    -0.000000362151    0.027607835611    0.015126347063    -0.000000004547    -0.000000231188
            -0.000000015410    -0.000000242757    0.005983812331    0.019525264166    -0.000000004547    -0.000000231188    0.026029554736    0.016091720236
0.075     0.033573140592    0.018181562921    -0.000000136030    -0.000000521465    0.013114233045    0.025847186160    -0.000000046623    -0.000000355599
            -0.000000136030    -0.000000521465    0.031443134967    0.020127133205    -0.000000129089    -0.000000519449    0.011773260756    0.027092660818
            0.013114240272    0.025847190342    -0.000000129089    -0.000000519449    0.033356777035    0.018207291821    -0.000000032204    -0.000000340644
            -0.000000046623    -0.000000355599    0.011773255629    0.027092661956    -0.000000032204    -0.000000340644    0.031219786622    0.020124385396
0.100     0.039218910807    0.018787390033    -0.000000206911    -0.000000668316    0.020660522304    0.030083908743    -0.000000084987    -0.000000462797
            -0.000000206911    -0.000000668317    0.036628746096    0.022222814752    -0.000000198484    -0.000000666525    0.018728796561    0.032608873746
            0.020660522304    0.030083908743    -0.000000198484    -0.000000666525    0.038931614400    0.018901892324    -0.000000066632    -0.000000444899
            -0.000000084987    -0.000000462797    0.018728770808    0.032608881618    -0.000000066632    -0.000000444899    0.036326870306    0.022302319384
0.125     0.043678821055    0.017197909706    -0.000000286396    -0.000000806885    0.028299155600    0.031648902045    -0.000000127959    -0.000000565743
            -0.000000286396    -0.000000806885    0.040955224691    0.022618775484    -0.000000276369    -0.000000805448    0.026129804105    0.035973060424
            0.028299155048    0.031648902539    -0.000000276369    -0.000000805448    0.043345243266    0.017441963021    -0.000000105102    -0.000000545475
            -0.000000127959    -0.000000565743    0.026129804105    0.035973060424    -0.000000105102    -0.000000545475    0.040603106233    0.022832785118
0.150     0.046286848750    0.014111404378    -0.000000372630    -0.000000939450    0.035029596292    0.030770909550    -0.000000174119    -0.000000666688
            -0.000000372630    -0.000000939450    0.044180362791    0.021920167185    -0.000000360555    -0.000000938638    0.033214297976    0.037269289233
            0.035029596292    0.030770909550    -0.000000360555    -0.000000938638    0.045948272826    0.014526789104    -0.000000146109    -0.000000644526
            -0.000000174119    -0.000000666688    0.033214297976    0.037269289233    -0.000000146109    -0.000000644526    0.043813037405    0.022300260330
0.175     0.046494787811    0.010384151567    -0.000000465690    -0.000001069909    0.040023118091    0.028060417264    -0.000000223222    -0.000000768974
            -0.000000465690    -0.000001069909    0.045879099406    0.020660072247    -0.000000451178    -0.000001070120    0.039347391639    0.036881998552
            0.040023118091    0.028060417264    -0.000000451178    -0.000001070120    0.046214140133    0.010985075326    -0.000000189322    -0.000000745614
            -0.000000223222    -0.000000768974    0.039347391639    0.036881998552    -0.000000189322    -0.000000745614    0.045556561486    0.021224387208
0.200     0.044107977831    0.007088639859    -0.000000567656    -0.000001201843    0.042738886511    0.024401403780    -0.000000276659    -0.000000875787
            -0.000000567656    -0.000001201843    0.045910874175    0.019573200933    -0.000000550368    -0.000001203583    0.044084811319    0.035389381271
            0.042738886511    0.024401403780    -0.000000550368    -0.000001203583    0.043952964284    0.007861068693    -0.000000236183    -0.000000852108
            -0.000000276659    -0.000000875787    0.044084811319    0.035389381271    -0.000000236183    -0.000000852108    0.045702236678    0.020313878121
0.225     0.039375136068    0.005338974276    -0.000000682819    -0.000001337850    0.043005412004    0.020824931268    -0.000000337687    -0.000000990234
            -0.000000682819    -0.000001337850    0.044459614286    0.019412951758    -0.000000662465    -0.000001341796    0.047225605633    0.033478652030
            0.043005412004    0.020824931268    -0.000000662465    -0.000001341796    0.039406723409    0.006240809808    -0.000000290019    -0.000000967360
            -0.000000337687    -0.000000990234    0.047225605633    0.033478652030    -0.000000290019    -0.000000967360    0.044429713365    0.020293486832
0.250     0.032981724932    0.006132922019    -0.000000816915    -0.000001478457    0.041061118067    0.018375921338    -0.000000411056    -0.000001113843
            -0.000000816916    -0.000001478456    0.042008031226    0.020841601688    -0.000000793321    -0.000001485461    0.048843216175    0.031865836434
            0.041061118067    0.018375921338    -0.000000793321    -0.000001485461    0.033242438828    0.007098514952    -0.000000355755    -0.000001093111
            -0.000000411057    -0.000001113843    0.048843216175    0.031865836434    -0.000000355755    -0.000001093111    0.042205095117    0.021800391504
0.275     0.025993316467    0.010165391876    -0.000000976915    -0.000001621701    0.037540722903    0.017951202664    -0.000000503065    -0.000001246676
            -0.000000976915    -0.000001621701    0.039284794329    0.024298162840    -0.000000950091    -0.000001632806    0.049278771755    0.031183869842
            0.037540722903    0.017951202664    -0.000000950091    -0.000001632806    0.026498146592    0.011113748571    -0.000000439921    -0.000001229648
            -0.000000503065    -0.000001246676    0.049278771755    0.031183869842    -0.000000439921    -0.000001229648    0.039731455836    0.025256182024
0.300     0.019724396097    0.017707202502    -0.000001169427    -0.000001762158    0.033408459890    0.020159686665    -0.000000620396    -0.000001385722
            -0.000001169427    -0.000001762158    0.037169802859    0.029932041959    -0.000001139660    -0.000001778514    0.049102559899    0.031895401756
            0.033408459890    0.020159686665    -0.000001139660    -0.000001778514    0.020455819883    0.018554198652    -0.000000549548    -0.000001374090
            -0.000000620396    -0.000001385722    0.049102559899    0.031895401756    -0.000000549548    -0.000001374090    0.037857218457    0.030804114117
0.325     0.015566433137    0.028504295928    -0.000001399845    -0.000001891137    0.029828655609    0.025196056524    -0.000000769642    -0.000001525285
            -0.000001399845    -0.000001891137    0.036576303925    0.037539991490    -0.000001367782    -0.000001913969    0.049031502136    0.034204765697
            0.029828655609    0.025196056524    -0.000001367782    -0.000001913969    0.016474309906    0.029176147927    -0.000000691632    -0.000001520822
            -0.000000769642    -0.000001525285    0.049031502136    0.034204765697    -0.000000691632    -0.000001520822    0.037463302591    0.038247748318
0.350     0.014780055123    0.041778461368    -0.000001670096    -0.000001996749    0.027996579443    0.032785513381    -0.000000955140    -0.000001655979
            -0.000001670096    -0.000001996749    0.038318875765    0.046582479726    -0.000001636782    -0.000002027176    0.049829323670    0.038023488484
            0.027996579443    0.032785513381    -0.000001636782    -0.000002027176    0.015787309268    0.042224575703    -0.000000870974    -0.000001660355
            -0.000000955140    -0.000001655979    0.049829323670    0.038023488484    -0.000000870974    -0.000001660355    0.039336182756    0.047066008635
0.375     0.018291350714    0.056286284570    -0.000001977795    -0.000002065622    0.028941792773    0.042187814000    -0.000001178177    -0.000001766375
            -0.000001977795    -0.000002065622    0.042985622094    0.056220041159    -0.000001944671    -0.000002104525    0.052180850627    0.042959814998
            0.028941792773    0.042187814000    -0.000001944671    -0.000002104525    0.019304918661    0.056488623001    -0.000001089293    -0.000001781035
            -0.000001178177    -0.000001766375    0.052180850627    0.042959814998    -0.000001089293    -0.000001781035    0.044044152487    0.056448500459
0.400     0.026527253411    0.070483803792    -0.000002314554    -0.000002084555    0.033356962090    0.052300621929    -0.000001434696    -0.000001843603
            -0.000002314554    -0.000002084555    0.050838743331    0.065425754113    -0.000002283343    -0.000002132407    0.056588783667    0.048377540163
            0.033356962090    0.052300621929    -0.000002283343    -0.000002132407    0.027451985890    0.070462071661    -0.000001342891    -0.000001869591
            -0.000001434696    -0.000001843603    0.056588783667    0.048377540163    -0.000001342891    -0.000001869591    0.051842609747    0.065403192373
0.425     0.039323346641    0.082730793948    -0.000002667026    -0.000002043547    0.041473378132    0.061812562035    -0.000001715930    -0.000001876599
            -0.000002667026    -0.000002043547    0.061755752561    0.073107544113    -0.000002639604    -0.000002100333    0.063282183710    0.053474562350
            0.041473378132    0.061812562035    -0.000002639604    -0.000002100333    0.040077750185    0.082539508607    -0.000001623178    -0.000001914458
            -0.000001715930    -0.000001876599    0.063282183710    0.053474562350    -0.000001623178    -0.000001914458    0.062616026026    0.072873336723
0.450     0.055934841241    0.091530762082    -0.000003017363    -0.000001937736    0.053025884736    0.069406553818    -0.000002007866    -0.000001857613
            -0.000003017363    -0.000001937736    0.075236728561    0.078263664258    -0.000002995533    -0.000002002896    0.072185550165    0.057407567788
            0.053025884736    0.069406553818    -0.000002995533    -0.000002002896    0.056463391663    0.091251889236    -0.000001916151    -0.000001907336
            -0.000002007866    -0.000001857613    0.072185550165    0.057407567788    -0.000001916151    -0.000001907336    0.075883186564    0.077887093113
0.475     0.075131016646    0.095729117265    -0.000003346955    -0.000001769388    0.067290296317    0.073937536560    -0.000002294710    -0.000001785058
            -0.000003346955    -0.000001769388    0.090453347865    0.080106228281    -0.000003332286    -0.000001841890    0.082917595882    0.059398747951
            0.067290296317    0.073937536560    -0.000003332286    -0.000001841890    0.075411494041    0.095457914722    -0.000002205834    -0.000001846181
            -0.000002294710    -0.000001785058    0.082917595882    0.059398747951    -0.000002205834    -0.000001846181    0.090844350020    0.079677462074
0.500     0.095367485769    0.094661596852    -0.000003638256    -0.000001548063    0.083196117309    0.074586001339    -0.000002559957    -0.000001663802
            -0.000003638256    -0.000001548063    0.106359364478    0.078167898902    -0.000003631879    -0.000001626550    0.094852090261    0.058846088810
            0.083196117309    0.074586001339    -0.000003631879    -0.000001626550    0.095408490013    0.094492812803    -0.000002475353    -0.000001735478
            -0.000002559957    -0.000001663802    0.094852090261    0.058846088810    -0.000002475353    -0.000001735478    0.106484702558    0.077784853797
0.525     0.114976695286    0.088208535580    -0.000003878627    -0.000001289152    0.099461249888    0.070939389063    -0.000002790667    -0.000001504836
            -0.000003878627    -0.000001289152    0.121808360756    0.072343836402    -0.000003881257    -0.000001372153    0.107185075411    0.055387366719
            0.099461249888    0.070939389063    -0.000003881257    -0.000001372153    0.114805749608    0.088236553857    -0.000002711388    -0.000001586084
            -0.000002790667    -0.000001504836    0.107185075411    0.055387366719    -0.000002711388    -0.000001586084    0.121683544736    0.072108325460
0.550     0.132365378457    0.076783774989    -0.000004061554    -0.000001011454    0.114767506423    0.063033866702    -0.000002978482    -0.000001322910
            -0.000004061554    -0.000001011454    0.135691910838    0.062896650700    -0.000004073603    -0.000001097512    0.119051967127    0.048949325538
            0.114767506423    0.063033866702    -0.000004073603    -0.000001097512    0.132042374604    0.077128817469    -0.000002905297    -0.000001412737
            -0.000002978482    -0.000001322910    0.119051967127    0.048949325538    -0.000002905297    -0.000001412737    0.135367476526    0.062924264704
0.575     0.146158488138    0.061259131814    -0.000004188238    -0.000000734383    0.127905395189    0.051277728178    -0.000003121939    -0.000001134380
            -0.000004188238    -0.000000734383    0.147038900036    0.050411755707    -0.000004209747    -0.000000821891    0.129620182075    0.039711504880
            0.127905395189    0.051277728178    -0.000004209747    -0.000000821891    0.145839116634    0.062023105606    -0.000003055302    -0.000001231707
            -0.000003121939    -0.000001134380    0.129620182075    0.039711504880    -0.000003055302    -0.000001231707    0.146637006264    0.050801068397
0.600     0.155321932152    0.042870437276    -0.000004265692    -0.000000475849    0.137812010897    0.036390399468    -0.000003224342    -0.000000955149
            -0.000004265692    -0.000000475849    0.155113777931    0.035735245300    -0.000004296089    -0.000000563414    0.138132250704    0.028077698703
            0.137812010897    0.036390399468    -0.000004296089    -0.000000563414    0.155190740922    0.044046114682    -0.000003164231    -0.000001059000
            -0.000003224342    -0.000000955149    0.138132250704    0.028077698703    -0.000003164231    -0.000001059000    0.154785588987    0.036509303657
0.625     0.159229287466    0.023096132367    -0.000004307186    -0.000000249954    0.143645720208    0.019403817458    -0.000003295249    -0.000000798778
            -0.000004307186    -0.000000249954    0.159465834206    0.019885345905    -0.000004345614    -0.000000336689    0.143957887351    0.014677804856
            0.143645720208    0.019403817458    -0.000004345614    -0.000000336689    0.159428146606    0.024609568203    -0.000003241397    -0.000000908587
            -0.000003295249    -0.000000798778    0.143957887351    0.014677804856    -0.000003241397    -0.000000908587    0.159344764616    0.021013010253
0.650     0.157704812959    0.003534240482    -0.000004329254    -0.000000065734    0.144903927627    0.001582625086    -0.000003347373    -0.000000674776
            -0.000004329254    -0.000000065734    0.159964551793    0.003959590038    -0.000004374789    -0.000000151210    0.146688112156    0.000314826191
            0.144903927628    0.001582625010    -0.000004374789    -0.000000151210    0.158341606995    0.005280150322    -0.000003299437    -0.000000790368
            -0.000003347373    -0.000000674776    0.146688112156    0.000314826114    -0.000003299437    -0.000000790368    0.160167652825    0.005375114865
0.675     0.151031915550    -0.014210702039    -0.000004350859    0.000000073695    0.141460834160    -0.015682237590    -0.000003396388    -0.000000587951
            -0.000004350859    0.000000073695    0.156796872527    -0.010953770756    -0.000004402677    -0.000000010490    0.146154999307    -0.014111885117
            0.141460834160    -0.015682237590    -0.000004402677    -0.000000010490    0.152183643048    -0.012366752641    -0.000003354140    -0.000000709499
            -0.000003396388    -0.000000587951    0.146154999307    -0.014111885117    -0.000003354140    -0.000000709499    0.157420873955    -0.009350156147
0.700     0.139962069997    -0.028647039683    -0.000004390856    0.000000170827    0.133618056993    -0.030965746384    -0.000003458171    -0.000000538501
            -0.000004390856    0.000000170827    0.150464063051    -0.023862300050    -0.000004448263    0.000000087611    0.142471101812    -0.027672081503
            0.133618056993    -0.030965746384    -0.000004448263    0.000000087611    0.141666194203    -0.026862636608    -0.000003421533    -0.000000666450
            -0.000003458171    -0.000000538501    0.142471101812    -0.027672081503    -0.000003421533    -0.000000666450    0.151575972177    -0.022200375536
0.725     0.125688638877    -0.038519927101    -0.000004467611    0.000000233941    0.122121934896    -0.042934151243    -0.000003549224    -0.000000521911
            -0.000004467611    0.000000233941    0.141742897477    -0.033951714990    -0.000004530227    0.000000151120    0.136024297211    -0.039484887965
            0.122121934896    -0.042934151243    -0.000004530227    0.000000151120    0.127933617938    -0.036966136132    -0.000003518437    -0.000000656941
            -0.000003549224    -0.000000521911    0.136024297211    -0.039484887965    -0.000003518437    -0.000000656941    0.143368854069    -0.032383377794
0.750     0.109800857845    -0.042952336070    -0.000004597038    0.000000276570    0.108170053530    -0.050488188224    -0.000003684634    -0.000000529300
            -0.000004597038    0.000000276570    0.131642156804    -0.040666369646    -0.000004664794    0.000000193316    0.127484955163    -0.048805105945
            0.108170053530    -0.050488188224    -0.000004664794    0.000000193316    0.112520449789    -0.041796811386    -0.000003660260    -0.000000672252
            -0.000003684634    -0.000000529300    0.127484955163    -0.048805105945    -0.000003660260    -0.000000672252    0.133760811354    -0.039351831959
0.775     0.094179986425    -0.041587180793    -0.000004792281    0.000000317789    0.093342797630    -0.052938362616    -0.000003878726    -0.000000546845
            -0.000004792281    0.000000317789    0.121322287219    -0.043778679409    -0.000004865566    0.000000233184    0.117750948783    -0.055118650445
            0.093342797630    -0.052938362616    -0.000004865566    0.000000233184    0.097251776814    -0.040976117002    -0.000003861782    -0.000000698604
