# GHz S RI R 45
0.000     0.017871240456    0.001629295072    0.000000579308    0.000001136188    0.000789906260    0.001481623539    0.000000653988    0.000001256449
            0.000000579308    0.000001136188    0.017260992693    0.001776924861    0.000000916124    0.000001256535    0.000704879921    0.001655070012
            0.000789906514    0.001481623517    0.000000916075    0.000001256536    0.017840961830    0.001620290888    0.000000739442    0.000001406559
            0.000000653988    0.000001256449    0.000704880162    0.001655070018    0.000000739459    0.000001406559    0.017190894783    0.001788924775
0.025     0.022340271741    0.010390657949    0.000001050482    0.000002521622    0.002308777687    0.010471106003    0.000001175039    0.000002790488
            0.000001050477    0.000002521623    0.021290169277    0.010155021651    0.000001173874    0.000002801131    0.002077345681    0.010275162881
            0.002308796754    0.010470322518    0.000001173867    0.000002801133    0.022246338731    0.010303840986    0.000001324088    0.000003128435
            0.000001175030    0.000002790486    0.002077600004    0.010274589099    0.000001324098    0.000003128436    0.021213247281    0.010125646568
0.050     0.027748553481    0.016311350218    0.000001939902    0.000004520640    0.006684211016    0.019744563095    0.000002155215    0.000005003244
            0.000001939902    0.000004520640    0.026173842618    0.016130103933    0.000002156691    0.000005022994    0.005983716648    0.019525269434
            0.006684235412    0.019744558003    0.000002156691    0.000005022994    0.027583111958    0.016176014178    0.000002415527    0.000005611126
            0.000002155215    0.000005003244    0.005983812331    0.019525264166    0.000002415527    0.000005611126    0.026029554736    0.016091720236
0.075     0.033677902596    0.019866049978    0.000003020562    0.000006234215    0.013113010545    0.026976174777    0.000003344498    0.000006904690
            0.000003020562    0.000006234215    0.031443134967    0.020127133205    0.000003349216    0.000006933447    0.011773260756    0.027092660818
            0.013113025342    0.026976176479    0.000003349216    0.000006933447    0.033415700260    0.019723633616    0.000003737586    0.000007752562
            0.000003344498    0.000006904690    0.011773255629    0.027092661956    0.000003737586    0.000007752562    0.031219786622    0.020124385396
0.100     0.039442490824    0.021057668639    0.000004250166    0.000007716736    0.020672292708    0.031717526098    0.000004700496    0.000008555950
            0.000004250166    0.000007716736    0.036628746096    0.022222814752    0.000004709814    0.000008593458    0.018728796561    0.032608873746
            0.020672292708    0.031717526098    0.000004709814    0.000008593459    0.039080806468    0.020960628580    0.000005249813    0.000009621946
            0.000004700496    0.000008555950    0.018728770808    0.032608881618    0.000005249813    0.000009621946    0.036326870306    0.022302319384
0.125     0.044045570138    0.020133971551    0.000005586962    0.000008997345    0.028411881171    0.033885507557    0.000006180181    0.000009987061
            0.000005586962    0.000008997345    0.040955224691    0.022618775484    0.000006195655    0.000010032797    0.026129804105    0.035973060424
            0.028411863393    0.033885461129    0.000006195655    0.000010032797    0.043608268366    0.020137327022    0.000006908747    0.000011250041
            0.000006180181    0.000009987061    0.026129804105    0.035973060424    0.000006908747    0.000011250041    0.040603106233    0.022832785118
0.150     0.046999212261    0.017835870963    0.000007000994    0.000010122607    0.035382083379    0.033690294829    0.000007751950    0.000011246652
            0.000007000994    0.000010122607    0.044180362791    0.021920167185    0.000007775065    0.000011299014    0.033214297976    0.037269289233
            0.035382083379    0.033690294829    0.000007775065    0.000011299014    0.046528591864    0.017977794854    0.000008681241    0.000012685433
            0.000007751950    0.000011246652    0.033214297976    0.037269289233    0.000008681241    0.000012685433    0.043813037405    0.022300260330
0.175     0.047757458632    0.014929684898    0.000008492801    0.000011139380    0.040803771332    0.031705700129    0.000009416217    0.000012382882
            0.000008492801    0.000011139380    0.045879099406    0.020660072247    0.000009447801    0.000012439857    0.039347391639    0.036881998552
            0.040803771332    0.031705700129    0.000009447801    0.000012439857    0.047317133780    0.015227517349    0.000010566766    0.000013976651
            0.000009416217    0.000012382882    0.039347391639    0.036881998552    0.000010566766    0.000013976651    0.045556561486    0.021224387208
0.200     0.046153412482    0.012433391801    0.000010091499    0.000012089948    0.044172769204    0.028758261608    0.000011203297    0.000013439449
            0.000010091499    0.000012089948    0.045910874175    0.019573200933    0.000011243361    0.000013498726    0.044084811319    0.035389381271
            0.044172769204    0.028758261608    0.000011243361    0.000013498726    0.045814398068    0.012875001079    0.000012595862    0.000015167983
            0.000011203297    0.000013439449    0.044084811319    0.035389381271    0.000012595862    0.000015167983    0.045702236678    0.020313878121
0.225     0.042458648412    0.011391081254    0.000011850473    0.000012988376    0.045334148908    0.025805499734    0.000013169098    0.000014429707
            0.000011850473    0.000012988376    0.044459614286    0.019412951758    0.000013216742    0.000014489166    0.047225605633    0.033478652030
            0.045334148908    0.025805499734    0.000013216742    0.000014489166    0.042284451782    0.011932611454    0.000014825743    0.000016271333
            0.000013169098    0.000014429707    0.047225605633    0.033478652030    0.000014825743    0.000016271333    0.044429713365    0.020293486832
0.250     0.037359223381    0.012715566113    0.000013836469    0.000013819979    0.044516881959    0.023809862366    0.000015383202    0.000015336578
            0.000013836469    0.000013819979    0.042008031226    0.020841601688    0.000015436485    0.000015394541    0.048843216175    0.031865836434
            0.044516881959    0.023809862366    0.000015436485    0.000015394541    0.037393013238    0.013286627828    0.000017327184    0.000017267054
            0.000015383202    0.000015336578    0.048843216175    0.031865836434    0.000017327184    0.000017267054    0.042205095117    0.021800391504
0.275     0.031887036028    0.017009757693    0.000016114485    0.000014526666    0.042316653018    0.023585873131    0.000017912932    0.000016096795
            0.000016114485    0.000014526666    0.039284794329    0.024298162840    0.000017969248    0.000016152876    0.049278771755    0.031183869842
            0.042316653018    0.023585873131    0.000017969248    0.000016152876    0.032140717797    0.017523385485    0.000020168121    0.000018087276
            0.000017912932    0.000016096795    0.049278771755    0.031183869842    0.000020168121    0.000018087276    0.039731455836    0.025256182024
0.300     0.027287564251    0.024461597481    0.000018731816    0.000015013355    0.039628119359    0.025671205343    0.000020805910    0.000016608375
            0.000018731816    0.000015013355    0.037169802859    0.029932041959    0.000020862367    0.000016663618    0.049102559899    0.031895401756
            0.039628119359    0.025671205343    0.000020862367    0.000016663618    0.027736640843    0.024827561697    0.000023395408    0.000018624196
            0.000020805910    0.000016608375    0.049102559899    0.031895401756    0.000023395408    0.000018624196    0.037857218457    0.030804114117
0.325     0.024849914449    0.034756445683    0.000021695115    0.000015147524    0.037518642176    0.030212272538    0.000024066246    0.000016730347
            0.000021695115    0.000015147524    0.036576303925    0.037539991490    0.000024120670    0.000016787403    0.049031502136    0.034204765697
            0.037518642176    0.030212272538    0.000024120670    0.000016787403    0.025433397360    0.034896832300    0.000027009948    0.000018729845
            0.000024066246    0.000016730347    0.049031502136    0.034204765697    0.000027009948    0.000018729845    0.037463302591    0.038247748318
0.350     0.025709078332    0.047092649520    0.000024956057    0.000014782262    0.037067995227    0.036920314849    0.000027639553    0.000016308054
            0.000024956057    0.000014782262    0.038318875765    0.046582479726    0.000027691260    0.000016370914    0.049829323670    0.038023488484
            0.037067995227    0.036920314849    0.000027691260    0.000016370914    0.026336440850    0.046956096148    0.000030951949    0.000018243317
            0.000027639553    0.000016308054    0.049829323670    0.038023488484    0.000030951949    0.000018243317    0.039336182756    0.047066008635
0.375     0.030656431791    0.060247743114    0.000028396154    0.000013777749    0.039184744423    0.045082491863    0.000031397844    0.000015195278
            0.000028396154    0.000013777749    0.042985622094    0.056220041159    0.000031448230    0.000015268143    0.052180850627    0.042959814998
            0.039184744423    0.045082491863    0.000031448230    0.000015268143    0.031219948944    0.059820445404    0.000035085130    0.000017012775
            0.000031397844    0.000015195278    0.052180850627    0.042959814998    0.000035085130    0.000017012775    0.044044152487    0.056448500459
0.400     0.039994026241    0.072747859130    0.000031835440    0.000012039269    0.044453071917    0.053667194835    0.000035149732    0.000013294443
            0.000031835440    0.000012039269    0.050838743331    0.065425754113    0.000035202067    0.000013381189    0.056588783667    0.048377540163
            0.044453071917    0.053667194835    0.000035202067    0.000013381189    0.040384641805    0.072057756629    0.000039207845    0.000014937884
            0.000035149732    0.000013294443    0.056588783667    0.048377540163    0.000039207845    0.000014937884    0.051842609747    0.065403192373
0.425     0.053460926225    0.083063996876    0.000035047936    0.000009542977    0.053023273699    0.061469839908    0.000038656411    0.000010582472
            0.000035047936    0.000009542977    0.061755752561    0.073107544113    0.000038716054    0.000010685562    0.063282183710    0.053474562350
            0.053023276732    0.061469841254    0.000038716054    0.000010685562    0.053585222550    0.082178708506    0.000043069989    0.000011995489
            0.000038656411    0.000010582472    0.063282183710    0.053474562350    0.000043069989    0.000011995489    0.062616026026    0.072873336723
0.450     0.070258599022    0.089840214057    0.000037803770    0.000006357604    0.064590826088    0.067304006429    0.000041676130    0.000007133366
            0.000037803770    0.000006357604    0.075236728561    0.078263664258    0.000041749178    0.000007252854    0.072185550165    0.057407567788
            0.064590826088    0.067304006429    0.000041749178    0.000007252854    0.070052852098    0.088857861542    0.000046418658    0.000008263097
            0.000041676130    0.000007133366    0.072185550165    0.057407567788    0.000046418658    0.000008263097    0.075883186564    0.077887093113
0.475     0.089152364902    0.092073076844    0.000039903966    0.000002639399    0.078437267152    0.070161634232    0.000043999990    0.000003111853
            0.000039903966    0.000002639399    0.090453347865    0.080106228281    0.000044092658    0.000003245746    0.082917595882    0.059398747951
            0.078437267152    0.070161634232    0.000044092658    0.000003245746    0.088590144956    0.091107303559    0.000049034979    0.000003912085
            0.000043999990    0.000003111853    0.082917595882    0.059398747951    0.000049034979    0.000003912085    0.090844350020    0.079677462074
0.500     0.108643642476    0.089241999134    0.000041224425    -0.000001387444    0.093544076894    0.069350006927    0.000045497242    -0.000001246719
            0.000041224425    -0.000001387444    0.106359364478    0.078167898902    0.000045615007    -0.000001102491    0.094852090261    0.058846088810
            0.093544076894    0.069350006927    0.000045615007    -0.000001102491    0.107735254501    0.088406976081    0.000050780748    -0.000000812636
            0.000045497242    -0.000001246719    0.094852090261    0.058846088810    0.000050780748    -0.000000812636    0.106484702558    0.077784853797
0.525     0.127153698963    0.081347654138    0.000041729560    -0.000005468506    0.108718010421    0.064558924393    0.000046129873    -0.000005675472
            0.000041729560    -0.000005468506    0.121808360756    0.072343836402    0.000046276728    -0.000005526627    0.107185075411    0.055387366719
            0.108718010421    0.064558924393    0.000046276728    -0.000005526627    0.125934873655    0.080756219182    0.000051614549    -0.000005633174
            0.000046129873    -0.000005675472    0.107185075411    0.055387366719    0.000051614549    -0.000005633174    0.121683544736    0.072108325460
0.550     0.143209048314    0.068890716008    0.000041483649    -0.000009360648    0.122755839312    0.055891149884    0.000045963696    -0.000009920035
            0.000041483649    -0.000009360648    0.135691910838    0.062896650700    0.000046142995    -0.000009773614    0.119051967127    0.048949325538
            0.122755839312    0.055891149884    0.000046142995    -0.000009773614    0.141755282627    0.068672674545    0.000051603212    -0.000010285577
            0.000045963696    -0.000009920035    0.119051967127    0.048949325538    0.000051603212    -0.000010285577    0.135367476526    0.062924264704
0.575     0.155573657179    0.052789459060    0.000040622100    -0.000012865512    0.134571049769    0.043784048239    0.000045138453    -0.000013772806
            0.000040622100    -0.000012865512    0.147038900036    0.050411755707    0.000045350261    -0.000013637561    0.129620182075    0.039711504880
            0.134571049769    0.043784048239    0.000045350261    -0.000013637561    0.154051220666    0.053046678588    0.000050887165    -0.000014555452
            0.000045138453    -0.000013772806    0.129620182075    0.039711504880    0.000050887165    -0.000014555452    0.146637006264    0.050801068397
0.600     0.163360881957    0.034283890176    0.000039338661    -0.000015850414    0.143228173738    0.028954914400    0.000043852297    -0.000017091851
            0.000039338661    -0.000015850414    0.155113777931    0.035735245300    0.000044094075    -0.000016976330    0.138132250704    0.028077698703
            0.143228173738    0.028954914400    0.000044094075    -0.000016976330    0.161958786571    0.035012113338    0.000049665756    -0.000018291690
            0.000043852297    -0.000017091851    0.138132250704    0.028077698703    0.000049665756    -0.000018291690    0.154785588987    0.036509303657
0.625     0.166088540320    0.014813583430    0.000037850359    -0.000018257528    0.148012255140    0.012396964518    0.000042331063    -0.000019811740
            0.000037850359    -0.000018257528    0.159465834206    0.019885345905    0.000042597925    -0.000019723777    0.143957887351    0.014677804856
            0.148012255140    0.012396964518    0.000042597925    -0.000019723777    0.164957038801    0.015943637072    0.000048170790    -0.000021420500
            0.000042331063    -0.000019811740    0.143957887351    0.014677804856    0.000048170790    -0.000021420500    0.159344764616    0.021013010253
0.650     0.163713658367    -0.004103195854    0.000036375906    -0.000020108724    0.148535523130    -0.004701459222    0.000040805272    -0.000021950629
            0.000036375906    -0.000020108724    0.159964551793    0.003959590038    0.000041089743    -0.000021896541    0.146688112156    0.000314826191
            0.148535523130    -0.004701459222    0.000041089743    -0.000021896541    0.162970314843    -0.002675174732    0.000046641331    -0.000023955116
            0.000040805272    -0.000021950629    0.146688112156    0.000314826114    0.000046641331    -0.000023955116    0.160167652825    0.005375114865
0.675     0.156629272565    -0.020981517066    0.000035104376    -0.000021490761    0.144764842477    -0.021058414886    0.000039475567    -0.000023596199
            0.000035104376    -0.000021490761    0.156796872527    -0.010953770756    0.000039767926    -0.000023580600    0.146154999307    -0.014111885117
            0.144764842477    -0.021058414886    0.000039767926    -0.000023580600    0.156360035537    -0.019392172354    0.000045286158    -0.000025982478
            0.000039475567    -0.000023596199    0.146154999307    -0.014111885117    0.000045286158    -0.000025982478    0.157420873955    -0.009350156147
0.700     0.145663754419    -0.034484687803    0.000034186935    -0.000022545812    0.137066245994    -0.035389111919    0.000038504377    -0.000024895668
            0.000034186935    -0.000022545812    0.150464063051    -0.023862300050    0.000038792476    -0.000024919657    0.142471101812    -0.027672081503
            0.137066245994    -0.035389111919    0.000038792476    -0.000024919657    0.145911692243    -0.032897284668    0.000044275651    -0.000027651370
            0.000038504377    -0.000024895668    0.142471101812    -0.027672081503    0.000044275651    -0.000027651370    0.151575972177    -0.022200375536
0.725     0.132039673373    -0.043543274351    0.000033720249    -0.000023451478    0.126207625078    -0.046524738155    0.000037997089    -0.000026036461
            0.000033720249    -0.000023451478    0.141742897477    -0.033951714990    0.000038267722    -0.000026096633    0.136024297211    -0.039484887965
            0.126207625078    -0.046524738155    0.000038267722    -0.000026096633    0.132794804306    -0.042136408978    0.000043721329    -0.000029153711
            0.000037997089    -0.000026036461    0.136024297211    -0.039484887965    0.000043721329    -0.000029153711    0.143368854069    -0.032383377794
0.750     0.117315779404    -0.047483864679    0.000033747097    -0.000024412150    0.113356534705    -0.053547794281    0.000038001518    -0.000027236155
            0.000033747097    -0.000024412150    0.131642156804    -0.040666369646    0.000038242193    -0.000027323616    0.127484955163    -0.048805105945
            0.113356534705    -0.053547794281    0.000038242193    -0.000027323616    0.118508630965    -0.046432275890    0.000043675750    -0.000030714150
            0.000038001518    -0.000027236155    0.127484955163    -0.048805105945    0.000043675750    -0.000030714150    0.133760811354    -0.039351831959
0.775     0.103268521775    -0.046150847864    0.000034246429    -0.000025641639    0.099995591868    -0.055947703223    0.000038495275    -0.000028724302
            0.000034246429    -0.000025641639    0.121322287219    -0.043778679409    0.000038696812    -0.000028824354    0.117750948783    -0.055118650445
            0.099995591868    -0.055947703223    0.000038696812    -0.000028824354    0.104768828852    -0.045606050934    0.000044117423    -0.000032570627
            0.000038495275    -0.000028724302    0.117750948783    -0.055118650445    0.000044117423    -0.000032570627    0.123859894681    -0.042872092790
0.800     0.091724667436    -0.040007527943    0.000035133203    -0.000027356292    0.087794531362    -0.053754576148    0.000039385421    -0.000030732867
            0.000035133203    -0.000027356292    0.111999609332    -0.043446573353    0.000039544946    -0.000030826406    0.107889376362    -0.058227265375
