# GHz S RI R 45
0.000     0.018369757342    0.001761056278    0.000000434572    0.000000926038    0.000853936826    0.001650868750    0.000000449411    0.000001001903
            0.000000434700    0.000000926113    0.017260992693    0.001776924861    0.000000476154    0.000001005002    0.000704879921    0.001655070012
            0.000853936112    0.001650868782    0.000000475996    0.000001005005    0.018306999620    0.001747599407    0.000000481732    0.000001091370
            0.000000449500    0.000001001901    0.000704880162    0.001655070018    0.000000481662    0.000001091371    0.017190894783    0.001788924775
0.025     0.022995991297    0.010778235255    0.000000806943    0.000002091137    0.002523139959    0.011118898563    0.000000838644    0.000002234362
            0.000000806947    0.000002091134    0.021290169277    0.010155021651    0.000000891118    0.000002300895    0.002077345681    0.010275162881
            0.002523706887    0.011117898277    0.000000891111    0.000002300901    0.022932462624    0.010731894833    0.000000901549    0.000002431554
            0.000000838643    0.000002234359    0.002077600004    0.010274589099    0.000000901554    0.000002431570    0.021213247281    0.010125646568
0.050     0.028744822888    0.016913899264    0.000001557863    0.000003799813    0.007326315598    0.020906221488    0.000001612931    0.000004068935
            0.000001557863    0.000003799813    0.026173842618    0.016130103933    0.000001729304    0.000004173912    0.005983716648    0.019525269434
            0.007326379147    0.020906242663    0.000001729304    0.000004173912    0.028617845441    0.016835491096    0.000001735640    0.000004434298
            0.000001612931    0.000004068935    0.005983812331    0.019525264166    0.000001735640    0.000004434298    0.026029554736    0.016091720236
0.075     0.035058744140    0.020463681189    0.000002526455    0.000005259304    0.014356480690    0.028392235375    0.000002613391    0.000005661126
            0.000002526455    0.000005259304    0.031443134967    0.020127133205    0.000002813276    0.000005763772    0.011773260756    0.027092660818
            0.014356486053    0.028392234905    0.000002813276    0.000005763772    0.034872012095    0.020392488685    0.000002814321    0.000006180299
            0.000002613391    0.000005661126    0.011773255629    0.027092661956    0.000002814321    0.000006180299    0.031219786622    0.020124385396
0.100     0.041154419993    0.021429046242    0.000003651205    0.000006489840    0.022548017927    0.033087851925    0.000003786951    0.000007035008
            0.000003651205    0.000006489840    0.036628746096    0.022222814752    0.000004069961    0.000007087236    0.018728796561    0.032608873746
            0.022548017336    0.033087853539    0.000004069961    0.000007087236    0.040914363473    0.021403284906    0.000004084743    0.000007696207
            0.000003786951    0.000007035008    0.018728770808    0.032608881618    0.000004084743    0.000007696207    0.036326870306    0.022302319384
0.125     0.045965979915    0.020144055189    0.000004876973    0.000007510398    0.030805298356    0.034929651162    0.000005088138    0.000008207797
            0.000004876973    0.000007510398    0.040955224691    0.022618775484    0.000005430639    0.000008163402    0.026129804105    0.035973060424
            0.030805298356    0.034929651162    0.000005430639    0.000008163402    0.045690926354    0.020196188596    0.000005501562    0.000008999368
            0.000005088138    0.000008207797    0.026129804105    0.035973060424    0.000005501562    0.000008999368    0.040603106233    0.022832785118
0.150     0.048805715370    0.017357501611    0.000006161207    0.000008368364    0.038060435393    0.034220162534    0.000006482725    0.000009221133
            0.000006161207    0.000008368364    0.044180362791    0.021920167185    0.000006840091    0.000009045901    0.033214297976    0.037269289233
            0.038060435393    0.034220162534    0.000006840091    0.000009045901    0.048549103338    0.017512967769    0.000007030141    0.000010128805
            0.000006482725    0.000009221133    0.033214297976    0.037269289233    0.000007030141    0.000010128805    0.043813037405    0.022300260330
0.175     0.049157088262    0.014049258956    0.000007496285    0.000009111920    0.043461889980    0.031663831895    0.000007969247    0.000010113566
            0.000007496285    0.000009111920    0.045879099406    0.020660072247    0.000008281803    0.000009793494    0.039347391639    0.036881998552
            0.043461889980    0.031663831895    0.000008281803    0.000009793494    0.048978084906    0.014304179511    0.000008668040    0.000011122217
            0.000007969247    0.000010113566    0.039347391639    0.036881998552    0.000008668040    0.000011122217    0.045556561486    0.021224387208
0.200     0.046910816363    0.011389486352    0.000008903966    0.000009787516    0.046497441513    0.028245721737    0.000009572288    0.000010919679
            0.000008903966    0.000009787516    0.045910874175    0.019573200933    0.000009774342    0.000010466728    0.044084811319    0.035389381271
            0.046497441513    0.028245721737    0.000009774342    0.000010466728    0.046865226698    0.011711671601    0.000010439793    0.000012013295
            0.000009572288    0.000010919679    0.044084811319    0.035389381271    0.000010439793    0.000012013295    0.045702236678    0.020313878121
0.225     0.042452019132    0.010543253931    0.000010433247    0.000010417736    0.047077531726    0.025078961546    0.000011339574    0.000011648041
            0.000010433253    0.000010417734    0.044459614286    0.019412951758    0.000011370131    0.000011101841    0.047225605633    0.033478652030
            0.047077531726    0.025078961546    0.000011370131    0.000011101841    0.042580914102    0.010874528324    0.000012393114    0.000012808229
            0.000011339574    0.000011648040    0.047225605633    0.033478652030    0.000012393114    0.000012808229    0.044429713365    0.020293486832
0.250     0.036633776639    0.012494668556    0.000012150585    0.000010996232    0.045567068554    0.023247879664    0.000013331404    0.000012278478
            0.000012150585    0.000010996232    0.042008031226    0.020841601688    0.000013144866    0.000011703793    0.048843216175    0.031865836434
            0.045567068554    0.023247879664    0.000013144866    0.000011703793    0.036953579414    0.012758139741    0.000014587562    0.000013483906
            0.000013331404    0.000012278478    0.048843216175    0.031865836434    0.000014587562    0.000013483906    0.042205095117    0.021800391504
0.275     0.030691661462    0.017842347909    0.000014123723    0.000011473056    0.042751292810    0.023623295184    0.000015604020    0.000012748355
            0.000014123723    0.000011473056    0.039284794329    0.024298162840    0.000015180627    0.000012229054    0.049278771755    0.031183869842
            0.042751292810    0.023623295184    0.000015180627    0.000012229054    0.031186132365    0.017953079367    0.000017078269    0.000013974305
            0.000015604020    0.000012748355    0.049278771755    0.031183869842    0.000017078269    0.000013974305    0.039731455836    0.025256182024
0.300     0.026075738569    0.026677539773    0.000016405027    0.000011758499    0.039738829954    0.026710906642    0.000018193473    0.000012959277
            0.000016405027    0.000011758499    0.037169802859    0.029932041959    0.000017546409    0.000012587404    0.049102559899    0.031895401756
            0.039738829954    0.026710906642    0.000017546409    0.000012587404    0.026693374135    0.026556052682    0.000019899016    0.000014177171
            0.000018193473    0.000012959277    0.049102559899    0.031895401756    0.000019899016    0.000014177171    0.037857218457    0.030804114117
0.325     0.024237356830    0.038494547972    0.000019006994    0.000011723563    0.037792402925    0.032525469342    0.000021092387    0.000012779238
            0.000019006994    0.000011723563    0.036576303925    0.037539991490    0.000020270632    0.000012641977    0.049031502136    0.034204765697
            0.037792402925    0.032525469342    0.000020270632    0.000012641977    0.024894056510    0.038081959789    0.000023038937    0.000013956472
            0.000021092387    0.000012779238    0.049031502136    0.034204765697    0.000023038937    0.000013956472    0.037463302591    0.038247748318
0.350     0.026388234511    0.052228664786    0.000021886419    0.000011222600    0.038123502689    0.040560540925    0.000024237113    0.000012067046
            0.000021886419    0.000011222600    0.038318875765    0.046582479726    0.000023322902    0.000012232343    0.049829323670    0.038023488484
            0.038123502689    0.040560540925    0.000023322902    0.000012232343    0.026976839275    0.051498982658    0.000026429556    0.000013167505
            0.000024237113    0.000012067046    0.049829323670    0.038023488484    0.000026429556    0.000013167505    0.039336182756    0.047066008635
0.375     0.033277088820    0.066362959228    0.000024929495    0.000010116571    0.041668755834    0.049831638977    0.000027495254    0.000010695348
            0.000024929495    0.000010116571    0.042985622094    0.056220041159    0.000026595779    0.000011199387    0.052180850627    0.042959814998
            0.041668755834    0.049831638977    0.000026595779    0.000011199387    0.033681071996    0.065332496154    0.000029932002    0.000011680224
            0.000027495254    0.000010695348    0.052180850627    0.042959814998    0.000029932002    0.000011680224    0.044044152487    0.056448500459
0.400     0.045036830968    0.079156631282    0.000027960546    0.000008311059    0.048920446345    0.059035405599    0.000030678136    0.000008587644
            0.000027960546    0.000008311059    0.050838743331    0.065425754113    0.000029912152    0.000009426100    0.056588783667    0.048377540163
            0.048920446345    0.059035405599    0.000029912152    0.000009426100    0.045147819354    0.077885413154    0.000033350094    0.000009417074
            0.000030678136    0.000008587644    0.056588783667    0.048377540163    0.000033350094    0.000009417074    0.051842609747    0.065403192373
0.425     0.061130574580    0.088897609234    0.000030758944    0.000005782685    0.059824709086    0.066749389289    0.000033559227    0.000005741792
            0.000030758944    0.000005782685    0.061755752561    0.073107544113    0.000033040915    0.000006866818    0.063282183710    0.053474562350
            0.059824709086    0.066749389289    0.000033040915    0.000006866818    0.060864818097    0.087483760015    0.000036448935    0.000006377329
            0.000033559227    0.000005741792    0.063282183710    0.053474562350    0.000036448935    0.000006377329    0.062616026026    0.072873336723
0.450     0.080424352850    0.094170093602    0.000033101172    0.000002598599    0.073798769170    0.071667708451    0.000035917048    0.000002246474
            0.000033101172    0.000002598599    0.075236728561    0.078263664258    0.000035740203    0.000003571015    0.072185550165    0.057407567788
            0.073798769170    0.071667708451    0.000035740203    0.000003571015    0.079736533100    0.092738751391    0.000038999052    0.000002653315
            0.000035917048    0.000002246474    0.072185550165    0.057407567788    0.000038999052    0.000002653315    0.075883186564    0.077887093113
0.475     0.101347258620    0.094046524679    0.000034795168    -0.000001089223    0.089820153399    0.072780106680    0.000037568712    -0.000001727818
            0.000034795168    -0.000001089223    0.090453347865    0.080106228281    0.000037793324    -0.000000320921    0.082917595882    0.059398747951
            0.089820153399    0.072780106680    0.000037793324    -0.000000320921    0.100236528741    0.092734634433    0.000040810767    -0.000001577872
            0.000037568712    -0.000001727818    0.082917595882    0.059398747951    0.000040810767    -0.000001577872    0.090844350020    0.079677462074
0.500     0.122119403394    0.088203226968    0.000035722185    -0.000005065321    0.106593705025    0.069502822355    0.000038409353    -0.000005951648
            0.000035722185    -0.000005065321    0.106359364478    0.078167898902    0.000039053126    -0.000004595656    0.094852090261    0.058846088810
            0.106593705025    0.069502822355    0.000039053126    -0.000004595656    0.120630924619    0.087141105857    0.000041774782    -0.000006078632
            0.000038409353    -0.000005951648    0.094852090261    0.058846088810    0.000041774782    -0.000006078632    0.106484702558    0.077784853797
0.525     0.140970861988    0.076921872155    0.000035847321    -0.000009086762    0.122711728416    0.061714467625    0.000038421345    -0.000010173726
            0.000035847326    -0.000009086759    0.121808360756    0.072343836402    0.000039456475    -0.000009003345    0.107185075411    0.055387366719
            0.122711728416    0.061714467625    0.000039456475    -0.000009003345    0.139192126444    0.076219281238    0.000041872244    -0.000010588536
            0.000038421345    -0.000010173727    0.107185075411    0.055387366719    0.000041872244    -0.000010588536    0.121683544736    0.072108325460
0.550     0.156346681579    0.061028327788    0.000035228943    -0.000012922350    0.136822549736    0.049746020424    0.000037681802    -0.000014160669
            0.000035228943    -0.000012922350    0.135691910838    0.062896650700    0.000039036166    -0.000013296414    0.119051967127    0.048949325538
            0.136822549736    0.049746020424    0.000039036166    -0.000013296414    0.154396351029    0.060759533461    0.000041182148    -0.000014865232
            0.000037681802    -0.000014160669    0.119051967127    0.048949325538    0.000041182148    -0.000014865232    0.135367476526    0.062924264704
0.575     0.167038153326    0.041770102871    0.000033993586    -0.000016382252    0.147740413063    0.034317763928    0.000036334489    -0.000017727201
            0.000033993586    -0.000016382252    0.147038900036    0.050411755707    0.000037899149    -0.000017260974    0.129620182075    0.039711504880
            0.147740413063    0.034317763928    0.000037899149    -0.000017260974    0.165056404411    0.041967159862    0.000039852913    -0.000018717018
            0.000036334489    -0.000017727201    0.129620182075    0.039711504880    0.000039852913    -0.000018717018    0.146637006264    0.050801068397
0.600     0.172281920572    0.020683172294    0.000032320506    -0.000019339774    0.154550340131    0.016471475370    0.000034572826    -0.000020754173
            0.000032320506    -0.000019339774    0.155113777931    0.035735245300    0.000036213450    -0.000020740619    0.138132250704    0.028077698703
            0.154550340131    0.016471475370    0.000036213450    -0.000020740619    0.170415259479    0.021332053223    0.000038083525    -0.000022020901
            0.000034572826    -0.000020754173    0.138132250704    0.028077698703    0.000038083525    -0.000022020901    0.154785588987    0.036509303657
0.625     0.171795481810    -0.000546171121    0.000030408936    -0.000021736889    0.156661180776    -0.002517050612    0.000032609028    -0.000023194607
            0.000030408936    -0.000021736889    0.159465834206    0.019885345905    0.000034176526    -0.000023644914    0.143957887351    0.014677804856
            0.156661180775    -0.002517050667    0.000034176526    -0.000023644914    0.170182502450    0.000494195801    0.000036092002    -0.000024728062
            0.000032609028    -0.000023194607    0.143957887351    0.014677804856    0.000036092002    -0.000024728062    0.159344764616    0.021013010253
0.650     0.165802112112    -0.020212708293    0.000028459503    -0.000023587496    0.153875505248    -0.021217566709    0.000030654495    -0.000025077938
            0.000028459503    -0.000023587496    0.159964551793    0.003959590038    0.000031998235    -0.000025955454    0.146688112156    0.000314826191
            0.153875505248    -0.021217566709    0.000031998235    -0.000025955454    0.164558162962    -0.018883007832    0.000034095507    -0.000026868282
            0.000030654495    -0.000025077938    0.146688112156    0.000314826114    0.000034095507    -0.000026868282    0.160167652825    0.005375114865
0.675     0.155017817684    -0.036717057140    0.000026647128    -0.000024964199    0.146421999586    -0.038149412677    0.000028890059    -0.000026497185
            0.000026647128    -0.000024964199    0.156796872527    -0.010953770756    0.000029872458    -0.000027716603    0.146154999307    -0.014111885117
            0.146421999586    -0.038149412677    0.000029872458    -0.000027716603    0.154220834044    -0.035235877461    0.000032279105    -0.000028536883
            0.000028890059    -0.000026497185    0.146154999307    -0.014111885117    0.000032279105    -0.000028536883    0.157420873955    -0.009350156147
0.700     0.140636741796    -0.048699945450    0.000025113104    -0.000025990604    0.135004837883    -0.051899224297    0.000027456535    -0.000027600111
            0.000025113104    -0.000025990604    0.150464063051    -0.023862300050    0.000027968497    -0.000029030298    0.142471101812    -0.027672081503
            0.135004837883    -0.051899224297    0.000027968497    -0.000029030298    0.140315858081    -0.047228883694    0.000030787007    -0.000029885024
            0.000027456535    -0.000027600111    0.142471101812    -0.027672081503    0.000030787007    -0.000029885024    0.151575972177    -0.022200375536
0.725     0.124272767713    -0.055183968951    0.000023950372    -0.000026823863    0.120793793145    -0.061277844197    0.000026436673    -0.000028569452
            0.000023950372    -0.000026823863    0.141742897477    -0.033951714990    0.000026413171    -0.000030042444    0.136024297211    -0.039484887965
            0.120793792075    -0.061277846306    0.000026413171    -0.000030042444    0.124399400099    -0.053893760853    0.000029702815    -0.000031099622
            0.000026436673    -0.000028569452    0.136024297211    -0.039484887965    0.000029702815    -0.000031099622    0.143368854069    -0.032383377794
0.750     0.107866920523    -0.055728422285    0.000023202125    -0.000027647911    0.105389885199    -0.065496100534    0.000025853408    -0.000029612700
            0.000023202125    -0.000027647911    0.131642156804    -0.040666369646    0.000025287281    -0.000030937108    0.127484955163    -0.048805105945
            0.105389885199    -0.065496100534    0.000025287281    -0.000030937108    0.108351904201    -0.054776670544    0.000029049783    -0.000032392354
            0.000025853408    -0.000029612700    0.127484955163    -0.048805105945    0.000029049783    -0.000032392354    0.133760811354    -0.039351831959
0.775     0.093512563774    -0.050567519826    0.000022851261    -0.000028656172    0.090678366557    -0.064349143557    0.000025658030    -0.000030940137
            0.000022851261    -0.000028656172    0.121322287219    -0.043778679409    0.000024609929    -0.000031921520    0.117750948783    -0.055118650445
            0.090678366557    -0.064349143557    0.000024609929    -0.000031921520    0.094209723785    -0.050077986156    0.000028777331    -0.000033977968
            0.000025658030    -0.000030940137    0.117750948783    -0.055118650445    0.000028777331    -0.000033977968    0.123859894681    -0.042872092790
0.800     0.083211946130    -0.040701907401    0.000022819432    -0.000030044879    0.078618756806    -0.058353889470    0.000025732212    -0.000032751993
            0.000022819432    -0.000030044879    0.111999609332    -0.043446573353    0.000024333020    -0.000033217591    0.107889376362    -0.058227265375
