# GHz S RI R 45
0.000     0.018356276919    0.001422215573    -0.000000000467    -0.000000056920    0.000741654825    0.001398048251    0.000000014481    -0.000000030814
            -0.000000000467    -0.000000056920    0.017260992693    0.001776924861    -0.000000004882    -0.000000064571    0.000704879921    0.001655070012
            0.000741654172    0.001398048258    -0.000000004882    -0.000000064571    0.018293803009    0.001426384529    0.000000010020    -0.000000038566
            0.000000014481    -0.000000030814    0.000704880162    0.001655070018    0.000000010020    -0.000000038566    0.017190894783    0.001788924775
0.025     0.022843138476    0.010303601413    -0.000000012975    -0.000000132733    0.002435551357    0.010786223168    0.000000014780    -0.000000075616
            -0.000000012975    -0.000000132733    0.021290169277    0.010155021651    -0.000000020190    -0.000000149757    0.002077345681    0.010275162881
            0.002437943338    0.010785882694    -0.000000020190    -0.000000149757    0.022794781263    0.010380142143    0.000000007483    -0.000000092886
            0.000000014780    -0.000000075616    0.002077600004    0.010274589099    0.000000007483    -0.000000092886    0.021213247281    0.010125646568
0.050     0.028513747739    0.015924541967    -0.000000042985    -0.000000249889    0.007234194654    0.020192935451    0.000000005665    -0.000000151041
            -0.000000042985    -0.000000249889    0.026173842618    0.016130103933    -0.000000055467    -0.000000280857    0.005983716648    0.019525269434
            0.007234229257    0.020192943237    -0.000000055467    -0.000000280857    0.028500015266    0.016074414273    -0.000000006909    -0.000000182385
            0.000000005665    -0.000000151041    0.005983812331    0.019525264166    -0.000000006909    -0.000000182385    0.026029554736    0.016091720236
0.075     0.034715363903    0.018956268533    -0.000000079256    -0.000000358722    0.014220274267    0.027257112067    -0.000000007072    -0.000000223585
            -0.000000079256    -0.000000358722    0.031443134967    0.020127133205    -0.000000098248    -0.000000402223    0.011773260756    0.027092660818
            0.014220289372    0.027257114338    -0.000000098248    -0.000000402223    0.034762761017    0.019168475173    -0.000000026248    -0.000000267664
            -0.000000007072    -0.000000223585    0.011773255629    0.027092661956    -0.000000026248    -0.000000267664    0.031219786622    0.020124385396
0.100     0.040640003858    0.019374078114    -0.000000121217    -0.000000461794    0.022310115219    0.031483506166    -0.000000022307    -0.000000294168
            -0.000000121217    -0.000000461794    0.036628746096    0.022222814752    -0.000000147942    -0.000000516842    0.018728796561    0.032608873746
            0.022310115219    0.031483506166    -0.000000147942    -0.000000516842    0.040768251471    0.019623655101    -0.000000049341    -0.000000349988
            -0.000000022307    -0.000000294168    0.018728770808    0.032608881618    -0.000000049341    -0.000000349988    0.036326870306    0.022302319384
0.125     0.045140646249    0.017469601774    -0.000000167547    -0.000000560848    0.030382902858    0.032810644652    -0.000000038396    -0.000000364262
            -0.000000167547    -0.000000560848    0.040955224691    0.022618775484    -0.000000203294    -0.000000626635    0.026129804105    0.035973060424
            0.030382902286    0.032810645182    -0.000000203294    -0.000000626635    0.045352098958    0.017725414100    -0.000000074579    -0.000000430826
            -0.000000038396    -0.000000364262    0.026129804105    0.035973060424    -0.000000074579    -0.000000430826    0.040603106233    0.022832785118
0.150     0.047631353177    0.014073150351    -0.000000216981    -0.000000658230    0.037340221556    0.031542755736    -0.000000054597    -0.000000435660
            -0.000000216981    -0.000000658230    0.044180362791    0.021920167185    -0.000000262943    -0.000000733665    0.033214297976    0.037269289233
            0.037340252834    0.031542741954    -0.000000262943    -0.000000733665    0.047932829589    0.014304524484    -0.000000101199    -0.000000512053
            -0.000000054597    -0.000000435660    0.033214297976    0.037269289233    -0.000000101199    -0.000000512053    0.043813037405    0.022300260330
0.175     0.047502456132    0.010120273387    -0.000000270146    -0.000000757171    0.042298739094    0.028404829155    -0.000000071029    -0.000000511364
            -0.000000270146    -0.000000757171    0.045879099406    0.020660072247    -0.000000327518    -0.000000841244    0.039347391639    0.036881998552
            0.042298757311    0.028404819965    -0.000000327518    -0.000000841244    0.047884065753    0.010291681495    -0.000000129377    -0.000000596585
            -0.000000071029    -0.000000511364    0.039347391639    0.036881998552    -0.000000129377    -0.000000596585    0.045556561486    0.021224387208
0.200     0.044588312781    0.006805112762    -0.000000329045    -0.000000860459    0.044714613291    0.024413166537    -0.000000089066    -0.000000594010
            -0.000000329045    -0.000000860459    0.045910874175    0.019573200933    -0.000000399098    -0.000000952213    0.044084811319    0.035389381271
            0.044714613291    0.024413166537    -0.000000399098    -0.000000952213    0.045024828171    0.006884342430    -0.000000160508    -0.000000687034
            -0.000000089066    -0.000000594010    0.044084811319    0.035389381271    -0.000000160508    -0.000000687034    0.045702236678    0.020313878121
0.225     0.039234404553    0.005342961889    -0.000000397449    -0.000000970374    0.044471553336    0.020728998505    -0.000000111596    -0.000000686523
            -0.000000397449    -0.000000970374    0.044459614286    0.019412951758    -0.000000481580    -0.000001068724    0.047225605633    0.033478652030
            0.044471553336    0.020728998505    -0.000000481580    -0.000001068724    0.039687393345    0.005306959701    -0.000000197574    -0.000000786136
            -0.000000111596    -0.000000686523    0.047225605633    0.033478652030    -0.000000197574    -0.000000786136    0.044429713365    0.020293486832
0.250     0.032270650847    0.006786488552    -0.000000480228    -0.000001087432    0.041920220845    0.018500823710    -0.000000142711    -0.000000790391
            -0.000000480228    -0.000001087432    0.042008031226    0.020841601688    -0.000000579944    -0.000001191094    0.048843216175    0.031865836434
            0.041920220845    0.018500823710    -0.000000579944    -0.000001191094    0.032691715590    0.006626776123    -0.000000244723    -0.000000895190
            -0.000000142711    -0.000000790391    0.048843216175    0.031865836434    -0.000000244723    -0.000000895190    0.042205095117    0.021800391504
0.275     0.024930750299    0.011822528506    -0.000000583429    -0.000001210347    0.037853899875    0.018677866280    -0.000000187996    -0.000000906271
            -0.000000583429    -0.000001210347    0.039284794329    0.024298162840    -0.000000700286    -0.000001317671    0.049278771755    0.031183869842
            0.037853899875    0.018677866280    -0.000000700286    -0.000001317671    0.025267235793    0.011549289771    -0.000000307563    -0.000001014476
            -0.000000187996    -0.000000906271    0.049278771755    0.031183869842    -0.000000307563    -0.000001014476    0.039731455836    0.025256182024
0.300     0.018696318902    0.020639232618    -0.000000712782    -0.000001334827    0.033419198451    0.021849259506    -0.000000253467    -0.000001032023
            -0.000000712782    -0.000001334827    0.037169802859    0.029932041959    -0.000000848270    -0.000001443737    0.049102559899    0.031895401756
            0.033419198451    0.021849259506    -0.000000848270    -0.000001443737    0.018898283070    0.020283511674    -0.000000392004    -0.000001141463
            -0.000000253467    -0.000001032023    0.049102559899    0.031895401756    -0.000000392004    -0.000001141463    0.037857218457    0.030804114117
0.325     0.015090580108    0.032826090620    -0.000000873271    -0.000001454043    0.029951857166    0.028106260231    -0.000000345404    -0.000001163480
            -0.000000873271    -0.000001454043    0.036576303925    0.037539991490    -0.000001028619    -0.000001561951    0.049031502136    0.034204765697
            0.029951857166    0.028106260231    -0.000001028619    -0.000001561951    0.015119366781    0.032438842888    -0.000000504062    -0.000001271482
            -0.000000345404    -0.000001163480    0.049031502136    0.034204765697    -0.000000504062    -0.000001271482    0.037463302591    0.038247748318
0.350     0.015437618567    0.047389702279    -0.000001066903    -0.000001558247    0.028769552588    0.036994508265    -0.000000468267    -0.000001292926
            -0.000001066903    -0.000001558247    0.038318875765    0.046582479726    -0.000001242903    -0.000001662146    0.049829323670    0.038023488484
            0.028769552588    0.036994508265    -0.000001242903    -0.000001662146    0.015273355485    0.047037288443    -0.000000647730    -0.000001396445
            -0.000000468267    -0.000001292926    0.049829323670    0.038023488484    -0.000000647730    -0.000001396445    0.039336182756    0.047066008635
0.375     0.020630348998    0.062844871645    -0.000001292324    -0.000001636579    0.030939547475    0.047543731258    -0.000000624177    -0.000001410965
            -0.000001292324    -0.000001636579    0.042985622094    0.056220041159    -0.000001489126    -0.000001733127    0.052180850627    0.042959814998
            0.030939547475    0.047543731258    -0.000001489126    -0.000001733127    0.020278563477    0.062602092251    -0.000000824509    -0.000001506628
            -0.000000624177    -0.000001410965    0.052180850627    0.042959814998    -0.000000824509    -0.000001506628    0.044044152487    0.056448500459
0.400     0.030959294963    0.077427226246    -0.000001543050    -0.000001678152    0.037090020165    0.058414886038    -0.000000810635    -0.000001506490
            -0.000001543050    -0.000001678152    0.050838743331    0.065425754113    -0.000001760054    -0.000001763907    0.056588783667    0.048377540163
            0.037090020165    0.058414886038    -0.000001760054    -0.000001763907    0.030453191598    0.077366927253    -0.000001031143    -0.000001590894
            -0.000000810635    -0.000001506490    0.056588783667    0.048377540163    -0.000001031143    -0.000001590894    0.051842609747    0.065403192373
0.425     0.046035136634    0.089342855600    -0.000001808753    -0.000001674842    0.047289631564    0.068100340456    -0.000001021278    -0.000001569992
            -0.000001808753    -0.000001674842    0.061755752561    0.073107544113    -0.000002044561    -0.000001746492    0.063282183710    0.053474562350
            0.047289631564    0.068100340456    -0.000002044561    -0.000001746492    0.045434191700    0.089525224156    -0.000001260490    -0.000001639836
            -0.000001021278    -0.000001569992    0.063282183710    0.053474562350    -0.000001260490    -0.000001639836    0.062616026026    0.072873336723
0.450     0.064837019172    0.097042683085    -0.000002075330    -0.000001622603    0.061042036930    0.075167419474    -0.000001245093    -0.000001594312
            -0.000002075330    -0.000001622603    0.075236728561    0.078263664258    -0.000002327831    -0.000001677252    0.072185550165    0.057407567788
            0.061042036930    0.075167419474    -0.000002327831    -0.000001677252    0.064221930246    0.097506554793    -0.000001500837    -0.000001646768
            -0.000001245093    -0.000001594312    0.072185550165    0.057407567788    -0.000001500837    -0.000001646768    0.075883186564    0.077887093113
0.475     0.085855906627    0.099432696918    -0.000002328452    -0.000001523213    0.077365070233    0.078455444209    -0.000001469709    -0.000001577543
            -0.000002328452    -0.000001523213    0.090453347865    0.080106228281    -0.000002594973    -0.000001558554    0.082917595882    0.059398747951
            0.077365070233    0.078455444209    -0.000002594973    -0.000001558554    0.085319006029    0.100188431164    -0.000001739301    -0.000001610365
            -0.000001469709    -0.000001577543    0.082917595882    0.059398747951    -0.000001739301    -0.000001610365    0.090844350020    0.079677462074
0.500     0.107314306971    0.096010210464    -0.000002554505    -0.000001384165    0.094950594188    0.077225339512    -0.000001681879    -0.000001522873
            -0.000002554505    -0.000001384165    0.106359364478    0.078167898902    -0.000002832039    -0.000001398661    0.094852090261    0.058846088810
            0.094950594188    0.077225339512    -0.000002832039    -0.000001398661    0.106949524859    0.097035351805    -0.000001962305    -0.000001534587
            -0.000001681879    -0.000001522873    0.094852090261    0.058846088810    -0.000001962305    -0.000001534587    0.106484702558    0.077784853797
0.525     0.127387701968    0.086887902576    -0.000002744032    -0.000001217406    0.112332054805    0.071213766748    -0.000001871244    -0.000001438527
            -0.000002744032    -0.000001217406    0.121808360756    0.072343836402    -0.000003029479    -0.000001210283    0.107185075411    0.055387366719
            0.112332054805    0.071213766748    -0.000003029479    -0.000001210283    0.127280350970    0.088129057535    -0.000002159457    -0.000001428404
            -0.000001871244    -0.000001438527    0.107185075411    0.055387366719    -0.000002159457    -0.000001428404    0.121683544736    0.072108325460
0.550     0.144416686421    0.072748564116    -0.000002892185    -0.000001037463    0.128059094317    0.060635288817    -0.000002030835    -0.000001335706
            -0.000002892185    -0.000001037463    0.135691910838    0.062896650700    -0.000003182597    -0.000001008679    0.119051967127    0.048949325538
            0.128059094317    0.060635288817    -0.000003182597    -0.000001008679    0.144632848215    0.074123354214    -0.000002323937    -0.000001303728
            -0.000002030835    -0.000001335706    0.119051967127    0.048949325538    -0.000002323937    -0.000001303728    0.135367476526    0.062924264704
0.575     0.157052159349    0.054735063197    -0.000003000381    -0.000000859208    0.140821211841    0.046126617477    -0.000002159322    -0.000001227112
            -0.000003000381    -0.000000859208    0.147038900036    0.050411755707    -0.000003293187    -0.000000809337    0.129620182075    0.039711504880
            0.140821211841    0.046126617477    -0.000003293187    -0.000000809337    0.157633139209    0.056139657358    -0.000002454813    -0.000001173808
            -0.000002159322    -0.000001227112    0.129620182075    0.039711504880    -0.000002454813    -0.000001173808    0.146637006264    0.050801068397
0.600     0.164364709198    0.034322793110    -0.000003074476    -0.000000696276    0.149558255638    0.028681936061    -0.000002259099    -0.000001125095
            -0.000003074476    -0.000000696276    0.155113777931    0.035735245300    -0.000003367585    -0.000000626357    0.138132250704    0.028077698703
            0.149558255638    0.028681936061    -0.000003367585    -0.000000626357    0.165320001241    0.035641694803    -0.000002554916    -0.000001051448
            -0.000002259099    -0.000001125095    0.138132250704    0.028077698703    -0.000002554916    -0.000001051448    0.154785588987    0.036509303657
0.625     0.165893034956    0.013185695300    -0.000003125184    -0.000000559180    0.153523940671    0.009568921297    -0.000002337566    -0.000001040295
            -0.000003125184    -0.000000559180    0.159465834206    0.019885345905    -0.000003417077    -0.000000470492    0.143957887351    0.014677804856
            0.153523940905    0.009568917546    -0.000003417077    -0.000000470492    0.167196194636    0.014301320798    -0.000002632241    -0.000000947509
            -0.000002337566    -0.000001040295    0.143957887351    0.014677804856    -0.000002632241    -0.000000947509    0.159344764616    0.021013010253
0.650     0.161677893848    -0.006931727852    -0.000003165483    -0.000000454565    0.152359057660    -0.009748785236    -0.000002404542    -0.000000980299
            -0.000003165483    -0.000000454565    0.159964551793    0.003959590038    -0.000003455300    -0.000000348506    0.146688112156    0.000314826191
            0.152359057660    -0.009748785236    -0.000003455300    -0.000000348506    0.163264520831    -0.006126264559    -0.000002697172    -0.000000869655
            -0.000002404542    -0.000000980299    0.146688112156    0.000314826114    -0.000002697172    -0.000000869655    0.160167652825    0.005375114865
0.675     0.152261093195    -0.024336703186    -0.000003210576    -0.000000384505    0.146134341446    -0.027709212183    -0.000002472576    -0.000000949180
            -0.000003210576    -0.000000384505    0.156796872527    -0.010953770756    -0.000003498025    -0.000000262326    0.146154999307    -0.014111885117
            0.146134341446    -0.027709212183    -0.000003498025    -0.000000262326    0.154030029107    -0.023927524617    -0.000002762851    -0.000000821785
            -0.000002472576    -0.000000949180    0.146154999307    -0.014111885117    -0.000002762851    -0.000000821785    0.157420873955    -0.009350156147
0.700     0.138685372431    -0.037517959490    -0.000003275567    -0.000000346630    0.135411345766    -0.042763688446    -0.000002554623    -0.000000947288
            -0.000003275567    -0.000000346630    0.150464063051    -0.023862300050    -0.000003560910    -0.000000209314    0.142471101812    -0.027672081503
            0.135411345766    -0.042763688446    -0.000003560910    -0.000000209314    0.140504515494    -0.037558612040    -0.000002842690    -0.000000803982
            -0.000002554623    -0.000000947288    0.142471101812    -0.027672081503    -0.000002842690    -0.000000803982    0.151575972177    -0.022200375536
0.725     0.122456301105    -0.045288398123    -0.000003375506    -0.000000333784    0.121254653981    -0.053530803130    -0.000002664636    -0.000000971146
            -0.000003375506    -0.000000333784    0.141742897477    -0.033951714990    -0.000003659446    -0.000000181812    0.136024297211    -0.039484887965
            0.121254653981    -0.053530803130    -0.000003659446    -0.000000181812    0.124172854237    -0.045788938248    -0.000002951008    -0.000000812252
            -0.000002664636    -0.000000971146    0.136024297211    -0.039484887965    -0.000002951008    -0.000000812252    0.143368854069    -0.032383377794
0.750     0.105474934124    -0.046947706268    -0.000003523512    -0.000000334316    0.105220583127    -0.058976669300    -0.000002815734    -0.000001013273
            -0.000003523512    -0.000000334316    0.131642156804    -0.040666369646    -0.000003807012    -0.000000167562    0.127484955163    -0.048805105945
            0.105220583127    -0.058976669300    -0.000003807012    -0.000000167562    0.106930879587    -0.047864234547    -0.000003101119    -0.000000838574
            -0.000002815734    -0.000001013273    0.127484955163    -0.048805105945    -0.000003101119    -0.000000838574    0.133760811354    -0.039351831959
0.775     0.089891771780    -0.042442049666    -0.000003730522    -0.000000331538    0.089244334181    -0.058621513482    -0.000003020681    -0.000001061579
            -0.000003730522    -0.000000331538    0.121322287219    -0.043778679409    -0.000004014590    -0.000000149136    0.117750948783    -0.055118650445
            0.089244334181    -0.058621513482    -0.000004014590    -0.000000149136    0.090942273029    -0.043674174221    -0.000003305766    -0.000000870160
