# GHz S RI R 45
0.000     0.016974690207    0.001418043736    -0.000008532900    -0.000021489587    0.000643561870    0.001223046629    -0.000008588665    -0.000022664880
            -0.000008532878    -0.000021489587    0.017260992693    0.001776924861    -0.000007857689    -0.000019220350    0.000704879921    0.001655070012
            0.000643561870    0.001223046629    -0.000007857693    -0.000019220350    0.016791951077    0.001413353095    -0.000008858642    -0.000022036576
            -0.000008588737    -0.000022664879    0.000704880162    0.001655070018    -0.000008858606    -0.000022036575    0.017190894783    0.001788924775
0.025     0.021922078029    0.008946926600    -0.000022789168    -0.000050090593    0.002623831412    0.009092577879    -0.000023015465    -0.000051375319
            -0.000022789166    -0.000050090590    0.021290169277    0.010155021651    -0.000020919905    -0.000046349622    0.002077345681    0.010275162881
            0.002623605275    0.009092868360    -0.000020919942    -0.000046349595    0.021855866832    0.008904901725    -0.000023479312    -0.000051677289
            -0.000023015474    -0.000051375316    0.002077600004    0.010274589099    -0.000023479340    -0.000051677255    0.021213247281    0.010125646568
0.050     0.029077886641    0.012899405481    -0.000053986124    -0.000085661917    0.008215997405    0.016513085421    -0.000054903523    -0.000088077651
            -0.000053986124    -0.000085661917    0.026173842618    0.016130103933    -0.000049817787    -0.000079478651    0.005983716648    0.019525269434
            0.008215985877    0.016513091157    -0.000049817760    -0.000079478700    0.029001608683    0.012842042098    -0.000055483633    -0.000088504275
            -0.000054903523    -0.000088077651    0.005983812331    0.019525264166    -0.000055483702    -0.000088504350    0.026029554736    0.016091720236
0.075     0.037589990801    0.013309313016    -0.000095438907    -0.000108528626    0.016377881406    0.021003900309    -0.000097419107    -0.000111846379
            -0.000095438907    -0.000108528626    0.031443134967    0.020127133205    -0.000088361678    -0.000100739022    0.011773260756    0.027092660818
            0.016377874063    0.021003902231    -0.000088361678    -0.000100739022    0.037511306811    0.013244244466    -0.000098072236    -0.000112417602
            -0.000097419107    -0.000111846379    0.011773255629    0.027092661956    -0.000098072230    -0.000112417594    0.031219786622    0.020124385396
0.100     0.046282864069    0.009734443743    -0.000143915269    -0.000117533704    0.025812698307    0.021822790332    -0.000147305194    -0.000121440647
            -0.000143915269    -0.000117533704    0.036628746096    0.022222814752    -0.000133437839    -0.000109034784    0.018728796561    0.032608873746
            0.025812699071    0.021822790977    -0.000133437839    -0.000109034784    0.046216079692    0.009670662391    -0.000148055179    -0.000122208718
            -0.000147305194    -0.000121440647    0.018728770808    0.032608881618    -0.000148055171    -0.000122208712    0.036326870306    0.022302319384
0.125     0.053561083487    0.002103172200    -0.000195712262    -0.000111744740    0.035065216326    0.018717511519    -0.000200783601    -0.000115818667
            -0.000195712253    -0.000111744735    0.040955224691    0.022618775484    -0.000181573033    -0.000103552898    0.026129804105    0.035973060424
            0.035065216882    0.018717512602    -0.000181573016    -0.000103552888    0.053525595524    0.002053235943    -0.000201712781    -0.000116817362
            -0.000200783601    -0.000115818667    0.026129804105    0.035973060424    -0.000201712772    -0.000116817357    0.040603106233    0.022832785118
0.150     0.058045383263    -0.008836877909    -0.000247290009    -0.000091354325    0.042684285932    0.011894433598    -0.000254213513    -0.000095072785
            -0.000247290009    -0.000091354325    0.044180362791    0.021920167185    -0.000229431998    -0.000084449002    0.033214297976    0.037269289233
            0.042684287236    0.011894436370    -0.000229432002    -0.000084449049    0.058070692195    -0.008881881075    -0.000255439643    -0.000096295842
            -0.000254213513    -0.000095072785    0.033214297976    0.037269289233    -0.000255439643    -0.000096295842    0.043813037405    0.022300260330
0.175     0.058465522674    -0.022065515911    -0.000295658170    -0.000056971609    0.047347383620    0.002080194920    -0.000304450721    -0.000059751054
            -0.000295658170    -0.000056971609    0.045879099406    0.020660072247    -0.000274215777    -0.000052350181    0.039347391639    0.036881998552
            0.047347389935    0.002080210681    -0.000274215737    -0.000052350173    0.058581642709    -0.022125795934    -0.000306089572    -0.000061123511
            -0.000304450721    -0.000059751054    0.039347391639    0.036881998552    -0.000306089592    -0.000061123514    0.045556561486    0.021224387208
0.200     0.053973282240    -0.036101517277    -0.000338301566    -0.000009484423    0.048041949451    -0.009575014375    -0.000348808244    -0.000010712020
            -0.000338301566    -0.000009484423    0.045910874175    0.019573200933    -0.000313598586    -0.000008112515    0.044084811319    0.035389381271
            0.048041949451    -0.009575014375    -0.000313598586    -0.000008112515    0.054204925475    -0.036210475448    -0.000350935985    -0.000012112990
            -0.000348808244    -0.000010712020    0.044084811319    0.035389381271    -0.000350935975    -0.000012112990    0.045702236678    0.020313878121
0.225     0.044257297570    -0.049188584827    -0.000372829622    0.000050319425    0.044179690245    -0.021613653125    -0.000384706375    0.000051219811
            -0.000372829622    0.000050319425    0.044459614286    0.019412951758    -0.000345380920    0.000047496470    0.047225605633    0.033478652030
            0.044179690245    -0.021613653125    -0.000345380920    0.000047496470    0.044617892385    -0.049392431241    -0.000387342868    0.000049917049
            -0.000384706375    0.000051219811    0.047225605633    0.033478652030    -0.000387342868    0.000049917049    0.044429713365    0.020293486832
0.250     0.029638266090    -0.059493463741    -0.000396715116    0.000121562567    0.035688768051    -0.032419894416    -0.000409442262    0.000125076079
            -0.000396715116    0.000121562567    0.042008031226    0.020841601688    -0.000367243251    0.000113653173    0.048843216175    0.031865836434
            0.035688768051    -0.032419894416    -0.000367243270    0.000113653179    0.030124623681    -0.059846960970    -0.000412555987    0.000123991578
            -0.000409442262    0.000125076079    0.048843216175    0.031865836434    -0.000412556018    0.000123991509    0.042205095117    0.021800391504
0.275     0.011058217609    -0.065320162285    -0.000406949684    0.000203057990    0.023050506555    -0.040388285099    -0.000419861635    0.000209514560
            -0.000406949684    0.000203057990    0.039284794329    0.024298162840    -0.000376417183    0.000189244042    0.049278771755    0.031183869842
            0.023050506555    -0.040388285099    -0.000376417183    0.000189244042    0.011646606290    -0.065880698332    -0.000423400842    0.000208707889
            -0.000419861644    0.000209514564    0.049278771755    0.031183869842    -0.000423400851    0.000208707894    0.039731455836    0.025256182024
0.300     -0.009967290704    -0.065328523437    -0.000400161377    0.000292752034    0.007287397403    -0.044117004990    -0.000412498370    0.000302286758
            -0.000400161377    0.000292752034    0.037169802859    0.029932041959    -0.000369783029    0.000272376600    0.049102559899    0.031895401756
            0.007287397403    -0.044117004990    -0.000369783085    0.000272376542    -0.009323259943    -0.066148699379    -0.000416418980    0.000301786222
            -0.000412498370    0.000302286758    0.049102559899    0.031895401756    -0.000416418928    0.000301786295    0.037857218457    0.030804114117
0.325     -0.031491072923    -0.058712713250    -0.000372836190    0.000387288799    -0.010117936276    -0.042583880360    -0.000383814925    0.000399817698
            -0.000372836190    0.000387288799    0.036576303925    0.037539991490    -0.000344080666    0.000359941479    0.049031502136    0.034204765697
            -0.010117936276    -0.042583880360    -0.000344080652    0.000359941464    -0.030858576869    -0.059830896315    -0.000388128977    0.000399610460
            -0.000383814925    0.000399817698    0.049031502136    0.034204765697    -0.000388128963    0.000399610446    0.037463302591    0.038247748318
0.350     -0.051327051167    -0.045351904906    -0.000322080959    0.000481720204    -0.027369375231    -0.035305108016    -0.000330973536    0.000496940063
            -0.000322080959    0.000481720204    0.038318875765    0.046582479726    -0.000296627019    0.000447328476    0.049829323670    0.038023488484
            -0.027369375231    -0.035305108016    -0.000296627019    0.000447328476    -0.050789847786    -0.046784410770    -0.000335758275    0.000497036822
            -0.000330973536    0.000496940063    0.049829323670    0.038023488484    -0.000335758275    0.000497036822    0.039336182756    0.047066008635
0.375     -0.067295452948    -0.025865487389    -0.000246398560    0.000569554926    -0.042553930080    -0.022424743912    -0.000252574274    0.000586991979
            -0.000246398560    0.000569554926    0.042985622094    0.056220041159    -0.000226035458    0.000528494381    0.052180850627    0.042959814998
            -0.042553930080    -0.022424743912    -0.000226035458    0.000528494381    -0.066945114425    -0.027600152940    -0.000257982210    0.000587465297
            -0.000252574274    0.000586991979    0.052180850627    0.042959814998    -0.000257982222    0.000587465324    0.044044152487    0.056448500459
0.400     -0.077488465741    -0.001594197518    -0.000146532375    0.000643418089    -0.053877341818    -0.004734635756    -0.000149521706    0.000662463834
            -0.000146532375    0.000643418089    0.050838743331    0.065425754113    -0.000133002555    0.000596570415    0.056588783667    0.048377540163
            -0.053877341818    -0.004734635756    -0.000133002555    0.000596570415    -0.077414513855    -0.003586998120    -0.000155704955    0.000663514433
            -0.000149521706    0.000662463834    0.056588783667    0.048377540163    -0.000155704955    0.000663514433    0.051842609747    0.065403192373
0.425     -0.080505650620    0.025530984080    -0.000025844257    0.000695959896    -0.059879268104    0.016402638569    -0.000025348054    0.000715937161
            -0.000025844257    0.000695959896    0.061755752561    0.073107544113    -0.000020710865    0.000644701490    0.063282183710    0.053474562350
            -0.059879268104    0.016402638569    -0.000020710854    0.000644701491    -0.080783498927    0.023355102833    -0.000032407713    0.000717901924
            -0.000025348055    0.000715937171    0.063282183710    0.053474562350    -0.000032407725    0.000717901923    0.062616026026    0.072873336723
0.450     -0.075639529726    0.053194656502    0.000109685496    0.000721083158    -0.059620083232    0.039205630401    0.000113788795    0.000741300661
            0.000109685496    0.000721083158    0.075236728561    0.078263664258    0.000105243715    0.000667229258    0.072185550165    0.057407567788
            -0.059620083232    0.039205630401    0.000105243715    0.000667229258    -0.076319626416    0.050936746218    0.000105883416    0.000744630974
            0.000113788795    0.000741300661    0.072185550165    0.057407567788    0.000105883416    0.000744630974    0.075883186564    0.077887093113
0.475     -0.062957224515    0.078955610976    0.000252134921    0.000714889393    -0.052778296981    0.061678296199    0.000259849225    0.000734684836
            0.000252134921    0.000714889393    0.090453347865    0.080106228281    0.000237452001    0.000660555482    0.082917595882    0.059398747951
            -0.052778296981    0.061678296199    0.000237452004    0.000660555492    -0.064056917452    0.076733111741    0.000251344713    0.000739895404
            0.000259849225    0.000734684836    0.082917595882    0.059398747951    0.000251344713    0.000739895404    0.090844350020    0.079677462074
0.500     -0.043292412234    0.100514633037    0.000392709032    0.000676383699    -0.039678360598    0.081835915774    0.000403930145    0.000695137186
            0.000392709032    0.000676383699    0.106359364478    0.078167898902    0.000367706315    0.000623808943    0.094852090261    0.058846088810
            -0.039678360598    0.081835915774    0.000367706315    0.000623808943    -0.044791831397    0.098451540149    0.000395291517    0.000702716810
            0.000403930145    0.000695137186    0.094852090261    0.058846088810    0.000395291517    0.000702716810    0.106484702558    0.077784853797
0.525     -0.018137487207    0.115945530583    0.000522928519    0.000607445561    -0.021225358394    0.097899143571    0.000537445088    0.000624611326
            0.000522928519    0.000607445561    0.121808360756    0.072343836402    0.000488071036    0.000558827009    0.107185075411    0.055387366719
            -0.021225358394    0.097899143571    0.000488071036    0.000558827009    -0.019980012422    0.114159665677    0.000529391044    0.000634920309
            0.000537445088    0.000624611326    0.107185075411    0.055387366719    0.000529391044    0.000634920309    0.121683544736    0.072108325460
0.550     0.010522822395    0.123874048333    0.000635690844    0.000512461519    0.001204949965    0.108459566908    0.000653296545    0.000527540752
            0.000635690844    0.000512461519    0.135691910838    0.062896650700    0.000591982481    0.000469756886    0.119051967127    0.048949325538
            0.001204949965    0.108459566908    0.000591982481    0.000469756886    0.008426165772    0.122463899833    0.000646707302    0.000540718674
            0.000653296545    0.000527540752    0.119051967127    0.048949325538    0.000646707302    0.000540718674    0.135367476526    0.062924264704
0.575     0.040410785801    0.123573746291    0.000725948545    0.000397425968    0.025912435650    0.112570367467    0.000746424348    0.000409913723
            0.000725948545    0.000397425968    0.147038900036    0.050411755707    0.000674756742    0.000362235977    0.129620182075    0.039711504880
            0.025912435650    0.112570367467    0.000674756742    0.000362235977    0.038174668838    0.122606669773    0.000742254360    0.000425789120
            0.000746424348    0.000409913723    0.129620182075    0.039711504880    0.000742254360    0.000425789120    0.146637006264    0.050801068397
0.600     0.069158649788    0.115000073304    0.000791033730    0.000269102815    0.051020761573    0.109804697132    0.000814079376    0.000278430033
            0.000791033730    0.000269102815    0.155113777931    0.035735245300    0.000733927558    0.000242583268    0.138132250704    0.028077698703
            0.051020761573    0.109804697132    0.000733927558    0.000242583268    0.066916614916    0.114503716299    0.000813202934    0.000296511018
            0.000814079376    0.000278430033    0.138132250704    0.028077698703    0.000813202924    0.000296511015    0.154785588987    0.036509303657
0.625     0.094490810621    0.098758727953    0.000830494209    0.000134102846    0.074613668731    0.100251465452    0.000855676596    0.000139729634
            0.000830494198    0.000134102849    0.159465834206    0.019885345905    0.000769103513    0.000116972697    0.143957887351    0.014677804856
            0.074613668731    0.100251465452    0.000769103513    0.000116972697    0.092387810131    0.098718428064    0.000858825130    0.000159166201
            0.000855676606    0.000139729637    0.143957887351    0.014677804856    0.000858825159    0.000159166207    0.159344764616    0.021013010253
0.650     0.114389370618    0.076042250872    0.000845806036    -0.000001873255    0.094864587227    0.084503534673    0.000872577191    -0.000000456007
            0.000845806036    -0.000001873254    0.159964551793    0.003959590038    0.000781712093    -0.000009299031    0.146688112156    0.000314826191
            0.094864587227    0.084503534673    0.000781712093    -0.000009299026    0.112568474055    0.076401737761    0.000880206056    0.000019221690
            0.000872577191    -0.000000456010    0.146688112156    0.000314826114    0.000880206088    0.000019221610    0.160167652825    0.005375114865
0.675     0.127220910699    0.048539938674    0.000839686679    -0.000134575914    0.110141198567    0.063615284321    0.000867360102    -0.000137843655
            0.000839686679    -0.000134575914    0.156796872527    -0.010953770756    0.000774315119    -0.000132216812    0.146154999307    -0.014111885117
            0.110141198567    0.063615284321    0.000774315119    -0.000132216815    0.125810954544    0.049203064299    0.000879571738    -0.000119189344
            0.000867360104    -0.000137843647    0.146154999307    -0.014111885117    0.000879571759    -0.000119189335    0.157420873955    -0.009350156147
0.700     0.131847410597    0.018330066404    0.000815477027    -0.000261465111    0.119119344723    0.039056342818    0.000843208168    -0.000269780010
            0.000815477027    -0.000261465111    0.150464063051    -0.023862300050    0.000750070793    -0.000249393345    0.142471101812    -0.027672081503
            0.119119344723    0.039056342818    0.000750070793    -0.000249393345    0.130949698144    0.019164696358    0.000859698692    -0.000253398666
            0.000843208168    -0.000269780010    0.142471101812    -0.027672081503    0.000859698692    -0.000253398666    0.151575972177    -0.022200375536
0.725     0.127709171968    -0.012241270008    0.000776298343    -0.000381684821    0.120874251558    0.012643014800    0.000803103514    -0.000395258310
            0.000776298343    -0.000381684821    0.141742897477    -0.033951714990    0.000711951499    -0.000359951368    0.136024297211    -0.039484887965
            0.120874251580    0.012643014590    0.000711951502    -0.000359951385    0.127386786287    -0.011397654423    0.000823153543    -0.000382236170
            0.000803103514    -0.000395258310    0.136024297211    -0.039484887965    0.000823153550    -0.000382236156    0.143368854069    -0.032383377794
0.750     0.114896244551    -0.040707824729    0.000724386113    -0.000495826565    0.114991176969    -0.013558134324    0.000749141951    -0.000514663865
            0.000724386113    -0.000495826565    0.131642156804    -0.040666369646    0.000662138797    -0.000464399915    0.127484955163    -0.048805105945
            0.114991176969    -0.013558134324    0.000662138797    -0.000464399915    0.115163910321    -0.040037133627    0.000771759133    -0.000505750618
            0.000749141951    -0.000514663865    0.127484955163    -0.048805105945    0.000771759133    -0.000505750618    0.133760811354    -0.039351831959
0.775     0.094188458756    -0.064648445518    0.000660428657    -0.000605221794    0.101642920822    -0.037356439273    0.000681963989    -0.000629012202
            0.000660428657    -0.000605221794    0.121322287219    -0.043778679409    0.000601402996    -0.000563953383    0.117750948783    -0.055118650445
            0.101642920822    -0.037356439273    0.000601402982    -0.000563953369    0.095006177607    -0.064338964042    0.000705961703    -0.000624576927
            0.000681963989    -0.000629012202    0.117750948783    -0.055118650445    0.000705961729    -0.000624576928    0.123859894681    -0.042872092790
