# GHz S RI R 45
0.000     0.017428916953    0.001290523157    0.000000289703    0.000000353942    0.000669566087    0.001239311035    0.000000423774    0.000000567631
            0.000000289681    0.000000353942    0.017260992693    0.001776924861    0.000000421432    0.000000551582    0.000704879921    0.001655070012
            0.000669565975    0.001239310982    0.000000421446    0.000000551582    0.017433114162    0.001303157153    0.000000597484    0.000000831837
            0.000000423823    0.000000567631    0.000704880162    0.001655070018    0.000000597478    0.000000831838    0.017190894783    0.001788924775
0.025     0.021512982713    0.009439841280    0.000000500974    0.000000778554    0.002037363572    0.009641316956    0.000000734527    0.000001247408
            0.000000500975    0.000000778557    0.021290169277    0.010155021651    0.000000731750    0.000001218283    0.002077345681    0.010275162881
            0.002034103765    0.009641588249    0.000000731744    0.000001218283    0.021449219816    0.009469867048    0.000001033779    0.000001831621
            0.000000734528    0.000001247407    0.002077600004    0.010274589099    0.000001033778    0.000001831621    0.021213247281    0.010125646568
0.050     0.026380229774    0.014749673186    0.000000869159    0.000001303486    0.005924473618    0.018252064760    0.000001274873    0.000002122265
            0.000000869159    0.000001303486    0.026173842618    0.016130103933    0.000001270595    0.000002064470    0.005983716648    0.019525269434
            0.005924518810    0.018252020653    0.000001270595    0.000002064470    0.026290062562    0.014830873942    0.000001791967    0.000003138905
            0.000001274873    0.000002122265    0.005983812331    0.019525264166    0.000001791967    0.000003138905    0.026029554736    0.016091720236
0.075     0.031668657916    0.017976750327    0.000001272199    0.000001701334    0.011677013889    0.025087544378    0.000001869796    0.000002821645
            0.000001272199    0.000001701334    0.031443134967    0.020127133205    0.000001862607    0.000002731518    0.011773260756    0.027092660818
            0.011677018299    0.025087540119    0.000001862607    0.000002731518    0.031562000198    0.018128572940    0.000002627986    0.000004208041
            0.000001869796    0.000002821645    0.011773255629    0.027092661956    0.000002627986    0.000004208041    0.031219786622    0.020124385396
0.100     0.036818342505    0.019121860383    0.000001706328    0.000002005279    0.018509231262    0.029754751153    0.000002521624    0.000003394851
            0.000001706328    0.000002005279    0.036628746096    0.022222814752    0.000002507112    0.000003268356    0.018728796561    0.032608873746
            0.018509231262    0.029754751153    0.000002507113    0.000003268356    0.036706819443    0.019363401776    0.000003551693    0.000005109185
            0.000002521624    0.000003394851    0.018728770808    0.032608881618    0.000003551693    0.000005109185    0.036326870306    0.022302319384
0.125     0.041001568069    0.018385539626    0.000002158261    0.000002226071    0.025619865031    0.032152885435    0.000003216991    0.000003854085
            0.000002158261    0.000002226071    0.040955224691    0.022618775484    0.000003188195    0.000003688196    0.026129804105    0.035973060424
            0.025619865031    0.032152885435    0.000003188195    0.000003688196    0.040904917776    0.018727192950    0.000004548479    0.000005856512
            0.000003216991    0.000003854085    0.026129804105    0.035973060424    0.000004548479    0.000005856512    0.040603106233    0.022832785118
0.150     0.043712259714    0.016371928819    0.000002615056    0.000002386540    0.032192849166    0.032410074996    0.000003940357    0.000004227046
            0.000002615056    0.000002386540    0.044180362791    0.021920167185    0.000003888877    0.000004020191    0.033214297976    0.037269289233
            0.032192849166    0.032410074996    0.000003888877    0.000004020191    0.043663395742    0.016832922579    0.000005600838    0.000006483338
            0.000003940357    0.000004227046    0.033214297976    0.037269289233    0.000005600838    0.000006483338    0.043813037405    0.022300260330
0.175     0.044503949644    0.013749235825    0.000003078965    0.000002503805    0.037530978229    0.030964054147    0.000004695275    0.000004532621
            0.000003078965    0.000002503805    0.045879099406    0.020660072247    0.000004611241    0.000004285530    0.039347391639    0.036881998552
            0.037530978229    0.030964054147    0.000004611241    0.000004285530    0.044547170543    0.014324789072    0.000006712308    0.000007010353
            0.000004695275    0.000004532621    0.039347391639    0.036881998552    0.000006712308    0.000007010353    0.045556561486    0.021224387208
0.200     0.043198255230    0.011372904768    0.000003560517    0.000002592301    0.041147073898    0.028477607928    0.000005494977    0.000004786994
            0.000003560517    0.000002592301    0.045910874175    0.019573200933    0.000005367956    0.000004503036    0.044084811319    0.035389381271
            0.041147073898    0.028477607928    0.000005367956    0.000004503036    0.043374850653    0.012038301330    0.000007897733    0.000007456368
            0.000005494977    0.000004786994    0.044084811319    0.035389381271    0.000007897733    0.000007456368    0.045702236678    0.020313878121
0.225     0.039967197820    0.010139674198    0.000004077554    0.000002656110    0.042830473779    0.025744564133    0.000006361719    0.000004992298
            0.000004077554    0.000002656110    0.044459614286    0.019412951758    0.000006181372    0.000004677718    0.047225605633    0.033478652030
            0.042830473779    0.025744564133    0.000006181372    0.000004677718    0.040308932397    0.010853840618    0.000009183091    0.000007822176
            0.000006361719    0.000004992298    0.047225605633    0.033478652030    0.000009183091    0.000007822176    0.044429713365    0.020293486832
0.250     0.035329155423    0.010866264530    0.000004651240    0.000002689129    0.042682431923    0.023593062199    0.000007321642    0.000005138095
            0.000004651240    0.000002689129    0.042008031226    0.020841601688    0.000007078592    0.000004802042    0.048843216175    0.031865836434
            0.042682431923    0.023593062199    0.000007078592    0.000004802042    0.035852358321    0.011576449305    0.000010599096    0.000008093867
            0.000007321642    0.000005138095    0.048843216175    0.031865836434    0.000010599096    0.000008093867    0.042205095117    0.021800391504
0.275     0.030108527395    0.014139106222    0.000005300990    0.000002670499    0.041112798619    0.022762932164    0.000008397853    0.000005194277
            0.000005300990    0.000002670499    0.039284794329    0.024298162840    0.000008084564    0.000004848792    0.049278771755    0.031183869842
            0.041112798619    0.022762932164    0.000008084564    0.000004848792    0.030810011604    0.014786516511    0.000012172568    0.000008232956
            0.000008397853    0.000005194277    0.049278771755    0.031183869842    0.000012172568    0.000008232956    0.039731455836    0.025256182024
0.300     0.025335828762    0.020222891000    0.000006038474    0.000002567226    0.038798523789    0.023801701609    0.000009602774    0.000005115792
            0.000006038474    0.000002567226    0.037169802859    0.029932041959    0.000009214695    0.000004775476    0.049102559899    0.031895401756
            0.038798523789    0.023801701609    0.000009214695    0.000004775476    0.026191011553    0.020750301877    0.000013916775    0.000008183157
            0.000009602774    0.000005115792    0.049102559899    0.031895401756    0.000013916775    0.000008183157    0.037857218457    0.030804114117
0.325     0.022120252660    0.028977302315    0.000006860498    0.000002334954    0.036596086181    0.026963916242    0.000010928583    0.000004843358
            0.000006860498    0.000002334954    0.036576303925    0.037539991490    0.000010465055    0.000004524405    0.049031502136    0.034204765697
            0.036596086181    0.026963916242    0.000010465055    0.000004524405    0.023083198324    0.029337032609    0.000015820384    0.000007870845
            0.000010928583    0.000004843358    0.049031502136    0.034204765697    0.000015820384    0.000007870845    0.037463302591    0.038247748318
0.350     0.021493797498    0.039853707241    0.000007743659    0.000001926294    0.035425475155    0.032161478331    0.000012341710    0.000004315453
            0.000007743659    0.000001926294    0.038318875765    0.046582479726    0.000011806903    0.000004034331    0.049829323670    0.038023488484
            0.035425475155    0.032161478331    0.000011806903    0.000004034331    0.022501995448    0.040015743837    0.000017840715    0.000007220457
            0.000012341710    0.000004315453    0.049829323670    0.038023488484    0.000017840715    0.000007220457    0.039336182756    0.047066008635
0.375     0.024256771116    0.051926856475    0.000008640780    0.000001299065    0.036128012101    0.038948470902    0.000013777851    0.000003477935
            0.000008640780    0.000001299065    0.042985622094    0.056220041159    0.000013181072    0.000003249488    0.052180850627    0.042959814998
            0.036128012101    0.038948470902    0.000013181072    0.000003249488    0.025238127545    0.051885075328    0.000019898283    0.000006165108
            0.000013777851    0.000003477935    0.052180850627    0.042959814998    0.000019898283    0.000006165108    0.044044152487    0.056448500459
0.400     0.030848156857    0.064009841499    0.000009484014    0.000000429512    0.039337625202    0.046580684898    0.000015148265    0.000002301470
            0.000009484014    0.000000429512    0.050838743331    0.065425754113    0.000014502683    0.000002136869    0.056588783667    0.048377540163
            0.039337625202    0.046580684898    0.000014502683    0.000002136869    0.031729591745    0.063784726142    0.000021884249    0.000004667728
            0.000015148265    0.000002301470    0.056588783667    0.048377540163    0.000021884249    0.000004667728    0.051842609747    0.065403192373
0.425     0.041260023050    0.074794932216    0.000010192683    -0.000000678628    0.045373203442    0.054107482986    0.000016348260    0.000000790859
            0.000010192683    -0.000000678628    0.061755752561    0.073107544113    0.000015669690    0.000000696291    0.063282183710    0.053474562350
            0.045373203442    0.054107482986    0.000015669690    0.000000696291    0.041978028260    0.074433087957    0.000023670239    0.000002731821
            0.000016348260    0.000000790859    0.063282183710    0.053474562350    0.000023670239    0.000002731821    0.062616026026    0.072873336723
0.450     0.055025799767    0.083034703042    0.000010687850    -0.000001987658    0.054191589163    0.060515038138    0.000017276519    -0.000001006448
            0.000010687850    -0.000001987658    0.075236728561    0.078263664258    0.000016580916    -0.000001030585    0.072185550165    0.057407567788
            0.054191589163    0.060515038138    0.000016580916    -0.000001030585    0.055535391861    0.082603930521    0.000025131475    0.000000411485
            0.000017276519    -0.000001006448    0.072185550165    0.057407567788    0.000025131475    0.000000411485    0.075883186564    0.077887093113
0.475     0.071267329813    0.087697653889    0.000010906520    -0.000003429336    0.065387951367    0.064856600160    0.000017850854    -0.000003005689
            0.000010906520    -0.000003429336    0.090453347865    0.080106228281    0.000017152106    -0.000002964696    0.082917595882    0.059398747951
            0.065387951367    0.064856600160    0.000017152106    -0.000002964696    0.071548403751    0.087280328008    0.000026164560    -0.000002194654
            0.000017850854    -0.000003005689    0.082917595882    0.059398747951    0.000026164560    -0.000002194654    0.090844350020    0.079677462074
0.500     0.088809494346    0.088103607818    0.000010816709    -0.000004914689    0.078259916762    0.066381459537    0.000018027088    -0.000005096235
            0.000010816709    -0.000004914689    0.106359364478    0.078167898902    0.000017336050    -0.000004999174    0.094852090261    0.058846088810
            0.078259916762    0.066381459537    0.000017336050    -0.000004999174    0.088871080755    0.087785621317    0.000026710050    -0.000004955691
            0.000018027088    -0.000005096235    0.094852090261    0.058846088810    0.000026710050    -0.000004955691    0.106484702558    0.077784853797
0.525     0.106316914437    0.083989589204    0.000010422532    -0.000006347597    0.091893590319    0.064609502195    0.000017804466    -0.000007158189
            0.000010422532    -0.000006347597    0.121808360756    0.072343836402    0.000017126805    -0.000007015581    0.107185075411    0.055387366719
            0.091893590319    0.064609502195    0.000017126805    -0.000007015581    0.106196938788    0.083851386415    0.000026759190    -0.000007727919
            0.000017804466    -0.000007158189    0.107185075411    0.055387366719    0.000026759190    -0.000007727919    0.121683544736    0.072108325460
0.550     0.122451448636    0.075531675072    0.000009763482    -0.000007641654    0.105278117530    0.059379906859    0.000017226073    -0.000009082125
            0.000009763482    -0.000007641654    0.135691910838    0.062896650700    0.000016562401    -0.000008904216    0.119051967127    0.048949325538
            0.105278117530    0.059379906859    0.000016562401    -0.000008904216    0.122214446142    0.075636907033    0.000026355390    -0.000010377691
            0.000017226073    -0.000009082125    0.119051967127    0.048949325538    0.000026355390    -0.000010377691    0.135367476526    0.062924264704
0.575     0.136000494283    0.063304239161    0.000008904477    -0.000008732723    0.117400985075    0.050846139442    0.000016365902    -0.000010783670
            0.000008904477    -0.000008732723    0.147038900036    0.050411755707    0.000015712617    -0.000010579006    0.129620182075    0.039711504880
            0.117400985075    0.050846139442    0.000015712617    -0.000010579006    0.135731546597    0.063694243858    0.000025579398    -0.000012799600
            0.000016365902    -0.000010783670    0.129620182075    0.039711504880    0.000025579398    -0.000012799600    0.146637006264    0.050801068397
0.600     0.145993007443    0.048213754841    0.000007927018    -0.000009586535    0.127346614727    0.039459254773    0.000015319867    -0.000012212354
            0.000007927018    -0.000009586535    0.155113777931    0.035735245300    0.000014671199    -0.000011987059    0.138132250704    0.028077698703
            0.127346614727    0.039459254773    0.000014671199    -0.000011987059    0.145790111406    0.048902199102    0.000024540330    -0.000014925682
            0.000015319867    -0.000012212354    0.138132250704    0.028077698703    0.000024540330    -0.000014925682    0.154785588987    0.036509303657
0.625     0.151768078479    0.031405832708    0.000006915033    -0.000010199630    0.134359271357    0.025917103495    0.000014189984    -0.000013354005
            0.000006915033    -0.000010199630    0.159465834206    0.019885345905    0.000013538488    -0.000013111576    0.143957887351    0.014677804856
            0.134359271357    0.025917103495    0.000013538488    -0.000013111576    0.151732857032    0.032375681265    0.000023357134    -0.000016730207
            0.000014189984    -0.000013354005    0.143957887351    0.014677804856    0.000023357134    -0.000016730207    0.159344764616    0.021013010253
0.650     0.153028870558    0.014167186736    0.000005944827    -0.000010597635    0.137911845683    0.011119515347    0.000013073863    -0.000014230391
            0.000005944827    -0.000010597635    0.159964551793    0.003959590038    0.000012410730    -0.000013971285    0.146688112156    0.000314826191
            0.137911845683    0.011119515347    0.000012410730    -0.000013971285    0.153255695403    0.015371452553    0.000022146888    -0.000018230314
            0.000013073863    -0.000014230391    0.146688112156    0.000314826114    0.000022146888    -0.000018230314    0.160167652825    0.005375114865
0.675     0.149856325019    -0.002175133972    0.000005075836    -0.000010828087    0.137743384267    -0.003900898434    0.000012050842    -0.000014891812
            0.000005075836    -0.000010828087    0.156796872527    -0.010953770756    0.000011367207    -0.000014613517    0.146154999307    -0.014111885117
            0.137743384267    -0.003900898434    0.000011367207    -0.000014613517    0.150423304243    -0.000812767478    0.000021007388    -0.000019478450
            0.000012050842    -0.000014891812    0.146154999307    -0.014111885117    0.000021007388    -0.000019478450    0.157420873955    -0.009350156147
0.700     0.142718345018    -0.016355526878    0.000004346427    -0.000010953091    0.133908307451    -0.018043226531    0.000011178976    -0.000015410566
            0.000004346427    -0.000010953091    0.150464063051    -0.023862300050    0.000010465883    -0.000015107581    0.142471101812    -0.027672081503
            0.133908307451    -0.018043226531    0.000010465883    -0.000015107581    0.143678363360    -0.014934754108    0.000020013404    -0.000020555923
            0.000011178976    -0.000015410566    0.142471101812    -0.027672081503    0.000020013404    -0.000020555923    0.151575972177    -0.022200375536
0.725     0.132445181116    -0.027270889335    0.000003772289    -0.000011041596    0.126791773324    -0.030231725330    0.000010488494    -0.000015871970
            0.000003772289    -0.000011041596    0.141742897477    -0.033951714990    0.000009737303    -0.000015535342    0.136024297211    -0.039484887965
            0.126791772796    -0.030231727543    0.000009737303    -0.000015535342    0.133818958376    -0.025908869550    0.000019206735    -0.000021562162
            0.000010488494    -0.000015871970    0.136024297211    -0.039484887965    0.000019206735    -0.000021562162    0.143368854069    -0.032383377794
0.750     0.120194443968    -0.034087972888    0.000003346786    -0.000011163485    0.117125513680    -0.039512704421    0.000009982232    -0.000016368802
            0.000003346786    -0.000011163485    0.131642156804    -0.040666369646    0.000009185593    -0.000015985780    0.127484955163    -0.048805105945
            0.117125513680    -0.039512704421    0.000009185593    -0.000015985780    0.121965699133    -0.032906975823    0.000018596787    -0.000022608857
            0.000009982232    -0.000016368802    0.127484955163    -0.048805105945    0.000018596787    -0.000022608857    0.133760811354    -0.039351831959
0.775     0.107375091867    -0.036345125586    0.000003042163    -0.000011384406    0.105950000082    -0.045178702016    0.000009632151    -0.000016993078
            0.000003042163    -0.000011384406    0.121322287219    -0.043778679409    0.000008785173    -0.000016546610    0.117750948783    -0.055118650445
            0.105950000082    -0.045178702016    0.000008785173    -0.000016546610    0.109487495382    -0.035461849246    0.000018153351    -0.000023808950
            0.000009632151    -0.000016993078    0.117750948783    -0.055118650445    0.000018153351    -0.000023808950    0.123859894681    -0.042872092790
0.800     0.095538520824    -0.034047481340    0.000002810079    -0.000011762465    0.094550226736    -0.046880047774    0.000009379525    -0.000017831033
            0.000002810079    -0.000011762465    0.111999609332    -0.043446573353    0.000008481788    -0.000017299740    0.107889376362    -0.058227265375
