!$
! Info: Touchstone file created by Circ.  Input file=Intel_C2M_200G_5p5in_202208016_staggered.circ
!$
# Hz S RI R 50
0	0.02088275	3.386834e-24	0.9789175	-5.887269e-24	0.0001040186	2.726407e-22	-0.0002347293	2.874604e-20
	0.9789175	-5.884966e-24	0.02143654	6.34359e-24	-0.0002347847	2.875283e-20	0.0003275236	6.891462e-22
	0.0001040759	2.727658e-22	-0.0002349211	2.876954e-20	0.0208807	3.209375e-24	0.9789178	-5.974016e-24
	-0.0002348657	2.876275e-20	0.0003275911	6.896311e-22	0.9789178	-5.976323e-24	0.02143796	6.470069e-24
1e+07	0.02535326	0.007133159	0.9705249	-0.09353611	0.001605096	0.005708241	-0.001118753	-0.0008255772
	0.9705249	-0.09353611	0.02574786	0.006902247	-0.001119058	-0.0008253357	0.001503205	0.005740551
	0.001605096	0.005708241	-0.001119058	-0.0008253357	0.02516298	0.007023286	0.9707227	-0.0934025
	-0.001118753	-0.0008255772	0.001503205	0.005740551	0.9707227	-0.0934025	0.02554901	0.006797843
2e+07	0.03006766	0.01044315	0.9537206	-0.1823435	0.003441587	0.01063531	-0.001510918	-0.001100203
	0.9537206	-0.1823435	0.03171999	0.009809026	-0.001511501	-0.00109912	0.002995726	0.01083234
	0.003441597	0.0106353	-0.001511502	-0.00109923	0.02978047	0.01035073	0.9540345	-0.1822155
	-0.001510917	-0.001100307	0.002995816	0.01083223	0.9540345	-0.1822154	0.03140271	0.009748689
3e+07	0.03403274	0.01178112	0.9300651	-0.2675126	0.006151481	0.01520768	-0.00192968	-0.001293182
	0.9300651	-0.2675126	0.0371612	0.01004539	-0.00193018	-0.001290768	0.005292193	0.01555664
	0.006151456	0.01520772	-0.001930223	-0.001290765	0.03367427	0.01174646	0.9304621	-0.2674329
	-0.001929694	-0.001293187	0.00529217	0.01555661	0.9304621	-0.2674329	0.03677601	0.01007224
4e+07	0.03733082	0.01214895	0.8994638	-0.3494544	0.009709476	0.01912844	-0.002362418	-0.001381949
	0.8994638	-0.3494544	0.04248016	0.008930476	-0.002362152	-0.001378083	0.008244882	0.01984351
	0.009709474	0.01912846	-0.002362158	-0.001378079	0.03692873	0.01218483	0.8999206	-0.3494448
	-0.002362419	-0.001381936	0.008244881	0.01984351	0.8999206	-0.3494448	0.04205737	0.009066006
5e+07	0.0401149	0.01198009	0.8620925	-0.4278277	0.01396546	0.0222952	-0.002791404	-0.001369045
	0.8620925	-0.4278277	0.04761964	0.006588514	-0.002789717	-0.001364009	0.011797	0.02357466
	0.01396546	0.02229521	-0.002789715	-0.00136401	0.03968791	0.0120937	0.8625888	-0.4279024
	-0.002791402	-0.001369046	0.01179701	0.02357468	0.8625888	-0.4279024	0.04719047	0.006843274
6e+07	0.04246545	0.01147494	0.8182389	-0.5021814	0.01877923	0.02459781	-0.003197894	-0.001266308
	0.8182389	-0.5021814	0.05244694	0.003169466	-0.00319426	-0.001260557	0.01584319	0.02666865
	0.01877924	0.02459779	-0.003194258	-0.001260558	0.04203007	0.0116704	0.8187545	-0.5023502
	-0.003197891	-0.001266308	0.01584319	0.02666865	0.8187545	-0.5023502	0.05204176	0.003545909
7e+07	0.04444027	0.01078946	0.768254	-0.5720484	0.02398892	0.02595043	-0.003568655	-0.001088097
	0.768254	-0.5720484	0.05685876	-0.001203914	-0.003562644	-0.001082378	0.02026927	0.0290654
	0.02398892	0.02595042	-0.0035626	-0.001082433	0.04401194	0.0110683	0.7687676	-0.5723172
	-0.003568652	-0.001088099	0.02026928	0.0290654	0.7687676	-0.5723172	0.05650602	-0.0007101601
8e+07	0.04611636	0.010048	0.7125356	-0.6369721	0.02942102	0.02629589	-0.003894569	-0.0008491376
	0.7125356	-0.6369721	0.06075493	-0.006429994	-0.003886049	-0.0008443462	0.02495347	0.03072478
	0.02942101	0.02629589	-0.00388605	-0.0008443438	0.04571011	0.01041037	0.7130273	-0.6373453
	-0.003894571	-0.0008491352	0.02495347	0.03072478	0.7130273	-0.6373453	0.06048147	-0.005828799
9e+07	0.04759145	0.009339452	0.6515198	-0.6965232	0.03489576	0.02560627	-0.00417048	-0.0005637746
	0.6515198	-0.6965232	0.06403845	-0.01240333	-0.004159631	-0.0005609175	0.02977109	0.03162813
	0.03489576	0.02560628	-0.004159629	-0.0005609083	0.04722222	0.009785474	0.6519647	-0.6970016
	-0.004170481	-0.0005637648	0.02977109	0.03162813	0.6519647	-0.6970016	0.06387038	-0.0117085
1e+08	0.0490115	0.008748132	0.5856275	-0.7503379	0.04023396	0.02388113	-0.004397219	-0.0002440741
	0.5856275	-0.7503379	0.06666585	-0.01898232	-0.004384751	-0.0002443822	0.03460116	0.03177665
	0.04023395	0.02388112	-0.00438475	-0.0002443832	0.04870113	0.009286751	0.5859914	-0.7509284
	-0.004397219	-0.0002440751	0.03460116	0.03177665	0.5859914	-0.7509284	0.06663911	-0.01820946
1.1e+08	0.05048945	0.007982602	0.5153463	-0.7977148	0.04525216	0.02113667	-0.004559571	0.0001090093
	0.5153463	-0.7977148	0.06858629	-0.02631496	-0.004546656	0.0001065792	0.03930537	0.03118218
	0.04525216	0.02113667	-0.004546656	0.0001065777	0.05033172	0.008533464	0.5155918	-0.7983581
	-0.004559571	0.0001090078	0.03930537	0.03118218	0.5155918	-0.7983581	0.06871793	-0.02552468
1.2e+08	0.05184491	0.007237496	0.4415339	-0.8385041	0.04974255	0.01747566	-0.004661911	0.0004546215
	0.4415339	-0.8385041	0.06946298	-0.03410083	-0.004649101	0.0004493292	0.04376733	0.02990782
	0.04974254	0.01747565	-0.004649101	0.0004493277	0.05176458	0.007776872	0.4416725	-0.8391766
	-0.004661911	0.00045462	0.04376733	0.02990782	0.4416725	-0.8391766	0.06972985	-0.0333329
1.3e+08	0.05321734	0.006537604	0.3647173	-0.8725098	0.05356585	0.01299096	-0.004719554	0.0007855277
	0.3647173	-0.8725098	0.06931856	-0.04212895	-0.004708073	0.0007771242	0.04788904	0.02801773
	0.05356585	0.01299096	-0.004708073	0.0007771228	0.053192	0.007073803	0.3647528	-0.8731966
	-0.004719554	0.0007855263	0.04788904	0.02801773	0.3647528	-0.8731966	0.06970092	-0.04140859
1.4e+08	0.05468163	0.005849127	0.285487	-0.8995416	0.05659042	0.007801842	-0.004744883	0.001095672
	0.285487	-0.8995416	0.06815564	-0.05022906	-0.004735769	0.001085114	0.05158295	0.0255917
	0.05659042	0.007801841	-0.004735769	0.001085113	0.05470991	0.006383537	0.2854228	-0.9002258
	-0.004744884	0.001095671	0.05158295	0.0255917	0.2854228	-0.9002258	0.06863242	-0.04957203
1.5e+08	0.0562897	0.005119697	0.2044513	-0.9194524	0.05870272	0.002048638	-0.004750101	0.001382532
	0.2044513	-0.9194524	0.06599305	-0.05824254	-0.004743757	0.001370672	0.05477772	0.02272191
	0.05870272	0.002048637	-0.004743757	0.001370671	0.05637283	0.005645294	0.2042931	-0.9201208
	-0.004750101	0.001382531	0.05477772	0.02272192	0.2042931	-0.9201208	0.06654409	-0.05765798
1.6e+08	0.05807356	0.004284149	0.1222303	-0.9321419	0.05981247	-0.00411077	-0.004746806	0.001646679
	0.1222303	-0.9321419	0.06286831	-0.06602004	-0.004743238	0.001634471	0.05741977	0.01951061
	0.05981247	-0.00411077	-0.004743239	0.001634471	0.05821008	0.004789471	0.1219829	-0.932784
	-0.004746806	0.001646679	0.05741977	0.01951061	0.1219829	-0.932784	0.06347463	-0.06551234
1.7e+08	0.06004524	0.003268431	0.039448	-0.9375643	0.0598557	-0.01050521	-0.004745473	0.00189159
	0.039448	-0.9375643	0.05883778	-0.07342305	-0.00474439	0.001879904	0.05947459	0.01606577
	0.0598557	-0.01050521	-0.004744391	0.001879904	0.06022958	0.003741261	0.03911732	-0.9381697
	-0.004745473	0.00189159	0.05947459	0.01606577	0.03911732	-0.9381697	0.05948244	-0.07299282
1.8e+08	0.06219593	0.001993666	-0.04327165	-0.9357241	0.05879698	-0.01695464	-0.004755079	0.00212335
	-0.04327165	-0.9357241	0.05397615	-0.08032517	-0.004755967	0.002112746	0.0609279	0.01249832
	0.05879698	-0.01695464	-0.004755967	0.002112746	0.06241847	0.002423356	-0.04367883	-0.9362837
	-0.004755079	0.00212335	0.0609279	0.01249832	-0.04367883	-0.9362837	0.05464342	-0.07996995
1.9e+08	0.06449494	0.0003806504	-0.1253068	-0.9266768	0.05663101	-0.02327501	-0.004782401	0.002350531
	-0.1253068	-0.9266768	0.04837376	-0.08661392	-0.004784663	0.002341323	0.06178532	0.008918937
	0.05663101	-0.02327501	-0.004784663	0.002341323	0.06474318	0.0007594256	-0.1257824	-0.9271844
	-0.004782401	0.002350531	0.06178532	0.008918937	-0.1257824	-0.9271844	0.04905066	-0.08632902
2e+08	0.06688944	-0.001644818	-0.2060452	-0.9105294	0.05338244	-0.02928321	-0.00483177	0.002583192
	-0.2060452	-0.9105294	0.04213611	-0.09219307	-0.004834854	0.002575328	0.06207155	0.005433588
	0.05338244	-0.02928321	-0.004834854	0.002575328	0.06714992	-0.001321737	-0.2065829	-0.9109767
	-0.00483177	0.002583192	0.06207155	0.005433588	-0.2065829	-0.9109767	0.0428105	-0.09197151
2.1e+08	0.06930633	-0.004146524	-0.2848884	-0.8874399	0.04910548	-0.03480174	-0.00490504	0.002832326
	-0.2848884	-0.8874399	0.03537962	-0.09698445	-0.004908341	0.002825888	0.0618304	0.002141165
	0.04910548	-0.03480174	-0.004908341	0.002825888	0.06956458	-0.003880752	-0.2854795	-0.8878212
	-0.00490504	0.002832326	0.0618304	0.002141165	-0.2854795	-0.8878212	0.03604283	-0.09681784
2.2e+08	0.07165374	-0.007174098	-0.361254	-0.8576134	0.04388247	-0.03966355	-0.005000835	0.003109855
	-0.361254	-0.8576134	0.02823083	-0.100929	-0.005003973	0.003104456	0.06112172	-0.0008701428
	0.04388247	-0.03966355	-0.005003973	0.003104456	0.07189583	-0.006963957	-0.3618902	-0.8579238
	-0.005000835	0.003109855	0.06112172	-0.0008701428	-0.3618902	-0.8579238	0.02887572	-0.1008077
2.3e+08	0.0738251	-0.01075814	-0.4345774	-0.8213021	0.03782199	-0.04371659	-0.005115249	0.003427031
	-0.4345774	-0.8213021	0.02082227	-0.103988	-0.005117867	0.003422533	0.06002002	-0.003525595
	0.03782199	-0.04371659	-0.005117867	0.003422533	0.07403809	-0.01059973	-0.4352516	-0.8215374
	-0.005115249	0.003427031	0.06002002	-0.003525595	-0.4352516	-0.8215374	0.02144423	-0.1039016
2.4e+08	0.0757028	-0.01490699	-0.5043227	-0.7788046	0.03105608	-0.04682727	-0.005241222	0.003795356
	-0.5043227	-0.7788046	0.01328931	-0.1061441	-0.005243244	0.003791135	0.05861179	-0.00576581
	0.03105608	-0.04682727	-0.005243244	0.003791135	0.07587455	-0.01479394	-0.5050259	-0.7789628
	-0.005241222	0.003795356	0.05861179	-0.00576581	-0.5050259	-0.7789628	0.01388659	-0.1060821
2.5e+08	0.07716284	-0.01960409	-0.5699782	-0.7304638	0.02373678	-0.04888418	-0.005369097	0.00422469
	-0.5699782	-0.7304638	0.005768045	-0.1074012	-0.005370461	0.004220232	0.05699221	-0.007549016
	0.02373678	-0.04888418	-0.005370461	0.004220232	0.07728303	-0.01952847	-0.5707017	-0.7305403
	-0.005369097	0.00422469	0.05699221	-0.007549016	-0.5707017	-0.7305403	0.006340989	-0.1073528
2.6e+08	0.07808025	-0.02480685	-0.6310643	-0.6766599	0.0160326	-0.04980129	-0.005486872	0.004723277
	-0.6310643	-0.6766599	-0.001609768	-0.1077835	-0.005487578	0.004718284	0.05526194	-0.008852266
	0.0160326	-0.04980129	-0.005487578	0.004718284	0.07813974	-0.02475904	-0.6317978	-0.6766543
	-0.005486872	0.004723277	0.05526194	-0.008852266	-0.6317978	-0.6766543	-0.001057914	-0.1077391
2.7e+08	0.0783343	-0.03044605	-0.6871334	-0.6178129	0.008124357	-0.04951927	-0.005579967	0.005297446
	-0.6871334	-0.6178129	-0.008717896	-0.1073356	-0.005580512	0.005291324	0.05352374	-0.009671572
	0.008124356	-0.04951927	-0.005580512	0.005291324	0.07832568	-0.03041516	-0.6878697	-0.6177249
	-0.005579967	0.005297446	0.05352374	-0.009671572	-0.6878697	-0.6177249	-0.008182094	-0.1072865
2.8e+08	0.07781397	-0.03642582	-0.7377762	-0.5543797	0.0002006058	-0.04800789	-0.005631999	0.005950742
	-0.7377762	-0.5543797	-0.01543971	-0.1061209	-0.005632673	0.005943343	0.05187913	-0.01002276
	0.0002006056	-0.04800789	-0.005632673	0.005943343	0.07773194	-0.03640017	-0.7385067	-0.5542094
	-0.005632	0.005950742	0.05187913	-0.01002276	-0.7385067	-0.5542094	-0.01491293	-0.10606
2.9e+08	0.07642356	-0.04262616	-0.7826222	-0.4868501	-0.007546732	-0.04526669	-0.005624474	0.00668411
	-0.7826222	-0.4868501	-0.02167105	-0.1042197	-0.00562612	0.006675232	0.05042452	-0.009940123
	-0.007546732	-0.04526669	-0.00562612	0.006675232	0.07626423	-0.04259311	-0.7833385	-0.4865984
	-0.005624474	0.00668411	0.05042452	-0.009940123	-0.7833385	-0.4865984	-0.02114452	-0.1041417
3e+08	0.07408753	-0.0489052	-0.8213424	-0.4157422	-0.01492692	-0.04132465	-0.005538514	0.007494763
	-0.8213424	-0.4157422	-0.02732182	-0.101727	-0.00554184	0.007484506	0.04924809	-0.009476052
	-0.01492692	-0.04132465	-0.00554184	0.007484506	0.07384892	-0.04885175	-0.8220359	-0.4154101
	-0.005538514	0.007494763	0.04924809	-0.009476052	-0.8220359	-0.4154101	-0.02678567	-0.1016287
3.1e+08	0.070755	-0.05510307	-0.8536543	-0.3416014	-0.02175527	-0.03624036	-0.005354353	0.008376392
	-0.8536543	-0.3416014	-0.03231897	-0.09875046	-0.005359781	0.008364973	0.04842707	-0.008698228
	-0.02175527	-0.03624036	-0.005359781	0.008364973	0.07043674	-0.05501549	-0.8543148	-0.3411921
	-0.005354353	0.008376392	0.04842707	-0.008698228	-0.8543148	-0.3411921	-0.03176257	-0.09863121
3.2e+08	0.06640323	-0.06104598	-0.879319	-0.2649986	-0.02785737	-0.03010039	-0.005052194	0.009318672
	-0.879319	-0.2649986	-0.03660746	-0.09540732	-0.005060337	0.009306671	0.04802449	-0.007688561
	-0.02785737	-0.03010039	-0.005060337	0.009306671	0.06600775	-0.06091067	-0.8799408	-0.2645133
	-0.005052195	0.009318672	0.04802449	-0.007688561	-0.8799408	-0.2645133	-0.03602056	-0.09526894
3.3e+08	0.06104104	-0.06655203	-0.8981485	-0.18652	-0.0330729	-0.02301733	-0.004612682	0.01030717
	-0.8981485	-0.18652	-0.0401523	-0.0918211	-0.004624633	0.01029532	0.04808686	-0.006539629
	-0.0330729	-0.02301733	-0.004624633	0.01029532	0.06057243	-0.06635518	-0.8987233	-0.1859639
	-0.004612682	0.01030717	0.04808686	-0.006539629	-0.8987233	-0.1859639	-0.03952424	-0.09166795
3.4e+08	0.05471081	-0.07143649	-0.9100056	-0.1067728	-0.03726033	-0.01512763	-0.004018932	0.01132308
	-0.9100056	-0.1067728	-0.04293847	-0.08811921	-0.004034451	0.01131237	0.04864315	-0.005351692
	-0.03726033	-0.01512763	-0.004034452	0.01131237	0.05417547	-0.07116521	-0.9105278	-0.1061479
	-0.004018932	0.01132308	0.04864315	-0.005351692	-0.9105278	-0.1061479	-0.04226029	-0.08795773
3.5e+08	0.04748893	-0.07551851	-0.9148076	-0.02636994	-0.04029929	-0.006588386	-0.003255592	0.01234375
	-0.9148076	-0.02636994	-0.04497243	-0.08442854	-0.003274741	0.01233521	0.04970267	-0.004229923
	-0.04029929	-0.006588386	-0.003274741	0.01233521	0.04689516	-0.07516003	-0.9152669	-0.02568414
	-0.003255592	0.01234375	0.04970267	-0.004229923	-0.9152669	-0.02568414	-0.04423542	-0.08426802
3.6e+08	0.03948565	-0.078627	-0.9125234	0.0540634	-0.04209429	0.002425885	-0.002310884	0.01334242
	-0.9125234	0.0540634	-0.04628043	-0.08087358	-0.002333662	0.01333741	0.05125489	-0.00327997
	-0.04209429	0.002425885	-0.002333662	0.01333741	0.03884422	-0.07817006	-0.9129134	0.05480542
	-0.002310884	0.01334242	0.05125489	-0.00327997	-0.9129134	0.05480542	-0.04547823	-0.08072436
3.7e+08	0.03084374	-0.08060777	-0.9031773	0.133904	-0.04257693	0.01172763	-0.001177542	0.01428913
	-0.9031773	0.133904	-0.0469086	-0.07757138	-0.001203039	0.01428872	0.05326963	-0.002604759
	-0.04257693	0.01172763	-0.001203039	0.01428872	0.03016735	-0.0800425	-0.9034925	0.1346964
	-0.001177542	0.01428913	0.05326963	-0.002604759	-0.9034925	0.1346964	-0.04603713	-0.07744584
3.8e+08	0.02173549	-0.0813287	-0.8868507	0.2125306	-0.04170711	0.02111994	0.000147725	0.01515082
	-0.8868507	0.2125306	-0.04692144	-0.07462955	0.0001198175	0.01515628	0.05569752	-0.002301041
	-0.04170711	0.02111994	0.0001198175	0.01515628	0.02103863	-0.08064668	-0.8870829	0.2133645
	0.000147725	0.01515082	0.05569752	-0.002301041	-0.8870829	0.2133645	-0.04597848	-0.0745415
3.9e+08	0.01235991	-0.08068552	-0.8636796	0.2893271	-0.03947524	0.030401	0.001660815	0.01589302
	-0.8636796	0.2893271	-0.04640013	-0.07214406	0.001632654	0.0159048	0.05847152	-0.002455773
	-0.03947524	0.030401	0.001632654	0.0159048	0.01165862	-0.07988141	-0.8638263	0.2901951
	0.001660815	0.01589302	0.05847152	-0.002455773	-0.8638263	0.2901951	-0.04538685	-0.07210705
4e+08	0.002936521	-0.07860747	-0.8338583	0.3636922	-0.03590157	0.03936906	0.003352773	0.01647971
	-0.8338583	0.3636922	-0.04544022	-0.07019508	0.003325471	0.01649867	0.06150879	-0.003143004
	-0.03590157	0.03936906	0.003325471	0.01649867	0.002247713	-0.07767766	-0.8339118	0.3645854
	0.003352773	0.01647971	0.06150879	-0.003143004	-0.8339118	0.3645854	-0.04435965	-0.07022332
4.1e+08	-0.006300468	-0.0750609	-0.7976298	0.435047	-0.03103665	0.04782634	0.00520731	0.01687548
	-0.7976298	0.435047	-0.04414831	-0.06884523	0.005182483	0.01690181	0.06471365	-0.004420613
	-0.03103665	0.04782634	0.005182482	0.01690181	-0.006958613	-0.07400455	-0.7975871	0.4359567
	0.00520731	0.01687548	0.06471365	-0.004420613	-0.7975871	0.4359567	-0.04300684	-0.06895233
4.2e+08	-0.01510659	-0.07005194	-0.7552965	0.5028318	-0.02496054	0.0555843	0.007200748	0.01704698
	-0.7552965	0.5028318	-0.0426403	-0.06813901	0.007180459	0.01708017	0.06797978	-0.006329596
	-0.02496054	0.0555843	0.007180459	0.01708017	-0.01571557	-0.06887127	-0.755155	0.5037457
	0.007200748	0.01704698	0.06797978	-0.006329596	-0.755155	0.5037457	-0.04144656	-0.06833777
4.3e+08	-0.02323679	-0.06362882	-0.7072066	0.5665198	-0.01778056	0.06246741	0.009303456	0.01696312
	-0.7072066	0.5665198	-0.04103667	-0.0681003	0.009289483	0.01700279	0.07119463	-0.008890351
	-0.01778056	0.06246741	0.009289483	0.01700279	-0.02377848	-0.06232881	-0.7069644	0.5674277
	0.009303456	0.01696312	0.07119463	-0.008890351	-0.7069644	0.5674277	-0.03980224	-0.06840192
4.4e+08	-0.03045183	-0.05588171	-0.6537569	0.6256184	-0.00962979	0.06831729	0.0114788	0.016598
	-0.6537569	0.6256184	-0.03946007	-0.0687325	0.01147293	0.0166426	0.07424226	-0.01210347
	-0.00962979	0.06831729	0.01147293	0.0166426	-0.03090817	-0.0544705	-0.6534139	0.626508
	0.0114788	0.016598	0.07424226	-0.01210347	-0.6534139	0.626508	-0.03819814	-0.06914631
4.5e+08	-0.03652462	-0.04694284	-0.5953899	0.6796712	-0.0006640527	0.07299675	0.01368469	0.01593139
	-0.5953899	0.6796712	-0.03803149	-0.07001876	0.01368849	0.01597927	0.07700772	-0.01594843
	-0.0006640527	0.07299675	0.01368849	0.01597927	-0.03687881	-0.04543141	-0.5949474	0.680531
	0.01368469	0.01593139	0.07700772	-0.01594843	-0.5949474	0.680531	-0.03675715	-0.07055169
4.6e+08	-0.04124871	-0.03698353	-0.5325871	0.7282678	0.008941581	0.07639274	0.01587469	0.01494977
	-0.5325871	0.7282678	-0.03686675	-0.07192241	0.01588918	0.01499922	0.07938058	-0.02038476
	0.008941581	0.07639274	0.01588918	0.01499922	-0.04148587	-0.03538534	-0.5320465	0.729086
	0.01587469	0.01494977	0.07938058	-0.02038476	-0.5320465	0.729086	-0.03559641	-0.07257864
4.7e+08	-0.04444636	-0.02621099	-0.4658635	0.7710492	0.01899687	0.07841944	0.01799865	0.01364885
	-0.4658635	0.7710492	-0.03607333	-0.07438711	0.01802461	0.01369718	0.08125861	-0.02535224
	0.01899687	0.07841944	0.01802461	0.01369718	-0.04455255	-0.02454233	-0.4652295	0.7718124
	0.01799865	0.01364885	0.08125861	-0.02535224	-0.4652295	0.7718124	-0.034824	-0.07516835
4.8e+08	-0.04597136	-0.01486312	-0.3957633	0.8076989	0.02929995	0.07901985	0.02000557	0.01203187
	-0.3957633	0.8076989	-0.03574679	-0.07734108	0.0200429	0.01207692	0.08255117	-0.03077387
	0.02929995	0.07901985	0.0200429	0.01207692	-0.04593613	-0.01314284	-0.3950434	0.8083984
	0.02000557	0.01203187	0.08255117	-0.03077387	-0.3950434	0.8083984	-0.03453607	-0.07824552
4.9e+08	-0.04571703	-0.003204654	-0.3228615	0.8379584	0.03964285	0.07816804	0.02184395	0.01011274
	-0.3228615	0.8379584	-0.03596967	-0.08069713	0.02189236	0.01015142	0.08318194	-0.03655749
	0.03964285	0.07816804	0.02189236	0.01015142	-0.04553231	-0.00145285	-0.3220604	0.8385839
	0.02184395	0.01011274	0.08318194	-0.03655749	-0.3220604	0.8385839	-0.03481452	-0.0817203
5e+08	-0.043621	0.008482189	-0.2477428	0.8616278	0.04981562	0.0758687	0.02346463	0.00791309
	-0.2477428	0.8616278	-0.03680781	-0.08435634	0.02352311	0.007943312	0.08309175	-0.04259889
	0.04981562	0.0758687	0.02352311	0.007943311	-0.04328136	0.01024339	-0.2468721	0.8621676
	0.02346463	0.00791309	0.08309175	-0.04259889	-0.2468721	0.8621676	-0.03572447	-0.08549099
5.1e+08	-0.03966519	0.01990263	-0.1710112	0.8785552	0.05961083	0.07215802	0.02482241	0.005465047
	-0.1710112	0.8785552	-0.03830949	-0.08821134	0.02488926	0.005484374	0.08223988	-0.04878533
	0.05961083	0.07215802	0.02488926	0.005484374	-0.03916943	0.02165071	-0.1700805	0.8790038
	0.02482241	0.005465047	0.08223988	-0.04878533	-0.1700805	0.8790038	-0.03731265	-0.08944706
5.2e+08	-0.03388132	0.03075824	-0.09327708	0.8886516	0.06882991	0.06710256	0.02587755	0.002807378
	-0.09327708	0.8886516	-0.04050436	-0.0921485	0.02595064	0.002813393	0.08060576	-0.05499881
