!$
! Info: Touchstone file created by Circ.  Input file=Intel_C2M_200G_5p5in_202208016_staggered.circ
!$
# Hz S RI R 50
0	0.02143654	6.34307e-24	-8.306253e-05	1.017223e-20	0.0003275254	6.891409e-22	-7.876571e-05	9.646018e-21
	-8.306263e-05	1.017224e-20	0.02088275	3.386834e-24	-9.019001e-05	1.104509e-20	0.0001040186	2.726407e-22
	0.0003275929	6.896262e-22	-9.01901e-05	1.10451e-20	0.02143777	6.471802e-24	-8.308789e-05	1.017533e-20
	-7.87657e-05	9.646016e-21	0.0001040759	2.727658e-22	-8.30878e-05	1.017532e-20	0.0208807	3.209375e-24
1e+07	0.02631791	0.006716522	-0.0007100312	-6.783971e-05	0.001230656	0.005714624	-6.439473e-05	-0.0001043951
	-0.0007100312	-6.783971e-05	0.02535326	0.007133159	-0.0004780966	-2.709386e-05	0.001605096	0.005708241
	0.001230656	0.005714624	-0.0004780966	-2.709386e-05	0.02587293	0.006904803	-0.0003176158	-0.0001047897
	-6.439473e-05	-0.0001043951	0.001605096	0.005708241	-0.0003176158	-0.0001047897	0.02516298	0.007023286
2e+07	0.03193706	0.009344069	-0.0006510704	-0.0003019069	0.002749259	0.01089232	-9.36389e-05	-0.0001568185
	-0.0006510704	-0.0003019069	0.03006766	0.01044315	-0.0004959313	-0.0002400755	0.003441587	0.01063531
	0.002749349	0.01089221	-0.0004959313	-0.0002400755	0.03176051	0.009806212	-0.000327184	-0.0002161284
	-9.363888e-05	-0.0001568185	0.003441597	0.0106353	-0.000327184	-0.0002161284	0.02978047	0.01035073
3e+07	0.03710834	0.009571399	-0.0006432721	-0.0004311762	0.005070922	0.01565654	-0.0001355359	-0.0002111568
	-0.0006432721	-0.0004311762	0.03403274	0.01178112	-0.0005416966	-0.0003478125	0.006151481	0.01520768
	0.005070898	0.01565651	-0.0005416966	-0.0003478125	0.03715736	0.01010038	-0.0003684997	-0.0003117526
	-0.0001355359	-0.0002111568	0.006151456	0.01520772	-0.0003684998	-0.0003117526	0.03367427	0.01174646
4e+07	0.0422173	0.008540915	-0.0006674064	-0.000518003	0.008050302	0.01997199	-0.0001917003	-0.0002569095
	-0.0006674064	-0.000518003	0.03733082	0.01214895	-0.0006092139	-0.0004224673	0.009709476	0.01912844
	0.008050302	0.01997199	-0.0006092138	-0.0004224673	0.04245439	0.009064235	-0.0004305135	-0.0003810903
	-0.0001917003	-0.0002569095	0.009709474	0.01912846	-0.0004305135	-0.0003810903	0.03692873	0.01218483
5e+07	0.04720408	0.006339173	-0.0007137897	-0.000576892	0.01163059	0.02372445	-0.0002582014	-0.0002951317
	-0.0007137897	-0.000576892	0.0401149	0.01198009	-0.0006921627	-0.0004722813	0.01396546	0.0222952
	0.0116306	0.02372446	-0.0006921627	-0.0004722813	0.04759656	0.006810317	-0.0005078719	-0.0004284968
	-0.0002582014	-0.0002951316	0.01396546	0.02229521	-0.0005078719	-0.0004284968	0.03968791	0.0120937
6e+07	0.05193619	0.003094916	-0.0007753125	-0.0006120164	0.01570599	0.02683363	-0.0003317681	-0.0003211457
	-0.0007753125	-0.0006120164	0.04246545	0.01147494	-0.0007856394	-0.0005000467	0.01877923	0.02459781
	0.01570599	0.02683363	-0.0007856394	-0.0005000467	0.05245098	0.003480837	-0.0005957114	-0.00045472
	-0.0003317681	-0.0003211457	0.01877924	0.02459779	-0.0005957114	-0.00045472	0.04203007	0.0116704
7e+07	0.05631098	-0.001084853	-0.0008556841	-0.0006175693	0.02016167	0.02923991	-0.0004104465	-0.0003343908
	-0.0008556842	-0.0006175693	0.04444027	0.01078946	-0.0008853151	-0.0005071592	0.02398892	0.02595043
	0.02016168	0.02923991	-0.0008853152	-0.0005071592	0.05691286	-0.0008078775	-0.0006894736	-0.0004600083
	-0.0004104465	-0.0003343907	0.02398892	0.02595042	-0.0006894735	-0.0004600083	0.04401194	0.0110683
8e+07	0.06022907	-0.006111839	-0.0009483436	-0.0005908707	0.02487522	0.03090343	-0.0004922955	-0.00033459
	-0.0009483436	-0.0005908707	0.04611636	0.010048	-0.0009876933	-0.0004950033	0.02942102	0.02629589
	0.02487522	0.03090343	-0.0009876933	-0.0004950033	0.06088062	-0.005959419	-0.0007847974	-0.000444808
	-0.0004922955	-0.00033459	0.02942101	0.02629589	-0.0007847974	-0.000444808	0.04571011	0.01041037
9e+07	0.06359594	-0.01189233	-0.001033702	-0.0005411921	0.02972124	0.0318058	-0.00057541	-0.00032178
	-0.001033702	-0.0005411921	0.04759145	0.009339452	-0.001090607	-0.0004652296	0.03489576	0.02560627
	0.02972124	0.0318058	-0.001090607	-0.0004652296	0.06425648	-0.0118726	-0.0008799586	-0.0004070923
	-0.00057541	-0.00032178	0.03489576	0.02560628	-0.0008799586	-0.0004070922	0.04722222	0.009785474
1e+08	0.06639147	-0.01829277	-0.001097834	-0.0004638984	0.03457805	0.03194814	-0.0006577042	-0.0002965076
	-0.001097834	-0.0004638984	0.0490115	0.008748132	-0.001192813	-0.0004196424	0.04023396	0.02388113
	0.03457805	0.03194814	-0.001192813	-0.0004196424	0.06700436	-0.01841181	-0.0009714439	-0.0003416836
	-0.0006577042	-0.0002965076	0.04023395	0.02388112	-0.0009714439	-0.0003416836	0.04870113	0.009286751
1.1e+08	0.06852299	-0.02559121	-0.001165066	-0.0003580521	0.03930495	0.03134355	-0.0007356675	-0.0002607442
	-0.001165066	-0.0003580521	0.05048945	0.007982602	-0.0012859	-0.0003626758	0.04525216	0.02113667
	0.03930495	0.03134355	-0.0012859	-0.0003626758	0.06904227	-0.02574998	-0.001052632	-0.0002622396
	-0.0007356675	-0.0002607442	0.04525216	0.02113667	-0.001052632	-0.0002622396	0.05033172	0.008533464
1.2e+08	0.06956273	-0.0333847	-0.001236574	-0.000253198	0.04378653	0.03005661	-0.0008109599	-0.0002132399
	-0.001236574	-0.000253198	0.05184491	0.007237496	-0.001372087	-0.0002916975	0.04974255	0.01747566
	0.04378653	0.03005661	-0.001372087	-0.0002916975	0.07001849	-0.03356892	-0.001127118	-0.0001740364
	-0.0008109599	-0.0002132399	0.04974254	0.01747565	-0.001127118	-0.0001740364	0.05176458	0.007776872
1.3e+08	0.06955756	-0.04144675	-0.001301483	-0.0001418292	0.04792462	0.02815185	-0.000882989	-0.0001551519
	-0.001301483	-0.0001418292	0.05321734	0.006537604	-0.001451573	-0.0002088223	0.05356585	0.01299096
	0.04792462	0.02815185	-0.001451573	-0.0002088223	0.06995664	-0.04164923	-0.001191144	-7.675892e-05
	-0.000882989	-0.0001551519	0.05356585	0.01299096	-0.001191144	-7.675894e-05	0.053192	0.007073803
1.4e+08	0.06851332	-0.04960065	-0.001357061	-2.364302e-05	0.05163155	0.02570959	-0.0009493825	-8.654182e-05
	-0.001357061	-2.364302e-05	0.05468163	0.005849127	-0.001523898	-0.0001154194	0.05659042	0.007801842
	0.05163155	0.02570959	-0.001523898	-0.0001154194	0.06885753	-0.04981289	-0.001243635	2.771874e-05
	-0.0009493825	-8.654182e-05	0.05659042	0.007801841	-0.001243635	2.771872e-05	0.05470991	0.006383537
1.5e+08	0.0664497	-0.05768294	-0.001401975	0.0001006173	0.05483588	0.02282266	-0.001009193	-8.224861e-06
	-0.001401975	0.0001006173	0.0562897	0.005119697	-0.001588674	-1.248863e-05	0.05870272	0.002048638
	0.05483588	0.02282266	-0.001588674	-1.248863e-05	0.06674075	-0.05789552	-0.001284293	0.0001374259
	-0.001009193	-8.224861e-06	0.05870272	0.002048637	-0.001284293	0.0001374259	0.05637283	0.005645294
1.6e+08	0.0634046	-0.06554019	-0.001435553	0.0002298362	0.05748409	0.01959383	-0.001061587	7.89141e-05
	-0.001435553	0.0002298362	0.05807356	0.004284149	-0.00164556	9.9406e-05	0.05981247	-0.00411077
	0.05748409	0.01959383	-0.00164556	9.9406e-05	0.06364491	-0.06574357	-0.001313407	0.0002505038
	-0.001061587	7.89141e-05	0.05981247	-0.00411077	-0.001313407	0.0002505038	0.05821008	0.004789471
1.7e+08	0.05943477	-0.07303023	-0.001456945	0.0003625476	0.05954179	0.01613169	-0.001105907	0.00017407
	-0.001456945	0.0003625476	0.06004524	0.003268431	-0.001694664	0.0002476835	0.0598557	-0.01050521
	0.05954179	0.01613169	-0.001694664	0.0002476835	0.05962822	-0.07321505	-0.001331018	0.0003640153
	-0.001105907	0.00017407	0.0598557	-0.01050521	-0.001331018	0.0003640153	0.06022958	0.003741261
1.8e+08	0.05461552	-0.08002328	-0.001466917	0.000497999	0.06099488	0.01254767	-0.001141483	0.0002764835
	-0.001466917	0.000497999	0.06219593	0.001993666	-0.001730144	0.0004022873	0.05879698	-0.01695464
	0.06099488	0.01254767	-0.001730144	0.0004022873	0.05476676	-0.08018095	-0.001339252	0.0004780706
	-0.001141483	0.0002764835	0.05879698	-0.01695464	-0.001339252	0.0004780706	0.06241847	0.002423356
1.9e+08	0.04903799	-0.08640384	-0.001465685	0.000635452	0.06184928	0.008952923	-0.001167762	0.0003854535
	-0.001465685	0.000635452	0.06449494	0.0003806504	-0.001751871	0.000562389	0.05663101	-0.02327501
	0.06184928	0.008952923	-0.001751871	0.000562389	0.04915368	-0.0865268	-0.001339218	0.0005921368
	-0.001167762	0.0003854535	0.05663101	-0.02327501	-0.001339218	0.0005921368	0.06474318	0.0007594256
2e+08	0.04280898	-0.09207295	-0.001453436	0.0007738581	0.06213003	0.005453875	-0.001184181	0.0005002696
	-0.001453436	0.0007738581	0.06688944	-0.001644818	-0.001758409	0.0007352912	0.05338244	-0.02928321
	0.06213003	0.005453875	-0.001758409	0.0007352912	0.04289526	-0.09215427	-0.001331916	0.0007061368
	-0.001184181	0.0005002696	0.05338244	-0.02928321	-0.001331916	0.0007061368	0.06714992	-0.001321737
2.1e+08	0.03604625	-0.09695002	-0.001430559	0.000913409	0.06188131	0.00214969	-0.001190192	0.000620306
	-0.001430559	0.000913409	0.06930633	-0.004146524	-0.001749483	0.000911497	0.04910548	-0.03480174
	0.06188131	0.00214969	-0.001749483	0.000911497	0.03611153	-0.09698402	-0.00131837	0.0008205035
	-0.001190192	0.000620306	0.04910548	-0.03480174	-0.00131837	0.0008205035	0.06956458	-0.003880752
2.2e+08	0.02887804	-0.100974	-0.001397052	0.001053994	0.06116346	-0.0008711483	-0.001185191	0.0007449377
	-0.001397052	0.001053994	0.07165374	-0.007174098	-0.001724828	0.001090184	0.04388247	-0.03966355
	0.06116346	-0.0008711483	-0.001724828	0.001090184	0.02893063	-0.100956	-0.001299122	0.0009360218
	-0.001185191	0.0007449377	0.04388247	-0.03966355	-0.001299122	0.0009360218	0.07189583	-0.006963957
2.3e+08	0.02143876	-0.1041043	-0.00135272	0.001195525	0.06005143	-0.00353371	-0.001168545	0.0008735107
	-0.00135272	0.001195525	0.0738251	-0.01075814	-0.00168417	0.001270405	0.03782199	-0.04371659
	0.06005143	-0.00353371	-0.00168417	0.001270405	0.02148774	-0.1040309	-0.001274308	0.001053702
	-0.001168545	0.0008735107	0.03782199	-0.04371659	-0.001274308	0.001053702	0.07403809	-0.01059973
2.4e+08	0.01386583	-0.1063225	-0.001297036	0.001338033	0.05863221	-0.005778526	-0.00113955	0.001005315
	-0.001297036	0.001338033	0.0757028	-0.01490699	-0.001627136	0.001451257	0.03105608	-0.04682727
	0.05863221	-0.005778526	-0.001627136	0.001451257	0.01392114	-0.1061916	-0.001243509	0.001174681
	-0.00113955	0.001005315	0.03105608	-0.04682727	-0.001243509	0.001174681	0.07587455	-0.01479394
2.5e+08	0.006297398	-0.1076315	-0.00122928	0.001481342	0.05700144	-0.007563826	-0.001097377	0.00113958
	-0.00122928	0.001481342	0.07716284	-0.01960409	-0.001553264	0.00163175	0.02373678	-0.04888418
	0.05700144	-0.007563826	-0.001553264	0.00163175	0.006369102	-0.1074417	-0.001205816	0.001300063
	-0.001097377	0.00113958	0.02373678	-0.04888418	-0.001205816	0.001300063	0.07728303	-0.01952847
2.6e+08	-0.001132641	-0.108055	-0.001148425	0.001625111	0.05526026	-0.008866723	-0.001041232	0.001275362
	-0.001148425	0.001625111	0.07808025	-0.02480685	-0.001462085	0.001810827	0.0160326	-0.04980129
	0.05526026	-0.008866723	-0.001462085	0.001810827	-0.001033631	-0.1078071	-0.001159729	0.00143075
	-0.001041232	0.001275362	0.0160326	-0.04980129	-0.001159729	0.00143075	0.07813974	-0.02475904
2.7e+08	-0.008295928	-0.1076373	-0.001053249	0.001768718	0.0535119	-0.009683403	-0.0009701576	0.001411587
	-0.001053249	0.001768718	0.0783343	-0.03044605	-0.001353165	0.001987242	0.008124357	-0.04951927
	0.0535119	-0.009683403	-0.001353165	0.001987242	-0.008158989	-0.1073336	-0.001103251	0.00156729
	-0.0009701576	0.001411587	0.008124356	-0.04951927	-0.001103251	0.00156729	0.07832568	-0.03041516
2.8e+08	-0.01507388	-0.1064422	-0.0009424105	0.001911174	0.05185824	-0.01002992	-0.0008832985	0.001546901
	-0.0009424105	0.001911174	0.07781397	-0.03642582	-0.001225942	0.002159694	0.0002006058	-0.04800789
	0.05185824	-0.01002992	-0.001225942	0.002159694	-0.01488834	-0.1060862	-0.001034016	0.001709715
	-0.0008832985	0.001546901	0.0002006056	-0.04800789	-0.001034016	0.001709715	0.07773194	-0.03640017
2.9e+08	-0.02136047	-0.1045504	-0.0008145578	0.00205102	0.05039606	-0.009940856	-0.0007798083	0.001679739
	-0.0008145578	0.00205102	0.07642356	-0.04262616	-0.001079927	0.002326695	-0.007546732	-0.04526669
	0.05039606	-0.009940856	-0.001079927	0.002326695	-0.02111577	-0.1041477	-0.0009492888	0.001857455
	-0.0007798083	0.001679739	-0.007546732	-0.04526669	-0.0009492888	0.001857455	0.07626423	-0.04259311
3e+08	-0.02706398	-0.1020578	-0.0006683964	0.002186358	0.04921381	-0.00946897	-0.0006589456	0.001808277
	-0.0006683964	0.002186358	0.07408753	-0.0489052	-0.0009147173	0.002486548	-0.01492692	-0.04132465
	0.04921381	-0.00946897	-0.0009147173	0.002486548	-0.0267501	-0.1016154	-0.0008462458	0.002009178
	-0.0006589456	0.001808277	-0.01492692	-0.04132465	-0.0008462458	0.002009178	0.07384892	-0.04885175
3.1e+08	-0.03210985	-0.09907299	-0.0005028654	0.002314843	0.04838894	-0.008682337	-0.0005200826	0.001930396
	-0.0005028654	0.002314843	0.070755	-0.05510307	-0.0007298935	0.002637358	-0.02175527	-0.03624036
	0.04838894	-0.008682337	-0.0007298935	0.002637358	-0.03171768	-0.09859985	-0.0007221838	0.00216278
	-0.0005200826	0.001930396	-0.02175527	-0.03624036	-0.0007221838	0.00216278	0.07043674	-0.05501549
3.2e+08	-0.03644193	-0.09571448	-0.000317207	0.002433654	0.04798461	-0.007663298	-0.0003629595	0.002043692
	-0.000317207	0.002433654	0.06640323	-0.06104598	-0.0005253501	0.002777007	-0.02785737	-0.03010039
	0.04798461	-0.007663298	-0.0005253501	0.002777007	-0.03596397	-0.09522113	-0.0005745448	0.002315348
	-0.0003629595	0.002043692	-0.02785737	-0.03010039	-0.0005745448	0.002315348	0.06600775	-0.06091067
3.3e+08	-0.04002428	-0.09210711	-0.0001110857	0.002539609	0.04804735	-0.006504829	-0.0001875452	0.002145531
	-0.0001110857	0.002539609	0.06104104	-0.06655203	-0.0003009419	0.002903172	-0.0330729	-0.02301733
	0.04804735	-0.006504829	-0.0003009419	0.002903172	-0.03945378	-0.09160566	-0.0004012313	0.002463224
	-0.0001875452	0.002145531	-0.0330729	-0.02301733	-0.0004012313	0.002463224	0.06057243	-0.06635518
3.4e+08	-0.04284126	-0.0883798	0.0001166612	0.002629376	0.04860611	-0.005307685	5.710923e-06	0.002233145
	0.0001166612	0.002629376	0.05471081	-0.07143649	-5.703155e-05	0.003013255	-0.03726033	-0.01512763
	0.04860611	-0.005307685	-5.703155e-05	0.003013255	-0.04217408	-0.08788326	-0.0002007791	0.002602065
	5.710923e-06	0.002233145	-0.03726033	-0.01512763	-0.0002007791	0.002602065	0.05417547	-0.07116521
3.5e+08	-0.04489903	-0.08466091	0.0003635205	0.002698847	0.04967008	-0.004177442	0.0002160047	0.002303531
	0.0003635205	0.002698847	0.04748893	-0.07551851	0.000205857	0.0031046	-0.04029929	-0.006588386
	0.04967008	-0.004177442	0.000205857	0.0031046	-0.04413193	-0.08418398	2.739193e-05	0.00272695
	0.0002160047	0.002303531	-0.04029929	-0.006588386	2.739193e-05	0.00272695	0.04689516	-0.07516003
3.6e+08	-0.04622377	-0.08107639	0.000627792	0.00274436	0.05122849	-0.00322012	0.0004419446	0.002353714
	0.000627792	0.00274436	0.03948565	-0.078627	0.000486892	0.003174262	-0.04209429	0.002425885
	0.05122849	-0.00322012	0.000486892	0.003174262	-0.04535633	-0.08063361	0.0002829422	0.002832611
	0.0004419446	0.002353714	-0.04209429	0.002425885	0.0002829422	0.002832611	0.03884422	-0.07817006
3.7e+08	-0.04686184	-0.07774468	0.000907059	0.002762309	0.05325091	-0.002538982	0.0006816724	0.002380731
	0.000907059	0.002762309	0.03084374	-0.08060777	0.0007847131	0.003219228	-0.04257693	0.01172763
	0.05325091	-0.002538982	0.0007847131	0.003219228	-0.04589616	-0.07735142	0.0005645475	0.002913556
	0.0006816724	0.002380731	-0.04257693	0.01172763	0.0005645475	0.002913556	0.03016735	-0.0800425
3.8e+08	-0.04687822	-0.07477468	0.001198074	0.002749438	0.05568761	-0.002231056	0.000932619	0.002381833
	0.001198074	0.002749438	0.02173549	-0.0813287	0.001097379	0.003236466	-0.04170711	0.02111994
	0.05568761	-0.002231056	0.001097379	0.003236466	-0.04581823	-0.07444655	0.0008696174	0.002964375
	0.000932619	0.002381833	-0.04170711	0.02111994	0.0008696174	0.002964375	0.02103863	-0.08064668
3.9e+08	-0.04635478	-0.07226352	0.001496937	0.002702924	0.05847115	-0.002383476	0.001191757	0.002354525
	0.001496937	0.002702924	0.01235991	-0.08068552	0.001422485	0.003222992	-0.03947524	0.030401
	0.05847115	-0.002383476	0.001422485	0.003222992	-0.0452077	-0.07201475	0.001194493	0.00297997
	0.001191757	0.002354525	-0.03947524	0.030401	0.001194493	0.00297997	0.01165862	-0.07988141
4e+08	-0.04538794	-0.0702923	0.001799122	0.002620549	0.0615183	-0.003070413	0.001455487	0.002296736
	0.001799122	0.002620549	0.002936521	-0.07860747	0.001757103	0.003175893	-0.03590157	0.03936906
	0.0615183	-0.003070413	0.001757103	0.003175893	-0.04416251	-0.07013678	0.001534456	0.002955728
	0.001455487	0.002296736	-0.03590157	0.03936906	0.001534456	0.002955728	0.002247713	-0.07767766
4.1e+08	-0.04408527	-0.06892438	0.002099619	0.002500824	0.06473293	-0.004349768	0.00171978	0.002206937
	0.002099619	0.002500824	-0.006300468	-0.0750609	0.002097525	0.003092711	-0.03103665	0.04782634
	0.06473293	-0.004349768	0.002097525	0.003092711	-0.04279313	-0.06887448	0.001883679	0.002887955
	0.00171978	0.002206937	-0.03103665	0.04782634	0.001883679	0.002887955	-0.006958613	-0.07400455
4.2e+08	-0.0425638	-0.0682048	0.002393038	0.002343149	0.06800828	-0.00626246	0.001980227	0.002084268
	0.002393038	0.002343149	-0.01510659	-0.07005194	0.002439721	0.002971163	-0.02496054	0.0555843
	0.06800828	-0.00626246	0.002439721	0.002971163	-0.04121822	-0.06827126	0.002235635	0.002773858
	0.001980227	0.002084268	-0.02496054	0.0555843	0.002235635	0.002773858	-0.01571557	-0.06887127
4.3e+08	-0.04094517	-0.0681577	0.002673846	0.002147825	0.07123144	-0.008828765	0.002232249	0.001928426
	0.002673846	0.002147825	-0.02323679	-0.06362882	0.0027789	0.002809725	-0.01778056	0.06246741
	0.07123144	-0.008828765	0.0027789	0.002809725	-0.03956171	-0.06834904	0.002583186	0.002611806
	0.002232249	0.001928426	-0.01778056	0.06246741	0.002583186	0.002611806	-0.02377848	-0.06232881
4.4e+08	-0.03935315	-0.06878649	0.002936488	0.001916133	0.07428605	-0.01204896	0.002471067	0.00174003
	0.002936488	0.001916133	-0.03045183	-0.05588171	0.003109992	0.002607334	-0.00962979	0.06831729
	0.07428605	-0.01204896	0.003109992	0.002607334	-0.0379482	-0.06910889	0.002918695	0.002401631
	0.002471067	0.00174003	-0.00962979	0.06831729	0.002918695	0.002401631	-0.03090817	-0.0544705
4.5e+08	-0.03790987	-0.07007416	0.003175661	0.001650302	0.07705692	-0.01590231	0.002691979	0.001520485
	0.003175661	0.001650302	-0.03652462	-0.04694284	0.003427581	0.002363689	-0.0006640527	0.07299675
	0.07705692	-0.01590231	0.003427581	0.002363689	-0.03650089	-0.07053101	0.003234556	0.002144469
	0.002691979	0.001520485	-0.0006640527	0.07299675	0.003234556	0.002144469	-0.03687881	-0.04543141
4.6e+08	-0.03673219	-0.07198363	0.003386388	0.001353543	0.07943331	-0.02034791	0.002890513	0.001271888
	0.003386388	0.001353543	-0.04124871	-0.03698353	0.003725902	0.002079526	0.008941581	0.07639274
	0.07943331	-0.02034791	0.003725902	0.002079526	-0.03533715	-0.07257538	0.003523357	0.0018427
	0.002890513	0.001271888	0.008941581	0.07639274	0.003523357	0.0018427	-0.04148587	-0.03538534
4.7e+08	-0.03592844	-0.07445794	0.003564353	0.001029735	0.08131291	-0.02532518	0.003062516	0.0009971734
	0.003564353	0.001029735	-0.04444636	-0.02621099	0.003999221	0.001756364	0.01899687	0.07841944
	0.08131291	-0.02532518	0.003999221	0.001756364	-0.03456514	-0.07518261	0.003778106	0.001500324
	0.003062516	0.0009971734	0.01899687	0.07841944	0.003778106	0.001500324	-0.04455255	-0.02454233
4.8e+08	-0.03559497	-0.07742459	0.003705939	0.0006835167	0.08260496	-0.03075665	0.003204357	0.0006998353
	0.003705939	0.0006835167	-0.04597136	-0.01486312	0.004242013	0.001396512	0.02929995	0.07901985
	0.08260496	-0.03075665	0.004242013	0.001396512	-0.03428094	-0.07827672	0.0039926	0.001122337
	0.003204357	0.0006998353	0.02929995	0.07901985	0.0039926	0.001122337	-0.04593613	-0.01314284
4.9e+08	-0.0358149	-0.08079548	0.003808333	0.0003201176	0.08323318	-0.03654975	0.003313021	0.0003839688
	0.003808333	0.0003201176	-0.04571703	-0.003204654	0.004448887	0.001003486	0.03964285	0.07816804
	0.08323318	-0.03654975	0.004448887	0.001003486	-0.03456635	-0.08176723	0.004161609	0.000714866
