!$
! Info: Touchstone file created by Circ.  Input file=Intel_C2M_200G_5p5in_202208016_staggered.circ
!$
# Hz S RI R 50
0	0.02086969	3.206306e-24	6.141115e-05	8.243381e-23	0.000104401	2.744846e-22	6.134546e-05	8.228112e-23
	6.141115e-05	8.243382e-23	0.02088275	3.386834e-24	6.139405e-05	8.238572e-23	0.0001040186	2.726407e-22
	0.0001044584	2.746108e-22	6.139404e-05	8.238692e-23	0.02086456	3.069024e-24	6.135849e-05	8.223588e-23
	6.134545e-05	8.228232e-23	0.0001040759	2.727658e-22	6.135849e-05	8.223588e-23	0.0208807	3.209375e-24
1e+07	0.02545882	0.007089424	5.314401e-05	8.755754e-06	0.001326596	0.005618714	6.291521e-06	4.168725e-05
	5.314401e-05	8.755754e-06	0.02535326	0.007133159	5.22907e-05	3.554748e-05	0.001605096	0.005708241
	0.001326596	0.005618714	5.22907e-05	3.554748e-05	0.02591761	0.006996932	2.921202e-05	2.545833e-05
	6.291521e-06	4.168725e-05	0.001605096	0.005708241	2.921202e-05	2.545833e-05	0.02516298	0.007023286
2e+07	0.03009488	0.01032756	4.032e-05	1.986903e-05	0.00317809	0.01057211	3.055134e-05	4.466351e-05
	4.032e-05	1.986903e-05	0.03006766	0.01044315	6.302261e-05	2.990261e-05	0.003441587	0.01063531
	0.003178099	0.0105721	6.302261e-05	2.990261e-05	0.03032946	0.01003179	3.11565e-05	1.342029e-05
	3.055134e-05	4.466351e-05	0.003441597	0.0106353	3.11565e-05	1.342029e-05	0.02978047	0.01035073
3e+07	0.03399568	0.01165048	3.684825e-05	2.811176e-05	0.005898165	0.01512958	4.956657e-05	4.280827e-05
	3.684825e-05	2.811176e-05	0.03403274	0.01178112	7.240203e-05	2.715539e-05	0.006151481	0.01520768
	0.00589814	0.01512962	7.240202e-05	2.715539e-05	0.03405595	0.01134217	3.301472e-05	9.362204e-06
	4.956658e-05	4.280827e-05	0.006151456	0.01520772	3.301472e-05	9.362202e-06	0.03367427	0.01174646
4e+07	0.03723529	0.01202032	3.407672e-05	3.106142e-05	0.009465119	0.01902982	6.524361e-05	3.750098e-05
	3.407672e-05	3.106142e-05	0.03733082	0.01214895	8.034669e-05	2.234607e-05	0.009709476	0.01912844
	0.009465117	0.01902984	8.034669e-05	2.234607e-05	0.03716257	0.0117524	3.444806e-05	6.043085e-06
	6.524361e-05	3.750098e-05	0.009709474	0.01912846	3.444806e-05	6.043084e-06	0.03692873	0.01218483
5e+07	0.03996326	0.01186475	3.129119e-05	3.145991e-05	0.01373039	0.02217499	7.833082e-05	2.960995e-05
	3.129119e-05	3.145991e-05	0.0401149	0.01198009	9.012304e-05	1.267447e-05	0.01396546	0.0222952
	0.01373039	0.022175	9.012304e-05	1.267447e-05	0.03978777	0.01166706	3.647803e-05	1.683025e-06
	7.833082e-05	2.960995e-05	0.01396546	0.02229521	3.647803e-05	1.683025e-06	0.03968791	0.0120937
6e+07	0.04225852	0.01138286	2.808095e-05	3.043308e-05	0.01855497	0.02445635	8.885487e-05	1.943233e-05
	2.808095e-05	3.043308e-05	0.04246545	0.01147494	9.71444e-05	1.200072e-06	0.01877923	0.02459781
	0.01855499	0.02445633	9.71444e-05	1.200072e-06	0.04200764	0.01127474	3.754295e-05	-2.914459e-06
	8.885487e-05	1.943233e-05	0.01877924	0.02459779	3.754295e-05	-2.914458e-06	0.04203007	0.0116704
7e+07	0.04417831	0.01073101	3.274957e-05	2.462357e-05	0.0237781	0.0257884	9.666438e-05	7.242526e-06
	3.274957e-05	2.462357e-05	0.04444027	0.01078946	0.0001010806	-1.180292e-05	0.02398892	0.02595043
	0.0237781	0.02578839	0.0001010806	-1.180292e-05	0.04387812	0.01072475	3.754809e-05	-7.571648e-06
	9.666438e-05	7.242525e-06	0.02398892	0.02595042	3.754809e-05	-7.571648e-06	0.04401194	0.0110683
8e+07	0.0457999	0.01003504	3.755009e-05	1.669288e-05	0.0292273	0.02611381	0.0001017988	-6.55411e-06
	3.755009e-05	1.669288e-05	0.04611636	0.010048	0.0001020257	-2.567971e-05	0.02942102	0.02629589
	0.02922729	0.02611382	0.0001020257	-2.567971e-05	0.04547603	0.01013845	3.654368e-05	-1.21114e-05
	0.0001017988	-6.55411e-06	0.02942101	0.02629589	3.654368e-05	-1.21114e-05	0.04571011	0.01041037
9e+07	0.04722205	0.009386755	3.983956e-05	8.029046e-06	0.03472372	0.0254039	0.0001040383	-2.189654e-05
	3.983955e-05	8.029046e-06	0.04759145	0.009339452	9.982848e-05	-4.008539e-05	0.03489576	0.02560627
	0.03472372	0.02540391	9.982848e-05	-4.008539e-05	0.04690066	0.009605546	3.452104e-05	-1.637939e-05
	0.0001040383	-2.189654e-05	0.03489576	0.02560628	3.452104e-05	-1.637939e-05	0.04722222	0.009785474
1e+08	0.0485943	0.008881794	3.851602e-05	-1.682786e-06	0.04008904	0.02365646	0.0001017985	-4.044369e-05
	3.851602e-05	-1.682786e-06	0.0490115	0.008748132	9.310676e-05	-5.579409e-05	0.04023396	0.02388113
	0.04008904	0.02365646	9.310676e-05	-5.579409e-05	0.04831299	0.009231121	3.315124e-05	-1.743767e-05
	0.0001017985	-4.044369e-05	0.04023395	0.02388112	3.315124e-05	-1.743767e-05	0.04870113	0.009286751
1.1e+08	0.0500695	0.008203547	3.313426e-05	-6.140474e-06	0.04513622	0.02088681	9.076542e-05	-5.203006e-05
	3.313426e-05	-6.140474e-06	0.05048945	0.007982602	8.798277e-05	-5.461852e-05	0.04525216	0.02113667
	0.04513622	0.02088681	8.798277e-05	-5.461852e-05	0.04993926	0.008581044	3.196374e-05	-1.591682e-05
	9.076542e-05	-5.203006e-05	0.04525216	0.02113667	3.196374e-05	-1.591682e-05	0.05033172	0.008533464
1.2e+08	0.05142548	0.007533588	2.986324e-05	-8.574962e-06	0.04966022	0.01719983	8.402817e-05	-5.722126e-05
	2.986324e-05	-8.574962e-06	0.05184491	0.007237496	8.436099e-05	-5.302703e-05	0.04974255	0.01747566
	0.04966022	0.01719982	8.436099e-05	-5.302703e-05	0.05136253	0.007908114	3.099327e-05	-1.5257e-05
	8.402817e-05	-5.722126e-05	0.04974254	0.01747565	3.099327e-05	-1.5257e-05	0.05176458	0.007776872
1.3e+08	0.05280309	0.006906496	2.79641e-05	-1.082791e-05	0.05352242	0.0126866	8.313092e-05	-5.60623e-05
	2.79641e-05	-1.082791e-05	0.05321734	0.006537604	8.082867e-05	-5.212153e-05	0.05356585	0.01299096
	0.05352242	0.0126866	8.082867e-05	-5.212153e-05	0.05278107	0.007284358	3.018858e-05	-1.52136e-05
	8.313092e-05	-5.60623e-05	0.05356585	0.01299096	3.018858e-05	-1.52136e-05	0.053192	0.007073803
1.4e+08	0.05427781	0.00629005	2.703802e-05	-1.306424e-05	0.0565913	0.007465061	8.199371e-05	-5.59294e-05
	2.703802e-05	-1.306424e-05	0.05468163	0.005849127	7.744979e-05	-5.161307e-05	0.05659042	0.007801842
	0.0565913	0.007465059	7.744979e-05	-5.161307e-05	0.05429228	0.006672387	2.948592e-05	-1.531152e-05
	8.199371e-05	-5.59294e-05	0.05659042	0.007801841	2.948592e-05	-1.531152e-05	0.05470991	0.006383537
1.5e+08	0.05590197	0.005632291	2.623358e-05	-1.518603e-05	0.05875307	0.001674196	8.066816e-05	-5.656166e-05
	2.623358e-05	-1.518603e-05	0.0562897	0.005119697	7.423485e-05	-5.139199e-05	0.05870272	0.002048638
	0.05875307	0.001674195	7.423485e-05	-5.139199e-05	0.05595165	0.006012916	2.887908e-05	-1.555546e-05
	8.066816e-05	-5.656166e-05	0.05870272	0.002048637	2.887908e-05	-1.555546e-05	0.05637283	0.005645294
1.6e+08	0.05770789	0.00486807	2.550396e-05	-1.730672e-05	0.05991696	-0.004529427	7.914791e-05	-5.78187e-05
	2.550396e-05	-1.730672e-05	0.05807356	0.004284149	7.116125e-05	-5.141798e-05	0.05981247	-0.00411077
	0.05991696	-0.004529427	7.116125e-05	-5.141798e-05	0.05778928	0.00523717	2.834702e-05	-1.595839e-05
	7.914791e-05	-5.78187e-05	0.05981247	-0.00411077	2.834702e-05	-1.595839e-05	0.05821008	0.004789471
1.7e+08	0.0597081	0.003923018	2.479169e-05	-1.951004e-05	0.06001819	-0.01097592	7.739906e-05	-5.961001e-05
	2.479169e-05	-1.951004e-05	0.06004524	0.003268431	6.836189e-05	-5.20226e-05	0.0598557	-0.01050521
	0.06001819	-0.01097592	6.836189e-05	-5.20226e-05	0.05981381	0.004270785	2.789727e-05	-1.663393e-05
	7.739906e-05	-5.961001e-05	0.0598557	-0.01050521	2.789727e-05	-1.663393e-05	0.06022958	0.003741261
1.8e+08	0.06189409	0.002717887	2.403309e-05	-2.185731e-05	0.05902025	-0.01748645	7.536932e-05	-6.186634e-05
	2.403309e-05	-2.185731e-05	0.06219593	0.001993666	6.558539e-05	-5.311485e-05	0.05879698	-0.01695464
	0.05902025	-0.01748645	6.558539e-05	-5.311485e-05	0.06201341	0.003036592	2.747545e-05	-1.765806e-05
	7.536932e-05	-6.186634e-05	0.05879698	-0.01695464	2.747545e-05	-1.765806e-05	0.06241847	0.002423356
1.9e+08	0.0642355	0.001172925	2.316141e-05	-2.438663e-05	0.0569164	-0.02387789	7.30014e-05	-6.452458e-05
	2.316141e-05	-2.438663e-05	0.06449494	0.0003806504	6.262356e-05	-5.440907e-05	0.05663101	-0.02327501
	0.0569164	-0.02387789	6.262356e-05	-5.440907e-05	0.0643555	0.001458116	2.694325e-05	-1.887465e-05
	7.30014e-05	-6.452458e-05	0.05663101	-0.02327501	2.694325e-05	-1.887465e-05	0.06474318	0.0007594256
2e+08	0.06667983	-0.0007867859	2.209859e-05	-2.712068e-05	0.05372973	-0.02996801	7.023019e-05	-6.75222e-05
	2.209859e-05	-2.712068e-05	0.06688944	-0.001644818	5.944473e-05	-5.587199e-05	0.05338244	-0.02928321
	0.05372973	-0.02996801	5.944473e-05	-5.587199e-05	0.06678728	-0.0005362589	2.626481e-05	-2.027854e-05
	7.023019e-05	-6.75222e-05	0.05338244	-0.02928321	2.626481e-05	-2.027854e-05	0.06714992	-0.001321737
2.1e+08	0.06915427	-0.003225804	2.076013e-05	-3.006256e-05	0.04951257	-0.03557978	6.698823e-05	-7.079072e-05
	2.076013e-05	-3.006256e-05	0.06930633	-0.004146524	5.600551e-05	-5.746998e-05	0.04910548	-0.03480174
	0.04951257	-0.03557978	5.600551e-05	-5.746998e-05	0.06923566	-0.003007849	2.539962e-05	-2.185988e-05
	6.698823e-05	-7.079072e-05	0.04910548	-0.03480174	2.539962e-05	-2.185988e-05	0.06956458	-0.003880752
2.2e+08	0.0715672	-0.006194764	1.905954e-05	-3.319508e-05	0.04434528	-0.04054629	6.321022e-05	-7.425255e-05
	1.905954e-05	-3.319508e-05	0.07165374	-0.007174098	5.226386e-05	-5.916209e-05	0.04388247	-0.03966355
	0.04434528	-0.04054629	5.226386e-05	-5.916209e-05	0.07161031	-0.006003986	2.43038e-05	-2.360213e-05
	6.321023e-05	-7.425255e-05	0.04388247	-0.03966355	2.43038e-05	-2.360213e-05	0.07189583	-0.006963957
2.3e+08	0.07381215	-0.009725381	1.767011e-05	-3.635254e-05	0.03833433	-0.0447154	5.876651e-05	-7.783861e-05
	1.767011e-05	-3.635254e-05	0.0738251	-0.01075814	4.810765e-05	-6.09203e-05	0.03782199	-0.04371659
	0.03833433	-0.0447154	4.810765e-05	-6.09203e-05	0.0738065	-0.009554344	2.293675e-05	-2.547837e-05
	5.876651e-05	-7.783861e-05	0.03782199	-0.04371659	2.293675e-05	-2.547837e-05	0.07403809	-0.01059973
2.4e+08	0.07577153	-0.01382731	1.57046e-05	-3.970894e-05	0.03160958	-0.04795292	5.366815e-05	-8.141274e-05
	1.57046e-05	-3.970894e-05	0.0757028	-0.01490699	4.355965e-05	-6.265186e-05	0.03105608	-0.04682727
	0.03160958	-0.04795293	4.355965e-05	-6.265186e-05	0.07570815	-0.01366643	2.124899e-05	-2.745859e-05
	5.366815e-05	-8.141274e-05	0.03105608	-0.04682727	2.124899e-05	-2.745859e-05	0.07587455	-0.01479394
2.5e+08	0.0773211	-0.01848544	1.302883e-05	-4.317792e-05	0.02432095	-0.05014649	4.788227e-05	-8.48624e-05
	1.302883e-05	-4.317792e-05	0.07716284	-0.01960409	3.859191e-05	-6.429034e-05	0.02373678	-0.04888418
	0.02432095	-0.05014649	3.859191e-05	-6.429034e-05	0.07719348	-0.01832405	1.919724e-05	-2.94988e-05
	4.788227e-05	-8.48624e-05	0.02373678	-0.04888418	1.919724e-05	-2.94988e-05	0.07728303	-0.01952847
2.6e+08	0.07833542	-0.02365875	9.582684e-06	-4.664095e-05	0.01663496	-0.05120871	4.138538e-05	-8.806696e-05
	9.582684e-06	-4.664095e-05	0.07808025	-0.02480685	3.317913e-05	-6.576276e-05	0.0160326	-0.04980129
	0.01663496	-0.05120871	3.317913e-05	-6.576276e-05	0.07813884	-0.02348509	1.674193e-05	-3.15456e-05
	4.138538e-05	-8.806696e-05	0.0160326	-0.04980129	1.674193e-05	-3.15456e-05	0.07813974	-0.02475904
2.7e+08	0.07869301	-0.02927964	5.322368e-06	-4.996441e-05	0.008730536	-0.05107846	3.416995e-05	-9.089771e-05
	5.322368e-06	-4.996441e-05	0.0783343	-0.03044605	2.730415e-05	-6.698801e-05	0.008124357	-0.04951927
	0.008730535	-0.05107846	2.730415e-05	-6.698801e-05	0.07842491	-0.02908146	1.384881e-05	-3.35359e-05
	3.416995e-05	-9.089771e-05	0.008124356	-0.04951927	1.384881e-05	-3.35359e-05	0.07832568	-0.03041516
2.8e+08	0.07828175	-0.03525392	2.270628e-07	-5.300036e-05	0.0007946723	-0.04972335	2.62489e-05	-9.321914e-05
	2.270628e-07	-5.300036e-05	0.07781397	-0.03642582	2.096009e-05	-6.787812e-05	0.0002006058	-0.04800789
	0.0007946722	-0.04972335	2.096009e-05	-6.787812e-05	0.07794201	-0.03501897	1.049358e-05	-3.539656e-05
	2.62489e-05	-9.321914e-05	0.0002006056	-0.04800789	1.049358e-05	-3.539656e-05	0.07773194	-0.03640017
2.9e+08	0.07700442	-0.04146325	-5.700455e-06	-5.559136e-05	-0.00698193	-0.04714041	1.765713e-05	-9.489276e-05
	-5.700455e-06	-5.559136e-05	0.07642356	-0.04262616	1.415467e-05	-6.833872e-05	-0.007546732	-0.04526669
	-0.00698193	-0.04714041	1.415467e-05	-6.833872e-05	0.07659449	-0.04117921	6.661418e-06	-3.704636e-05
	1.765713e-05	-9.489276e-05	-0.007546732	-0.04526669	6.661418e-06	-3.704636e-05	0.07626423	-0.04259311
3e+08	0.07478361	-0.04776722	-1.243251e-05	-5.75745e-05	-0.01440938	-0.04335589	8.451503e-06	-9.577964e-05
	-1.243251e-05	-5.75745e-05	0.07408753	-0.0489052	6.91083e-06	-6.827168e-05	-0.01492692	-0.04132465
	-0.01440938	-0.04335589	6.91083e-06	-6.827168e-05	0.07430683	-0.04742235	2.350112e-06	-3.839685e-05
	8.451503e-06	-9.577964e-05	-0.01492692	-0.04132465	2.350112e-06	-3.839685e-05	0.07384892	-0.04885175
3.1e+08	0.07156611	-0.05400726	-1.990756e-05	-5.878583e-05	-0.02130329	-0.03842537	-1.286404e-06	-9.574529e-05
	-1.990756e-05	-5.878583e-05	0.070755	-0.05510307	-7.354047e-07	-6.757635e-05	-0.02175527	-0.03624036
	-0.0213033	-0.03842537	-7.354047e-07	-6.757635e-05	0.07102727	-0.05359004	-2.42704e-06	-3.935451e-05
	-1.286404e-06	-9.574529e-05	-0.02175527	-0.03624036	-2.42704e-06	-3.935451e-05	0.07043674	-0.05501549
3.2e+08	0.06732651	-0.06001051	-2.803888e-05	-5.906522e-05	-0.02748913	-0.03243234	-1.144989e-05	-9.466299e-05
	-2.803888e-05	-5.906522e-05	0.06640323	-0.06104598	-8.726277e-06	-6.615325e-05	-0.02785737	-0.03010039
	-0.02748913	-0.03243234	-8.726277e-06	-6.615325e-05	0.06673281	-0.05951045	-7.642761e-06	-3.982235e-05
	-1.144989e-05	-9.466299e-05	-0.02785737	-0.03010039	-7.642761e-06	-3.982235e-05	0.06600775	-0.06091067
3.3e+08	0.06207055	-0.06559561	-3.670689e-05	-5.826257e-05	-0.03280585	-0.02548631	-2.190996e-05	-9.241815e-05
	-3.670689e-05	-5.826257e-05	0.06104104	-0.06655203	-1.698965e-05	-6.390506e-05	-0.0330729	-0.02301733
	-0.03280585	-0.02548631	-1.698965e-05	-6.390506e-05	0.06143038	-0.06500285	-1.324997e-05	-3.970358e-05
	-2.190996e-05	-9.241815e-05	-0.0330729	-0.02301733	-1.324997e-05	-3.970358e-05	0.06057243	-0.06635518
3.4e+08	0.0558373	-0.07057776	-4.576446e-05	-5.624273e-05	-0.03711069	-0.01772067	-3.251182e-05	-8.891432e-05
	-4.576446e-05	-5.624273e-05	0.05471081	-0.07143649	-2.543092e-05	-6.07386e-05	-0.03726033	-0.01512763
	-0.03711069	-0.01772067	-2.543092e-05	-6.07386e-05	0.05516064	-0.06988414	-1.918543e-05	-3.890338e-05
	-3.251182e-05	-8.891432e-05	-0.03726033	-0.01512763	-1.918543e-05	-3.890338e-05	0.05417547	-0.07116521
3.5e+08	0.04869969	-0.07477552	-5.503468e-05	-5.289297e-05	-0.04028152	-0.009289647	-4.308557e-05	-8.407334e-05
	-5.503468e-05	-5.289297e-05	0.04748893	-0.07551851	-3.39388e-05	-5.657659e-05	-0.04029929	-0.006588386
	-0.04028152	-0.009289647	-3.39388e-05	-5.657659e-05	0.04799756	-0.0739736	-2.536557e-05	-3.733294e-05
	-4.308557e-05	-8.407334e-05	-0.04029929	-0.006588386	-2.536557e-05	-3.733294e-05	0.04689516	-0.07516003
3.6e+08	0.04076442	-0.07801645	-6.432058e-05	-4.812187e-05	-0.04222055	-0.0003652401	-5.343929e-05	-7.784397e-05
	-6.432058e-05	-4.812187e-05	0.03948565	-0.078627	-4.238592e-05	-5.13484e-05	-0.04209429	0.002425885
	-0.04222055	-0.0003652393	-4.238592e-05	-5.13484e-05	0.04004942	-0.07710084	-3.16875e-05	-3.491388e-05
	-5.343929e-05	-7.784397e-05	-0.04209429	0.002425885	-3.16875e-05	-3.491388e-05	0.03884422	-0.07817006
3.7e+08	0.03217083	-0.08014435	-7.340155e-05	-4.18753e-05	-0.0428567	0.008867279	-6.33683e-05	-7.020319e-05
	-7.340155e-05	-4.18753e-05	0.03084374	-0.08060777	-5.062227e-05	-4.500414e-05	-0.04257693	0.01172763
	-0.0428567	0.008867279	-5.062227e-05	-4.500414e-05	0.03145643	-0.07911132	-3.803379e-05	-3.15783e-05
	-6.33683e-05	-7.020319e-05	-0.04257693	0.01172763	-3.803379e-05	-3.15783e-05	0.03016735	-0.0800425
3.8e+08	0.023088	-0.08102434	-8.204471e-05	-3.412622e-05	-0.04214671	0.01821276	-7.265884e-05	-6.115936e-05
	-8.204471e-05	-3.412622e-05	0.02173549	-0.0813287	-5.848627e-05	-3.75107e-05	-0.04170711	0.02111994
	-0.04214671	0.01821276	-5.848627e-05	-3.75107e-05	0.02238836	-0.07987174	-4.426725e-05	-2.727915e-05
	-7.265884e-05	-6.115936e-05	-0.04170711	0.02111994	-4.426725e-05	-2.727915e-05	0.02103863	-0.08064668
3.9e+08	0.01371216	-0.0805487	-9.000659e-05	-2.488891e-05	-0.04007765	0.02747074	-8.109453e-05	-5.075006e-05
	-9.000659e-05	-2.488891e-05	0.01235991	-0.08068552	-6.58024e-05	-2.885953e-05	-0.03947524	0.030401
	-0.04007765	0.02747074	-6.58024e-05	-2.885953e-05	0.01304189	-0.07927742	-5.024025e-05	-2.198444e-05
	-8.109453e-05	-5.075006e-05	-0.03947524	0.030401	-5.024025e-05	-2.198444e-05	0.01165862	-0.07988141
4e+08	0.0042606	-0.07864262	-9.703924e-05	-1.421784e-05	-0.03666611	0.03644018	-8.845656e-05	-3.905435e-05
	-9.703924e-05	-1.421784e-05	0.002936521	-0.07860747	-7.238397e-05	-1.907095e-05	-0.03590157	0.03936906
	-0.03666611	0.03644018	-7.238397e-05	-1.907095e-05	0.00363406	-0.07725501	-5.579141e-05	-1.569147e-05
	-8.845656e-05	-3.905435e-05	-0.03590157	0.03936906	-5.579141e-05	-1.569147e-05	0.002247713	-0.07767766
4.1e+08	-0.005034009	-0.07526786	-0.0001029005	-2.203495e-06	-0.03195886	0.04492356	-9.4534e-05	-2.617813e-05
	-0.0001029005	-2.203495e-06	-0.006300468	-0.0750609	-7.803969e-05	-8.194429e-06	-0.03103665	0.04782634
	-0.03195886	0.04492356	-7.803969e-05	-8.194429e-06	-0.005602265	-0.07376856	-6.075525e-05	-8.417367e-06
	-9.4534e-05	-2.617813e-05	-0.03103665	0.04782634	-6.075525e-05	-8.417367e-06	-0.006958613	-0.07400455
4.2e+08	-0.01392793	-0.07042558	-0.000107355	1.102112e-05	-0.02603219	0.05273195	-9.912813e-05	-1.226902e-05
	-0.000107355	1.102112e-05	-0.01510659	-0.07005194	-8.258157e-05	3.688416e-06	-0.02496054	0.0555843
	-0.02603219	0.05273195	-8.258157e-05	3.688416e-06	-0.01442404	-0.06882167	-6.496158e-05	-2.108262e-07
	-9.912813e-05	-1.226902e-05	-0.02496054	0.0555843	-6.496158e-05	-2.108262e-07	-0.01571557	-0.06887127
4.3e+08	-0.02217595	-0.06415882	-0.0001101846	2.52846e-05	-0.01898961	0.05968885	-0.0001020569	2.496044e-06
	-0.0001101846	2.52846e-05	-0.02323679	-0.06362882	-8.582083e-05	1.646187e-05	-0.01778056	0.06246741
	-0.01898961	0.05968885	-8.582083e-05	1.646187e-05	-0.02258727	-0.0624593	-6.824417e-05	8.851201e-06
	-0.0001020569	2.496044e-06	-0.01778056	0.06246741	-6.824417e-05	8.851201e-06	-0.02377848	-0.06232881
4.4e+08	-0.02953775	-0.05655255	-0.0001111958	4.03777e-05	-0.01096058	0.06563439	-0.0001031615	1.79138e-05
	-0.0001111958	4.03777e-05	-0.03045183	-0.05588171	-8.758503e-05	2.997683e-05	-0.00962979	0.06831729
	-0.01096058	0.06563439	-8.758503e-05	2.997683e-05	-0.02985245	-0.05476854	-7.044311e-05	1.86614e-05
	-0.0001031615	1.79138e-05	-0.00962979	0.06831729	-7.044311e-05	1.86614e-05	-0.03090817	-0.0544705
4.5e+08	-0.03578417	-0.04773385	-0.0001102195	5.606118e-05	-0.002097428	0.07042928	-0.0001023103	3.374673e-05
	-0.0001102195	5.606118e-05	-0.03652462	-0.04694284	-8.772029e-05	4.405022e-05	-0.0006640527	0.07299675
	-0.002097428	0.07042928	-8.772029e-05	4.405022e-05	-0.03599224	-0.04587825	-7.14108e-05	2.908861e-05
	-0.0001023103	3.374673e-05	-0.0006640527	0.07299675	-7.14108e-05	2.908861e-05	-0.03687881	-0.04543141
4.6e+08	-0.04070579	-0.03786927	-0.0001071211	7.206508e-05	0.007427938	0.07395784	-9.940327e-05	4.973626e-05
	-0.0001071211	7.206508e-05	-0.04124871	-0.03698353	-8.609348e-05	5.847454e-05	0.008941581	0.07639274
	0.007427938	0.07395784	-8.609348e-05	5.847454e-05	-0.04079958	-0.03595618	-7.101904e-05	3.997002e-05
	-9.940327e-05	4.973626e-05	0.008941581	0.07639274	-7.101904e-05	3.997002e-05	-0.04148587	-0.03538534
4.7e+08	-0.0441211	-0.02716174	-0.0001018031	8.80977e-05	0.01742805	0.07613118	-9.437552e-05	6.561108e-05
	-0.0001018031	8.80977e-05	-0.04444636	-0.02621099	-8.260248e-05	7.300807e-05	0.01899687	0.07841944
	0.01742805	0.07613118	-8.260248e-05	7.300807e-05	-0.04409394	-0.02520679	-6.916041e-05	5.111811e-05
	-9.437552e-05	6.561108e-05	0.01899687	0.07841944	-6.916041e-05	5.111811e-05	-0.04455255	-0.02454233
4.8e+08	-0.04587933	-0.01584548	-9.421095e-05	0.0001038447	0.02770348	0.07688874	-8.720257e-05	8.107718e-05
	-9.421095e-05	0.0001038447	-0.04597136	-0.01486312	-7.718028e-05	8.739344e-05	0.02929995	0.07901985
