!$
! Info: Touchstone file created by Circ.  Input file=Intel_C2M_200G_13p0in_202208016_staggered.circ
!$
# Hz S RI R 50
0	0.03507632	6.234765e-24	0.9647269	-1.055655e-23	0.0001606405	3.724748e-22	-0.0002894438	3.544664e-20
	0.9647269	-1.055226e-23	0.03562431	1.100087e-23	-0.0002894999	3.545351e-20	0.0003803321	1.372611e-21
	0.0001606962	3.725987e-22	-0.0002896335	3.546987e-20	0.03507434	5.89255e-24	0.9647272	-1.081331e-23
	-0.0002895774	3.5463e-20	0.0003803957	1.373587e-21	0.9647272	-1.081762e-23	0.03562574	1.129181e-23
1e+07	0.04269765	0.003926433	0.9424169	-0.1720093	0.003406067	0.008915503	-0.001772313	-0.0004701868
	0.9424169	-0.1720093	0.04301374	0.003947766	-0.001774814	-0.0004702208	0.003091123	0.009027494
	0.003406067	0.008915503	-0.001774814	-0.0004702208	0.04279754	0.00295359	0.9423528	-0.1710203
	-0.001772313	-0.0004701868	0.003091123	0.009027494	0.9423528	-0.1710203	0.04304548	0.002958738
2e+07	0.05065508	-0.000455185	0.8907275	-0.3302029	0.008320895	0.01561703	-0.002046881	1.612097e-05
	0.8907275	-0.3302029	0.05184667	-0.0008353565	-0.002051302	2.326749e-05	0.007134985	0.01626153
	0.0083209	0.01561701	-0.00205132	2.316074e-05	0.04958264	-0.001868851	0.8919265	-0.3288363
	-0.002046897	1.602024e-05	0.007135074	0.01626142	0.8919265	-0.3288363	0.05056732	-0.002103294
3e+07	0.05433423	-0.009124492	0.81619	-0.4737304	0.01528348	0.02020979	-0.002026911	0.0004887502
	0.81619	-0.4737304	0.05603606	-0.01054676	-0.002026242	0.000504859	0.01299583	0.02182232
	0.01528348	0.02020983	-0.002026282	0.0005048726	0.0524426	-0.0102843	0.8182799	-0.4727299
	-0.002026925	0.0004887497	0.01299581	0.02182229	0.8182799	-0.4727299	0.05390828	-0.01131256
4e+07	0.05424068	-0.01879255	0.7203959	-0.6012463	0.02342116	0.02195012	-0.001773549	0.0008404251
	0.7203959	-0.6012463	0.05639895	-0.0214652	-0.001760464	0.000861627	0.01995504	0.0252975
	0.02342117	0.02195014	-0.001760467	0.0008616329	0.05180148	-0.01945884	0.7230824	-0.6009069
	-0.001773545	0.0008404382	0.01995504	0.02529751	0.7230824	-0.6009069	0.05380993	-0.02144892
5e+07	0.05101484	-0.02796584	0.6060095	-0.7100448	0.03167663	0.02065039	-0.001402026	0.0009783045
	0.6060095	-0.7100448	0.0533353	-0.03216306	-0.001372729	0.0009961712	0.02730369	0.02646926
	0.03167664	0.0206504	-0.001372727	0.0009961694	0.04826725	-0.02802205	0.609008	-0.7105308
	-0.001402024	0.0009783023	0.02730369	0.02646928	0.609008	-0.7105308	0.05065339	-0.03127227
6e+07	0.04534332	-0.03572434	0.4762891	-0.7976575	0.03899637	0.01644791	-0.001053225	0.0008731912
	0.4762891	-0.7976575	0.04739374	-0.04152612	-0.001009368	0.0008776113	0.03428351	0.02539296
	0.03899636	0.01644789	-0.001009366	0.000877609	0.04250612	-0.03513108	0.4793151	-0.7990459
	-0.001053223	0.0008731893	0.03428351	0.02539296	0.4793151	-0.7990459	0.0449489	-0.03980111
7e+07	0.03800908	-0.04148393	0.3348993	-0.862113	0.0444303	0.009828522	-0.0008617652	0.0005715794
	0.3348993	-0.862113	0.03933653	-0.04876772	-0.0008107969	0.0005538243	0.04020813	0.02236836
	0.0444303	0.00982852	-0.0008107887	0.0005537567	0.03527905	-0.04025914	0.3376683	-0.8644062
	-0.0008617643	0.0005715764	0.04020813	0.02236835	0.3376683	-0.8644062	0.03739965	-0.04634851
8e+07	0.02983886	-0.04498766	0.1857761	-0.902035	0.04724586	0.001568907	-0.0009194745	0.0001804278
	0.1857761	-0.902035	0.0300378	-0.05343051	-0.0008734417	0.0001364793	0.0445361	0.01789757
	0.04724586	0.001568909	-0.0008734408	0.0001364817	0.02738936	-0.04319301	0.1880083	-0.9051674
	-0.0009194742	0.0001804304	0.0445361	0.01789757	0.1880083	-0.9051674	0.02880694	-0.05052773
9e+07	0.02160419	-0.04627377	0.03300379	-0.9166863	0.04701061	-0.00735381	-0.001254731	-0.0001614704
	0.03300379	-0.9166863	0.02039554	-0.05536263	-0.001227566	-0.0002290208	0.04692863	0.01262363
	0.04701062	-0.007353814	-0.001227559	-0.0002290156	0.01958888	-0.04400285	0.03441921	-0.9205188
	-0.001254725	-0.0001614633	0.04692863	0.01262363	0.03441921	-0.9205188	0.01999362	-0.05223055
1e+08	0.01395361	-0.04561763	-0.1193299	-0.9059727	0.04363722	-0.01587365	-0.001827513	-0.0003159331
	-0.1193299	-0.9059727	0.01126973	-0.0546784	-0.001833195	-0.0003964544	0.04728112	0.007250644
	0.04363721	-0.01587365	-0.001833196	-0.0003964551	0.01256394	-0.04297818	-0.1190855	-0.9102784
	-0.001827514	-0.0003159338	0.04728112	0.007250644	-0.1190855	-0.9102784	0.01179351	-0.05161819
1.1e+08	0.007237021	-0.04342278	-0.2670177	-0.8702916	0.0373765	-0.02293919	-0.002532346	-0.0001820297
	-0.2670177	-0.8702916	0.003415328	-0.05182129	-0.002569079	-0.0002552925	0.04570721	0.00248464
	0.0373765	-0.02293919	-0.00256908	-0.0002552935	0.006470834	-0.04090091	-0.2679324	-0.8743704
	-0.002532347	-0.0001820306	0.04570721	0.00248464	-0.2679324	-0.8743704	0.004582421	-0.04927916
1.2e+08	0.00183748	-0.04008979	-0.406065	-0.8110523	0.02888562	-0.02761069	-0.003247463	0.0002846379
	-0.406065	-0.8110523	-0.002700534	-0.04728788	-0.003308545	0.0002289535	0.04258664	-0.00106297
	0.02888561	-0.02761068	-0.003308546	0.0002289529	0.001494033	-0.03773443	-0.4078779	-0.8147213
	-0.003247464	0.0002846373	0.04258664	-0.00106297	-0.4078779	-0.8147213	-0.001185686	-0.04527397
1.3e+08	-0.00213208	-0.03616074	-0.5328681	-0.7300778	0.01904763	-0.02925651	-0.003829369	0.001081326
	-0.5328681	-0.7300778	-0.006701414	-0.04172495	-0.003905596	0.00105014	0.03845123	-0.00295892
	0.01904763	-0.02925651	-0.003905597	0.001050139	-0.002148608	-0.03401381	-0.5354109	-0.7331964
	-0.00382937	0.001081326	0.03845123	-0.00295892	-0.5354109	-0.7331964	-0.005029876	-0.04021231
1.4e+08	-0.004748188	-0.0321062	-0.6441269	-0.6297341	0.008914117	-0.02755099	-0.004151028	0.002142247
	-0.6441269	-0.6297341	-0.008458825	-0.03584426	-0.004231754	0.002137947	0.03393771	-0.002968787
	0.008914117	-0.02755099	-0.004231755	0.002137947	-0.004529302	-0.03020074	-0.6472348	-0.6321945
	-0.004151029	0.002142247	0.03393771	-0.002968787	-0.6472348	-0.6321945	-0.006772637	-0.03477021
1.5e+08	-0.00621973	-0.02829402	-0.7369583	-0.5128797	-0.0004018266	-0.02252029	-0.004124897	0.003357095
	-0.7369583	-0.5128797	-0.0080741	-0.0303367	-0.004200815	0.003377641	0.02971776	-0.00108086
	-0.0004018259	-0.02252029	-0.004200815	0.003377641	-0.005855666	-0.02663885	-0.7404655	-0.5146094
	-0.004124898	0.003357095	0.02971776	-0.00108086	-0.7404655	-0.5146094	-0.006471402	-0.02961717
1.6e+08	-0.00683674	-0.02496129	-0.8089734	-0.3828022	-0.007840518	-0.01454872	-0.003716005	0.00459397
	-0.8089734	-0.3828022	-0.005850781	-0.02580314	-0.003780099	0.004634597	0.02642463	0.002497544
	-0.007840517	-0.01454872	-0.0037801	0.004634598	-0.006408042	-0.02354014	-0.8127148	-0.3837599
	-0.003716006	0.00459397	0.02642463	0.002497544	-0.8127148	-0.3837599	-0.004389533	-0.02534567
1.7e+08	-0.006914788	-0.02220379	-0.8583543	-0.2431366	-0.01250798	-0.004347127	-0.002942687	0.005724239
	-0.8583543	-0.2431366	-0.002249366	-0.02269936	-0.002990649	0.005778848	0.0245849	0.007364973
	-0.01250798	-0.004347127	-0.00299065	0.005778848	-0.006484365	-0.02098093	-0.8621673	-0.2433132
	-0.002942687	0.005724239	0.0245849	0.007364973	-0.8621673	-0.2433132	-0.0009520934	-0.02241453
1.8e+08	-0.006738819	-0.01998549	-0.8839086	-0.09776939	-0.01377359	0.007113154	-0.001866414	0.006643482
	-0.8839086	-0.09776939	0.002171981	-0.0212993	-0.001896699	0.006705815	0.02456344	0.01297256
	-0.01377359	0.007113154	-0.001896699	0.006705815	-0.006348451	-0.01891406	-0.8876375	-0.0971854
	-0.001866414	0.006643482	0.02456344	0.01297256	-0.8876375	-0.0971854	0.003310598	-0.02110935
1.9e+08	-0.006516807	-0.0181683	-0.8851095	0.04927057	-0.01134317	0.01869523	-0.000574145	0.007284109
	-0.8851095	0.04927057	0.006821977	-0.02168073	-0.0005872796	0.007348717	0.02652528	0.01868515
	-0.01134317	0.01869523	-0.0005872798	0.007348717	-0.006186709	-0.01719858	-0.8886127	0.05056643
	-0.0005741451	0.00728411	0.02652528	0.01868515	-0.8886127	0.05056643	0.007827993	-0.02152504
2e+08	-0.006347713	-0.01655768	-0.8621168	0.1939341	-0.005297698	0.02921146	0.0008408628	0.007618027
	-0.8621168	0.1939341	0.01114252	-0.02373208	0.0008428604	0.00768081	0.03041926	0.0238504
	-0.005297698	0.02921146	0.0008428603	0.00768081	-0.006079826	-0.01564395	-0.8652655	0.1958718
	0.0008408627	0.007618027	0.03041926	0.0238504	-0.8652655	0.1958718	0.01205327	-0.02356993
2.1e+08	-0.00621248	-0.01495703	-0.8157698	0.3322759	0.003906322	0.03754542	0.002295713	0.007650421
	-0.8157698	0.3322759	0.01466341	-0.02718023	0.002310628	0.007708574	0.03598651	0.02787066
	0.003906322	0.03754542	0.002310627	0.007708574	-0.005993697	-0.01406267	-0.818456	0.3347636
	0.002295713	0.007650421	0.03598651	0.02787066	-0.818456	0.3347636	0.01552116	-0.02699099
2.2e+08	-0.005986704	-0.01321962	-0.7475509	0.4605728	0.01547591	0.04276826	0.003728696	0.007406673
	-0.7475509	0.4605728	0.01704708	-0.03163401	0.003754065	0.007458641	0.04278968	0.03026664
	0.01547591	0.04276826	0.003754065	0.007458641	-0.005794806	-0.01232063	-0.7496871	0.4635041
	0.003728696	0.007406673	0.04278968	0.03026664	-0.7496871	0.4635041	0.01789073	-0.03141464
2.3e+08	-0.00547535	-0.01129156	-0.65953	0.5754305	0.02835592	0.0442373	0.005100464	0.006918845
	-0.65953	0.5754305	0.01811152	-0.03663696	0.005134562	0.006963665	0.05026294	0.03072794
	0.02835592	0.0442373	0.005134562	0.006963665	-0.005284075	-0.01037701	-0.6610514	0.5786885
	0.005100464	0.006918845	0.05026294	0.03072794	-0.6610514	0.5786885	0.01897251	-0.03639821
2.4e+08	-0.004461331	-0.009235983	-0.5542871	0.6738807	0.04133055	0.04166487	0.006390234	0.006213017
	-0.5542871	0.6738807	0.01783632	-0.04172306	0.00643144	0.006250157	0.05777513	0.02914481
	0.04133055	0.04166487	0.006431439	0.006250157	-0.004245031	-0.00830835	-0.5551537	0.6773406
	0.006390234	0.006213017	0.05777513	0.02914481	-0.5551537	0.6773406	0.01873527	-0.04148452
2.5e+08	-0.002760321	-0.007235487	-0.4348232	0.7534451	0.05314135	0.03515248	0.007584928	0.005303407
	-0.4348232	0.7534451	0.01634981	-0.04646837	0.007631995	0.00533216	0.06469815	0.02561583
	0.05314135	0.03515248	0.007631995	0.00533216	-0.002498739	-0.006307977	-0.4350155	0.7569783
	0.007584928	0.005303407	0.06469815	0.02561583	-0.4350155	0.7569783	0.01729543	-0.04625317
2.6e+08	-0.0002727134	-0.005571075	-0.3044597	0.8121854	0.06260925	0.0251869	0.008669169	0.00419251
	-0.3044597	0.8121854	0.01390042	-0.05053312	0.008720944	0.0042118	0.07047436	0.02043378
	0.06260925	0.0251869	0.008720944	0.0042118	4.602944e-05	-0.004665442	-0.3039854	0.8156642
	0.008669169	0.00419251	0.07047436	0.02043378	-0.3039854	0.8156642	0.01489049	-0.05036358
2.7e+08	0.002976402	-0.004582407	-0.1667477	0.8487311	0.06874825	0.01259839	0.009617048	0.002876224
	-0.1667477	0.8487311	0.01081981	-0.05369184	0.00967188	0.002885343	0.07467438	0.01405093
	0.06874825	0.01259839	0.00967188	0.002885343	0.003353327	-0.00372477	-0.1656355	0.8520349
	0.009617048	0.002876224	0.07467438	0.01405093	-0.1656355	0.8520349	0.01184326	-0.05358521
2.8e+08	0.006814532	-0.004614115	-0.02537618	0.8622953	0.0708621	-0.001511892	0.01038855	0.001353465
	-0.02537618	0.8622953	0.007478512	-0.05584817	0.01044447	0.001351466	0.07703996	0.0070272
	0.0708621	-0.001511892	0.01044447	0.001351466	0.007239027	-0.003830466	-0.02367591	0.8653112
	0.01038855	0.001353465	0.07703996	0.0070272	-0.02367591	0.8653112	0.008518748	-0.05581413
2.9e+08	0.01092203	-0.00595516	0.1159138	0.8526743	0.06861421	-0.0158701	0.0109318	-0.0003653438
	0.1159138	0.8526743	0.0042416	-0.05703481	0.01098651	-0.0003784731	0.07750739	-3.051553e-05
	0.06861421	-0.0158701	0.01098651	-0.0003784731	0.01137233	-0.005267822	0.1181331	0.8553016
	0.0109318	-0.0003653437	0.07750739	-3.051554e-05	0.1181331	0.8553016	0.005280307	-0.05707499
3e+08	0.01485438	-0.008781116	0.25341	0.8202411	0.06206537	-0.02914435	0.01118992	-0.002250147
	0.25341	0.8202411	0.001429279	-0.05740102	0.01124097	-0.002273914	0.07621045	-0.006534085
	0.06206537	-0.02914435	0.01124097	-0.002273914	0.01529954	-0.008204349	0.2560631	0.8223937
	0.01118992	-0.002250147	0.07621045	-0.006534085	0.2560631	0.8223937	0.002449835	-0.05750896
3.1e+08	0.01808601	-0.01310594	0.3835066	0.7659376	0.05167763	-0.04006619	0.01111031	-0.004249987
	0.3835066	0.7659376	-0.0007168683	-0.05718774	0.01115519	-0.004283232	0.07346333	-0.01197478
	0.05167763	-0.04006619	0.01115519	-0.004283232	0.01848844	-0.01264314	0.3864926	0.7675477
	0.01111031	-0.004249987	0.07346333	-0.01197478	0.3864926	0.7675477	0.0002733661	-0.05735095
3.2e+08	0.0200703	-0.01875106	0.5027768	0.6912575	0.0382812	-0.04754888	0.01065385	-0.006295249
	0.5027768	0.6912575	-0.002056617	-0.05669502	0.01069091	-0.006336082	0.06972393	-0.01597738
	0.0382812	-0.04754888	0.01069091	-0.006336082	0.02039055	-0.01839153	0.50599	0.6922781
	0.01065385	-0.006295249	0.06972393	-0.01597738	0.50599	0.6922781	-0.001102192	-0.05689732
3.3e+08	0.02031141	-0.02533604	0.6080606	0.5982221	0.02300763	-0.05079207	0.009801641	-0.008304461
	0.6080606	0.5982221	-0.002561722	-0.05624424	0.009830477	-0.008350363	0.0655429	-0.0183379
	0.02300763	-0.05079207	0.009830477	-0.008350363	0.02051234	-0.02505525	0.6113857	0.5986278
	0.009801641	-0.008304461	0.0655429	-0.0183379	0.6113857	0.5986278	-0.001640927	-0.05646885
3.4e+08	0.01843784	-0.03229562	0.6965411	0.4893516	0.00719327	-0.04936453	0.008558594	-0.01019245
	0.6965411	0.4893516	-0.002313876	-0.05613994	0.008578801	-0.01024173	0.06150434	-0.01904423
	0.00719327	-0.04936453	0.008578801	-0.01024173	0.01849043	-0.03205584	0.6998653	0.4891371
	0.008558594	-0.01019245	0.06150434	-0.01904423	0.6998653	0.4891371	-0.001417828	-0.05637256
3.5e+08	0.01427041	-0.03892396	0.765837	0.3676093	-0.007739416	-0.04325345	0.006950472	-0.01188016
	0.765837	0.3676093	-0.001490658	-0.05663481	0.006962601	-0.01193135	0.05816063	-0.01827683
	-0.007739416	-0.04325345	0.006962601	-0.01193135	0.01415733	-0.03867691	0.7690436	0.3667916
	0.006950472	-0.01188016	0.05816063	-0.01827683	0.7690436	0.3667916	-0.0006048334	-0.05686682
3.6e+08	0.00787317	-0.04444271	0.8140752	0.2363388	-0.02041274	-0.03287748	0.005019202	-0.01329988
	0.8140752	0.2363388	-0.0003403978	-0.05790282	0.005024255	-0.0133524	0.05597189	-0.01638722
	-0.02041274	-0.03287748	0.005024255	-0.0133524	0.007593654	-0.04413368	0.817058	0.2349543
	0.005019202	-0.01329988	0.05597189	-0.01638722	0.817058	0.2349543	0.00055266	-0.0581319
3.7e+08	-0.0004194475	-0.04808789	0.8399686	0.09917044	-0.02962446	-0.01905711	0.002816184	-0.01439779
	0.8399686	0.09917044	0.0008498851	-0.06002093	0.002814172	-0.01445174	0.05525487	-0.01385872
	-0.02962446	-0.01905711	0.002814172	-0.01445174	-0.0008480681	-0.04766153	0.8426314	0.09727338
	0.002816184	-0.01439779	0.05525487	-0.01385872	0.8426314	0.09727338	0.001767401	-0.06025303
3.8e+08	-0.01000881	-0.04920523	0.8428699	-0.04008413	-0.03446372	-0.002945961	0.0003948802	-0.01513216
	0.8428699	-0.04008413	0.001789844	-0.06296485	0.000385901	-0.01518801	0.05614734	-0.01125178
	-0.03446372	-0.002945961	0.000385901	-0.01518801	-0.01055088	-0.04861147	0.845126	-0.04242166
	0.0003948802	-0.01513216	0.05614734	-0.01125178	0.845126	-0.04242166	0.002746011	-0.06321342
3.9e+08	-0.02007078	-0.04734239	0.8228	-0.1775518	-0.03440213	0.01407119	-0.002189829	-0.01546902
	0.8228	-0.1775518	0.002219408	-0.06661695	-0.002208147	-0.01552668	0.05859311	-0.009140412
	-0.03440213	0.01407119	-0.002208147	-0.01552668	-0.02067394	-0.04654369	0.8245826	-0.1802459
	-0.002189829	-0.01546902	0.05859311	-0.009140412	0.8245826	-0.1802459	0.003222418	-0.06690017
4e+08	-0.02962918	-0.04232701	0.7804544	-0.3094312	-0.0293473	0.03050545	-0.004883878	-0.01537672
	0.7804544	-0.3094312	0.001938095	-0.0707831	-0.004913411	-0.01543562	0.06234881	-0.008047007
	-0.0293473	0.03050545	-0.004913411	-0.01543562	-0.03022929	-0.04130253	0.7817083	-0.312388
	-0.004883878	-0.01537672	0.06234881	-0.008047007	0.7817083	-0.312388	0.002988664	-0.07112301
4.1e+08	-0.03765423	-0.03431546	0.7171667	-0.4321222	-0.01965546	0.04489962	-0.007627548	-0.01482346
	0.7171667	-0.4321222	0.0008250309	-0.07522017	-0.007670847	-0.01488146	0.06701276	-0.008383287
	-0.01965546	0.04489962	-0.007670847	-0.01488146	-0.03818069	-0.03306516	0.7178577	-0.4352409
	-0.007627548	-0.01482346	0.06701276	-0.008383287	0.7178577	-0.4352409	0.00191496	-0.07563824
4.2e+08	-0.04317491	-0.02380515	0.6348612	-0.5423324	-0.006101777	0.05596264	-0.01034982	-0.01377878
	0.6348612	-0.5423324	-0.001152728	-0.07966567	-0.01040914	-0.01383172	0.07207046	-0.01040646
	-0.006101777	0.05596264	-0.01040914	-0.01383172	-0.04355747	-0.02235207	0.6349743	-0.5455066
	-0.01034982	-0.01377878	0.07207046	-0.01040646	0.6349743	-0.5455066	-3.911387e-05	-0.08018015
4.3e+08	-0.04539421	-0.01160857	0.535965	-0.6371803	0.01018952	0.06268601	-0.01296412	-0.0122176
	0.535965	-0.6371803	-0.003940252	-0.08386868	-0.01304001	-0.01226044	0.07695358	-0.01419037
	0.01018952	0.06268601	-0.01304001	-0.01226044	-0.04557076	-0.009998144	0.5355036	-0.6403057
	-0.01296412	-0.0122176	0.07695358	-0.01419037	0.5355036	-0.6403057	-0.002825527	-0.08449206
4.4e+08	-0.04378924	0.001211154	0.4233182	-0.7142643	0.0278444	0.0644337	-0.01536521	-0.0101308
	0.4233182	-0.7142643	-0.00740686	-0.08761764	-0.01545602	-0.01015707	0.08110187	-0.01962143
	0.0278444	0.0644337	-0.01545602	-0.01015707	-0.04371268	0.002913937	0.4223054	-0.7172387
	-0.01536521	-0.0101308	0.08110187	-0.01962143	0.4223054	-0.7172387	-0.006317031	-0.08835431
4.5e+08	-0.03818704	0.0134348	0.300076	-0.7717076	0.0453603	0.06099821	-0.01743319	-0.007534729
	0.300076	-0.7717076	-0.01136513	-0.09076187	-0.01753477	-0.007538604	0.08402406	-0.02641259
	0.0453603	0.06099821	-0.01753477	-0.007538604	-0.03783152	0.01515095	0.2985517	-0.7744363
	-0.01743319	-0.007534729	0.08402406	-0.02641259	0.2985517	-0.7744363	-0.0103273	-0.09160706
4.6e+08	-0.02880758	0.0238045	0.1696062	-0.8081864	0.06123637	0.05261778	-0.0190423	-0.004480029
	0.1696062	-0.8081864	-0.01559553	-0.09322519	-0.01914801	-0.004457428	0.08534822	-0.03413717
	0.06123637	0.05261778	-0.01914801	-0.004457428	-0.02817249	0.02544845	0.1676248	-0.810584
	-0.0190423	-0.004480029	0.08534822	-0.03413717	0.1676248	-0.810584	-0.0146346	-0.09416497
4.7e+08	-0.01626821	0.03115077	0.03539463	-0.8229386	0.07410263	0.03995607	-0.02007426	-0.001057674
	0.03539463	-0.8229386	-0.01987347	-0.09500949	-0.02017565	-0.001006363	0.08485884	-0.042275
	0.07410263	0.03995607	-0.02017565	-0.001006363	-0.01537923	0.03263706	0.03302673	-0.8249302
	-0.02007426	-0.001057674	0.08485884	-0.042275	0.03302673	-0.8249302	-0.0190086	-0.09602228
4.8e+08	-0.001545546	0.03451373	-0.0990314	-0.8157454	0.0828359	0.0240461	-0.02043385	0.002605295
	-0.0990314	-0.8157454	-0.02399522	-0.09619181	-0.02052182	0.002683598	0.08251635	-0.05026832
	0.0828359	0.0240461	-0.02052182	0.002683598	-0.0004551141	0.03576676	-0.1017053	-0.8172747
	-0.02043385	0.002605295	0.08251635	-0.05026832	-0.1017053	-0.8172747	-0.02323782	-0.09724996
4.9e+08	0.01409386	0.03325299	-0.230177	-0.7869349	0.08665661	0.006203502	-0.0200631	0.006351516
	-0.230177	-0.7869349	-0.02780186	-0.09691008	-0.02012912	0.006452634	0.07845858	-0.0575789
	0.08665661	0.006203502	-0.02012912	0.006452634	0.01531153	0.0342142	-0.2330707	-0.7879567
	-0.0200631	0.006351516	0.07845858	-0.0575789	-0.2330707	-0.7879567	-0.02715351	-0.09798349
5e+08	0.02919999	0.02713401	-0.3546602	-0.7373545	0.08519452	-0.01208357	-0.0189506	0.0100107
	-0.3546602	-0.7373545	-0.03119592	-0.09734463	-0.01898852	0.01012673	0.07298429	-0.06374282
	0.08519452	-0.01208357	-0.01898852	0.01012673	0.03045339	0.02776789	-0.3576765	-0.7378413
	-0.0189506	0.0100107	0.07298429	-0.06374282	-0.3576765	-0.7378413	-0.03064776	-0.09840388
5.1e+08	0.04226632	0.01637673	-0.469258	-0.6683534	0.07852292	-0.02927838	-0.01713596	0.01341515
	-0.469258	-0.6683534	-0.03415116	-0.09769386	-0.0171424	0.01353666	0.06652075	-0.06841705
	0.07852292	-0.02927838	-0.0171424	0.01353666	0.0434549	0.01667685	-0.4723028	-0.6682961
	-0.01713596	0.01341515	0.06652075	-0.06841705	-0.4723028	-0.6682961	-0.03368448	-0.0987136
5.2e+08	0.05187292	0.001671307	-0.5709875	-0.5817678	0.06715465	-0.04392675	-0.01470292	0.01641996
