!$
! Info: Touchstone file created by Circ.  Input file=Intel_C2M_200G_13p0in_202208016_staggered.circ
!$
# Hz S RI R 50
0	0.0350637	5.773085e-24	0.0001189848	1.857392e-22	0.0001610352	3.759007e-22	0.0001189786	1.854608e-22
	0.0001189848	1.857392e-22	0.03507632	6.234765e-24	0.0001189889	1.858938e-22	0.0001606405	3.724748e-22
	0.0001610909	3.760233e-22	0.0001189889	1.858958e-22	0.03505871	6.066947e-24	0.0001189807	1.855991e-22
	0.0001189786	1.854628e-22	0.0001606962	3.725987e-22	0.0001189807	1.855991e-22	0.03507434	5.89255e-24
1e+07	0.04276962	0.002951149	1.353174e-05	4.880102e-05	0.003399228	0.008857564	1.926868e-05	3.324664e-05
	1.353174e-05	4.880103e-05	0.04269765	0.003926433	1.206179e-05	6.05973e-05	0.003406067	0.008915503
	0.003399228	0.008857564	1.206179e-05	6.05973e-05	0.04268114	0.003988427	1.386551e-05	5.123802e-05
	1.926868e-05	3.324664e-05	0.003406067	0.008915503	1.386551e-05	5.123802e-05	0.04279754	0.00295359
2e+07	0.0495441	-0.001858139	2.555412e-05	3.728517e-05	0.008306695	0.01550381	1.437136e-05	1.883197e-05
	2.555413e-05	3.728519e-05	0.05065508	-0.000455185	4.839929e-05	5.532663e-05	0.008320895	0.01561703
	0.0083067	0.0155038	4.839928e-05	5.532663e-05	0.05066632	-0.0003358035	2.862327e-05	4.066309e-05
	1.437136e-05	1.883197e-05	0.0083209	0.01561701	2.862327e-05	4.066309e-05	0.04958264	-0.001868851
3e+07	0.0524085	-0.01026056	4.039037e-05	2.643805e-05	0.01525763	0.02004689	1.167561e-05	1.525671e-05
	4.039038e-05	2.643805e-05	0.05433423	-0.009124492	7.630925e-05	3.897644e-05	0.01528348	0.02020979
	0.01525762	0.02004693	7.630926e-05	3.897644e-05	0.05438548	-0.008952441	4.541266e-05	2.926727e-05
	1.167562e-05	1.525671e-05	0.01528348	0.02020983	4.541267e-05	2.926726e-05	0.0524426	-0.0102843
4e+07	0.05177842	-0.01941687	4.943706e-05	1.337174e-05	0.02338386	0.0217453	1.233827e-05	1.041626e-05
	4.943706e-05	1.337174e-05	0.05424068	-0.01879255	9.297066e-05	1.593633e-05	0.02342116	0.02195012
	0.02338387	0.02174531	9.297066e-05	1.593633e-05	0.05434791	-0.01859069	5.582154e-05	1.50896e-05
	1.233827e-05	1.041626e-05	0.02342117	0.02195014	5.582154e-05	1.50896e-05	0.05180148	-0.01945884
5e+07	0.04826553	-0.02796312	5.311611e-05	-6.136277e-07	0.03163238	0.02041083	1.34191e-05	4.532432e-06
	5.311611e-05	-6.136284e-07	0.05101484	-0.02796584	9.92205e-05	-9.615522e-06	0.03167663	0.02065039
	0.03163239	0.02041083	9.92205e-05	-9.615523e-06	0.05118085	-0.02775829	6.035092e-05	-3.225542e-07
	1.34191e-05	4.532431e-06	0.03167664	0.0206504	6.035092e-05	-3.225549e-07	0.04826725	-0.02802205
6e+07	0.04253435	-0.03505997	5.20698e-05	-1.409469e-05	0.03895322	0.01617826	1.242736e-05	-5.407645e-07
	5.20698e-05	-1.409469e-05	0.04534332	-0.03572434	9.623432e-05	-3.443489e-05	0.03899637	0.01644791
	0.03895322	0.01617824	9.623432e-05	-3.443489e-05	0.04556168	-0.03553465	5.966856e-05	-1.539559e-05
	1.242736e-05	-5.40762e-07	0.03899636	0.01644789	5.966856e-05	-1.539559e-05	0.04250612	-0.03513108
7e+07	0.0353441	-0.04018226	4.708349e-05	-2.592901e-05	0.04439861	0.009529446	9.898448e-06	-4.298109e-06
	4.708349e-05	-2.592901e-05	0.03800908	-0.04148393	8.566325e-05	-5.605133e-05	0.0444303	0.009828522
	0.0443986	0.009529443	8.566325e-05	-5.605133e-05	0.03826429	-0.04133234	5.457608e-05	-2.886814e-05
	9.898448e-06	-4.298109e-06	0.0444303	0.00982852	5.457608e-05	-2.886814e-05	0.03527905	-0.04025914
8e+07	0.0274962	-0.04311792	3.904404e-05	-3.528025e-05	0.04723637	0.001236135	6.476798e-06	-6.396966e-06
	3.904404e-05	-3.528025e-05	0.02983886	-0.04498766	6.932837e-05	-7.274025e-05	0.04724586	0.001568907
	0.04723638	0.001236136	6.932837e-05	-7.274025e-05	0.03010828	-0.04488788	4.597562e-05	-3.980212e-05
	6.476798e-06	-6.396966e-06	0.04724586	0.001568909	4.597562e-05	-3.980212e-05	0.02738936	-0.04319301
9e+07	0.01974091	-0.04393829	2.883766e-05	-4.16438e-05	0.04703222	-0.007729437	2.872443e-06	-6.742599e-06
	2.883766e-05	-4.16438e-05	0.02160419	-0.04627377	4.903475e-05	-8.349146e-05	0.04701061	-0.00735381
	0.04703223	-0.007729441	4.903475e-05	-8.349146e-05	0.02186057	-0.04623008	3.476101e-05	-4.760783e-05
	2.872441e-06	-6.742599e-06	0.04701062	-0.007353814	3.476101e-05	-4.760783e-05	0.01958888	-0.04400285
1e+08	0.0127628	-0.0429336	1.64648e-05	-4.48909e-05	0.04369482	-0.01630551	-3.806037e-07	-5.413685e-06
	1.64648e-05	-4.48909e-05	0.01395361	-0.04561763	2.493728e-05	-8.796019e-05	0.04363722	-0.01587365
	0.04369482	-0.0163055	2.493728e-05	-8.796019e-05	0.01416876	-0.04562371	2.079693e-05	-5.211635e-05
	-3.806034e-07	-5.413685e-06	0.04363721	-0.01587365	2.079693e-05	-5.211635e-05	0.01256394	-0.04297818
1.1e+08	0.006759875	-0.04085061	5.334726e-06	-4.067013e-05	0.03746991	-0.02344235	-1.653889e-06	-2.537709e-06
	5.334727e-06	-4.067013e-05	0.007237021	-0.04342278	3.93038e-06	-7.829504e-05	0.0373765	-0.02293919
	0.03746991	-0.02344234	3.93038e-06	-7.829504e-05	0.007346861	-0.0435003	7.729345e-06	-4.80002e-05
	-1.653888e-06	-2.537709e-06	0.0373765	-0.02293919	7.729346e-06	-4.80002e-05	0.006470834	-0.04090091
1.2e+08	0.001855744	-0.0377551	-1.481664e-06	-3.514528e-05	0.02900889	-0.02820124	-1.330587e-06	-1.759694e-07
	-1.481664e-06	-3.514528e-05	0.00183748	-0.04008979	-8.859671e-06	-6.67042e-05	0.02888562	-0.02761069
	0.02900889	-0.02820124	-8.85967e-06	-6.67042e-05	0.001838385	-0.04015069	-5.892209e-07	-4.216835e-05
	-1.330587e-06	-1.759697e-07	0.02888561	-0.02761068	-5.892206e-07	-4.216835e-05	0.001494033	-0.03773443
1.3e+08	-0.001754782	-0.03412326	-4.034926e-06	-2.953559e-05	0.01918804	-0.02994864	-4.883778e-07	1.50197e-06
	-4.034926e-06	-2.953559e-05	-0.00213208	-0.03616074	-9.522818e-06	-5.581346e-05	0.01904763	-0.02925651
	0.01918804	-0.02994863	-9.522818e-06	-5.581346e-05	-0.002214063	-0.03616876	-3.617502e-06	-3.606159e-05
	-4.883776e-07	1.50197e-06	0.01904763	-0.02925651	-3.617502e-06	-3.606159e-05	-0.002148608	-0.03401381
1.4e+08	-0.004127065	-0.03039193	-3.587543e-06	-2.467748e-05	0.009053055	-0.02835428	7.185436e-07	2.580817e-06
	-3.587543e-06	-2.467748e-05	-0.004748188	-0.0321062	-9.266957e-06	-4.607608e-05	0.008914117	-0.02755099
	0.009053055	-0.02835428	-9.266957e-06	-4.607608e-05	-0.004895443	-0.03204679	-3.752434e-06	-3.061035e-05
	7.185437e-07	2.580817e-06	0.008914117	-0.02755099	-3.752434e-06	-3.061035e-05	-0.004529302	-0.03020074
1.5e+08	-0.005454395	-0.02690406	-2.872729e-06	-2.064624e-05	-0.0002870651	-0.02343751	2.328096e-06	2.975249e-06
	-2.872729e-06	-2.064624e-05	-0.00621973	-0.02829402	-7.883158e-06	-3.758352e-05	-0.0004018266	-0.02252029
	-0.0002870645	-0.02343751	-7.883158e-06	-3.758352e-05	-0.006420418	-0.02815387	-3.341345e-06	-2.59009e-05
	2.328096e-06	2.975248e-06	-0.0004018259	-0.02252029	-3.341345e-06	-2.59009e-05	-0.005855666	-0.02663885
1.6e+08	-0.006011733	-0.02387762	-1.789777e-06	-1.733872e-05	-0.007774178	-0.01557422	3.975792e-06	2.648115e-06
	-1.789777e-06	-1.733872e-05	-0.00683674	-0.02496129	-5.562022e-06	-3.047844e-05	-0.007840518	-0.01454872
	-0.007774177	-0.01557422	-5.562023e-06	-3.047844e-05	-0.007077049	-0.02472484	-2.631284e-06	-2.192417e-05
	3.975792e-06	2.648115e-06	-0.007840517	-0.01454872	-2.631284e-06	-2.192417e-05	-0.006408042	-0.02354014
1.7e+08	-0.00609919	-0.02139421	-4.828748e-07	-1.476055e-05	-0.01251266	-0.005466197	5.335709e-06	1.743208e-06
	-4.828749e-07	-1.476055e-05	-0.006914788	-0.02220379	-2.603746e-06	-2.482001e-05	-0.01250798	-0.004347127
	-0.01251266	-0.005466196	-2.603746e-06	-2.482001e-05	-0.007173723	-0.02185642	-1.592893e-06	-1.86539e-05
	5.335709e-06	1.743208e-06	-0.01250798	-0.004347127	-1.592893e-06	-1.86539e-05	-0.006484365	-0.02098093
1.8e+08	-0.00598604	-0.01940804	8.904135e-07	-1.284628e-05	-0.01386692	0.005923658	6.597913e-06	1.636208e-07
	8.904134e-07	-1.284628e-05	-0.006738819	-0.01998549	6.911582e-07	-2.061387e-05	-0.01377359	0.007113154
	-0.01386692	0.005923658	6.91158e-07	-2.061387e-05	-0.006988081	-0.01951872	-3.716685e-07	-1.604299e-05
	6.597913e-06	1.636207e-07	-0.01377359	0.007113154	-3.716686e-07	-1.604299e-05	-0.006348451	-0.01891406
1.9e+08	-0.005864804	-0.01777519	2.201429e-06	-1.157898e-05	-0.01153467	0.01746507	7.287706e-06	-1.769976e-06
	2.201429e-06	-1.157898e-05	-0.006516807	-0.0181683	4.016093e-06	-1.782862e-05	-0.01134317	0.01869523
	-0.01153467	0.01746507	4.016093e-06	-1.782862e-05	-0.006723584	-0.01758403	9.072106e-07	-1.41e-05
	7.287706e-06	-1.769976e-06	-0.01134317	0.01869523	9.072105e-07	-1.41e-05	-0.006186709	-0.01719858
2e+08	-0.005819697	-0.01629873	3.310586e-06	-1.086976e-05	-0.00558641	0.02797405	7.300959e-06	-3.841948e-06
	3.310586e-06	-1.086976e-05	-0.006347713	-0.01655768	7.057449e-06	-1.632134e-05	-0.005297698	0.02921146
	-0.00558641	0.02797405	7.057449e-06	-1.632134e-05	-0.006480298	-0.01586979	2.100318e-06	-1.276108e-05
	7.300958e-06	-3.841948e-06	-0.005297698	0.02921146	2.100318e-06	-1.276108e-05	-0.006079826	-0.01564395
2.1e+08	-0.005818025	-0.01478294	4.11107e-06	-1.05907e-05	0.003533091	0.03633395	6.62887e-06	-5.844252e-06
	4.11107e-06	-1.05907e-05	-0.00621248	-0.01495703	9.55419e-06	-1.587651e-05	0.003906322	0.03754542
	0.003533092	0.03633395	9.55419e-06	-1.587651e-05	-0.006244362	-0.01419055	3.089181e-06	-1.192237e-05
	6.62887e-06	-5.844252e-06	0.003906322	0.03754542	3.089181e-06	-1.192237e-05	-0.005993697	-0.01406267
2.2e+08	-0.005723313	-0.01308444	4.536117e-06	-1.0595e-05	0.0150423	0.04161164	5.32517e-06	-7.573725e-06
	4.536117e-06	-1.0595e-05	-0.005986704	-0.01321962	1.131375e-05	-1.622616e-05	0.01547591	0.04276826
	0.0150423	0.04161164	1.131375e-05	-1.622616e-05	-0.005901504	-0.01240823	3.788695e-06	-1.145771e-05
	5.32517e-06	-7.573725e-06	0.01547591	0.04276826	3.788695e-06	-1.145771e-05	-0.005794806	-0.01232063
2.3e+08	-0.005330259	-0.01115489	4.564012e-06	-1.072919e-05	0.02789586	0.0431562	3.50223e-06	-8.851902e-06
	4.564012e-06	-1.072919e-05	-0.00547535	-0.01129156	1.222557e-05	-1.707132e-05	0.02835592	0.0442373
	0.02789586	0.0431562	1.222557e-05	-1.707132e-05	-0.005269039	-0.0104725	4.153326e-06	-1.12291e-05
	3.502229e-06	-8.851902e-06	0.02835592	0.0442373	4.153326e-06	-1.12291e-05	-0.005284075	-0.01037701
2.4e+08	-0.004413581	-0.009064606	4.217581e-06	-1.084678e-05	0.04088484	0.0406686	1.320679e-06	-9.542191e-06
	4.217581e-06	-1.084678e-05	-0.004461331	-0.009235983	1.226578e-05	-1.810659e-05	0.04133055	0.04166487
	0.04088484	0.0406686	1.226578e-05	-1.810659e-05	-0.004142397	-0.008446145	4.178315e-06	-1.109865e-05
	1.320679e-06	-9.542191e-06	0.04133055	0.04166487	4.178315e-06	-1.109865e-05	-0.004245031	-0.00830835
2.5e+08	-0.00278299	-0.007004535	3.559339e-06	-1.082073e-05	0.05275375	0.03423691	-1.026076e-06	-9.562625e-06
	3.559339e-06	-1.082073e-05	-0.002760321	-0.007235487	1.149411e-05	-1.904447e-05	0.05314135	0.03515248
	0.05275375	0.03423691	1.149411e-05	-1.904447e-05	-0.002348913	-0.006506131	3.897194e-06	-1.094028e-05
	-1.026076e-06	-9.562625e-06	0.05314135	0.03515248	3.897194e-06	-1.094028e-05	-0.002498739	-0.006307977
2.6e+08	-0.0003352517	-0.005264642	2.683328e-06	-1.055362e-05	0.06232207	0.0243337	-3.330247e-06	-8.892808e-06
	2.683328e-06	-1.055362e-05	-0.0002727134	-0.005571075	1.00441e-05	-1.963724e-05	0.06260925	0.0251869
	0.06232207	0.0243337	1.00441e-05	-1.963724e-05	0.0002024749	-0.004925166	3.3758e-06	-1.064963e-05
	-3.330247e-06	-8.892808e-06	0.06260925	0.0251869	3.3758e-06	-1.064963e-05	4.602944e-05	-0.004665442
2.7e+08	0.002905918	-0.004193653	1.704481e-06	-9.984433e-06	0.06859792	0.01177569	-5.388888e-06	-7.574383e-06
	1.704481e-06	-9.984433e-06	0.002976402	-0.004582407	8.107705e-06	-1.969456e-05	0.06874825	0.01259839
	0.06859792	0.01177569	8.107705e-06	-1.969456e-05	0.003481484	-0.004032018	2.704092e-06	-1.01515e-05
	-5.388888e-06	-7.574383e-06	0.06874825	0.01259839	2.704092e-06	-1.01515e-05	0.003353327	-0.00372477
2.8e+08	0.00676727	-0.004144821	7.46813e-07	-9.091915e-06	0.07087493	-0.002347496	-7.021815e-06	-5.7059e-06
	7.46813e-07	-9.091915e-06	0.006814532	-0.004614115	5.916165e-06	-1.909571e-05	0.0708621	-0.001511892
	0.07087493	-0.002347496	5.916164e-06	-1.909571e-05	0.007314602	-0.004159377	1.986318e-06	-9.404392e-06
	-7.021815e-06	-5.7059e-06	0.0708621	-0.001511892	1.986318e-06	-9.404392e-06	0.007239027	-0.003830466
2.9e+08	0.01092667	-0.005414955	-6.84053e-08	-7.894288e-06	0.06880289	-0.01677044	-8.086585e-06	-3.432621e-06
	-6.84053e-08	-7.894288e-06	0.01092203	-0.00595516	3.718598e-06	-1.779584e-05	0.06861421	-0.0158701
	0.06880289	-0.01677044	3.718598e-06	-1.779584e-05	0.01138508	-0.005585691	1.330745e-06	-8.402027e-06
	-8.086585e-06	-3.432621e-06	0.06861421	-0.0158701	1.330745e-06	-8.402027e-06	0.01137233	-0.005267822
3e+08	0.0149356	-0.008186457	-6.333274e-07	-6.445623e-06	0.06242635	-0.03016541	-8.489206e-06	-9.328674e-07
	-6.333274e-07	-6.445623e-06	0.01485438	-0.008781116	1.760577e-06	-1.582623e-05	0.06206537	-0.02914435
	0.06242635	-0.03016541	1.760577e-06	-1.582623e-05	0.01525475	-0.008477538	8.399232e-07	-7.172058e-06
	-8.489206e-06	-9.328674e-07	0.06206537	-0.02914435	8.399231e-07	-7.172058e-06	0.01529954	-0.008204349
3.1e+08	0.01826339	-0.01247902	-8.625396e-07	-4.82985e-06	0.05218981	-0.04126304	-8.190421e-06	1.597407e-06
	-8.625396e-07	-4.82985e-06	0.01808601	-0.01310594	2.638288e-07	-1.328915e-05	0.05167763	-0.04006619
	0.05218981	-0.04126304	2.638288e-07	-1.328915e-05	0.01840629	-0.01284324	6.018722e-07	-5.772383e-06
	-8.190421e-06	1.597407e-06	0.05167763	-0.04006619	6.018722e-07	-5.772383e-06	0.01848844	-0.01264314
3.2e+08	0.02035735	-0.0181187	-6.995592e-07	-3.152842e-06	0.03890603	-0.04897025	-7.207112e-06	3.960549e-06
	-6.995591e-07	-3.152842e-06	0.0200703	-0.01875106	-5.91696e-07	-1.03478e-05	0.0382812	-0.04754888
	0.03890603	-0.04897025	-5.91696e-07	-1.03478e-05	0.02030305	-0.01850107	6.828879e-07	-4.285845e-06
	-7.207112e-06	3.96055e-06	0.0382812	-0.04754888	6.828879e-07	-4.285845e-06	0.02039055	-0.01839153
3.3e+08	0.02071454	-0.02472862	-1.211374e-07	-1.533805e-06	0.02369102	-0.05247468	-5.60955e-06	5.972169e-06
	-1.211374e-07	-1.533805e-06	0.02031141	-0.02533604	-6.823982e-07	-7.212475e-06	0.02300763	-0.05079207
	0.02369102	-0.05247468	-6.823982e-07	-7.212475e-06	0.02045834	-0.02507202	1.121894e-06	-2.81333e-06
	-5.60955e-06	5.972169e-06	0.02300763	-0.05079207	1.121894e-06	-2.81333e-06	0.02051234	-0.02505525
3.4e+08	0.01895529	-0.03174563	8.606005e-07	-9.610057e-08	0.007869405	-0.05132808	-3.515312e-06	7.474478e-06
	8.606005e-07	-9.610056e-08	0.01843784	-0.03229562	4.794208e-08	-4.123532e-06	0.00719327	-0.04936453
	0.007869405	-0.05132808	4.794208e-08	-4.123532e-06	0.01850897	-0.03199518	1.926301e-06	-1.466242e-06
	-3.515312e-06	7.474478e-06	0.00719327	-0.04936453	1.926301e-06	-1.466242e-06	0.01849043	-0.03205584
3.5e+08	0.01489123	-0.03846422	2.198032e-06	1.041849e-06	-0.007142599	-0.04549678	-1.080208e-06	8.3471e-06
	2.198032e-06	1.041849e-06	0.01427041	-0.03892396	1.581913e-06	-1.332016e-06	-0.007739416	-0.04325345
	-0.0071426	-0.04549678	1.581913e-06	-1.332016e-06	0.01428039	-0.0385712	3.069757e-06	-3.579521e-07
	-1.080208e-06	8.3471e-06	-0.007739416	-0.04325345	3.069757e-06	-3.579521e-07	0.01415733	-0.03867691
3.6e+08	0.008576519	-0.04410381	3.809639e-06	1.775666e-06	-0.01996672	-0.03537652	1.51254e-06	8.515536e-06
	3.809639e-06	1.775666e-06	0.00787317	-0.04444271	3.826788e-06	9.212374e-07	-0.02041274	-0.03287748
	-0.01996672	-0.03537652	3.826788e-06	9.212374e-07	0.007839165	-0.044029	4.491251e-06	4.053521e-07
	1.51254e-06	8.515536e-06	-0.02041274	-0.03287748	4.491251e-06	4.053521e-07	0.007593654	-0.04413368
3.7e+08	0.0003356431	-0.04789504	5.583541e-06	2.023954e-06	-0.02939265	-0.02176522	4.064832e-06	7.95678e-06
	5.583541e-06	2.023954e-06	-0.0004194475	-0.04808789	6.6186e-06	2.427036e-06	-0.02962446	-0.01905711
	-0.02939265	-0.02176522	6.6186e-06	2.427036e-06	-0.0004815288	-0.04761155	6.096815e-06	7.345603e-07
	4.064832e-06	7.95678e-06	-0.02962446	-0.01905711	6.096815e-06	7.345603e-07	-0.0008480681	-0.04766153
3.8e+08	-0.009241476	-0.04917473	7.383205e-06	1.73691e-06	-0.03449415	-0.005796881	6.377113e-06	6.702141e-06
	7.383205e-06	1.73691e-06	-0.01000881	-0.04920523	9.732137e-06	3.028149e-06	-0.03446372	-0.002945961
	-0.03449415	-0.005796881	9.732137e-06	3.028149e-06	-0.01008678	-0.04866933	7.763716e-06	5.676129e-07
	6.377113e-06	6.702141e-06	-0.03446372	-0.002945961	7.763716e-06	5.676129e-07	-0.01055088	-0.04861147
3.9e+08	-0.01933675	-0.04747832	9.055811e-06	9.041615e-07	-0.0347213	0.01115805	8.262729e-06	4.837139e-06
	9.055811e-06	9.041615e-07	-0.02007078	-0.04734239	1.289669e-05	2.637307e-06	-0.03440213	0.01407119
	-0.0347213	0.01115805	1.289669e-05	2.637307e-06	-0.02015707	-0.04675323	9.347828e-06	-1.209305e-07
	8.262729e-06	4.837139e-06	-0.03440213	0.01407119	9.347828e-06	-1.209305e-07	-0.02067394	-0.04654369
4e+08	-0.0289759	-0.04261881	1.044356e-05	-4.392908e-07	-0.02995603	0.02761767	9.562586e-06	2.497558e-06
	1.044356e-05	-4.392908e-07	-0.02962918	-0.04232701	1.58179e-05	1.25039e-06	-0.0293473	0.03050545
	-0.02995603	0.02761767	1.58179e-05	1.25039e-06	-0.02972163	-0.04169012	1.069495e-05	-1.312377e-06
	9.562586e-06	2.497558e-06	-0.0293473	0.03050545	1.069495e-05	-1.312377e-06	-0.03022929	-0.04130253
4.1e+08	-0.03712628	-0.03473678	1.13978e-05	-2.210191e-06	-0.02052736	0.04212356	1.015872e-05	-1.383412e-07
	1.13978e-05	-2.210191e-06	-0.03765423	-0.03431546	1.820612e-05	-1.046897e-06	-0.01965546	0.04489962
	-0.02052736	0.04212356	1.820612e-05	-1.046897e-06	-0.03775406	-0.03363377	1.165814e-05	-2.939125e-06
	1.015872e-05	-1.383412e-07	-0.01965546	0.04489962	1.165814e-05	-2.939125e-06	-0.03818069	-0.03306516
4.2e+08	-0.04280784	-0.02431543	1.179416e-05	-4.279728e-06	-0.007184317	0.05337466	9.987777e-06	-2.862085e-06
	1.179416e-05	-4.279728e-06	-0.04317491	-0.02380515	1.979884e-05	-4.083096e-06	-0.006101777	0.05596264
	-0.007184317	0.05337466	1.979884e-05	-4.083096e-06	-0.04328491	-0.02307806	1.210656e-05	-4.889452e-06
	9.987777e-06	-2.862085e-06	-0.006101777	0.05596264	1.210656e-05	-4.889452e-06	-0.04355747	-0.02235207
4.3e+08	-0.04521011	-0.01215658	1.154832e-05	-6.480697e-06	0.008971122	0.06034483	9.048823e-06	-5.452132e-06
	1.154832e-05	-6.480697e-06	-0.04539421	-0.01160857	2.038742e-05	-7.608163e-06	0.01018952	0.06268601
	0.008971122	0.06034483	2.038742e-05	-7.608163e-06	-0.04551693	-0.01083111	1.194153e-05	-7.009024e-06
	9.048823e-06	-5.452132e-06	0.01018952	0.06268601	1.194153e-05	-7.009024e-06	-0.04557076	-0.009998144
4.4e+08	-0.04379372	0.0006827044	1.06285e-05	-8.620916e-06	0.02658109	0.06237405	7.405906e-06	-7.692868e-06
	1.06285e-05	-8.620916e-06	-0.04378924	0.001211154	1.984588e-05	-1.131349e-05	0.0278444	0.0644337
	0.02658109	0.06237405	1.984588e-05	-1.131349e-05	-0.04392439	0.002047173	1.11163e-05	-9.113171e-06
	7.405906e-06	-7.692868e-06	0.0278444	0.0644337	1.11163e-05	-9.113171e-06	-0.04371268	0.002913937
4.5e+08	-0.03836797	0.01298371	9.062775e-06	-1.050117e-05	0.04415141	0.05922672	5.184843e-06	-9.394887e-06
	9.062775e-06	-1.050117e-05	-0.03818704	0.0134348	1.814432e-05	-1.485935e-05	0.0453603	0.06099821
	0.04415141	0.05922672	1.814432e-05	-1.485935e-05	-0.03833051	0.01433981	9.642058e-06	-1.100508e-05
	5.184843e-06	-9.394887e-06	0.0453603	0.06099821	9.642058e-06	-1.100508e-05	-0.03783152	0.01515095
4.6e+08	-0.02913573	0.02348371	6.939927e-06	-1.193521e-05	0.06018103	0.05111122	2.562849e-06	-1.041349e-05
	6.939927e-06	-1.193521e-05	-0.02880758	0.0238045	1.53556e-05	-1.790591e-05	0.06123637	0.05261778
	0.06018103	0.05111122	1.53556e-05	-1.790591e-05	-0.02895048	0.02479009	7.590329e-06	-1.249517e-05
	2.562849e-06	-1.041349e-05	0.06123637	0.05261778	7.590329e-06	-1.249517e-05	-0.02817249	0.02544845
4.7e+08	-0.01669945	0.03100355	4.403074e-06	-1.276907e-05	0.07329084	0.03866225	-2.477976e-07	-1.066288e-05
	4.403074e-06	-1.276907e-05	-0.01626821	0.03115077	1.165157e-05	-2.014468e-05	0.07410263	0.03995607
	0.07329084	0.03866225	1.165157e-05	-2.014468e-05	-0.01639579	0.03222655	5.088272e-06	-1.342012e-05
	-2.477976e-07	-1.066288e-05	0.07410263	0.03995607	5.088272e-06	-1.342012e-05	-0.01537923	0.03263706
4.8e+08	-0.002024063	0.03457011	1.636564e-06	-1.289698e-05	0.08234031	0.02288737	-3.019988e-06	-1.012404e-05
