!$
! Info: Touchstone file created by Circ.  Input file=Intel_C2M_200G_13p0in_202208016_staggered.circ
!$
# Hz S RI R 50
0	0.03506364	6.084171e-24	0.0001192543	1.860619e-22	0.0001610136	3.757139e-22	0.0001191913	1.857749e-22
	0.0001192543	1.860619e-22	0.03507632	6.234765e-24	0.0001192387	1.859335e-22	0.0001606405	3.724748e-22
	0.0001610693	3.758365e-22	0.0001192386	1.859355e-22	0.03505865	5.777171e-24	0.0001192049	1.856513e-22
	0.0001191912	1.857769e-22	0.0001606962	3.725987e-22	0.0001192049	1.856513e-22	0.03507434	5.89255e-24
1e+07	0.0439498	0.003416229	0.0001096036	-5.646056e-06	0.002877022	0.008742703	5.015376e-06	1.665264e-05
	0.0001096036	-5.646056e-06	0.04269765	0.003926433	0.0001182181	3.220783e-05	0.003406067	0.008915503
	0.002877022	0.008742703	0.0001182181	3.220783e-05	0.04425521	0.002880984	4.653436e-05	1.217214e-05
	5.015376e-06	1.665264e-05	0.003406067	0.008915503	4.653436e-05	1.217214e-05	0.04279754	0.00295359
2e+07	0.05104551	-0.001623412	8.215733e-05	4.171507e-05	0.007744661	0.01553761	5.369779e-05	4.569194e-05
	8.215733e-05	4.171507e-05	0.05065508	-0.000455185	0.000102272	-1.812838e-05	0.008320895	0.01561703
	0.007744665	0.0155376	0.000102272	-1.812838e-05	0.05063408	-0.002471217	3.010118e-05	2.305347e-05
	5.369779e-05	4.569194e-05	0.0083209	0.01561701	3.010118e-05	2.305347e-05	0.04958264	-0.001868851
3e+07	0.05408672	-0.0103165	6.95562e-05	5.757828e-05	0.01469117	0.02019603	8.793846e-05	3.720098e-05
	6.95562e-05	5.757828e-05	0.05433423	-0.009124492	9.263008e-05	-3.195692e-05	0.01528348	0.02020979
	0.01469116	0.02019607	9.263008e-05	-3.195691e-05	0.05317353	-0.0110203	2.257936e-05	3.455698e-05
	8.793847e-05	3.720098e-05	0.01528348	0.02020983	2.257936e-05	3.455698e-05	0.0524426	-0.0102843
4e+07	0.05351131	-0.01979824	5.973292e-05	6.302821e-05	0.02284685	0.02200328	0.000111053	1.664441e-05
	5.973292e-05	6.302821e-05	0.05424068	-0.01879255	8.765658e-05	-3.509919e-05	0.02342116	0.02195012
	0.02284686	0.0220033	8.765659e-05	-3.509919e-05	0.05226668	-0.02020897	3.560495e-05	2.957892e-05
	0.000111053	1.664441e-05	0.02342117	0.02195014	3.560495e-05	2.957892e-05	0.05180148	-0.01945884
5e+07	0.04994473	-0.02866835	6.960957e-05	4.897735e-05	0.0311546	0.02076419	0.0001232995	-1.010366e-05
	6.960957e-05	4.897735e-05	0.05101484	-0.02796584	8.122167e-05	-4.454708e-05	0.03167663	0.02065039
	0.03115461	0.0207642	8.122167e-05	-4.454708e-05	0.04851718	-0.02871778	4.687488e-05	1.643474e-05
	0.0001232995	-1.010367e-05	0.03167664	0.0206504	4.687488e-05	1.643474e-05	0.04826725	-0.02802205
6e+07	0.04406688	-0.0360584	8.185679e-05	2.214411e-05	0.03855826	0.01660606	0.0001249844	-3.894256e-05
	8.185679e-05	2.214411e-05	0.04534332	-0.03572434	7.081635e-05	-5.326921e-05	0.03899637	0.01644791
	0.03855826	0.01660604	7.081634e-05	-5.326921e-05	0.04258975	-0.03572911	5.173649e-05	1.306714e-06
	0.0001249844	-3.894256e-05	0.03899636	0.01644789	5.173649e-05	1.306713e-06	0.04250612	-0.03513108
7e+07	0.03665531	-0.04142141	8.356277e-05	-4.805142e-06	0.04410196	0.0100052	0.0001174662	-6.669768e-05
	8.356277e-05	-4.805143e-06	0.03800908	-0.04148393	5.766777e-05	-5.93478e-05	0.0444303	0.009828522
	0.04410195	0.0100052	5.766777e-05	-5.93478e-05	0.03524405	-0.04073275	5.084397e-05	-1.363659e-05
	0.0001174662	-6.669768e-05	0.0444303	0.00982852	5.084397e-05	-1.363659e-05	0.03527905	-0.04025914
8e+07	0.02853145	-0.04453031	7.632154e-05	-2.904026e-05	0.04704466	0.001730432	0.0001019788	-9.10366e-05
	7.632154e-05	-2.904026e-05	0.02983886	-0.04498766	4.307456e-05	-6.170832e-05	0.04724586	0.001568907
	0.04704466	0.001730434	4.307456e-05	-6.170832e-05	0.02728227	-0.04352795	4.5054e-05	-2.682067e-05
	0.0001019788	-9.10366e-05	0.04724586	0.001568909	4.5054e-05	-2.682067e-05	0.02738936	-0.04319301
9e+07	0.02046424	-0.04544825	6.176229e-05	-4.8633e-05	0.04694277	-0.007246064	7.981249e-05	-0.0001103317
	6.176229e-05	-4.8633e-05	0.02160419	-0.04627377	2.860754e-05	-5.98644e-05	0.04701061	-0.00735381
	0.04694278	-0.007246067	2.860754e-05	-5.98644e-05	0.01945586	-0.0441947	3.532469e-05	-3.716826e-05
	7.981249e-05	-0.0001103317	0.04701062	-0.007353814	3.532469e-05	-3.716826e-05	0.01958888	-0.04400285
1e+08	0.01313541	-0.04446375	3.915043e-05	-6.268839e-05	0.04369827	-0.01585977	5.013498e-05	-0.0001237864
	3.915043e-05	-6.268839e-05	0.01395361	-0.04561763	1.619023e-05	-5.345849e-05	0.04363722	-0.01587365
	0.04369826	-0.01585977	1.619023e-05	-5.345849e-05	0.0124623	-0.04302704	2.157022e-05	-4.405826e-05
	5.013498e-05	-0.0001237864	0.04363721	-0.01587365	2.157022e-05	-4.405826e-05	0.01256394	-0.04297818
1.1e+08	0.006824989	-0.04222361	1.693929e-05	-5.991012e-05	0.03753775	-0.02306284	1.985954e-05	-0.0001193941
	1.693929e-05	-5.991012e-05	0.007237021	-0.04342278	8.727825e-06	-4.613496e-05	0.0373765	-0.02293919
	0.03753774	-0.02306284	8.727825e-06	-4.613496e-05	0.006442858	-0.04088776	8.213411e-06	-4.15747e-05
	1.985954e-05	-0.0001193941	0.0373765	-0.02293919	8.213411e-06	-4.15747e-05	0.006470834	-0.04090091
1.2e+08	0.001726549	-0.03893848	2.178541e-06	-5.397906e-05	0.02911136	-0.02788861	8.837346e-07	-0.0001101668
	2.178541e-06	-5.397906e-05	0.00183748	-0.04008979	2.809463e-06	-3.945931e-05	0.02888562	-0.02761069
	0.02911135	-0.02788861	2.809464e-06	-3.945931e-05	0.001517184	-0.03768488	-1.117641e-06	-3.729068e-05
	8.83735e-07	-0.0001101668	0.02888561	-0.02761068	-1.117641e-06	-3.729068e-05	0.001494033	-0.03773443
1.3e+08	-0.002003169	-0.03511124	-9.553707e-06	-4.677558e-05	0.01930343	-0.02969782	-7.228478e-06	-9.948199e-05
	-9.553707e-06	-4.677558e-05	-0.00213208	-0.03616074	-1.791836e-06	-3.299377e-05	0.01904763	-0.02925651
	0.01930343	-0.02969782	-1.791835e-06	-3.299377e-05	-0.002082753	-0.0339415	-8.617114e-06	-3.194268e-05
	-7.228478e-06	-9.948199e-05	0.01904763	-0.02925651	-8.617114e-06	-3.194268e-05	-0.002148608	-0.03401381
1.4e+08	-0.004434938	-0.03119455	-1.863614e-05	-3.846427e-05	0.009164907	-0.02815597	-1.498658e-05	-8.844343e-05
	-1.863614e-05	-3.846427e-05	-0.004748188	-0.0321062	-5.357911e-06	-2.675177e-05	0.008914117	-0.02755099
	0.009164907	-0.02815597	-5.357911e-06	-2.675177e-05	-0.00442687	-0.03011536	-1.400658e-05	-2.578886e-05
	-1.498658e-05	-8.844343e-05	0.008914117	-0.02755099	-1.400658e-05	-2.578886e-05	-0.004529302	-0.03020074
1.5e+08	-0.0057754	-0.02754204	-2.485986e-05	-2.913566e-05	-0.0001899825	-0.02327966	-2.205119e-05	-7.668305e-05
	-2.485986e-05	-2.913566e-05	-0.00621973	-0.02829402	-8.263669e-06	-2.058326e-05	-0.0004018266	-0.02252029
	-0.0001899819	-0.02327966	-8.263669e-06	-2.058326e-05	-0.005721859	-0.02654786	-1.570116e-05	-1.99087e-05
	-2.205119e-05	-7.668305e-05	-0.0004018259	-0.02252029	-1.570116e-05	-1.99087e-05	-0.005855666	-0.02663885
1.6e+08	-0.006312148	-0.02437825	-2.842871e-05	-1.935513e-05	-0.007697946	-0.01544376	-2.779481e-05	-6.413187e-05
	-2.842871e-05	-1.935513e-05	-0.00683674	-0.02496129	-1.042324e-05	-1.442772e-05	-0.007840518	-0.01454872
	-0.007697945	-0.01544376	-1.042324e-05	-1.442772e-05	-0.006247636	-0.02344971	-1.613046e-05	-1.430508e-05
	-2.779481e-05	-6.413187e-05	-0.007840517	-0.01454872	-1.613046e-05	-1.430508e-05	-0.006408042	-0.02354014
1.7e+08	-0.00635718	-0.0217878	-2.847761e-05	-1.025696e-05	-0.01245853	-0.005350524	-3.181777e-05	-5.076826e-05
	-2.847761e-05	-1.025696e-05	-0.006914788	-0.02220379	-1.218134e-05	-7.886315e-06	-0.01250798	-0.004347127
	-0.01245853	-0.005350523	-1.218134e-05	-7.886315e-06	-0.006302226	-0.02089651	-1.603326e-05	-8.779654e-06
	-3.181777e-05	-5.076826e-05	-0.01250798	-0.004347127	-1.603326e-05	-8.779654e-06	-0.006484365	-0.02098093
1.8e+08	-0.006190591	-0.01972489	-2.608685e-05	-2.070412e-06	-0.01383211	0.006035359	-3.361759e-05	-3.686521e-05
	-2.608685e-05	-2.070412e-06	-0.006738819	-0.01998549	-1.29869e-05	-8.557827e-07	-0.01377359	0.007113154
	-0.01383211	0.006035359	-1.29869e-05	-8.557829e-07	-0.006150074	-0.01884058	-1.530481e-05	-3.291824e-06
	-3.361759e-05	-3.686521e-05	-0.01377359	0.007113154	-1.530481e-05	-3.291824e-06	-0.006348451	-0.01891406
1.9e+08	-0.006014106	-0.01804307	-2.248154e-05	5.656789e-06	-0.01151339	0.01758076	-3.285848e-05	-2.304902e-05
	-2.248154e-05	5.656789e-06	-0.006516807	-0.0181683	-1.238463e-05	6.154549e-06	-0.01134317	0.01869523
	-0.01151339	0.01758076	-1.238463e-05	6.154549e-06	-0.005978813	-0.01714027	-1.373288e-05	1.966352e-06
	-3.285848e-05	-2.304902e-05	-0.01134317	0.01869523	-1.373288e-05	1.966352e-06	-0.006186709	-0.01719858
2e+08	-0.005919319	-0.01654104	-1.760957e-05	1.267026e-05	-0.005571211	0.02809832	-2.945098e-05	-9.883047e-06
	-1.760957e-05	1.267026e-05	-0.006347713	-0.01655768	-1.035823e-05	1.283784e-05	-0.005297698	0.02921146
	-0.00557121	0.02809832	-1.035823e-05	1.283784e-05	-0.005870728	-0.01560363	-1.130241e-05	6.832894e-06
	-2.945098e-05	-9.883047e-06	-0.005297698	0.02921146	-1.130241e-05	6.832894e-06	-0.006079826	-0.01564395
2.1e+08	-0.005878751	-0.01501727	-1.148521e-05	1.868133e-05	0.003550041	0.03646787	-2.346538e-05	2.026973e-06
	-1.148521e-05	1.868133e-05	-0.00621248	-0.01495703	-6.957498e-06	1.888042e-05	0.003906322	0.03754542
	0.003550042	0.03646787	-6.957498e-06	1.888042e-05	-0.005793223	-0.01404083	-8.036733e-06	1.113252e-05
	-2.346538e-05	2.026973e-06	0.003906322	0.03754542	-8.036733e-06	1.113253e-05	-0.005993697	-0.01406267
2.2e+08	-0.005758895	-0.01332199	-4.214921e-06	2.337371e-05	0.01506795	0.04175309	-1.514098e-05	1.20786e-05
	-4.214921e-06	2.337371e-05	-0.005986704	-0.01321962	-2.306708e-06	2.396965e-05	0.01547591	0.04276826
	0.01506795	0.04175309	-2.306709e-06	2.396965e-05	-0.005613652	-0.01231443	-3.999746e-06	1.468125e-05
	-1.514098e-05	1.20786e-05	0.01547591	0.04276826	-3.999746e-06	1.468125e-05	-0.005794806	-0.01232063
2.3e+08	-0.005355189	-0.01140045	4.0014e-06	2.643199e-05	0.02793536	0.04330062	-4.878412e-06	1.971875e-05
	4.0014e-06	2.643199e-05	-0.00547535	-0.01129156	3.400982e-06	2.781164e-05	0.02835592	0.0442373
	0.02793536	0.04330062	3.400982e-06	2.781164e-05	-0.005132633	-0.01037956	6.984635e-07	1.729136e-05
	-4.878412e-06	1.971875e-05	0.02835592	0.0442373	6.984635e-07	1.729136e-05	-0.005284075	-0.01037701
2.4e+08	-0.004441081	-0.009317194	1.286769e-05	2.756356e-05	0.04094083	0.04080982	6.771506e-06	2.448265e-05
	1.286769e-05	2.756356e-05	-0.004461331	-0.009235983	9.899592e-06	3.014185e-05	0.04133055	0.04166487
	0.04094083	0.04080982	9.899592e-06	3.014185e-05	-0.004131781	-0.008308451	5.896171e-06	1.878192e-05
	6.771506e-06	2.448265e-05	0.04133055	0.04166487	5.896171e-06	1.878192e-05	-0.004245031	-0.00830835
2.5e+08	-0.002823347	-0.007258462	2.199043e-05	2.65226e-05	0.05282615	0.03436825	1.913153e-05	2.603117e-05
	2.199043e-05	2.65226e-05	-0.002760321	-0.007235487	1.685342e-05	3.074094e-05	0.05314135	0.03515248
	0.05282615	0.03436825	1.685342e-05	3.074094e-05	-0.002428491	-0.006290564	1.13721e-05	1.899104e-05
	1.913153e-05	2.603117e-05	0.05314135	0.03515248	1.13721e-05	1.899104e-05	-0.002498739	-0.006307977
2.6e+08	-0.0003946264	-0.005511122	3.087992e-05	2.313702e-05	0.06240816	0.02444896	3.142346e-05	2.418237e-05
	3.087992e-05	2.313702e-05	-0.0002727134	-0.005571075	2.385663e-05	2.945358e-05	0.06260925	0.0251869
	0.06240816	0.02444896	2.385663e-05	2.945358e-05	7.380492e-05	-0.004612755	1.684499e-05	1.779557e-05
	3.142346e-05	2.418237e-05	0.06260925	0.0251869	1.684499e-05	1.779557e-05	4.602944e-05	-0.004665442
2.7e+08	0.002826068	-0.00442251	3.895817e-05	1.734203e-05	0.0686927	0.01187001	4.280177e-05	1.894101e-05
	3.895817e-05	1.734203e-05	0.002976402	-0.004582407	3.044073e-05	2.621136e-05	0.06874825	0.01259839
	0.0686927	0.01187001	3.044073e-05	2.621136e-05	0.003345721	-0.003618194	2.19771e-05	1.513276e-05
	4.280177e-05	1.894101e-05	0.06874825	0.01259839	2.19771e-05	1.513276e-05	0.003353327	-0.00372477
2.8e+08	0.006670207	-0.004346365	4.557474e-05	9.220353e-06	0.07097183	-0.002276989	5.239345e-05	1.052613e-05
	4.557474e-05	9.220353e-06	0.006814532	-0.004614115	3.608977e-05	2.105943e-05	0.0708621	-0.001511892
	0.07097183	-0.002276989	3.608977e-05	2.105943e-05	0.007210323	-0.003652846	2.638488e-05	1.102579e-05
	5.239345e-05	1.052613e-05	0.0708621	-0.001511892	2.638488e-05	1.102579e-05	0.007239027	-0.003830466
2.9e+08	0.01081976	-0.005581661	5.004467e-05	-9.582088e-07	0.06889444	-0.01672419	5.93525e-05	-6.076328e-07
	5.004467e-05	-9.582088e-07	0.01092203	-0.00595516	4.026596e-05	1.418407e-05	0.06861421	-0.0158701
	0.06889444	-0.01672419	4.026596e-05	1.418407e-05	0.01134385	-0.005006161	2.966339e-05	5.604389e-06
	5.93525e-05	-6.076328e-07	0.06861421	-0.0158701	2.96634e-05	5.604389e-06	0.01137233	-0.005267822
3e+08	0.01482914	-0.008314306	5.170504e-05	-1.270488e-05	0.06250512	-0.03014127	6.292615e-05	-1.376274e-05
	5.170504e-05	-1.270488e-05	0.01485438	-0.008781116	4.245207e-05	5.931761e-06	0.06206537	-0.02914435
	0.06250512	-0.03014127	4.245207e-05	5.931761e-06	0.01529848	-0.007852509	3.141746e-05	-8.790013e-07
	6.292615e-05	-1.376274e-05	0.06206537	-0.02914435	3.141746e-05	-8.790013e-07	0.01529954	-0.008204349
3.1e+08	0.01816907	-0.01256846	4.999122e-05	-2.529101e-05	0.05224916	-0.04125645	6.253225e-05	-2.800845e-05
	4.999122e-05	-2.529101e-05	0.01808601	-0.01310594	4.220146e-05	-3.188037e-06	0.05167763	-0.04006619
	0.05224916	-0.04125645	4.220146e-05	-3.188037e-06	0.01854575	-0.01220428	3.130146e-05	-8.042884e-06
	6.253225e-05	-2.800845e-05	0.05167763	-0.04006619	3.130146e-05	-8.042884e-06	0.01848844	-0.01264314
3.2e+08	0.02028644	-0.01817479	4.452856e-05	-3.777121e-05	0.03894102	-0.04897447	5.784011e-05	-4.221906e-05
	4.452856e-05	-3.777121e-05	0.0200703	-0.01875106	3.919606e-05	-1.25078e-05	0.0382812	-0.04754888
	0.03894102	-0.04897447	3.919606e-05	-1.25078e-05	0.02053773	-0.01787997	2.906227e-05	-1.538729e-05
	5.784011e-05	-4.221906e-05	0.0382812	-0.04754888	2.906227e-05	-1.538729e-05	0.02039055	-0.01839153
3.3e+08	0.02067613	-0.02476071	3.522374e-05	-4.903004e-05	0.023699	-0.05248152	4.884388e-05	-5.514619e-05
	3.522374e-05	-4.903004e-05	0.02031141	-0.02533604	3.330106e-05	-2.12416e-05	0.02300763	-0.05079207
	0.023699	-0.05248152	3.330106e-05	-2.12416e-05	0.02077745	-0.02449722	2.458356e-05	-2.231271e-05
	4.884388e-05	-5.514619e-05	0.02300763	-0.05079207	2.458356e-05	-2.231271e-05	0.02051234	-0.02505525
3.4e+08	0.01895481	-0.03176628	2.233765e-05	-5.787795e-05	0.007850414	-0.05132856	3.591734e-05	-6.551702e-05
	2.233765e-05	-5.787795e-05	0.01843784	-0.03229562	2.461303e-05	-2.853321e-05	0.00719327	-0.04936453
	0.007850414	-0.05132856	2.461303e-05	-2.853321e-05	0.01889349	-0.03148881	1.792129e-05	-2.816191e-05
	3.591734e-05	-6.551702e-05	0.00719327	-0.04936453	1.792129e-05	-2.816191e-05	0.01849043	-0.03205584
3.5e+08	0.01492935	-0.03848768	6.527379e-06	-6.31751e-05	-0.007185602	-0.04548215	1.982408e-05	-7.216385e-05
	6.527379e-06	-6.31751e-05	0.01427041	-0.03892396	1.349241e-05	-3.352969e-05	-0.007739416	-0.04325345
	-0.007185602	-0.04548215	1.349241e-05	-3.352969e-05	0.01470588	-0.03814704	9.33178e-06	-3.227021e-05
	1.982408e-05	-7.216385e-05	-0.007739416	-0.04325345	9.33178e-06	-3.227021e-05	0.01415733	-0.03867691
3.6e+08	0.00864876	-0.04414419	-1.117298e-05	-6.397337e-05	-0.02002794	-0.03533916	1.695081e-06	-7.415129e-05
	-1.117298e-05	-6.397337e-05	0.00787317	-0.04444271	5.642443e-07	-3.54668e-05	-0.02041274	-0.03287748
	-0.02002794	-0.03533916	5.642443e-07	-3.54668e-05	0.008279068	-0.04369147	-7.180021e-07	-3.40296e-05
	1.695081e-06	-7.415129e-05	-0.02041274	-0.03287748	-7.180021e-07	-3.40296e-05	0.007593654	-0.04413368
3.7e+08	0.0004326912	-0.04796443	-2.940742e-05	-5.965367e-05	-0.02946402	-0.02169957	-1.705465e-05	-7.09015e-05
	-2.940742e-05	-5.965367e-05	-0.0004194475	-0.04808789	-1.329361e-05	-3.375573e-05	-0.02962446	-0.01905711
	-0.02946402	-0.02169957	-1.329361e-05	-3.375573e-05	-5.265952e-05	-0.04735589	-1.156616e-05	-3.295824e-05
	-1.705465e-05	-7.09015e-05	-0.02962446	-0.01905711	-1.156616e-05	-3.295824e-05	-0.0008480681	-0.04766153
3.8e+08	-0.009132861	-0.04928161	-4.662709e-05	-5.002786e-05	-0.03456589	-0.005700132	-3.484898e-05	-6.228335e-05
	-4.662709e-05	-5.002786e-05	-0.01000881	-0.04920523	-2.701308e-05	-2.806689e-05	-0.03446372	-0.002945961
	-0.03456589	-0.005700132	-2.701308e-05	-2.806689e-05	-0.009690326	-0.04848285	-2.238356e-05	-2.876902e-05
	-3.484898e-05	-6.228335e-05	-0.03446372	-0.002945961	-2.238356e-05	-2.876902e-05	-0.01055088	-0.04861147
3.9e+08	-0.01923229	-0.04762633	-6.123362e-05	-3.540201e-05	-0.03478304	0.01128545	-5.010378e-05	-4.864999e-05
	-6.123362e-05	-3.540201e-05	-0.02007078	-0.04734239	-3.941089e-05	-1.839514e-05	-0.03440213	0.01407119
	-0.03478304	0.01128545	-3.941089e-05	-1.839514e-05	-0.01980798	-0.04661743	-3.224287e-05	-2.142323e-05
	-5.010378e-05	-4.864999e-05	-0.03440213	0.01407119	-3.224287e-05	-2.142323e-05	-0.02067394	-0.04654369
4e+08	-0.02889204	-0.04280614	-7.174625e-05	-1.657501e-05	-0.02999781	0.02777194	-6.137644e-05	-3.083206e-05
	-7.174625e-05	-1.657501e-05	-0.02962918	-0.04232701	-4.929219e-05	-5.1001e-06	-0.0293473	0.03050545
	-0.02999781	0.02777194	-4.929219e-05	-5.1001e-06	-0.02942714	-0.04158338	-4.019113e-05	-1.117318e-05
	-6.137644e-05	-3.083206e-05	-0.0293473	0.03050545	-4.019113e-05	-1.117318e-05	-0.03022929	-0.04130253
4.1e+08	-0.03707818	-0.0349565	-7.695638e-05	5.223042e-06	-0.02054066	0.04229775	-6.751504e-05	-1.006006e-05
	-7.695638e-05	5.223042e-06	-0.03765423	-0.03431546	-5.557589e-05	1.109322e-05	-0.01965546	0.04489962
	-0.02054066	0.04229775	-5.557589e-05	1.109322e-05	-0.03751344	-0.03353397	-4.53515e-05	1.438562e-06
	-6.751504e-05	-1.006006e-05	-0.01965546	0.04489962	-4.53515e-05	1.438562e-06	-0.03818069	-0.03306516
4.2e+08	-0.04280816	-0.02455582	-7.604826e-05	2.842942e-05	-0.007163124	0.05355937	-6.776021e-05	1.212997e-05
	-7.604826e-05	2.842942e-05	-0.04317491	-0.02380515	-5.739763e-05	2.913297e-05	-0.006101777	0.05596264
	-0.007163124	0.05355937	-5.739763e-05	2.913297e-05	-0.04308969	-0.02296568	-4.701086e-05	1.559777e-05
	-6.776021e-05	1.212997e-05	-0.006101777	0.05596264	-4.701086e-05	1.559777e-05	-0.04355747	-0.02235207
4.3e+08	-0.0452676	-0.01240185	-6.867408e-05	5.128359e-05	0.009029627	0.06052897	-6.181248e-05	3.403384e-05
	-6.867408e-05	5.128359e-05	-0.04539421	-0.01160857	-5.421094e-05	4.770822e-05	0.01018952	0.06268601
	0.009029627	0.06052897	-5.421094e-05	4.770822e-05	-0.04535239	-0.01069201	-4.470726e-05	3.02785e-05
	-6.181248e-05	3.403384e-05	0.01018952	0.06268601	-4.470726e-05	3.02785e-05	-0.04557076	-0.009998144
4.4e+08	-0.04391189	0.0004509422	-5.498786e-05	7.196408e-05	0.02667618	0.06254597	-4.985486e-05	5.391475e-05
	-5.498786e-05	7.196408e-05	-0.04378924	0.001211154	-4.587232e-05	6.53595e-05	0.0278444	0.0644337
	0.02667618	0.06254597	-4.587232e-05	6.53595e-05	-0.04377226	0.002220329	-3.828883e-05	4.432385e-05
	-4.985486e-05	5.391475e-05	0.0278444	0.0644337	-3.828883e-05	4.432385e-05	-0.04371268	0.002913937
4.5e+08	-0.03854441	0.0127847	-3.563557e-05	8.872312e-05	0.04427873	0.05937528	-3.254375e-05	7.012236e-05
	-3.563557e-05	8.872312e-05	-0.03818704	0.0134348	-3.266977e-05	8.060198e-05	0.0453603	0.06099821
	0.04427873	0.05937528	-3.266977e-05	8.060198e-05	-0.0381716	0.01454676	-2.794262e-05	5.654697e-05
	-3.254375e-05	7.012236e-05	0.0453603	0.06099821	-2.794262e-05	5.654697e-05	-0.03783152	0.01515095
4.6e+08	-0.02936197	0.02333573	-1.172782e-05	0.0001000046	0.06033283	0.051227	-1.096695e-05	8.121524e-05
	-1.172782e-05	0.0001000046	-0.02880758	0.0238045	-1.531117e-05	9.205451e-05	0.06123637	0.05261778
	0.06033283	0.051227	-1.531117e-05	9.205451e-05	-0.02876756	0.02502325	-1.41995e-05	6.582491e-05
	-1.096695e-05	8.121524e-05	0.06123637	0.05261778	-1.41995e-05	6.582491e-05	-0.02817249	0.02544845
4.7e+08	-0.01696129	0.03092209	1.52156e-05	0.0001045551	0.07345671	0.03873849	1.341908e-05	8.606328e-05
	1.52156e-05	0.0001045551	-0.01626821	0.03115077	5.106329e-06	9.854975e-05	0.07410263	0.03995607
	0.07345671	0.03873849	5.106329e-06	9.854975e-05	-0.01617604	0.03247229	2.096812e-06	7.119476e-05
	1.341908e-05	8.606328e-05	0.07410263	0.03995607	2.096812e-06	7.119476e-05	-0.01537923	0.03263706
