# GHz S RI R 45
0.000     0.022577843288    0.001894340549    0.000000322922    0.000001118451    0.000819054557    0.001619743561    0.000000314287    0.000001110920
            0.000000322922    0.000001118451    0.023333206213    0.001350149421    0.000000348884    0.000001154019    0.000818773420    0.001391756672
            0.000819054398    0.001619743529    0.000000348884    0.000001154019    0.022530029458    0.001882080159    0.000000350632    0.000001163060
            0.000000314287    0.000001110920    0.000818772807    0.001391756685    0.000000350632    0.000001163060    0.023272582471    0.001354377182
0.025     0.029496059044    0.009102319814    0.000001135303    0.000002360975    0.004064721254    0.010999765789    0.000001112993    0.000002349755
            0.000001135300    0.000002360977    0.028689642722    0.009176515669    0.000001192706    0.000002434846    0.003070522957    0.011572840113
            0.004062751519    0.011002918626    0.000001192705    0.000002434847    0.029422619009    0.009062133294    0.000001194420    0.000002457003
            0.000001112991    0.000002349756    0.003072916963    0.011572505751    0.000001194420    0.000002457002    0.028648974597    0.009264167995
0.050     0.039054104720    0.010253602750    0.000002907555    0.000003807919    0.012759904561    0.018464894029    0.000002871686    0.000003806597
            0.000002907555    0.000003807919    0.034757016942    0.012233706018    0.000003022119    0.000003917824    0.009260751530    0.020900555364
            0.012759884595    0.018464933353    0.000003022119    0.000003917824    0.038953434994    0.010177807541    0.000003035985    0.000003967052
            0.000002871687    0.000003806597    0.009260785937    0.020900563088    0.000003035985    0.000003967052    0.034769462347    0.012398353617
0.075     0.048785075664    0.005198038303    0.000005162507    0.000004432490    0.024225733575    0.020079167275    0.000005122516    0.000004446483
            0.000005162507    0.000004432490    0.040192865482    0.011860810922    0.000005340843    0.000004553653    0.017628702019    0.026530637188
            0.024225727129    0.020079171918    0.000005340843    0.000004553653    0.048664924036    0.005123415754    0.000005380905    0.000004624308
            0.000005122517    0.000004446483    0.017628716815    0.026530639363    0.000005380905    0.000004624308    0.040291316701    0.012074740151
0.100     0.055642569010    -0.005904941115    0.000007663073    0.000004190687    0.035165505904    0.015129204312    0.000007627189    0.000004221156
            0.000007663073    0.000004190687    0.043492272595    0.008654484185    0.000007908260    0.000004301304    0.026114374986    0.028095890008
            0.035165506822    0.015129204707    0.000007908260    0.000004301304    0.055528581422    -0.005959379584    0.000007985665    0.000004383305
            0.000007627189    0.000004221156    0.026114374986    0.028095890008    0.000007985665    0.000004383305    0.043691236653    0.008872087296
0.125     0.056539786708    -0.021373344100    0.000010177007    0.000003070596    0.042295090093    0.004494363910    0.000010153307    0.000003114661
            0.000010177007    0.000003070596    0.043186110099    0.004021980799    0.000010487241    0.000003149921    0.032808812834    0.026216597546
            0.042295090093    0.004494363910    0.000010487241    0.000003149921    0.056470843203    -0.021417889689    0.000010609924    0.000003228419
            0.000010153307    0.000003114661    0.032808812834    0.026216597546    0.000010609924    0.000003228419    0.043471183179    0.004196661578
0.150     0.049586039776    -0.038069129396    0.000012502509    0.000001086974    0.043057631947    -0.009533658202    0.000012496353    0.000001137995
            0.000012502509    0.000001086974    0.039029167055    -0.000015162450    0.000012875057    0.000001115262    0.036258084937    0.022317167898
            0.043057631947    -0.009533658202    0.000012875057    0.000001115262    0.049606683001    -0.038117610725    0.000013044874    0.000001171497
            0.000012496353    0.000001137995    0.036258115529    0.022317154443    0.000013044874    0.000001171497    0.039378600623    0.000074449566
0.175     0.034261445255    -0.052125309250    0.000014444501    -0.000001760978    0.036146104073    -0.023620807427    0.000014457067    -0.000001711464
            0.000014444501    -0.000001760978    0.031371049845    -0.001409427139    0.000014872401    -0.000001805078    0.035888496713    0.018398915893
            0.036146104073    -0.023620807427    0.000014872401    -0.000001805078    0.034402194328    -0.052229427650    0.000015083646    -0.000001790812
            0.000014457067    -0.000001711464    0.035888513566    0.018398907132    0.000015083646    -0.000001790812    0.031737500126    -0.001435662367
0.200     0.011954986144    -0.059617848859    0.000015749301    -0.000005472726    0.021909386247    -0.034043690851    0.000015777417    -0.000005432451
            0.000015749301    -0.000005472726    0.021636559059    0.001666668205    0.000016220393    -0.000005612160    0.032178491340    0.016552342678
            0.021909386247    -0.034043690851    0.000016220393    -0.000005612160    0.012216819995    -0.059851859119    0.000016459664    -0.000005657198
            0.000015777417    -0.000005432451    0.032178491340    0.016552342678    0.000016459664    -0.000005657198    0.021956962691    0.001518264001
0.225     -0.014166675684    -0.057434717255    0.000016066999    -0.000009973734    0.002422152767    -0.037465488265    0.000016104456    -0.000009947574
            0.000016066999    -0.000009973734    0.012136996677    0.010234382873    0.000016560575    -0.000010232438    0.026615815288    0.018429069778
            0.002422152767    -0.037465488265    0.000016560575    -0.000010232438    -0.013823812351    -0.057876791195    0.000016807987    -0.000010348613
            0.000016104456    -0.000009947574    0.026615815288    0.018429069778    0.000016807987    -0.000010348613    0.012345949544    0.009988968830
0.250     -0.039615280510    -0.044084231788    0.000014995065    -0.000015010736    -0.018797642047    -0.031729679790    0.000015034539    -0.000014999396
            0.000014995065    -0.000015010736    0.005594202993    0.024121000418    0.000015478843    -0.000015409589    0.021397945783    0.024779971253
            -0.018797642047    -0.031729679790    0.000015478843    -0.000015409589    -0.039272726194    -0.044794387631    0.000015710805    -0.000015600719
            0.000015034539    -0.000014999396    0.021397945783    0.024779971253    0.000015710805    -0.000015600719    0.005639672885    0.023835630702
0.275     -0.059426021014    -0.020216889339    0.000012198389    -0.000020091690    -0.037443320233    -0.016461424328    0.000012234025    -0.000020092243
            0.000012198389    -0.000020091690    0.004502155183    0.041806992374    0.000012627795    -0.000020641374    0.018905592620    0.035166954236
            -0.037443320233    -0.016461424328    0.000012627795    -0.000020641374    -0.059196600742    -0.021215351088    0.000012820829    -0.000020903076
            0.000012234025    -0.000020092243    0.018905592620    0.035166954236    0.000012820829    -0.000020903076    0.004360918998    0.041562945332
0.300     -0.069215745154    0.011268159662    0.000007575582    -0.000024523067    -0.049342453870    0.006688251971    0.000007604536    -0.000024530709
            0.000007575582    -0.000024523067    0.010458243085    0.060661408014    0.000007898562    -0.000025217127    0.021079843517    0.047999359534
            -0.049342453870    0.006688251971    0.000007898562    -0.000025217127    -0.069222493031    0.010016381597    0.000008032178    -0.000025537467
            0.000007604536    -0.000024530709    0.021079843517    0.047999359534    0.000008032178    -0.000025537467    0.010146823786    0.060549298604
0.325     -0.066192084775    0.045689737531    0.000001373958    -0.000027564252    -0.051397498458    0.034299972413    0.000001396737    -0.000027574423
            0.000001373958    -0.000027564252    0.023686175147    0.077481262227    0.000001539775    -0.000028374676    0.028886259010    0.060885339607
            -0.051397498458    0.034299972413    0.000001539775    -0.000028374676    -0.066539768807    0.044276912390    0.000001598602    -0.000028736748
            0.000001396737    -0.000027574423    0.028886259010    0.060885339607    0.000001598602    -0.000028736748    0.023263294161    0.077580980051
0.350     -0.049841684819    0.077487250768    -0.000005812788    -0.000028639482    -0.042294771252    0.061879107012    -0.000005793762    -0.000028649614
            -0.000005812788    -0.000028639482    0.042908650629    0.089240989771    -0.000005842848    -0.000029518867    0.042058450680    0.071225094723
            -0.042294771252    0.061879107012    -0.000005842848    -0.000029518867    -0.050590283343    0.076051851291    -0.000005868482    -0.000029902732
            -0.000005793762    -0.000028649614    0.042058450680    0.071225094723    -0.000005868482    -0.000029902732    0.042467209525    0.089602537003
0.375     -0.022063882491    0.101336765375    -0.000013186888    -0.000027508224    -0.022755149276    0.084773976684    -0.000013168770    -0.000027517850
            -0.000013186888    -0.000027508224    0.065610970547    0.093765446976    -0.000013431396    -0.000028396789    0.059169524690    0.076809954710
            -0.022755149276    0.084773976684    -0.000013431396    -0.000028396789    -0.023209367276    0.100039433061    -0.000013545599    -0.000028781744
            -0.000013168770    -0.000027517850    0.059169524690    0.076809954710    -0.000013545599    -0.000028781744    0.065263282864    0.094395418051
0.400     0.013205697989    0.113158135029    -0.000019957902    -0.000024314974    0.004657573676    0.099057474452    -0.000019938451    -0.000024325446
            -0.000019957902    -0.000024314974    0.088592475772    0.090184045604    -0.000020412355    -0.000025151776    0.077982378625    0.076285068217
            0.004657573676    0.099057474452    -0.000020412355    -0.000025151776    0.011737630259    0.112152284510    -0.000020614304    -0.000025517436
            -0.000019938451    -0.000024325446    0.077982378625    0.076285068217    -0.000020614304    -0.000025517436    0.088448955942    0.091039775070
0.425     0.050746483805    0.110779257331    -0.000025536443    -0.000019507812    0.036060307152    0.102144381060    -0.000025514969    -0.000019521564
            -0.000025536443    -0.000019507812    0.108603848285    0.079038335499    -0.000026176601    -0.000020240773    0.095907563410    0.069355412003
            0.036060307152    0.102144381060    -0.000026176601    -0.000020240773    0.049094231366    0.110180605821    -0.000026461369    -0.000020568012
            -0.000025514969    -0.000019521564    0.095907563410    0.069355412003    -0.000026461369    -0.000020568012    0.108752414913    0.080031567208
0.450     0.084922807557    0.094209321889    -0.000029637781    -0.000013674000    0.066893286340    0.093121134564    -0.000029615004    -0.000013693513
            -0.000029637781    -0.000013674000    0.122919735441    0.062128894668    -0.000030428062    -0.000014266409    0.110459615865    0.056797077673
            0.066893286340    0.093121134564    -0.000030428062    -0.000014266409    0.083271837690    0.094070015453    -0.000030787228    -0.000014537880
            -0.000029615004    -0.000013693513    0.110459615865    0.056797077673    -0.000030787228    -0.000014537880    0.123408598790    0.063137276115
0.475     0.110497760948    0.065558449217    -0.000032283761    -0.000007361786    0.092545032054    0.072804165898    -0.000032261970    -0.000007389375
            -0.000032283761    -0.000007361786    0.129746939209    0.042175793254    -0.000033188431    -0.000007792783    0.119626377842    0.040312721182
            0.092545032054    0.072804165898    -0.000033188431    -0.000007792783    0.109058058799    0.065845730484    -0.000033610960    -0.000007993344
            -0.000032261970    -0.000007389375    0.119626377842    0.040312721182    -0.000033610960    -0.000007993344    0.130571291983    0.043060684998
0.500     0.123317776755    0.028742482929    -0.000033704851    -0.000000938412    0.108928917443    0.043646837179    -0.000033687477    -0.000000975847
            -0.000033704851    -0.000000938412    0.128483216297    0.022412697431    -0.000034698806    -0.000001195180    0.122179086038    0.022320484950
            0.108928917443    0.043646837179    -0.000034698806    -0.000001195180    0.122305524880    0.029310224636    -0.000035171522    -0.000001312124
            -0.000033687477    -0.000000975847    0.122179086038    0.022320484950    -0.000035171522    -0.000001312124    0.129578895100    0.023040571223
0.525     0.120853104271    -0.010966085683    -0.000034192404    0.000005500830    0.113064283378    0.009442490532    -0.000034184058    0.000005453206
            -0.000034192404    0.000005500830    0.119833175114    0.006133697188    -0.000035301749    0.000005457290    0.117914637068    0.005651416124
            0.113064283378    0.009442490532    -0.000035301749    0.000005457290    0.120592648064    -0.010520703561    -0.000035809844    0.000005434859
            -0.000034184058    0.000005453206    0.117914637068    0.005651416124    -0.000035809844    0.000005434859    0.121079876542    0.006401835491
0.550     0.102633860217    -0.047514159666    -0.000033917869    0.000012113769    0.103592268611    -0.023479835326    -0.000033924159    0.000012057978
            -0.000033917869    0.000012113769    0.105820633158    -0.003788562515    -0.000035088869    0.000011885426    0.107847183288    -0.006847697346
            0.103592268611    -0.023479835326    -0.000035088869    0.000011885426    0.103366766558    -0.045557050729    -0.000035615125    0.000011967368
            -0.000033924159    0.000012057978    0.107847183288    -0.006847697346    -0.000035615125    0.000011967368    0.107052763540    -0.003927652098
0.575     0.070533022289    -0.074797376561    -0.000032769102    0.000019189433    0.080089004903    -0.052024956294    -0.000032795421    0.000019130703
            -0.000032769102    0.000019189433    0.089624333099    -0.005441017720    -0.000033918411    0.000019287168    0.094238289594    -0.012857133195
            0.080089004903    -0.052024956294    -0.000033918411    0.000019287168    0.071429800352    -0.073813245432    -0.000034444859    0.000019482115
            -0.000032795421    0.000019130703    0.094238289594    -0.012857133195    -0.000034444859    0.000019482115    0.090656351137    -0.005959872411
0.600     0.028925874360    -0.087422284005    -0.000030239690    0.000026863404    0.046500612589    -0.069276923759    -0.000030289206    0.000026809908
            -0.000030239690    0.000026863404    0.075177432703    0.001601589515    -0.000031480144    0.000027234210    0.080375503253    -0.011193731886
            0.046500612589    -0.069276923759    -0.000031480144    0.000027234210    0.030371924426    -0.087459223028    -0.000031983850    0.000027548983
            -0.000030289206    0.000026809908    0.080375503253    -0.011193731886    -0.000031983850    0.000027548983    0.075840195779    0.000814463623
0.625     -0.015173359999    -0.082748619022    -0.000025750688    0.000034895967    0.007859019337    -0.071973813394    -0.000025823898    0.000034858250
            -0.000025750688    0.000034895967    0.066441990336    0.015905570398    -0.000026931579    0.000035625902    0.069963483978    -0.002337279611
            0.007859019337    -0.071973813394    -0.000026931579    0.000035625902    -0.014048983273    -0.083695928621    -0.000027384465    0.000036064353
            -0.000025823899    0.000034858250    0.069963485014    -0.002337278546    -0.000027384465    0.000036064353    0.066624473535    0.015036171871
0.650     -0.055475341686    -0.060677068924    -0.000018502332    0.000042658363    -0.030077263623    -0.058778808225    -0.000018592203    0.000042649436
            -0.000018502332    0.000042658363    0.066459529133    0.034215402766    -0.000019560863    0.000043670912    0.066221538632    0.011423658559
            -0.030077263623    -0.058778808225    -0.000019560863    0.000043670912    -0.054526386308    -0.062213486309    -0.000019929289    0.000044229609
            -0.000018592203    0.000042649436    0.066221538632    0.011423658559    -0.000019929289    0.000044229609    0.066144916581    0.033493398344
0.675     -0.084587042195    -0.023697910579    -0.000008290573    0.000048737931    -0.060456432912    -0.030973211375    -0.000008383038    0.000048765125
            -0.000008290573    0.000048737931    0.076445014839    0.052057726708    -0.000009159484    0.000050044670    0.070930162924    0.026407226640
            -0.060456432912    -0.030973211375    -0.000009159484    0.000050044670    -0.084039501913    -0.025903499238    -0.000009406194    0.000050708755
            -0.000008383038    0.000048765125    0.070930162924    0.026407226640    -0.000009406194    0.000050708755    0.075725753092    0.051707673269
0.700     -0.097303890729    0.022242602048    0.000004247069    0.000051744781    -0.077923324676    0.007030752256    0.000004169349    0.000051807930
            0.000004247069    0.000051744781    0.095346978150    0.064827880163    0.000003672355    0.000053312412    0.083881213044    0.038483346334
            -0.077923324676    0.007030752256    0.000003672355    0.000053312412    -0.097443346869    0.019523086930    0.000003582713    0.000054052915
            0.000004169349    0.000051807930    0.083881213044    0.038483346334    0.000003582713    0.000054052915    0.094412930794    0.065016696290
0.725     -0.091573641883    0.069701840636    0.000017765277    0.000050731593    -0.079633485963    0.049096322475    0.000017718266    0.000050821302
            0.000017765277    0.000050731593    0.120091253533    0.068959083149    0.000017577349    0.000052474555    0.102953416762    0.044158115747
            -0.079633485963    0.049096322475    0.000017577349    0.000052474555    -0.092583813119    0.066756211190    0.000017670997    0.000053248001
            0.000017718266    0.000050821302    0.102953416762    0.044158115747    0.000017670997    0.000053248001    0.119192531149    0.069756197922
0.750     -0.068672137801    0.111312171969    0.000030591212    0.000045541163    -0.065617512589    0.088723637635    0.000030584421    0.000045640540
            0.000030591212    0.000045541163    0.146426023358    0.062718392041    0.000030842881    0.000047337035    0.124784996438    0.041371817847
            -0.065617512589    0.088723637635    0.000030842881    0.000047337035    -0.070597329395    0.108482976364    0.000031130642    0.000048090194
            0.000030584421    0.000045640540    0.124784996438    0.041371817847    0.000031130642    0.000048090194    0.145821309987    0.064080534667
0.775     -0.032619742223    0.141180776607    0.000041228125    0.000036821681    -0.038406132381    0.120310779753    0.000041261540    0.000036911000
            0.000041228125    0.000036821681    0.169947171192    0.046395835870    0.000041920868    0.000038536012    0.145637524003    0.029749849968
            -0.038406132381    0.120310779753    0.000041920868    0.000038536012    -0.035363872810    0.138798827700    0.000042394312    0.000039213170
            0.000041261540    0.000036911000    0.145637524003    0.029749849968    0.000042394312    0.000039213170    0.169857174300    0.048175798132
