# GHz S RI R 45
0.000     0.022577843288    0.001894340549    0.000000585134    0.000000387235    0.000819054557    0.001619743561    0.000000228194    0.000000440434
            0.000000585134    0.000000387235    0.021138466999    0.001730115341    0.000021442552    0.000000371008    0.000683744093    0.001459745246
            0.000819054398    0.001619743529    0.000021442552    0.000000371008    0.022530029458    0.001882080159    0.000000617212    0.000000437022
            0.000000228194    0.000000440434    0.000683744289    0.001459745265    0.000000617212    0.000000437022    0.021098332721    0.001743137657
0.025     0.029496059044    0.009102319814    0.000001415714    0.000002145823    0.004064721254    0.010999765789    0.000000709795    0.000000823411
            0.000001415783    0.000002145757    0.027468727585    0.007674419159    0.000048674530    0.000140726373    0.003525343624    0.009414265124
            0.004062751519    0.011002918626    0.000048674538    0.000140726381    0.029422619009    0.009062133294    0.000001467731    0.000002269626
            0.000000709804    0.000000823413    0.003523585826    0.009413133625    0.000001467767    0.000002269666    0.027409995860    0.007631137895
0.050     0.039054104720    0.010253602750    0.000003341642    0.000003308597    0.012759904561    0.018464894029    0.000001658826    0.000000964441
            0.000003341644    0.000003308596    0.036212890761    0.008292346542    0.000128314348    0.000263587648    0.011240588443    0.015884255043
            0.012759884595    0.018464933353    0.000128314348    0.000263587648    0.038953434994    0.010177807541    0.000003437360    0.000003541713
            0.000001658826    0.000000964441    0.011240549233    0.015884217861    0.000003437361    0.000003541715    0.036167894224    0.008212201876
0.075     0.048785075664    0.005198038303    0.000005230579    0.000003252421    0.024225733575    0.020079167275    0.000002560022    0.000000452208
            0.000005230579    0.000003252421    0.045473739155    0.003502404849    0.000243525861    0.000347445728    0.021685011021    0.017403642572
            0.024225727129    0.020079171918    0.000243525861    0.000347445728    0.048664924036    0.005123415754    0.000005407630    0.000003548958
            0.000002560022    0.000000452208    0.021685005208    0.017403646619    0.000005407630    0.000003548957    0.045458853156    0.003377335944
0.100     0.055642569010    -0.005904941115    0.000006677793    0.000002618191    0.035165505904    0.015129204312    0.000003118792    -0.000000507023
            0.000006677792    0.000002618191    0.052773224606    -0.006784120344    0.000378694706    0.000387401071    0.032211113977    0.013187601780
            0.035165506822    0.015129204707    0.000378694706    0.000387401071    0.055528581422    -0.005959379584    0.000006921335    0.000002875569
            0.000003118792    -0.000000507023    0.032211112821    0.013187601964    0.000006921335    0.000002875569    0.052800913675    -0.006972152186
0.125     0.056539786708    -0.021373344100    0.000007943188    0.000001815789    0.042295090093    0.004494363910    0.000003296893    -0.000001689667
            0.000007943188    0.000001815789    0.055421500351    -0.021498152362    0.000519842362    0.000383880425    0.040071736276    0.003671477961
            0.042295090093    0.004494363910    0.000519842362    0.000383880425    0.056470843203    -0.021417889689    0.000008130986    0.000001942274
            0.000003296894    -0.000001689667    0.040071732514    0.003671464216    0.000008130986    0.000001942275    0.055498083147    -0.021777669813
0.150     0.049586039776    -0.038069129396    0.000009269313    0.000000704662    0.043057631947    -0.009533658202    0.000003111263    -0.000002981366
            0.000009269313    0.000000704662    0.051589231433    -0.038277535754    0.000654176753    0.000335105412    0.042953369516    -0.009584636773
            0.043057631947    -0.009533658202    0.000654176753    0.000335105412    0.049606683001    -0.038117610725    0.000009178636    0.000000720898
            0.000003111263    -0.000002981366    0.042953369516    -0.009584636773    0.000009178636    0.000000720898    0.051700411206    -0.038673232321
0.175     0.034261445255    -0.052125309250    0.000010620800    -0.000001152819    0.036146104073    -0.023620807427    0.000002531198    -0.000004414275
            0.000010620800    -0.000001152819    0.040333652227    -0.054116925851    0.000768088241    0.000245305136    0.039382081007    -0.024089604729
            0.036146104073    -0.023620807427    0.000768088241    0.000245305136    0.034402194328    -0.052229427650    0.000010039120    -0.000001026618
            0.000002531197    -0.000004414275    0.039382081007    -0.024089604729    0.000010039120    -0.000001026618    0.040457818940    -0.054657462900
0.200     0.011954986144    -0.059617848859    0.000011388688    -0.000004120575    0.021909386247    -0.034043690851    0.000001320127    -0.000005982694
            0.000011388689    -0.000004120576    0.022163664159    -0.065717772305    0.000849391723    0.000122750073    0.029072117015    -0.036867153452
            0.021909386247    -0.034043690851    0.000849391722    0.000122750074    0.012216819995    -0.059851859119    0.000010283712    -0.000003488167
            0.000001320127    -0.000005982694    0.029072117015    -0.036867153452    0.000010283712    -0.000003488168    0.022262015362    -0.066429342583
0.225     -0.014166675684    -0.057434717255    0.000010585792    -0.000007942972    0.002422152767    -0.037465488265    -0.000000876097    -0.000007388590
            0.000010585792    -0.000007942972    -0.000986259543    -0.070135038807    0.000888796853    -0.000020395360    0.013049539940    -0.044983274797
            0.002422152767    -0.037465488265    0.000888796853    -0.000020395360    -0.013823812351    -0.057876791195    0.000009230452    -0.000006393746
            -0.000000876097    -0.000007388590    0.013049539940    -0.044983274797    0.000009230452    -0.000006393746    -0.000971314052    -0.071028807984
0.250     -0.039615280510    -0.044084231788    0.000007475908    -0.000011503466    -0.018797642047    -0.031729679790    -0.000004205378    -0.000007939487
            0.000007475909    -0.000011503467    -0.025971981645    -0.065385724964    0.000881532131    -0.000169036785    -0.006440489043    -0.046110631870
            -0.018797642047    -0.031729679790    0.000881532131    -0.000169036785    -0.039272726194    -0.044794387631    0.000006424414    -0.000008848883
            -0.000004205378    -0.000007939487    -0.006440489043    -0.046110631870    0.000006424413    -0.000008848882    -0.026108759416    -0.066446448353
0.275     -0.059426021014    -0.020216889339    0.000002263255    -0.000013167631    -0.037443320233    -0.016461424328    -0.000008256287    -0.000006763617
            0.000002263255    -0.000013167631    -0.048926070584    -0.050905492699    0.000828531553    -0.000307043618    -0.026265678050    -0.039009794396
            -0.037443320233    -0.016461424328    0.000828531553    -0.000307043618    -0.059196600742    -0.021215351088    0.000002149075    -0.000009618674
            -0.000008256287    -0.000006763617    -0.026265678050    -0.039009794396    0.000002149075    -0.000009618674    -0.049281650451    -0.052086088922
0.300     -0.069215745154    0.011268159662    -0.000003649797    -0.000011620334    -0.049342453870    0.006688251971    -0.000011961220    -0.000003301186
            -0.000003649797    -0.000011620334    -0.065908272767    -0.027803690502    0.000736576629    -0.000419728418    -0.042935223229    -0.023852319197
            -0.049342453870    0.006688251971    0.000736576629    -0.000419728418    -0.069222493031    0.010016381597    -0.000002412294    -0.000007780076
            -0.000011961220    -0.000003301186    -0.042935223229    -0.023852319197    -0.000002412294    -0.000007780076    -0.066533935846    -0.029023595937
0.325     -0.066192084775    0.045689737531    -0.000008128306    -0.000006706952    -0.051397498458    0.034299972413    -0.000013926325    0.000002229035
            -0.000008128306    -0.000006706952    -0.073625909769    0.001216801083    0.000617126846    -0.000496156637    -0.053226493296    -0.002274367834
            -0.051397498458    0.034299972413    0.000617126846    -0.000496156637    -0.066539768807    0.044276912390    -0.000005573926    -0.000003345313
            -0.000013926325    0.000002229035    -0.053226493296    -0.002274367834    -0.000005573926    -0.000003345313    -0.074540531148    0.000064437441
0.350     -0.049841684819    0.077487250768    -0.000009303138    0.000000290794    -0.042294771252    0.061879107012    -0.000013062497    0.000008726937
            -0.000009303138    0.000000290794    -0.070079301969    0.032230551056    0.000484175835    -0.000530504683    -0.054796196353    0.022844404763
            -0.042294771252    0.061879107012    0.000484175835    -0.000530504683    -0.050590283343    0.076051851291    -0.000005931570    0.000002574607
            -0.000013062497    0.000008726937    -0.054796196353    0.022844404763    -0.000005931570    0.000002574607    -0.071258227737    0.031265995335
0.375     -0.022063882491    0.101336765375    -0.000006513055    0.000007207084    -0.022755149276    0.084773976684    -0.000009143031    0.000014617718
            -0.000006513055    0.000007207084    -0.054970192352    0.060723681626    0.000351931560    -0.000522104418    -0.046621097087    0.047848270135
            -0.022755149276    0.084773976684    0.000351931560    -0.000522104418    -0.023209367276    0.100039433061    -0.000003065863    0.000008248712
            -0.000009143031    0.000014617718    -0.046621097087    0.047848270135    -0.000003065863    0.000008248712    -0.056338311225    0.060061583634
0.400     0.013205697989    0.113158135029    -0.000000630004    0.000012115196    0.004657573676    0.099057474452    -0.000002960984    0.000018583972
            -0.000000630004    0.000012115196    -0.029818834446    0.082337115016    0.000233082528    -0.000474450311    -0.029208495264    0.068914245866
            0.004657573676    0.099057474452    0.000233082528    -0.000474450311    0.011737630259    0.112152284510    0.000002253199    0.000012227992
            -0.000002960984    0.000018583972    -0.029208495264    0.068914245866    0.000002253199    0.000012227992    -0.031253385375    0.082066347661
0.425     0.050746483805    0.110779257331    0.000006308353    0.000014494462    0.036060307152    0.102144381060    0.000003914500    0.000020273110
            0.000006308353    0.000014494462    0.002253162493    0.093574268129    0.000137879835    -0.000393814531    -0.004520907634    0.082663311688
            0.036060307152    0.102144381060    0.000137879828    -0.000393814533    0.049094231366    0.110180605821    0.000008363451    0.000014269289
            0.000003914500    0.000020273110    -0.004520907634    0.082663311688    0.000008363451    0.000014269289    0.000912717423    0.093739273647
0.450     0.084922807557    0.094209321889    0.000011151843    0.000015725591    0.066893286340    0.093121134564    0.000009100695    0.000020434565
            0.000011151843    0.000015725592    0.036984693835    0.092352539507    0.000073287137    -0.000288314034    0.024315209217    0.086683761159
            0.066893286340    0.093121134564    0.000073287137    -0.000288314034    0.083271837690    0.094070015453    0.000012521548    0.000015681091
            0.000009100694    0.000020434564    0.024315209217    0.086683761159    0.000012521548    0.000015681091    0.035920504037    0.092940442784
0.475     0.110497760948    0.065558449217    0.000009642864    0.000014956333    0.092545032054    0.072804165898    0.000009861997    0.000017925179
            0.000009642864    0.000014956333    0.069593394816    0.078309934014    0.000042831885    -0.000170409224    0.053457298071    0.079872202624
            0.092545032054    0.072804165898    0.000042831885    -0.000170409224    0.109058058799    0.065845730484    0.000010708748    0.000015107069
            0.000009861997    0.000017925179    0.053457298071    0.079872202624    0.000010708748    0.000015107069    0.068991238845    0.079243322075
0.500     0.123317776755    0.028742482929    0.000007042899    0.000009548495    0.108928917443    0.043646837179    0.000010143044    0.000011566624
            0.000007042899    0.000009548495    0.095437324831    0.052878082174    0.000053863932    -0.000054146473    0.078867199192    0.062607762126
            0.108928917443    0.043646837179    0.000053863932    -0.000054146473    0.122305524880    0.029310224636    0.000008315003    0.000009496144
            0.000010143044    0.000011566624    0.078867199192    0.062607762126    0.000008315003    0.000009496144    0.095472608666    0.054007044202
0.525     0.120853104271    -0.010966085683    0.000007056729    0.000005746992    0.113064283378    0.009442490532    0.000011190208    0.000005932711
            0.000007056729    0.000005746992    0.110648663684    0.019134424087    0.000106948939    0.000052284781    0.096841425765    0.036739745410
            0.113064283378    0.009442490532    0.000106948939    0.000052284781    0.120592648064    -0.010520703561    0.000008472598    0.000004976419
            0.000011190208    0.000005932711    0.096841425765    0.036739745410    0.000008472598    0.000004976419    0.111459571781    0.020207776511
0.550     0.102633860217    -0.047514159666    0.000008753574    0.000004062476    0.103592268611    -0.023479835326    0.000012034408    0.000001207721
            0.000008753574    0.000004062476    0.112755406322    -0.018569398433    0.000195523376    0.000136346352    0.104568387296    0.005392728655
            0.103592268611    -0.023479835326    0.000195523376    0.000136346352    0.103366766558    -0.045557050729    0.000009539213    0.000002290849
            0.000012034408    0.000001207721    0.104568387296    0.005392728655    0.000009539213    0.000002290849    0.114325940989    -0.017916107799
0.575     0.070533022289    -0.074797376561    0.000012245600    0.000002331656    0.080089004903    -0.052024956294    0.000012394708    -0.000003373038
            0.000012245600    0.000002331656    0.101022746557    -0.055331140220    0.000310298533    0.000186162338    0.100498857035    -0.027498040457
            0.080089004903    -0.052024956294    0.000310298533    0.000186162338    0.071429800352    -0.073813245432    0.000011219195    -0.000000350663
            0.000012394708    -0.000003373038    0.100498857035    -0.027498040457    0.000011219194    -0.000000350663    0.103107095301    -0.055374124613
0.600     0.028925874360    -0.087422284005    0.000016715174    -0.000002208653    0.046500612589    -0.069276923759    0.000011594102    -0.000008483879
            0.000016715174    -0.000002208653    0.076368057915    -0.086207366464    0.000437963487    0.000193566579    0.084494416326    -0.057564168607
            0.046500612589    -0.069276923759    0.000437963487    0.000193566579    0.030371924426    -0.087459223028    0.000012724716    -0.000003978406
            0.000011594102    -0.000008483879    0.084494416326    -0.057564168607    0.000012724716    -0.000003978406    0.078711462381    -0.087049509471
0.625     -0.015173359999    -0.082748619022    0.000017705311    -0.000009992685    0.007859019337    -0.071973813394    0.000008614351    -0.000013923637
            0.000017705311    -0.000009992685    0.041525312311    -0.106674990580    0.000562649907    0.000156071348    0.058086698104    -0.080464972182
            0.007859019337    -0.071973813394    0.000562649907    0.000156071348    -0.014048983273    -0.083695928621    0.000012619473    -0.000008865195
            0.000008614351    -0.000013923637    0.058086698104    -0.080464972182    0.000012619472    -0.000008865194    0.043899439191    -0.108381908735
0.650     -0.055475341686    -0.060677068924    0.000015253393    -0.000018001520    -0.030077263623    -0.058778808225    0.000002662267    -0.000018425886
            0.000015253393    -0.000018001520    0.000868492357    -0.113463476164    0.000668564239    0.000077717925    0.024435262117    -0.092641898704
            -0.030077263623    -0.058778808225    0.000668564239    0.000077717925    -0.054526386308    -0.062213486309    0.000009632606    -0.000013910128
            0.000002662267    -0.000018425886    0.024435262117    -0.092641898704    0.000009632606    -0.000013910128    0.003010082556    -0.116051309533
0.675     -0.084587042195    -0.023697910579    0.000008129286    -0.000024956878    -0.060456432912    -0.030973211375    -0.000005924605    -0.000019990139
            0.000008129286    -0.000024956878    -0.040205227898    -0.105151098807    0.000742918575    -0.000031583673    -0.012088019343    -0.091928200237
            -0.060456432912    -0.030973211375    0.000742918575    -0.000031583673    -0.084039501913    -0.025903499238    0.000003630595    -0.000017072286
            -0.000005924605    -0.000019990139    -0.012088019343    -0.091928200237    0.000003630595    -0.000017072286    -0.038579871557    -0.108540071108
0.700     -0.097303890729    0.022242602048    -0.000002733655    -0.000027433145    -0.077923324676    0.007030752256    -0.000015324723    -0.000016981901
            -0.000002733655    -0.000027433145    -0.076070045106    -0.082464441587    0.000778238924    -0.000158254029    -0.046525434648    -0.077969400744
            -0.077923324676    0.007030752256    0.000778238924    -0.000158254029    -0.097443346869    0.019523086930    -0.000003921778    -0.000016462884
            -0.000015324723    -0.000016981901    -0.046525434648    -0.077969400744    -0.000003921778    -0.000016462884    -0.075216812779    -0.086463965852
0.725     -0.091573641883    0.069701840636    -0.000013985834    -0.000023513341    -0.079633485963    0.049096322475    -0.000022766200    -0.000009164423
            -0.000013985834    -0.000023513341    -0.101736609603    -0.048233283023    0.000772910116    -0.000288022264    -0.074093757879    -0.052333562487
            -0.079633485963    0.049096322475    0.000772910116    -0.000288022264    -0.092583813119    0.066756211190    -0.000010437344    -0.000011506076
            -0.000022766200    -0.000009164423    -0.074093757879    -0.052333562487    -0.000010437344    -0.000011506076    -0.101835584234    -0.052555997538
0.750     -0.068672137801    0.111312171969    -0.000021662698    -0.000013893114    -0.065617512589    0.088723637635    -0.000025688159    0.000001894954
            -0.000021662698    -0.000013893114    -0.113649865142    -0.006984114731    0.000730095770    -0.000408331823    -0.090954157434    -0.018300921741
            -0.065617512589    0.088723637635    0.000730095770    -0.000408331823    -0.070597329395    0.108482976364    -0.000013395903    -0.000003438148
            -0.000025688159    0.000001894954    -0.090954157434    -0.018300921741    -0.000013395903    -0.000003438148    -0.114766550430    -0.011281494162
0.775     -0.032619742223    0.141180776607    -0.000023037714    -0.000001606307    -0.038406132381    0.120310779753    -0.000022876413    0.000013337888
            -0.000023037714    -0.000001606307    -0.110235038570    0.035769745785    0.000655928910    -0.000509437662    -0.094792067950    0.019664900245
            -0.038406132381    0.120310779753    0.000655928910    -0.000509437662    -0.035363872810    0.138798827700    -0.000011536481    0.000005164918
            -0.000022876413    0.000013337888    -0.094792067950    0.019664900245    -0.000011536481    0.000005164918    -0.112300730261    0.031858172594
