# GHz S RI R 45
0.000     0.022577843288    0.001894340549    -0.000005130950    -0.000010692667    0.000819054557    0.001619743561    -0.000005985898    -0.000012912126
            -0.000005130722    -0.000010692666    0.023345365201    0.001675731812    -0.000003870028    -0.000009073724    0.000929907103    0.001643798895
            0.000819054398    0.001619743529    -0.000003870294    -0.000009073725    0.022530029458    0.001882080159    -0.000004866243    -0.000010761085
            -0.000005985925    -0.000012912126    0.000929906439    0.001643798926    -0.000004866227    -0.000010761084    0.023284435129    0.001662238526
0.025     0.029496059044    0.009102319814    -0.000013059252    -0.000022562060    0.004064721254    0.010999765789    -0.000015453100    -0.000026783093
            -0.000013059259    -0.000022562054    0.028808838488    0.009638125067    -0.000010578589    -0.000018920425    0.003136229251    0.011909500303
            0.004062751519    0.011002918626    -0.000010578597    -0.000018920431    0.029422619009    0.009062133294    -0.000012422160    -0.000021023253
            -0.000015453108    -0.000026783087    0.003136795947    0.011908504122    -0.000012422142    -0.000021023248    0.028745881275    0.009607158026
0.050     0.039054104720    0.010253602750    -0.000030500085    -0.000036541230    0.012759904561    0.018464894029    -0.000036021058    -0.000043262934
            -0.000030500085    -0.000036541229    0.034896744927    0.013247690142    -0.000025193495    -0.000030561490    0.009291208930    0.021658763777
            0.012759884595    0.018464933353    -0.000025193495    -0.000030561491    0.038953434994    0.010177807541    -0.000028820409    -0.000033762365
            -0.000036021058    -0.000043262935    0.009291272789    0.021658785348    -0.000028820409    -0.000033762364    0.034773329003    0.013208570056
0.075     0.048785075664    0.005198038303    -0.000052919170    -0.000042027000    0.024225733575    0.020079167275    -0.000062440057    -0.000049848240
            -0.000052919170    -0.000042027000    0.040394771673    0.013488767389    -0.000043966668    -0.000035072055    0.017674358764    0.027801476038
            0.024225727129    0.020079171918    -0.000043966668    -0.000035072055    0.048664924036    0.005123415754    -0.000049692729    -0.000038495078
            -0.000062440057    -0.000049848240    0.017674364741    0.027801475793    -0.000049692729    -0.000038495078    0.040229992338    0.013488536518
0.100     0.055642569010    -0.005904941115    -0.000077533296    -0.000038609260    0.035165505904    0.015129204312    -0.000091559717    -0.000046008141
            -0.000077533296    -0.000038609260    0.043859782130    0.010985824334    -0.000064534351    -0.000032099566    0.026279931999    0.029974871257
            0.035165506822    0.015129204707    -0.000064534351    -0.000032099566    0.055528581422    -0.005959379584    -0.000072462392    -0.000034925943
            -0.000091559717    -0.000046008141    0.026279930953    0.029974872174    -0.000072462392    -0.000034925943    0.043685704531    0.011061205359
0.125     0.056539786708    -0.021373344100    -0.000101859282    -0.000026293218    0.042295090093    0.004494363910    -0.000120490686    -0.000031640396
            -0.000101859282    -0.000026293218    0.043949018201    0.007170812499    -0.000084795729    -0.000021662806    0.033260386211    0.028775315374
            0.042295090093    0.004494363910    -0.000084795729    -0.000021662806    0.056470843203    -0.021417889689    -0.000094841124    -0.000023092857
            -0.000120490686    -0.000031640396    0.033260386211    0.028775315374    -0.000094841124    -0.000023092857    0.043815310394    0.007337446189
0.150     0.049586039776    -0.038069129396    -0.000123794053    -0.000005480105    0.043057631947    -0.009533658202    -0.000146692034    -0.000007089313
            -0.000123794053    -0.000005480105    0.040344726688    0.003940852484    -0.000102981852    -0.000004134144    0.037219465387    0.025583346070
            0.043057631947    -0.009533658202    -0.000102981852    -0.000004134144    0.049606683001    -0.038117610725    -0.000114873376    -0.000003384038
            -0.000146692034    -0.000007089313    0.037219465387    0.025583346070    -0.000114873376    -0.000003384038    0.040327692734    0.004180356031
0.175     0.034261445255    -0.052125309250    -0.000141430347    0.000023680950    0.036146104073    -0.023620807427    -0.000167784593    0.000027485583
            -0.000141430347    0.000023680950    0.033510433271    0.003325970088    -0.000117494457    0.000020346413    0.037623761422    0.022319212444
            0.036146104073    -0.023620807427    -0.000117494457    0.000020346413    0.034402194328    -0.052229427650    -0.000130776281    0.000024058167
            -0.000167784593    0.000027485583    0.037623761422    0.022319212444    -0.000130776281    0.000024058167    0.033668238284    0.003573231571
0.200     0.011954986144    -0.059617848859    -0.000152291195    0.000061057707    0.021909386247    -0.034043690851    -0.000180744164    0.000071845838
            -0.000152291195    0.000061057707    0.024916885005    0.007048288725    -0.000126254574    0.000051639532    0.034961629571    0.020969911622
            0.021909386247    -0.034043690851    -0.000126254574    0.000051639532    0.012216819995    -0.059851859119    -0.000140204442    0.000059090487
            -0.000180744164    0.000071845838    0.034961629571    0.020969911622    -0.000140204442    0.000059090487    0.025269011280    0.007205492260
0.225     -0.014166675684    -0.057434717255    -0.000152909138    0.000105767252    0.002422152767    -0.037465488265    -0.000181466731    0.000124819987
            -0.000152909138    0.000105767252    0.016859583151    0.015992493351    -0.000126356131    0.000088971026    0.030685362126    0.023069234813
            0.002422152767    -0.037465488265    -0.000126356131    0.000088971026    -0.013823812351    -0.057876791195    -0.000139870550    0.000100826804
            -0.000181466731    0.000124819987    0.030685361724    0.023069235349    -0.000139870550    0.000100826804    0.017371662793    0.015951733221
0.250     -0.039615280510    -0.044084231788    -0.000139321795    0.000155085005    -0.018797642047    -0.031729679790    -0.000165380742    0.000183086373
            -0.000139321795    0.000155085005    0.011975323433    0.029851341003    -0.000114497087    0.000129996493    0.026900731611    0.029259625422
            -0.018797642047    -0.031729679790    -0.000114497087    0.000129996493    -0.039272726194    -0.044794387631    -0.000126057603    0.000146590257
            -0.000165380742    0.000183086373    0.026900731611    0.029259625422    -0.000126057603    0.000146590257    0.012557384488    0.029524114446
0.275     -0.059426021014    -0.020216889339    -0.000108335509    0.000203812014    -0.037443320233    -0.016461424328    -0.000128879164    0.000240520585
            -0.000108335509    0.000203812014    0.012606335159    0.047003525329    -0.000088057227    0.000170290043    0.025841433671    0.039032904583
            -0.037443320233    -0.016461424328    -0.000088057227    0.000170290043    -0.059196600742    -0.021215351088    -0.000095852354    0.000191348493
            -0.000128879164    0.000240520585    0.025841433671    0.039032904583    -0.000095852354    0.000191348493    0.013125472551    0.046349235244
0.300     -0.069215745154    0.011268159662    -0.000059304555    0.000244760856    -0.049342453870    0.006688251971    -0.000071315183    0.000288787212
            -0.000059304555    0.000244760856    0.020147856440    0.064790033153    -0.000046609607    0.000203781318    0.029267165648    0.050798047152
            -0.049342453870    0.006688251971    -0.000046609607    0.000203781318    -0.069222493031    0.010016381597    -0.000048837376    0.000228230230
            -0.000071315183    0.000288787212    0.029267165648    0.050798047152    -0.000048837376    0.000228230230    0.020456243360    0.063834314723
0.325     -0.066192084775    0.045689737531    0.000004736191    0.000270421998    -0.051397498458    0.034299972413    0.000003745434    0.000319232929
            0.000004736191    0.000270421998    0.034610713752    0.080074085261    0.000007139644    0.000224198457    0.037965208798    0.062247897709
            -0.051397498458    0.034299972413    0.000007139644    0.000224198457    -0.066539768807    0.044276912390    0.000011839282    0.000250158737
            0.000003745434    0.000319232929    0.037965208798    0.062247897709    0.000011839282    0.000250158737    0.034579764398    0.078912131446
0.350     -0.049841684819    0.077487250768    0.000077211330    0.000275257744    -0.042294771252    0.061879107012    0.000088716934    0.000325482517
            0.000077211330    0.000275257744    0.054546471964    0.089994849232    0.000067531417    0.000227024828    0.051539295861    0.070946954405
            -0.042294771252    0.061879107012    0.000067531417    0.000227024828    -0.050590283343    0.076051851291    0.000079683333    0.000252081699
            0.000088716934    0.000325482517    0.051539295861    0.070946954405    0.000079683333    0.000252081699    0.054098892174    0.088775194333
0.375     -0.022063882491    0.101336765375    0.000149612499    0.000257369968    -0.022755149276    0.084773976684    0.000173801511    0.000305317801
            0.000149612499    0.000257369968    0.077353727332    0.092608266668    0.000127366799    0.000210880636    0.068513451229    0.074897550122
            -0.022755149276    0.084773976684    0.000127366799    0.000210880636    -0.023209367276    0.100039433061    0.000146466806    0.000232534863
            0.000173801511    0.000305317801    0.068513451229    0.074897550122    0.000146466806    0.000232534863    0.076484184908    0.091505259232
0.400     0.013205697989    0.113158135029    0.000213786589    0.000218926703    0.004657573676    0.099057474452    0.000249595485    0.000261179309
            0.000213786589    0.000218926703    0.099853882244    0.087297496118    0.000179878436    0.000177805280    0.086697596121    0.072962015547
            0.004657573676    0.099057474452    0.000179878436    0.000177805280    0.011737630259    0.112152284510    0.000204457649    0.000194001980
            0.000249595485    0.000261179309    0.086697596121    0.072962015547    0.000204457649    0.000194001980    0.098633750830    0.086475878453
0.425     0.050746483805    0.110779257331    0.000263861462    0.000165143983    0.036060307152    0.102144381060    0.000309311236    0.000199005437
            0.000263861462    0.000165143983    0.118926025667    0.074829377277    0.000220319997    0.000132320096    0.103634079118    0.065026799534
            0.036060307152    0.102144381060    0.000220319997    0.000132320096    0.049094231366    0.110180605821    0.000248313482    0.000141821695
            0.000309311236    0.000199005437    0.103634079118    0.065026799534    0.000248313482    0.000141821695    0.117492440244    0.074411868767
0.450     0.084922807557    0.094209321889    0.000297260648    0.000102563177    0.066893286340    0.093121134564    0.000349926870    0.000126265820
            0.000297260648    0.000102563177    0.132058982506    0.057162149938    0.000246742521    0.000079933693    0.117035161425    0.051986445224
            0.066893286340    0.093121134564    0.000246742521    0.000079933693    0.083271837690    0.094070015453    0.000275981911    0.000082459358
            0.000349926870    0.000126265820    0.117035161425    0.051986445224    0.000275981911    0.000082459358    0.130593159982    0.057205180860
0.475     0.110497760948    0.065558449217    0.000314557382    0.000037193899    0.092545032054    0.072804165898    0.000372045112    0.000049796397
            0.000314557382    0.000037193899    0.137727445152    0.037077892722    0.000259802005    0.000025587183    0.125123518894    0.035580183726
            0.092545032054    0.072804165898    0.000259802005    0.000025587183    0.109058058799    0.065845730484    0.000288487744    0.000021653051
            0.000372045112    0.000049796397    0.125123518894    0.035580183726    0.000288487744    0.000021653051    0.136423957325    0.037558534288
0.500     0.123317776755    0.028742482929    0.000318575315    -0.000026893045    0.108928917443    0.043646837179    0.000378804928    -0.000025838725
            0.000318575315    -0.000026893045    0.135616215237    0.017761564941    0.000261972592    -0.000027488945    0.126919621873    0.018170514024
            0.108928917443    0.043646837179    0.000261972592    -0.000027488945    0.122305524880    0.029310224636    0.000288980947    -0.000036979396
            0.000378804928    -0.000025838725    0.126919621873    0.018170514024    0.000288980947    -0.000036979396    0.134649361385    0.018574618715
0.525     0.120853104271    -0.010966085683    0.000312848104    -0.000088363099    0.113064283378    0.009442490532    0.000374056543    -0.000099193452
            0.000312848095    -0.000088363096    0.126695480189    0.002337960718    0.000256517408    -0.000078572397    0.122449909523    0.002430068450
            0.113064283378    0.009442490532    0.000256517408    -0.000078572397    0.120592648064    -0.010520703561    0.000281473802    -0.000092863230
            0.000374056543    -0.000099193452    0.122449909523    0.002430068450    0.000281473802    -0.000092863230    0.126186364087    0.003307367642
0.550     0.102633860217    -0.047514159666    0.000299827180    -0.000148501937    0.103592268611    -0.023479835326    0.000360288138    -0.000171800070
            0.000299827180    -0.000148501937    0.113186029276    -0.006609226045    0.000245083592    -0.000124712834    0.112900287161    -0.009059045586
            0.103592268611    -0.023479835326    0.000245083592    -0.000124712834    0.103366766558    -0.045557050729    0.000267759685    -0.000142634222
            0.000360288138    -0.000171800070    0.112900287161    -0.009059045586    0.000267759685    -0.000142634222    0.113170347523    -0.005705538346
0.575     0.070533022289    -0.074797376561    0.000279263837    -0.000210101100    0.080089004903    -0.052024956294    0.000336856704    -0.000246600420
            0.000279263837    -0.000210101100    0.098334421011    -0.007554333908    0.000226177587    -0.000176224922    0.100587155800    -0.014333051676
            0.080089004903    -0.052024956294    0.000226177587    -0.000176224922    0.071429800352    -0.073813245432    0.000246191875    -0.000199016458
            0.000336856704    -0.000246600420    0.100587155800    -0.014333051676    0.000246191875    -0.000199016458    0.098743936149    -0.006946272733
0.600     0.028925874360    -0.087422284005    0.000247223036    -0.000274771873    0.046500612589    -0.069276923759    0.000298947000    -0.000325060719
            0.000247223036    -0.000274771873    0.085955753932    -0.000502031924    0.000198906739    -0.000229256041    0.088680882381    -0.012604701528
            0.046500612589    -0.069276923759    0.000198906739    -0.000229256041    0.030371924426    -0.087459223028    0.000215547864    -0.000257233870
            0.000298947000    -0.000325060719    0.088680882381    -0.012604701528    0.000215547864    -0.000257233870    0.086617201811    -0.000378089666
0.625     -0.015173359999    -0.082748619022    0.000198516683    -0.000340835597    0.007859019337    -0.071973813394    0.000240668212    -0.000404691977
            0.000198516683    -0.000340835597    0.079674885130    0.012741765055    0.000157183607    -0.000283186304    0.080562099295    -0.004694690714
            0.007859019337    -0.071973813394    0.000157183607    -0.000283186304    -0.014048983273    -0.083695928621    0.000168689652    -0.000316622757
            0.000240668212    -0.000404691977    0.080562099287    -0.004694690854    0.000168689652    -0.000316622757    0.080335732632    0.012283649272
0.650     -0.055475341686    -0.060677068924    0.000126286937    -0.000402340500    -0.030077263623    -0.058778808225    0.000154407370    -0.000478304523
            0.000126286937    -0.000402340500    0.082013238724    0.028728966433    0.000096299080    -0.000332172679    0.078956932858    0.006943479988
            -0.030077263623    -0.058778808225    0.000096299080    -0.000332172679    -0.054526386308    -0.062213486309    0.000100205634    -0.000370446994
            0.000154407370    -0.000478304523    0.078956932858    0.006943479988    0.000100205634    -0.000370446994    0.082391676100    0.027716546358
0.675     -0.084587042195    -0.023697910579    0.000029318861    -0.000446824910    -0.060456432912    -0.030973211375    0.000039108046    -0.000531346232
            0.000029318861    -0.000446824910    0.093592559434    0.043069778852    0.000015554463    -0.000366530246    0.085092942683    0.018726397638
            -0.060456432912    -0.030973211375    0.000015554463    -0.000366530246    -0.084039501913    -0.025903499238    0.000009348654    -0.000407590152
            0.000039108046    -0.000531346232    0.085092942683    0.018726397638    0.000009348654    -0.000407590152    0.093443071627    0.041660380191
0.700     -0.097303890729    0.022242602048    -0.000086047791    -0.000462126229    -0.077923324676    0.007030752256    -0.000097551401    -0.000549830138
            -0.000086047791    -0.000462126229    0.112859578603    0.051527472572    -0.000079565001    -0.000376279430    0.098308556167    0.026887901862
            -0.077923324676    0.007030752256    -0.000079565001    -0.000376279430    -0.097443346869    0.019523086930    -0.000097522977    -0.000416654127
            -0.000097551401    -0.000549830138    0.098308556167    0.026887901862    -0.000097522977    -0.000416654127    0.112031103993    0.049977403188
0.725     -0.091573641883    0.069701840636    -0.000207088894    -0.000440399498    -0.079633485963    0.049096322475    -0.000240728510    -0.000524817445
            -0.000207088894    -0.000440399498    0.136463625871    0.051099204807    -0.000178192297    -0.000355297668    0.116250744256    0.028469335361
            -0.079633485963    0.049096322475    -0.000178192297    -0.000355297668    -0.092583813119    0.066756211190    -0.000207862361    -0.000390698125
            -0.000240728510    -0.000524817445    0.116250744753    0.028469333332    -0.000207862361    -0.000390698125    0.134934755448    0.049706261231
0.750     -0.068672137801    0.111312171969    -0.000318491891    -0.000381243188    -0.065617512589    0.088723637635    -0.000372615791    -0.000455932905
            -0.000318491891    -0.000381243188    0.160155335462    0.040664856199    -0.000267569032    -0.000303875875    0.135589797746    0.021971834747
            -0.065617512589    0.088723637635    -0.000267569032    -0.000303875875    -0.070597329395    0.108482976364    -0.000306961727    -0.000330180356
            -0.000372615791    -0.000455932905    0.135589797746    0.021971834747    -0.000306961727    -0.000330180356    0.158034071460    0.039705214722
0.775     -0.032619742223    0.141180776607    -0.000406951182    -0.000291477475    -0.038406132381    0.120310779753    -0.000477743674    -0.000351134583
            -0.000406951182    -0.000291477475    0.179776363732    0.021047421251    -0.000337009064    -0.000228278417    0.152831642322    0.007492494636
            -0.038406132381    0.120310779753    -0.000337009064    -0.000228278417    -0.035363872810    0.138798827700    -0.000382459440    -0.000242542389
            -0.000477743674    -0.000351134583    0.152831642322    0.007492494636    -0.000382459440    -0.000242542389    0.177273655064    0.020723193732
