# GHz S RI R 45
0.000     0.022577843288    0.001894340549    -0.000001729665    -0.000003772074    0.000819054557    0.001619743561    -0.000001920735    -0.000004115815
            -0.000001729665    -0.000003772074    0.023297606807    0.001550377050    -0.000001562022    -0.000003452197    0.000835083620    0.001477523721
            0.000819054398    0.001619743529    -0.000001562022    -0.000003452197    0.022530029458    0.001882080159    -0.000001715587    -0.000003729930
            -0.000001920735    -0.000004115815    0.000835083772    0.001477523749    -0.000001715587    -0.000003729930    0.023244131822    0.001539425250
0.025     0.029496059044    0.009102319814    -0.000004591585    -0.000007754281    0.004064721254    0.010999765789    -0.000005038595    -0.000008464402
            -0.000004591590    -0.000007754289    0.029017747161    0.009761745803    -0.000004178303    -0.000007103357    0.003153002433    0.011810007126
            0.004062751519    0.011002918626    -0.000004178296    -0.000007103340    0.029422619009    0.009062133294    -0.000004538592    -0.000007676667
            -0.000005038589    -0.000008464389    0.003151625445    0.011810014487    -0.000004538586    -0.000007676657    0.028932722880    0.009709068581
0.050     0.039054104720    0.010253602750    -0.000010604845    -0.000012272250    0.012759904561    0.018464894029    -0.000011592448    -0.000013409867
            -0.000010604846    -0.000012272250    0.035438798029    0.013134801312    -0.000009685473    -0.000011251434    0.009486880408    0.021280621899
            0.012759884595    0.018464933353    -0.000009685473    -0.000011251434    0.038953434994    0.010177807541    -0.000010484403    -0.000012171339
            -0.000011592448    -0.000013409867    0.009486887469    0.021280527877    -0.000010484403    -0.000012171339    0.035280899204    0.013066962012
0.075     0.048785075664    0.005198038303    -0.000018119691    -0.000013916369    0.024225733575    0.020079167275    -0.000019798013    -0.000015237123
            -0.000018119691    -0.000013916369    0.041218944923    0.012894166769    -0.000016577618    -0.000012766023    0.018010473854    0.026968084756
            0.024225727129    0.020079171918    -0.000016577618    -0.000012766023    0.048664924036    0.005123415754    -0.000017938514    -0.000013832240
            -0.000019798013    -0.000015237123    0.018010478391    0.026968079320    -0.000017938514    -0.000013832240    0.040987330015    0.012870690739
0.100     0.055642569010    -0.005904941115    -0.000026277791    -0.000012624370    0.035165505904    0.015129204312    -0.000028740448    -0.000013858703
            -0.000026277791    -0.000012624370    0.044784433266    0.009683847473    -0.000024064785    -0.000011583978    0.026614222801    0.028518722041
            0.035165506822    0.015129204707    -0.000024064785    -0.000011583978    0.055528581422    -0.005959379584    -0.000026063507    -0.000012575357
            -0.000028740448    -0.000013858703    0.026614245054    0.028518714952    -0.000026063507    -0.000012575357    0.044510136187    0.009759845508
0.125     0.056539786708    -0.021373344100    -0.000034296714    -0.000008423402    0.042295090093    0.004494363910    -0.000037556420    -0.000009270807
            -0.000034296714    -0.000008423402    0.044608016735    0.004988659778    -0.000031428246    -0.000007725683    0.033353824928    0.026595022820
            0.042295090093    0.004494363910    -0.000031428246    -0.000007725683    0.056470843203    -0.021417889689    -0.000034072887    -0.000008396330
            -0.000037556420    -0.000009270807    0.033353824464    0.026595023402    -0.000034072887    -0.000008396330    0.044358905838    0.005195854304
0.150     0.049586039776    -0.038069129396    -0.000041517277    -0.000001427151    0.043057631947    -0.009533658202    -0.000045493698    -0.000001579342
            -0.000041517277    -0.000001427151    0.040449972173    0.000945885765    -0.000038053537    -0.000001294448    0.036768175957    0.022680448719
            0.043057631947    -0.009533658202    -0.000038053537    -0.000001294448    0.049606683001    -0.038117610725    -0.000041275340    -0.000001391702
            -0.000045493698    -0.000001579342    0.036768175957    0.022680448719    -0.000041275340    -0.000001391702    0.040300285215    0.001267067073
0.175     0.034261445255    -0.052125309250    -0.000047311536    0.000008333948    0.036146104073    -0.023620807427    -0.000051821395    0.000009166059
            -0.000047311536    0.000008333948    0.032701792361    -0.000321327114    -0.000043359476    0.000007679869    0.036314458529    0.018835368841
            0.036146104073    -0.023620807427    -0.000043359476    0.000007679869    0.034402194328    -0.052229427650    -0.000047004368    0.000008390978
            -0.000051821395    0.000009166059    0.036314458529    0.018835368841    -0.000047004368    0.000008390978    0.032721854982    0.000064219312
0.200     0.011954986144    -0.059617848859    -0.000050845436    0.000020829082    0.021909386247    -0.034043690851    -0.000055606900    0.000022881393
            -0.000050845436    0.000020829082    0.022890232382    0.003075881260    -0.000046573896    0.000019163128    0.032537724178    0.017187302470
            0.021909386247    -0.034043690851    -0.000046573896    0.000019163128    0.012216819995    -0.059851859119    -0.000050407198    0.000020871069
            -0.000055606900    0.000022881393    0.032537724178    0.017187302470    -0.000050407198    0.000020871069    0.023121730992    0.003437490353
0.225     -0.014166675684    -0.057434717255    -0.000050943683    0.000035763760    0.002422152767    -0.037465488265    -0.000055590962    0.000039182991
            -0.000050943683    0.000035763760    0.013462969646    0.012158315199    -0.000046614461    0.000032874211    0.027012992703    0.019381134807
            0.002422152767    -0.037465488265    -0.000046614461    0.000032874211    -0.013823812351    -0.057876791195    -0.000050334189    0.000035692286
            -0.000055590962    0.000039182991    0.027012992703    0.019381134807    -0.000050334189    0.000035692286    0.013898829784    0.012386017617
0.250     -0.039615280510    -0.044084231788    -0.000046273181    0.000052204416    -0.018797642047    -0.031729679790    -0.000050387078    0.000057019294
            -0.000046273181    0.000052204416    0.007272840748    0.026672455379    -0.000042262678    0.000047940077    0.022018882478    0.026107386094
            -0.018797642047    -0.031729679790    -0.000042262678    0.000047940077    -0.039272726194    -0.044794387631    -0.000045525290    0.000051883214
            -0.000050387078    0.000057019294    0.022018882478    0.026107386094    -0.000045525290    0.000051883214    0.007848066884    0.026662052284
0.275     -0.059426021014    -0.020216889339    -0.000035782882    0.000068382522    -0.037443320233    -0.016461424328    -0.000038934504    0.000074484652
            -0.000035782882    0.000068382522    0.006890330425    0.044942518816    -0.000032568304    0.000062725473    0.019977244156    0.036819600607
            -0.037443320233    -0.016461424328    -0.000032568304    0.000062725473    -0.059196600742    -0.021215351088    -0.000035025897    0.000067694976
            -0.000038934504    0.000074484652    0.019977244156    0.036819600607    -0.000035025897    0.000067694976    0.007488835401    0.044626476217
0.300     -0.069215745154    0.011268159662    -0.000019302336    0.000081878897    -0.049342453870    0.006688251971    -0.000021104350    0.000089024397
            -0.000019302336    0.000081878897    0.013895535729    0.064147635682    -0.000017399533    0.000075005366    0.022803287388    0.049799908887
            -0.049342453870    0.006688251971    -0.000017399533    0.000075005366    -0.069222493031    0.010016381597    -0.000018741834    0.000080792933
            -0.000021104350    0.000089024397    0.022803287388    0.049799908887    -0.000018741834    0.000080792933    0.014373529406    0.063519155913
0.325     -0.066192084775    0.045689737531    0.000002090533    0.000090204018    -0.051397498458    0.034299972413    0.000001945172    0.000098038052
            0.000002090533    0.000090204018    0.028391139618    0.080916291816    0.000002228576    0.000082507725    0.031366244661    0.062553297378
            -0.051397498458    0.034299972413    0.000002228576    0.000082507725    -0.066539768807    0.044276912390    0.000002240815    0.000088816123
            0.000001945172    0.000098038052    0.031366244661    0.062553297378    0.000002240815    0.000088816123    0.028609494798    0.080038214888
0.350     -0.049841684819    0.077487250768    0.000026154543    0.000091572948    -0.042294771252    0.061879107012    0.000027857263    0.000099665071
            0.000026154543    0.000091572948    0.048901768440    0.092133273971    0.000024241709    0.000083622532    0.045256099202    0.072439017503
            -0.042294771252    0.061879107012    0.000024241709    0.000083622532    -0.050590283343    0.076051851291    0.000025749347    0.000090097801
            0.000027857263    0.000099665071    0.045256099202    0.072439017503    0.000025749347    0.000090097801    0.048760141160    0.091129698646
0.375     -0.022063882491    0.101336765375    0.000050048597    0.000085444555    -0.022755149276    0.084773976684    0.000053668481    0.000093331519
            0.000050048597    0.000085444555    0.072691221958    0.095640107505    0.000046033246    0.000077891045    0.062896667353    0.077284289725
            -0.022755149276    0.084773976684    0.000046033246    0.000077891045    -0.023209367276    0.100039433061    0.000049080424    0.000084157491
            0.000053668481    0.000093331519    0.062896667353    0.077284289725    0.000049080424    0.000084157491    0.072152282682    0.094671868758
0.400     0.013205697989    0.113158135029    0.000071106774    0.000072630567    0.004657573676    0.099057474452    0.000076597836    0.000079852265
            0.000071106774    0.000072630567    0.096367713863    0.090683501903    0.000065184914    0.000066088377    0.081936293577    0.075836927793
            0.004657573676    0.099057474452    0.000065184914    0.000066088377    0.011737630259    0.112152284510    0.000069717407    0.000071779741
            0.000076597836    0.000079852265    0.081936293577    0.075836927793    0.000069717407    0.000071779741    0.095468907919    0.089916425417
0.425     0.050746483805    0.110779257331    0.000087478362    0.000054922097    0.036060307152    0.102144381060    0.000094691088    0.000061047315
            0.000087478362    0.000054922097    0.116561185621    0.077991503072    0.000080034960    0.000049869722    0.099727140111    0.067942623941
            0.036060307152    0.102144381060    0.000080034960    0.000049869722    0.049094231366    0.110180605821    0.000085927471    0.000054642998
            0.000094691088    0.000061047315    0.099727140111    0.067942623941    0.000085927471    0.000054642998    0.115408829075    0.077563967803
0.450     0.084922807557    0.094209321889    0.000098431061    0.000034488936    0.066893286340    0.093121134564    0.000107136238    0.000039125155
            0.000098431061    0.000034488936    0.130513695454    0.059583103151    0.000089954667    0.000031207194    0.113788148159    0.054527964936
            0.066893286340    0.093121134564    0.000089954667    0.000031207194    0.083271837690    0.094070015453    0.000097012701    0.000034755037
            0.000107136238    0.000039125155    0.113788148159    0.054527964936    0.000097012701    0.000034755037    0.129265940214    0.059579525014
0.475     0.110497760948    0.065558449217    0.000104278071    0.000013250874    0.092545032054    0.072804165898    0.000114170865    0.000016049782
            0.000104278071    0.000013250874    0.136485207167    0.038390385066    0.000095255043    0.000011826513    0.122166331911    0.037433276810
            0.092545032054    0.072804165898    0.000095255043    0.000011826513    0.109058058799    0.065845730484    0.000103229728    0.000013874803
            0.000114170865    0.000016049782    0.122166331911    0.037433276810    0.000103229728    0.000013874803    0.135326794796    0.038828096591
0.500     0.123317776755    0.028742482929    0.000106030682    -0.000007577906    0.108928917443    0.043646837179    0.000116735878    -0.000006917056
            0.000106030682    -0.000007577906    0.134002104738    0.017818175722    0.000096872364    -0.000007220630    0.123739350763    0.019183923656
            0.108928917443    0.043646837179    0.000096872364    -0.000007220630    0.122305524880    0.029310224636    0.000105459436    -0.000006910378
            0.000116735878    -0.000006917056    0.123739350763    0.019183923656    0.000105459436    -0.000006910378    0.133118288888    0.018651789581
0.525     0.120853104271    -0.010966085683    0.000104843411    -0.000027724422    0.113064283378    0.009442490532    0.000115918481    -0.000029455363
            0.000104843411    -0.000027724422    0.123948328761    0.001177319316    0.000095950479    -0.000025813836    0.118442334979    0.002623648850
            0.113064283378    0.009442490532    0.000095950479    -0.000025813836    0.120592648064    -0.010520703561    0.000104804013    -0.000027453408
            0.000115918481    -0.000029455363    0.118442334979    0.002623648850    0.000104804013    -0.000027453408    0.123513311594    0.002406850730
0.550     0.102633860217    -0.047514159666    0.000101397646    -0.000048024332    0.103592268611    -0.023479835326    0.000112323882    -0.000052170150
            0.000101397646    -0.000048024332    0.109494143247    -0.007991935880    0.000092925903    -0.000043320466    0.108002661806    -0.009059606172
            0.103592268611    -0.023479835326    0.000092925903    -0.000043320466    0.103366766558    -0.045557050729    0.000101611982    -0.000046777404
            0.000112323882    -0.000052170150    0.108002661806    -0.009059606172    0.000101611982    -0.000046777404    0.108731824286    -0.007060501581
0.575     0.070533022289    -0.074797376561    0.000095517349    -0.000069121213    0.080089004903    -0.052024956294    0.000105625747    -0.000075861629
            0.000095517349    -0.000069121213    0.092122632559    -0.008628750729    0.000087225087    -0.000063082180    0.093760352028    -0.013988890011
            0.080089004903    -0.052024956294    0.000087225087    -0.000063082180    0.071429800352    -0.073813245432    0.000095162310    -0.000068662081
            0.000105625747    -0.000075861629    0.093760352028    -0.013988890011    0.000095162310    -0.000068662081    0.092176101280    -0.007869780091
0.600     0.028925874360    -0.087422284005    0.000085396340    -0.000091789160    0.046500612589    -0.069276923759    0.000094062883    -0.000100969218
            0.000085396340    -0.000091789160    0.077554264224    -0.000344868109    0.000077984244    -0.000083995513    0.080130564357    -0.011100743719
            0.046500612589    -0.069276923759    0.000077984244    -0.000083995513    0.030371924426    -0.087459223028    0.000084706188    -0.000091520131
            0.000094062883    -0.000100969218    0.080130564357    -0.011100743719    0.000084706188    -0.000091520131    0.078050176608    0.000212174810
0.625     -0.015173359999    -0.082748619022    0.000069124250    -0.000115156453    0.007859019337    -0.071973813394    0.000075715371    -0.000126393902
            0.000069124250    -0.000115156453    0.069558009887    0.015132548846    0.000062781280    -0.000105536198    0.070672179794    -0.001381689959
            0.007859019337    -0.071973813394    0.000062781280    -0.000105536198    -0.014048983273    -0.083695928621    0.000067755667    -0.000114668723
            0.000075715371    -0.000126393902    0.070672179794    -0.001381689959    0.000067755667    -0.000114668723    0.070328424454    0.015019286622
0.650     -0.055475341686    -0.060677068924    0.000044311757    -0.000136942554    -0.030077263623    -0.058778808225    0.000048334537    -0.000149745119
            0.000044311757    -0.000136942554    0.071073756853    0.034109941181    0.000039823191    -0.000125229418    0.068283208830    0.012799950561
            -0.030077263623    -0.058778808225    0.000039823191    -0.000125229418    -0.054526386308    -0.062213486309    0.000042677423    -0.000135525946
            0.000048334537    -0.000149745119    0.068283208830    0.012799950561    0.000042677423    -0.000135525946    0.071561623805    0.033430216699
0.675     -0.084587042195    -0.023697910579    0.000010649515    -0.000152547915    -0.060456432912    -0.030973211375    0.000011719266    -0.000166269033
            0.000010649515    -0.000152547915    0.082987417576    0.051745214796    0.000008929942    -0.000139164164    0.074623193472    0.027472251964
            -0.060456432912    -0.030973211375    0.000008929942    -0.000139164164    -0.084039501913    -0.025903499238    0.000009388773    -0.000150085033
            0.000011719266    -0.000166269033    0.074623193472    0.027472251964    0.000009388773    -0.000150085033    0.083005936738    0.050721374134
0.700     -0.097303890729    0.022242602048    -0.000029348117    -0.000157652842    -0.077923324676    0.007030752256    -0.000031415012    -0.000171548352
            -0.000029348117    -0.000157652842    0.103764818016    0.063287926418    -0.000027586574    -0.000143430033    0.089047346675    0.038394962719
            -0.077923324676    0.007030752256    -0.000027586574    -0.000143430033    -0.097443346869    0.019523086930    -0.000029631551    -0.000154365992
            -0.000031415012    -0.000171548352    0.089047346675    0.038394962719    -0.000029631551    -0.000154365992    0.103200244148    0.062160056192
0.725     -0.091573641883    0.069701840636    -0.000070973181    -0.000149674143    -0.079633485963    0.049096322475    -0.000076151772    -0.000162986826
            -0.000070973181    -0.000149674143    0.129844337259    0.065292618013    -0.000065379750    -0.000135751394    0.109027139978    0.042234136063
            -0.079633485963    0.049096322475    -0.000065379750    -0.000135751394    -0.092583813119    0.066756211190    -0.000069863717    -0.000146098565
            -0.000076151772    -0.000162986826    0.109027139978    0.042234136063    -0.000069863717    -0.000146098565    0.128691843759    0.064329629586
0.750     -0.068672137801    0.111312171969    -0.000108776818    -0.000128776046    -0.065617512589    0.088723637635    -0.000116842288    -0.000140804658
            -0.000108776818    -0.000128776046    0.156623270082    0.056359279248    -0.000099484802    -0.000116394996    0.130946029357    0.037261673663
            -0.065617512589    0.088723637635    -0.000099484802    -0.000116394996    -0.070597329395    0.108482976364    -0.000106186480    -0.000125612879
            -0.000116842288    -0.000140804658    0.130946029357    0.037261673663    -0.000106186480    -0.000125612879    0.154994281666    0.055806273488
0.775     -0.032619742223    0.141180776607    -0.000138225267    -0.000097654684    -0.038406132381    0.120310779753    -0.000148811149    -0.000107797600
            -0.000138225267    -0.000097654684    0.179550914305    0.037207545387    -0.000125844019    -0.000087923980    0.151003509601    0.023489074310
            -0.038406132381    0.120310779753    -0.000125844019    -0.000087923980    -0.035363872810    0.138798827700    -0.000134438996    -0.000095564449
            -0.000148811149    -0.000107797600    0.151003509601    0.023489074310    -0.000134438996    -0.000095564449    0.177650172601    0.037237874479
