# GHz S RI R 45
0.000     0.022577843288    0.001894340549    0.000000049232    -0.000000036903    0.000819054557    0.001619743561    0.000000077005    -0.000000005061
            0.000000049232    -0.000000036903    0.021878163651    0.001547772972    0.000000099361    0.000000036665    0.000752992098    0.001374564244
            0.000819054398    0.001619743529    0.000000099361    0.000000036665    0.022530029458    0.001882080159    0.000000139136    0.000000084267
            0.000000077005    -0.000000005061    0.000752992626    0.001374564297    0.000000139136    0.000000084267    0.021761456956    0.001538189345
0.025     0.029496059044    0.009102319814    0.000000035313    -0.000000100221    0.004064721254    0.010999765789    0.000000100433    -0.000000046455
            0.000000035313    -0.000000100221    0.028095537518    0.007883212317    0.000000167157    0.000000027347    0.003613372243    0.009853850445
            0.004062751519    0.011002918626    0.000000167158    0.000000027347    0.029422619009    0.009062133294    0.000000263204    0.000000107599
            0.000000100432    -0.000000046455    0.003614808837    0.009853474786    0.000000263204    0.000000107599    0.028022338923    0.007850391946
0.050     0.039054104720    0.010253602750    -0.000000053913    -0.000000196077    0.012759904561    0.018464894029    0.000000079779    -0.000000145114
            -0.000000053913    -0.000000196077    0.036721310333    0.008691690200    0.000000234310    -0.000000058823    0.011424668059    0.016694589133
            0.012759884595    0.018464933353    0.000000234310    -0.000000058823    0.038953434994    0.010177807541    0.000000430360    0.000000021370
            0.000000079779    -0.000000145114    0.011424660523    0.016694611255    0.000000430360    0.000000021370    0.036633809448    0.008662537719
0.075     0.048785075664    0.005198038303    -0.000000206184    -0.000000230659    0.024225733575    0.020079167275    -0.000000011079    -0.000000227845
            -0.000000206184    -0.000000230659    0.045728546713    0.004035319643    0.000000234162    -0.000000189432    0.021930061166    0.018419373767
            0.024225727129    0.020079171918    0.000000234162    -0.000000189432    0.048664924036    0.005123415754    0.000000523250    -0.000000176971
            -0.000000011079    -0.000000227845    0.021930055456    0.018419377456    0.000000523250    -0.000000176971    0.045632813953    0.004022373153
0.100     0.055642569010    -0.005904941115    -0.000000382849    -0.000000174182    0.035165505904    0.015129204312    -0.000000153187    -0.000000258214
            -0.000000382849    -0.000000174182    0.052506741570    -0.006106483398    0.000000157012    -0.000000325184    0.032317869517    0.014272983897
            0.035165506822    0.015129204707    0.000000157012    -0.000000325184    0.055528581422    -0.005959379584    0.000000502830    -0.000000438367
            -0.000000153187    -0.000000258214    0.032317869268    0.014272984461    0.000000502830    -0.000000438367    0.052426877064    -0.006088990322
0.125     0.056539786708    -0.021373344100    -0.000000536593    -0.000000018131    0.042295090093    0.004494363910    -0.000000317644    -0.000000212012
            -0.000000536593    -0.000000018131    0.054320747391    -0.020473468912    0.000000002033    -0.000000424395    0.039721724677    0.004831985110
            0.042295090093    0.004494363910    0.000000002033    -0.000000424395    0.056470843203    -0.021417889689    0.000000339342    -0.000000699772
            -0.000000317644    -0.000000212012    0.039721721919    0.004831982945    0.000000339342    -0.000000699772    0.054291526724    -0.020436409761
0.150     0.049586039776    -0.038069129396    -0.000000617281    0.000000225400    0.043057631947    -0.009533658202    -0.000000464298    -0.000000076882
            -0.000000617281    0.000000225400    0.049353279109    -0.036522840784    -0.000000208713    -0.000000445241    0.041794876321    -0.008133344575
            0.043057631947    -0.009533658202    -0.000000208713    -0.000000445241    0.049606683001    -0.038117610725    0.000000039631    -0.000000885267
            -0.000000464298    -0.000000076882    0.041794876321    -0.008133344575    0.000000039631    -0.000000885267    0.049414417492    -0.036479291911
0.175     0.034261445255    -0.052125309250    -0.000000583566    0.000000520658    0.036146104073    -0.023620807427    -0.000000550049    0.000000137851
            -0.000000583566    0.000000520658    0.036853249045    -0.051018982793    -0.000000435006    -0.000000360200    0.037155494636    -0.021896444229
            0.036146104073    -0.023620807427    -0.000000435006    -0.000000360200    0.034402194328    -0.052229427650    -0.000000355877    -0.000000927838
            -0.000000550049    0.000000137851    0.037155494636    -0.021896444229    -0.000000355877    -0.000000927838    0.037032631899    -0.051014237391
0.200     0.011954986144    -0.059617848859    -0.000000409896    0.000000814084    0.021909386247    -0.034043690851    -0.000000534960    0.000000404324
            -0.000000409896    0.000000814084    0.017633612059    -0.060532099186    -0.000000622920    -0.000000160957    0.025744973341    -0.033288757894
            0.021909386247    -0.034043690851    -0.000000622920    -0.000000160957    0.012216819995    -0.059851859119    -0.000000774469    -0.000000782102
            -0.000000534960    0.000000404324    0.025744973341    -0.033288757894    -0.000000774469    -0.000000782102    0.017934719052    -0.060630919386
0.225     -0.014166675684    -0.057434717255    -0.000000095624    0.000001041486    0.002422152767    -0.037465488265    -0.000000392983    0.000000675710
            -0.000000095624    0.000001041486    -0.005980067289    -0.062135404963    -0.000000715728    0.000000132870    0.008932852432    -0.039299215631
            0.002422152767    -0.037465488265    -0.000000715728    0.000000132870    -0.013823812351    -0.057876791195    -0.000001123849    -0.000000440007
            -0.000000392983    0.000000675710    0.008932852432    -0.039299215631    -0.000001123849    -0.000000440007    -0.005587689560    -0.062407720799
0.250     -0.039615280510    -0.044084231788    0.000000331332    0.000001137184    -0.018797642047    -0.031729679790    -0.000000118398    0.000000891418
            0.000000331332    0.000001137184    -0.030436345811    -0.054069108498    -0.000000666209    0.000000473437    -0.010635270707    -0.037705845369
            -0.018797642047    -0.031729679790    -0.000000666209    0.000000473437    -0.039272726194    -0.044794387631    -0.000001310238    0.000000060318
            -0.000000118398    0.000000891418    -0.010635270707    -0.037705845369    -0.000001310238    0.000000060318    -0.030018952748    -0.054572320864
0.275     -0.059426021014    -0.020216889339    0.000000812923    0.000001048914    -0.037443320233    -0.016461424328    0.000000264609    0.000000988175
            0.000000812923    0.000001048914    -0.051554135674    -0.036217114672    -0.000000453763    0.000000790007    -0.029468734933    -0.027594680085
            -0.037443320233    -0.016461424328    -0.000000453763    0.000000790007    -0.059196600742    -0.021215351088    -0.000001263229    0.000000636082
            0.000000264609    0.000000988175    -0.029468734933    -0.027594680085    -0.000001263229    0.000000636082    -0.051207164839    -0.036977944131
0.300     -0.069215745154    0.011268159662    0.000001266294    0.000000750253    -0.049342453870    0.006688251971    0.000000700928    0.000000912762
            0.000001266294    0.000000750253    -0.065302083653    -0.010315193152    -0.000000093270    0.000001003139    -0.043886209433    -0.009659480391
            -0.049342453870    0.006688251971    -0.000000093270    0.000001003139    -0.069222493031    0.010016381597    -0.000000956366    0.000001173803
            0.000000700928    0.000000912762    -0.043886209433    -0.009659480391    -0.000000956366    0.000001173803    -0.065135043121    -0.011315165145
0.325     -0.066192084775    0.045689737531    0.000001598012    0.000000254188    -0.051397498458    0.034299972413    0.000001110182    0.000000640784
            0.000001598012    0.000000254188    -0.068616308606    0.020251445735    0.000000360565    0.000001045716    -0.050748367267    0.013841711647
            -0.051397498458    0.034299972413    0.000000360565    0.000001045716    -0.066539768807    0.044276912390    -0.000000420343    0.000001555204
            0.000001110182    0.000000640784    -0.050748367267    0.013841711647    -0.000000420343    0.000001555204    -0.068730255740    0.019080986341
0.350     -0.049841684819    0.077487250768    0.000001721716    -0.000000383629    -0.042294771252    0.061879107012    0.000001401396    0.000000186661
            0.000001721716    -0.000000383629    -0.060068141556    0.050996576717    0.000000823987    0.000000880302    -0.048111312594    0.039464362606
            -0.042294771252    0.061879107012    0.000000823987    0.000000880302    -0.050590283343    0.076051851291    0.000000260962    0.000001685128
            0.000001401396    0.000000186661    -0.048111312594    0.039464362606    0.000000260962    0.000001685128    -0.060532253733    0.049769437488
0.375     -0.022063882491    0.101336765375    0.000001580634    -0.000001070733    -0.022755149276    0.084773976684    0.000001495684    -0.000000392084
            0.000001580634    -0.000001070733    -0.040188081047    0.077139434114    0.000001202015    0.000000512987    -0.035612733687    0.063207269690
            -0.022755149276    0.084773976684    0.000001202015    0.000000512987    -0.023209367276    0.100039433061    0.000000967755    0.000001515694
            0.000001495684    -0.000000392084    -0.035612733687    0.063207269690    0.000000967755    0.000001515694    -0.041020590201    0.075998749058
0.400     0.013205697989    0.113158135029    0.000001160456    -0.000001693550    0.004657573676    0.099057474452    0.000001343763    -0.000001005096
            0.000001160456    -0.000001693550    -0.011413347323    0.094457343231    0.000001409320    -0.000000008809    -0.014543913088    0.081232325953
            0.004657573676    0.099057474452    0.000001409320    -0.000000008809    0.011737630259    0.112152284510    0.000001570149    0.000001054944
            0.000001343763    -0.000001005096    -0.014543913088    0.081232325953    0.000001570149    0.000001054944    -0.012569903438    0.093550987954
0.425     0.050746483805    0.110779257331    0.000000495982    -0.000002139641    0.036060307152    0.102144381060    0.000000939915    -0.000001546688
            0.000000495982    -0.000002139641    0.022331205262    0.099992264196    0.000001388500    -0.000000603909    0.012394513919    0.090492671066
            0.036060307152    0.102144381060    0.000001388500    -0.000000603909    0.049094231366    0.110180605821    0.000001953490    0.000000365014
            0.000000939915    -0.000001546688    0.012394513919    0.090492671066    0.000001953490    0.000000365014    0.020957724870    0.099446955411
0.450     0.084922807557    0.094209321889    -0.000000336180    -0.000002315225    0.066893286340    0.093121134564    0.000000320211    -0.000001914213
            -0.000000336180    -0.000002315225    0.056263247124    0.092507390594    0.000001116666    -0.000001173134    0.041531540896    0.089190500363
            0.066893286340    0.093121134564    0.000001116666    -0.000001173134    0.083271837690    0.094070015453    0.000002034527    -0.000000451140
            0.000000320211    -0.000001914213    0.041531540896    0.089190500363    0.000002034527    -0.000000451140    0.054833275018    0.092401426571
0.475     0.110497760948    0.065558449217    -0.000001230442    -0.000002164342    0.092545032054    0.072804165898    -0.000000444274    -0.000002029463
            -0.000001230442    -0.000002164342    0.085453406814    0.072638947335    0.000000608465    -0.000001617560    0.068757767513    0.077000204406
            0.092545032054    0.072804165898    0.000000608465    -0.000001617560    0.109058058799    0.065845730484    0.000001771269    -0.000001269278
            -0.000000444274    -0.000002029463    0.068757767513    0.077000204406    0.000001771269    -0.000001269278    0.084165320718    0.072980247029
0.500     0.123317776755    0.028742482929    -0.000002057414    -0.000001675000    0.108928917443    0.043646837179    -0.000001248665    -0.000001847470
            -0.000002057414    -0.000001675000    0.105504307746    0.042805781373    -0.000000077176    -0.000001851382    0.090076751993    0.055114464730
            0.108928917443    0.043646837179    -0.000000077176    -0.000001851382    0.122305524880    0.029310224636    0.000001179411    -0.000001960238
            -0.000001248665    -0.000001847470    0.090076751993    0.055114464730    0.000001179411    -0.000001960238    0.104584496910    0.043503652989
0.525     0.120853104271    -0.010966085683    -0.000002685448    -0.000000873234    0.113064283378    0.009442490532    -0.000001976871    -0.000001350978
            -0.000002685448    -0.000000873234    0.113128199755    0.006910678367    -0.000000851134    -0.000001800392    0.102191525045    0.026069224302
            0.113064283378    0.009442490532    -0.000000851134    -0.000001800392    0.120592648064    -0.010520703561    0.000000319786    -0.000002390941
            -0.000001976871    -0.000001350978    0.102191525045    0.026069224302    0.000000319786    -0.000002390941    0.112959677903    0.007681708090
0.550     0.102633860217    -0.047514159666    -0.000002996413    0.000000166597    0.103592268611    -0.023479835326    -0.000002490730    -0.000000598924
            -0.000002996413    0.000000166597    0.106614266332    -0.030107320914    -0.000001580046    -0.000001458645    0.102567460082    -0.005115955013
            0.103592268611    -0.023479835326    -0.000001580046    -0.000001458645    0.103366766558    -0.045557050729    -0.000000650787    -0.000002482366
            -0.000002490730    -0.000000598924    0.102567460082    -0.005115955013    -0.000000650787    -0.000002482366    0.106952289027    -0.027763590911
0.575     0.070533022289    -0.074797376561    -0.000002898590    0.000001322427    0.080089004903    -0.052024956294    -0.000002699957    0.000000398977
            -0.000002898590    0.000001322427    0.086128267066    -0.062840235522    -0.000002152789    -0.000000772344    0.090195396215    -0.036331741212
            0.080089004903    -0.052024956294    -0.000002152789    -0.000000772344    0.071429800352    -0.073813245432    -0.000001655694    -0.000002106424
            -0.000002699957    0.000000398977    0.090195396215    -0.036331741212    -0.000001655694    -0.000002106424    0.086895103856    -0.061335882181
0.600     0.028925874360    -0.087422284005    -0.000002338722    0.000002427516    0.046500612589    -0.069276923759    -0.000002511431    0.000001467325
            -0.000002338722    0.000002427516    0.053900871585    -0.085946096976    -0.000002432429    0.000000136933    0.066611094131    -0.061000880928
            0.046500612589    -0.069276923759    -0.000002432429    0.000000136933    0.030371924426    -0.087459223028    -0.000002471989    -0.000001338104
            -0.000002511431    0.000001467325    0.066611094131    -0.061000880928    -0.000002471989    -0.000001338104    0.055446801760    -0.085203027419
0.625     -0.015173359999    -0.082748619022    -0.000001357607    0.000003285858    0.007859019337    -0.071973813394    -0.000001891440    0.000002439188
            -0.000001357607    0.000003285858    0.014828951990    -0.095622528955    -0.000002322133    0.000001136060    0.034846907573    -0.075398630573
            0.007859019337    -0.071973813394    -0.000002322133    0.000001136060    -0.014048983273    -0.083695928621    -0.000002930027    -0.000000255320
            -0.000001891440    0.000002439188    0.034846907573    -0.075398630573    -0.000002930027    -0.000000255320    0.016365213271    -0.095787771884
0.650     -0.055475341686    -0.060677068924    -0.000000047750    0.000003746630    -0.030077263623    -0.058778808225    -0.000000886371    0.000003146318
            -0.000000047750    0.000003746630    -0.026393023470    -0.090133870191    -0.000001793890    0.000002065615    -0.001222519955    -0.076937645845
            -0.030077263623    -0.058778808225    -0.000001793890    0.000002065615    -0.054526386308    -0.062213486309    -0.000002906002    0.000000972563
            -0.000000886371    0.000003146318    -0.001222519955    -0.076937645845    -0.000002906002    0.000000972563    -0.024833169763    -0.090875849692
0.675     -0.084587042195    -0.023697910579    0.000001416956    0.000003663915    -0.060456432912    -0.030973211375    0.000000388011    0.000003422165
            0.000001416956    0.000003663915    -0.063407983799    -0.069115503881    -0.000000888967    0.000002737452    -0.036086948794    -0.064434639019
            -0.060456432912    -0.030973211375    -0.000000888967    0.000002737452    -0.084039501913    -0.025903499238    -0.000002363359    0.000002124545
            0.000000388011    0.000003422165    -0.036086948794    -0.064434639019    -0.000002363359    0.000002124545    -0.061988669837    -0.070567003058
0.700     -0.097303890729    0.022242602048    0.000002795406    0.000002992907    -0.077923324676    0.007030752256    0.000001732335    0.000003163878
            0.000002795406    0.000002992907    -0.090373478028    -0.035347016785    0.000000256930    0.000002998466    -0.064298960141    -0.039358534445
            -0.077923324676    0.007030752256    0.000000256930    0.000002998466    -0.097443346869    0.019523086930    -0.000001371314    0.000002979472
            0.000001732335    0.000003163878    -0.064298960141    -0.039358534445    -0.000001371314    0.000002979472    -0.089383415993    -0.037465454091
0.725     -0.091573641883    0.069701840636    0.000003845405    0.000001802387    -0.079633485963    0.049096322475    0.000002913571    0.000002370755
            0.000003845405    0.000001802387    -0.103112852276    0.006309470191    0.000001450053    0.000002774105    -0.081494210619    -0.005226918427
            -0.079633485963    0.049096322475    0.000001450053    0.000002774105    -0.092583813119    0.066756211190    -0.000000093576    0.000003370844
            0.000002913571    0.000002370755    -0.081494210619    -0.005226918427    -0.000000093576    0.000003370844    -0.102803065880    0.003708388302
0.750     -0.068672137801    0.111312171969    0.000004375285    0.000000261608    -0.065617512589    0.088723637635    0.000003718540    0.000001146777
            0.000004375285    0.000000261608    -0.099777971780    0.049781777592    0.000002484791    0.000002082459    -0.085129785856    0.033047977457
            -0.065617512589    0.088723637635    0.000002484791    0.000002082459    -0.070597329395    0.108482976364    0.000001253873    0.000003222428
            0.000003718540    0.000001146777    -0.085129785856    0.033047977457    0.000001253873    0.000003222428    -0.100305626783    0.046976875974
0.775     -0.032619742223    0.141180776607    0.000004286450    -0.000001397315    -0.038406132381    0.120310779753    0.000004003386    -0.000000323135
            0.000004286450    -0.000001397315    -0.081075240456    0.088889955571    0.000003188732    0.000001026046    -0.074815069905    0.070085148394
            -0.038406132381    0.120310779753    0.000003188732    0.000001026046    -0.035363872810    0.138798827700    0.000002452208    0.000002556978
