# GHz S RI R 45
0.000     0.022577843288    0.001894340549    -0.000000014405    -0.000000094902    0.000819054557    0.001619743561    -0.000000017447    -0.000000098847
            -0.000000014405    -0.000000094902    0.021021572774    0.001545246728    -0.000000000778    -0.000000073070    0.000677635907    0.001374394315
            0.000819054398    0.001619743529    -0.000000000778    -0.000000073070    0.022530029458    0.001882080159    -0.000000003787    -0.000000077193
            -0.000000017447    -0.000000098847    0.000677635671    0.001374394320    -0.000000003787    -0.000000077193    0.020989324149    0.001529321297
0.025     0.029496059044    0.009102319814    -0.000000105242    -0.000000194593    0.004064721254    0.010999765789    -0.000000113470    -0.000000203348
            -0.000000105243    -0.000000194594    0.027252558221    0.007381824216    -0.000000066605    -0.000000158054    0.003461030283    0.009283238543
            0.004062751519    0.011002918626    -0.000000066604    -0.000000158054    0.029422619009    0.009062133294    -0.000000074612    -0.000000166492
            -0.000000113470    -0.000000203348    0.003461251950    0.009282451189    -0.000000074612    -0.000000166494    0.027185712391    0.007329378565
0.050     0.039054104720    0.010253602750    -0.000000319204    -0.000000270956    0.012759904561    0.018464894029    -0.000000337582    -0.000000281842
            -0.000000319204    -0.000000270957    0.035726411464    0.007911981523    -0.000000235984    -0.000000233925    0.011048478873    0.015692671802
            0.012759884595    0.018464933353    -0.000000235984    -0.000000233925    0.038953434994    0.010177807541    -0.000000253977    -0.000000244151
            -0.000000337582    -0.000000281842    0.011048503333    0.015692658250    -0.000000253977    -0.000000244151    0.035634821651    0.007863544354
0.075     0.048785075664    0.005198038303    -0.000000574397    -0.000000200164    0.024225733575    0.020079167275    -0.000000603729    -0.000000206202
            -0.000000574397    -0.000000200164    0.044718893560    0.003185165765    -0.000000449418    -0.000000193038    0.021350344706    0.017225805481
            0.024225727129    0.020079171918    -0.000000449418    -0.000000193038    0.048664924036    0.005123415754    -0.000000478040    -0.000000198184
            -0.000000603729    -0.000000206202    0.021350342354    0.017225811581    -0.000000478040    -0.000000198184    0.044618913239    0.003152502848
0.100     0.055642569010    -0.005904941115    -0.000000793758    0.000000027749    0.035165505904    0.015129204312    -0.000000831584    0.000000033067
            -0.000000793758    0.000000027749    0.051786331895    -0.006909738357    -0.000000643598    -0.000000020342    0.031739639582    0.013095606919
            0.035165506822    0.015129204707    -0.000000643598    -0.000000020341    0.055528581422    -0.005959379584    -0.000000680321    -0.000000014181
            -0.000000831584    0.000000033067    0.031739639354    0.013095607473    -0.000000680321    -0.000000014181    0.051707276882    -0.006909206201
0.125     0.056539786708    -0.021373344100    -0.000000896954    0.000000386646    0.042295090093    0.004494363910    -0.000000937740    0.000000408315
            -0.000000896954    0.000000386647    0.054298701719    -0.021326048017    -0.000000749758    0.000000267698    0.039499315821    0.003733862907
            0.042295090093    0.004494363910    -0.000000749758    0.000000267697    0.056470843203    -0.021417889689    -0.000000789300    0.000000289997
            -0.000000937740    0.000000408315    0.039499315802    0.003733863114    -0.000000789300    0.000000289997    0.054286068578    -0.021279917614
0.150     0.049586039776    -0.038069129396    -0.000000821530    0.000000812834    0.043057631947    -0.009533658202    -0.000000857669    0.000000853125
            -0.000000821530    0.000000812834    0.050447222098    -0.037736417565    -0.000000712238    0.000000621644    0.042341044299    -0.009314794586
            0.043057631947    -0.009533658202    -0.000000712238    0.000000621644    0.049606683001    -0.038117610725    -0.000000747153    0.000000662168
            -0.000000857669    0.000000853125    0.042341044299    -0.009314794586    -0.000000747153    0.000000662168    0.050544922330    -0.037673356677
0.175     0.034261445255    -0.052125309250    -0.000000539057    0.000001216875    0.036146104073    -0.023620807427    -0.000000561904    0.000001274566
            -0.000000539057    0.000001216875    0.039321581101    -0.053185222632    -0.000000502489    0.000000968889    0.038812843011    -0.023581444698
            0.036146104073    -0.023620807427    -0.000000502489    0.000000968889    0.034402194328    -0.052229427650    -0.000000524493    0.000001026450
            -0.000000561904    0.000001274566    0.038812843011    -0.023581444698    -0.000000524493    0.000001026450    0.039570489519    -0.053153225825
0.200     0.011954986144    -0.059617848859    -0.000000064527    0.000001500537    0.021909386247    -0.034043690851    -0.000000065923    0.000001570546
            -0.000000064527    0.000001500537    0.021437625596    -0.064432097844    -0.000000127856    0.000001227056    0.028643959427    -0.036121302922
            0.021909386247    -0.034043690851    -0.000000127856    0.000001227056    0.012216819995    -0.059851859119    -0.000000129068    0.000001296854
            -0.000000065923    0.000001570546    0.028643959427    -0.036121302922    -0.000000129068    0.000001296854    0.021857538214    -0.064502267041
0.225     -0.014166675684    -0.057434717255    0.000000542187    0.000001577468    0.002422152767    -0.037465488265    0.000000568256    0.000001651051
            0.000000542187    0.000001577468    -0.001283845909    -0.068590578843    0.000000366057    0.000001322060    0.012863964823    -0.044038854280
            0.002422152767    -0.037465488265    0.000000366057    0.000001322060    -0.013823812351    -0.057876791195    0.000000391606    0.000001395728
            0.000000568256    0.000001651051    0.012863964823    -0.044038854280    0.000000391606    0.000001395728    -0.000708339170    -0.068846357154
0.250     -0.039615280510    -0.044084231788    0.000001184292    0.000001393085    -0.018797642047    -0.031729679790    0.000001240060    0.000001458683
            0.000001184292    0.000001393085    -0.025733255760    -0.063730789636    0.000000902183    0.000001204940    -0.006293669884    -0.045047877215
            -0.018797642047    -0.031729679790    0.000000902183    0.000001204940    -0.039272726194    -0.044794387631    0.000000956903    0.000001271199
            0.000001240060    0.000001458683    -0.006293669884    -0.045047877215    0.000000956903    0.000001271199    -0.025057671497    -0.064249391679
0.275     -0.059426021014    -0.020216889339    0.000001746053    0.000000939688    -0.037443320233    -0.016461424328    0.000001828632    0.000000984631
            0.000001746053    0.000000939688    -0.048097422272    -0.049329476357    0.000001386864    0.000000864733    -0.025724925227    -0.037946560465
            -0.037443320233    -0.016461424328    0.000001386864    0.000000864733    -0.059196600742    -0.021215351088    0.000001468041    0.000000911068
            0.000001828632    0.000000984631    -0.025724925227    -0.037946560465    0.000001468041    0.000000911068    -0.047413559685    -0.050163103220
0.300     -0.069215745154    0.011268159662    0.000002115068    0.000000260957    -0.049342453870    0.006688251971    0.000002215893    0.000000273973
            0.000002115068    0.000000260957    -0.064506156183    -0.026516396410    0.000001727941    0.000000331455    -0.041983536892    -0.022932837709
            -0.049342453870    0.006688251971    0.000001727941    0.000000331455    -0.069222493031    0.010016381597    0.000001827135    0.000000346596
            0.000002215893    0.000000273973    -0.041983536892    -0.022932837709    0.000001827135    0.000000346596    -0.063929945387    -0.027675728511
0.325     -0.066192084775    0.045689737531    0.000002205340    -0.000000554392    -0.051397498458    0.034299972413    0.000002311028    -0.000000580676
            0.000002205340    -0.000000554392    -0.071743745057    0.002011427936    0.000001852775    -0.000000328861    -0.051901511152    -0.001651790125
            -0.051397498458    0.034299972413    0.000001852775    -0.000000328861    -0.066539768807    0.044276912390    0.000001956592    -0.000000352054
            0.000002311028    -0.000000580676    -0.051901511152    -0.001651790125    0.000001956592    -0.000000352054    -0.071394681478    0.000567386027
0.350     -0.049841684819    0.077487250768    0.000001972725    -0.000001388240    -0.042294771252    0.061879107012    0.000002067177    -0.000001455008
            0.000001972725    -0.000001388240    -0.067884596800    0.032363847776    0.000001719327    -0.000001026031    -0.053192978187    0.023029834788
            -0.042294771252    0.061879107012    0.000001719327    -0.000001026031    -0.050590283343    0.076051851291    0.000001811778    -0.000001088403
            0.000002067177    -0.000001455008    -0.053192978187    0.023029834788    0.000001811778    -0.000001088403    -0.067862904464    0.030727227513
0.375     -0.022063882491    0.101336765375    0.000001422758    -0.000002112940    -0.022755149276    0.084773976684    0.000001490182    -0.000002214601
            0.000001422758    -0.000002112940    -0.052690056438    0.060088285051    0.000001322500    -0.000001659767    -0.044886606515    0.047490174889
            -0.022755149276    0.084773976684    0.000001322501    -0.000001659767    -0.023209367276    0.100039433061    0.000001388148    -0.000001755252
            0.000001490182    -0.000002214601    -0.044886606515    0.047490174889    0.000001388148    -0.000001755252    -0.053054501143    0.058392353684
0.400     0.013205697989    0.113158135029    0.000000608678    -0.000002609597    0.004657573676    0.099057474452    0.000000636542    -0.000002734611
            0.000000608678    -0.000002609597    -0.027716759689    0.080908501305    0.000000693232    -0.000002131878    -0.027527773292    0.067958790546
            0.004657573676    0.099057474452    0.000000693232    -0.000002131879    0.011737630259    0.112152284510    0.000000720370    -0.000002248438
            0.000000636542    -0.000002734611    -0.027527773292    0.067958790546    0.000000720370    -0.000002248438    -0.028468821027    0.079307640720
0.425     0.050746483805    0.110779257331    -0.000000376103    -0.000002783791    0.036060307152    0.102144381060    -0.000000394886    -0.000002916904
            -0.000000376103    -0.000002783791    0.003907090218    0.091421820518    -0.000000104498    -0.000002357393    -0.003098862213    0.081121345797
            0.036060307152    0.102144381060    -0.000000104498    -0.000002357393    0.049094231366    0.110180605821    -0.000000121973    -0.000002479513
            -0.000000394886    -0.000002916904    -0.003098862213    0.081121345797    -0.000000121973    -0.000002479513    0.002829913228    0.090067073940
0.450     0.084922807557    0.094209321889    -0.000001413013    -0.000002575446    0.066893286340    0.093121134564    -0.000001478727    -0.000002700598
            -0.000001413013    -0.000002575446    0.037947760922    0.089641884128    -0.000000983495    -0.000002272176    0.025276511577    0.084637862416
            0.066893286340    0.093121134564    -0.000000983495    -0.000002272176    0.083271837690    0.094070015453    -0.000001045299    -0.000002383762
            -0.000001478727    -0.000002700598    0.025276511577    0.084637862416    -0.000001045299    -0.000002383762    0.036667517977    0.088654344380
0.475     0.110497760948    0.065558449217    -0.000002376134    -0.000001983443    0.092545032054    0.072804165898    -0.000002481068    -0.000002084489
            -0.000002376134    -0.000001983443    0.069686290019    0.075293817776    -0.000001846443    -0.000001859944    0.053784859177    0.077476367763
            0.092545032054    0.072804165898    -0.000001846443    -0.000001859944    0.109058058799    0.065845730484    -0.000001945947    -0.000001946469
            -0.000002481068    -0.000002084489    0.053784859177    0.077476367763    -0.000001945947    -0.000001946469    0.068370965794    0.074742806795
0.500     0.123317776755    0.028742482929    -0.000003103060    -0.000001067061    0.108928917443    0.043646837179    -0.000003236892    -0.000001127659
            -0.000003103060    -0.000001067061    0.094582874079    0.049868257356    -0.000002547839    -0.000001155745    0.078446163124    0.060074616135
            0.108928917443    0.043646837179    -0.000002547839    -0.000001155746    0.122305524880    0.029310224636    -0.000002674527    -0.000001204484
            -0.000003236892    -0.000001127659    0.078446163124    0.060074616135    -0.000002674526    -0.000001204484    0.093425232536    0.049754478130
0.525     0.120853104271    -0.010966085683    -0.000003454409    0.000000102685    0.113064283378    0.009442490532    -0.000003604703    0.000000092237
            -0.000003454409    0.000000102685    0.108893555573    0.016435225754    -0.000002959395    -0.000000194511    0.095635298798    0.034303143550
            0.113064283378    0.009442490532    -0.000002959395    -0.000000194511    0.120592648064    -0.010520703561    -0.000003100609    -0.000000196844
            -0.000003604703    0.000000092237    0.095635298798    0.034303143550    -0.000003100609    -0.000000196844    0.108084065283    0.016684347400
0.550     0.102633860217    -0.047514159666    -0.000003344294    0.000001387935    0.103592268611    -0.023479835326    -0.000003494601    0.000001432209
            -0.000003344294    0.000001387935    0.110190665641    -0.020728147372    -0.000002984403    0.000000875733    0.102579964381    0.003274987396
            0.103592268611    -0.023479835326    -0.000002984403    0.000000875733    0.103366766558    -0.045557050729    -0.000003124559    0.000000922274
            -0.000003494601    0.000001432209    0.102579964381    0.003274987396    -0.000003124559    0.000000922274    0.109888306730    -0.020262494011
0.575     0.070533022289    -0.074797376561    -0.000002738098    0.000002606269    0.080089004903    -0.052024956294    -0.000002869681    0.000002704493
            -0.000002738098    0.000002606269    0.097726874039    -0.056661948671    -0.000002571004    0.000001986074    0.097762730558    -0.029004401771
            0.080089004903    -0.052024956294    -0.000002571004    0.000001986074    0.071429800352    -0.073813245432    -0.000002693010    0.000002083088
            -0.000002869681    0.000002704493    0.097762730558    -0.029004401771    -0.000002693010    0.000002083088    0.098030187595    -0.056183575726
0.600     0.028925874360    -0.087422284005    -0.000001672830    0.000003554493    0.046500612589    -0.069276923759    -0.000001766383    0.000003699288
            -0.000001672830    0.000003554493    0.072619581456    -0.086360172843    -0.000001747692    0.000002899647    0.081220811714    -0.058125030468
            0.046500612589    -0.069276923759    -0.000001747692    0.000002899647    0.030371924426    -0.087459223028    -0.000001834257    0.000003040355
            -0.000001766383    0.000003699288    0.081220811714    -0.058125030468    -0.000001834257    0.000003040355    0.073542763964    -0.086105775640
0.625     -0.015173359999    -0.082748619022    -0.000000284838    0.000004058319    0.007859019337    -0.071973813394    -0.000000323589    0.000004235154
            -0.000000284838    0.000004058319    0.037799246778    -0.105455988173    -0.000000596443    0.000003460768    0.054647444946    -0.079861571327
            0.007859019337    -0.071973813394    -0.000000596443    0.000003460768    -0.014048983273    -0.083695928621    -0.000000631237    0.000003632080
            -0.000000323589    0.000004235154    0.054647444946    -0.079861571327    -0.000000631237    0.000003632080    0.039259428105    -0.105664214846
0.650     -0.055475341686    -0.060677068924    0.000001247457    0.000004009803    -0.030077263623    -0.058778808225    0.000001275800    0.000004197478
            0.000001247457    0.000004009803    -0.002299939008    -0.110893982219    0.000000724332    0.000003551757    0.021273955691    -0.090820286403
            -0.030077263623    -0.058778808225    0.000000724332    0.000003551757    -0.054526386308    -0.062213486309    0.000000753033    0.000003733568
            0.000001275800    0.000004197478    0.021273955691    -0.090820286403    0.000000753033    0.000003733568    -0.000478754968    -0.111766314623
0.675     -0.084587042195    -0.023697910579    0.000002687595    0.000003373450    -0.060456432912    -0.030973211375    0.000002786185    0.000003545100
            0.000002687595    0.000003373450    -0.042309496964    -0.101459661227    0.000002014707    0.000003132678    -0.014521503617    -0.089008993068
            -0.060456432912    -0.030973211375    0.000002014707    0.000003132678    -0.084039501913    -0.025903499238    0.000002109991    0.000003299677
            0.000002786185    0.000003545100    -0.014521503617    -0.089008993068    0.000002109991    0.000003299677    -0.040377426884    -0.103123913196
0.700     -0.097303890729    0.022242602048    0.000003807676    0.000002227380    -0.077923324676    0.007030752256    0.000003967916    0.000002355479
            0.000003807676    0.000002227380    -0.076705970577    -0.078063539325    0.000003076136    0.000002252191    -0.047840412259    -0.074240760406
            -0.077923324676    0.007030752256    0.000003076136    0.000002252191    -0.097443346869    0.019523086930    0.000003230093    0.000002378119
            0.000003967916    0.000002355479    -0.047840412259    -0.074240760406    0.000003230093    0.000002378119    -0.074953416472    -0.080545655444
0.725     -0.091573641883    0.069701840636    0.000004437639    0.000000734109    -0.079633485963    0.049096322475    0.000004639514    0.000000796028
            0.000004437639    0.000000734109    -0.100667907729    -0.043673642391    0.000003753068    0.000001034294    -0.074020934155    -0.048221154152
            -0.079633485963    0.049096322475    0.000003753069    0.000001034293    -0.092583813119    0.066756211190    0.000003946559    0.000001097503
            0.000004639514    0.000000796028    -0.074020934155    -0.048221154152    0.000003946559    0.000001097503    -0.099381659598    -0.046885704422
0.750     -0.068672137801    0.111312171969    0.000004489468    -0.000000897454    -0.065617512589    0.088723637635    0.000004704647    -0.000000914286
            0.000004489468    -0.000000897454    -0.110852373164    -0.002883894994    0.000003955605    -0.000000354170    -0.089391799652    -0.014313045847
            -0.065617512589    0.088723637635    0.000003955605    -0.000000354170    -0.070597329395    0.108482976364    0.000004161404    -0.000000365491
            0.000004704647    -0.000000914286    -0.089391799652    -0.014313045847    0.000004161404    -0.000000365491    -0.110270029664    -0.006632754214
0.775     -0.032619742223    0.141180776607    0.000003961654    -0.000002452475    -0.038406132381    0.120310779753    0.000004158950    -0.000002548074
            0.000003961654    -0.000002452475    -0.105910542551    0.038807165694    0.000003663783    -0.000001736877    -0.091826723773    0.023005382517
            -0.038406132381    0.120310779753    0.000003663783    -0.000001736877    -0.035363872810    0.138798827700    0.000003852124    -0.000001822183
