# GHz S RI R 45
0.000     0.022577843288    0.001894340549    -0.000014738373    -0.000038867974    0.000819054557    0.001619743561    -0.000020893023    -0.000053753702
            -0.000014738326    -0.000038867972    0.022854218505    0.001553327323    -0.000011087482    -0.000029037877    0.000866635556    0.001475297305
            0.000819054398    0.001619743529    -0.000011087494    -0.000029037876    0.022530029458    0.001882080159    -0.000014861795    -0.000038836676
            -0.000020892980    -0.000053753702    0.000866635787    0.001475297286    -0.000014861880    -0.000038836676    0.022823018578    0.001544318059
0.025     0.029496059044    0.009102319814    -0.000043175941    -0.000081434565    0.004064721254    0.010999765789    -0.000060144871    -0.000113278785
            -0.000043175934    -0.000081434517    0.028159922388    0.009348501977    -0.000032353239    -0.000060721287    0.002897488247    0.011280312683
            0.004062751519    0.011002918626    -0.000032353226    -0.000060721262    0.029422619009    0.009062133294    -0.000043056229    -0.000081460038
            -0.000060145435    -0.000113278893    0.002897504823    0.011279534077    -0.000043056234    -0.000081459978    0.028057249214    0.009254747049
0.050     0.039054104720    0.010253602750    -0.000105755898    -0.000131464538    0.012759904561    0.018464894029    -0.000146063711    -0.000183705620
            -0.000105755898    -0.000131464538    0.033949053356    0.012881675766    -0.000079232485    -0.000097997787    0.008580641787    0.020599275721
            0.012759884595    0.018464933353    -0.000079232485    -0.000097997787    0.038953434994    0.010177807541    -0.000105293457    -0.000132187419
            -0.000146063711    -0.000183705620    0.008580665666    0.020599272274    -0.000105293451    -0.000132187412    0.033755553075    0.012747953123
0.075     0.048785075664    0.005198038303    -0.000185759929    -0.000150959769    0.024225733575    0.020079167275    -0.000256843066    -0.000213251428
            -0.000185759929    -0.000150959769    0.039204953035    0.013288413305    -0.000139311055    -0.000112323364    0.016378349815    0.026655418427
            0.024225727129    0.020079171918    -0.000139311055    -0.000112323364    0.048664924036    0.005123415754    -0.000185815733    -0.000153006980
            -0.000256843066    -0.000213251428    0.016378364762    0.026655419807    -0.000185815733    -0.000153006980    0.038901028082    0.013179016456
0.100     0.055642569010    -0.005904941115    -0.000273080048    -0.000138747693    0.035165505904    0.015129204312    -0.000379814471    -0.000199272790
            -0.000273080048    -0.000138747693    0.042627643526    0.011126936293    -0.000204951902    -0.000102643363    0.024509993318    0.029079310716
            0.035165506822    0.015129204707    -0.000204951902    -0.000102643363    0.055528581422    -0.005959379584    -0.000275108278    -0.000141787838
            -0.000379814471    -0.000199272790    0.024509993318    0.029079310716    -0.000275108278    -0.000141787838    0.042234894933    0.011111119294
0.125     0.056539786708    -0.021373344100    -0.000358754445    -0.000095337306    0.042295090093    0.004494363910    -0.000502583912    -0.000140705840
            -0.000358754445    -0.000095337306    0.042941618011    0.007633425259    -0.000269290530    -0.000069186946    0.031316726379    0.028341375687
            0.042295090093    0.004494363910    -0.000269290530    -0.000069186946    0.056470843203    -0.021417889689    -0.000363885063    -0.000097718590
            -0.000502583912    -0.000140705840    0.031316709090    0.028341329218    -0.000363885063    -0.000097718590    0.042522587557    0.007764028650
0.150     0.049586039776    -0.038069129396    -0.000435770036    -0.000022540545    0.043057631947    -0.009533658202    -0.000614045595    -0.000038715216
            -0.000435770036    -0.000022540545    0.039945682927    0.004582675140    -0.000326752769    -0.000013221939    0.035489328618    0.025593707387
            0.043057631947    -0.009533658202    -0.000326752769    -0.000013221939    0.049606683001    -0.038117610725    -0.000443720162    -0.000021726378
            -0.000614045595    -0.000038715216    0.035489328618    0.025593707387    -0.000443720162    -0.000021726378    0.039581577607    0.004872607762
0.175     0.034261445255    -0.052125309250    -0.000497847409    0.000078760078    0.036146104073    -0.023620807427    -0.000703359367    0.000105419109
            -0.000497847409    0.000078760078    0.033918682339    0.003722564298    -0.000372228407    0.000064468841    0.036446702678    0.022507247298
            0.036146104073    -0.023620807427    -0.000372228407    0.000064468841    0.034402194328    -0.052229427650    -0.000506395177    0.000085005727
            -0.000703359367    0.000105419109    0.036446702678    0.022507247298    -0.000506395177    0.000085005727    0.033696757557    0.004135797491
0.200     0.011954986144    -0.059617848859    -0.000537116961    0.000208108245    0.021909386247    -0.034043690851    -0.000758006164    0.000289326625
            -0.000537116961    0.000208108245    0.026064642163    0.006644029431    -0.000399435415    0.000163150618    0.034486053875    0.020863310944
            0.021909386247    -0.034043690851    -0.000399435415    0.000163150618    0.012216819995    -0.059851859119    -0.000542509789    0.000220308140
            -0.000758006164    0.000289326625    0.034486054367    0.020863312063    -0.000542509789    0.000220308140    0.026047298030    0.007097837560
0.225     -0.014166675684    -0.057434717255    -0.000542234934    0.000363156803    0.002422152767    -0.037465488265    -0.000762394888    0.000507092088
            -0.000542234934    0.000363156803    0.018355708916    0.014258855047    -0.000399695823    0.000280373818    0.030758849527    0.022114619256
            0.002422152767    -0.037465488265    -0.000399695823    0.000280373818    -0.013823812351    -0.057876791195    -0.000540579163    0.000379181232
            -0.000762394888    0.000507092088    0.030758849527    0.022114619256    -0.000540579163    0.000379181232    0.018555670015    0.014641509325
0.250     -0.039615280510    -0.044084231788    -0.000499573384    0.000535719366    -0.018797642047    -0.031729679790    -0.000699839236    0.000745358927
            -0.000499573384    0.000535719366    0.013129977863    0.026468992378    -0.000363028481    0.000409152245    0.027039278639    0.027002164613
            -0.018797642047    -0.031729679790    -0.000363028481    0.000409152245    -0.039272726194    -0.044794387631    -0.000488696018    0.000550972503
            -0.000699839236    0.000745358927    0.027039278639    0.027002164613    -0.000488696018    0.000550972503    0.013499702114    0.026669224953
0.275     -0.059426021014    -0.020216889339    -0.000397115726    0.000709179830    -0.037443320233    -0.016461424328    -0.000557136806    0.000981180288
            -0.000397115726    0.000709179830    0.012556641300    0.042024339332    -0.000281201669    0.000536268897    0.025307523620    0.035301646175
            -0.037443320233    -0.016461424328    -0.000281201669    0.000536268897    -0.059196600742    -0.021215351088    -0.000378044497    0.000718070475
            -0.000557136806    0.000981180288    0.025307523620    0.035301646175    -0.000378044497    0.000718070475    0.012993242133    0.041963760703
0.300     -0.069215745154    0.011268159662    -0.000230613902    0.000859297275    -0.049342453870    0.006688251971    -0.000331275804    0.001183713198
            -0.000230613902    0.000859297275    0.018071904524    0.058713502618    -0.000152304844    0.000643250685    0.027247539680    0.045826667040
            -0.049342453870    0.006688251971    -0.000152304844    0.000643250685    -0.069222493031    0.010016381597    -0.000207842423    0.000857490187
            -0.000331275804    0.001183713198    0.027247539680    0.045826667040    -0.000207842423    0.000857490187    0.018439890260    0.058371529093
0.325     -0.066192084775    0.045689737531    -0.000008173511    0.000959240308    -0.051397498458    0.034299972413    -0.000033863453    0.001320299401
            -0.000008173511    0.000959240308    0.029965850878    0.073794279582    0.000016176210    0.000710471882    0.033797835057    0.056680521855
            -0.051397498458    0.034299972413    0.000016176210    0.000710471882    -0.066539768807    0.044276912390    0.000011650715    0.000945763771
            -0.000033863453    0.001320299401    0.033797835057    0.056680521855    0.000011650715    0.000945763771    0.030129416197    0.073219699515
0.350     -0.049841684819    0.077487250768    0.000249165499    0.000987390932    -0.042294771252    0.061879107012    0.000308793944    0.001365233862
            0.000249165499    0.000987390932    0.047247260948    0.084619930305    0.000207375350    0.000723052805    0.044908604241    0.065717122295
            -0.042294771252    0.061879107012    0.000207375350    0.000723052805    -0.050590283343    0.076051851291    0.000259717560    0.000965511127
            0.000308793944    0.001365233862    0.044908604241    0.065717122295    0.000259717560    0.000965511127    0.047104807561    0.083923792274
0.375     -0.022063882491    0.101336765375    0.000511875046    0.000933837110    -0.022755149276    0.084773976684    0.000661124096    0.001306596891
            0.000511875046    0.000933837110    0.067832132327    0.089213215211    0.000399045051    0.000675396466    0.059554459007    0.071027787939
            -0.022755149276    0.084773976684    0.000399045051    0.000675396466    -0.023209367276    0.100039433061    0.000509784405    0.000910208418
            0.000661124096    0.001306596891    0.059554459007    0.071027787939    0.000509784405    0.000910208418    0.067343081728    0.088545992241
0.400     0.013205697989    0.113158135029    0.000749607726    0.000803197505    0.004657573676    0.099057474452    0.000986955306    0.001149036815
            0.000749607726    0.000803197505    0.088985144657    0.086685704990    0.000569371068    0.000572633544    0.075984213437    0.071347554754
            0.004657573676    0.099057474452    0.000569371068    0.000572633544    0.011737630259    0.112152284510    0.000736133781    0.000785484429
            0.000986955306    0.001149036815    0.075984213437    0.071347554754    0.000736133781    0.000785484429    0.088180954254    0.086204790591
0.425     0.050746483805    0.110779257331    0.000938519976    0.000612303012    0.036060307152    0.102144381060    0.001257441403    0.000910867494
            0.000938519976    0.000612303012    0.107860306085    0.077366917093    0.000702245892    0.000428185581    0.092079715303    0.066261478683
            0.036060307152    0.102144381060    0.000702245892    0.000428185581    0.049094231366    0.110180605821    0.000919443074    0.000606199071
            0.001257441403    0.000910867494    0.092079717616    0.066261475468    0.000919443074    0.000606199071    0.106840871206    0.077203484422
0.450     0.084922807557    0.094209321889    0.001066023081    0.000384762108    0.066893286340    0.093121134564    0.001456064314    0.000617918586
            0.001066023081    0.000384762108    0.122011811738    0.062707693899    0.000790108794    0.000259327424    0.105739882162    0.056252018032
            0.066893286340    0.093121134564    0.000790108794    0.000259327424    0.083271837690    0.094070015453    0.001049820468    0.000391431231
            0.001456064314    0.000617918586    0.105739882162    0.056252018032    0.001049820468    0.000391431231    0.120927113089    0.062939962355
0.475     0.110497760948    0.065558449217    0.001131528225    0.000144173746    0.092545032054    0.072804165898    0.001579169360    0.000296136473
            0.001131528225    0.000144173746    0.129772605568    0.044998258660    0.000833731925    0.000082306838    0.115202385229    0.042599504443
            0.092545032054    0.072804165898    0.000833731925    0.000082306838    0.109058058799    0.065845730484    0.001126332134    0.000159163144
            0.001579169360    0.000296136473    0.115202385229    0.042599504443    0.001126332134    0.000159163144    0.128795032748    0.045636137838
0.500     0.123317776755    0.028742482929    0.001144191728    -0.000091654367    0.108928917443    0.043646837179    0.001633077465    -0.000034407859
            0.001144191728    -0.000091654367    0.130501105664    0.027013477321    0.000840101384    -0.000091490821    0.119322593673    0.027217491989
            0.108928917443    0.043646837179    0.000840101384    -0.000091490821    0.122305524880    0.029310224636    0.001154492037    -0.000077706283
            0.001633077465    -0.000034407859    0.119322593673    0.027217491989    0.001154492037    -0.000077706283    0.129797472205    0.027997339266
0.525     0.120853104271    -0.010966085683    0.001117702217    -0.000314611912    0.113064283378    0.009442490532    0.001628535526    -0.000363198003
            0.001117702217    -0.000314611912    0.124686675580    0.011605767798    0.000819515767    -0.000258423355    0.117787213192    0.012398212416
            0.113064283378    0.009442490532    0.000819515767    -0.000258423355    0.120592648064    -0.010520703561    0.001143450837    -0.000314405420
            0.001628535526    -0.000363198003    0.117787213192    0.012398212416    0.001143450837    -0.000314405420    0.124403828733    0.012816543086
0.550     0.102633860217    -0.047514159666    0.001063709048    -0.000526875869    0.103592268611    -0.023479835326    0.001573679018    -0.000689347954
            0.001063709048    -0.000526875869    0.113950477959    0.001286498691    0.000777570167    -0.000405473360    0.111274220071    0.000466993266
            0.103592268611    -0.023479835326    0.000777570167    -0.000405473360    0.103366766558    -0.045557050729    0.001095013506    -0.000529567097
            0.001573679018    -0.000689347954    0.111274220071    0.000466993266    0.001095013506    -0.000529567097    0.114208007867    0.002523334793
0.575     0.070533022289    -0.074797376561    0.000985549934    -0.000737897562    0.080089004903    -0.052024956294    0.001468335377    -0.001017625335
            0.000985549934    -0.000737897562    0.100892732960    -0.002221637531    0.000710552831    -0.000567948020    0.101419492411    -0.006643633774
            0.080089004903    -0.052024956294    0.000710552831    -0.000567948020    0.071429800352    -0.073813245432    0.001003283089    -0.000768273205
            0.001468335377    -0.001017625335    0.101419492411    -0.006643633774    0.001003283089    -0.000768273205    0.101687647573    -0.001254051178
0.600     0.028925874360    -0.087422284005    0.000873771122    -0.000955892968    0.046500612589    -0.069276923759    0.001300361081    -0.001349302130
            0.000873771122    -0.000955892968    0.088766269447    0.001593596755    0.000619235561    -0.000730869622    0.090687833802    -0.007776332029
            0.046500612589    -0.069276923759    0.000619235561    -0.000730869622    0.030371924426    -0.087459223028    0.000869696063    -0.001001983404
            0.001300361081    -0.001349302130    0.090687833802    -0.007776332029    0.000869696063    -0.001001983404    0.089918524948    0.002044539655
0.625     -0.015173359999    -0.082748619022    0.000711986697    -0.001180409194    0.007859019337    -0.071973813394    0.001054169463    -0.001675926716
            0.000711986697    -0.001180409194    0.080904516166    0.011738582592    0.000486264535    -0.000894445227    0.082006442051    -0.003015893105
            0.007859019337    -0.071973813394    0.000486264535    -0.000894445227    -0.014048983273    -0.083695928621    0.000675742976    -0.001226918204
            0.001054169463    -0.001675926716    0.082006442051    -0.003015893105    0.000675742976    -0.001226918204    0.082150184478    0.011549878124
0.650     -0.055475341686    -0.060677068924    0.000474433753    -0.001396605715    -0.030077263623    -0.058778808225    0.000705116139    -0.001975137177
            0.000474433777    -0.001396605707    0.079989396728    0.025715152095    0.000297304540    -0.001043403946    0.078070669524    0.006114993326
            -0.030077263623    -0.058778808225    0.000297304540    -0.001043403946    -0.054526386308    -0.062213486309    0.000409199853    -0.001421987667
            0.000705116139    -0.001975137177    0.078070669524    0.006114993326    0.000409199853    -0.001421987667    0.081037938167    0.024888338603
0.675     -0.084587042195    -0.023697910579    0.000150400165    -0.001565376030    -0.060456432912    -0.030973211375    0.000248110578    -0.002198676111
            0.000150400165    -0.001565376030    0.087316549033    0.039935177435    0.000048337149    -0.001150076955    0.080587189942    0.016902691015
            -0.060456432912    -0.030973211375    0.000048337149    -0.001150076955    -0.084039501913    -0.025903499238    0.000070798853    -0.001554239718
            0.000248110578    -0.002198676111    0.080587189942    0.016902691015    0.000070798853    -0.001554239718    0.087899538567    0.038597586037
0.700     -0.097303890729    0.022242602048    -0.000246718346    -0.001643003984    -0.077923324676    0.007030752256    -0.000294442254    -0.002297133854
            -0.000246718346    -0.001643003984    0.102372306220    0.050522101422    -0.000246789975    -0.001183780492    0.089780834882    0.026093766127
            -0.077923324676    0.007030752256    -0.000246789975    -0.001183780492    -0.097443346869    0.019523086930    -0.000318940935    -0.001589816006
            -0.000294442254    -0.002297133854    0.089780834882    0.026093766127    -0.000318940935    -0.001589816006    0.102297092232    0.048908940933
0.725     -0.091573641883    0.069701840636    -0.000678974082    -0.001594869832    -0.079633485963    0.049096322475    -0.000874457039    -0.002233749505
            -0.000678974082    -0.001594869832    0.122899820429    0.054248000492    -0.000556929572    -0.001123231971    0.104319896900    0.030716793684
            -0.079633485963    0.049096322475    -0.000556929572    -0.001123231971    -0.092583813119    0.066756211190    -0.000721372129    -0.001507121464
            -0.000874457039    -0.002233749505    0.104319896900    0.030716793684    -0.000721372129    -0.001507121464    0.122093498606    0.052657178115
0.750     -0.068672137801    0.111312171969    -0.001093233315    -0.001409341677    -0.065617512589    0.088723637635    -0.001428891414    -0.001998429477
            -0.001093233315    -0.001409341677    0.145472482889    0.049268548420    -0.000842601110    -0.000965785618    0.121723945838    0.028779200491
            -0.065617512589    0.088723637635    -0.000842601110    -0.000965785618    -0.070597329395    0.108482976364    -0.001090303990    -0.001306034560
            -0.001428891414    -0.001998429477    0.121723945838    0.028779200491    -0.001090303990    -0.001306034560    0.143994267169    0.048001837002
0.775     -0.032619742223    0.141180776607    -0.001436947991    -0.001101755717    -0.038406132381    0.120310779753    -0.001897169266    -0.001610840470
            -0.001436947991    -0.001101755717    0.166298311379    0.035424363081    -0.001068254525    -0.000728267499    0.138992773860    0.019596679162
            -0.038406132381    0.120310779753    -0.001068254525    -0.000728267499    -0.035363872810    0.138798827700    -0.001385449041    -0.001007744109
            -0.001897169266    -0.001610840470    0.138992773860    0.019596679162    -0.001385449041    -0.001007744109    0.164326384821    0.034730075094
