# GHz S RI R 45
0.000     0.022577843288    0.001894340549    0.000001851817    0.000003703574    0.000819054557    0.001619743561    0.000002014692    0.000004331390
            0.000001851751    0.000003703573    0.022046290449    0.001888362919    0.000002230234    0.000004353237    0.000784285636    0.001618413190
            0.000819054398    0.001619743529    0.000002230169    0.000004353239    0.022530029458    0.001882080159    0.000002435350    0.000005161819
            0.000002014620    0.000004331389    0.000784285820    0.001618413212    0.000002435061    0.000005161818    0.022020818122    0.001899010678
0.025     0.029496059044    0.009102319814    0.000005699720    0.000007461327    0.004064721254    0.010999765789    0.000006453459    0.000008209508
            0.000005699718    0.000007461320    0.028819461814    0.008718631137    0.000006809114    0.000009334388    0.003926769788    0.010610946660
            0.004062751519    0.011002918626    0.000006809122    0.000009334386    0.029422619009    0.009062133294    0.000007722242    0.000010003942
            0.000006453465    0.000008209498    0.003925989979    0.010611072073    0.000007722249    0.000010003941    0.028755625442    0.008666304007
0.050     0.039054104720    0.010253602750    0.000013964058    0.000009886648    0.012759904561    0.018464894029    0.000015997764    0.000010598790
            0.000013964059    0.000009886648    0.038199596589    0.009747288759    0.000016507446    0.000012688874    0.012392274928    0.017838071243
            0.012759884595    0.018464933353    0.000016507446    0.000012688874    0.038953434994    0.010177807541    0.000019060879    0.000013089915
            0.000015997765    0.000010598791    0.012392262321    0.017838069042    0.000019060879    0.000013089915    0.038139719970    0.009641608647
0.075     0.048785075664    0.005198038303    0.000023284185    0.000006383618    0.024225733575    0.020079167275    0.000026781485    0.000006152838
            0.000023284185    0.000006383618    0.047889002362    0.004776576096    0.000027422954    0.000009144677    0.023650579822    0.019449987739
            0.024225727129    0.020079171918    0.000027422954    0.000009144677    0.048664924036    0.005123415754    0.000031881331    0.000008106830
            0.000026781486    0.000006152838    0.023650573524    0.019449992247    0.000031881331    0.000008106830    0.047841027631    0.004620860630
0.100     0.055642569010    -0.005904941115    0.000030431322    -0.000003020602    0.035165505904    0.015129204312    0.000035099218    -0.000005122391
            0.000030431322    -0.000003020602    0.055010577795    -0.006127701016    0.000035836622    -0.000001271360    0.034584868836    0.014687163236
            0.035165506822    0.015129204707    0.000035836622    -0.000001271360    0.055528581422    -0.005959379584    0.000041848247    -0.000004951485
            0.000035099218    -0.000005122391    0.034584868580    0.014687163840    0.000041848247    -0.000004951485    0.054984487412    -0.006343611991
0.125     0.056539786708    -0.021373344100    0.000032354968    -0.000016822484    0.042295090093    0.004494363910    0.000037431105    -0.000021534978
            0.000032354968    -0.000016822484    0.056579758382    -0.021545850887    0.000038211418    -0.000016840253    0.042047691487    0.004280839282
            0.042295090093    0.004494363910    0.000038211418    -0.000016840253    0.056470843203    -0.021417889689    0.000044815406    -0.000024132649
            0.000037431105    -0.000021534978    0.042047691479    0.004280839356    0.000044815406    -0.000024132649    0.056574095420    -0.021840618392
0.150     0.049586039776    -0.038069129396    0.000027022225    -0.000032100565    0.043057631947    -0.009533658202    0.000031404784    -0.000039759600
            0.000027022225    -0.000032100565    0.050660453031    -0.038467997823    0.000032171017    -0.000034198390    0.043516509327    -0.009708021339
            0.043057631947    -0.009533658202    0.000032171017    -0.000034198390    0.049606683001    -0.038117610725    0.000037960595    -0.000045559784
            0.000031404784    -0.000039759600    0.043516509327    -0.009708021339    0.000037960595    -0.000045559784    0.050679606595    -0.038860343270
0.175     0.034261445255    -0.052125309250    0.000013878740    -0.000045172073    0.036146104073    -0.023620807427    0.000016323995    -0.000055583238
            0.000013878740    -0.000045172073    0.036608458648    -0.053348396550    0.000017035709    -0.000049092797    0.037590961186    -0.024187199783
            0.036146104073    -0.023620807427    0.000017035709    -0.000049092797    0.034402194328    -0.052229427650    0.000020410575    -0.000064300584
            0.000016323995    -0.000055583238    0.037590961186    -0.024187199783    0.000020410575    -0.000064300584    0.036635593853    -0.053869018843
0.200     0.011954986144    -0.059617848859    -0.000005824141    -0.000052254375    0.021909386247    -0.034043690851    -0.000006451347    -0.000064651436
            -0.000005824141    -0.000052254375    0.015473668336    -0.062450770688    -0.000005795882    -0.000057139815    0.024383557215    -0.035627893362
            0.021909386247    -0.034043690851    -0.000005795882    -0.000057139815    0.012216819995    -0.059851859119    -0.000006307985    -0.000075234346
            -0.000006451347    -0.000064651436    0.024383557215    -0.035627893362    -0.000006307985    -0.000075234346    0.015471588014    -0.063126245920
0.225     -0.014166675684    -0.057434717255    -0.000029064510    -0.000050304583    0.002422152767    -0.037465488265    -0.000033536962    -0.000063417871
            -0.000029064510    -0.000050304583    -0.010013408979    -0.062650179293    -0.000032886056    -0.000054786567    0.005615456550    -0.040756988705
            0.002422152767    -0.037465488265    -0.000032886056    -0.000054786567    -0.013823812351    -0.057876791195    -0.000038304233    -0.000074155794
            -0.000033536962    -0.000063417871    0.005615456550    -0.040756988705    -0.000038304233    -0.000074155794    -0.010100417236    -0.063491784971
0.250     -0.039615280510    -0.044084231788    -0.000051458974    -0.000037892808    -0.018797642047    -0.031729679790    -0.000059970545    -0.000050133307
            -0.000051458974    -0.000037892808    -0.035792870828    -0.052205553834    -0.000059218847    -0.000040307322    -0.015590877814    -0.037281336402
            -0.018797642047    -0.031729679790    -0.000059218847    -0.000040307322    -0.039272726194    -0.044794387631    -0.000069830475    -0.000058916188
            -0.000059970545    -0.000050133307    -0.015590877814    -0.037281336402    -0.000069830475    -0.000058916188    -0.036031673240    -0.053198536532
0.275     -0.059426021014    -0.020216889339    -0.000068149329    -0.000015792933    -0.037443320233    -0.016461424328    -0.000080192734    -0.000025524587
            -0.000068149329    -0.000015792933    -0.057198504392    -0.031286272793    -0.000079197201    -0.000014479175    -0.035248594469    -0.024464869032
            -0.037443320233    -0.016461424328    -0.000079197201    -0.000014479175    -0.059196600742    -0.021215351088    -0.000094396948    -0.000030210399
            -0.000080192734    -0.000025524587    -0.035248594469    -0.024464869032    -0.000094396948    -0.000030210399    -0.057654127447    -0.032382030548
0.300     -0.069215745154    0.011268159662    -0.000074988649    0.000012909392    -0.049342453870    0.006688251971    -0.000089367509    0.000007051848
            -0.000074988649    0.000012909392    -0.069883080782    -0.002153604717    -0.000087976546    0.000019276203    -0.049297372303    -0.003425731854
            -0.049342453870    0.006688251971    -0.000087976546    0.000019276203    -0.069222493031    0.010016381597    -0.000106269679    0.000008221356
            -0.000089367509    0.000007051848    -0.049297372303    -0.003425731854    -0.000106269679    0.000008221356    -0.070602553329    -0.003269723821
0.325     -0.066192084775    0.045689737531    -0.000069637293    0.000043429437    -0.051397498458    0.034299972413    -0.000084622899    0.000042251887
            -0.000069637293    0.000043429437    -0.070751917136    0.031150265170    -0.000082708018    0.000055551671    -0.054457866809    0.022990004823
            -0.051397498458    0.034299972413    -0.000082708018    0.000055551671    -0.066539768807    0.044276912390    -0.000101892409    0.000050283021
            -0.000084622899    0.000042251887    -0.054457866809    0.022990004823    -0.000101892409    0.000050283021    -0.071746598030    0.030122294111
0.350     -0.049841684819    0.077487250768    -0.000052194309    0.000070404612    -0.042294771252    0.061879107012    -0.000065802995    0.000073960178
            -0.000052194309    0.000070404612    -0.058674503866    0.063515941133    -0.000063285113    0.000088185544    -0.048946571715    0.050730539783
            -0.042294771252    0.061879107012    -0.000063285113    0.000088185544    -0.050590283343    0.076051851291    -0.000080790593    0.000088863853
            -0.000065802995    0.000073960178    -0.048946571715    0.050730539783    -0.000080790593    0.000088863853    -0.059907003768    0.062693392088
0.375     -0.022063882491    0.101336765375    -0.000025067249    0.000089132402    -0.022755149276    0.084773976684    -0.000035392805    0.000096672723
            -0.000025067249    0.000089132402    -0.034750885972    0.089734692040    -0.000032254096    0.000111650095    -0.032831342312    0.075319728606
            -0.022755149276    0.084773976684    -0.000032254096    0.000111650095    -0.023209367276    0.100039433061    -0.000045555124    0.000117396280
            -0.000035392805    0.000096672723    -0.032831342312    0.075319728606    -0.000045555124    0.000117396280    -0.036132186761    0.089222022771
0.400     0.013205697989    0.113158135029    0.000007715824    0.000096480087    0.004657573676    0.099057474452    0.000002188516    0.000106549676
            0.000007715824    0.000096480087    -0.002128623279    0.105456089137    0.000005898172    0.000122106211    -0.008000897300    0.092686316939
            0.004657573676    0.099057474452    0.000005898172    0.000122106211    0.011737630259    0.112152284510    -0.000001129735    0.000131092552
            0.000002188516    0.000106549676    -0.008000897300    0.092686316939    -0.000001129735    0.000131092552    -0.003524006594    0.105323051579
0.425     0.050746483805    0.110779257331    0.000041448447    0.000091204490    0.036060307152    0.102144381060    0.000041606112    0.000101844489
            0.000041448447    0.000091204490    0.034571957497    0.107913402364    0.000045771997    0.000117831192    0.022211450306    0.099824050279
            0.036060307152    0.102144381060    0.000045771997    0.000117831192    0.049094231366    0.110180605821    0.000046297370    0.000127519170
            0.000041606112    0.000101844489    0.022211450306    0.099824050279    0.000046297370    0.000127519170    0.033328698944    0.108177458138
0.450     0.084922807557    0.094209321889    0.000071522914    0.000073833861    0.066893286340    0.093121134564    0.000077489439    0.000082850535
            0.000071522914    0.000073833861    0.070017643850    0.096324068454    0.000081937208    0.000099161159    0.053578968413    0.095219202290
            0.066893286340    0.093121134564    0.000081937208    0.000099161159    0.083271837690    0.094070015453    0.000090297777    0.000106641297
            0.000077489439    0.000082850535    0.053578968413    0.095219202290    0.000090297777    0.000106641297    0.069104399310    0.096939260396
0.475     0.110497760948    0.065558449217    0.000093897816    0.000046303871    0.092545032054    0.072804165898    0.000105002017    0.000051542460
            0.000093897816    0.000046303871    0.098943809116    0.071950029549    0.000109509091    0.000068137734    0.081578992084    0.079012710419
            0.092545032054    0.072804165898    0.000109509091    0.000068137734    0.109058058799    0.065845730484    0.000124911420    0.000070498181
            0.000105002017    0.000051542460    0.081578992084    0.079012710419    0.000124911420    0.000070498181    0.098531189467    0.072802603287
0.500     0.123317776755    0.028742482929    0.000105333808    0.000011675813    0.108928917443    0.043646837179    0.000120161542    0.000011281414
            0.000105333808    0.000011675813    0.116859091753    0.037924813380    0.000124486355    0.000028208682    0.101971199168    0.052998594181
            0.108928917443    0.043646837179    0.000124486355    0.000028208682    0.122305524880    0.029310224636    0.000145114744    0.000022907226
            0.000120161542    0.000011281414    0.101971199168    0.052998594181    0.000145114744    0.000022907226    0.117091898679    0.038824631814
0.525     0.120853104271    -0.010966085683    0.000103558165    -0.000026006622    0.113064283378    0.009442490532    0.000120058178    -0.000033368572
            0.000103558165    -0.000026006622    0.120646208625    -0.001095253281    0.000124076236    -0.000016028075    0.111334753157    0.020473542092
            0.113064283378    0.009442490532    0.000124076236    -0.000016028075    0.120592648064    -0.010520703561    0.000147253029    -0.000030856948
            0.000120058178    -0.000033368572    0.111334753157    0.020473542092    0.000147253029    -0.000030856948    0.121601698109    -0.000438852038
0.550     0.102633860217    -0.047514159666    0.000087635562    -0.000061855924    0.103592268611    -0.023479835326    0.000103210296    -0.000076760066
            0.000087635562    -0.000061855924    0.109122241788    -0.039487451205    0.000107104315    -0.000057493959    0.107631110929    -0.014088576142
            0.103592268611    -0.023479835326    0.000107104315    -0.000057493959    0.103366766558    -0.045557050729    0.000129373042    -0.000082458406
            0.000103210296    -0.000076760066    0.107631110929    -0.014088576142    0.000129373042    -0.000082458406    0.110680494378    -0.039437176947
0.575     0.070533022289    -0.074797376561    0.000058350562    -0.000090515933    0.080089004903    -0.052024956294    0.000070234777    -0.000112495552
            0.000058350562    -0.000090515933    0.083249468696    -0.071521476516    0.000073530042    -0.000092356373    0.090560369559    -0.045619785061
            0.080089004903    -0.052024956294    0.000073530042    -0.000092356373    0.071429800352    -0.073813245432    0.000091180060    -0.000127164771
            0.000070234777    -0.000112495552    0.090560369559    -0.045619785061    0.000091180060    -0.000127164771    0.085083824844    -0.072276071069
0.600     0.028925874360    -0.087422284005    0.000018690240    -0.000106517750    0.046500612589    -0.069276923759    0.000024401236    -0.000133977406
            0.000018690240    -0.000106517750    0.046009561668    -0.091948662225    0.000027655236    -0.000112741552    0.061751595293    -0.068994419113
            0.046500612589    -0.069276923759    0.000027655236    -0.000112741552    0.030371924426    -0.087459223028    0.000037446201    -0.000155327487
            0.000024401236    -0.000133977406    0.061751595293    -0.068994419113    0.000037446201    -0.000155327487    0.047839674986    -0.093533093615
0.625     -0.015173359999    -0.082748619022    -0.000025389043    -0.000106105920    0.007859019337    -0.071973813394    -0.000027534397    -0.000136620618
            -0.000025389043    -0.000106105920    0.002481881730    -0.096761008589    -0.000024607000    -0.000113927397    0.024963041492    -0.079829793489
            0.007859019337    -0.071973813394    -0.000024607000    -0.000113927397    -0.014048983273    -0.083695928621    -0.000025068423    -0.000161132622
            -0.000027534397    -0.000136620618    0.024963041492    -0.079829793489    -0.000025068423    -0.000161132622    0.004057471994    -0.099172223235
0.650     -0.055475341686    -0.060677068924    -0.000067304204    -0.000088026996    -0.030077263623    -0.058778808225    -0.000078128864    -0.000118634744
            -0.000067304204    -0.000088026996    -0.040746616043    -0.084268529673    -0.000074824995    -0.000094080549    -0.014317628309    -0.075553648191
            -0.030077263623    -0.058778808225    -0.000074824995    -0.000094080549    -0.054526386308    -0.062213486309    -0.000086633062    -0.000141947404
            -0.000078128864    -0.000118634744    -0.014317628309    -0.075553648191    -0.000086633062    -0.000141947404    -0.039699907658    -0.087433211253
0.675     -0.084587042195    -0.023697910579    -0.000099207439    -0.000054205230    -0.060456432912    -0.030973211375    -0.000118259660    -0.000081680217
            -0.000099207439    -0.000054205230    -0.076754777739    -0.055676298023    -0.000114146154    -0.000055487267    -0.049831892845    -0.056100816025
            -0.060456432912    -0.030973211375    -0.000114146154    -0.000055487267    -0.084039501913    -0.025903499238    -0.000136786411    -0.000099801377
            -0.000118259660    -0.000081680217    -0.049831892845    -0.056100816025    -0.000136786411    -0.000099801377    -0.076493898299    -0.059406631025
0.700     -0.097303890729    0.022242602048    -0.000115293845    -0.000010446122    -0.077923324676    0.007030752256    -0.000140850344    -0.000031961095
            -0.000115293845    -0.000010446122    -0.099645785099    -0.015030269278    -0.000135672691    -0.000004402138    -0.075789198616    -0.024083991789
            -0.077923324676    0.007030752256    -0.000135672691    -0.000004402138    -0.097443346869    0.019523086930    -0.000166999638    -0.000041395361
            -0.000140850344    -0.000031961095    -0.075789198616    -0.024083991789    -0.000166999638    -0.000041395361    -0.100347816504    -0.019032485620
0.725     -0.091573641883    0.069701840636    -0.000113251548    0.000035613329    -0.079633485963    0.049096322475    -0.000142610618    0.000021988069
            -0.000113251548    0.000035613329    -0.105741207077    0.031518763680    -0.000136239851    0.000050604658    -0.088034718216    0.015711572467
            -0.079633485963    0.049096322475    -0.000136239851    0.000050604658    -0.092583813119    0.066756211190    -0.000172791291    0.000023606728
            -0.000142610618    0.000021988069    -0.088034718216    0.015711572467    -0.000172791291    0.000023606728    -0.107456698472    0.027601246158
0.750     -0.068672137801    0.111312171969    -0.000094498551    0.000076591577    -0.065617512589    0.088723637635    -0.000124459305    0.000071586238
            -0.000094498551    0.000076591577    -0.094259638412    0.076955652145    -0.000116876708    0.000100956413    -0.084814396561    0.057338730552
            -0.065617512589    0.088723637635    -0.000116876708    0.000100956413    -0.070597329395    0.108482976364    -0.000154446431    0.000085110511
            -0.000124459305    0.000071586238    -0.084814396561    0.057338730552    -0.000154446431    0.000085110511    -0.096894297405    0.073480080495
0.775     -0.032619742223    0.141180776607    -0.000063157792    0.000107058482    -0.038406132381    0.120310779753    -0.000090549945    0.000110158612
            -0.000063157792    0.000107058482    -0.067278008449    0.114755861851    -0.000081822094    0.000140011578    -0.066882412055    0.094873334041
            -0.038406132381    0.120310779753    -0.000081822094    0.000140011578    -0.035363872810    0.138798827700    -0.000116116905    0.000134832382
