# GHz S RI R 45
0.000     0.022577843288    0.001894340549    -0.000002124488    -0.000004674413    0.000819054557    0.001619743561    -0.000003052177    -0.000006786200
            -0.000002124489    -0.000004674413    0.022828438571    0.001361906147    -0.000001447580    -0.000003079444    0.000850539196    0.001393495373
            0.000819054398    0.001619743529    -0.000001447580    -0.000003079444    0.022530029458    0.001882080159    -0.000002174415    -0.000004748010
            -0.000003052171    -0.000006786200    0.000850538872    0.001393495335    -0.000002174414    -0.000004748010    0.022770717514    0.001371908483
0.025     0.029496059044    0.009102319814    -0.000005741328    -0.000009692633    0.004064721254    0.010999765789    -0.000008223930    -0.000014109341
            -0.000005741243    -0.000009692666    0.027846528224    0.008810699096    -0.000003868263    -0.000006369423    0.002821168007    0.011054692380
            0.004062751519    0.011002918626    -0.000003868324    -0.000006369400    0.029422619009    0.009062133294    -0.000005826927    -0.000009861938
            -0.000008223927    -0.000014109337    0.002823528030    0.011053090750    -0.000005826925    -0.000009861942    0.027790884443    0.008868663324
0.050     0.039054104720    0.010253602750    -0.000013356437    -0.000015216608    0.012759904561    0.018464894029    -0.000019140780    -0.000022333106
            -0.000013356437    -0.000015216608    0.033329131713    0.012067514289    -0.000008955399    -0.000009933336    0.008367903690    0.020232992511
            0.012759884595    0.018464933353    -0.000008955401    -0.000009933335    0.038953434994    0.010177807541    -0.000013539260    -0.000015560146
            -0.000019140784    -0.000022333104    0.008368034928    0.020233051860    -0.000013539259    -0.000015560145    0.033288245213    0.012184615254
0.075     0.048785075664    0.005198038303    -0.000022733358    -0.000017066119    0.024225733575    0.020079167275    -0.000032750596    -0.000025406676
            -0.000022733355    -0.000017066123    0.038285559852    0.012342849628    -0.000015187495    -0.000011003862    0.016016041664    0.026225394368
            0.024225727129    0.020079171918    -0.000015187495    -0.000011003862    0.048664924036    0.005123415754    -0.000023142726    -0.000017583028
            -0.000032750596    -0.000025406676    0.016016040545    0.026225399738    -0.000023142726    -0.000017583028    0.038275753578    0.012517108526
0.100     0.055642569010    -0.005904941115    -0.000032798387    -0.000015222076    0.035165505904    0.015129204312    -0.000047629732    -0.000023155293
            -0.000032798387    -0.000015222076    0.041468995080    0.010160815492    -0.000021818214    -0.000009581800    0.024024563600    0.028653259921
            0.035165506822    0.015129204707    -0.000021818215    -0.000009581801    0.055528581422    -0.005959379584    -0.000033603910    -0.000015801962
            -0.000047629733    -0.000023155293    0.024024541814    0.028653266443    -0.000033603910    -0.000015801962    0.041503935621    0.010382510453
0.125     0.056539786708    -0.021373344100    -0.000042524362    -0.000009761425    0.042295090093    0.004494363910    -0.000062273387    -0.000015486458
            -0.000042524362    -0.000009761425    0.041614685185    0.006708126749    -0.000028145569    -0.000005739414    0.030766534997    0.027955133060
            0.042295090093    0.004494363910    -0.000028145569    -0.000005739414    0.056470843203    -0.021417889689    -0.000043831822    -0.000010154294
            -0.000062273387    -0.000015486458    0.030766534997    0.027955133060    -0.000043831822    -0.000010154294    0.041715305304    0.006958199496
0.150     0.049586039776    -0.038069129396    -0.000051099667    -0.000000936243    0.043057631947    -0.009533658202    -0.000075331928    -0.000002616932
            -0.000051099667    -0.000000936243    0.038589931484    0.003659774143    -0.000033620129    0.000000330897    0.034944856923    0.025234281157
            0.043057631947    -0.009533658202    -0.000033620129    0.000000330897    0.049606683001    -0.038117610725    -0.000052839785    -0.000000806155
            -0.000075331928    -0.000002616932    0.034944856923    0.025234281157    -0.000052839785    -0.000000806155    0.038746826326    0.003914533243
0.175     0.034261445255    -0.052125309250    -0.000057781612    0.000011111245    0.036146104073    -0.023620807427    -0.000085491989    0.000015219822
            -0.000057781612    0.000011111245    0.032613689063    0.002698119418    -0.000037737878    0.000008517244    0.035958301302    0.022110730670
            0.036146104073    -0.023620807427    -0.000037737878    0.000008517244    0.034402194328    -0.052229427650    -0.000059659660    0.000012048126
            -0.000085491989    0.000015219822    0.035958301302    0.022110730670    -0.000059659660    0.000012048126    0.032817486517    0.002939402282
0.200     0.011954986144    -0.059617848859    -0.000061660358    0.000026251224    0.021909386247    -0.034043690851    -0.000091279528    0.000037630926
            -0.000061660358    0.000026251224    0.024801645967    0.005365455734    -0.000039875934    0.000018704727    0.034054202720    0.020330511000
            0.021909386247    -0.034043690851    -0.000039875934    0.000018704727    0.012216819995    -0.059851859119    -0.000063210909    0.000028075337
            -0.000091279528    0.000037630926    0.034054202720    0.020330511000    -0.000063210909    0.000028075337    0.025037318656    0.005579056175
0.225     -0.014166675684    -0.057434717255    -0.000061473059    0.000044115811    0.002422152767    -0.037465488265    -0.000090909711    0.000063806431
            -0.000061473059    0.000044115811    0.017017563213    0.012573636869    -0.000039174441    0.000030597950    0.030314758146    0.021343004249
            0.002422152767    -0.037465488265    -0.000039174441    0.000030597950    -0.013823812351    -0.057876791195    -0.000062214843    0.000046605646
            -0.000090909711    0.000063806431    0.030314758146    0.021343004249    -0.000062214843    0.000046605646    0.017263596510    0.012752630781
0.250     -0.039615280510    -0.044084231788    -0.000055756648    0.000063687705    -0.018797642047    -0.031729679790    -0.000082528837    0.000092089253
            -0.000055756648    0.000063687705    0.011496734985    0.024285727617    -0.000034661757    0.000043435299    0.026445485255    0.025928473813
            -0.018797642047    -0.031729679790    -0.000034661757    0.000043435299    -0.039272726194    -0.044794387631    -0.000055394086    0.000066345569
            -0.000082528837    0.000092089253    0.026445485255    0.025928473813    -0.000055394086    0.000066345569    0.011728018679    0.024434301232
0.275     -0.059426021014    -0.020216889339    -0.000043277343    0.000083037881    -0.037443320233    -0.016461424328    -0.000064721767    0.000119760199
            -0.000043277343    0.000083037881    0.010345873325    0.039371393316    -0.000025574420    0.000055823850    0.024383691453    0.033941182156
            -0.037443320233    -0.016461424328    -0.000025574420    0.000055823850    -0.059196600742    -0.021215351088    -0.000041863233    0.000085246268
            -0.000064721767    0.000119760199    0.024383691453    0.033941182156    -0.000041863233    0.000085246268    0.010539718509    0.039507177189
0.300     -0.069215745154    0.011268159662    -0.000023700246    0.000099448033    -0.049342453870    0.006688251971    -0.000037266040    0.000143248034
            -0.000023700246    0.000099448033    0.015008665773    0.055767429534    -0.000011827143    0.000065865329    0.025818396987    0.044294451824
            -0.049342453870    0.006688251971    -0.000011827143    0.000065865329    -0.069222493031    0.010016381597    -0.000021657516    0.000100717407
            -0.000037266040    0.000143248034    0.025818396987    0.044294451824    -0.000021657516    0.000100717407    0.015152095418    0.055920235854
0.325     -0.066192084775    0.045689737531    0.000001944616    0.000109980109    -0.051397498458    0.034299972413    -0.000001600482    0.000158830186
            0.000001944616    0.000109980109    0.025863321241    0.070868103535    0.000005690519    0.000071595220    0.031748785000    0.055182102299
            -0.051397498458    0.034299972413    0.000005690519    0.000071595220    -0.066539768807    0.044276912390    0.000003962514    0.000110170513
            -0.000001600482    0.000158830186    0.031748785000    0.055182102299    0.000003962514    0.000110170513    0.025958410863    0.071074270871
0.350     -0.049841684819    0.077487250768    0.000031229174    0.000112333470    -0.042294771252    0.061879107012    0.000039186446    0.000163612251
            0.000031229174    0.000112333470    0.042070001451    0.082106401047    0.000025147086    0.000071600508    0.042229010736    0.064508529765
            -0.042294771252    0.061879107012    0.000025147086    0.000071600508    -0.050590283343    0.076051851291    0.000032599876    0.000111747057
            0.000039186446    0.000163612251    0.042229010736    0.064508529765    0.000032599876    0.000111747057    0.042138202707    0.082401346567
0.375     -0.022063882491    0.101336765375    0.000060854817    0.000105530017    -0.022755149276    0.084773976684    0.000081010707    0.000156288314
            0.000060854817    0.000105530017    0.061722840649    0.087504101275    0.000044217994    0.000065466087    0.056353537549    0.070358274490
            -0.022755149276    0.084773976684    0.000044217994    0.000065466087    -0.023209367276    0.100039433061    0.000061273271    0.000104814208
            0.000081010707    0.000156288314    0.056353537549    0.070358274490    0.000061273271    0.000104814208    0.061802519172    0.087912474327
0.400     0.013205697989    0.113158135029    0.000087497348    0.000090184058    0.004657573676    0.099057474452    0.000119743801    0.000137416829
            0.000087497348    0.000090184058    0.082246586564    0.086087575905    0.000060707485    0.000053884381    0.072475461705    0.071403509778
            0.004657573676    0.099057474452    0.000060707485    0.000053884381    0.011737630259    0.112152284510    0.000087148964    0.000090074269
            0.000119743801    0.000137416829    0.072475461705    0.071403509778    0.000087148964    0.000090074269    0.082387959126    0.086616018395
0.425     0.050746483805    0.110779257331    0.000108597149    0.000068206984    0.036060307152    0.102144381060    0.000152110481    0.000109064730
            0.000108597149    0.000068206984    0.100902599376    0.078039070867    0.000073075333    0.000038354911    0.088543115701    0.067126297919
            0.036060307152    0.102144381060    0.000073075333    0.000038354911    0.049094231366    0.110180605821    0.000108140993    0.000069195452
            0.000152110481    0.000109064730    0.088543115701    0.067126297919    0.000108140993    0.000069195452    0.101158662994    0.078671460821
0.450     0.084922807557    0.094209321889    0.000122829409    0.000042197186    0.066893286340    0.093121134564    0.000176198163    0.000074116247
            0.000122829409    0.000042197186    0.115280874029    0.064628533643    0.000080683587    0.000020710352    0.102473305499    0.057886443755
            0.066893286340    0.093121134564    0.000080683587    0.000020710352    0.083271837690    0.094070015453    0.000123182382    0.000044265084
            0.000176198163    0.000074116247    0.102473305499    0.057886443755    0.000123182382    0.000044265084    0.115696562683    0.065325952278
0.475     0.110497760948    0.065558449217    0.000130127502    0.000014686627    0.092545032054    0.072804165898    0.000191454342    0.000035426628
            0.000130127502    0.000014686627    0.123674364940    0.047961386340    0.000083717147    0.000002591056    0.112472878443    0.044839667558
            0.092545032054    0.072804165898    0.000083717147    0.000002591056    0.109058058799    0.065845730484    0.000132113769    0.000017189262
            0.000191454342    0.000035426628    0.112472878443    0.044839667558    0.000132113769    0.000017189262    0.124276414560    0.048669848446
0.500     0.123317776755    0.028742482929    0.000131452893    -0.000012469701    0.108928917443    0.043646837179    0.000198426816    -0.000004814686
            0.000131452893    -0.000012469701    0.125327617697    0.030642500783    0.000082980374    -0.000014930234    0.117315647856    0.029781918466
            0.108928917443    0.043646837179    0.000082980374    -0.000014930234    0.122305524880    0.029310224636    0.000135458699    -0.000010719881
            0.000198426816    -0.000004814686    0.117315647856    0.029781918466    0.000135458699    -0.000010719881    0.126118950438    0.031310169455
0.525     0.120853104271    -0.010966085683    0.000128193826    -0.000038360439    0.113064283378    0.009442490532    0.000198114907    -0.000045314686
            0.000128193826    -0.000038360439    0.120550625483    0.015321932095    0.000079566311    -0.000031526901    0.116548516368    0.014870066484
            0.113064283378    0.009442490532    0.000079566311    -0.000031526901    0.120592648064    -0.010520703561    0.000134090112    -0.000038907849
            0.000198114907    -0.000045314686    0.116548516368    0.014870066484    0.000134090112    -0.000038907849    0.121509116352    0.015994268414
0.550     0.102633860217    -0.047514159666    0.000121489126    -0.000063374786    0.103592268611    -0.023479835326    0.000191188725    -0.000085814997
            0.000121489126    -0.000063374786    0.111349098698    0.005065078276    0.000074036956    -0.000045835342    0.111032707837    0.002757344991
            0.103592268611    -0.023479835326    0.000074036956    -0.000045835342    0.103366766558    -0.045557050729    0.000127989610    -0.000064657865
            0.000191188725    -0.000085814997    0.111032707837    0.002757344991    0.000127989610    -0.000064657865    0.111822173909    0.005194079426
0.575     0.070533022289    -0.074797376561    0.000111674401    -0.000087903951    0.080089004903    -0.052024956294    0.000177521874    -0.000126404287
            0.000111674401    -0.000087903951    0.098641191364    0.000806949987    0.000065931631    -0.000061513574    0.101388002897    -0.004986444609
            0.080089004903    -0.052024956294    0.000065931631    -0.000061513574    0.071429800352    -0.073813245432    0.000116304799    -0.000093153157
            0.000177521874    -0.000126404287    0.101388002897    -0.004986444609    0.000116304799    -0.000093153157    0.099402171366    0.000785383176
0.600     0.028925874360    -0.087422284005    0.000097552874    -0.000112920644    0.046500612589    -0.069276923759    0.000155646163    -0.000166925226
            0.000097552874    -0.000112920644    0.086621495276    0.003576728317    0.000055385580    -0.000076905314    0.090702325302    -0.006887073476
            0.046500612589    -0.069276923759    0.000055385580    -0.000076905314    0.030371924426    -0.087459223028    0.000099276683    -0.000120633963
            0.000155646163    -0.000166925226    0.090702325302    -0.006887073476    0.000099276683    -0.000120633963    0.087359044386    0.003519747848
0.625     -0.015173359999    -0.082748619022    0.000077452603    -0.000138017849    0.007859019337    -0.071973813394    0.000123981385    -0.000205874159
            0.000077452603    -0.000138017849    0.078233976572    0.012688195566    0.000040697874    -0.000091889891    0.081662088486    -0.003015918935
            0.007859019337    -0.071973813394    0.000040697874    -0.000091889891    -0.014048983273    -0.083695928621    0.000074954001    -0.000146294544
            0.000123981385    -0.000205874159    0.081662088486    -0.003015918935    0.000074954001    -0.000146294544    0.078947577287    0.012401391528
0.650     -0.055475341686    -0.060677068924    0.000048946832    -0.000161328307    -0.030077263623    -0.058778808225    0.000080311679    -0.000240482938
            0.000048946832    -0.000161328307    0.076169961281    0.025980409001    0.000020655325    -0.000104863584    0.076774330513    0.005539112031
            -0.030077263623    -0.058778808225    0.000020655325    -0.000104863584    -0.054526386308    -0.062213486309    0.000042477054    -0.000167618994
            0.000080311679    -0.000240482938    0.076774330513    0.005539112031    0.000042477054    -0.000167618994    0.076559455492    0.025608568355
0.675     -0.084587042195    -0.023697910579    0.000011219785    -0.000178605119    -0.060456432912    -0.030973211375    0.000024498841    -0.000265294278
            0.000011219785    -0.000178605119    0.081922251818    0.040165103584    -0.000004908346    -0.000113066121    0.078058035876    0.016310648285
            -0.060456432912    -0.030973211375    -0.000004908346    -0.000113066121    -0.084039501913    -0.025903499238    0.000002326563    -0.000180996508
            0.000024498841    -0.000265294278    0.078058035876    0.016310648285    0.000002326563    -0.000180996508    0.082008412152    0.039923754136
0.700     -0.097303890729    0.022242602048    -0.000033930561    -0.000185239241    -0.077923324676    0.007030752256    -0.000040494090    -0.000274908115
            -0.000033930561    -0.000185239241    0.095321757397    0.051541830013    -0.000034320445    -0.000113571704    0.086016802941    0.026131926887
            -0.077923324676    0.007030752256    -0.000034320445    -0.000113571704    -0.097443346869    0.019523086930    -0.000042829792    -0.000182904967
            -0.000040494090    -0.000274908115    0.086016802941    0.026131926887    -0.000042829792    -0.000182904967    0.095194563436    0.051578508304
0.725     -0.091573641883    0.069701840636    -0.000082136919    -0.000177763595    -0.079633485963    0.049096322475    -0.000108971103    -0.000265521709
            -0.000082136919    -0.000177763595    0.114510866415    0.056863851951    -0.000064241070    -0.000104564008    0.099627852266    0.031983950434
            -0.079633485963    0.049096322475    -0.000064241070    -0.000104564008    -0.092583813119    0.066756211190    -0.000088496944    -0.000171354374
            -0.000108971103    -0.000265521709    0.099627852266    0.031983950434    -0.000088496944    -0.000171354374    0.114312565833    0.057275870777
0.750     -0.068672137801    0.111312171969    -0.000127580828    -0.000155281754    -0.065617512589    0.088723637635    -0.000173769976    -0.000236384527
            -0.000127580828    -0.000155281754    0.136401604391    0.054078842299    -0.000090684141    -0.000086212831    0.116658631942    0.031681685975
            -0.065617512589    0.088723637635    -0.000090684141    -0.000086212831    -0.070597329395    0.108482976364    -0.000129593097    -0.000146769319
            -0.000173769976    -0.000236384527    0.116658631942    0.031681685975    -0.000129593097    -0.000146769319    0.136306504002    0.054897704216
0.775     -0.032619742223    0.141180776607    -0.000164682888    -0.000119778895    -0.038406132381    0.120310779753    -0.000228199397    -0.000190011259
            -0.000164682888    -0.000119778895    0.157400298798    0.042697920430    -0.000110281835    -0.000060617951    0.134232774710    0.024264080040
            -0.038406132381    0.120310779753    -0.000110281835    -0.000060617951    -0.035363872810    0.138798827700    -0.000161899426    -0.000111827366
            -0.000228199397    -0.000190011259    0.134232774710    0.024264080040    -0.000161899426    -0.000111827366    0.157586702424    0.043879945269
