# GHz S RI R 45
0.000     0.022577843288    0.001894340549    -0.000000016307    -0.000000111056    0.000819054557    0.001619743561    -0.000000012749    -0.000000110101
            -0.000000016307    -0.000000111056    0.021358594685    0.001404599396    0.000000003277    -0.000000081289    0.000693283734    0.001209407356
            0.000819054398    0.001619743529    0.000000003277    -0.000000081288    0.022530029458    0.001882080159    0.000000009348    -0.000000077381
            -0.000000012749    -0.000000110101    0.000693283713    0.001209407368    0.000000009348    -0.000000077381    0.021292479724    0.001396417786
0.025     0.029496059044    0.009102319814    -0.000000120952    -0.000000226161    0.004064721254    0.010999765789    -0.000000114998    -0.000000225466
            -0.000000120952    -0.000000226161    0.027404785657    0.007544227601    -0.000000067275    -0.000000175042    0.003353894406    0.009238378210
            0.004062751519    0.011002918626    -0.000000067275    -0.000000175042    0.029422619009    0.009062133294    -0.000000055034    -0.000000169390
            -0.000000114999    -0.000000225466    0.003353735510    0.009238442702    -0.000000055035    -0.000000169390    0.027322199248    0.007441023659
0.050     0.039054104720    0.010253602750    -0.000000369222    -0.000000316698    0.012759904561    0.018464894029    -0.000000361174    -0.000000318917
            -0.000000369222    -0.000000316698    0.035684959152    0.008308181424    -0.000000254395    -0.000000262166    0.010636599248    0.015727799752
            0.012759884595    0.018464933353    -0.000000254396    -0.000000262166    0.038953434994    0.010177807541    -0.000000233110    -0.000000259652
            -0.000000361173    -0.000000318917    0.010636573137    0.015727813789    -0.000000233110    -0.000000259652    0.035561022283    0.008133648190
0.075     0.048785075664    0.005198038303    -0.000000667086    -0.000000235417    0.024225733575    0.020079167275    -0.000000659009    -0.000000242001
            -0.000000667086    -0.000000235417    0.044378592607    0.003926827570    -0.000000492717    -0.000000219294    0.020511305810    0.017528254446
            0.024225727129    0.020079171918    -0.000000492717    -0.000000219294    0.048664924036    0.005123415754    -0.000000464156    -0.000000225985
            -0.000000659009    -0.000000242001    0.020511299701    0.017528258516    -0.000000464156    -0.000000225985    0.044212206908    0.003706095163
0.100     0.055642569010    -0.005904941115    -0.000000923544    0.000000028997    0.035165505904    0.015129204312    -0.000000917892    0.000000017699
            -0.000000923544    0.000000028997    0.051104709577    -0.005651279068    -0.000000710968    -0.000000030293    0.030445736208    0.013904396907
            0.035165506822    0.015129204707    -0.000000710968    -0.000000030293    0.055528581422    -0.005959379584    -0.000000679454    -0.000000050973
            -0.000000917892    0.000000017699    0.030445737118    0.013904397322    -0.000000679454    -0.000000050973    0.050908985694    -0.005893586056
0.125     0.056539786708    -0.021373344100    -0.000001045667    0.000000446092    0.042295090093    0.004494363910    -0.000001045256    0.000000431026
            -0.000001045667    0.000000446092    0.053331118726    -0.019406249114    -0.000000834348    0.000000287268    0.037833721358    0.005297682757
            0.042295090093    0.004494363910    -0.000000834348    0.000000287268    0.056470843203    -0.021417889689    -0.000000806684    0.000000250077
            -0.000001045256    0.000000431026    0.037833722339    0.005297682962    -0.000000806684    0.000000250077    0.053126214739    -0.019657422919
0.150     0.049586039776    -0.038069129396    -0.000000961422    0.000000942849    0.043057631947    -0.009533658202    -0.000000968432    0.000000926498
            -0.000000961422    0.000000942849    0.049272004354    -0.034921310343    -0.000000801485    0.000000681162    0.040496295890    -0.006791990066
            0.043057631947    -0.009533658202    -0.000000801485    0.000000681162    0.049606683001    -0.038117610725    -0.000000785510    0.000000628797
            -0.000000968431    0.000000926499    0.040496295890    -0.006791990066    -0.000000785510    0.000000628798    0.049096838718    -0.035176238221
0.175     0.034261445255    -0.052125309250    -0.000000636446    0.000001417235    0.036146104073    -0.023620807427    -0.000000651974    0.000001403275
            -0.000000636446    0.000001417235    0.038163474767    -0.049338200790    -0.000000578527    0.000001074005    0.037063894903    -0.019976175923
            0.036146104073    -0.023620807427    -0.000000578527    0.000001074005    0.034402194328    -0.052229427650    -0.000000581245    0.000001011623
            -0.000000651974    0.000001403275    0.037063894903    -0.019976175923    -0.000000581245    0.000001011623    0.038050306906    -0.049621745375
0.200     0.011954986144    -0.059617848859    -0.000000084956    0.000001755554    0.021909386247    -0.034043690851    -0.000000108119    0.000001748391
            -0.000000084956    0.000001755554    0.020560763150    -0.059519474590    -0.000000168463    0.000001375642    0.027314294638    -0.031418383910
            0.021909386247    -0.034043690851    -0.000000168463    0.000001375642    0.012216819995    -0.059851859119    -0.000000194140    0.000001311687
            -0.000000108119    0.000001748391    0.027314294638    -0.031418383910    -0.000000194140    0.000001311687    0.020524751581    -0.059875880788
0.225     -0.014166675684    -0.057434717255    0.000000627237    0.000001854872    0.002422152767    -0.037465488265    0.000000599584    0.000001858534
            0.000000627237    0.000001854872    -0.001607270441    -0.062669192637    0.000000384097    0.000001500661    0.012285378424    -0.038345602117
            0.002422152767    -0.037465488265    0.000000384097    0.000001500661    -0.013823812351    -0.057876791195    0.000000335375    0.000001445359
            0.000000599584    0.000001858534    0.012285378424    -0.038345602117    0.000000335375    0.000001445359    -0.001577030606    -0.063151685181
0.250     -0.039615280510    -0.044084231788    0.000001389034    0.000001645815    -0.018797642047    -0.031729679790    0.000001362163    0.000001662676
            0.000001389034    0.000001645815    -0.025240138698    -0.056949801288    0.000000996604    0.000001386852    -0.005823028523    -0.038595220951
            -0.018797642047    -0.031729679790    0.000000996604    0.000001386852    -0.039272726194    -0.044794387631    0.000000929594    0.000001349976
            0.000001362163    0.000001662676    -0.005823028523    -0.038595220951    0.000000929594    0.000001349976    -0.025183971940    -0.057605818802
0.275     -0.059426021014    -0.020216889339    0.000002062108    0.000001112739    -0.037443320233    -0.016461424328    0.000002042418    0.000001142465
            0.000002062108    0.000001112739    -0.046562186091    -0.041939439222    0.000001561577    0.000001012755    -0.023982821715    -0.031080991254
            -0.037443320233    -0.016461424328    0.000001561577    0.000001012755    -0.059196600742    -0.021215351088    0.000001485216    0.000001001346
            0.000002042418    0.000001142465    -0.023982821715    -0.031080991254    0.000001485216    0.000001001346    -0.046546213310    -0.042795605277
0.300     -0.069215745154    0.011268159662    0.000002507125    0.000000303335    -0.049342453870    0.006688251971    0.000002500653    0.000000342329
            0.000002507125    0.000000303335    -0.061782666612    -0.018867988630    0.000001966739    0.000000406354    -0.038867513050    -0.016095382044
            -0.049342453870    0.006688251971    0.000001966739    0.000000406354    -0.069222493031    0.010016381597    0.000001892470    0.000000422962
            0.000002500653    0.000000342329    -0.038867513050    -0.016095382044    0.000001892470    0.000000422962    -0.061888062476    -0.019917169484
0.325     -0.066192084775    0.045689737531    0.000002614125    -0.000000675560    -0.051397498458    0.034299972413    0.000002624905    -0.000000633450
            0.000002614125    -0.000000675560    -0.067816186337    0.009489909049    0.000002119351    -0.000000356329    -0.047473382078    0.004660929306
            -0.051397498458    0.034299972413    0.000002119351    -0.000000356329    -0.066539768807    0.044276912390    0.000002058840    -0.000000314129
            0.000002624905    -0.000000633450    -0.047473382078    0.004660929306    0.000002058840    -0.000000314129    -0.068121365021    0.008295468872
0.350     -0.049841684819    0.077487250768    0.000002326053    -0.000001676227    -0.042294771252    0.061879107012    0.000002355073    -0.000001638790
            0.000002326053    -0.000001676227    -0.062910993442    0.039220415737    0.000001964957    -0.000001164760    -0.047710949690    0.028330355789
            -0.042294771252    0.061879107012    0.000001964957    -0.000001164760    -0.050590283343    0.076051851291    0.000001927999    -0.000001103931
            0.000002355073    -0.000001638790    -0.047710949690    0.028330355789    0.000001927999    -0.000001103931    -0.063472167409    0.037966879001
0.375     -0.022063882491    0.101336765375    0.000001651853    -0.000002537960    -0.022755149276    0.084773976684    0.000001696644    -0.000002512986
            0.000001651853    -0.000002537960    -0.047018845390    0.065926654315    0.000001498838    -0.000001894438    -0.038808272999    0.051385728337
            -0.022755149276    0.084773976684    0.000001498838    -0.000001894438    -0.023209367276    0.100039433061    0.000001491909    -0.000001825292
            0.000001696644    -0.000002512986    -0.038808272999    0.051385728337    0.000001491909    -0.000001825292    -0.047853092337    0.064727184104
0.400     0.013205697989    0.113158135029    0.000000663494    -0.000003115133    0.004657573676    0.099057474452    0.000000718629    -0.000003108956
            0.000000663494    -0.000003115133    -0.021859748309    0.085474869098    0.000000764597    -0.000002427710    -0.021468540721    0.070239373509
            0.004657573676    0.099057474452    0.000000764597    -0.000002427710    0.011737630259    0.112152284510    0.000000790022    -0.000002362450
            0.000000718629    -0.000003108956    -0.021468540721    0.070239373509    0.000000790022    -0.000002362450    -0.022933506912    0.084451736753
0.425     0.050746483805    0.110779257331    -0.000000516839    -0.000003299970    0.036060307152    0.102144381060    -0.000000458924    -0.000003316669
            -0.000000516839    -0.000003299970    0.009344640926    0.094671628642    -0.000000153925    -0.000002671212    0.002251753948    0.081823907280
            0.036060307152    0.102144381060    -0.000000153925    -0.000002671212    0.049094231366    0.110180605821    -0.000000098038    -0.000002622562
            -0.000000458924    -0.000003316669    0.002251753948    0.081823907280    -0.000000098038    -0.000002622562    0.008118215233    0.093935439928
0.450     0.084922807557    0.094209321889    -0.000001736951    -0.000003034797    0.066893286340    0.093121134564    -0.000001684589    -0.000003075696
            -0.000001736951    -0.000003034797    0.042362066928    0.091765260144    -0.000001146785    -0.000002564708    0.029264033502    0.084063522166
            0.066893286340    0.093121134564    -0.000001146785    -0.000002564708    0.083271837690    0.094070015453    -0.000001066300    -0.000002544763
            -0.000001684589    -0.000003075696    0.029264033502    0.084063522166    -0.000001066300    -0.000002544763    0.041118619226    0.091393217869
0.475     0.110497760948    0.065558449217    -0.000002834914    -0.000002321926    0.092545032054    0.072804165898    -0.000002796237    -0.000002384405
            -0.000002834914    -0.000002321926    0.072565362774    0.076692009061    -0.000002091964    -0.000002093211    0.055891025200    0.076155058849
            0.092545032054    0.072804165898    -0.000002091964    -0.000002093211    0.109058058799    0.065845730484    -0.000001996128    -0.000002110564
            -0.000002796237    -0.000002384405    0.055891025200    0.076155058849    -0.000001996129    -0.000002110564    0.071478910277    0.076710602004
0.500     0.123317776755    0.028742482929    -0.000003645041    -0.000001222551    0.108928917443    0.043646837179    -0.000003629375    -0.000001300193
            -0.000003645041    -0.000001222551    0.095564734481    0.051102659145    -0.000002850282    -0.000001286825    0.078356334158    0.058695109438
            0.108928917443    0.043646837179    -0.000002850282    -0.000001286825    0.122305524880    0.029310224636    -0.000002754844    -0.000001345033
            -0.000003629375    -0.000001300193    0.078356334158    0.058695109438    -0.000002754844    -0.000001345033    0.094836253769    0.051465417435
0.525     0.120853104271    -0.010966085683    -0.000004025354    0.000000156274    0.113064283378    0.009442490532    -0.000004040660    0.000000072675
            -0.000004025354    0.000000156274    0.107799048961    0.018190740783    -0.000003298150    -0.000000204600    0.093270750289    0.033645587313
            0.113064283378    0.009442490532    -0.000003298150    -0.000000204600    0.120592648064    -0.010520703561    -0.000003221603    -0.000000303283
            -0.000004040660    0.000000072675    0.093270750289    0.033645587313    -0.000003221603    -0.000000303283    0.107625463251    0.018738791025
0.550     0.102633860217    -0.047514159666    -0.000003878341    0.000001652742    0.103592268611    -0.023479835326    -0.000003926788    0.000001576281
            -0.000003878341    0.000001652742    0.107109117089    -0.017681545936    -0.000003327214    0.000000987699    0.098143897388    0.004138711302
            0.103592268611    -0.023479835326    -0.000003327214    0.000000987699    0.103366766558    -0.045557050729    -0.000003284295    0.000000857055
            -0.000003926788    0.000001576281    0.098143897388    0.004138711302    -0.000003284295    0.000000857055    0.107565960813    -0.017236079053
0.575     0.070533022289    -0.074797376561    -0.000003165417    0.000003067395    0.080089004903    -0.052024956294    -0.000003242452    0.000003010069
            -0.000003165417    0.000003067395    0.093047345851    -0.051672499454    -0.000002876267    0.000002232108    0.091727064007    -0.025960500268
            0.080089004903    -0.052024956294    -0.000002876267    0.000002232108    0.071429800352    -0.073813245432    -0.000002878352    0.000002083640
            -0.000003242452    0.000003010069    0.091727064007    -0.025960500268    -0.000002878352    0.000002083640    0.094019074303    -0.051565010952
0.600     0.028925874360    -0.087422284005    -0.000001920457    0.000004174218    0.046500612589    -0.069276923759    -0.000002018985    0.000004146084
            -0.000001920457    0.000004174218    0.066820178178    -0.078950479951    -0.000001966781    0.000003271307    0.074172375324    -0.052415308162
            0.046500612589    -0.069276923759    -0.000001966781    0.000003271307    0.030371924426    -0.087459223028    -0.000002019618    0.000003122059
            -0.000002018985    0.000004146084    0.074172375324    -0.052415308162    -0.000002019618    0.000003122059    0.068191442823    -0.079305612161
0.625     -0.015173359999    -0.082748619022    -0.000000289934    0.000004767801    0.007859019337    -0.071973813394    -0.000000399182    0.000004777695
            -0.000000289934    0.000004767801    0.031455680284    -0.095195992156    -0.000000674303    0.000003927510    0.047297458103    -0.071103002799
            0.007859019337    -0.071973813394    -0.000000674303    0.000003927510    -0.014048983273    -0.083695928621    -0.000000776698    0.000003798435
            -0.000000399182    0.000004777695    0.047297458103    -0.071103002799    -0.000000776698    0.000003798435    0.033114947232    -0.096153528759
0.650     -0.055475341686    -0.060677068924    0.000001523017    0.000004710534    -0.030077263623    -0.058778808225    0.000001418419    0.000004763694
            0.000001523017    0.000004710534    -0.008411760671    -0.097460769376    0.000000832062    0.000004053720    0.014511761659    -0.078795497172
            -0.030077263623    -0.058778808225    0.000000832062    0.000004053720    -0.054526386308    -0.062213486309    0.000000691163    0.000003964737
            0.000001418419    0.000004763694    0.014511761659    -0.078795497172    0.000000691163    0.000003964737    -0.006645791574    -0.099147761690
0.675     -0.084587042195    -0.023697910579    0.000003237000    0.000003946794    -0.060456432912    -0.030973211375    0.000003155503    0.000004041191
            0.000003237000    0.000003946794    -0.047213148682    -0.084778899809    0.000002322885    0.000003586253    -0.019651151386    -0.073787077428
            -0.060456432912    -0.030973211375    0.000002322885    0.000003586253    -0.084039501913    -0.025903499238    0.000002163079    0.000003550821
            0.000003155503    0.000004041191    -0.019651151386    -0.073787077428    0.000002163079    0.000003550821    -0.045586576428    -0.087250440895
0.700     -0.097303890729    0.022242602048    0.000004568544    0.000002560090    -0.077923324676    0.007030752256    0.000004527123    0.000002684913
            0.000004568544    0.000002560090    -0.079326753288    -0.058446972975    0.000003556733    0.000002568019    -0.050248774704    -0.056293793895
            -0.077923324676    0.007030752256    0.000003556733    0.000002568019    -0.097443346869    0.019523086930    0.000003401842    0.000002589521
            0.000004527123    0.000002684913    -0.050248774704    -0.056293793895    0.000003401842    0.000002589521    -0.078108769025    -0.061653901586
0.725     -0.091573641883    0.069701840636    0.000005297808    0.000000747282    -0.079633485963    0.049096322475    0.000005307639    0.000000884347
            0.000005297808    0.000000747282    -0.100023685545    -0.021893997648    0.000004335004    0.000001142416    -0.072767969983    -0.028481683920
            -0.079633485963    0.049096322475    0.000004335004    0.000001142416    -0.092583813119    0.066756211190    0.000004207700    0.000001213646
            0.000005307639    0.000000884347    -0.072767969983    -0.028481683920    0.000004207700    0.000001213646    -0.099457789518    -0.025677757465
0.750     -0.068672137801    0.111312171969    0.000005308829    -0.000001225680    -0.065617512589    0.088723637635    0.000005372149    -0.000001098031
            0.000005308829    -0.000001225680    -0.106288666222    0.019868189826    0.000004540200    -0.000000482810    -0.083917124288    0.005887087538
            -0.065617512589    0.088723637635    0.000004540200    -0.000000482810    -0.070597329395    0.108482976364    0.000004457561    -0.000000377618
            0.000005372149    -0.000001098031    -0.083917124288    0.005887087538    0.000004457561    -0.000000377618    -0.106545500202    0.015756395809
0.775     -0.032619742223    0.141180776607    0.000004603554    -0.000003080289    -0.038406132381    0.120310779753    0.000004713341    -0.000002982690
            0.000004603554    -0.000003080289    -0.097294720137    0.061100324267    0.000004150283    -0.000002082262    -0.082137117637    0.042126701646
            -0.038406132381    0.120310779753    0.000004150283    -0.000002082262    -0.035363872810    0.138798827700    0.000004121188    -0.000001963332
