# GHz S RI R 45
0.000     0.022577843288    0.001894340549    0.000000584516    0.000001145291    0.000819054557    0.001619743561    0.000000658212    0.000001275183
            0.000000584516    0.000001145291    0.021927460171    0.001723136344    0.000000666531    0.000001279153    0.000759213074    0.001452944888
            0.000819054398    0.001619743529    0.000000666530    0.000001279153    0.022530029458    0.001882080159    0.000000756315    0.000001436601
            0.000000658213    0.000001275183    0.000759213720    0.001452944889    0.000000756326    0.000001436601    0.021842052806    0.001737569594
0.025     0.029496059044    0.009102319814    0.000001779643    0.000002108626    0.004064721254    0.010999765789    0.000001989257    0.000002348590
            0.000001779643    0.000002108626    0.028277155368    0.008110147540    0.000002002182    0.000002353718    0.003688198331    0.009980813891
            0.004062751519    0.011002918626    0.000002002182    0.000002353718    0.029422619009    0.009062133294    0.000002256943    0.000002643594
            0.000001989257    0.000002348589    0.003685665044    0.009979577129    0.000002256946    0.000002643598    0.028216851362    0.008132990274
0.050     0.039054104720    0.010253602750    0.000004261446    0.000002612560    0.012759904561    0.018464894029    0.000004750290    0.000002910836
            0.000004261446    0.000002612560    0.037097568253    0.008933791354    0.000004769324    0.000002914635    0.011599447218    0.016882581484
            0.012759884595    0.018464933353    0.000004769324    0.000002914635    0.038953434994    0.010177807541    0.000005361772    0.000003274160
            0.000004750290    0.000002910836    0.011599426596    0.016882579880    0.000005361772    0.000003274160    0.037098986645    0.008983001968
0.075     0.048785075664    0.005198038303    0.000006975032    0.000001354797    0.024225733575    0.020079167275    0.000007769227    0.000001518314
            0.000006975032    0.000001354797    0.046258325490    0.004196475827    0.000007792180    0.000001516691    0.022231569728    0.018603425084
            0.024225727129    0.020079171918    0.000007792181    0.000001516691    0.048664924036    0.005123415754    0.000008753620    0.000001713287
            0.000007769227    0.000001518314    0.022231562557    0.018603428979    0.000008753620    0.000001713287    0.046345591524    0.004244673915
0.100     0.055642569010    -0.005904941115    0.000008994531    -0.000001613932    0.035165505904    0.015129204312    0.000010023519    -0.000001773875
            0.000008994531    -0.000001613932    0.053134586066    -0.006102573014    0.000010046986    -0.000001782702    0.032741792098    0.014390138433
            0.035165506822    0.015129204707    0.000010046986    -0.000001782702    0.055528581422    -0.005959379584    0.000011293117    -0.000001976497
            0.000010023519    -0.000001773875    0.032741793013    0.014390138836    0.000011293117    -0.000001976497    0.053332462000    -0.006095739902
0.125     0.056539786708    -0.021373344100    0.000009447268    -0.000005835243    0.042295090093    0.004494363910    0.000010545809    -0.000006462238
            0.000009447268    -0.000005835243    0.054964244912    -0.020695309949    0.000010566123    -0.000006478590    0.040239882300    0.004820336137
            0.042295090093    0.004494363910    0.000010566123    -0.000006478590    0.056470843203    -0.021417889689    0.000011898723    -0.000007236695
            0.000010545809    -0.000006462238    0.040239882300    0.004820336137    0.000011898723    -0.000007236695    0.055280555565    -0.020770074598
0.150     0.049586039776    -0.038069129396    0.000007764702    -0.000010446087    0.043057631947    -0.009533658202    0.000008702718    -0.000011594414
            0.000007764702    -0.000010446087    0.049907676507    -0.036975387447    0.000008716820    -0.000011616425    0.042354575405    -0.008324231886
            0.043057631947    -0.009533658202    0.000008716820    -0.000011616425    0.049606683001    -0.038117610725    0.000009859342    -0.000013005793
            0.000008702718    -0.000011594414    0.042354575405    -0.008324231886    0.000009859342    -0.000013005793    0.050333326279    -0.037197597994
0.175     0.034261445255    -0.052125309250    0.000003804023    -0.000014381046    0.036146104073    -0.023620807427    0.000004329885    -0.000015992804
            0.000003804023    -0.000014381046    0.037207434660    -0.051677453373    0.000004336216    -0.000016017897    0.037681909774    -0.022299216808
            0.036146104073    -0.023620807427    0.000004336216    -0.000016017897    0.034402194328    -0.052229427650    0.000004985264    -0.000017970886
            0.000004329885    -0.000015992804    0.037681909774    -0.022299216808    0.000004985264    -0.000017970886    0.037706838380    -0.052105782638
0.200     0.011954986144    -0.059617848859    -0.000002063268    -0.000016552298    0.021909386247    -0.034043690851    -0.000002169722    -0.000018451836
            -0.000002063268    -0.000016552298    0.017683025334    -0.061332190574    -0.000002171525    -0.000018478045    0.026145732605    -0.033907862936
            0.021909386247    -0.034043690851    -0.000002171525    -0.000018478045    0.012216819995    -0.059851859119    -0.000002282347    -0.000020785775
            -0.000002169722    -0.000018451836    0.026145732605    -0.033907862936    -0.000002282347    -0.000020785775    0.018194220062    -0.062011622904
0.225     -0.014166675684    -0.057434717255    -0.000008964851    -0.000016085795    0.002422152767    -0.037465488265    -0.000009839434    -0.000017998343
            -0.000008964851    -0.000016085795    -0.006319129987    -0.062971691822    -0.000009849881    -0.000018024762    0.009108417810    -0.040101103983
            0.002422152767    -0.037465488265    -0.000009849881    -0.000018024762    -0.013823812351    -0.057876791195    -0.000010887188    -0.000020358974
            -0.000009839434    -0.000017998343    0.009108417810    -0.040101103983    -0.000010887188    -0.000020358974    -0.005881223591    -0.063922845047
0.250     -0.039615280510    -0.044084231788    -0.000015641975    -0.000012563185    -0.018797642047    -0.031729679790    -0.000017293277    -0.000014157932
            -0.000015641975    -0.000012563185    -0.031210640318    -0.054801142357    -0.000017314399    -0.000014183590    -0.010775059231    -0.038614535931
            -0.018797642047    -0.031729679790    -0.000017314399    -0.000014183590    -0.039272726194    -0.044794387631    -0.000019293808    -0.000016147399
            -0.000017293277    -0.000014157932    -0.010775059231    -0.038614535931    -0.000019293808    -0.000016147399    -0.030943217788    -0.056008295840
0.275     -0.059426021014    -0.020216889339    -0.000020694937    -0.000006186517    -0.037443320233    -0.016461424328    -0.000022984243    -0.000007137048
            -0.000020694937    -0.000006186517    -0.052758371623    -0.036681968034    -0.000023019414    -0.000007158635    -0.029986018632    -0.028494316430
            -0.037443320233    -0.016461424328    -0.000023019414    -0.000007158635    -0.059196600742    -0.021215351088    -0.000025780878    -0.000008357746
            -0.000022984243    -0.000007137048    -0.029986018632    -0.028494316430    -0.000025780878    -0.000008357746    -0.052755048412    -0.038086911785
0.300     -0.069215745154    0.011268159662    -0.000022907481    0.000002186041    -0.049342453870    0.006688251971    -0.000025558175    0.000002134555
            -0.000022907481    0.000002186041    -0.066869315167    -0.010347734250    -0.000025610049    0.000002124358    -0.044797838639    -0.010406776214
            -0.049342453870    0.006688251971    -0.000025610049    0.000002124358    -0.069222493031    0.010016381597    -0.000028827843    0.000002002643
            -0.000025558175    0.000002134555    -0.044797838639    -0.010406776214    -0.000028827843    0.000002002643    -0.067200455936    -0.011850547490
0.325     -0.066192084775    0.045689737531    -0.000021554835    0.000011196558    -0.051397498458    0.034299972413    -0.000024193180    0.000012170706
            -0.000021554835    0.000011196558    -0.070416321242    0.020793511320    -0.000024259211    0.000012182890    -0.052015531884    0.013397818320
            -0.051397498458    0.034299972413    -0.000024259211    0.000012182890    -0.066539768807    0.044276912390    -0.000027487762    0.000013301441
            -0.000024193180    0.000012170706    -0.052015531884    0.013397818320    -0.000027487762    0.000013301441    -0.071109908672    0.019323852913
0.350     -0.049841684819    0.077487250768    -0.000016593484    0.000019285052    -0.042294771252    0.061879107012    -0.000018811438    0.000021250278
            -0.000016593484    0.000019285052    -0.061918137564    0.052209157681    -0.000018881295    0.000021295363    -0.049638334801    0.039461105474
            -0.042294771252    0.061879107012    -0.000018881295    0.000021295363    -0.050590283343    0.076051851291    -0.000021627479    0.000023626116
            -0.000018811438    0.000021250278    -0.049638334801    0.039461105474    -0.000021627479    0.000023626116    -0.062946410951    0.050915524232
0.375     -0.022063882491    0.101336765375    -0.000008653856    0.000025034189    -0.022755149276    0.084773976684    -0.000010078443    0.000027793880
            -0.000008653856    0.000025034189    -0.041871281685    0.079053829036    -0.000010134356    0.000027875488    -0.037254825821    0.063747659048
            -0.022755149276    0.084773976684    -0.000010134356    0.000027875488    -0.023209367276    0.100039433061    -0.000011939788    0.000031194251
            -0.000010078443    0.000027793880    -0.037254825821    0.063747659048    -0.000011939788    0.000031194251    -0.043146803904    0.078066465452
0.400     0.013205697989    0.113158135029    0.000001126883    0.000027440129    0.004657573676    0.099057474452    0.000000772075    0.000030662880
            0.000001126883    0.000027440129    -0.012702357065    0.097030467806    0.000000749429    0.000030773714    -0.016120722818    0.082370335241
            0.004657573676    0.099057474452    0.000000749429    0.000030773714    0.011737630259    0.112152284510    0.000000233484    0.000034688453
            0.000000772075    0.000030662880    -0.016120722818    0.082370335241    0.000000233484    0.000034688453    -0.014085243602    0.096441810337
0.425     0.050746483805    0.110779257331    0.000011356068    0.000026038397    0.036060307152    0.102144381060    0.000012208326    0.000029305064
            0.000011356068    0.000026038397    0.021649785501    0.103105947390    0.000012232303    0.000029427047    0.011083164119    0.092223584035
            0.036060307152    0.102144381060    0.000012232303    0.000029427047    0.049094231366    0.110180605821    0.000013189750    0.000033431347
            0.000012208326    0.000029305064    0.011083164119    0.092223584035    0.000013189750    0.000033431347    0.020335429262    0.102950475758
0.450     0.084922807557    0.094209321889    0.000020614491    0.000020904081    0.066893286340    0.093121134564    0.000022650647    0.000023763780
            0.000020614491    0.000020904081    0.056366110725    0.095973462469    0.000022722291    0.000023874156    0.040687776607    0.091445069066
            0.066893286340    0.093121134564    0.000022722291    0.000023874156    0.083271837690    0.094070015453    0.000025141569    0.000027414064
            0.000022650647    0.000023763780    0.040687776607    0.091445069066    0.000025141569    0.000027414064    0.055307863101    0.096215203595
0.475     0.110497760948    0.065558449217    0.000027616574    0.000012569590    0.092545032054    0.072804165898    0.000030651756    0.000014596851
            0.000027616574    0.000012569590    0.086459883729    0.076209964244    0.000030757505    0.000014673491    0.068564125171    0.079643356959
            0.092545032054    0.072804165898    0.000030757505    0.000014673491    0.109058058799    0.065845730484    0.000034425853    0.000017219353
            0.000030651756    0.000014596851    0.068564125171    0.079643356959    0.000034425853    0.000017219353    0.085830084591    0.076739159999
0.500     0.123317776755    0.028742482929    0.000031320887    0.000001943328    0.108928917443    0.043646837179    0.000035021264    0.000002792881
            0.000031320887    0.000001943328    0.107456450769    0.046189561706    0.000035145905    0.000002816094    0.090662851730    0.057957042525
            0.108928917443    0.043646837179    0.000035145905    0.000002816094    0.122305524880    0.029310224636    0.000039662731    0.000003932493
            0.000035021264    0.000002792881    0.090662851730    0.057957042525    0.000039662731    0.000003932493    0.107384800784    0.046829873891
0.525     0.120853104271    -0.010966085683    0.000030993197    -0.000009737679    0.113064283378    0.009442490532    0.000034904818    -0.000010283270
            0.000030993197    -0.000009737679    0.115973344430    0.009792175731    0.000035063489    -0.000010352206    0.103514288450    0.028947599068
            0.113064283378    0.009442490532    0.000035063489    -0.000010352206    0.120592648064    -0.010520703561    0.000039880167    -0.000010948701
            0.000034904818    -0.000010283270    0.103514288450    0.028947599068    0.000039880167    -0.000010948701    0.116522726623    0.010317317396
0.550     0.102633860217    -0.047514159666    0.000026295694    -0.000020974775    0.103592268611    -0.023479835326    0.000029890490    -0.000022960843
            0.000026295694    -0.000020974775    0.110195686734    -0.028035595673    0.000030134129    -0.000022748530    0.104711336710    -0.003630925294
            0.103592268611    -0.023479835326    0.000030134129    -0.000022748530    0.103366766558    -0.045557050729    0.000034603306    -0.000025080830
            0.000029890490    -0.000022960843    0.104711336710    -0.003630925294    0.000034603306    -0.000025080830    0.111342759236    -0.027875783567
0.575     0.070533022289    -0.074797376561    0.000017437665    -0.000030106556    0.080089004903    -0.052024956294    0.000020177351    -0.000033375775
            0.000017437665    -0.000030106556    0.090209404993    -0.061857094607    0.000020329326    -0.000033285050    0.093320450351    -0.035218466998
            0.080089004903    -0.052024956294    0.000020329326    -0.000033285050    0.071429800352    -0.073813245432    0.000023776424    -0.000037224974
            0.000020177351    -0.000033375775    0.093320450351    -0.035218466998    0.000023776424    -0.000037224974    0.091832977526    -0.062301650708
0.600     0.028925874360    -0.087422284005    0.000005316100    -0.000035459480    0.046500612589    -0.069276923759    0.000006732762    -0.000039637801
            0.000005316100    -0.000035459480    0.058163138830    -0.086454296736    0.000006918092    -0.000039648857    0.070203232881    -0.061014889489
            0.046500612589    -0.069276923759    0.000006918092    -0.000039648857    0.030371924426    -0.087459223028    0.000008778665    -0.000044747592
            0.000006732762    -0.000039637801    0.070203232881    -0.061014889489    0.000008778665    -0.000044747592    0.060044749944    -0.087692429833
0.625     -0.015173359999    -0.082748619022    -0.000008322499    -0.000035888152    0.007859019337    -0.071973813394    -0.000008517128    -0.000040433316
            -0.000008322499    -0.000035888152    0.018161507218    -0.097624087072    -0.000008436007    -0.000040504019    0.038105565835    -0.076700557515
            0.007859019337    -0.071973813394    -0.000008436007    -0.000040504019    -0.014048983273    -0.083695928621    -0.000008547499    -0.000046106546
            -0.000008517128    -0.000040433316    0.038105565835    -0.076700557515    -0.000008547499    -0.000046106546    0.020004957454    -0.099757056137
0.650     -0.055475341686    -0.060677068924    -0.000021557775    -0.000030936105    -0.030077263623    -0.058778808225    -0.000023447438    -0.000035212338
            -0.000021557775    -0.000030936105    -0.024185677823    -0.092972971091    -0.000023376102    -0.000035272731    0.001425372964    -0.079247316381
            -0.030077263623    -0.058778808225    -0.000023376102    -0.000035272731    -0.054526386308    -0.062213486309    -0.000025568461    -0.000040596291
            -0.000023447438    -0.000035212338    0.001425372964    -0.079247316381    -0.000025568461    -0.000040596291    -0.022715492519    -0.095982545695
0.675     -0.084587042195    -0.023697910579    -0.000032042796    -0.000021027198    -0.060456432912    -0.030973211375    -0.000035435475    -0.000024387488
            -0.000032042796    -0.000021027198    -0.062583844513    -0.072501574607    -0.000035378375    -0.000024484571    -0.034416286769    -0.067592538509
            -0.060456432912    -0.030973211375    -0.000035378375    -0.000024484571    -0.084039501913    -0.025903499238    -0.000039439307    -0.000028743277
            -0.000035435475    -0.000024387488    -0.034416286769    -0.067592538509    -0.000039439307    -0.000028743277    -0.061807908504    -0.076235690826
0.700     -0.097303890729    0.022242602048    -0.000037920756    -0.000007729616    -0.077923324676    0.007030752256    -0.000042374276    -0.000009653366
            -0.000037920756    -0.000007729616    -0.091143097864    -0.038781758893    -0.000042370487    -0.000009785807    -0.063924515443    -0.042989201333
            -0.077923324676    0.007030752256    -0.000042370487    -0.000009785807    -0.097443346869    0.019523086930    -0.000047788362    -0.000012330378
            -0.000042374276    -0.000009653366    -0.063924515443    -0.042989201333    -0.000047788362    -0.000012330378    -0.091309030685    -0.042965191718
0.725     -0.091573641883    0.069701840636    -0.000038264900    0.000006755088    -0.079633485963    0.049096322475    -0.000043167998    0.000006570445
            -0.000038264900    0.000006755088    -0.105473193253    0.003417655646    -0.000043244433    0.000006438790    -0.082559271347    -0.008831333476
            -0.079633485963    0.049096322475    -0.000043244433    0.000006438790    -0.092583813119    0.066756211190    -0.000049292660    0.000006008875
            -0.000043167998    0.000006570445    -0.082559271347    -0.008831333476    -0.000049292660    0.000006008875    -0.106706879701    -0.000853121508
0.750     -0.068672137801    0.111312171969    -0.000033221938    0.000020145051    -0.065617512589    0.088723637635    -0.000037903994    0.000021741500
            -0.000033221938    0.000020145051    -0.103492076003    0.047999755886    -0.000038056241    0.000021661294    -0.087572828348    0.029993946393
            -0.065617512589    0.088723637635    -0.000038056241    0.000021661294    -0.070597329395    0.108482976364    -0.000043917574    0.000023438120
            -0.000037903994    0.000021741500    -0.087572828348    0.029993946393    -0.000043917574    0.000023438120    -0.105769188582    0.044032813675
0.775     -0.032619742223    0.141180776607    -0.000023822199    0.000030584275    -0.038406132381    0.120310779753    -0.000027661325    0.000033755442
            -0.000023822199    0.000030584275    -0.085707698882    0.088665112709    -0.000027851558    0.000033766008    -0.078387536152    0.068047552795
            -0.038406132381    0.120310779753    -0.000027851558    0.000033766008    -0.035363872810    0.138798827700    -0.000032745109    0.000037536436
