# GHz S RI R 45
0.000     0.022577843288    0.001894340549    -0.000000011101    0.000000498949    0.000819054557    0.001619743561    -0.000000218375    0.000000111573
            -0.000000011099    0.000000498949    0.023138909390    0.001214167780    0.000000141755    0.000000785967    0.000860373207    0.001228223966
            0.000819054398    0.001619743529    0.000000141737    0.000000785967    0.022530029458    0.001882080159    -0.000000011010    0.000000508577
            -0.000000218375    0.000000111573    0.000860373228    0.001228223951    -0.000000011010    0.000000508577    0.023154700189    0.001226194286
0.025     0.029496059044    0.009102319814    0.000000275760    0.000001103530    0.004064721254    0.010999765789    -0.000000233201    0.000000305006
            0.000000275761    0.000001103532    0.028317588944    0.008687840906    0.000000657354    0.000001694185    0.002895096571    0.010902161789
            0.004062751519    0.011002918626    0.000000657352    0.000001694174    0.029422619009    0.009062133294    0.000000287097    0.000001123551
            -0.000000233201    0.000000305006    0.002895052482    0.010900478720    0.000000287096    0.000001123550    0.028229217298    0.008645456291
0.050     0.039054104720    0.010253602750    0.000001032518    0.000001933591    0.012759904561    0.018464894029    -0.000000082623    0.000000690541
            0.000001032518    0.000001933591    0.034015107839    0.011660098529    0.000001870311    0.000002843741    0.008622270562    0.019829152034
            0.012759884595    0.018464933353    0.000001870311    0.000002843741    0.038953434994    0.010177807541    0.000001061972    0.000001953989
            -0.000000082623    0.000000690541    0.008622326394    0.019829115762    0.000001061972    0.000001953989    0.033846048628    0.011641216062
0.075     0.048785075664    0.005198038303    0.000002124660    0.000002422926    0.024225733575    0.020079167275    0.000000254660    0.000000996746
            0.000002124660    0.000002422926    0.039200562600    0.011439266175    0.000003506182    0.000003442448    0.016467599765    0.025367296449
            0.024225727129    0.020079171918    0.000003506182    0.000003442448    0.048664924036    0.005123415754    0.000002152493    0.000002426875
            0.000000254660    0.000000996746    0.016467607220    0.025367301148    0.000002152493    0.000002426875    0.038944771525    0.011490937368
0.100     0.055642569010    -0.005904941115    0.000003431724    0.000002483565    0.035165505904    0.015129204312    0.000000711708    0.000001165065
            0.000003431724    0.000002483565    0.042479197348    0.008517106160    0.000005393442    0.000003410804    0.024552907555    0.027126111724
            0.035165506822    0.015129204707    0.000005393442    0.000003410804    0.055528581422    -0.005959379584    0.000003426067    0.000002481469
            0.000000711708    0.000001165065    0.024552907082    0.027126112153    0.000003426067    0.000002481469    0.042160070239    0.008699967341
0.125     0.056539786708    -0.021373344100    0.000004818664    0.000002064928    0.042295090093    0.004494363910    0.000001235282    0.000001181941
            0.000004818664    0.000002064928    0.042508201466    0.004152751083    0.000007347285    0.000002703297    0.031117796911    0.025604970249
            0.042295090093    0.004494363910    0.000007347285    0.000002703297    0.056470843203    -0.021417889689    0.000004761281    0.000002099428
            0.000001235282    0.000001181941    0.031117795692    0.025604970157    0.000004761281    0.000002099428    0.042184759956    0.004506617099
0.150     0.049586039776    -0.038069129396    0.000006144044    0.000001148504    0.043057631947    -0.009533658202    0.000001791052    0.000001035203
            0.000006144044    0.000001148504    0.038878725134    0.000146460582    0.000009191718    0.000001316276    0.034778271527    0.022037282270
            0.043057631947    -0.009533658202    0.000009191718    0.000001316276    0.049606683001    -0.038117610725    0.000006056842    0.000001280274
            0.000001791052    0.000001035203    0.034778271527    0.022037282270    0.000006056842    0.000001280274    0.038626705374    0.000691190600
0.175     0.034261445255    -0.052125309250    0.000007267141    -0.000000255366    0.036146104073    -0.023620807427    0.000002349310    0.000000714901
            0.000007267141    -0.000000255366    0.031872627235    -0.001577243987    0.000010753411    -0.000000742710    0.034913431196    0.018209344068
            0.036146104073    -0.023620807427    0.000010753411    -0.000000742710    0.034402194328    -0.052229427650    0.000007222761    0.000000017325
            0.000002349310    0.000000714901    0.034913431196    0.018209344068    0.000007222761    0.000000017325    0.031776356532    -0.000873824481
0.200     0.011954986144    -0.059617848859    0.000008041230    -0.000002107918    0.021909386247    -0.034043690851    0.000002872945    0.000000197061
            0.000008041230    -0.000002107918    0.022719159205    0.000715210211    0.000011837812    -0.000003442809    0.031836923622    0.016037241702
            0.021909386247    -0.034043690851    0.000011837812    -0.000003442809    0.012216819995    -0.059851859119    0.000008146485    -0.000001705021
            0.000002872945    0.000000197061    0.031836923622    0.016037241702    0.000008146485    -0.000001705021    0.022839565900    0.001501151207
0.225     -0.014166675684    -0.057434717255    0.000008315112    -0.000004330293    0.002422152767    -0.037465488265    0.000003301249    -0.000000540046
            0.000008315112    -0.000004330293    0.013470029190    0.008070167595    0.000012218026    -0.000006703459    0.026780621190    0.017100618696
            0.002422152767    -0.037465488265    0.000012218026    -0.000006703459    -0.013823812351    -0.057876791195    0.000008669030    -0.000003883295
            0.000003301249    -0.000000540046    0.026780621190    0.017100618696    0.000008669030    -0.000003883295    0.013824147974    0.008836286362
0.250     -0.039615280510    -0.044084231788    0.000007944491    -0.000006788558    -0.018797642047    -0.031729679790    0.000003541742    -0.000001498411
            0.000007944491    -0.000006788558    0.006603902767    0.020488717370    0.000011651959    -0.000010350772    0.021657808320    0.022228325627
            -0.018797642047    -0.031729679790    0.000011651959    -0.000010350772    -0.039272726194    -0.044794387631    0.000008586002    -0.000006447412
            0.000003541742    -0.000001498411    0.021657808320    0.022228325627    0.000008586002    -0.000006447412    0.007154542470    0.021132515306
0.275     -0.059426021014    -0.020216889339    0.000006819922    -0.000009286758    -0.037443320233    -0.016461424328    0.000003486274    -0.000002631689
            0.000006819922    -0.000009286758    0.004477727438    0.036754875076    0.000009934408    -0.000014090188    0.018625393123    0.031217035561
            -0.037443320233    -0.016461424328    0.000009934408    -0.000014090188    -0.059196600742    -0.021215351088    0.000007690125    -0.000009218460
            0.000003486274    -0.000002631689    0.018625393123    0.031217035561    0.000007690125    -0.000009218460    0.005138092164    0.037201922884
0.300     -0.069215745154    0.011268159662    0.000004899434    -0.000011575116    -0.049342453870    0.006688251971    0.000003038073    -0.000003831930
            0.000004899434    -0.000011575116    0.008725216089    0.054602340533    0.000006972562    -0.000017514661    0.019546921965    0.042818541830
            -0.049342453870    0.006688251971    0.000006972562    -0.000017514661    -0.069222493031    0.010016381597    0.000005841339    -0.000011897053
            0.000003038073    -0.000003831930    0.019546921965    0.042818541830    0.000005841339    -0.000011897053    0.009378780642    0.054829606859
0.325     -0.066192084775    0.045689737531    0.000002238895    -0.000013383792    -0.051397498458    0.034299972413    0.000002155611    -0.000004938693
            0.000002238895    -0.000013383792    0.019800116562    0.071146539075    0.000002850332    -0.000020166831    0.025502417387    0.054995177473
            -0.051397498458    0.034299972413    0.000002850332    -0.000020166831    -0.066539768807    0.044276912390    0.000003042235    -0.000014106997
            0.000002155611    -0.000004938693    0.025502417387    0.054995177473    0.000003042235    -0.000014106997    0.020329276292    0.071192490462
0.350     -0.049841684819    0.077487250768    -0.000001000457    -0.000014468040    -0.042294771252    0.061879107012    0.000000878006    -0.000005772962
            -0.000001000457    -0.000014468040    0.036799492406    0.083532979826    -0.000002149965    -0.000021634952    0.036509871561    0.065405645127
            -0.042294771252    0.061879107012    -0.000002149965    -0.000021634952    -0.050590283343    0.076051851291    -0.000000524588    -0.000015479713
            0.000000878006    -0.000005772962    0.036509871561    0.065405645127    -0.000000524588    -0.000015479713    0.037116341614    0.083492006327
0.375     -0.022063882491    0.101336765375    -0.000004571903    -0.000014660556    -0.022755149276    0.084773976684    -0.000000669999    -0.000006189862
            -0.000004571903    -0.000014660556    0.057630448112    0.089554295558    -0.000007590053    -0.000021654607    0.051520828512    0.071931761905
            -0.022755149276    0.084773976684    -0.000007590053    -0.000021654607    -0.023209367276    0.100039433061    -0.000004518291    -0.000015757102
            -0.000000669999    -0.000006189862    0.051520828512    0.071931761905    -0.000004518291    -0.000015757102    0.057700707519    0.089555809174
0.400     0.013205697989    0.113158135029    -0.000008188956    -0.000013898893    0.004657573676    0.099057474452    -0.000002310681    -0.000006117396
            -0.000008188956    -0.000013898893    0.079449917671    0.088112715741    -0.000012967951    -0.000020164868    0.068672567159    0.073125935561
            0.004657573676    0.099057474452    -0.000012967951    -0.000020164868    0.011737630259    0.112152284510    -0.000008518729    -0.000014857703
            -0.000002310681    -0.000006117396    0.068672567159    0.073125935561    -0.000008518729    -0.000014857703    0.079303948095    0.088293425005
0.425     0.050746483805    0.110779257331    -0.000011580759    -0.000012227644    0.036060307152    0.102144381060    -0.000003862325    -0.000005575756
            -0.000011580759    -0.000012227644    0.099225384452    0.079390131455    -0.000017828524    -0.000017306710    0.085669163576    0.068451531473
            0.036060307152    0.102144381060    -0.000017828524    -0.000017306710    0.049094231366    0.110180605821    -0.000012132455    -0.000012891069
            -0.000003862325    -0.000005575756    0.085669163576    0.068451531473    -0.000012132455    -0.000012891069    0.098954625766    0.079862755027
0.450     0.084922807557    0.094209321889    -0.000014533561    -0.000009765423    0.066893286340    0.093121134564    -0.000005188834    -0.000004655147
            -0.000014533561    -0.000009765423    0.114275944607    0.064774579275    -0.000021847278    -0.000013358298    0.100194018788    0.058348601610
            0.066893286340    0.093121134564    -0.000021847278    -0.000013358298    0.083271837690    0.094070015453    -0.000015081820    -0.000010103959
            -0.000005188834    -0.000004655147    0.100194018788    0.058348601610    -0.000015081820    -0.000010103959    0.114016645748    0.065604352646
0.475     0.110497760948    0.065558449217    -0.000016913326    -0.000006667851    0.092545032054    0.072804165898    -0.000006233446    -0.000003485529
            -0.000016913326    -0.000006667851    0.122685914873    0.046591246734    -0.000024872308    -0.000008648489    0.110264107912    0.044142306546
            0.092545032054    0.072804165898    -0.000024872308    -0.000008648489    0.109058058799    0.065845730484    -0.000017258210    -0.000006801182
            -0.000006233446    -0.000003485529    0.110264107912    0.044142306546    -0.000017258210    -0.000006801182    0.122593745100    0.047781950616
0.500     0.123317776755    0.028742482929    -0.000018636569    -0.000003090066    0.108928917443    0.043646837179    -0.000006999134    -0.000002191644
            -0.000018636569    -0.000003090066    0.123585427931    0.027748426582    -0.000026885567    -0.000003468295    0.114535954075    0.027876957340
            0.108928917443    0.043646837179    -0.000026885567    -0.000003468295    0.122305524880    0.029310224636    -0.000018691390    -0.000003254909
            -0.000006999134    -0.000002191644    0.114535954075    0.027876957340    -0.000018691390    -0.000003254909    0.123809703567    0.029243285238
0.525     0.120853104271    -0.010966085683    -0.000019649066    0.000000858402    0.113064283378    0.009442490532    -0.000007533990    -0.000000830664
            -0.000019649066    0.000000858402    0.117291691779    0.011324986380    -0.000027968329    0.000002024618    0.112551864820    0.012055503658
            0.113064283378    0.009442490532    -0.000027968329    0.000002024618    0.120592648064    -0.010520703561    -0.000019512932    0.000000398762
            -0.000007533990    -0.000000830664    0.112551864820    0.012055503658    -0.000019512932    0.000000398762    0.117966715286    0.013017631385
0.550     0.102633860217    -0.047514159666    -0.000019894835    0.000005095854    0.103592268611    -0.023479835326    -0.000007897309    0.000000607694
            -0.000019894835    0.000005095854    0.105346996228    0.000132854008    -0.000028091394    0.000007528112    0.104932623222    -0.000723873754
            0.103592268611    -0.023479835326    -0.000028091394    0.000007528112    0.103366766558    -0.045557050729    -0.000019803364    0.000004072338
            -0.000007897309    0.000000607694    0.104932623222    -0.000723873754    -0.000019803364    0.000004072338    0.106594239710    0.001841198390
0.575     0.070533022289    -0.074797376561    -0.000019285281    0.000009541500    0.080089004903    -0.052024956294    -0.000008103486    0.000002185199
            -0.000019285281    0.000009541500    0.090404295225    -0.003764775803    -0.000027240828    0.000013566345    0.093373055471    -0.008229188909
            0.080089004903    -0.052024956294    -0.000027240828    0.000013566345    0.071429800352    -0.073813245432    -0.000019637938    0.000008065976
            -0.000008103486    0.000002185199    0.093373055471    -0.008229188909    -0.000019637938    0.000008065976    0.092233940823    -0.002327813760
0.600     0.028925874360    -0.087422284005    -0.000017669045    0.000014039122    0.046500612589    -0.069276923759    -0.000008067685    0.000003959666
            -0.000017669045    0.000014039122    0.075924867079    0.000465488558    -0.000025285846    0.000019763522    0.080529459607    -0.009019988538
            0.046500612589    -0.069276923759    -0.000025285846    0.000019763522    0.030371924426    -0.087459223028    -0.000018873468    0.000012366580
            -0.000008067685    0.000003959666    0.080529459607    -0.009019988538    -0.000018873468    0.000012366580    0.078167949677    0.001385924919
0.625     -0.015173359999    -0.082748619022    -0.000015029455    0.000018359548    0.007859019337    -0.071973813394    -0.000007718255    0.000005941005
            -0.000015029455    0.000018359548    0.065604885467    0.012052191786    -0.000021875500    0.000026025775    0.069662313805    -0.002986040330
            0.007859019337    -0.071973813394    -0.000021875500    0.000026025775    -0.014048983273    -0.083695928621    -0.000017181836    0.000017021728
            -0.000007718255    0.000005941005    0.069662313805    -0.002986040330    -0.000017181836    0.000017021728    0.068011021901    0.012335356060
0.650     -0.055475341686    -0.060677068924    -0.000011186031    0.000022321852    -0.030077263623    -0.058778808225    -0.000006793266    0.000008149744
            -0.000011186031    0.000022321852    0.062587274708    0.028540228998    -0.000016692077    0.000031955455    0.063889012136    0.008377810801
            -0.030077263623    -0.058778808225    -0.000016692077    0.000031955455    -0.054526386308    -0.062213486309    -0.000014159406    0.000021808997
            -0.000006793266    0.000008149744    0.063889012136    0.008377810801    -0.000014159406    0.000021808997    0.064884760266    0.028183516248
0.675     -0.084587042195    -0.023697910579    -0.000006150297    0.000025436985    -0.060456432912    -0.030973211375    -0.000005095121    0.000010304068
            -0.000006150297    0.000025436985    0.068627577492    0.046159851687    -0.000009597473    0.000036894493    0.065331534701    0.022176341588
            -0.060456432912    -0.030973211375    -0.000009597473    0.000036894493    -0.084039501913    -0.025903499238    -0.000009504200    0.000026207506
            -0.000005095121    0.000010304068    0.065331534701    0.022176341588    -0.000009504200    0.000026207506    0.070566791318    0.045276097059
0.700     -0.097303890729    0.022242602048    -0.000000154723    0.000027281907    -0.077923324676    0.007030752256    -0.000002586974    0.000012060017
            -0.000000154723    0.000027281907    0.083551453224    0.060650254918    -0.000000795251    0.000040054300    0.074509071418    0.034792416858
            -0.077923324676    0.007030752256    -0.000000795251    0.000040054300    -0.097443346869    0.019523086930    -0.000003210718    0.000029485442
            -0.000002586974    0.000012060017    0.074509071418    0.034792416858    -0.000003210718    0.000029485442    0.084952425883    0.059451192477
0.725     -0.091573641883    0.069701840636    0.000006396225    0.000027522708    -0.079633485963    0.049096322475    0.000000584939    0.000013054637
            0.000006396225    0.000027522708    0.105233782952    0.068284134011    0.000009109115    0.000040740083    0.090187672487    0.042792454845
            -0.079633485963    0.049096322475    0.000009109115    0.000040740083    -0.092583813119    0.066756211190    0.000004321458    0.000030914751
            0.000000584939    0.000013054637    0.090187672487    0.042792454845    0.000004321458    0.000030914751    0.106026270298    0.067039005312
0.750     -0.068672137801    0.111312171969    0.000012967436    0.000026001772    -0.065617512589    0.088723637635    0.000004090049    0.000013019345
            0.000012967436    0.000026001772    0.130150883435    0.066720488455    0.000019202092    0.000038570209    0.109772284858    0.043738730105
            -0.065617512589    0.088723637635    0.000019202092    0.000038570209    -0.070597329395    0.108482976364    0.000012338033    0.000030009572
            0.000004090049    0.000013019345    0.109772284858    0.043738730105    0.000012338033    0.000030009572    0.130386500574    0.065702248453
0.775     -0.032619742223    0.141180776607    0.000019001139    0.000022794684    -0.038406132381    0.120310779753    0.000007498423    0.000011881003
            0.000019001139    0.000022794684    0.154228721951    0.055404371868    0.000028476490    0.000033604517    0.129985987754    0.036606613748
            -0.038406132381    0.120310779753    0.000028476490    0.000033604517    -0.035363872810    0.138798827700    0.000019923555    0.000026693464
            0.000007498423    0.000011881003    0.129985987754    0.036606613748    0.000019923555    0.000026693464    0.154068340370    0.054837484275
