# GHz S RI R 45
0.000     0.022577843288    0.001894340549    0.000000394139    0.000000513187    0.000819054557    0.001619743561    0.000000563907    0.000000784501
            0.000000394143    0.000000513187    0.021968201949    0.001403397199    0.000000585911    0.000000809757    0.000721852982    0.001210353830
            0.000819054398    0.001619743529    0.000000586175    0.000000809757    0.022530029458    0.001882080159    0.000000813416    0.000001180344
            0.000000563905    0.000000784501    0.000721852982    0.001210353830    0.000000813439    0.000001180344    0.021786947259    0.001398752201
0.025     0.029496059044    0.009102319814    0.000001000172    0.000000879015    0.004064721254    0.010999765789    0.000001469723    0.000001356684
            0.000001000170    0.000000879011    0.028148447480    0.007864855625    0.000001523929    0.000001417336    0.003481684607    0.009783074535
            0.004062751519    0.011002918626    0.000001523928    0.000001417338    0.029422619009    0.009062133294    0.000002154911    0.000002059649
            0.000001469728    0.000001356686    0.003481490095    0.009783381518    0.000002154911    0.000002059649    0.028085807442    0.007835138086
0.050     0.039054104720    0.010253602750    0.000002116138    0.000000881026    0.012759904561    0.018464894029    0.000003162466    0.000001413260
            0.000002116138    0.000000881026    0.036552639326    0.008699605246    0.000003272014    0.000001495406    0.011003183258    0.016653471263
            0.012759884595    0.018464933353    0.000003272014    0.000001495406    0.038953434994    0.010177807541    0.000004685007    0.000002209583
            0.000003162466    0.000001413260    0.011003173345    0.016653479011    0.000004685007    0.000002209583    0.036491886814    0.008667743254
0.075     0.048785075664    0.005198038303    0.000003158621    0.000000090019    0.024225733575    0.020079167275    0.000004784469    0.000000278881
            0.000003158621    0.000000090019    0.045176553073    0.004223183496    0.000004953058    0.000000345468    0.021096484881    0.018605282042
            0.024225727129    0.020079171918    0.000004953058    0.000000345468    0.048664924036    0.005123415754    0.000007156649    0.000000594622
            0.000004784469    0.000000278881    0.021096478511    0.018605286242    0.000007156649    0.000000594622    0.045137227433    0.004192541609
0.100     0.055642569010    -0.005904941115    0.000003743286    -0.000001373451    0.035165505904    0.015129204312    0.000005761484    -0.000001890319
            0.000003743286    -0.000001373451    0.051517845075    -0.005507983870    0.000005974295    -0.000001875420    0.031057259997    0.014935917391
            0.035165506822    0.015129204707    0.000005974295    -0.000001875420    0.055528581422    -0.005959379584    0.000008722718    -0.000002583561
            0.000005761484    -0.000001890319    0.031057259997    0.014935917391    0.000008722718    -0.000002583561    0.051526820359    -0.005540325506
0.125     0.056539786708    -0.021373344100    0.000003527888    -0.000003226891    0.042295090093    0.004494363910    0.000005569004    -0.000004697276
            0.000003527888    -0.000003226891    0.052954532680    -0.019253705797    0.000005792812    -0.000004760467    0.038142436799    0.006225334195
            0.042295090093    0.004494363910    0.000005792812    -0.000004760467    0.056470843203    -0.021417889689    0.000008593716    -0.000006770966
            0.000005569004    -0.000004697276    0.038142437655    0.006225335155    0.000008593716    -0.000006770966    0.053039388047    -0.019296605916
0.150     0.049586039776    -0.038069129396    0.000002346297    -0.000005030914    0.043057631947    -0.009533658202    0.000003931773    -0.000007503135
            0.000002346297    -0.000005030914    0.047773875435    -0.034409874970    0.000004121758    -0.000007652492    0.040120217557    -0.005811829914
            0.043057631947    -0.009533658202    0.000004121758    -0.000007652492    0.049606683001    -0.038117610725    0.000006329646    -0.000011040316
            0.000003931773    -0.000007503135    0.040120220749    -0.005811828804    0.000006329646    -0.000011040316    0.047963458604    -0.034502222552
0.175     0.034261445255    -0.052125309250    0.000000245045    -0.000006295817    0.036146104073    -0.023620807427    0.000000882471    -0.000009582283
            0.000000245045    -0.000006295817    0.035347196910    -0.047858683302    0.000000991470    -0.000009803398    0.035692356226    -0.018544690212
            0.036146104073    -0.023620807427    0.000000991470    -0.000009803398    0.034402194328    -0.052229427650    0.000001939289    -0.000014329433
            0.000000882471    -0.000009582283    0.035692370686    -0.018544681902    0.000001939289    -0.000014329433    0.035653897208    -0.048055645334
0.200     0.011954986144    -0.059617848859    -0.000002488560    -0.000006574534    0.021909386247    -0.034043690851    -0.000003192417    -0.000010255167
            -0.000002488560    -0.000006574534    0.016536487549    -0.056294650607    -0.000003203065    -0.000010512007    0.024843455564    -0.028930182840
            0.021909386247    -0.034043690851    -0.000003203065    -0.000010512007    0.012216819995    -0.059851859119    -0.000004056875    -0.000015625956
            -0.000003192417    -0.000010255167    0.024843455564    -0.028930182840    -0.000004056875    -0.000015625956    0.016946166063    -0.056660794154
0.225     -0.014166675684    -0.057434717255    -0.000005358042    -0.000005575779    0.002422152767    -0.037465488265    -0.000007592692    -0.000009052894
            -0.000005358042    -0.000005575779    -0.006321376579    -0.056916878404    -0.000007744478    -0.000009293361    0.008936126503    -0.034097244231
            0.002422152767    -0.037465488265    -0.000007744478    -0.000009293361    -0.013823812351    -0.057876791195    -0.000010677506    -0.000014201941
            -0.000007592692    -0.000009052894    0.008936126503    -0.034097244231    -0.000010677506    -0.000014201941    -0.005855640101    -0.057513561773
0.250     -0.039615280510    -0.044084231788    -0.000007739823    -0.000003269260    -0.018797642047    -0.031729679790    -0.000011414960    -0.000005871074
            -0.000007739823    -0.000003269260    -0.029703939280    -0.048096297197    -0.000011706892    -0.000006035038    -0.009444399840    -0.031958917378
            -0.018797642047    -0.031729679790    -0.000011706892    -0.000006035038    -0.039272726194    -0.044794387631    -0.000016629791    -0.000009835324
            -0.000011414960    -0.000005871074    -0.009444399840    -0.031958917378    -0.000016629791    -0.000009835324    -0.029260170061    -0.048965012328
0.275     -0.059426021014    -0.020216889339    -0.000009025402    0.000000062961    -0.037443320233    -0.016461424328    -0.000013748963    -0.000001051060
            -0.000009025402    0.000000062961    -0.049508916200    -0.029842781627    -0.000014155404    -0.000001078936    -0.026919638812    -0.021714158034
            -0.037443320233    -0.016461424328    -0.000014155404    -0.000001078936    -0.059196600742    -0.021215351088    -0.000020577245    -0.000002930389
            -0.000013748963    -0.000001051060    -0.026919638812    -0.021714158034    -0.000020577245    -0.000002930389    -0.049186559070    -0.030989813459
0.300     -0.069215745154    0.011268159662    -0.000008787300    0.000003852540    -0.049342453870    0.006688251971    -0.000013909079    0.000004642411
            -0.000008787300    0.000003852540    -0.061837406405    -0.003991161756    -0.000014379650    0.000004800435    -0.039965429408    -0.004127543868
            -0.049342453870    0.006688251971    -0.000014379650    0.000004800435    -0.069222493031    0.010016381597    -0.000021456920    0.000005495611
            -0.000013909079    0.000004642411    -0.039965429408    -0.004127543868    -0.000021456920    0.000005495611    -0.061740415613    -0.005377254018
0.325     -0.066192084775    0.045689737531    -0.000006910631    0.000007369886    -0.051397498458    0.034299972413    -0.000011627509    0.000010179233
            -0.000006910631    0.000007369886    -0.063803134540    0.026026263065    -0.000012089674    0.000010552762    -0.045631701101    0.018532832721
            -0.051397498458    0.034299972413    -0.000012089674    0.000010552762    -0.066539768807    0.044276912390    -0.000018754475    0.000014007614
            -0.000011627509    0.000010179233    -0.045631701101    0.018532832721    -0.000018754475    0.000014007614    -0.064017219132    0.024486787989
0.350     -0.049841684819    0.077487250768    -0.000003639077    0.000009904692    -0.042294771252    0.061879107012    -0.000007139298    0.000014502944
            -0.000003639077    0.000009904692    -0.054176418850    0.055751976135    -0.000007506396    0.000015090593    -0.042169347488    0.042890601570
            -0.042294771252    0.061879107012    -0.000007506396    0.000015090593    -0.050590283343    0.076051851291    -0.000012648322    0.000021060907
            -0.000007139298    0.000014502944    -0.042169347488    0.042890601570    -0.000012648322    0.000021060907    -0.054748543526    0.054181792771
0.375     -0.022063882491    0.101336765375    0.000000491610    0.000010938722    -0.022755149276    0.084773976684    -0.000001118853    0.000016773116
            0.000000491610    0.000010938722    -0.033673174501    0.080519116745    -0.000001304172    0.000017534538    -0.029383338656    0.065094298430
            -0.022755149276    0.084773976684    -0.000001304172    0.000017534538    -0.023209367276    0.100039433061    -0.000003964656    0.000025333442
            -0.000001118853    0.000016773116    -0.029383338656    0.065094298430    -0.000003964656    0.000025333442    -0.034596282799    0.079058232874
0.400     0.013205697989    0.113158135029    0.000004790986    0.000010246845    0.004657573676    0.099057474452    0.000005484671    0.000016526232
            0.000004790986    0.000010246845    -0.004861601787    0.096293430368    0.000005548388    0.000017382112    -0.008665532015    0.081522743444
            0.004657573676    0.099057474452    0.000005548388    0.000017382112    0.011737630259    0.112152284510    0.000006007727    0.000025973107
            0.000005484671    0.000016526232    -0.008665532015    0.081522743444    0.000006007727    0.000025973107    -0.006069280792    0.095075500338
0.425     0.050746483805    0.110779257331    0.000008566177    0.000007905203    0.036060307152    0.102144381060    0.000011648308    0.000013719190
            0.000008566177    0.000007905203    0.028285880596    0.100350835086    0.000011990194    0.000014562215    0.017274968665    0.089380376159
            0.036060307152    0.102144381060    0.000011990194    0.000014562215    0.049094231366    0.110180605821    0.000015773520    0.000022707236
            0.000011648308    0.000013719190    0.017274968665    0.089380376159    0.000015773520    0.000022707236    0.026914163662    0.099477946736
0.450     0.084922807557    0.094209321889    0.000011232653    0.000004235544    0.066893286340    0.093121134564    0.000016436908    0.000008686127
            0.000011232653    0.000004235544    0.061034555289    0.091692332966    0.000017036236    0.000009401396    0.044858485367    0.087110333317
            0.066893286340    0.093121134564    0.000017036236    0.000009401396    0.083271837690    0.094070015453    0.000023863991    0.000015837347
            0.000016436908    0.000008686127    0.044858485367    0.087110333317    0.000023863991    0.000015837347    0.059658596131    0.091214147906
0.475     0.110497760948    0.065558449217    0.000012369352    -0.000000274947    0.092545032054    0.072804165898    0.000019103409    0.000002050782
            0.000012369352    -0.000000274947    0.088588122375    0.071158185833    0.000019889970    0.000002539954    0.070149520589    0.074581887108
            0.092545032054    0.072804165898    0.000019889970    0.000002539954    0.109058058799    0.065845730484    0.000029013572    0.000006156475
            0.000019103409    0.000002050782    0.070149520589    0.074581887108    0.000029013572    0.000006156475    0.087384432994    0.071058314415
0.500     0.123317776755    0.028742482929    0.000011740034    -0.000005035695    0.108928917443    0.043646837179    0.000019147112    -0.000005349943
            0.000011740034    -0.000005035695    0.106742153627    0.041310238455    0.000020015721    -0.000005149789    0.089371096491    0.053116964300
            0.108928917443    0.043646837179    0.000020015721    -0.000005149789    0.122305524880    0.029310224636    0.000030292135    -0.000005145407
            0.000019147112    -0.000005349943    0.089371096491    0.053116964300    0.000030292135    -0.000005145407    0.105879468569    0.041500817442
0.525     0.120853104271    -0.010966085683    0.000009301400    -0.000009390416    0.113064283378    0.009442490532    0.000016352731    -0.000012523832
            0.000009301400    -0.000009390416    0.112436052662    0.006124815854    0.000017187160    -0.000012643625    0.099375705982    0.025369900982
            0.113064283378    0.009442490532    0.000017187160    -0.000012643625    0.120592648064    -0.010520703561    0.000027209960    -0.000016595983
            0.000016352731    -0.000012523832    0.099375705982    0.025369900982    0.000027209960    -0.000016595983    0.112047814124    0.006450752063
0.550     0.102633860217    -0.047514159666    0.000005229069    -0.000012654782    0.103592268611    -0.023479835326    0.000010846875    -0.000018387657
            0.000005229069    -0.000012654782    0.104202768866    -0.029454124755    0.000011630329    -0.000018674024    0.098103035911    -0.004911432450
            0.103592268611    -0.023479835326    0.000011630329    -0.000018674024    0.103366766558    -0.045557050729    0.000019916354    -0.000026280152
            0.000010846875    -0.000018387657    0.098103035911    -0.004911432450    0.000019916354    -0.000026280152    0.104360374817    -0.029200290488
0.575     0.070533022289    -0.074797376561    -0.000000033970    -0.000014185206    0.080089004903    -0.052024956294    0.000003178885    -0.000021878577
            -0.000000033970    -0.000014185206    0.082481931528    -0.060096732171    0.000003686835    -0.000022374368    0.084971688561    -0.033276577431
            0.080089004903    -0.052024956294    0.000003686835    -0.000022374368    0.071429800352    -0.073813245432    0.000008797913    -0.000032922768
            0.000003178885    -0.000021878577    0.084971688561    -0.033276577431    0.000008797913    -0.000032922768    0.083172544179    -0.060149143821
0.600     0.028925874360    -0.087422284005    -0.000005734729    -0.000013475034    0.046500612589    -0.069276923759    -0.000005615910    -0.000022098036
            -0.000005734729    -0.000013475034    0.049758714456    -0.080808724577    -0.000005392808    -0.000022752178    0.061178112381    -0.055151062258
            0.046500612589    -0.069276923759    -0.000005392808    -0.000022752178    0.030371924426    -0.087459223028    -0.000004451939    -0.000034893498
            -0.000005615910    -0.000022098036    0.061178112381    -0.055151062258    -0.000004451939    -0.000034893498    0.050871439161    -0.081393225482
0.625     -0.015173359999    -0.082748619022    -0.000010847377    -0.000010466950    0.007859019337    -0.071973813394    -0.000014035186    -0.000018770098
            -0.000010847377    -0.000010466950    0.010421471868    -0.087742565271    -0.000014215413    -0.000019408765    0.029749038146    -0.066572178041
            0.007859019337    -0.071973813394    -0.000014215413    -0.000019408765    -0.014048983273    -0.083695928621    -0.000017892459    -0.000031441407
            -0.000014035186    -0.000018770098    0.029749038146    -0.066572178041    -0.000017892459    -0.000031441407    0.011749127836    -0.089037318654
0.650     -0.055475341686    -0.060677068924    -0.000014470278    -0.000005458485    -0.030077263623    -0.058778808225    -0.000020709110    -0.000012146960
            -0.000014470278    -0.000005458485    -0.029752463053    -0.078993810165    -0.000021187093    -0.000012624334    -0.004752639625    -0.065000362931
            -0.030077263623    -0.058778808225    -0.000021187093    -0.000012624334    -0.054526386308    -0.062213486309    -0.000029221859    -0.000022741021
            -0.000020709110    -0.000012146960    -0.004752639625    -0.065000362931    -0.000029221859    -0.000022741021    -0.028489421952    -0.081088373950
0.675     -0.084587042195    -0.023697910579    -0.000015720723    0.000000756069    -0.060456432912    -0.030973211375    -0.000024197882    -0.000003185510
            -0.000015720723    0.000000756069    -0.064495106607    -0.055149546834    -0.000024925810    -0.000003425833    -0.036933882362    -0.049958779032
            -0.060456432912    -0.030973211375    -0.000024925810    -0.000003425833    -0.084039501913    -0.025903499238    -0.000036337188    -0.000010023560
            -0.000024197882    -0.000003185510    -0.036933882362    -0.049958779032    -0.000036337188    -0.000010023560    -0.063606853731    -0.058015804785
0.700     -0.097303890729    0.022242602048    -0.000014268030    0.000006986341    -0.077923324676    0.007030752256    -0.000023759547    0.000006499462
            -0.000014268030    0.000006986341    -0.088201700791    -0.019371519757    -0.000024660133    0.000006590717    -0.061585605113    -0.023288594536
            -0.077923324676    0.007030752256    -0.000024660133    0.000006590717    -0.097443346869    0.019523086930    -0.000037886121    0.000004615066
            -0.000023759547    0.000006499462    -0.061585605113    -0.023288594536    -0.000037886121    0.000004615066    -0.087973796544    -0.022855080776
0.725     -0.091573641883    0.069701840636    -0.000010403090    0.000012043900    -0.079633485963    0.049096322475    -0.000019501382    0.000015165271
            -0.000010403090    0.000012043900    -0.097030576348    0.023113187922    -0.000020446035    0.000015660273    -0.074715435337    0.011158137839
            -0.079633485963    0.049096322475    -0.000020446035    0.000015660273    -0.092583813119    0.066756211190    -0.000033603960    0.000018711791
            -0.000019501382    0.000015165271    -0.074715435337    0.011158137839    -0.000033603960    0.000018711791    -0.097670777924    0.019275143304
0.750     -0.068672137801    0.111312171969    -0.000004923185    0.000015061995    -0.065617512589    0.088723637635    -0.000012289317    0.000021380688
            -0.000004923185    0.000015061995    -0.089631194270    0.066014084178    -0.000013110507    0.000022293636    -0.074304933856    0.048299207709
            -0.065617512589    0.088723637635    -0.000013110507    0.000022293636    -0.070597329395    0.108482976364    -0.000024311166    0.000030021586
            -0.000012289317    0.000021380688    -0.074304933856    0.048299207709    -0.000024311166    0.000030021586    -0.091228695799    0.062150346820
0.775     -0.032619742223    0.141180776607    0.000001140255    0.000015675159    -0.038406132381    0.120310779753    -0.000003435853    0.000024315349
            0.000001140255    0.000015675159    -0.067276495142    0.103169263221    -0.000003961229    0.000025579538    -0.060541295155    0.082828184677
            -0.038406132381    0.120310779753    -0.000003961229    0.000025579538    -0.035363872810    0.138798827700    -0.000011598077    0.000036957083
