!$
! Info: Touchstone file created by Circ.  Input file=Intel_C2M_200G_1p5in_202208016_staggered.circ
!$
# Hz S RI R 50
0	0.01105024	1.506498e-24	2.928192e-05	2.382019e-23	7.344124e-05	2.176248e-22	2.927407e-05	2.375027e-23
	2.928192e-05	2.382019e-23	0.0110635	1.745268e-24	2.92868e-05	2.384735e-23	7.302937e-05	2.166827e-22
	7.349976e-05	2.177537e-22	2.928679e-05	2.384811e-23	0.01104501	1.544324e-24	2.927683e-05	2.377242e-23
	2.927407e-05	2.375103e-23	7.30879e-05	2.168118e-22	2.927683e-05	2.377242e-23	0.01106142	1.660539e-24
1e+07	0.01316869	0.002911611	1.702045e-06	1.119052e-05	0.0007447039	0.003814885	4.062904e-06	9.671933e-06
	1.702045e-06	1.119052e-05	0.01327182	0.0029561	1.230092e-06	1.27915e-05	0.0007499453	0.003874946
	0.0007447039	0.003814885	1.230092e-06	1.27915e-05	0.01324692	0.003000741	1.687304e-06	1.124448e-05
	4.062904e-06	9.671933e-06	0.0007499453	0.003874946	1.687304e-06	1.124448e-05	0.0131967	0.002947323
2e+07	0.01503065	0.004083988	2.750865e-06	8.660308e-06	0.001420187	0.007298691	2.000584e-06	7.231139e-06
	2.75087e-06	8.660326e-06	0.01516192	0.004125573	1.091169e-05	1.752563e-05	0.001431067	0.007417765
	0.0014202	0.007298679	1.091169e-05	1.752563e-05	0.01514051	0.004215997	2.757839e-06	8.777904e-06
	2.000585e-06	7.231139e-06	0.001431079	0.007417753	2.757838e-06	8.777904e-06	0.01507019	0.004149747
3e+07	0.01654435	0.004520482	5.273728e-06	7.915929e-06	0.002353076	0.0107717	1.837378e-06	6.878758e-06
	5.273729e-06	7.915929e-06	0.01669684	0.004553563	1.905886e-05	1.885466e-05	0.002372505	0.01094835
	0.002353041	0.01077173	1.905886e-05	1.885466e-05	0.01667211	0.004695758	5.296252e-06	8.086607e-06
	1.837378e-06	6.878758e-06	0.002372471	0.01094838	5.296253e-06	8.086607e-06	0.01658734	0.004617691
4e+07	0.01766318	0.0045357	7.36051e-06	7.081197e-06	0.003627103	0.01410017	3.528287e-06	6.214695e-06
	7.36051e-06	7.081197e-06	0.01783203	0.004556652	2.581836e-05	1.804662e-05	0.003657705	0.01433274
	0.003627092	0.01410019	2.581836e-05	1.804662e-05	0.01781213	0.004750071	7.400811e-06	7.309732e-06
	3.528287e-06	6.214695e-06	0.003657694	0.01433276	7.400811e-06	7.309731e-06	0.01771506	0.004661831
5e+07	0.01847691	0.004361807	9.114016e-06	6.046192e-06	0.005199547	0.01728839	4.987861e-06	5.380692e-06
	9.114016e-06	6.046192e-06	0.01865863	0.004368509	3.154614e-05	1.589948e-05	0.005243813	0.01757498
	0.005199547	0.0172884	3.154614e-05	1.589948e-05	0.01864665	0.004612093	9.179552e-06	6.335772e-06
	4.987861e-06	5.380692e-06	0.005243813	0.01757499	9.179552e-06	6.335771e-06	0.0185385	0.004515437
6e+07	0.01903452	0.004075508	1.057745e-05	4.806065e-06	0.00706191	0.0203164	6.200153e-06	4.375983e-06
	1.057745e-05	4.806065e-06	0.01922642	0.004066588	3.640059e-05	1.275216e-05	0.007122135	0.02065476
	0.007061932	0.0203164	3.640059e-05	1.275216e-05	0.01922495	0.004359555	1.068032e-05	5.159824e-06
	6.200153e-06	4.375983e-06	0.007122157	0.02065475	1.068032e-05	5.159823e-06	0.01910668	0.004256358
7e+07	0.01935191	0.003738695	1.17676e-05	3.367595e-06	0.00919931	0.02316215	7.173204e-06	3.209075e-06
	1.17676e-05	3.367595e-06	0.01955188	0.003713148	4.044439e-05	8.757795e-06	0.009277529	0.02354967
	0.009199313	0.02316214	4.044439e-05	8.757795e-06	0.01956358	0.004054288	1.192325e-05	3.786759e-06
	7.173204e-06	3.209075e-06	0.009277532	0.02354967	1.192325e-05	3.786758e-06	0.01943612	0.003946669
8e+07	0.01944849	0.003411607	1.268515e-05	1.730716e-06	0.01159531	0.02580516	7.901214e-06	1.884845e-06
	1.268515e-05	1.730716e-06	0.01965493	0.003368492	4.36859e-05	3.966135e-06	0.01169326	0.02623892
	0.01159531	0.02580516	4.36859e-05	3.966135e-06	0.01968232	0.00375645	1.291093e-05	2.210508e-06
	7.901214e-06	1.884845e-06	0.01169326	0.02623893	1.291094e-05	2.210508e-06	0.01954681	0.003646962
9e+07	0.01935404	0.003148385	1.330657e-05	-1.399582e-07	0.01423279	0.02822637	8.357355e-06	3.862704e-07
	1.330657e-05	-1.399584e-07	0.01956575	0.003086276	4.606224e-05	-1.722873e-06	0.01435182	0.02870316
	0.01423278	0.02822638	4.606224e-05	-1.722873e-06	0.01961067	0.003519114	1.362425e-05	3.908244e-07
	8.357355e-06	3.862703e-07	0.01435182	0.02870317	1.362425e-05	3.908243e-07	0.01946864	0.003411076
1e+08	0.01911828	0.003019293	1.347381e-05	-2.535675e-06	0.01709506	0.03040816	8.392784e-06	-1.478036e-06
	1.347381e-05	-2.535675e-06	0.01933405	0.002933173	4.710169e-05	-9.316046e-06	0.01723614	0.03092448
	0.01709506	0.03040816	4.710169e-05	-9.316046e-06	0.01939748	0.003408492	1.391872e-05	-1.981446e-06
	8.392784e-06	-1.478036e-06	0.01723614	0.03092447	1.391872e-05	-1.981446e-06	0.01925169	0.003309021
1.1e+08	0.01885842	0.002889103	1.226934e-05	-4.262024e-06	0.02017883	0.03233478	7.434321e-06	-2.722802e-06
	1.226934e-05	-4.262024e-06	0.01906284	0.002782689	4.348921e-05	-1.501008e-05	0.02034219	0.03288727
	0.02017884	0.03233478	4.348921e-05	-1.501008e-05	0.01920839	0.003314327	1.280274e-05	-3.743241e-06
	7.434321e-06	-2.722802e-06	0.02034219	0.03288727	1.280274e-05	-3.743241e-06	0.0190727	0.003221255
1.2e+08	0.01840743	0.002847156	1.128097e-05	-5.370304e-06	0.02341902	0.03397528	6.651887e-06	-3.502592e-06
	1.128097e-05	-5.370304e-06	0.01860146	0.002728678	4.093016e-05	-1.766432e-05	0.02360467	0.03456045
	0.02341902	0.03397528	4.093016e-05	-1.766432e-05	0.01878609	0.003273654	1.188826e-05	-4.875822e-06
	6.651887e-06	-3.502592e-06	0.02360467	0.03456045	1.188826e-05	-4.875822e-06	0.01865974	0.003182081
1.3e+08	0.01782795	0.002951547	1.058376e-05	-5.765787e-06	0.02680414	0.03532566	5.964297e-06	-4.120816e-06
	1.058376e-05	-5.765787e-06	0.01801258	0.002825245	4.00463e-05	-1.626454e-05	0.02701168	0.03593989
	0.02680414	0.03532565	4.00463e-05	-1.626454e-05	0.01820995	0.003383272	1.129785e-05	-5.14215e-06
	5.964297e-06	-4.120816e-06	0.02701168	0.03593989	1.129785e-05	-5.14215e-06	0.01809336	0.003292324
1.4e+08	0.0171587	0.00322286	1.004304e-05	-5.59069e-06	0.03031426	0.03637917	5.335835e-06	-4.629739e-06
	1.004304e-05	-5.59069e-06	0.01733522	0.003092089	3.915066e-05	-1.527548e-05	0.03054286	0.03701884
	0.03031426	0.03637917	3.915066e-05	-1.527548e-05	0.01753741	0.003671544	1.083521e-05	-4.905337e-06
	5.335835e-06	-4.629739e-06	0.03054286	0.03701884	1.083521e-05	-4.905337e-06	0.01743161	0.00358116
1.5e+08	0.01643256	0.003675317	9.741592e-06	-5.337168e-06	0.0339265	0.03712868	4.815206e-06	-4.712753e-06
	9.741592e-06	-5.337168e-06	0.01660261	0.003542964	3.823123e-05	-1.453851e-05	0.03417489	0.03779018
	0.0339265	0.03712868	3.823123e-05	-1.453851e-05	0.01681017	0.004149331	1.039076e-05	-4.715703e-06
	4.815206e-06	-4.712753e-06	0.03417489	0.03779018	1.039076e-05	-4.715703e-06	0.01671666	0.004059772
1.6e+08	0.0156804	0.004319271	9.435223e-06	-5.138085e-06	0.03761657	0.03756811	4.401433e-06	-4.676676e-06
	9.435223e-06	-5.138085e-06	0.01584598	0.004187838	3.729891e-05	-1.3977e-05	0.03788304	0.03824789
	0.03761657	0.03756811	3.729891e-05	-1.3977e-05	0.01606256	0.00482298	1.01061e-05	-4.489792e-06
	4.401433e-06	-4.676676e-06	0.03788304	0.03824789	1.01061e-05	-4.489792e-06	0.01598323	0.004734581
1.7e+08	0.01493304	0.00516205	9.124632e-06	-4.978214e-06	0.04135936	0.03769274	4.186452e-06	-4.563767e-06
	9.124632e-06	-4.978214e-06	0.01509643	0.005033671	3.635904e-05	-1.354103e-05	0.0416418	0.03838735
	0.04135936	0.03769273	3.635904e-05	-1.354103e-05	0.01532557	0.005696365	9.820883e-06	-4.307528e-06
	4.186452e-06	-4.563767e-06	0.0416418	0.03838735	9.820883e-06	-4.307528e-06	0.01526277	0.005609454
1.8e+08	0.01422127	0.006207212	8.810822e-06	-4.843978e-06	0.0451294	0.0374996	3.966755e-06	-4.467317e-06
	8.810822e-06	-4.843978e-06	0.0143852	0.006083699	3.541556e-05	-1.319634e-05	0.04542525	0.03820579
	0.0451294	0.0374996	3.541556e-05	-1.319634e-05	0.01462926	0.006770839	9.533909e-06	-4.154845e-06
	3.966755e-06	-4.467317e-06	0.04542525	0.03820578	9.533909e-06	-4.154845e-06	0.01458566	0.006685541
1.9e+08	0.01357653	0.0074549	8.495009e-06	-4.72793e-06	0.04890106	0.03698806	3.743846e-06	-4.381921e-06
	8.495009e-06	-4.72793e-06	0.01374408	0.007337684	3.447102e-05	-1.291871e-05	0.04920736	0.03770278
	0.04890106	0.03698806	3.447102e-05	-1.291871e-05	0.01400368	0.008045042	9.246154e-06	-4.023756e-06
	3.743846e-06	-4.381921e-06	0.04920736	0.03770278	9.246154e-06	-4.023756e-06	0.01398229	0.007961216
2e+08	0.01303011	0.008901032	8.178057e-06	-4.623801e-06	0.05264888	0.03615945	3.518865e-06	-4.303213e-06
	8.178057e-06	-4.623801e-06	0.01320456	0.008791119	3.352711e-05	-1.269005e-05	0.05296228	0.03687989
	0.05264888	0.03615945	3.352711e-05	-1.269005e-05	0.01347901	0.009514795	8.958219e-06	-3.908208e-06
	3.518865e-06	-4.303213e-06	0.05296228	0.03687989	8.958219e-06	-3.908208e-06	0.01348316	0.009431971
2.1e+08	0.01261206	0.01053792	7.860958e-06	-4.527461e-06	0.05634752	0.03501709	3.292819e-06	-4.228077e-06
	7.860958e-06	-4.527461e-06	0.01279704	0.01043585	3.258534e-05	-1.249705e-05	0.05666433	0.0357407
	0.05634752	0.03501709	3.258534e-05	-1.249705e-05	0.01308441	0.01117176	8.670847e-06	-3.803965e-06
	3.292819e-06	-4.228077e-06	0.05666433	0.0357407	8.670847e-06	-3.803965e-06	0.01311765	0.01108906
2.2e+08	0.0123521	0.01235362	7.544476e-06	-4.435471e-06	0.05997213	0.03356625	3.066595e-06	-4.154095e-06
	7.544476e-06	-4.435471e-06	0.01255142	0.01225944	3.164685e-05	-1.232911e-05	0.06028835	0.03429087
	0.05997213	0.03356625	3.164685e-05	-1.232911e-05	0.01284835	0.01300437	8.384542e-06	-3.707519e-06
	3.066595e-06	-4.154095e-06	0.06028835	0.03429087	8.384542e-06	-3.707519e-06	0.01291441	0.01292043
2.3e+08	0.01227815	0.01433288	7.229532e-06	-4.345865e-06	0.06349881	0.0318143	2.840946e-06	-4.079369e-06
	7.229532e-06	-4.345865e-06	0.01249577	0.01424608	3.071309e-05	-1.217976e-05	0.0638101	0.03253806
	0.06349881	0.0318143	3.071309e-05	-1.217976e-05	0.01279849	0.01499787	8.099672e-06	-3.616037e-06
	2.840946e-06	-4.079369e-06	0.0638101	0.03253806	8.099672e-06	-3.616037e-06	0.01290124	0.01491082
2.4e+08	0.0124162	0.01645705	6.916578e-06	-4.255809e-06	0.06690414	0.02977044	2.616699e-06	-4.002459e-06
	6.916578e-06	-4.255809e-06	0.0126562	0.01637658	2.978434e-05	-1.204048e-05	0.06720592	0.03049188
	0.06690414	0.02977044	2.978434e-05	-1.204048e-05	0.01296023	0.01713345	7.816834e-06	-3.527314e-06
	2.616699e-06	-4.002459e-06	0.06720592	0.03049188	7.816834e-06	-3.527314e-06	0.01310361	0.01704086
2.5e+08	0.01278993	0.01870411	6.606228e-06	-4.163447e-06	0.07016573	0.02744549	2.394556e-06	-3.922207e-06
	6.606228e-06	-4.163447e-06	0.01305636	0.01862833	2.88617e-05	-1.190703e-05	0.07045318	0.02816356
	0.07016573	0.02744549	2.88617e-05	-1.190703e-05	0.01335708	0.01938989	7.536631e-06	-3.440101e-06
	2.394556e-06	-3.922207e-06	0.07045318	0.02816356	7.536631e-06	-3.440101e-06	0.013545	0.01928877
2.6e+08	0.01342057	0.02104948	6.29925e-06	-4.067443e-06	0.07326262	0.02485223	2.175244e-06	-3.83776e-06
	6.29925e-06	-4.067443e-06	0.01371748	0.02097614	2.794571e-05	-1.177373e-05	0.07353073	0.02556629
	0.07326262	0.02485223	2.794571e-05	-1.177373e-05	0.01401017	0.02174245	7.259386e-06	-3.352503e-06
	2.175244e-06	-3.83776e-06	0.07353073	0.02556629	7.259386e-06	-3.352503e-06	0.01424641	0.02162917
2.7e+08	0.01432672	0.02346599	5.996363e-06	-3.966704e-06	0.07617452	0.02200468	1.959438e-06	-3.748466e-06
	5.996363e-06	-3.966704e-06	0.014658	0.02339228	2.703717e-05	-1.163658e-05	0.07641812	0.02271459
	0.07617452	0.02200468	2.703717e-05	-1.163658e-05	0.01493796	0.02416431	6.985537e-06	-3.263234e-06
	1.959438e-06	-3.748466e-06	0.07641812	0.02271459	6.985537e-06	-3.263234e-06	0.01522614	0.02403464
2.8e+08	0.01552351	0.02592407	5.698289e-06	-3.860387e-06	0.07888279	0.01891839	1.747797e-06	-3.653858e-06
	5.698289e-06	-3.860387e-06	0.01589289	0.02584657	2.613708e-05	-1.149248e-05	0.0790966	0.01962446
	0.07888279	0.01891839	2.613708e-05	-1.149248e-05	0.01615552	0.02662643	6.715593e-06	-3.171336e-06
	1.747797e-06	-3.653858e-06	0.0790966	0.01962446	6.715593e-06	-3.171336e-06	0.016499	0.02647552
2.9e+08	0.01702316	0.02839263	5.405738e-06	-3.747862e-06	0.08137033	0.01561034	1.540951e-06	-3.553631e-06
	5.405738e-06	-3.747862e-06	0.01743411	0.02830731	2.524642e-05	-1.133892e-05	0.08154901	0.01631334
	0.08137033	0.01561034	2.524642e-05	-1.133892e-05	0.01767512	0.02909736	6.450046e-06	-3.076059e-06
	1.540951e-06	-3.553631e-06	0.08154901	0.01631334	6.450046e-06	-3.076059e-06	0.01807692	0.02891981
3e+08	0.01883435	0.030839	5.119408e-06	-3.628666e-06	0.08362109	0.01209847	1.339501e-06	-3.447591e-06
	5.119408e-06	-3.628666e-06	0.01928998	0.03074129	2.436613e-05	-1.117377e-05	0.08375927	0.0127997
	0.08362109	0.01209847	2.436613e-05	-1.117377e-05	0.0195056	0.03154476	6.189391e-06	-2.976816e-06
	1.339501e-06	-3.447591e-06	0.08375927	0.0127997	6.189391e-06	-2.976816e-06	0.01996832	0.03133456
3.1e+08	0.02096237	0.03322958	4.839992e-06	-3.502521e-06	0.08562104	0.008401856	1.144024e-06	-3.335686e-06
	4.839992e-06	-3.502521e-06	0.02146542	0.0331144	2.349724e-05	-1.099536e-05	0.08571333	0.009103071
	0.08562104	0.008401856	2.349724e-05	-1.099536e-05	0.02165232	0.03393455	5.934117e-06	-2.873183e-06
	1.144024e-06	-3.335686e-06	0.08571333	0.009103071	5.934117e-06	-2.873183e-06	0.02217803	0.03368513
3.2e+08	0.02340896	0.03552955	4.568172e-06	-3.369278e-06	0.08735775	0.004540448	9.550649e-07	-3.217959e-06
	4.568172e-06	-3.369278e-06	0.0239617	0.03539124	2.264079e-05	-1.080233e-05	0.08739885	0.005243915
	0.08735775	0.004540448	2.264079e-05	-1.080233e-05	0.02411651	0.03623264	5.684716e-06	-2.764865e-06
	9.550649e-07	-3.217959e-06	0.08739885	0.005243915	5.684716e-06	-2.764865e-06	0.02470674	0.03593695
3.3e+08	0.02617232	0.03770409	4.304596e-06	-3.228907e-06	0.08882005	0.0005349763	7.731399e-07	-3.094525e-06
	4.304596e-06	-3.228907e-06	0.02677644	0.03753656	2.179782e-05	-1.059353e-05	0.08880477	0.001243488
	0.08882005	0.0005349762	2.179782e-05	-1.059353e-05	0.02689647	0.03840359	5.441676e-06	-2.651666e-06
	7.731399e-07	-3.094525e-06	0.08880477	0.001243488	5.441676e-06	-2.651666e-06	0.02755206	0.03805412
3.4e+08	0.02924662	0.03971813	4.049898e-06	-3.081525e-06	0.08999903	-0.003593344	5.987287e-07	-2.96561e-06
	4.049898e-06	-3.081525e-06	0.02990327	0.03951486	2.096939e-05	-1.036816e-05	0.08992234	-0.00287656
	0.08999903	-0.003593344	2.096939e-05	-1.036816e-05	0.02998638	0.04041291	5.205466e-06	-2.533514e-06
	5.987286e-07	-2.96561e-06	0.08992234	-0.00287656	5.205466e-06	-2.533514e-06	0.03070749	0.04000174
3.5e+08	0.03262268	0.04153712	3.804669e-06	-2.927333e-06	0.09088705	-0.007822746	4.322776e-07	-2.831482e-06
	3.804669e-06	-2.927333e-06	0.0333323	0.04129125	2.01566e-05	-1.012561e-05	0.09074408	-0.007093908
	0.09088705	-0.007822746	2.01566e-05	-1.012561e-05	0.033377	0.04222536	4.976538e-06	-2.410417e-06
	4.322776e-07	-2.831482e-06	0.09074408	-0.007093908	4.976538e-06	-2.410417e-06	0.03416298	0.04174425
3.6e+08	0.03628772	0.04312686	3.569474e-06	-2.766646e-06	0.09147855	-0.01213098	2.741879e-07	-2.692499e-06
	3.569474e-06	-2.766646e-06	0.03705009	0.04283119	1.936052e-05	-9.865504e-06	0.09126465	-0.01138589
	0.09147855	-0.01213098	1.936052e-05	-9.865504e-06	0.03705517	0.0438073	4.755311e-06	-2.282496e-06
	2.741879e-07	-2.692499e-06	0.09126465	-0.01138589	4.755311e-06	-2.282496e-06	0.03790456	0.04324772
3.7e+08	0.04022548	0.04445474	3.344819e-06	-2.599849e-06	0.09176969	-0.01649602	1.248145e-07	-2.549053e-06
	3.344819e-06	-2.599849e-06	0.04103956	0.04410186	1.85822e-05	-9.58763e-06	0.09148051	-0.01573001
	0.09176969	-0.01649602	1.85822e-05	-9.58763e-06	0.04100459	0.04512607	4.542177e-06	-2.149924e-06
	1.248145e-07	-2.549053e-06	0.09148051	-0.01573001	4.542177e-06	-2.149924e-06	0.041915	0.04447934
3.8e+08	0.04441642	0.0454891	3.131172e-06	-2.427402e-06	0.09175795	-0.02089557	-1.552281e-08	-2.401586e-06
	3.131172e-06	-2.427402e-06	0.04528043	0.04507139	1.78227e-05	-9.291941e-06	0.0913895	-0.02010356
	0.09175795	-0.02089557	1.78227e-05	-9.291941e-06	0.04520558	0.04614965	4.337501e-06	-2.012947e-06
	-1.552281e-08	-2.401586e-06	0.0913895	-0.02010356	4.337501e-06	-2.012947e-06	0.0461737	0.04540698
3.9e+08	0.04883691	0.04619972	2.92894e-06	-2.249858e-06	0.09144325	-0.02530737	-1.465555e-07	-2.250603e-06
	2.92894e-06	-2.249858e-06	0.04974822	0.04570951	1.708309e-05	-8.978615e-06	0.09099184	-0.02448384
	0.09144325	-0.02530737	1.708309e-05	-8.978615e-06	0.04963445	0.0468489	4.141612e-06	-1.871892e-06
	-1.465555e-07	-2.250603e-06	0.09099184	-0.02448384	4.141612e-06	-1.871892e-06	0.05065602	0.04600152
4e+08	0.05346091	0.04655881	2.73848e-06	-2.06781e-06	0.0908266	-0.0297096	-2.680582e-07	-2.096622e-06
	2.73848e-06	-2.06781e-06	0.05441598	0.0459884	1.636439e-05	-8.647913e-06	0.09028899	-0.02884867
	0.0908266	-0.0297096	1.636439e-05	-8.647913e-06	0.05426536	0.04719542	3.954786e-06	-1.727115e-06
	-2.680582e-07	-2.096622e-06	0.09028899	-0.02884867	3.954786e-06	-1.727115e-06	0.05533509	0.0462346
4.1e+08	0.05826003	0.04654104	2.560075e-06	-1.881903e-06	0.08991075	-0.03408059	-3.798728e-07	-1.94019e-06
	2.560075e-06	-1.881903e-06	0.05925446	0.04588282	1.566753e-05	-8.300253e-06	0.08928414	-0.03317604
	0.08991075	-0.03408059	1.566753e-05	-8.300253e-06	0.05906941	0.04716404	3.777262e-06	-1.57903e-06
	-3.798728e-07	-1.94019e-06	0.08928414	-0.03317604	3.777262e-06	-1.57903e-06	0.06018107	0.04608129
4.2e+08	0.06320162	0.04612315	2.393942e-06	-1.692842e-06	0.08870042	-0.03839938	-4.818731e-07	-1.781902e-06
	2.393942e-06	-1.692842e-06	0.06423011	0.04536969	1.499355e-05	-7.936234e-06	0.08798243	-0.03744467
	0.08870042	-0.03839938	1.499355e-05	-7.936234e-06	0.06401401	0.04673186	3.609243e-06	-1.428101e-06
	-4.818731e-07	-1.781902e-06	0.08798243	-0.03744467	3.609243e-06	-1.428101e-06	0.06516025	0.04551896
4.3e+08	0.06825177	0.04528515	2.240243e-06	-1.501346e-06	0.08720131	-0.0426456	-5.740029e-07	-1.622341e-06
	2.240243e-06	-1.501346e-06	0.06930811	0.04442928	1.434329e-05	-7.556531e-06	0.08639013	-0.04163396
	0.08720131	-0.0426456	1.434329e-05	-7.556531e-06	0.06906548	0.04587888	3.450864e-06	-1.274802e-06
	-5.740029e-07	-1.622341e-06	0.08639013	-0.04163396	3.450864e-06	-1.274802e-06	0.070238	0.04452805
4.4e+08	0.07337457	0.04400988	2.099047e-06	-1.308172e-06	0.08542086	-0.0467994	-6.56254e-07	-1.462115e-06
	2.099047e-06	-1.308172e-06	0.07445163	0.04304479	1.371759e-05	-7.16194e-06	0.08451515	-0.0457238
	0.08542086	-0.0467994	1.371759e-05	-7.16194e-06	0.07418741	0.04458811	3.302226e-06	-1.119654e-06
	-6.56254e-07	-1.462115e-06	0.08451515	-0.0457238	3.302226e-06	-1.119654e-06	0.0753769	0.04309205
4.5e+08	0.07853107	0.04228366	1.970365e-06	-1.1141e-06	0.08336798	-0.05084194	-7.286625e-07	-1.301845e-06
	1.970365e-06	-1.1141e-06	0.07962084	0.041203	1.311729e-05	-6.7534e-06	0.08236699	-0.04969518
	0.08336798	-0.05084194	1.311729e-05	-6.7534e-06	0.07934099	0.04284588	3.163366e-06	-9.631893e-07
	-7.286625e-07	-1.301845e-06	0.08236699	-0.04969518	3.163366e-06	-9.631893e-07	0.08053716	0.04119798
4.6e+08	0.08368104	0.04009588	1.854144e-06	-9.19913e-07	0.0810527	-0.0547551	-7.91327e-07	-1.142145e-06
	1.854144e-06	-9.19913e-07	0.08477461	0.03889386	1.254309e-05	-6.331915e-06	0.07995626	-0.0535299
	0.0810527	-0.0547551	1.254309e-05	-6.331915e-06	0.08448664	0.04064176	3.034278e-06	-8.059571e-07
	-7.91327e-07	-1.142145e-06	0.07995626	-0.0535299	3.034278e-06	-8.059571e-07	0.08567818	0.0388361
4.7e+08	0.08878424	0.03744056	1.750216e-06	-7.263929e-07	0.07848621	-0.0585222	-8.444124e-07	-9.836166e-07
	1.750216e-06	-7.263929e-07	0.08987191	0.03611207	1.199559e-05	-5.898604e-06	0.07729471	-0.05721118
	0.07848621	-0.0585222	1.199559e-05	-5.898604e-06	0.08958298	0.03796944	2.914886e-06	-6.485053e-07
	-8.444124e-07	-9.836166e-07	0.07729471	-0.05721118	2.914886e-06	-6.485053e-07	0.09075776	0.03600096
4.8e+08	0.09379816	0.03431384	1.658387e-06	-5.343125e-07	0.07568095	-0.06212706	-8.881141e-07	-8.268603e-07
	1.658387e-06	-5.343125e-07	0.09486939	0.0328545	1.147538e-05	-5.454648e-06	0.07439536	-0.06072282
	0.07568095	-0.06212706	1.147538e-05	-5.454648e-06	0.09458818	0.03482608	2.805078e-06	-4.913985e-07
	-8.881141e-07	-8.268603e-07	0.07439536	-0.06072282	2.805078e-06	-4.913985e-07	0.09573322	0.03269069
4.9e+08	0.09867941	0.03071704	1.578354e-06	-3.444384e-07	0.07265037	-0.06555541	-9.226831e-07	-6.724619e-07
