!$
! Info: Touchstone file created by Circ.  Input file=Intel_C2M_200G_1p5in_202208016_staggered.circ
!$
# Hz S RI R 50
0	0.01105018	1.547267e-24	2.9566e-05	2.389518e-23	7.341862e-05	2.175639e-22	2.949853e-05	2.382239e-23
	2.9566e-05	2.389518e-23	0.0110635	1.745268e-24	2.954799e-05	2.388932e-23	7.302937e-05	2.166827e-22
	7.347715e-05	2.176927e-22	2.954799e-05	2.389008e-23	0.01104494	1.505622e-24	2.951125e-05	2.381812e-23
	2.949852e-05	2.382315e-23	7.30879e-05	2.168118e-22	2.951125e-05	2.381812e-23	0.01106142	1.660539e-24
1e+07	0.01333087	0.00298394	1.731536e-05	5.891779e-06	0.0006251176	0.00379918	1.656767e-06	1.594863e-05
	1.731536e-05	5.89178e-06	0.01327182	0.0029561	2.203512e-05	1.353773e-05	0.0007499453	0.003874946
	0.0006251176	0.00379918	2.203512e-05	1.353773e-05	0.0135124	0.002989259	1.103883e-05	1.247795e-05
	1.656767e-06	1.594863e-05	0.0007499453	0.003874946	1.103883e-05	1.247795e-05	0.0131967	0.002947323
2e+07	0.01523052	0.004140911	1.180181e-05	1.300384e-05	0.001310133	0.007317409	8.015632e-06	1.624775e-05
	1.180181e-05	1.300384e-05	0.01516192	0.004125573	2.223178e-05	1.678925e-05	0.001431067	0.007417765
	0.001310145	0.007317398	2.223178e-05	1.678925e-05	0.01534206	0.004096805	1.074334e-05	9.944622e-06
	8.015633e-06	1.624775e-05	0.001431079	0.007417753	1.074334e-05	9.944622e-06	0.01507019	0.004149747
3e+07	0.01677174	0.004560512	1.261033e-05	1.805993e-05	0.002251059	0.0108047	1.307962e-05	1.730883e-05
	1.261033e-05	1.805993e-05	0.01669684	0.004553563	2.298407e-05	2.044835e-05	0.002372505	0.01094835
	0.002251024	0.01080473	2.298406e-05	2.044835e-05	0.01682375	0.004536992	1.074212e-05	1.036828e-05
	1.307962e-05	1.730883e-05	0.002372471	0.01094838	1.074212e-05	1.036828e-05	0.01658734	0.004617691
4e+07	0.01791081	0.004553658	1.333897e-05	2.07058e-05	0.003532636	0.01414335	1.741448e-05	1.810975e-05
	1.333897e-05	2.07058e-05	0.01783203	0.004556652	2.392183e-05	2.286064e-05	0.003657705	0.01433274
	0.003532625	0.01414337	2.392183e-05	2.286064e-05	0.01792027	0.004567853	1.084493e-05	1.106784e-05
	1.741448e-05	1.810975e-05	0.003657694	0.01433276	1.084493e-05	1.106784e-05	0.01771506	0.004661831
5e+07	0.01873837	0.004353683	1.388653e-05	2.206112e-05	0.005112436	0.0173397	2.131597e-05	1.863879e-05
	1.388653e-05	2.206112e-05	0.01865863	0.004368509	2.931431e-05	2.282008e-05	0.005243813	0.01757498
	0.005112436	0.01733971	2.931431e-05	2.282008e-05	0.01871479	0.004415088	1.249899e-05	1.117742e-05
	2.131597e-05	1.863879e-05	0.005243813	0.01757499	1.249899e-05	1.117742e-05	0.0185385	0.004515437
6e+07	0.01930368	0.004038287	1.418662e-05	2.257519e-05	0.006982083	0.02037447	2.479218e-05	1.860089e-05
	1.418662e-05	2.257519e-05	0.01922642	0.004066588	3.398697e-05	2.18632e-05	0.007122135	0.02065476
	0.006982105	0.02037447	3.398697e-05	2.18632e-05	0.01925518	0.004153933	1.398284e-05	1.107935e-05
	2.479218e-05	1.860089e-05	0.007122157	0.02065475	1.398284e-05	1.107935e-05	0.01910668	0.004256358
7e+07	0.01962264	0.003670107	1.691232e-05	2.210172e-05	0.009126742	0.02322589	2.788516e-05	1.802347e-05
	1.691232e-05	2.210172e-05	0.01955188	0.003713148	3.793352e-05	2.00605e-05	0.009277529	0.02354967
	0.009126745	0.02322588	3.793352e-05	2.00605e-05	0.01955708	0.003845358	1.521198e-05	1.080046e-05
	2.788516e-05	1.802347e-05	0.009277532	0.02354967	1.521198e-05	1.080046e-05	0.01943612	0.003946669
8e+07	0.01971447	0.00330991	1.978798e-05	2.094106e-05	0.01153001	0.02587365	3.063939e-05	1.695278e-05
	1.978798e-05	2.094106e-05	0.01965493	0.003368492	4.115613e-05	1.753145e-05	0.01169326	0.02623892
	0.01153001	0.02587365	4.115613e-05	1.753145e-05	0.01963973	0.00354958	1.618171e-05	1.035739e-05
	3.063939e-05	1.695278e-05	0.01169326	0.02623893	1.618171e-05	1.035739e-05	0.01954681	0.003646962
9e+07	0.0196082	0.003011873	2.196145e-05	1.919052e-05	0.01417478	0.02829874	3.304849e-05	1.531089e-05
	2.196145e-05	1.919052e-05	0.01956575	0.003086276	4.356871e-05	1.426044e-05	0.01435182	0.02870316
	0.01417478	0.02829875	4.356871e-05	1.426044e-05	0.01953224	0.00332085	1.685003e-05	9.744277e-06
	3.304849e-05	1.531089e-05	0.01435182	0.02870317	1.685003e-05	9.744277e-06	0.01946864	0.003411076
1e+08	0.01934979	0.002843344	2.300866e-05	1.631875e-05	0.01704436	0.03048338	3.494033e-05	1.235393e-05
	2.300866e-05	1.631875e-05	0.01933405	0.002933173	4.47013e-05	9.524301e-06	0.01723614	0.03092448
	0.01704436	0.03048338	4.47013e-05	9.524301e-06	0.01928318	0.003232414	1.72081e-05	9.826891e-06
	3.494033e-05	1.235393e-05	0.01723614	0.03092447	1.72081e-05	9.826891e-06	0.01925169	0.003309021
1.1e+08	0.01904856	0.002691445	2.133787e-05	1.513616e-05	0.02013462	0.03241221	3.384112e-05	1.028024e-05
	2.133787e-05	1.513616e-05	0.01906284	0.002782689	4.303306e-05	1.039829e-05	0.02034219	0.03288727
	0.02013462	0.03241221	4.303306e-05	1.039829e-05	0.01908418	0.00316304	1.676105e-05	1.098708e-05
	3.384112e-05	1.028024e-05	0.02034219	0.03288727	1.676105e-05	1.098708e-05	0.0190727	0.003221255
1.2e+08	0.01856077	0.002638536	2.031325e-05	1.527694e-05	0.0233813	0.03405467	3.339521e-05	1.058033e-05
	2.031325e-05	1.527694e-05	0.01860146	0.002728678	4.195912e-05	1.211259e-05	0.02360467	0.03456045
	0.0233813	0.03405467	4.195912e-05	1.211259e-05	0.01865243	0.003137646	1.657371e-05	1.218057e-05
	3.339521e-05	1.058033e-05	0.02360467	0.03456045	1.657371e-05	1.218057e-05	0.01865974	0.003182081
1.3e+08	0.01794609	0.002737913	2.01222e-05	1.625852e-05	0.02677288	0.03540654	3.364224e-05	1.347863e-05
	2.01222e-05	1.625852e-05	0.01801258	0.002825245	4.109487e-05	1.385231e-05	0.02701168	0.03593989
	0.02677288	0.03540654	4.109487e-05	1.385231e-05	0.01806706	0.003260128	1.657455e-05	1.337627e-05
	3.364224e-05	1.347863e-05	0.02701168	0.03593989	1.657455e-05	1.337627e-05	0.01809336	0.003292324
1.4e+08	0.0172429	0.003008975	2.072271e-05	1.788023e-05	0.03028939	0.03646106	3.401015e-05	1.613829e-05
	2.072271e-05	1.788023e-05	0.01733522	0.003092089	4.040392e-05	1.564285e-05	0.03054286	0.03701884
	0.03028939	0.03646106	4.040392e-05	1.564285e-05	0.01738563	0.003560312	1.666977e-05	1.463107e-05
	3.401015e-05	1.613829e-05	0.03054286	0.03701884	1.666977e-05	1.463107e-05	0.01743161	0.00358116
1.5e+08	0.01648411	0.003465319	2.144305e-05	1.957234e-05	0.03390796	0.0372111	3.45111e-05	1.865356e-05
	2.144305e-05	1.957234e-05	0.01660261	0.003542964	3.987252e-05	1.750083e-05	0.03417489	0.03779018
	0.03390796	0.0372111	3.987252e-05	1.750083e-05	0.01664994	0.004049706	1.686198e-05	1.59402e-05
	3.45111e-05	1.865356e-05	0.03417489	0.03779018	1.686198e-05	1.59402e-05	0.01671666	0.004059772
1.6e+08	0.01570065	0.00411685	2.230239e-05	2.132602e-05	0.03760421	0.03765057	3.515866e-05	2.106961e-05
	2.230239e-05	2.132602e-05	0.01584598	0.004187838	3.949936e-05	1.942712e-05	0.03788304	0.03824789
	0.03760421	0.03765057	3.949936e-05	1.942712e-05	0.01589442	0.004734968	1.715508e-05	1.72987e-05
	3.515866e-05	2.106961e-05	0.03788304	0.03824789	1.715508e-05	1.72987e-05	0.01598323	0.004734581
1.7e+08	0.01492343	0.004970532	2.331799e-05	2.312526e-05	0.04135304	0.03777474	3.596515e-05	2.341004e-05
	2.331799e-05	2.312526e-05	0.01509643	0.005033671	3.97076e-05	2.154976e-05	0.0416418	0.03838735
	0.04135304	0.03777474	3.97076e-05	2.154976e-05	0.01515016	0.005620152	1.767913e-05	1.873175e-05
	3.596515e-05	2.341004e-05	0.0416418	0.03838735	1.767913e-05	1.873175e-05	0.01526277	0.005609454
1.8e+08	0.01418347	0.006029687	2.450417e-05	2.496062e-05	0.04512894	0.0375807	3.69416e-05	2.568708e-05
	2.450417e-05	2.496062e-05	0.0143852	0.006083699	4.032463e-05	2.372434e-05	0.04542525	0.03820579
	0.04512894	0.0375807	4.032463e-05	2.372434e-05	0.01444729	0.006706692	1.847622e-05	2.021925e-05
	3.69416e-05	2.568708e-05	0.04542525	0.03820578	1.847622e-05	2.021925e-05	0.01458566	0.006685541
1.9e+08	0.01351242	0.007294197	2.587224e-05	2.682652e-05	0.04890622	0.0370678	3.809739e-05	2.791e-05
	2.587224e-05	2.682652e-05	0.01374408	0.007337684	4.105668e-05	2.58465e-05	0.04920736	0.03770278
	0.04890622	0.0370678	4.105669e-05	2.58465e-05	0.01381591	0.00799323	1.936725e-05	2.16947e-05
	3.809739e-05	2.791e-05	0.04920736	0.03770278	1.936725e-05	2.16947e-05	0.01398229	0.007961216
2e+08	0.01294163	0.008759707	2.743559e-05	2.871011e-05	0.05265943	0.03623742	3.944212e-05	3.007943e-05
	2.743559e-05	2.871011e-05	0.01320456	0.008791119	4.191318e-05	2.792802e-05	0.05296228	0.03687989
	0.05265943	0.03623742	4.191318e-05	2.792802e-05	0.01328631	0.009475611	2.035979e-05	2.315903e-05
	3.944212e-05	3.007943e-05	0.05296228	0.03687989	2.035979e-05	2.315903e-05	0.01348316	0.009431971
2.1e+08	0.01250138	0.01041828	2.92056e-05	3.059695e-05	0.05636317	0.03509287	4.098419e-05	3.219169e-05
	2.92056e-05	3.059695e-05	0.01279704	0.01043585	4.290507e-05	2.997178e-05	0.05666433	0.0357407
	0.05636317	0.03509287	4.290507e-05	2.997178e-05	0.01288767	0.01114545	2.146155e-05	2.461112e-05
	4.098419e-05	3.219169e-05	0.05666433	0.0357407	2.146155e-05	2.461112e-05	0.01311765	0.01108906
2.2e+08	0.01222149	0.01225776	3.119262e-05	3.247146e-05	0.05999257	0.03363948	4.273105e-05	3.424033e-05
	3.119262e-05	3.247146e-05	0.01255142	0.01225944	4.404102e-05	3.198009e-05	0.06028835	0.03429087
	0.05999257	0.03363948	4.404102e-05	3.198009e-05	0.01264847	0.01299114	2.268017e-05	2.604801e-05
	4.273105e-05	3.424033e-05	0.06028835	0.03429087	2.268017e-05	2.604801e-05	0.01291441	0.01292043
2.3e+08	0.01213003	0.01426259	3.352996e-05	3.459621e-05	0.06352372	0.03188462	4.469747e-05	3.619575e-05
	3.352996e-05	3.459621e-05	0.01249577	0.01424608	4.53385e-05	3.393081e-05	0.0638101	0.03253806
	0.06352372	0.03188462	4.53385e-05	3.393081e-05	0.01259644	0.01499785	2.402102e-05	2.746597e-05
	4.469747e-05	3.619575e-05	0.0638101	0.03253806	2.402102e-05	2.746597e-05	0.01290124	0.01491082
2.4e+08	0.01225309	0.01641393	3.6112e-05	3.666503e-05	0.06693317	0.02983752	4.687986e-05	3.806456e-05
	3.6112e-05	3.666503e-05	0.0126562	0.01637658	4.679699e-05	3.583813e-05	0.06720592	0.03049188
	0.06693317	0.02983752	4.679699e-05	3.583813e-05	0.012757	0.01714673	2.54929e-05	2.885878e-05
	4.687986e-05	3.806456e-05	0.06720592	0.03049188	2.54929e-05	2.885878e-05	0.01310361	0.01704086
2.5e+08	0.01261443	0.01868946	3.893638e-05	3.863945e-05	0.0701985	0.02750902	4.928219e-05	3.983486e-05
	3.893638e-05	3.863945e-05	0.01305636	0.01862833	4.842444e-05	3.769692e-05	0.07045318	0.02816356
	0.0701985	0.02750902	4.842444e-05	3.769692e-05	0.01315366	0.0194165	2.710158e-05	3.021984e-05
	4.928219e-05	3.983486e-05	0.07045318	0.02816356	2.710158e-05	3.021984e-05	0.013545	0.01928877
2.6e+08	0.01323536	0.02106432	4.200831e-05	4.050127e-05	0.07329874	0.02491196	5.190762e-05	4.149179e-05
	4.200831e-05	4.050127e-05	0.01371748	0.02097614	5.022831e-05	3.949938e-05	0.07353073	0.02556629
	0.07329874	0.02491196	5.022831e-05	3.949938e-05	0.01380756	0.0217823	2.88533e-05	3.154098e-05
	5.190762e-05	4.149179e-05	0.07353073	0.02556629	2.88533e-05	3.154098e-05	0.01424641	0.02162917
2.7e+08	0.01413451	0.02351116	4.533247e-05	4.223041e-05	0.07621357	0.02206039	5.475884e-05	4.301865e-05
	4.533247e-05	4.223041e-05	0.014658	0.02339228	5.221565e-05	4.123501e-05	0.07641812	0.02271459
	0.07621357	0.02206039	5.221565e-05	4.123501e-05	0.01473715	0.02421724	3.075457e-05	3.28122e-05
	5.475884e-05	4.301865e-05	0.07641812	0.02271459	3.075457e-05	3.28122e-05	0.01522614	0.02403464
2.8e+08	0.01532706	0.0260001	4.890986e-05	4.380656e-05	0.07892435	0.01896989	5.783616e-05	4.439799e-05
	4.890986e-05	4.380656e-05	0.01589289	0.02584657	5.439355e-05	4.289117e-05	0.0790966	0.01962446
	0.07892435	0.01896989	5.439355e-05	4.289117e-05	0.01595747	0.02669223	3.280979e-05	3.402347e-05
	5.783616e-05	4.439799e-05	0.0790966	0.01962446	3.280979e-05	3.402347e-05	0.016499	0.02647552
2.9e+08	0.01682522	0.02849981	5.27404e-05	4.520763e-05	0.08141396	0.01565745	6.113834e-05	4.561197e-05
	5.27404e-05	4.520763e-05	0.01743411	0.02830731	5.676664e-05	4.445465e-05	0.08154901	0.01631334
	0.08141396	0.01565745	5.676664e-05	4.445465e-05	0.0174808	0.02917573	3.502367e-05	3.516303e-05
	6.113834e-05	4.561197e-05	0.08154901	0.01631334	3.502367e-05	3.516303e-05	0.01807692	0.02891981
3e+08	0.01863767	0.03097737	5.68239e-05	4.640916e-05	0.08366635	0.01214109	6.466289e-05	4.664065e-05
	5.68239e-05	4.640916e-05	0.01928998	0.03074129	5.93381e-05	4.591143e-05	0.08375927	0.0127997
	0.08366635	0.01214109	5.93381e-05	4.591143e-05	0.01931593	0.03163532	3.739999e-05	3.621807e-05
	6.466289e-05	4.664065e-05	0.08375927	0.0127997	3.739999e-05	3.621807e-05	0.01996832	0.03133456
3.1e+08	0.02076965	0.03339894	6.115439e-05	4.738942e-05	0.08566747	0.008439872	6.840587e-05	4.746427e-05
	6.115439e-05	4.738942e-05	0.02146542	0.0331144	6.211213e-05	4.724346e-05	0.08571333	0.009103071
	0.08566747	0.008439872	6.211213e-05	4.724346e-05	0.02146815	0.03403685	3.994092e-05	3.717569e-05
	6.840587e-05	4.746427e-05	0.08571333	0.009103071	3.994092e-05	3.717569e-05	0.02217803	0.03368513
3.2e+08	0.02322287	0.03572945	6.572744e-05	4.812239e-05	0.08740488	0.004573819	7.23606e-05	4.806286e-05
	6.572744e-05	4.812239e-05	0.0239617	0.03539124	6.508839e-05	4.843517e-05	0.08739885	0.005243915
	0.08740488	0.004573819	6.508839e-05	4.843517e-05	0.0239387	0.03634617	4.264919e-05	3.802031e-05
	7.23606e-05	4.806286e-05	0.08739885	0.005243915	4.264919e-05	3.802031e-05	0.02470674	0.03593695
3.3e+08	0.02599546	0.03793384	7.053437e-05	4.858376e-05	0.08886744	0.0005636937	7.652e-05	4.841502e-05
	7.053437e-05	4.858376e-05	0.02677644	0.03753656	6.826797e-05	4.946685e-05	0.08880477	0.001243488
	0.08886744	0.0005636937	6.826797e-05	4.946685e-05	0.02672579	0.03852778	4.552466e-05	3.873758e-05
	7.652e-05	4.841502e-05	0.08880477	0.001243488	4.552466e-05	3.873758e-05	0.02755206	0.03805412
3.4e+08	0.02908147	0.03997686	7.556524e-05	4.874788e-05	0.09004625	-0.003569284	8.087272e-05	4.850203e-05
	7.556524e-05	4.874788e-05	0.02990327	0.03951486	7.164738e-05	5.031991e-05	0.08992234	-0.00287656
	0.09004625	-0.003569284	7.164738e-05	5.031991e-05	0.02982358	0.04054714	4.856752e-05	3.93106e-05
	8.087272e-05	4.850203e-05	0.08992234	-0.00287656	4.856752e-05	3.93106e-05	0.03070749	0.04000174
3.5e+08	0.03247163	0.04182373	8.080639e-05	4.859226e-05	0.09093364	-0.007803275	8.540955e-05	4.830031e-05
	8.080639e-05	4.859226e-05	0.0333323	0.04129125	7.522362e-05	5.097523e-05	0.09074408	-0.007093908
	0.09093364	-0.007803275	7.522362e-05	5.097523e-05	0.03322272	0.04236891	5.177585e-05	3.972275e-05
	8.540955e-05	4.830031e-05	0.09074408	-0.007093908	5.177585e-05	3.972275e-05	0.03416298	0.04174425
3.6e+08	0.03615305	0.04344002	8.624401e-05	4.808843e-05	0.09152403	-0.012116	9.011593e-05	4.779056e-05
	8.624401e-05	4.808843e-05	0.03705009	0.04283119	7.899341e-05	5.140942e-05	0.09126465	-0.01138589
	0.09152403	-0.012116	7.899341e-05	5.140942e-05	0.03691003	0.04395946	5.514542e-05	3.995788e-05
	9.011593e-05	4.779056e-05	0.09126465	-0.01138589	5.514542e-05	3.995788e-05	0.03790456	0.04324772
3.7e+08	0.04010929	0.04479297	9.186014e-05	4.721671e-05	0.09181363	-0.01648543	9.497606e-05	4.695328e-05
	9.186014e-05	4.721671e-05	0.04103956	0.04410186	8.294739e-05	5.160474e-05	0.09148051	-0.01573001
	0.09181363	-0.01648543	8.294739e-05	5.160474e-05	0.0408691	0.04528606	5.867324e-05	3.999577e-05
	9.497606e-05	4.695328e-05	0.09148051	-0.01573001	5.867324e-05	3.999577e-05	0.041915	0.04447934
3.8e+08	0.04432071	0.04585074	9.763569e-05	4.594985e-05	0.09179995	-0.02088921	9.997259e-05	4.576963e-05
	9.763569e-05	4.594985e-05	0.04528043	0.04507139	8.707764e-05	5.153839e-05	0.0913895	-0.02010356
	0.09179995	-0.02088921	8.707764e-05	5.153839e-05	0.0450802	0.04631668	6.235171e-05	3.9821e-05
	9.997259e-05	4.576963e-05	0.0913895	-0.02010356	6.235171e-05	3.9821e-05	0.0461737	0.04540698
3.9e+08	0.0487635	0.04658295	0.0001035491	4.426617e-05	0.0914829	-0.02530504	0.000105088	4.42172e-05
	0.0001035491	4.426617e-05	0.04974822	0.04570951	9.13736e-05	5.118861e-05	0.09099184	-0.02448384
	0.0914829	-0.02530504	9.13736e-05	5.118861e-05	0.04951955	0.04702216	6.617449e-05	3.941213e-05
	0.000105088	4.42172e-05	0.09099184	-0.02448384	6.617449e-05	3.941213e-05	0.05065602	0.04600152
4e+08	0.05341143	0.04696166	0.0001095749	4.214592e-05	0.0908635	-0.0297111	0.0001103	4.228229e-05
	0.0001095749	4.214592e-05	0.05441598	0.0459884	9.582109e-05	5.053542e-05	0.09028899	-0.02884867
	0.0908635	-0.0297111	9.582109e-05	5.053542e-05	0.05416127	0.04737405	7.013057e-05	3.875405e-05
	0.0001103	4.228229e-05	0.09028899	-0.02884867	7.013057e-05	3.875405e-05	0.05533509	0.0462346
4.1e+08	0.05823592	0.04696144	0.0001156884	3.956641e-05	0.08994454	-0.03408562	0.0001155862	3.994356e-05
	0.0001156884	3.956641e-05	0.05925446	0.04588282	0.0001004045	4.955786e-05	0.08928414	-0.03317604
	0.08994454	-0.03408562	0.0001004045	4.955786e-05	0.05897635	0.0473472	7.421026e-05	3.782533e-05
	0.0001155862	3.994356e-05	0.08928414	-0.03317604	7.421026e-05	3.782533e-05	0.06018107	0.04608129
4.2e+08	0.06320416	0.0465589	0.0001218603	3.650872e-05	0.08873073	-0.03840768	0.0001209221	3.718881e-05
	0.0001218603	3.650872e-05	0.06423011	0.04536969	0.0001051099	4.823591e-05	0.08798243	-0.03744467
	0.08873073	-0.03840768	0.0001051099	4.823591e-05	0.06393213	0.04691869	7.839972e-05	3.660836e-05
	0.0001209221	3.718881e-05	0.08798243	-0.03744467	7.839972e-05	3.660836e-05	0.06516025	0.04551896
4.3e+08	0.068282	0.04573397	0.0001280599	3.295533e-05	0.08722783	-0.04265688	0.0001262809	3.400353e-05
	0.0001280599	3.295533e-05	0.06930811	0.04442928	0.0001099145	4.654945e-05	0.08639013	-0.04163396
	0.08722783	-0.04265688	0.0001099145	4.654945e-05	0.06899488	0.04606854	8.268503e-05	3.508544e-05
	0.0001262809	3.400353e-05	0.08639013	-0.04163396	8.268503e-05	3.508544e-05	0.070238	0.04452805
4.4e+08	0.07343335	0.04446944	0.0001342566	2.889307e-05	0.08544329	-0.04681331	0.0001316366	3.037077e-05
	0.0001342566	2.889307e-05	0.07445163	0.04304479	0.0001147988	4.447991e-05	0.08451515	-0.0457238
	0.08544329	-0.04681331	0.0001147988	4.447991e-05	0.07412806	0.04477974	8.70486e-05	3.324015e-05
	0.0001316366	3.037077e-05	0.08451515	-0.0457238	8.70486e-05	3.324015e-05	0.0753769	0.04309205
4.5e+08	0.07861902	0.04275153	0.0001404153	2.430635e-05	0.08338603	-0.05085813	0.0001369587	2.628248e-05
	0.0001404153	2.430635e-05	0.07962084	0.041203	0.0001197406	4.201171e-05	0.08236699	-0.04969518
	0.08338603	-0.05085813	0.0001197406	4.201171e-05	0.0792929	0.04303869	9.147296e-05	3.105176e-05
	0.0001369587	2.628248e-05	0.08236699	-0.04969518	9.147296e-05	3.105176e-05	0.08053716	0.04119798
4.6e+08	0.08379861	0.04056964	0.0001464997	1.918377e-05	0.08106613	-0.05477321	0.0001422152	2.172968e-05
	0.0001464997	1.918377e-05	0.08477461	0.03889386	0.0001247157	3.91235e-05	0.07995626	-0.0535299
	0.08106613	-0.05477321	0.0001247157	3.91235e-05	0.08444964	0.04083493	9.593826e-05	2.850612e-05
	0.0001422152	2.172968e-05	0.07995626	-0.0535299	9.593826e-05	2.850612e-05	0.08567818	0.0388361
4.7e+08	0.08893164	0.03791777	0.0001524733	1.351406e-05	0.07849481	-0.05854181	0.0001473764	1.670028e-05
	0.0001524733	1.351406e-05	0.08987191	0.03611207	0.0001296949	3.580292e-05	0.07729471	-0.05721118
	0.07849481	-0.05854181	0.0001296949	3.580292e-05	0.08955689	0.03816219	0.0001004202	2.558936e-05
	0.0001473764	1.670028e-05	0.07729471	-0.05721118	0.0001004202	2.558936e-05	0.09075776	0.03600096
4.8e+08	0.0939754	0.03479202	0.0001582969	7.292944e-06	0.07568452	-0.06214777	0.0001524074	1.119348e-05
	0.0001582969	7.292944e-06	0.09486939	0.0328545	0.0001346507	3.203373e-05	0.07439536	-0.06072282
	0.07568452	-0.06214777	0.0001346507	3.203373e-05	0.09457276	0.03501769	0.0001048971	2.228408e-05
	0.0001524074	1.119348e-05	0.07439536	-0.06072282	0.0001048971	2.228408e-05	0.09573322	0.03269069
4.9e+08	0.09888626	0.0311938	0.0001639302	5.177737e-07	0.07264877	-0.06557678	0.0001572742	5.201772e-06
	0.0001639302	5.177737e-07	0.09972296	0.02912337	0.0001395538	2.780606e-05	0.07127226	-0.06405062
	0.07264877	-0.06557678	0.0001395538	2.780606e-05	0.09945392	0.03140213	0.0001093429	1.85772e-05
	0.0001572742	5.201772e-06	0.07127226	-0.06405062	0.0001093429	1.85772e-05	0.1005605	0.02890708
5e+08	0.1036222	0.02712817	0.0001693327	-6.818618e-06	0.06940149	-0.06881522	0.0001619425	-1.273911e-06
