!$
! Info: Touchstone file created by Circ.  Input file=Intel_C2M_200G_1p5in_202208016_staggered.circ
!$
# Hz S RI R 50
0	0.01162131	3.803442e-24	-5.166532e-05	6.327177e-21	0.000299171	2.168379e-22	-4.728108e-05	5.790262e-21
	-5.166542e-05	6.327189e-21	0.0110635	1.745268e-24	-5.893626e-05	7.21761e-21	7.302937e-05	2.166827e-22
	0.0002992413	2.169855e-22	-5.893635e-05	7.217622e-21	0.01162253	3.840866e-24	-5.169096e-05	6.330316e-21
	-4.728107e-05	5.790262e-21	7.30879e-05	2.168118e-22	-5.169086e-05	6.330304e-21	0.01106142	1.660539e-24
1e+07	0.0136924	0.002841756	-0.0003089929	-0.0001064718	0.0006427226	0.003859746	-4.06051e-05	-9.994627e-05
	-0.0003089929	-0.0001064718	0.01327182	0.0029561	-0.0002914305	-8.648748e-05	0.0007499453	0.003874946
	0.0006427226	0.003859746	-0.0002914305	-8.648748e-05	0.0135166	0.0029234	-0.0001741179	-0.0001134413
	-4.06051e-05	-9.994627e-05	0.0007499453	0.003874946	-0.0001741179	-0.0001134413	0.0131967	0.002947323
2e+07	0.01613944	0.003901068	-0.0002861394	-0.0002851758	0.001311532	0.007492938	-5.999463e-05	-0.0001727728
	-0.0002861394	-0.0002851758	0.01516192	0.004125573	-0.0002984301	-0.0002697089	0.001431067	0.007417765
	0.001311621	0.007492835	-0.0002984301	-0.0002697089	0.0160519	0.004112472	-0.0001806359	-0.0002377625
	-5.999462e-05	-0.0001727728	0.001431079	0.007417753	-0.0001806359	-0.0002377625	0.01507019	0.004149747
3e+07	0.01823479	0.003885512	-0.0002870111	-0.0004070082	0.002366482	0.01096658	-8.704459e-05	-0.0002447213
	-0.0002870111	-0.0004070082	0.01669684	0.004553563	-0.0003219378	-0.0003943609	0.002372505	0.01094835
	0.002366459	0.01096655	-0.0003219378	-0.0003943609	0.01823005	0.004153234	-0.0002030667	-0.0003446889
	-8.704459e-05	-0.0002447213	0.002372471	0.01094838	-0.0002030667	-0.0003446889	0.01658734	0.004617691
4e+07	0.02031837	0.003497279	-0.0003053939	-0.0005094574	0.003722274	0.0143331	-0.0001252939	-0.0003124841
	-0.0003053939	-0.0005094574	0.01783203	0.004556652	-0.0003599868	-0.0005029964	0.003657705	0.01433274
	0.003722274	0.0143331	-0.0003599868	-0.0005029964	0.02038623	0.003798785	-0.0002385597	-0.0004396259
	-0.0001252939	-0.0003124841	0.003657694	0.01433276	-0.0002385597	-0.0004396259	0.01771506	0.004661831
5e+07	0.02239934	0.002714353	-0.000337869	-0.0005993674	0.005398908	0.01754668	-0.0001708788	-0.0003765654
	-0.000337869	-0.0005993674	0.01865863	0.004368509	-0.0004104323	-0.0006007107	0.005243813	0.01757498
	0.005398912	0.01754669	-0.0004104323	-0.0006007107	0.0225347	0.003035091	-0.0002854899	-0.0005255626
	-0.0001708788	-0.0003765654	0.005243813	0.01757499	-0.0002854899	-0.0005255626	0.0185385	0.004515437
6e+07	0.02444008	0.001600136	-0.0003821746	-0.0006786661	0.007379495	0.02058018	-0.0002230367	-0.0004355029
	-0.0003821746	-0.0006786661	0.01922642	0.004066588	-0.0004717941	-0.0006890406	0.007122135	0.02065476
	0.007379494	0.02058018	-0.0004717941	-0.0006890406	0.02463909	0.001928534	-0.0003426007	-0.0006030987
	-0.0002230367	-0.0004355029	0.007122157	0.02065475	-0.0003426007	-0.0006030987	0.01910668	0.004256358
7e+07	0.02643844	0.0002010282	-0.0004485641	-0.0007433505	0.009647013	0.02340992	-0.0002813155	-0.0004888486
	-0.0004485641	-0.0007433505	0.01955188	0.003713148	-0.0005427661	-0.0007682274	0.009277529	0.02354967
	0.009647014	0.02340992	-0.0005427661	-0.0007682274	0.02669683	0.000526633	-0.0004088004	-0.000672121
	-0.0002813155	-0.0004888486	0.009277532	0.02354967	-0.0004088004	-0.000672121	0.01943612	0.003946669
8e+07	0.02839151	-0.001462156	-0.0005363125	-0.0007906936	0.01218214	0.02601316	-0.0003452061	-0.0005361818
	-0.0005363125	-0.0007906936	0.01965493	0.003368492	-0.0006222247	-0.0008382345	0.01169326	0.02623892
	0.01218214	0.02601316	-0.0006222247	-0.0008382345	0.02870419	-0.001149235	-0.0004830392	-0.0007321826
	-0.000345206	-0.0005361818	0.01169326	0.02623893	-0.0004830392	-0.0007321826	0.01954681	0.003646962
9e+07	0.03028758	-0.003373784	-0.0006278057	-0.0008247792	0.01496441	0.02836936	-0.0004141705	-0.0005771241
	-0.0006278057	-0.0008247792	0.01956575	0.003086276	-0.0007093981	-0.00089922	0.01435182	0.02870316
	0.01496441	0.02836936	-0.0007093981	-0.00089922	0.03064846	-0.003083086	-0.0005678006	-0.0007808091
	-0.0004141705	-0.0005771241	0.01435182	0.02870317	-0.0005678006	-0.0007808091	0.01946864	0.003411076
1e+08	0.03212866	-0.005489253	-0.000718955	-0.0008404117	0.01797382	0.03046022	-0.0004872796	-0.0006110774
	-0.000718955	-0.0008404117	0.01933405	0.002933173	-0.00080334	-0.0009508582	0.01723614	0.03092448
	0.01797382	0.03046022	-0.00080334	-0.0009508582	0.03252669	-0.005235252	-0.0006658051	-0.0008124656
	-0.0004872796	-0.0006110774	0.01723614	0.03092447	-0.0006658051	-0.0008124656	0.01925169	0.003309021
1.1e+08	0.03400423	-0.007926678	-0.0008109443	-0.0008482938	0.0211841	0.03226011	-0.000563119	-0.0006389225
	-0.0008109443	-0.0008482938	0.01906284	0.002782689	-0.0009038584	-0.0009928362	0.02034219	0.03288727
	0.0211841	0.03226011	-0.0009038584	-0.0009928362	0.03441261	-0.007678134	-0.0007637723	-0.0008369789
	-0.000563119	-0.0006389225	0.02034219	0.03288727	-0.0007637723	-0.0008369789	0.0190727	0.003221255
1.2e+08	0.03570448	-0.0106701	-0.0009105043	-0.0008552602	0.02456283	0.03375696	-0.0006432286	-0.0006602507
	-0.0009105043	-0.0008552602	0.01860146	0.002728678	-0.001009635	-0.00102542	0.02360467	0.03456045
	0.02456283	0.03375696	-0.001009635	-0.00102542	0.03613649	-0.01042978	-0.0008673475	-0.0008550508
	-0.0006432286	-0.0006602507	0.02360467	0.03456045	-0.0008673475	-0.0008550508	0.01865974	0.003182081
1.3e+08	0.03723296	-0.01365627	-0.001014178	-0.0008552028	0.0280843	0.03494021	-0.0007274071	-0.0006753166
	-0.001014178	-0.0008552028	0.01801258	0.002825245	-0.00111994	-0.001048388	0.02701168	0.03593989
	0.0280843	0.03494021	-0.00111994	-0.001048388	0.03769042	-0.0134296	-0.0009747598	-0.0008641364
	-0.0007274071	-0.0006753166	0.02701168	0.03593989	-0.0009747598	-0.0008641364	0.01809336	0.003292324
1.4e+08	0.03858073	-0.0168565	-0.001120583	-0.000846702	0.03172074	0.0358004	-0.0008142084	-0.0006825916
	-0.001120583	-0.000846702	0.01733522	0.003092089	-0.001234051	-0.001061572	0.03054286	0.03701884
	0.03172074	0.0358004	-0.001234051	-0.001061572	0.03906211	-0.01664657	-0.001084951	-0.0008636074
	-0.0008142084	-0.0006825916	0.03054286	0.03701884	-0.001084951	-0.0008636074	0.01743161	0.00358116
1.5e+08	0.0397379	-0.02024935	-0.001228644	-0.0008290409	0.03544399	0.03633007	-0.0009030524	-0.0006819049
	-0.001228644	-0.0008290409	0.01660261	0.003542964	-0.001351303	-0.001064765	0.03417489	0.03779018
	0.03544399	0.03633007	-0.001351303	-0.001064765	0.04024151	-0.02005756	-0.001196965	-0.0008530878
	-0.0009030524	-0.0006819049	0.03417489	0.03779018	-0.001196965	-0.0008530878	0.01671666	0.004059772
1.6e+08	0.04069417	-0.02381635	-0.001337324	-0.0008018679	0.03922545	0.03652437	-0.000993286	-0.0006731779
	-0.001337324	-0.0008018679	0.01584598	0.004187838	-0.001471016	-0.001057762	0.03788304	0.03824789
	0.03922545	0.03652437	-0.001471016	-0.001057762	0.04121861	-0.02364337	-0.001309872	-0.0008323962
	-0.000993286	-0.0006731779	0.03788304	0.03824789	-0.001309872	-0.0008323962	0.01598323	0.004734581
1.7e+08	0.04143922	-0.02754051	-0.001445566	-0.0007649212	0.04303609	0.03638034	-0.001084289	-0.0006563395
	-0.001445566	-0.0007649212	0.01509643	0.005033671	-0.001597972	-0.001034345	0.0416418	0.03838735
	0.04303609	0.03638034	-0.001597972	-0.001034345	0.04198385	-0.02738686	-0.00142232	-0.0008013821
	-0.001084289	-0.0006563395	0.0416418	0.03838735	-0.00142232	-0.0008013821	0.01526277	0.005609454
1.8e+08	0.04196323	-0.03140485	-0.001552535	-0.0007182888	0.04684714	0.0358976	-0.001175423	-0.0006313483
	-0.001552535	-0.0007182888	0.0143852	0.006083699	-0.001725104	-0.001000235	0.04542525	0.03820579
	0.04684714	0.0358976	-0.001725104	-0.001000235	0.04252727	-0.03127143	-0.001533842	-0.0007602488
	-0.001175423	-0.0006313483	0.04542525	0.03820578	-0.001533842	-0.0007602488	0.01458566	0.006685541
1.9e+08	0.04225613	-0.03539243	-0.001657357	-0.0006620465	0.05062981	0.03507848	-0.001266081	-0.0005982097
	-0.001657357	-0.0006620465	0.01374408	0.007337684	-0.001851705	-0.0009553926	0.04920736	0.03770278
	0.05062981	0.03507848	-0.001851705	-0.0009553926	0.04283951	-0.03528039	-0.001643541	-0.000709092
	-0.001266081	-0.0005982097	0.04920736	0.03770278	-0.001643541	-0.000709092	0.01398229	0.007961216
2e+08	0.04230948	-0.03948585	-0.001758683	-0.0005964604	0.05435546	0.03392721	-0.001355596	-0.0005569973
	-0.001758683	-0.0005964604	0.01320456	0.008791119	-0.001982089	-0.0008927679	0.05296228	0.03687989
	0.05435546	0.03392721	-0.001982089	-0.0008927679	0.04291099	-0.0393967	-0.001750466	-0.0006480521
	-0.001355596	-0.0005569973	0.05296228	0.03687989	-0.001750466	-0.0006480521	0.01348316	0.009431971
2.1e+08	0.04211476	-0.04366728	-0.001856209	-0.0005218576	0.05799669	0.03245091	-0.00144337	-0.000507801
	-0.001856209	-0.0005218576	0.01279704	0.01043585	-0.00210959	-0.000819407	0.05666433	0.0357407
	0.05799669	0.03245091	-0.00210959	-0.000819407	0.04273398	-0.04360277	-0.001853973	-0.0005774912
	-0.00144337	-0.000507801	0.05666433	0.0357407	-0.001853973	-0.0005774912	0.01311765	0.01108906
2.2e+08	0.04166536	-0.04791845	-0.001949204	-0.0004385872	0.06152643	0.03065882	-0.00152879	-0.0004507531
	-0.001949204	-0.0004385872	0.01255142	0.01225944	-0.002233523	-0.0007354232	0.06028835	0.03429087
	0.06152643	0.03065882	-0.002233523	-0.0007354232	0.04230081	-0.04788038	-0.001953313	-0.0004977246
	-0.00152879	-0.0004507531	0.06028835	0.03429087	-0.001953313	-0.0004977246	0.01291441	0.01292043
2.3e+08	0.04095536	-0.05222052	-0.002036965	-0.0003471288	0.06491866	0.02856227	-0.001611269	-0.0003860603
	-0.002036965	-0.0003471288	0.01249577	0.01424608	-0.002353147	-0.0006411039	0.0638101	0.03253806
	0.06491866	0.02856227	-0.002353147	-0.0006411039	0.04160541	-0.05221069	-0.002047788	-0.0004091735
	-0.001611269	-0.0003860603	0.0638101	0.03253806	-0.002047788	-0.0004091735	0.01290124	0.01491082
2.4e+08	0.03998029	-0.05655461	-0.002118903	-0.0002478829	0.06814899	0.0261751	-0.001690229	-0.0003139731
	-0.002118903	-0.0002478829	0.0126562	0.01637658	-0.002467766	-0.0005367059	0.06720592	0.03049188
	0.06814899	0.0261751	-0.002467766	-0.0005367059	0.04064307	-0.05657461	-0.002136729	-0.0003122646
	-0.001690229	-0.0003139731	0.06720592	0.03049188	-0.002136729	-0.0003122646	0.01310361	0.01704086
2.5e+08	0.03873733	-0.06090146	-0.002194452	-0.0001414322	0.07119417	0.02351284	-0.001765112	-0.0002347186
	-0.002194452	-0.0001414322	0.01305636	0.01862833	-0.002576661	-0.0004225161	0.07045318	0.02816356
	0.07119417	0.02351284	-0.002576661	-0.0004225161	0.03941045	-0.06095265	-0.002219551	-0.0002075206
	-0.001765112	-0.0002347186	0.07045318	0.02816356	-0.002219551	-0.0002075206	0.013545	0.01928877
2.6e+08	0.0372243	-0.0652416	-0.002263097	-2.83245e-05	0.07403255	0.02059279	-0.00183541	-0.0001486673
	-0.002263097	-2.83245e-05	0.01371748	0.02097614	-0.002679166	-0.0002988909	0.07353073	0.02556629
	0.07403255	0.02059279	-0.002679166	-0.0002988909	0.0379054	-0.06532514	-0.002295704	-9.546316e-05
	-0.00183541	-0.0001486673	0.07353073	0.02556629	-0.002295704	-9.546316e-05	0.01424641	0.02162917
2.7e+08	0.03544104	-0.06955562	-0.002324406	9.086273e-05	0.07664439	0.01743422	-0.001900617	-5.608925e-05
	-0.002324406	9.086273e-05	0.014658	0.02339228	-0.002774607	-0.0001663245	0.07641812	0.02271459
	0.07664439	0.01743422	-0.002774607	-0.0001663245	0.03612751	-0.06967245	-0.002364694	2.335675e-05
	-0.001900617	-5.608925e-05	0.07641812	0.02271459	-0.002364694	2.335675e-05	0.01522614	0.02403464
2.8e+08	0.03338866	-0.07382442	-0.002378016	0.000215528	0.07901181	0.01405754	-0.00196026	4.258418e-05
	-0.002378016	0.000215528	0.01589289	0.02584657	-0.002862346	-2.520848e-05	0.0790966	0.01962446
	0.07901181	0.01405754	-0.002862346	-2.520848e-05	0.03407776	-0.07397479	-0.002426096	0.000148318
	-0.00196026	4.258418e-05	0.0790966	0.01962446	-0.002426096	0.000148318	0.016499	0.02647552
2.9e+08	0.03106929	-0.07802857	-0.002423597	0.0003450201	0.08111879	0.01048484	-0.002013912	0.0001469485
	-0.002423597	0.0003450201	0.01743411	0.02830731	-0.002941783	0.000123961	0.08154901	0.01631334
	0.08111879	0.01048484	-0.002941783	0.000123961	0.03175835	-0.07821278	-0.002479536	0.0002788698
	-0.002013912	0.0001469485	0.08154901	0.01631334	-0.002479536	0.0002788698	0.01807692	0.02891981
3e+08	0.02848684	-0.08214929	-0.002460889	0.0004787199	0.08295132	0.006738677	-0.002061195	0.0002565721
	-0.002460889	0.0004787199	0.01928998	0.03074129	-0.00301235	0.000280597	0.08375927	0.0127997
	0.08295132	0.006738677	-0.00301235	0.000280597	0.02917317	-0.08236699	-0.002524683	0.0004143923
	-0.002061195	0.0002565721	0.08375927	0.0127997	-0.002524683	0.0004143923	0.01996832	0.03133456
3.1e+08	0.02564644	-0.08616808	-0.002489721	0.0006159956	0.08449794	0.002843269	-0.002101728	0.000371053
	-0.002489721	0.0006159956	0.02146542	0.0331144	-0.003073479	0.000444176	0.08571333	0.009103071
	0.08449794	0.002843269	-0.003073479	0.000444176	0.02632731	-0.08641871	-0.0025613	0.0005541947
	-0.002101728	0.000371053	0.08571333	0.009103071	-0.0025613	0.0005541947	0.02217803	0.03368513
3.2e+08	0.0225546	-0.09006684	-0.002509936	0.0007562435	0.08574922	-0.001177112	-0.002135198	0.0004898482
	-0.002509936	0.0007562435	0.0239617	0.03539124	-0.003124697	0.0006139632	0.08739885	0.005243915
	0.08574922	-0.001177112	-0.003124697	0.0006139632	0.02322729	-0.09034979	-0.00258916	0.0006976809
	-0.002135198	0.0004898482	0.08739885	0.005243915	-0.00258916	0.0006976809	0.02470674	0.03593695
3.3e+08	0.01921887	-0.09382806	-0.002521445	0.0008988783	0.08669746	-0.005297453	-0.002161302	0.0006124972
	-0.002521445	0.0008988783	0.02677644	0.03753656	-0.003165527	0.0007894143	0.08880477	0.001243488
	0.08669746	-0.005297453	-0.003165527	0.0007894143	0.01988118	-0.09414211	-0.00260811	0.0008442388
	-0.002161302	0.0006124972	0.08880477	0.001243488	-0.00260811	0.0008442388	0.02755206	0.03805412
3.4e+08	0.01564852	-0.0974348	-0.002524165	0.001043749	0.08733804	-0.009492318	-0.002179807	0.0007384796
	-0.002524165	0.001043749	0.02990327	0.03951486	-0.003195561	0.0009697199	0.08992234	-0.00287656
	0.08733804	-0.009492318	-0.003195561	0.0009697199	0.0162979	-0.09777871	-0.002618054	0.0009932766
	-0.002179807	0.0007384796	0.08992234	-0.00287656	-0.002618054	0.0009932766	0.03070749	0.04000174
3.5e+08	0.0118534	-0.100871	-0.002518095	0.001189764	0.08766801	-0.0137367	-0.002190495	0.0008672852
	-0.002518095	0.001189764	0.0333323	0.04129125	-0.003214506	0.001154145	0.09074408	-0.007093908
	0.08766801	-0.0137367	-0.003214506	0.001154145	0.01248808	-0.1012432	-0.002618931	0.001144139
	-0.002190495	0.0008672852	0.09074408	-0.007093908	-0.002618931	0.001144139	0.03416298	0.04174425
3.6e+08	0.007845002	-0.1041217	-0.002503308	0.001336384	0.08768674	-0.01800534	-0.002193223	0.0009983884
	-0.002503308	0.001336384	0.03705009	0.04283119	-0.003222005	0.001342023	0.09126465	-0.01138589
	0.08768674	-0.01800534	-0.003222005	0.001342023	0.008463118	-0.1045201	-0.002610749	0.001296236
	-0.002193223	0.0009983884	0.09126465	-0.01138589	-0.002610749	0.001296236	0.03790456	0.04324772
3.7e+08	0.003635543	-0.1071723	-0.002479843	0.001483117	0.08739584	-0.02227344	-0.002187826	0.001131344
	-0.002479843	0.001483117	0.04103956	0.04410186	-0.003217824	0.001532586	0.09148051	-0.01573001
	0.08739584	-0.02227344	-0.003217824	0.001532586	0.004235431	-0.1075951	-0.002593495	0.001449081
	-0.002187826	0.001131344	0.09148051	-0.01573001	-0.002593495	0.001449081	0.041915	0.04447934
3.8e+08	-0.0007615903	-0.1100092	-0.002447839	0.001629426	0.08679876	-0.02651681	-0.002174234	0.001265567
	-0.002447839	0.001629426	0.04528043	0.04507139	-0.003201813	0.001724974	0.0913895	-0.02010356
	0.08679876	-0.02651681	-0.003201813	0.001724974	-0.000181056	-0.1104544	-0.002567249	0.001602068
	-0.002174234	0.001265567	0.0913895	-0.02010356	-0.002567249	0.001602068	0.0461737	0.04540698
3.9e+08	-0.005332257	-0.1126205	-0.002407435	0.001774849	0.08590134	-0.03071197	-0.002152364	0.001400577
	-0.002407435	0.001774849	0.04974822	0.04570951	-0.003173862	0.001918405	0.09099184	-0.02448384
	0.08590134	-0.03071197	-0.003173862	0.001918405	-0.004772149	-0.1130858	-0.002532112	0.001754702
	-0.002152364	0.001400577	0.09099184	-0.02448384	-0.002532112	0.001754702	0.05065602	0.04600152
4e+08	-0.01006129	-0.114995	-0.002358791	0.001918944	0.08471101	-0.0348363	-0.002122178	0.001535849
	-0.002358791	0.001918944	0.05441598	0.0459884	-0.00313385	0.002112152	0.09028899	-0.02884867
	0.08471101	-0.0348363	-0.00313385	0.002112152	-0.009522195	-0.1154781	-0.002488153	0.001906535
	-0.002122178	0.001535849	0.09028899	-0.02884867	-0.002488153	0.001906535	0.05533509	0.0462346
4.1e+08	-0.01493308	-0.1171225	-0.002302062	0.002061314	0.08323706	-0.03886795	-0.002083682	0.001670887
	-0.002302062	0.002061314	0.05925446	0.04588282	-0.003081889	0.002305293	0.08928414	-0.03317604
	0.08323706	-0.03886795	-0.003081889	0.002305293	-0.01441561	-0.1176211	-0.002435583	0.002057021
	-0.002083682	0.001670887	0.08928414	-0.03317604	-0.002435583	0.002057021	0.06018107	0.04608129
4.2e+08	-0.01993127	-0.1189944	-0.002237449	0.00220157	0.08149048	-0.04278703	-0.00203695	0.00180518
	-0.002237449	0.00220157	0.06423011	0.04536969	-0.003017938	0.002497178	0.08798243	-0.03744467
	0.08149048	-0.04278703	-0.003017938	0.002497178	-0.01943515	-0.1195063	-0.002374528	0.002205772
	-0.00203695	0.00180518	0.08798243	-0.03744467	-0.002374528	0.002205772	0.06516025	0.04551896
4.3e+08	-0.0250389	-0.1206031	-0.002165134	0.002339374	0.07948372	-0.04657406	-0.001981932	0.001938316
	-0.002165134	0.002339374	0.06930811	0.04442928	-0.002942232	0.002686907	0.08639013	-0.04163396
	0.07948372	-0.04657406	-0.002942232	0.002686907	-0.02456436	-0.121126	-0.002305109	0.002352437
	-0.001981932	0.001938316	0.08639013	-0.04163396	-0.002305109	0.002352437	0.070238	0.04452805
4.4e+08	-0.03023888	-0.1219422	-0.002085311	0.002474387	0.07723035	-0.05021154	-0.001918753	0.002069788
	-0.002085311	0.002474387	0.07445163	0.04304479	-0.002854884	0.002873798	0.08451515	-0.0457238
	0.07723035	-0.05021154	-0.002854884	0.002873798	-0.02978515	-0.1224741	-0.002227587	0.002496534
	-0.001918753	0.002069788	0.08451515	-0.0457238	-0.002227587	0.002496534	0.0753769	0.04309205
4.5e+08	-0.03551347	-0.1230071	-0.001998176	0.002606338	0.07474569	-0.05368329	-0.001847555	0.002199117
	-0.001998176	0.002606338	0.07962084	0.041203	-0.002756084	0.003057195	0.08236699	-0.04969518
	0.07474569	-0.05368329	-0.002756084	0.003057195	-0.03507972	-0.1235459	-0.002142167	0.002637735
	-0.001847555	0.002199117	0.08236699	-0.04969518	-0.002142167	0.002637735	0.08053716	0.04119798
4.6e+08	-0.04084487	-0.1237942	-0.001903973	0.002734884	0.07204575	-0.05697494	-0.00176841	0.002325896
	-0.001903973	0.002734884	0.08477461	0.03889386	-0.002646228	0.003236287	0.07995626	-0.0535299
	0.07204575	-0.05697494	-0.002646228	0.003236287	-0.04043016	-0.1243378	-0.002048903	0.00277578
	-0.00176841	0.002325896	0.07995626	-0.0535299	-0.002048903	0.00277578	0.08567818	0.0388361
4.7e+08	-0.04621567	-0.124301	-0.001802822	0.002859817	0.06914731	-0.06007355	-0.001681502	0.002449665
	-0.001802822	0.002859817	0.08987191	0.03611207	-0.002525644	0.00341041	0.07729471	-0.05721118
	0.06914731	-0.06007355	-0.002525644	0.00341041	-0.04581838	-0.1248479	-0.001948117	0.002910287
	-0.001681502	0.002449665	0.07729471	-0.05721118	-0.001948117	0.002910287	0.09075776	0.03600096
4.8e+08	-0.05160737	-0.1245265	-0.001694909	0.002980907	0.06606811	-0.06296793	-0.001586939	0.002570041
	-0.001694909	0.002980907	0.09486939	0.0328545	-0.002394598	0.003579082	0.07439536	-0.06072282
	0.06606811	-0.06296793	-0.002394598	0.003579082	-0.05122616	-0.1250753	-0.001839919	0.003040998
	-0.001586939	0.002570041	0.07439536	-0.06072282	-0.001839919	0.003040998	0.09573322	0.03269069
4.9e+08	-0.05700238	-0.1244712	-0.001580464	0.003097866	0.0628263	-0.06564884	-0.001484889	0.002686651
	-0.001580464	0.003097866	0.09972296	0.02912337	-0.002253622	0.003741615	0.07127226	-0.06405062
