!$
! Info: Touchstone file created by Circ.  Input file=Intel_C2M_200G_1p5in_202208016_staggered.circ
!$
# Hz S RI R 50
0	0.0110635	1.745268e-24	0.9887348	-3.284406e-24	7.302937e-05	2.166827e-22	-0.0002050579	2.511235e-20
	0.9887348	-3.28321e-24	0.01162131	3.803756e-24	-0.000205113	2.51191e-20	0.0002991692	2.168426e-22
	7.30879e-05	2.168118e-22	-0.0002052514	2.513605e-20	0.01106142	1.660539e-24	0.9887351	-3.278161e-24
	-0.0002051962	2.512929e-20	0.0002992395	2.169933e-22	0.9887351	-3.279361e-24	0.01162272	3.839806e-24
1e+07	0.01327182	0.0029561	0.9854008	-0.05107988	0.0007499453	0.003874946	-0.0005977223	-0.000710252
	0.9854008	-0.05107988	0.01343215	0.002847288	-0.0005977729	-0.0007102345	0.0007618712	0.003875246
	0.0007499453	0.003874946	-0.0005977729	-0.0007102345	0.0131967	0.002947323	0.9854785	-0.05104683
	-0.0005977223	-0.000710252	0.0007618712	0.003875246	0.9854785	-0.05104683	0.01335578	0.002838926
2e+07	0.01516192	0.004125573	0.9796312	-0.100202	0.001431067	0.007417765	-0.0008068724	-0.001155508
	0.9796312	-0.100202	0.01595621	0.003996075	-0.0008069711	-0.001155414	0.001420654	0.007474091
	0.001431079	0.007417753	-0.0008069623	-0.001155525	0.01507019	0.004149747	0.9797345	-0.1001816
	-0.000806863	-0.001155613	0.001420742	0.007473988	0.9797345	-0.1001816	0.01585301	0.004028444
3e+07	0.01669684	0.004553563	0.9718725	-0.1481711	0.002372505	0.01094835	-0.001036525	-0.001570932
	0.9718725	-0.1481711	0.01811128	0.003993818	-0.001036678	-0.001570537	0.002466891	0.0109337
	0.002372471	0.01094838	-0.00103672	-0.00157054	0.01658734	0.004617691	0.9719939	-0.1481687
	-0.001036537	-0.001570939	0.002466868	0.01093367	0.9719939	-0.1481687	0.01800125	0.004070129
4e+07	0.01783203	0.004556652	0.9620102	-0.1953327	0.003657705	0.01433274	-0.00129485	-0.001953332
	0.9620102	-0.1953327	0.02024351	0.003596719	-0.001294908	-0.001952568	0.003814297	0.01429056
	0.003657694	0.01433276	-0.001294914	-0.001952565	0.01771506	0.004661831	0.9621444	-0.1953518
	-0.001294853	-0.00195332	0.003814297	0.01429057	0.9621444	-0.1953518	0.02013223	0.003720944
5e+07	0.01865863	0.004368509	0.9500236	-0.2417103	0.005243813	0.01757498	-0.001581349	-0.002300121
	0.9500236	-0.2417103	0.02236337	0.002791775	-0.001581161	-0.002299066	0.005482692	0.01749683
	0.005243813	0.01757499	-0.001581158	-0.002299066	0.0185385	0.004515437	0.9501675	-0.2417539
	-0.001581346	-0.002300122	0.005482695	0.01749684	0.9501675	-0.2417539	0.0222589	0.002966133
6e+07	0.01922642	0.004066588	0.9359293	-0.2872642	0.007122135	0.02065476	-0.001892403	-0.002613047
	0.9359293	-0.2872642	0.02443345	0.001646443	-0.001891873	-0.002611741	0.007455139	0.02052466
	0.007122157	0.02065475	-0.001891871	-0.002611741	0.01910668	0.004256358	0.936079	-0.2873343
	-0.001892401	-0.002613046	0.007455138	0.02052466	0.936079	-0.2873343	0.02434426	0.001871621
7e+07	0.01955188	0.003713148	0.9197551	-0.3319361	0.009277529	0.02354967	-0.002226118	-0.002893993
	0.9197551	-0.3319361	0.02645134	0.0002096066	-0.002225059	-0.002892572	0.009714631	0.02335009
	0.009277532	0.02354967	-0.002224999	-0.002892612	0.01943612	0.003946669	0.919906	-0.3320346
	-0.002226115	-0.002893995	0.009714632	0.02335009	0.919906	-0.3320346	0.02638549	0.0004847704
8e+07	0.01965493	0.003368492	0.9015342	-0.3756592	0.01169326	0.02623892	-0.00258101	-0.003144098
	0.9015342	-0.3756592	0.02841353	-0.00149615	-0.002579303	-0.003142725	0.0122419	0.0259502
	0.01169326	0.02623893	-0.002579304	-0.003142723	0.01954681	0.003646962	0.9016837	-0.3757879
	-0.002581012	-0.003144096	0.0122419	0.0259502	0.9016837	-0.3757879	0.02837883	-0.001172899
9e+07	0.01956575	0.003086276	0.8813031	-0.4183625	0.01435182	0.02870316	-0.002956052	-0.003364052
	0.8813031	-0.4183625	0.03030698	-0.003453984	-0.0029536	-0.003362931	0.01501653	0.02830433
	0.01435182	0.02870317	-0.002953602	-0.003362922	0.01946864	0.003411076	0.8814451	-0.4185233
	-0.002956056	-0.003364044	0.01501653	0.02830433	0.8814451	-0.4185233	0.03031179	-0.00308463
1e+08	0.01933405	0.002933173	0.8590876	-0.4599984	0.01723614	0.03092448	-0.003352067	-0.003555078
	0.8590876	-0.4599984	0.03212739	-0.005620592	-0.003348851	-0.003554482	0.01801877	0.0303942
	0.01723614	0.03092447	-0.00334885	-0.003554483	0.01925169	0.003309021	0.8592169	-0.4601965
	-0.003352066	-0.003555079	0.01801877	0.0303942	0.8592169	-0.4601965	0.03218319	-0.00520582
1.1e+08	0.01906284	0.002782689	0.8348631	-0.5003547	0.02034219	0.03288727	-0.003770364	-0.003704714
	0.8348631	-0.5003547	0.03396274	-0.008082612	-0.003767244	-0.00370448	0.02122253	0.03219325
	0.02034219	0.03288727	-0.003767243	-0.003704481	0.0190727	0.003221255	0.8349657	-0.5005783
	-0.003770363	-0.003704715	0.02122253	0.03219325	0.8349657	-0.5005783	0.03408311	-0.007624589
1.2e+08	0.01860146	0.002728678	0.8088285	-0.5393631	0.02360467	0.03456045	-0.00419495	-0.003824824
	0.8088285	-0.5393631	0.03562975	-0.01084023	-0.004191321	-0.003825034	0.02459469	0.03368978
	0.02360467	0.03456045	-0.00419132	-0.003825036	0.01865974	0.003182081	0.8089053	-0.5396079
	-0.004194949	-0.003824825	0.02459469	0.03368978	0.8089053	-0.5396079	0.03581858	-0.01036145
1.3e+08	0.01801258	0.002825245	0.7810354	-0.5769822	0.02701168	0.03593989	-0.004629906	-0.003916475
	0.7810354	-0.5769822	0.03712699	-0.01383481	-0.004625641	-0.003917882	0.02810973	0.03487332
	0.02701168	0.03593989	-0.004625641	-0.003917883	0.01809336	0.003292324	0.7810865	-0.5772464
	-0.004629906	-0.003916476	0.02810973	0.03487332	0.7810865	-0.5772464	0.03738307	-0.01335001
1.4e+08	0.01733522	0.003092089	0.7515505	-0.6131455	0.03054286	0.03701884	-0.005076075	-0.003979958
	0.7515505	-0.6131455	0.03844486	-0.01703879	-0.005071769	-0.003982757	0.03173996	0.03573441
	0.03054286	0.03701884	-0.005071769	-0.003982758	0.01743161	0.00358116	0.7515736	-0.6134245
	-0.005076074	-0.003979959	0.03173996	0.03573441	0.7515736	-0.6134245	0.03876462	-0.01655785
1.5e+08	0.01660261	0.003542964	0.720444	-0.647785	0.03417489	0.03779018	-0.005533835	-0.00401483
	0.720444	-0.647785	0.03957343	-0.02043136	-0.005529867	-0.004019203	0.03545726	0.03626559
	0.03417489	0.03779018	-0.005529867	-0.004019204	0.01671666	0.004059772	0.7204386	-0.6480754
	-0.005533835	-0.004014831	0.03545726	0.03626559	0.7204386	-0.6480754	0.03995335	-0.01996119
1.6e+08	0.01584598	0.004187838	0.6877891	-0.6808313	0.03788304	0.03824789	-0.006003118	-0.004020393
	0.6877891	-0.6808313	0.0405024	-0.02399448	-0.005999929	-0.004026265	0.03923314	0.03646196
	0.03788304	0.03824789	-0.005999929	-0.004026266	0.01598323	0.004734581	0.6877546	-0.6811313
	-0.006003118	-0.004020394	0.03923314	0.03646196	0.6877546	-0.6811313	0.04093938	-0.02354044
1.7e+08	0.01509643	0.005033671	0.6536633	-0.7122208	0.0416418	0.03838735	-0.006483562	-0.003995763
	0.6536633	-0.7122208	0.04122163	-0.02771148	-0.006481575	-0.004002854	0.04303857	0.03632051
	0.0416418	0.03838735	-0.006481575	-0.004002855	0.01526277	0.005609454	0.6535992	-0.7125278
	-0.006483562	-0.003995764	0.04303857	0.03632051	0.6535992	-0.7125278	0.04171328	-0.02727821
1.8e+08	0.0143852	0.006083699	0.6181472	-0.7418922	0.04542525	0.03820579	-0.006974617	-0.003939911
	0.6181472	-0.7418922	0.04172147	-0.0315657	-0.006974101	-0.003947972	0.04684484	0.03584082
	0.04542525	0.03820578	-0.006974101	-0.003947973	0.01458566	0.006685541	0.6180528	-0.7422034
	-0.006974617	-0.003939911	0.04684484	0.03584082	0.6180528	-0.7422034	0.04226514	-0.03115773
1.9e+08	0.01374408	0.007337684	0.5813248	-0.7697852	0.04920736	0.03770278	-0.007475691	-0.00385134
	0.5813248	-0.7697852	0.04199204	-0.03554048	-0.007476839	-0.003860094	0.05062323	0.03502519
	0.04920736	0.03770278	-0.007476839	-0.003860094	0.01398229	0.007961216	0.5812018	-0.770099
	-0.007475691	-0.00385134	0.05062323	0.03502519	0.5812018	-0.770099	0.04258567	-0.03516219
2e+08	0.01320456	0.008791119	0.5432827	-0.7958444	0.05296228	0.03687989	-0.007985863	-0.003728487
	0.5432827	-0.7958444	0.04202505	-0.0396187	-0.007988755	-0.003737817	0.05434513	0.03387774
	0.05296228	0.03687989	-0.007988755	-0.003737817	0.01348316	0.009431971	0.5431292	-0.7961581
	-0.007985863	-0.003728487	0.05434513	0.03387774	0.5431292	-0.7961581	0.04266541	-0.03927446
2.1e+08	0.01279704	0.01043585	0.5041101	-0.82002	0.05666433	0.0357407	-0.00850397	-0.003569964
	0.5041101	-0.82002	0.04181214	-0.04378281	-0.008508816	-0.00357941	0.05798315	0.03240559
	0.05666433	0.0357407	-0.008508816	-0.00357941	0.01311765	0.01108906	0.5039269	-0.8203308
	-0.00850397	-0.003569964	0.05798315	0.03240559	0.5039269	-0.8203308	0.04249664	-0.04347696
2.2e+08	0.01255142	0.01225944	0.4638983	-0.8422642	0.06028835	0.03429087	-0.009028601	-0.003373688
	0.4638983	-0.8422642	0.04134688	-0.04801481	-0.00903542	-0.003383114	0.06151027	0.0306179
	0.06028835	0.03429087	-0.00903542	-0.003383114	0.01291441	0.01292043	0.4636855	-0.84257
	-0.009028601	-0.003373688	0.06151027	0.0306179	0.4636855	-0.84257	0.04207173	-0.04775137
2.3e+08	0.01249577	0.01424608	0.422742	-0.862532	0.0638101	0.03253806	-0.00955778	-0.003138222
	0.422742	-0.862532	0.04062344	-0.05229612	-0.009566808	-0.003147167	0.06490047	0.02852591
	0.0638101	0.03253806	-0.009566808	-0.003147167	0.01290124	0.01491082	0.4224991	-0.8628315
	-0.00955778	-0.003138222	0.06490047	0.02852591	0.4224991	-0.8628315	0.04138464	-0.05207888
2.4e+08	0.0126562	0.01637658	0.3807359	-0.8807873	0.06720592	0.03049188	-0.01008968	-0.002861367
	0.3807359	-0.8807873	0.03963743	-0.05660816	-0.01010085	-0.002869706	0.06812939	0.02614341
	0.06720592	0.03049188	-0.01010085	-0.002869706	0.01310361	0.01704086	0.3804645	-0.8810787
	-0.01008968	-0.002861368	0.06812939	0.02614341	0.3804645	-0.8810787	0.0404307	-0.05644042
2.5e+08	0.01305636	0.01862833	0.3379797	-0.8969967	0.07045318	0.02816356	-0.01062179	-0.002541423
	0.3379797	-0.8969967	0.03838618	-0.06093198	-0.01063504	-0.002548813	0.07117377	0.02348588
	0.07045318	0.02816356	-0.01063504	-0.002548813	0.013545	0.01928877	0.3376784	-0.8972767
	-0.01062179	-0.002541423	0.07117377	0.02348588	0.3376784	-0.8972767	0.03920662	-0.06081646
2.6e+08	0.01371748	0.02097614	0.2945706	-0.9111306	0.07353073	0.02556629	-0.01115139	-0.002176988
	0.2945706	-0.9111306	0.03686752	-0.06524836	-0.01116675	-0.002182835	0.07401199	0.02057051
	0.07353073	0.02556629	-0.01116675	-0.002182835	0.01424641	0.02162917	0.2942417	-0.9113962
	-0.01115139	-0.002176988	0.07401199	0.02057051	0.2942417	-0.9113962	0.03771025	-0.06518742
2.7e+08	0.014658	0.02339228	0.2506089	-0.9231639	0.07641812	0.02271459	-0.01167541	-0.00176649
	0.2506089	-0.9231639	0.03508129	-0.06953823	-0.0116927	-0.001770685	0.07662423	0.01741653
	0.07641812	0.02271459	-0.0116927	-0.001770685	0.01522614	0.02403464	0.2502527	-0.9234145
	-0.01167541	-0.00176649	0.07662423	0.01741653	0.2502527	-0.9234145	0.03594117	-0.06953365
2.8e+08	0.01589289	0.02584657	0.2061957	-0.9330783	0.0790966	0.01962446	-0.01219036	-0.001308864
	0.2061957	-0.9330783	0.03302864	-0.07378272	-0.01220948	-0.001310811	0.07899268	0.01404428
	0.0790966	0.01962446	-0.01220948	-0.001310811	0.016499	0.02647552	0.205813	-0.9333117
	-0.01219036	-0.001308864	0.07899268	0.01404428	0.205813	-0.9333117	0.03390038	-0.07383541
2.9e+08	0.01743411	0.02830731	0.1614332	-0.9408601	0.08154901	0.01631334	-0.0126926	-0.0008026644
	0.1614332	-0.9408601	0.03071162	-0.07796275	-0.01271341	-0.0008022695	0.08110126	0.01047577
	0.08154901	0.01631334	-0.01271341	-0.0008022697	0.01807692	0.02891981	0.1610251	-0.9410742
	-0.0126926	-0.0008026646	0.08110126	0.01047577	0.1610251	-0.9410742	0.03159009	-0.07807335
3e+08	0.01928998	0.03074129	0.1164229	-0.9464986	0.08375927	0.0127997	-0.01317821	-0.0002476647
	0.1164229	-0.9464986	0.02813414	-0.08205974	-0.0132005	-0.0002446093	0.08293591	0.0067335
	0.08375927	0.0127997	-0.0132005	-0.0002446095	0.01996832	0.03133456	0.11599	-0.9466909
	-0.01317821	-0.0002476647	0.08293591	0.0067335	0.11599	-0.9466909	0.02901412	-0.0822281
3.1e+08	0.02146542	0.0331144	0.07126531	-0.9499907	0.08571333	0.009103071	-0.01364312	0.0003563817
	0.07126531	-0.9499907	0.02530124	-0.08605552	-0.01366639	0.0003626663	0.08448517	0.002841634
	0.08571333	0.009103071	-0.01366639	0.0003626663	0.02217803	0.03368513	0.07081071	-0.9501576
	-0.01364312	0.0003563817	0.08448517	0.002841634	0.07081071	-0.9501576	0.02617757	-0.08628096
3.2e+08	0.0239617	0.03539124	0.0260647	-0.9513355	0.08739885	0.005243915	-0.01408298	0.001009391
	0.0260647	-0.9513355	0.02221929	-0.08993218	-0.01410694	0.001019199	0.08573952	-0.001175593
	0.08739885	0.005243915	-0.01410694	0.001019199	0.02470674	0.03593695	0.0255874	-0.9514772
	-0.01408298	0.001009391	0.08573952	-0.001175593	0.0255874	-0.9514772	0.02308691	-0.09021384
3.3e+08	0.02677644	0.03753656	-0.01908016	-0.9505379	0.08880477	0.001243488	-0.01449331	0.001711138
	-0.01908016	-0.9505379	0.01889574	-0.09367252	-0.01451767	0.001724116	0.08669128	-0.005293285
	0.08880477	0.001243488	-0.01451767	0.001724116	0.02755206	0.03805412	-0.01957674	-0.9506522
	-0.01449331	0.001711138	0.08669128	-0.005293285	-0.01957674	-0.9506522	0.01975018	-0.09400865
3.4e+08	0.02990327	0.03951486	-0.06406595	-0.9476077	0.08992234	-0.00287656	-0.01486965	0.002460037
	-0.06406595	-0.9476077	0.0153397	-0.09725977	-0.01489386	0.002476913	0.0873357	-0.009485983
	0.08992234	-0.00287656	-0.01489386	0.002476913	0.03070749	0.04000174	-0.06458264	-0.9476948
	-0.01486965	0.002460037	0.0873357	-0.009485983	-0.06458264	-0.9476948	0.01617626	-0.09764847
3.5e+08	0.0333323	0.04129125	-0.1087961	-0.9425609	0.09074408	-0.007093908	-0.01520755	0.003254917
	-0.1087961	-0.9425609	0.01156085	-0.1006782	-0.01523106	0.003275828	0.08766981	-0.01372877
	0.09074408	-0.007093908	-0.01523106	0.003275828	0.03416298	0.04174425	-0.1093276	-0.9426166
	-0.01520755	0.003254917	0.08766981	-0.01372877	-0.1093276	-0.9426166	0.01237565	-0.101117
3.6e+08	0.03705009	0.04283119	-0.1531696	-0.935416	0.09126465	-0.01138589	-0.01550252	0.004093879
	-0.1531696	-0.935416	0.007570488	-0.1039128	-0.01552504	0.004118626	0.08769291	-0.01799637
	0.09126465	-0.01138589	-0.01552504	0.004118626	0.03790456	0.04324772	-0.1537149	-0.9354395
	-0.01550252	0.004093879	0.08769291	-0.01799637	-0.1537149	-0.9354395	0.008359777	-0.1043985
3.7e+08	0.04103956	0.04410186	-0.1970903	-0.9261957	0.09148051	-0.01573001	-0.01575036	0.004974204
	-0.1970903	-0.9261957	0.003380626	-0.1069492	-0.01577126	0.005003087	0.08740655	-0.02226405
	0.09148051	-0.01573001	-0.01577126	0.005003087	0.041915	0.04447934	-0.1976484	-0.9261869
	-0.01575036	0.004974204	0.08740655	-0.02226405	-0.1976484	-0.9261869	0.004140951	-0.107479
3.8e+08	0.04528043	0.04507139	-0.240464	-0.9149288	0.0913895	-0.02010356	-0.01594671	0.005893751
	-0.240464	-0.9149288	-0.0009955611	-0.1097742	-0.01596568	0.005926046	0.08681408	-0.02650761
	0.0913895	-0.02010356	-0.01596568	0.005926046	0.0461737	0.04540698	-0.2410309	-0.9148849
	-0.01594671	0.005893751	0.08681408	-0.02650761	-0.2410309	-0.9148849	-0.0002669859	-0.1103446
3.9e+08	0.04974822	0.04570951	-0.2831944	-0.9016474	0.09099184	-0.02448384	-0.01608803	0.006848305
	-0.2831944	-0.9016474	-0.005544154	-0.1123757	-0.01610413	0.006884774	0.08592132	-0.0307036
	0.09099184	-0.02448384	-0.01610413	0.006884774	0.05065602	0.04600152	-0.2837686	-0.9015707
	-0.01608803	0.006848305	0.08592132	-0.0307036	-0.2837686	-0.9015707	-0.004849897	-0.1129831
4e+08	0.05441598	0.0459884	-0.3251884	-0.88639	0.09028899	-0.02884867	-0.01617031	0.007834747
	-0.3251884	-0.88639	-0.01025021	-0.1147428	-0.01618335	0.007874762	0.0847356	-0.03482941
	0.09028899	-0.02884867	-0.01618335	0.007874762	0.05533509	0.0462346	-0.325768	-0.886277
	-0.01617031	0.007834747	0.0847356	-0.03482941	-0.325768	-0.886277	-0.009592234	-0.1153832
4.1e+08	0.05925446	0.04588282	-0.3663594	-0.869194	0.08928414	-0.03317604	-0.01619023	0.008849102
	-0.3663594	-0.869194	-0.01509844	-0.1168653	-0.0161997	0.008892233	0.08326611	-0.03886318
	0.08928414	-0.03317604	-0.0161997	0.008892233	0.06018107	0.04608129	-0.3669432	-0.8690452
	-0.01619023	0.008849102	0.08326611	-0.03886318	-0.3669432	-0.8690452	-0.01447847	-0.1175349
4.2e+08	0.06423011	0.04536969	-0.4066173	-0.850107	0.08798243	-0.03744467	-0.01614518	0.009886478
	-0.4066173	-0.850107	-0.02007267	-0.1187346	-0.01615033	0.009932641	0.08152381	-0.04278498
	0.08798243	-0.03744467	-0.01615033	0.009932641	0.06516025	0.04551896	-0.4072012	-0.8499223
	-0.01614518	0.009886478	0.08152381	-0.04278498	-0.4072012	-0.8499223	-0.01949145	-0.1194293
4.3e+08	0.06930811	0.04442928	-0.4458783	-0.8291762	0.08639013	-0.04163396	-0.01603216	0.0109427
	-0.4458783	-0.8291762	-0.02515624	-0.1203432	-0.0160329	0.01099137	0.07952104	-0.04657533
	0.08639013	-0.04163396	-0.0160329	0.01099137	0.070238	0.04452805	-0.4464609	-0.8289553
	-0.01603216	0.0109427	0.07952104	-0.04657533	-0.4464609	-0.8289553	-0.0246148	-0.1210591
4.4e+08	0.07445163	0.04304479	-0.4840607	-0.8064532	0.08451515	-0.0457238	-0.01584922	0.01201263
	-0.4840607	-0.8064532	-0.03033228	-0.1216847	-0.01584481	0.01206349	0.07727135	-0.05021674
	0.08451515	-0.0457238	-0.01584481	0.01206349	0.0753769	0.04309205	-0.4846391	-0.8061965
	-0.01584922	0.01201263	0.07727135	-0.05021674	-0.4846391	-0.8061965	-0.02983051	-0.1224179
4.5e+08	0.07962084	0.041203	-0.5210822	-0.7819948	0.08236699	-0.04969518	-0.01559466	0.01309115
	-0.5210822	-0.7819948	-0.03558332	-0.1227543	-0.01558476	0.01314378	0.07478994	-0.05369291
	0.08236699	-0.04969518	-0.01558476	0.01314378	0.08053716	0.04119798	-0.5216546	-0.7817026
	-0.01559466	0.01309115	0.07478994	-0.05369291	-0.5216546	-0.7817026	-0.03512084	-0.1235009
4.6e+08	0.08477461	0.03889386	-0.5568656	-0.7558605	0.07995626	-0.0535299	-0.01526686	0.01417332
	-0.5568656	-0.7558605	-0.04089178	-0.1235487	-0.01525148	0.01422698	0.07209279	-0.0569895
	0.07995626	-0.0535299	-0.01525148	0.01422698	0.08567818	0.0388361	-0.5574303	-0.7555319
	-0.01526686	0.01417332	0.07209279	-0.0569895	-0.5574303	-0.7555319	-0.04046796	-0.1243046
4.7e+08	0.08987191	0.03611207	-0.5913411	-0.7281128	0.07729471	-0.05721118	-0.01486559	0.01525329
	-0.5913411	-0.7281128	-0.04624052	-0.1240649	-0.01484417	0.01530757	0.06919663	-0.06009349
	0.07729471	-0.05721118	-0.01484417	0.01530757	0.09075776	0.03600096	-0.5918941	-0.727748
	-0.01486559	0.01525329	0.06919663	-0.06009349	-0.5918941	-0.727748	-0.04585383	-0.124827
4.8e+08	0.09486939	0.0328545	-0.6244342	-0.6988141	0.07439536	-0.06072282	-0.01438995	0.01632632
	-0.6244342	-0.6988141	-0.05161127	-0.124302	-0.01436265	0.01638024	0.06611911	-0.06299365
	0.07439536	-0.06072282	-0.01436265	0.01638024	0.09573322	0.03269069	-0.6249754	-0.698416
	-0.01438995	0.01632632	0.06611911	-0.06299365	-0.6249754	-0.698416	-0.05126036	-0.125067
4.9e+08	0.09972296	0.02912337	-0.6560762	-0.6680373	0.07127226	-0.06405062	-0.01384073	0.01738651
	-0.6560762	-0.6680373	-0.05698663	-0.1242605	-0.01380703	0.01743978	0.06287837	-0.06568067
	0.07127226	-0.06405062	-0.01380703	0.01743978	0.1005605	0.02890708	-0.656605	-0.667604
	-0.01384073	0.01738651	0.06287837	-0.06568067	-0.656605	-0.667604	-0.05666966	-0.1250252
5e+08	0.1043901	0.02492467	-0.6862082	-0.6358508	0.06793992	-0.06718101	-0.01321769	0.01842899
	-0.6862082	-0.6358508	-0.06234972	-0.1239415	-0.01317803	0.01848072	0.05949276	-0.06814675
	0.06793992	-0.06718101	-0.01317803	0.01848072	0.1051964	0.0246565	-0.6867194	-0.6353847
	-0.01321769	0.01842899	0.05949276	-0.06814675	-0.6867194	-0.6353847	-0.06206407	-0.1247036
5.1e+08	0.1088264	0.02026756	-0.7147647	-0.6023283	0.06441429	-0.0701016	-0.01252268	0.01944827
	-0.7147647	-0.6023283	-0.06768299	-0.1233478	-0.01247699	0.01949778	0.05598086	-0.07038599
	0.06441429	-0.0701016	-0.01247699	0.01949778	0.1095973	0.01994875	-0.7152591	-0.6018309
	-0.01252268	0.01944827	0.05598086	-0.07038599	-0.7152591	-0.6018309	-0.06742628	-0.124105
5.2e+08	0.1129891	0.01516626	-0.7416896	-0.5675481	0.06071127	-0.07280231	-0.01175653	0.02043947
	-0.7416896	-0.5675481	-0.07296986	-0.1224834	-0.0117046	0.02048636	0.05236157	-0.07239416
	0.06071127	-0.07280231	-0.0117046	0.02048636	0.1137202	0.01479786	-0.7421645	-0.567018
	-0.01175653	0.02043947	0.05236157	-0.07239416	-0.7421645	-0.567018	-0.07273927	-0.1232337
