# GHz S RI R 45
0.000     0.028512598000    0.000000000000    0.000000576496    0.000000000000    0.000758619270    -0.000000000000    -0.000009180703    0.000000000000
            0.000000576566    0.000000000000    0.028330068000    0.000000000000    0.000001072701    0.000000000000    0.000478796670    0.000000000000
            0.000758619280    -0.000000000000    0.000001072825    0.000000000000    0.028349244000    0.000000000000    -0.000031590431    0.000000000000
            -0.000009180683    0.000000000000    0.000478797870    0.000000000000    -0.000031590393    0.000000000000    0.028157388000    0.000000000000
0.025     0.035141671607    0.007605543081    -0.000021290119    -0.000058376006    0.003674287198    0.010127944682    -0.000019533785    -0.000055355157
            -0.000021290124    -0.000058376021    0.033270763028    0.008306301370    -0.000021347553    -0.000061351464    0.002325657466    0.011461994770
            0.003674270953    0.010127994190    -0.000021347391    -0.000061351482    0.035097036606    0.007590427354    -0.000012870077    -0.000043545366
            -0.000019533694    -0.000055355179    0.002325533864    0.011461826998    -0.000012870123    -0.000043545354    0.033266857442    0.008371899884
0.050     0.043803386107    0.007733899896    -0.000062437223    -0.000097423184    0.011547033379    0.017299888311    -0.000059321902    -0.000104035482
            -0.000062437188    -0.000097423242    0.037835313474    0.011090448285    -0.000064705201    -0.000102876220    0.007327311054    0.021389542508
            0.011547024379    0.017299900330    -0.000064705139    -0.000102876201    0.043770748711    0.007716506499    -0.000045766451    -0.000111948102
            -0.000059321796    -0.000104035508    0.007327341018    0.021389530129    -0.000045766462    -0.000111948076    0.037822374882    0.011055782973
0.075     0.052738541865    0.002508892438    -0.000118700795    -0.000118482843    0.022246767895    0.019304292837    -0.000120985111    -0.000131457916
            -0.000118700775    -0.000118482906    0.041466078916    0.011843067646    -0.000124200558    -0.000125188137    0.014423815870    0.028715751913
            0.022246761249    0.019304295919    -0.000124200428    -0.000125188181    0.052741219778    0.002486868951    -0.000115834758    -0.000152068124
            -0.000120985075    -0.000131457923    0.014423822281    0.028715750931    -0.000115834799    -0.000152068068    0.041349528521    0.011796445208
0.100     0.059458964143    -0.008317216866    -0.000184097096    -0.000117282785    0.032882011416    0.015280016571    -0.000194291451    -0.000133006441
            -0.000184097055    -0.000117282849    0.043600387397    0.011008866659    -0.000193284268    -0.000123808651    0.022251210769    0.033021090540
            0.032882011149    0.015280017145    -0.000193284118    -0.000123808793    0.059520946387    -0.008357188638    -0.000201768569    -0.000159235687
            -0.000194291381    -0.000133006543    0.022251211345    0.033021090152    -0.000201768549    -0.000159235728    0.043380137721    0.011039593806
0.125     0.061104390455    -0.023501989768    -0.000251525951    -0.000092178358    0.040473897156    0.005767675914    -0.000270465156    -0.000106960578
            -0.000251525906    -0.000092178392    0.043541975993    0.009504596103    -0.000264338710    -0.000097119288    0.029450324451    0.034547682880
            0.040473897156    0.005767675914    -0.000264338640    -0.000097119419    0.061245909993    -0.023586819520    -0.000291209547    -0.000132726446
            -0.000270465090    -0.000106960662    0.029450326351    0.034547683888    -0.000291209579    -0.000132726399    0.043269208718    0.009678321766
0.150     0.055598240380    -0.040588840917    -0.000314463125    -0.000043334777    0.042562081333    -0.007379501307    -0.000341711720    -0.000053538063
            -0.000314463135    -0.000043334778    0.041040490058    0.008585501211    -0.000330394764    -0.000045383943    0.034961352370    0.034105571452
            0.042562081333    -0.007379501307    -0.000330394691    -0.000045384109    0.055830383231    -0.040758227436    -0.000374562942    -0.000073708217
            -0.000341711700    -0.000053538121    0.034961343554    0.034105574761    -0.000374562997    -0.000073708092    0.040793088913    0.008934301735
0.175     0.042065177685    -0.056105024433    -0.000366821322    0.000028481758    0.037701312194    -0.021329637803    -0.000400649676    0.000026100345
            -0.000366821317    0.000028481694    0.036517641691    0.009569534356    -0.000385016275    0.000030393936    0.038215870931    0.032881542540
            0.037701312194    -0.021329637803    -0.000385016246    0.000030393798    0.042380461651    -0.056409056743    -0.000443031559    0.000015475416
            -0.000400649670    0.000026100275    0.038215872447    0.032881543844    -0.000443031579    0.000015475416    0.036384888615    0.010077385752
0.200     0.021314245396    -0.066363585029    -0.000402072845    0.000121852908    0.025827545487    -0.032774659663    -0.000439687718    0.000129815333
            -0.000402072845    0.000121852908    0.030978287849    0.013518912976    -0.000421440567    0.000128550983    0.039268839980    0.032191953231
            0.025827545487    -0.032774659663    -0.000421440567    0.000128550983    0.021680885456    -0.066853387767    -0.000488251938    0.000131644588
            -0.000439687718    0.000129815333    0.039268833377    0.032191958131    -0.000488251938    0.000131644588    0.031032284526    0.014124122006
0.225     -0.004215525320    -0.068196949007    -0.000412567151    0.000233795165    0.008383414421    -0.038562275600    -0.000450366930    0.000253484008
            -0.000412567151    0.000233795165    0.025889556663    0.020975612348    -0.000431796767    0.000245825399    0.038798597166    0.033179239314
            0.008383414421    -0.038562275600    -0.000431796860    0.000245824953    -0.003856149926    -0.068912927333    -0.000501210750    0.000269486818
            -0.000450367029    0.000253483547    0.038798601183    0.033179239232    -0.000501210686    0.000269487234    0.026165818785    0.021583411960
0.250     -0.030752322385    -0.059664547672    -0.000390092907    0.000358191591    -0.011834232968    -0.036371581634    -0.000424156261    0.000389673047
            -0.000390092907    0.000358191591    0.022921493437    0.031787988443    -0.000407689199    0.000375795771    0.037973467089    0.036539615264
            -0.011834232968    -0.036371581634    -0.000407689199    0.000375795771    -0.030481086379    -0.060622237349    -0.000473098345    0.000420550054
            -0.000424156275    0.000389673061    0.037973471802    0.036539614693    -0.000473098353    0.000420550060    0.023404409345    0.032293142161
0.275     -0.053815062514    -0.040579410201    -0.000327653382    0.000484597976    -0.031132282554    -0.025277954171    -0.000354268470    0.000526546781
            -0.000327653387    0.000484597984    0.023612940656    0.045028234231    -0.000341966020    0.000507604220    0.038187199507    0.042323265407
            -0.031132282554    -0.025277954171    -0.000341966020    0.000507604220    -0.053723600092    -0.041758010852    -0.000397041020    0.000571812586
            -0.000354268748    0.000526546401    0.038187203801    0.042323264226    -0.000397041026    0.000571812595    0.024235371546    0.045339932884
0.300     -0.069052372881    -0.012749215764    -0.000222317276    0.000598587328    -0.045629947889    -0.006075917421    -0.000238470112    0.000648552830
            -0.000222317279    0.000598587338    0.029011242848    0.059111641222    -0.000231651974    0.000626320643    0.040728417574    0.049896300729
            -0.045629947889    -0.006075917421    -0.000231651970    0.000626320634    -0.069225924609    -0.014085180130    -0.000270946110    0.000706596508
            -0.000238470112    0.000648552830    0.040728422322    0.049896299435    -0.000270946110    0.000706596508    0.029665947860    0.059179071305
0.325     -0.073133001999    0.020224817655    -0.000077599876    0.000683926578    -0.052056937140    0.018773380602    -0.000081323934    0.000738705806
            -0.000077599876    0.000683926578    0.039391545203    0.072059999871    -0.000080408206    0.000715125155    0.046455863099    0.058061625291
            -0.052056937140    0.018773380602    -0.000080408206    0.000715125155    -0.073629339918    0.018834314407    -0.000099884067    0.000806714432
            -0.000081323934    0.000738705806    0.046455867153    0.058061622048    -0.000099884066    0.000806714422    0.039953781019    0.071888277114
0.350     -0.064479072613    0.053541025342    0.000095784844    0.000726357259    -0.048455598647    0.045572880078    0.000105342620    0.000782507710
            0.000095784841    0.000726357240    0.054141654498    0.081909111368    0.000100669085    0.000759212557    0.055592083703    0.065337919279
            -0.048455598647    0.045572880078    0.000100668205    0.000759212229    -0.065310999142    0.052224766114    0.000103480256    0.000856650516
            0.000105342619    0.000782507700    0.055592087124    0.065337916368    0.000103480255    0.000856650506    0.054497816608    0.081562818800
0.375     -0.043620210853    0.082071961728    0.000281612785    0.000717105269    -0.034578469030    0.070089146716    0.000304311347    0.000771336769
            0.000281612789    0.000717105279    0.071847239366    0.087100309404    0.000294735294    0.000749407859    0.067665550089    0.070281751463
            -0.034578469030    0.070089146716    0.000294735291    0.000749407849    -0.044744342427    0.080963635882    0.000320699380    0.000847032700
            0.000304310908    0.000771336684    0.067665552382    0.070281746479    0.000320699384    0.000847032710    0.071921745008    0.086693144397
0.400     -0.013127695241    0.101287433674    0.000461685861    0.000655024439    -0.011925854749    0.088336208444    0.000496684387    0.000704449621
            0.000461685861    0.000655024439    0.090565587761    0.086802454226    0.000482833415    0.000684436209    0.081631372341    0.071795532072
            -0.011925854749    0.088336208444    0.000482833409    0.000684436201    -0.014444222529    0.100500987799    0.000531488062    0.000776823081
            0.000496684387    0.000704449621    0.081631368592    0.071795521194    0.000531488062    0.000776823081    0.090339856174    0.086475624701
0.425     0.022845065271    0.108005375911    0.000619712965    0.000546163424    0.016557097280    0.097231993560    0.000665742710    0.000588337753
            0.000619712965    0.000546163424    0.108186817907    0.081044289896    0.000647904649    0.000570530006    0.096081508693    0.069314234948
            0.016557097280    0.097231993560    0.000647904649    0.000570530006    0.021481916436    0.107611974222    0.000717690729    0.000652724759
            0.000665742725    0.000588337766    0.096081503003    0.069314225744    0.000717690725    0.000652724778    0.107706885945    0.080939168659
0.450     0.059239351247    0.100860818692    0.000744272032    0.000401577033    0.046977896020    0.095045161566    0.000799839263    0.000434394692
            0.000744272032    0.000401577033    0.122811510797    0.070689978249    0.000777907522    0.000419220101    0.109511859844    0.062889760475
            0.046977896020    0.095045161566    0.000777907513    0.000419220096    0.058002725204    0.100871219922    0.000866464126    0.000486788631
            0.000799839254    0.000434394687    0.109511860941    0.062889758563    0.000866464126    0.000486788631    0.122182356516    0.070919932511
0.475     0.090832372056    0.080450715521    0.000829839713    0.000234067961    0.075058641164    0.081585822374    0.000893260763    0.000255611312
            0.000829839703    0.000234067958    0.133042978975    0.057258805680    0.000866959552    0.000243965326    0.120554597377    0.053153920769
            0.075058641164    0.081585822374    0.000866958798    0.000243965865    0.089898584779    0.080806553419    0.000971243000    0.000292987528
            0.000893260381    0.000255611591    0.120554590082    0.053153912527    0.000971243000    0.000292987528    0.132413500129    0.057887637032
0.500     0.112928597021    0.049235581278    0.000876221205    0.000055248450    0.096683079827    0.058222357686    0.000945519824    0.000063673207
            0.000876221205    0.000055248450    0.138191151697    0.042678690229    0.000914821423    0.000057077471    0.128189080477    0.041226581347
            0.096683079827    0.058222357686    0.000914821423    0.000057077470    0.112450285526    0.049808488218    0.001031136926    0.000084077134
            0.000945519824    0.000063673205    0.128189080477    0.041226581347    0.001031136926    0.000084077132    0.137730878094    0.043704225098
0.525     0.121945082674    0.011248306470    0.000886514279    -0.000126536492    0.108385956122    0.027751683650    0.000959238953    -0.000132976836
            0.000886514279    -0.000126536490    0.138356304797    0.028989266983    0.000924831475    -0.000132523081    0.131889754906    0.028555104898
            0.108385956122    0.027751683650    0.000924831475    -0.000132523081    0.122024995053    0.011849803174    0.001048747370    -0.000130506395
            0.000959238988    -0.000132976803    0.131889755404    0.028555102596    0.001048747370    -0.000130506395    0.138228285341    0.030338819292
0.550     0.115901828632    -0.028331780404    0.000864611805    -0.000306911239    0.107823954702    -0.005838095618    0.000937639139    -0.000329686990
            0.000864611805    -0.000306911239    0.134431207902    0.018051604306    0.000901296550    -0.000320127951    0.131746265036    0.016722622647
            0.107823954702    -0.005838095618    0.000901296541    -0.000320127948    0.116568922446    -0.027932553055    0.001027530741    -0.000345376181
            0.000937639129    -0.000329686987    0.131746265269    0.016722620807    0.001027531093    -0.000345377018    0.134762083125    0.019586370572
0.575     0.094793894659    -0.063745384370    0.000812477543    -0.000484644826    0.094195493967    -0.037750401972    0.000881943961    -0.000524603029
            0.000812477543    -0.000484644826    0.127994856292    0.011254684801    0.000846608183    -0.000504469066    0.128498453448    0.007194459083
            0.094195493967    -0.037750401972    0.000846608175    -0.000504469060    0.095985557620    -0.063792624056    0.000969022016    -0.000558224603
            0.000881943961    -0.000524603029    0.128498453574    0.007194456840    0.000969022016    -0.000558224603    0.128849225965    0.012787177399
0.600     0.060813944302    -0.089381505761    0.000728418114    -0.000659353502    0.068587880914    -0.062959450667    0.000789834650    -0.000716286900
            0.000728418103    -0.000659353515    0.121120248698    0.009256193703    0.000759328190    -0.000685372522    0.123493401674    0.001042280113
            0.068587880914    -0.062959450667    0.000759328190    -0.000685372522    0.062368734504    -0.090096056146    0.000871070102    -0.000767405106
            0.000789834655    -0.000716286000    0.123493401696    0.001042277526    0.000871070102    -0.000767405106    0.122480430173    0.010578754453
0.625     0.018307242305    -0.100643397653    0.000606898050    -0.000828027128    0.034098027024    -0.076980836318    0.000655560572    -0.000900295723
            0.000606898050    -0.000828027128    0.116048765512    0.011786419394    0.000633873111    -0.000860136460    0.118481556285    -0.001333476616
            0.034098027024    -0.076980836318    0.000633873219    -0.000860136008    0.019972790595    -0.102181069116    0.000727850479    -0.000968317157
            0.000655560572    -0.000900295723    0.118481556267    -0.001333478250    0.000727850496    -0.000968317144    0.117808953169    0.012707402656
0.650     -0.026665608574    -0.094860585183    0.000441051439    -0.000981888591    -0.004406942381    -0.076768691752    0.000472632024    -0.001066243574
            0.000441051422    -0.000981888599    0.114781165344    0.017591974160    0.000463000819    -0.001020149619    0.115294051856    -0.000374474623
            -0.004406942381    -0.076768691752    0.000463001176    -0.001020148798    -0.025203622494    -0.097271730543    0.000532560229    -0.001150249323
            0.000472632024    -0.001066243574    0.115294051841    -0.000374479050    0.000532560229    -0.001150249323    0.116758085919    0.017975748558
0.675     -0.067219009749    -0.071999948812    0.000227334333    -0.001105120393    -0.040995414197    -0.061481862076    0.000238586780    -0.001196870658
            0.000227334314    -0.001105120397    0.118615530789    0.024588838891    0.000242603141    -0.001149406979    0.115403674549    0.002641433304
            -0.040995414197    -0.061481862076    0.000242603400    -0.001149406618    -0.066290281260    -0.075204449539    0.000282332269    -0.001295229392
            0.000238587291    -0.001196869843    0.115403674622    0.002641430082    0.000282332313    -0.001295229485    0.120578537246    0.024388082797
0.700     -0.096888540024    -0.034912778247    -0.000029323699    -0.001177528236    -0.069770668771    -0.032864967343    -0.000040002013    -0.001271058096
            -0.000029323719    -0.001177528236    0.127801698896    0.030248249023    -0.000022877245    -0.001227064458    0.119551144550    0.005850448221
            -0.069770668771    -0.032864967343    -0.000022876613    -0.001227063870    -0.096778876303    -0.038697170506    -0.000016449236    -0.001380981338
            -0.000040002013    -0.001271058096    0.119551144550    0.005850448221    -0.000016449235    -0.001380981238    0.129516656516    0.029519515748
0.725     -0.110907341526    0.011086524666    -0.000312919674    -0.001180325359    -0.086059939425    0.005002935899    -0.000345256686    -0.001269853437
            -0.000312919674    -0.001180325359    0.141408224326    0.032145017393    -0.000317539979    -0.001233316955    0.127518064724    0.007231007007
            -0.086059939425    0.005002935899    -0.000317539979    -0.001233316955    -0.111803489582    0.007042444583    -0.000345566411    -0.001387076082
            -0.000345256712    -0.001269853533    0.127518064901    0.007231003891    -0.000345566411    -0.001387076082    0.142685494014    0.031040470976
0.750     -0.107132878949    0.059243813559    -0.000598354732    -0.001103005390    -0.087338850891    0.046535174990    -0.000650381132    -0.001183306960
            -0.000598354732    -0.001103005390    0.157513957109    0.028499740820    -0.000615810684    -0.001156536219    0.138200679857    0.005085332482
            -0.087338850891    0.046535174990    -0.000615810684    -0.001156536219    -0.109083270947    0.055316614715    -0.000677164706    -0.001302106100
            -0.000650381132    -0.001183306960    0.138200679849    0.005085332724    -0.000677164706    -0.001302106100    0.158246317328    0.027238500270
0.775     -0.086321553400    0.102680866986    -0.000857273365    -0.000947324041    -0.073566692844    0.085777635655    -0.000925776173    -0.001014245615
            -0.000857273365    -0.000947324041    0.173623328906    0.018551105888    -0.000888264619    -0.000997610839    0.149873554621    -0.001606085814
            -0.073566692844    0.085777635655    -0.000888264619    -0.000997610839    -0.089225526944    0.099241709574    -0.000979937444    -0.001127875762
            -0.000925776173    -0.001014245615    0.149873544545    -0.001606092796    -0.000979937444    -0.001127875762    0.173805704350    0.017375433234
