# GHz S RI R 45
0.000     0.028740285000    0.000000000000    -0.000014916706    0.000000000000    0.000672036350    0.000000000000    -0.000003446376    0.000000000000
            -0.000014916727    0.000000000000    0.028330068000    0.000000000000    -0.000001480210    0.000000000000    0.000478796670    0.000000000000
            0.000672036310    0.000000000000    -0.000001480176    0.000000000000    0.028729145000    0.000000000000    -0.000007429382    0.000000000000
            -0.000003446360    0.000000000000    0.000478797870    0.000000000000    -0.000007429411    0.000000000000    0.028157388000    0.000000000000
0.025     0.033989754119    0.007947239258    -0.000019057487    -0.000010642660    0.002581629871    0.010904743614    -0.000015814657    -0.000017183961
            -0.000019057487    -0.000010642656    0.033270763028    0.008306301370    -0.000016112292    -0.000017525135    0.002325657466    0.011461994770
            0.002581505744    0.010904576720    -0.000016112293    -0.000017525130    0.033916325949    0.007966283908    -0.000012590978    -0.000013497881
            -0.000015814657    -0.000017183961    0.002325533864    0.011461826998    -0.000012590979    -0.000013497882    0.033266857442    0.008371899884
0.050     0.038832078593    0.010022485593    -0.000022779202    -0.000017725719    0.007685698911    0.020144987200    -0.000022630457    -0.000022252316
            -0.000022779193    -0.000017725719    0.037835313474    0.011090448285    -0.000023532444    -0.000020474447    0.007327311054    0.021389542508
            0.007685728791    0.020144974729    -0.000023532453    -0.000020474440    0.038736114323    0.010088024632    -0.000017040680    -0.000022347066
            -0.000022630457    -0.000022252316    0.007327341018    0.021389530129    -0.000017040678    -0.000022347064    0.037822374882    0.011055782973
0.075     0.042661803859    0.009795517971    -0.000026951205    -0.000024205225    0.014839614816    0.026585627577    -0.000026878034    -0.000027807765
            -0.000026951199    -0.000024205228    0.041466078916    0.011843067646    -0.000027376782    -0.000024290356    0.014423815870    0.028715751913
            0.014839619967    0.026585626992    -0.000027376743    -0.000024290356    0.042554929764    0.009931758481    -0.000021759638    -0.000030640548
            -0.000026878034    -0.000027807765    0.014423822281    0.028715750931    -0.000021759642    -0.000030640542    0.041349528521    0.011796445208
0.100     0.044761748313    0.007691163572    -0.000031757439    -0.000030117508    0.022536236834    0.029797811952    -0.000031065984    -0.000033723790
            -0.000031757440    -0.000030117508    0.043600387397    0.011008866659    -0.000030851939    -0.000028745807    0.022251210769    0.033021090540
            0.022536236834    0.029797811952    -0.000030851937    -0.000028745805    0.044669474078    0.007915059493    -0.000027134470    -0.000038439948
            -0.000031066086    -0.000033723770    0.022251211345    0.033021090152    -0.000027134561    -0.000038439935    0.043380137721    0.011039593806
0.125     0.044254434332    0.004705507528    -0.000037233460    -0.000035442623    0.029283435046    0.030086233449    -0.000035740412    -0.000039881822
            -0.000037233457    -0.000035442620    0.043541975993    0.009504596103    -0.000034614955    -0.000033656119    0.029450324451    0.034547682880
            0.029283435046    0.030086233449    -0.000034614957    -0.000033656121    0.044214104731    0.005019373808    -0.000033276123    -0.000045825828
            -0.000035740413    -0.000039881822    0.029450326351    0.034547683888    -0.000033276123    -0.000045825828    0.043269208718    0.009678321766
0.150     0.040747222898    0.002275333428    -0.000043328000    -0.000040411776    0.033920260839    0.028393261821    -0.000041153470    -0.000046360775
            -0.000043327999    -0.000040411775    0.041040490058    0.008585501211    -0.000038971332    -0.000039034886    0.034961352370    0.034105571452
            0.033920260839    0.028393261821    -0.000038971330    -0.000039034883    0.040798890777    0.002665773599    -0.000040267115    -0.000053056291
            -0.000041153471    -0.000046360777    0.034961343554    0.034105574761    -0.000040267117    -0.000053056294    0.040793088913    0.008934301735
0.175     0.034620480698    0.001970499953    -0.000050298417    -0.000045091808    0.035846000729    0.026084937624    -0.000047839851    -0.000053143269
            -0.000050298465    -0.000045091788    0.036517641691    0.009569534356    -0.000044456324    -0.000044847156    0.038215870931    0.032881542540
            0.035846000729    0.026084937624    -0.000044456277    -0.000044847171    0.034799316380    0.002400182413    -0.000048522776    -0.000060205406
            -0.000047839853    -0.000053143271    0.038215872447    0.032881543844    -0.000048522778    -0.000060205408    0.036384888615    0.010077385752
0.200     0.026960389078    0.005120685628    -0.000058458232    -0.000049465431    0.035168161153    0.024671144732    -0.000056281939    -0.000060035601
            -0.000058458223    -0.000049465441    0.030978287849    0.013518912976    -0.000051538692    -0.000050897419    0.039268839980    0.032191953231
            0.035168161153    0.024671144732    -0.000051538689    -0.000050897416    0.027281769494    0.005533588614    -0.000058525005    -0.000067150197
            -0.000056281941    -0.000060035603    0.039268833377    0.032191958131    -0.000058525099    -0.000067150163    0.031032284526    0.014124122006
0.225     0.019445356136    0.012488754551    -0.000068199496    -0.000053169496    0.032710244932    0.025459812745    -0.000067052018    -0.000066470717
            -0.000068199496    -0.000053169496    0.025889556663    0.020975612348    -0.000060783980    -0.000056641292    0.038798597166    0.033179239314
            0.032710244932    0.025459812745    -0.000060783980    -0.000056641292    0.019896501162    0.012821887246    -0.000070794921    -0.000073355264
            -0.000067052022    -0.000066470721    0.038798601183    0.033179239232    -0.000070794921    -0.000073355264    0.026165818785    0.021583411960
0.250     0.014052749749    0.024035365679    -0.000079736797    -0.000055602736    0.029859198831    0.029239059710    -0.000080403610    -0.000071593516
            -0.000079736798    -0.000055602736    0.022921493437    0.031787988443    -0.000072439414    -0.000061263180    0.037973467089    0.036539615264
            0.029859198831    0.029239059710    -0.000072439410    -0.000061263178    0.014589430388    0.024233784277    -0.000085593593    -0.000077964363
            -0.000080403617    -0.000071593523    0.037973471802    0.036539614693    -0.000085593600    -0.000077964370    0.023404409345    0.032293142161
0.275     0.012668794941    0.038793359747    -0.000092958528    -0.000055894962    0.028262055014    0.036043170474    -0.000096225995    -0.000074266527
            -0.000092958528    -0.000055894962    0.023612940656    0.045028234231    -0.000086413787    -0.000063673731    0.038187199507    0.042323265407
            0.028262055014    0.036043170474    -0.000086413746    -0.000063673771    0.013221525359    0.038825960473    -0.000102740762    -0.000079838324
            -0.000096226050    -0.000074266489    0.038187203801    0.042323264226    -0.000102740762    -0.000079838324    0.024235371546    0.045339932884
0.300     0.016647441245    0.054978870311    -0.000107260083    -0.000053224536    0.029435747560    0.045103783294    -0.000113770727    -0.000073431514
            -0.000107260083    -0.000053224536    0.029011242848    0.059111641222    -0.000101992709    -0.000062868575    0.040728417574    0.049896300729
            0.029435747560    0.045103783294    -0.000101992690    -0.000062868588    0.017134481080    0.054849584791    -0.000121437015    -0.000077912042
            -0.000113770735    -0.000073431520    0.040728422322    0.049896299435    -0.000121437024    -0.000077912047    0.029665947860    0.059179071305
0.325     0.026456629343    0.070286775762    -0.000121568466    -0.000047038513    0.034386596881    0.054994024846    -0.000131772872    -0.000068354705
            -0.000121568537    -0.000047038467    0.039391545203    0.072059999871    -0.000117978832    -0.000058154843    0.046455863099    0.058061625291
            0.034386596881    0.054994024846    -0.000117978832    -0.000058154843    0.026801869289    0.070038649843    -0.000140312051    -0.000071493980
            -0.000131772952    -0.000068354659    0.046455867153    0.058061622048    -0.000140312090    -0.000071493969    0.039953781019    0.071888277114
0.350     0.041509434070    0.082366266072    -0.000134567225    -0.000037389194    0.043363140418    0.063958224152    -0.000148650251    -0.000059020644
            -0.000134567299    -0.000037389113    0.054141654498    0.081909111368    -0.000132871491    -0.000049535984    0.055592083703    0.065337919279
            0.043363139302    0.063958224909    -0.000132871491    -0.000049535984    0.041661128218    0.082076397565    -0.000157711930    -0.000060636409
            -0.000148650328    -0.000059020585    0.055592087124    0.065337916368    -0.000157711920    -0.000060636405    0.054497816608    0.081562818800
0.375     0.060244992703    0.089296769501    -0.000145039679    -0.000024959749    0.055796572220    0.070297158604    -0.000162940112    -0.000046138490
            -0.000145039713    -0.000024959729    0.071847239366    0.087100309404    -0.000145303240    -0.000037703459    0.067665550089    0.070281751463
            0.055796572220    0.070297158604    -0.000145303240    -0.000037703459    0.060189337267    0.089061990632    -0.000172111043    -0.000046174038
            -0.000162940120    -0.000046138462    0.067665552382    0.070281746479    -0.000172111043    -0.000046174038    0.071921745008    0.086693144397
0.400     0.080429110733    0.089982527651    -0.000152239055    -0.000010967917    0.070443955757    0.072727926704    -0.000173691125    -0.000031063942
            -0.000152239122    -0.000010967815    0.090565587761    0.086802454226    -0.000154402037    -0.000023958855    0.081631372341    0.071795532072
            0.070443955757    0.072727926704    -0.000154401965    -0.000023958927    0.080197220371    0.089901365898    -0.000182555020    -0.000029590089
            -0.000173691125    -0.000031063942    0.081631368592    0.071795521194    -0.000182555020    -0.000029590089    0.090339856174    0.086475624701
0.425     0.099577023535    0.084333473650    -0.000156059801    0.000003192907    0.085645446231    0.070601644261    -0.000180684945    -0.000015370789
            -0.000156059830    0.000003192935    0.108186817907    0.081044289896    -0.000160002833    -0.000009791630    0.096081508693    0.069314234948
            0.085645446231    0.070601644261    -0.000160002843    -0.000009791631    0.099242044403    0.084486126781    -0.000188869768    -0.000012601930
            -0.000180684948    -0.000015370758    0.096081503003    0.069314225744    -0.000188869835    -0.000012601836    0.107706885945    0.080939168659
0.450     0.115393331352    0.073257023542    -0.000157048957    0.000016269518    0.099632120952    0.063993600297    -0.000184451773    -0.000000517728
            -0.000157048957    0.000016269518    0.122811510797    0.070689978249    -0.000162646382    0.000003434475    0.109511859844    0.062889760475
            0.099632120952    0.063993600297    -0.000162646382    0.000003434475    0.115059561899    0.073688623753    -0.000191683208    0.000003227009
            -0.000184451844    -0.000000517664    0.109511860941    0.062889758563    -0.000191683208    0.000003227009    0.122182356516    0.070919932511
0.475     0.126127766309    0.058472123645    -0.000156196101    0.000027439141    0.110798872279    0.053659502607    -0.000186053929    0.000012508186
            -0.000156196101    0.000027439141    0.133042978975    0.057258805680    -0.000163370044    0.000014820116    0.120554597377    0.053153920769
            0.110798872279    0.053659502607    -0.000163370054    0.000014820117    0.125915245934    0.059182270424    -0.000192189944    0.000016834755
            -0.000186054224    0.000012508564    0.120554590082    0.053153912527    -0.000192189944    0.000016834755    0.132413500129    0.057887637032
0.500     0.130829373529    0.042238651970    -0.000154718229    0.000036401126    0.117940592523    0.040930055521    -0.000186846912    0.000023299474
            -0.000154718229    0.000036401126    0.138191151697    0.042678690229    -0.000163463798    0.000024022483    0.128189080477    0.041226581347
            0.117940592523    0.040930055521    -0.000163463808    0.000024022485    0.130853312451    0.043176576372    -0.000191890974    0.000027801085
            -0.000186846912    0.000023299474    0.128189080477    0.041226581347    -0.000191890974    0.000027801085    0.137730878094    0.043704225098
0.525     0.129476625179    0.027026742808    -0.000153786997    0.000043398238    0.120431388782    0.027535516146    -0.000188170237    0.000032079388
            -0.000153786997    0.000043398238    0.138356304797    0.028989266983    -0.000164190617    0.000031296177    0.131889754906    0.028555104898
            0.120431388782    0.027535516146    -0.000164190626    0.000031296179    0.129828761902    0.028095010273    -0.000192278445    0.000036383076
            -0.000188170237    0.000032079388    0.131889755404    0.028555102596    -0.000192278706    0.000036383473    0.138228285341    0.030338819292
0.550     0.123018114602    0.015175627770    -0.000154395502    0.000049126571    0.118372105891    0.015389851480    -0.000191185521    0.000039614194
            -0.000154395502    0.000049126571    0.134431207902    0.018051604306    -0.000166618739    0.000037395726    0.131746265036    0.016722622647
            0.118372105891    0.015389851480    -0.000166618739    0.000037395726    0.123746201720    0.016241063480    -0.000194635970    0.000043441704
            -0.000191185521    0.000039614194    0.131746265269    0.016722620807    -0.000194635970    0.000043441704    0.134762083125    0.019586370572
0.575     0.113293524066    0.008530838636    -0.000157184232    0.000054660727    0.112659347546    0.006294614811    -0.000196655916    0.000047140239
            -0.000157184232    0.000054660727    0.127994856292    0.011254684801    -0.000171436719    0.000043502562    0.128498453448    0.007194459083
            0.112659347557    0.006294614614    -0.000171436719    0.000043502562    0.114388180730    0.009443616191    -0.000199817862    0.000050347152
            -0.000196655916    0.000047140239    0.128498453574    0.007194456840    -0.000199817871    0.000050347155    0.128849225965    0.012787177399
0.600     0.102838918332    0.008092748500    -0.000162359748    0.000061351673    0.104954075120    0.001596701871    -0.000204828206    0.000056244049
            -0.000162359748    0.000061351673    0.121120248698    0.009256193703    -0.000178844625    0.000051109282    0.123493401674    0.001042280113
            0.104954075120    0.001596701871    -0.000178844625    0.000051109282    0.104226621912    0.008712198039    -0.000208097534    0.000058855266
            -0.000204828206    0.000056244049    0.123493401696    0.001042277526    -0.000208097534    0.000058855266    0.122480430173    0.010578754453
0.625     0.094514191201    0.013718959306    -0.000169502211    0.000070690283    0.097457439579    0.001823307764    -0.000215194925    0.000068682841
            -0.000169502380    0.000070690736    0.116048765512    0.011786419394    -0.000188339131    0.000061854430    0.118481556285    -0.001333476616
            0.097457439579    0.001823307764    -0.000188339121    0.000061854463    0.096063085866    0.013941587775    -0.000218923131    0.000070899834
            -0.000215194927    0.000068682800    0.118481556267    -0.001333478250    -0.000218923466    0.000070900745    0.117808953169    0.012707402656
0.650     0.090981132782    0.023990300454    -0.000177464396    0.000084050987    0.092504780272    0.006437604366    -0.000226381798    0.000086065233
            -0.000177464378    0.000084050978    0.114781165344    0.017591974160    -0.000198614398    0.000077228615    0.115294051856    -0.000374474623
            0.092504780261    0.006437604527    -0.000198614398    0.000077228615    0.092520505069    0.023776192272    -0.000230792653    0.000088235377
            -0.000226381792    0.000086065276    0.115294051841    -0.000374479050    -0.000230792653    0.000088235377    0.116758085919    0.017975748558
0.675     0.094088362777    0.036351323335    -0.000184319612    0.000102260718    0.092002691159    0.013820936194    -0.000236103293    0.000109340814
            -0.000184319612    0.000102260718    0.118615530789    0.024588838891    -0.000207518550    0.000098101811    0.115403674549    0.002641433304
            0.092002692414    0.013820934577    -0.000207518550    0.000098101811    0.095440661906    0.035738890370    -0.000241238084    0.000111890571
            -0.000236103293    0.000109340814    0.115403674622    0.002641430082    -0.000241238103    0.000111890579    0.120578537246    0.024388082797
0.700     0.104371747826    0.047582016352    -0.000187697350    0.000125148188    0.096922147834    0.021588215457    -0.000241576801    0.000138290026
            -0.000187697350    0.000125148188    0.127801698896    0.030248249023    -0.000212435385    0.000124241339    0.119551144550    0.005850448221
            0.096922147834    0.021588215457    -0.000212435385    0.000124241339    0.105389505099    0.046685153257    -0.000247260287    0.000141624954
            -0.000241576801    0.000138290026    0.119551144550    0.005850448221    -0.000247260287    0.000141624954    0.129516656516    0.029519515748
0.725     0.120843444623    0.054505092398    -0.000185351795    0.000151269134    0.107007331553    0.027147974229    -0.000240172806    0.000171222035
            -0.000185351795    0.000151269134    0.141408224326    0.032145017393    -0.000210904501    0.000154026290    0.127518064724    0.007231007007
            0.107007331553    0.027147974229    -0.000210904501    0.000154026290    0.121442185847    0.053492315938    -0.000246047228    0.000175630612
            -0.000240172793    0.000171222089    0.127518064901    0.007231003891    -0.000246047228    0.000175630612    0.142685494014    0.031040470976
0.750     0.141204725120    0.054707878262    -0.000175935853    0.000178117641    0.120865847459    0.028331443095    -0.000230300259    0.000205229994
            -0.000175935853    0.000178117641    0.157513957109    0.028499740820    -0.000201457226    0.000184691597    0.138200679857    0.005085332482
            0.120865847459    0.028331443095    -0.000201457226    0.000184691597    0.141380596294    0.053768691994    -0.000235898964    0.000210799065
            -0.000230300259    0.000205229994    0.138200679849    0.005085332724    -0.000235898964    0.000210799065    0.158246317328    0.027238500270
0.775     0.162375873207    0.047034944160    -0.000159458560    0.000202723109    0.136341148281    0.023841837731    -0.000211911915    0.000236871428
            -0.000159458578    0.000202723132    0.173623328906    0.018551105888    -0.000184099749    0.000212972564    0.149873554621    -0.001606085814
            0.136341148281    0.023841837731    -0.000184099743    0.000212972557    0.162205158576    0.046341851020    -0.000216765992    0.000243459332
            -0.000211911893    0.000236871487    0.149873544545    -0.001606092796    -0.000216765992    0.000243459332    0.173805704350    0.017375433234
