# GHz S RI R 45
0.000     0.027424943000    0.000000000000    -0.000000741276    0.000000000000    0.000690901490    -0.000000000000    -0.000007543288    0.000000000000
            -0.000000741160    0.000000000000    0.028330068000    0.000000000000    0.000000859439    -0.000000000000    0.000478796670    0.000000000000
            0.000690921630    -0.000000000000    0.000000859471    -0.000000000000    0.027410464000    0.000000000000    0.000002818985    -0.000000000000
            -0.000007543180    0.000000000000    0.000478797870    0.000000000000    0.000002818966    -0.000000000000    0.028157388000    0.000000000000
0.025     0.033983636279    0.007018072099    -0.000000577312    -0.000001706380    0.003458626174    0.009270388442    0.000004169351    0.000004751817
            -0.000000577212    -0.000001706421    0.033270763028    0.008306301370    0.000005427410    0.000001157445    0.002325657466    0.011461994770
            0.003458628542    0.009270430359    0.000005427452    0.000001157448    0.033923469306    0.006980473455    0.000002792141    -0.000001372723
            0.000004169448    0.000004751793    0.002325533864    0.011461826998    0.000002792125    -0.000001372722    0.033266857442    0.008371899884
0.050     0.042484221355    0.006921556888    -0.000002273620    -0.000003544277    0.010978741562    0.015825312857    0.000006051281    -0.000002738616
            -0.000002273513    -0.000003544336    0.037835313474    0.011090448285    0.000006120036    -0.000002496193    0.007327311054    0.021389542508
            0.010978747415    0.015825312447    0.000006120043    -0.000002496181    0.042406073291    0.006880606090    0.000001996610    -0.000002765660
            0.000006051380    -0.000002738649    0.007327341018    0.021389530129    0.000001996598    -0.000002765646    0.037822374882    0.011055782973
0.075     0.051517707843    0.001735742476    -0.000004834132    -0.000004144759    0.021356400618    0.017574447544    0.000002913893    -0.000007309948
            -0.000004834031    -0.000004144846    0.041466078916    0.011843067646    0.000004720624    -0.000005092843    0.014423815870    0.028715751913
            0.021356404732    0.017574434676    0.000004720640    -0.000005092838    0.051438298475    0.001707289062    0.000000752339    -0.000003718476
            0.000002913985    -0.000007310006    0.014423822281    0.028715750931    0.000000752329    -0.000003718459    0.041349528521    0.011796445208
0.100     0.058824067890    -0.008921491543    -0.000007587342    -0.000003413106    0.031977844171    0.013610167497    -0.000001690946    -0.000009174601
            -0.000007587270    -0.000003413183    0.043600387397    0.011008866659    0.000002598635    -0.000006746744    0.022251210769    0.033021090540
            0.031977848537    0.013610149579    0.000002598670    -0.000006746768    0.058770006531    -0.008926684307    -0.000000733600    -0.000004219474
            -0.000001690875    -0.000009174680    0.022251211345    0.033021090152    -0.000000733614    -0.000004219467    0.043380137721    0.011039593806
0.125     0.061684544021    -0.024107213191    -0.000009974291    -0.000001503972    0.040090708145    0.004257447797    -0.000006393116    -0.000008754088
            -0.000009974226    -0.000001504058    0.043541975993    0.009504596103    0.000000133574    -0.000007595928    0.029450324451    0.034547682880
            0.040090706092    0.004257429252    0.000000133589    -0.000007595962    0.061697598795    -0.024091468761    -0.000002358267    -0.000004293059
            -0.000006393061    -0.000008754170    0.029450326351    0.034547683888    -0.000002358274    -0.000004293046    0.043269208718    0.009678321766
0.150     0.058025977316    -0.041742025069    -0.000011658700    0.000001329600    0.043326868193    -0.008971175084    -0.000010528860    -0.000006474073
            -0.000011658647    0.000001329502    0.041040490058    0.008585501211    -0.000002535283    -0.000007681411    0.034961352370    0.034105571452
            0.043326860675    -0.008971191666    -0.000002535268    -0.000007681437    0.058135625167    -0.041731172158    -0.000004091684    -0.000003903439
            -0.000010528814    -0.000006474163    0.034961343554    0.034105574761    -0.000004091695    -0.000003903423    0.040793088913    0.008934301735
0.175     0.046724933684    -0.058765848435    -0.000012409420    0.000004794544    0.040140135041    -0.023636975226    -0.000013596932    -0.000002787622
            -0.000012409398    0.000004794431    0.036517641691    0.009569534356    -0.000005272272    -0.000006946876    0.038215870931    0.032881542540
            0.040140122518    -0.023636988609    -0.000005272263    -0.000006946905    0.046958721182    -0.058801757970    -0.000005866128    -0.000002954492
            -0.000013596914    -0.000002787722    0.038215872447    0.032881543844    -0.000005866133    -0.000002954480    0.036384888615    0.010077385752
0.200     0.028124290702    -0.071778165124    -0.000012091977    0.000008628069    0.030148052639    -0.036777615683    -0.000015294809    0.000001909407
            -0.000012091978    0.000008627962    0.030978287849    0.013518912976    -0.000007873450    -0.000005281711    0.039268839980    0.032191953231
            0.030148035982    -0.036777624165    -0.000007873444    -0.000005281754    0.028491749515    -0.071921354246    -0.000007517193    -0.000001303699
            -0.000015294807    0.000001909309    0.039268833377    0.032191958131    -0.000007517184    -0.000001303679    0.031032284526    0.014124122006
0.225     0.004028671266    -0.077672498803    -0.000010585328    0.000012536359    0.014276891954    -0.045426087516    -0.000015372365    0.000007148147
            -0.000010585351    0.000012536245    0.025889556663    0.020975612348    -0.000010003809    -0.000002638754    0.038798597166    0.033179239314
            0.014276873612    -0.045426090136    -0.000010003811    -0.000002638784    0.004508767114    -0.077991594687    -0.000008744687    0.000001113068
            -0.000015372385    0.000007148046    0.038798601183    0.033179239232    -0.000008744686    0.000001113085    0.026165818785    0.021583411960
0.250     -0.022485443882    -0.074244490191    -0.000007808769    0.000016190020    -0.005309988252    -0.047173798608    -0.000013673731    0.000012440947
            -0.000007808808    0.000016189912    0.022921493437    0.031787988443    -0.000011240887    0.000000884484    0.037973467089    0.036539615264
            -0.005310006142    -0.047173794581    -0.000011240899    0.000000884447    -0.021947663674    -0.074800271725    -0.000009158624    0.000004209146
            -0.000013673763    0.000012440859    0.037973471802    0.036539614693    -0.000009158618    0.000004209165    0.023404409345    0.032293142161
0.275     -0.047524196747    -0.060674317540    -0.000003768265    0.000019157130    -0.025521664883    -0.040664079603    -0.000010186566    0.000017179435
            -0.000003768311    0.000019157047    0.023612940656    0.045028234231    -0.000011179706    0.000004949006    0.038187199507    0.042323265407
            -0.025521679609    -0.040664071541    -0.000011179721    0.000004948977    -0.047013415583    -0.061502829424    -0.000008400063    0.000007657795
            -0.000010186614    0.000017179352    0.038187203801    0.042323264226    -0.000008400053    0.000007657807    0.024235371546    0.045339932884
0.300     -0.067007536307    -0.037818771694    0.000001366823    0.000020971450    -0.042852452787    -0.025933388708    -0.000005101893    0.000020750252
            0.000001366762    0.000020971378    0.029011242848    0.059111641222    -0.000009571373    0.000009012846    0.040728417574    0.049896300729
            -0.042852464406    -0.025933375303    -0.000009571395    0.000009012819    -0.066626574245    -0.038917781971    -0.000006272577    0.000010942832
            -0.000005101960    0.000020750179    0.040728422322    0.049896299435    -0.000006272561    0.000010942848    0.029665947860    0.059179071305
0.325     -0.077389519081    -0.008186737641    0.000007202231    0.000021197223    -0.054001971624    -0.004494572797    0.000001116194    0.000022592283
            0.000007202156    0.000021197165    0.039391545203    0.072059999871    -0.000006457134    0.000012416030    0.046455863099    0.058061625291
            -0.054001979172    -0.004494554444    -0.000006457155    0.000012416013    -0.077240783040    -0.009507800887    -0.000002870496    0.000013457425
            0.000001116121    0.000022592225    0.046455867153    0.058061622048    -0.000002870483    0.000013457434    0.039953781019    0.071888277114
0.350     -0.076331491904    0.024382815508    0.000013158283    0.000019577487    -0.056495895142    0.020856204945    0.000007807615    0.000022366365
            0.000013158192    0.000019577445    0.054141654498    0.081909111368    -0.000002182094    0.000014570325    0.055592083703    0.065337919279
            -0.056495895142    0.020856204945    -0.000002182123    0.000014570310    -0.076496013712    0.022933271122    0.000001427010    0.000014690689
            0.000007807531    0.000022366322    0.055592087124    0.065337916368    0.000001427012    0.000014690690    0.054497816608    0.081562818800
0.375     -0.063161724159    0.055317339090    0.000018552560    0.000016117937    -0.049149494307    0.046484183909    0.000014197798    0.000020031227
            0.000018552426    0.000016117899    0.071847239366    0.087100309404    0.000002657147    0.000015109198    0.067665550089    0.070281751463
            -0.049149494307    0.046484183909    0.000002657119    0.000015109189    -0.063679682546    0.053867193693    0.000006024548    0.000014371851
            0.000014197709    0.000020031202    0.067665552382    0.070281746479    0.000006024566    0.000014371857    0.071921745008    0.086693144397
0.400     -0.039056565712    0.080046869204    0.000022768092    0.000011113115    -0.032307565742    0.068517989411    0.000019596966    0.000015859427
            0.000022767998    0.000011113112    0.090565587761    0.086802454226    0.000007395962    0.000013978764    0.081631372341    0.071795532072
            -0.032307512755    0.068518063041    0.000007395933    0.000013978757    -0.039913694785    0.078739813443    0.000010299240    0.000012536244
            0.000019596874    0.000015859419    0.081631368592    0.071795521194    0.000010299251    0.000012536248    0.090339856174    0.086475624701
0.425     -0.006885482749    0.094730266496    0.000025367570    0.000005078865    -0.007799034160    0.083467367275    0.000023503210    0.000010360195
            0.000025367479    0.000005078873    0.108186817907    0.081044289896    0.000011444140    0.000011419885    0.096081508693    0.069314234948
            -0.007798998330    0.083467392719    0.000011444111    0.000011419888    -0.008008261918    0.093702245601    0.000013741488    0.000009489698
            0.000023503120    0.000010360204    0.096081503003    0.069314225744    0.000013741504    0.000009489699    0.107706885945    0.080939168659
0.450     0.029204199036    0.096852348488    0.000026176802    -0.000001376897    0.021335778019    0.088763790781    0.000025693207    0.000004131357
            0.000026176715    -0.000001376871    0.122811510797    0.070689978249    0.000014428236    0.000007854473    0.109511859844    0.062889760475
            0.021335861350    0.088763817033    0.000014428208    0.000007854479    0.027943728757    0.096207669953    0.000016075465    0.000005676723
            0.000025693120    0.000004131386    0.109511860941    0.062889758563    0.000016075486    0.000005676720    0.122182356516    0.070919932511
0.475     0.064381853803    0.085585921372    0.000025266560    -0.000007675825    0.051283686538    0.083121207941    0.000026186504    -0.000002259533
            0.000025266477    -0.000007675781    0.133042978975    0.057258805680    0.000016208386    0.000003764581    0.120554597377    0.053153920769
            0.051283774925    0.083121205110    0.000016208361    0.000003764595    0.063151256463    0.085376271914    0.000017259175    0.000001555063
            0.000026186421    -0.000002259491    0.120554590082    0.053153912527    0.000017259216    0.000001555040    0.132413500129    0.057887637032
0.500     0.093794993947    0.061916670152    0.000022891396    -0.000013376276    0.077976098085    0.066722190358    0.000025177598    -0.000008388607
            0.000022891325    -0.000013376219    0.138191151697    0.042678690229    0.000016854575    -0.000000448797    0.128189080477    0.041226581347
            0.077976098085    0.066722190358    0.000016854498    -0.000000448743    0.092780751967    0.062127193391    0.000017433170    -0.000002536583
            0.000025177522    -0.000008388552    0.128189080477    0.041226581347    0.000017433168    -0.000002536582    0.137730878094    0.043704225098
0.525     0.113205800717    0.028526969807    0.000019392408    -0.000018207535    0.097608734413    0.041208530793    0.000022930210    -0.000013992078
            0.000019392348    -0.000018207467    0.138356304797    0.028989266983    0.000016553548    -0.000004516851    0.131889754906    0.028555104898
            0.097608810684    0.041208478689    0.000016553485    -0.000004516780    0.112586847865    0.029070333213    0.000016816272    -0.000006416704
            0.000022930149    -0.000013992009    0.131889755404    0.028555102596    0.000016816300    -0.000006416733    0.138228285341    0.030338819292
0.550     0.119550187620    -0.010511478018    0.000015100836    -0.000022072579    0.107139889518    0.009521451326    0.000019678923    -0.000018963294
            0.000015100790    -0.000022072501    0.134431207902    0.018051604306    0.000015506063    -0.000008345512    0.131746265036    0.016722622647
            0.107139889518    0.009521451326    0.000015506014    -0.000008345435    0.119470269336    -0.009791844536    0.000015593530    -0.000010075723
            0.000019678876    -0.000018963217    0.131746265269    0.016722620807    0.000015593530    -0.000010075723    0.134762083125    0.019586370572
0.575     0.111362804038    -0.050208812268    0.000010267563    -0.000024990482    0.104704285444    -0.024410154756    0.000015569585    -0.000023273859
            0.000010267534    -0.000024990397    0.127994856292    0.011254684801    0.000013837242    -0.000011954320    0.128498453448    0.007194459083
            0.104704285444    -0.024410154756    0.000013837223    -0.000011954273    0.111904315479    -0.049523902442    0.000013834709    -0.000013597105
            0.000015569538    -0.000023273731    0.128498453574    0.007194456840    0.000013834709    -0.000013597101    0.128849225965    0.012787177399
0.600     0.089047048146    -0.085255948094    0.000005019737    -0.000027022474    0.089942815571    -0.056117079986    0.000010628386    -0.000026895506
            0.000005019723    -0.000027022384    0.121120248698    0.009256193703    0.000011523498    -0.000015410631    0.123493401674    0.001042280113
            0.089942815571    -0.056117079986    0.000011523497    -0.000015410629    0.090209532276    -0.084847122465    0.000011438452    -0.000017067678
            0.000010628372    -0.000026895414    0.123493401696    0.001042277526    0.000011438450    -0.000017067678    0.122480430173    0.010578754453
0.625     0.054931499683    -0.110704844461    -0.000000619215    -0.000028176366    0.064162124087    -0.081148294565    0.000004810630    -0.000029700425
            -0.000000619213    -0.000028176277    0.116048765512    0.011786419394    0.000008407728    -0.000018695094    0.118481556285    -0.001333476616
            0.064162124087    -0.081148294565    0.000008407728    -0.000018695044    0.056620780504    -0.110811514549    0.000008171693    -0.000020442350
            0.000004810631    -0.000029700336    0.118481556267    -0.001333478250    0.000008171693    -0.000020442393    0.117808953169    0.012707402656
0.650     0.013081093979    -0.122680308937    -0.000006664151    -0.000028335751    0.030295888863    -0.095713364239    -0.000001916214    -0.000031406819
            -0.000006664130    -0.000028335662    0.114781165344    0.017591974160    0.000004259458    -0.000021605402    0.115294051856    -0.000374474623
            0.030295887193    -0.095713364768    0.000004259545    -0.000021605420    0.015110856469    -0.123501459786    0.000003760142    -0.000023451971
            -0.000001916195    -0.000031406731    0.115294051841    -0.000374479050    0.000003760144    -0.000023451971    0.116758085919    0.017975748558
0.675     -0.031169391949    -0.119004669579    -0.000013043627    -0.000027248005    -0.007402018370    -0.097291659885    -0.000009427351    -0.000031592988
            -0.000013043587    -0.000027247922    0.118615530789    0.024588838891    -0.000001050113    -0.000023706483    0.115403674549    0.002641433304
            -0.007402018370    -0.097291659885    -0.000001050114    -0.000023706481    -0.029059558693    -0.120662997474    -0.000001923577    -0.000025581287
            -0.000009427314    -0.000031592904    0.115403674622    0.002641430082    -0.000001923576    -0.000025581285    0.120578537246    0.024388082797
0.700     -0.071935750783    -0.099630795452    -0.000019493266    -0.000024600025    -0.043922413434    -0.085121736620    -0.000017342528    -0.000029806648
            -0.000019493194    -0.000024599988    0.127801698896    0.030248249023    -0.000007400826    -0.000024408293    0.119551144550    0.005850448221
            -0.043922413434    -0.085121736620    -0.000007400773    -0.000024408166    -0.070046770326    -0.102144389530    -0.000008707315    -0.000026174498
            -0.000017342478    -0.000029806574    0.119551144550    0.005850448221    -0.000008707315    -0.000026174497    0.129516656516    0.029519515748
0.725     -0.103655338128    -0.066745629707    -0.000025510455    -0.000020176203    -0.074246713643    -0.060403568585    -0.000024996329    -0.000025752339
            -0.000025510358    -0.000020176105    0.141408224326    0.032145017393    -0.000014307170    -0.000023157967    0.127518064724    0.007231007007
            -0.074246713643    -0.060403568585    -0.000014307141    -0.000023157930    -0.102285688976    -0.070015444957    -0.000016027227    -0.000024655217
            -0.000024996266    -0.000025752274    0.127518064901    0.007231003891    -0.000016027222    -0.000024655219    0.142685494014    0.031040470976
0.750     -0.121961700323    -0.024495447038    -0.000030438006    -0.000014011699    -0.094150338881    -0.026172553899    -0.000031559675    -0.000019454934
            -0.000030437932    -0.000014011652    0.157513957109    0.028499740820    -0.000020992278    -0.000019658800    0.138200679857    0.005085332482
            -0.094150338881    -0.026172553899    -0.000020992273    -0.000019658796    -0.121359377572    -0.028312492764    -0.000023026033    -0.000020752957
            -0.000031559602    -0.000019454882    0.138200679849    0.005085332724    -0.000023026098    -0.000020753009    0.158246317328    0.027238500270
0.775     -0.124359123780    0.021641142248    -0.000033636368    -0.000006474987    -0.100856641651    0.013171348051    -0.000036241528    -0.000011336792
            -0.000033636287    -0.000006474953    0.173623328906    0.018551105888    -0.000026563788    -0.000014031198    0.149873554621    -0.001606085814
            -0.100856679015    0.013171370833    -0.000026563742    -0.000014031179    -0.124681819095    0.017569468031    -0.000028763905    -0.000014651686
            -0.000036241446    -0.000011336760    0.149873544545    -0.001606092796    -0.000028763898    -0.000014651689    0.173805704350    0.017375433234
