# GHz S RI R 45
0.000     0.028626637000    0.000000000000    -0.000057054753    0.000000000000    0.000513587570    0.000000000000    -0.000028481636    0.000000000000
            -0.000057054992    0.000000000000    0.028330068000    0.000000000000    -0.000040054012    0.000000000000    0.000478796670    0.000000000000
            0.000513586850    0.000000000000    -0.000040054006    0.000000000000    0.028595299000    0.000000000000    -0.000028164512    0.000000000000
            -0.000028481306    0.000000000000    0.000478797870    0.000000000000    -0.000028164508    0.000000000000    0.028157388000    0.000000000000
0.025     0.034136561957    0.008724650995    -0.000011189606    0.000032001748    0.002643368673    0.011877227915    -0.000020659372    0.000011168058
            -0.000011189564    0.000032001699    0.033270763028    0.008306301370    -0.000017938086    0.000017882001    0.002325657466    0.011461994770
            0.002643244470    0.011877059884    -0.000017938139    0.000017882041    0.034044003127    0.008736075007    -0.000017473654    0.000015891280
            -0.000020659365    0.000011168059    0.002325533864    0.011461826998    -0.000017473660    0.000015891280    0.033266857442    0.008371899884
0.050     0.039227011997    0.011378328107    0.000002677744    0.000016722330    0.008115820943    0.021882545074    -0.000019527170    0.000014413807
            0.000002677734    0.000016722381    0.037835313474    0.011090448285    -0.000012322477    0.000012944118    0.007327311054    0.021389542508
            0.008115851114    0.021882533884    -0.000012322478    0.000012944051    0.039099864568    0.011454312607    -0.000014865230    0.000020980914
            -0.000019527091    0.000014413791    0.007327341018    0.021389530129    -0.000014865162    0.000020980897    0.037822374882    0.011055782973
0.075     0.043294628202    0.011646960792    -0.000000402088    0.000008562605    0.015717607473    0.028949589773    -0.000022288152    0.000020235230
            -0.000000402104    0.000008562664    0.041466078916    0.011843067646    -0.000016277918    0.000012205377    0.014423815870    0.028715751913
            0.015717613480    0.028949588788    -0.000016277871    0.000012205319    0.043153654616    0.011816557381    -0.000016891835    0.000028861851
            -0.000022288161    0.000020235217    0.014423822281    0.028715750931    -0.000016891807    0.000028861826    0.041349528521    0.011796445208
0.100     0.045588876564    0.010011168484    -0.000008022460    0.000006414224    0.023884524184    0.032654413689    -0.000025927565    0.000028973460
            -0.000008022426    0.000006414229    0.043600387397    0.011008866659    -0.000023324549    0.000015765323    0.022251210769    0.033021090540
            0.023884523023    0.032654413299    -0.000023324568    0.000015765324    0.045467821914    0.010295129132    -0.000019901914    0.000039838189
            -0.000025927565    0.000028973470    0.022251211345    0.033021090152    -0.000019901829    0.000039838177    0.043380137721    0.011039593806
0.125     0.045235598549    0.007587031240    -0.000017406040    0.000010146034    0.031065457758    0.033357174544    -0.000029221188    0.000040869062
            -0.000017406026    0.000010146022    0.043541975993    0.009504596103    -0.000031524256    0.000024036470    0.029450324451    0.034547682880
            0.031065457077    0.033357173812    -0.000031524255    0.000024036487    0.045180051472    0.007988065953    -0.000022535027    0.000054231930
            -0.000029221191    0.000040869067    0.029450326351    0.034547683888    -0.000022535048    0.000054231929    0.043269208718    0.009678321766
0.150     0.041887957535    0.005838288502    -0.000026483876    0.000018848986    0.036085098332    0.032086288175    -0.000030920132    0.000055723100
            -0.000026483853    0.000018848992    0.041040490058    0.008585501211    -0.000039255381    0.000036917793    0.034961352370    0.034105571452
            0.036085096837    0.032086286846    -0.000039255384    0.000036917797    0.041954355537    0.006338888174    -0.000023454596    0.000071857944
            -0.000030920132    0.000055723100    0.034961343554    0.034105574761    -0.000023454622    0.000071857938    0.040793088913    0.008934301735
0.175     0.036044600131    0.006415157504    -0.000033652661    0.000032288624    0.038390264292    0.030293980405    -0.000029967256    0.000073311536
            -0.000033652638    0.000032288624    0.036517641691    0.009569534356    -0.000045002279    0.000054517626    0.038215870931    0.032881542540
            0.038390271935    0.030293975563    -0.000045002282    0.000054517629    0.036279385577    0.006966853782    -0.000021411049    0.000092596326
            -0.000029967257    0.000073311538    0.038215872447    0.032881543844    -0.000021411082    0.000092596322    0.036384888615    0.010077385752
0.200     0.028948357600    0.010639179162    -0.000037420200    0.000049679585    0.038191926070    0.029539757180    -0.000025239789    0.000092934460
            -0.000037420171    0.000049679582    0.030978287849    0.013518912976    -0.000047025887    0.000076373614    0.039268839980    0.032191953231
            0.038191923182    0.029539756011    -0.000047025891    0.000076373621    0.029373233863    0.011169850782    -0.000015112952    0.000115709241
            -0.000025239789    0.000092934460    0.039268833377    0.032191958131    -0.000015112983    0.000115709237    0.031032284526    0.014124122006
0.225     0.022433699690    0.019168206491    -0.000036438962    0.000069999280    0.036449788856    0.031112590303    -0.000015813902    0.000113640072
            -0.000036439015    0.000069999323    0.025889556663    0.020975612348    -0.000043654894    0.000101570952    0.038798597166    0.033179239314
            0.036449785489    0.031112589627    -0.000043654894    0.000101570952    0.023034630105    0.019595897493    -0.000003386845    0.000140181422
            -0.000015813904    0.000113640072    0.038798601183    0.033179239232    -0.000003386790    0.000140181383    0.026165818785    0.021583411960
0.250     0.018582578220    0.031765251402    -0.000029567154    0.000091647758    0.034676728663    0.035695549834    -0.000000982629    0.000133946546
            -0.000029567219    0.000091647794    0.022921493437    0.031787988443    -0.000033341774    0.000128387524    0.037973467089    0.036539615264
            0.034676726720    0.035695550328    -0.000033341774    0.000128387524    0.019306271901    0.032016766792    0.000014640625    0.000164321177
            -0.000000982633    0.000133946546    0.037973471802    0.036539614693    0.000014640593    0.000164321180    0.023404409345    0.032293142161
0.275     0.019281097914    0.047201211043    -0.000016318735    0.000112558042    0.034583839116    0.043140544812    0.000019338938    0.000152068904
            -0.000016318748    0.000112558050    0.023612940656    0.045028234231    -0.000015290073    0.000154424185    0.038187199507    0.042323265407
            0.034583839997    0.043140542824    -0.000015290079    0.000154424184    0.020040735264    0.047231478709    0.000039192313    0.000186075542
            0.000019338933    0.000152068905    0.038187203801    0.042323264226    0.000039192268    0.000186075552    0.024235371546    0.045339932884
0.300     0.025743534092    0.063428031263    0.000002981947    0.000130422285    0.037646927814    0.052462086098    0.000044498905    0.000166081982
            0.000002981969    0.000130422265    0.029011242848    0.059111641222    0.000010335198    0.000176858345    0.040728417574    0.049896300729
            0.037646924484    0.052462087257    0.000010335198    0.000176858345    0.026435807704    0.063235260566    0.000069594524    0.000203177935
            0.000044498893    0.000166081985    0.040728422322    0.049896299435    0.000069594492    0.000203177946    0.029665947860    0.059179071305
0.325     0.038162684115    0.077952842624    0.000026884700    0.000143194472    0.044712819183    0.062045079129    0.000072902526    0.000174450882
            0.000026884677    0.000143194476    0.039391545203    0.072059999871    0.000041976466    0.000193073135    0.046455863099    0.058061625291
            0.044712815934    0.062045081470    0.000041976505    0.000193073106    0.038688452815    0.077583673994    0.000104119324    0.000213776812
            0.000072902512    0.000174450898    0.046455867153    0.058061622048    0.000104119283    0.000213776843    0.039953781019    0.071888277114
0.350     0.055594464235    0.088384328574    0.000053213280    0.000149652567    0.055783291688    0.070040696626    0.000102408965    0.000176457756
            0.000053213300    0.000149652549    0.054141654498    0.081909111368    0.000077108226    0.000201321448    0.055592083703    0.065337919279
            0.055783289866    0.070040699355    0.000077108300    0.000201321377    0.055882860032    0.087928162738    0.000140349528    0.000216911378
            0.000102408959    0.000176457759    0.055592087124    0.065337916368    0.000140349578    0.000216911346    0.054497816608    0.081562818800
0.375     0.076122155717    0.092937449470    0.000079400658    0.000149747173    0.070015119276    0.074784926881    0.000130705954    0.000172504740
            0.000079400675    0.000149747153    0.071847239366    0.087100309404    0.000112589014    0.000201217437    0.067665550089    0.070281751463
            0.070015115360    0.074784930547    0.000112589051    0.000201217405    0.076146912314    0.092509632048    0.000175639728    0.000212870143
            0.000130705948    0.000172504745    0.067665552382    0.070281746479    0.000175639742    0.000212870145    0.071921745008    0.086693144397
0.400     0.097249789693    0.090807721264    0.000103353274    0.000144576671    0.085935572426    0.075154488754    0.000156077034    0.000163977209
            0.000103353219    0.000144576723    0.090565587761    0.086802454226    0.000145660374    0.000193768248    0.081631372341    0.071795532072
            0.085935569803    0.075154491753    0.000145660367    0.000193768253    0.097037328763    0.090527765117    0.000207928929    0.000203067512
            0.000156077031    0.000163977211    0.081631368592    0.071795521194    0.000207928912    0.000203067544    0.090339856174    0.086475624701
0.425     0.116382723206    0.082287351061    0.000123763376    0.000136008342    0.101746381465    0.070743520901    0.000177674639    0.000152850036
            0.000123763353    0.000136008350    0.108186817907    0.081044289896    0.000174343046    0.000181032009    0.096081508693    0.069314234948
            0.101746388440    0.070743528385    0.000174343043    0.000181032012    0.116009634299    0.082255650843    0.000236090151    0.000189624243
            0.000177674634    0.000152850042    0.096081503003    0.069314225744    0.000236090139    0.000189624274    0.107706885945    0.080939168659
0.450     0.131290796951    0.068678747127    0.000140495153    0.000126076655    0.115656008194    0.061903602078    0.000195790581    0.000141070031
            0.000140495166    0.000126076641    0.122811510797    0.070689978249    0.000197970275    0.000165470701    0.109511859844    0.062889760475
            0.115656014850    0.061903610834    0.000197970272    0.000165470704    0.130871382319    0.068957163899    0.000260227115    0.000174707620
            0.000195790582    0.000141070047    0.109511860941    0.062889758563    0.000260227128    0.000174707635    0.122182356516    0.070919932511
0.475     0.140446017231    0.052035943925    0.000154262129    0.000116496977    0.126145199081    0.049652647514    0.000211500911    0.000130107827
            0.000154262066    0.000116497027    0.133042978975    0.057258805680    0.000216917676    0.000149409576    0.120554597377    0.053153920769
            0.126145199081    0.049652647514    0.000216917668    0.000149409587    0.140114718868    0.052635748985    0.000281331640    0.000160032582
            0.000211500908    0.000130107831    0.120554590082    0.053153912527    0.000281331651    0.000160032582    0.132413500129    0.057887637032
0.500     0.143241275423    0.034842302581    0.000166461029    0.000108282023    0.132192641914    0.035535708796    0.000226426700    0.000120609603
            0.000166461005    0.000108282077    0.138191151697    0.042678690229    0.000232520253    0.000134544939    0.128189080477    0.041226581347
            0.132192650331    0.035535716006    0.000232520207    0.000134544918    0.143130145679    0.035717553465    0.000301032654    0.000146479530
            0.000226426704    0.000120609596    0.128189080477    0.041226581347    0.000301032657    0.000146479571    0.137730878094    0.043704225098
0.525     0.140071706147    0.019643349211    0.000178623694    0.000101696222    0.133434118466    0.021420727169    0.000242176914    0.000112402220
            0.000178623699    0.000101696213    0.138356304797    0.028989266983    0.000246514552    0.000121812859    0.131889754906    0.028555104898
            0.133434118205    0.021420728800    0.000246514536    0.000121812846    0.140288311243    0.020695310095    0.000321022961    0.000134076644
            0.000242176929    0.000112402211    0.131889755404    0.028555102596    0.000321022970    0.000134076674    0.138228285341    0.030338819292
0.550     0.132326014719    0.008682689918    0.000192256764    0.000096249122    0.130293039187    0.009251935852    0.000260139117    0.000104539683
            0.000192256752    0.000096249145    0.134431207902    0.018051604306    0.000260882242    0.000111252345    0.131746265036    0.016722622647
            0.130293039187    0.009251935852    0.000260882208    0.000111252374    0.132931500249    0.009771130790    0.000342841577    0.000122027401
            0.000260139115    0.000104539687    0.131746265269    0.016722620807    0.000342841643    0.000122027337    0.134762083125    0.019586370572
0.575     0.122244289179    0.003523211273    0.000208483522    0.000090894222    0.124010210906    0.000718096162    0.000281132094    0.000095573295
            0.000208483522    0.000090894222    0.127994856292    0.011254684801    0.000277415758    0.000102122463    0.128498453448    0.007194459083
            0.124010210906    0.000718096162    0.000277415742    0.000102122479    0.123237617383    0.004487421063    0.000367515487    0.000108962374
            0.000281132111    0.000095573279    0.128498453574    0.007194456840    0.000367515518    0.000108962341    0.128849225965    0.012787177399
0.600     0.112644593036    0.004697308919    0.000228034161    0.000084057449    0.116550095584    -0.003118180023    0.000305395358    0.000083670648
            0.000228034165    0.000084057383    0.121120248698    0.009256193703    0.000297627051    0.000092824238    0.123493401674    0.001042280113
            0.116550095595    -0.003118179616    0.000297627040    0.000092824275    0.113954181099    0.005384862702    0.000395527351    0.000093021461
            0.000305395338    0.000083670683    0.123493401696    0.001042277526    0.000395527358    0.000093021477    0.122480430173    0.010578754453
0.625     0.106449932710    0.011450972440    0.000250941355    0.000073819975    0.110276318561    -0.002177765231    0.000332362134    0.000066881023
            0.000250941345    0.000073819972    0.116048765512    0.011786419394    0.000322270196    0.000081056701    0.118481556285    -0.001333476616
            0.110276318572    -0.002177764653    0.000322270200    0.000081056726    0.107940151517    0.011749161640    0.000426538452    0.000072094528
            0.000332362128    0.000066881052    0.118481556267    -0.001333478250    0.000426538447    0.000072094555    0.117808953169    0.012707402656
0.650     0.106081270458    0.021716395236    0.000276389939    0.000058005196    0.107447785913    0.002463803362    0.000360621761    0.000043288400
            0.000276389936    0.000058005160    0.114781165344    0.017591974160    0.000351044576    0.000063918634    0.115294051856    -0.000374474623
            0.107447785913    0.002463803362    0.000351044576    0.000063918634    0.107574727850    0.021581199530    0.000459285695    0.000043973445
            0.000360621732    0.000043288387    0.115294051841    -0.000374479050    0.000459285683    0.000043973467    0.116758085919    0.017975748558
0.675     0.112814464458    0.032423561300    0.000302355005    0.000034724046    0.109599551253    0.008706297205    0.000387712742    0.000011528753
            0.000302355000    0.000034724094    0.118615530789    0.024588838891    0.000382046453    0.000038590008    0.115403674549    0.002641433304
            0.109599550949    0.008706301030    0.000382046458    0.000038589961    0.114127776444    0.031894876307    0.000491281536    0.000006915721
            0.000387712763    0.000011528735    0.115403674622    0.002641430082    0.000491281546    0.000006915732    0.120578537246    0.024388082797
0.700     0.126373956877    0.040154291320    0.000325731127    0.000002982358    0.117094911454    0.013911364180    0.000410382606    -0.000028704942
            0.000325731107    0.000002982341    0.127801698896    0.030248249023    0.000411841861    0.000003122719    0.119551144550    0.005850448221
            0.117094911454    0.013911364180    0.000411841861    0.000003122719    0.127357858126    0.039351298926    0.000519050368    -0.000039752319
            0.000410382589    -0.000028704896    0.119551144550    0.005850448221    0.000519050368    -0.000039752319    0.129516656516    0.029519515748
0.725     0.144917014720    0.041959306542    0.000342820506    -0.000036491946    0.128989187597    0.015576261495    0.000425115547    -0.000076015487
            0.000342820503    -0.000036491978    0.141408224326    0.032145017393    0.000435954685    -0.000042481044    0.127518064724    0.007231007007
            0.128989187189    0.015576264872    0.000435954706    -0.000042481036    0.145490883498    0.041055508598    0.000538660203    -0.000094867420
            0.000425115552    -0.000076015457    0.127518064901    0.007231003891    0.000538660193    -0.000094867364    0.142685494014    0.031040470976
0.750     0.165485709955    0.036044555416    0.000350461321    -0.000081115798    0.143328903291    0.011950671401    0.000429202132    -0.000127320060
            0.000350461314    -0.000081115874    0.157513957109    0.028499740820    0.000450171910    -0.000095967352    0.138200679857    0.005085332482
            0.143328902665    0.011950678906    0.000450171906    -0.000095967278    0.165653034620    0.035230777347    0.000546903266    -0.000155368314
            0.000429202142    -0.000127320063    0.138200679849    0.005085332724    0.000546903276    -0.000155368317    0.158246317328    0.027238500270
0.775     0.184700106317    0.022105151832    0.000347032914    -0.000126831933    0.157662375014    0.002359526596    0.000421604164    -0.000178327049
            0.000347032902    -0.000126831964    0.173623328906    0.018551105888    0.000451746365    -0.000153100362    0.149873554621    -0.001606085814
            0.157662375010    0.002359526844    0.000451746349    -0.000153100409    0.184545364220    0.021549932101    0.000542275511    -0.000216752614
            0.000421604171    -0.000178327060    0.149873544545    -0.001606092796    0.000542275513    -0.000216752582    0.173805704350    0.017375433234
0.800     0.199470981167    0.001248764467    0.000333072168    -0.000169291251    0.169601206988    -0.012798849643    0.000403441995    -0.000224711537
            0.000333072157    -0.000169291252    0.187199602268    0.002651550598    0.000440259886    -0.000208903519    0.160602595874    -0.013031688036
