# GHz S RI R 45
0.000     0.029438974000    0.000000000000    -0.000011158475    0.000000000000    0.000786319970    0.000000000000    -0.000014595859    0.000000000000
            -0.000011158963    0.000000000000    0.028330068000    0.000000000000    -0.000003186607    0.000000000000    0.000478796670    0.000000000000
            0.000786432440    0.000000000000    -0.000003187053    0.000000000000    0.029459249000    0.000000000000    -0.000005772010    0.000000000000
            -0.000014596257    0.000000000000    0.000478797870    0.000000000000    -0.000005771622    0.000000000000    0.028157388000    0.000000000000
0.025     0.034953614153    0.008110996114    -0.000035876537    -0.000021951344    0.002872307144    0.011295440021    -0.000028229048    -0.000014897401
            -0.000035876911    -0.000021951323    0.033270763028    0.008306301370    -0.000026213477    -0.000021409857    0.002325657466    0.011461994770
            0.002872300191    0.011295267410    -0.000026213939    -0.000021409814    0.034854598811    0.008045186844    -0.000020983848    -0.000016206727
            -0.000028229446    -0.000014897371    0.002325533864    0.011461826998    -0.000020983460    -0.000016206749    0.033266857442    0.008371899884
0.050     0.040206267345    0.010085451330    -0.000047323176    -0.000019028218    0.008531455356    0.020693537487    -0.000035567176    -0.000016337335
            -0.000047323559    -0.000019028161    0.037835313474    0.011090448285    -0.000037045639    -0.000019574582    0.007327311054    0.021389542508
            0.008531597955    0.020693514390    -0.000037046133    -0.000019574546    0.040026502124    0.009992341658    -0.000028668488    -0.000017245561
            -0.000035567575    -0.000016337293    0.007327341018    0.021389530129    -0.000028668107    -0.000017245605    0.037822374882    0.011055782973
0.075     0.044481791389    0.009378525521    -0.000052154594    -0.000017761475    0.016375564816    0.026818170287    -0.000039988751    -0.000018142496
            -0.000052155024    -0.000017761388    0.041466078916    0.011843067646    -0.000041789024    -0.000019322491    0.014423815870    0.028715751913
            0.016375682402    0.026818152384    -0.000041789455    -0.000019322389    0.044199956627    0.009319902862    -0.000032748800    -0.000019094362
            -0.000039989144    -0.000018142439    0.014423822281    0.028715750931    -0.000032748429    -0.000019094474    0.041349528521    0.011796445208
0.100     0.046790845757    0.006407721401    -0.000056032146    -0.000017400653    0.024575878541    0.029209556107    -0.000044295680    -0.000019958874
            -0.000056032517    -0.000017400575    0.043600387397    0.011008866659    -0.000045769302    -0.000019920743    0.022251210769    0.033021090540
            0.024575989777    0.029209533088    -0.000045769690    -0.000019920665    0.046425261056    0.006450018933    -0.000036586315    -0.000021326643
            -0.000044296162    -0.000019958774    0.022251211345    0.033021090152    -0.000036585939    -0.000021326723    0.043380137721    0.011039593806
0.125     0.046013336259    0.002336670547    -0.000059802354    -0.000017234845    0.031345364457    0.028321948004    -0.000048826903    -0.000021374790
            -0.000059802770    -0.000017234738    0.043541975993    0.009504596103    -0.000049805811    -0.000020666508    0.029450324451    0.034547682880
            0.031345473731    0.028321919544    -0.000049806190    -0.000020666410    0.045617796111    0.002528515693    -0.000040705161    -0.000023481673
            -0.000048827382    -0.000021374664    0.029450326351    0.034547683888    -0.000040704792    -0.000023481774    0.043269208718    0.009678321766
0.150     0.041624469747    -0.001114107352    -0.000063647256    -0.000016945491    0.035338097124    0.025393861067    -0.000053569253    -0.000022317313
            -0.000063647709    -0.000016945350    0.041040490058    0.008585501211    -0.000054068713    -0.000021222888    0.034961352370    0.034105571452
            0.035338208115    0.025393824853    -0.000054069183    -0.000021222745    0.041278908217    -0.000756628089    -0.000045198942    -0.000025385566
            -0.000053569624    -0.000022317204    0.034961343554    0.034105574761    -0.000045198586    -0.000025385678    0.040793088913    0.008934301735
0.175     0.034052540944    -0.002022588415    -0.000067644381    -0.000016415458    0.035942208415    0.022166034652    -0.000058544408    -0.000022743258
            -0.000067644826    -0.000016415291    0.036517641691    0.009569534356    -0.000058609739    -0.000021427103    0.038215870931    0.032881542540
            0.035942312254    0.022165993917    -0.000058610140    -0.000021426902    0.033838268995    -0.001528718279    -0.000050153464    -0.000026913863
            -0.000058544871    -0.000022743085    0.038215872447    0.032881543844    -0.000050153110    -0.000026914000    0.036384888615    0.010077385752
0.200     0.024620109476    0.001243807087    -0.000071858939    -0.000015602289    0.033455919838    0.020506691336    -0.000063799615    -0.000022676737
            -0.000071859375    -0.000015602095    0.030978287849    0.013518912976    -0.000063451375    -0.000021213036    0.039268839980    0.032191953231
            0.033456025858    0.020506644663    -0.000063451731    -0.000021212884    0.024597497404    0.001803547671    -0.000055620490    -0.000027998608
            -0.000063799975    -0.000022676589    0.039268833377    0.032191958131    -0.000055620148    -0.000027998752    0.031032284526    0.014124122006
0.225     0.015396148563    0.009607703626    -0.000076385393    -0.000014384531    0.029075520751    0.021961131316    -0.000069406906    -0.000022002516
            -0.000076385819    -0.000014384321    0.025889556663    0.020975612348    -0.000068632925    -0.000020453451    0.038798597166    0.033179239314
            0.029075618464    0.021961081589    -0.000068633322    -0.000020453269    0.015585026361    0.010135551712    -0.000061670354    -0.000028460263
            -0.000069407261    -0.000022002348    0.038798601183    0.033179239232    -0.000061670043    -0.000028460472    0.026165818785    0.021583411960
0.250     0.008816608797    0.022970433355    -0.000081270553    -0.000012602364    0.024667018037    0.027342207470    -0.000075401446    -0.000020564683
            -0.000081270965    -0.000012602137    0.022921493437    0.031787988443    -0.000074160821    -0.000019007781    0.037973467089    0.036539615264
            0.024667108173    0.027342155783    -0.000074161251    -0.000019007547    0.009184889188    0.023364508158    -0.000068301931    -0.000028094653
            -0.000075401875    -0.000020564461    0.037973471802    0.036539614693    -0.000068301601    -0.000028094838    0.023404409345    0.032293142161
0.275     0.007169317051    0.040061965286    -0.000086462971    -0.000009994717    0.022338999984    0.036452980833    -0.000081690483    -0.000018096329
            -0.000086463267    -0.000009994476    0.023612940656    0.045028234231    -0.000079956054    -0.000016647816    0.038187199507    0.042323265407
            0.022339090555    0.036452922983    -0.000079956476    -0.000016647554    0.007634552328    0.040243348845    -0.000075405274    -0.000026603022
            -0.000081690862    -0.000018096098    0.038187203801    0.042323264226    -0.000075404956    -0.000026603221    0.024235371546    0.045339932884
0.300     0.012019349354    0.058602872444    -0.000091758483    -0.000006341372    0.023913331859    0.048069807357    -0.000088033007    -0.000014376140
            -0.000091758791    -0.000006341152    0.029011242848    0.059111641222    -0.000085810697    -0.000013183644    0.040728417574    0.049896300729
            0.023913415788    0.048069748851    -0.000085811020    -0.000013183433    0.012465962335    0.058540014267    -0.000082706055    -0.000023743842
            -0.000088033412    -0.000014375875    0.040728422322    0.049896299435    -0.000082705832    -0.000023743997    0.029665947860    0.059179071305
0.325     0.023771133126    0.075725500262    -0.000096805749    -0.000001496596    0.030440941403    0.060196194477    -0.000094018444    -0.000009278814
            -0.000096806125    -0.000001496315    0.039391545203    0.072059999871    -0.000091379582    -0.000008494401    0.046455863099    0.058061625291
            0.030441025735    0.060196131660    -0.000091379893    -0.000008494172    0.024075556639    0.075446226391    -0.000089777758    -0.000019370097
            -0.000094018760    -0.000009278580    0.046455867153    0.058061622048    -0.000089777461    -0.000019370328    0.039953781019    0.071888277114
0.350     0.041497320228    0.088605162311    -0.000101192575    0.000004468542    0.041929519829    0.070543863202    -0.000099189883    -0.000002910203
            -0.000101192866    0.000004468767    0.054141654498    0.081909111368    -0.000096263242    -0.000002661553    0.055592083703    0.065337919279
            0.041929603996    0.070543794562    -0.000096263614    -0.000002661244    0.041559026068    0.088195148680    -0.000096132735    -0.000013576009
            -0.000099190258    -0.000002909885    0.055592087124    0.065337916368    -0.000096132448    -0.000013576242    0.054497816608    0.081562818800
0.375     0.063106000262    0.095064190766    -0.000104551968    0.000011299269    0.057345909872    0.077053636705    -0.000103141605    0.000004409982
            -0.000104552281    0.000011299543    0.071847239366    0.087100309404    -0.000100104708    0.000004055410    0.067665550089    0.070281751463
            0.057345984441    0.077053571236    -0.000100105036    0.000004055704    0.062872030521    0.094650268501    -0.000101342261    -0.000006666624
            -0.000103141894    0.000004410246    0.067665552382    0.070281746479    -0.000101341984    -0.000006666872    0.071921745008    0.086693144397
0.400     0.085777153291    0.094022676930    -0.000106689897    0.000018568910    0.074875259010    0.078330183813    -0.000105674215    0.000012187320
            -0.000106690226    0.000018569235    0.090565587761    0.086802454226    -0.000102716689    0.000011231727    0.081631372341    0.071795532072
            0.074875324631    0.078330121086    -0.000102716961    0.000011231993    0.085257081739    0.093747008477    -0.000105176381    0.000000862823
            -0.000105674485    0.000012187594    0.081631368592    0.071795521194    -0.000105176113    0.000000862564    0.090339856174    0.086475624701
0.425     0.106514831510    0.085656720229    -0.000107619270    0.000025830962    0.092299216045    0.073863591079    -0.000106820965    0.000019900647
            -0.000107619581    0.000025831295    0.108186817907    0.081044289896    -0.000104115514    0.000018421823    0.096081508693    0.069314234948
            0.092299280576    0.073863526446    -0.000104115834    0.000018422198    0.105781123668    0.085647497475    -0.000107646522    0.000008492250
            -0.000106821192    0.000019900960    0.096081503003    0.069314225744    -0.000107646262    0.000008491983    0.107706885945    0.080939168659
0.450     0.122674027093    0.071318390242    -0.000107561802    0.000032694888    0.107396743251    0.064077379967    -0.000106853191    0.000027109859
            -0.000107562042    0.000032695166    0.122811510797    0.070689978249    -0.000104524513    0.000025239120    0.109511859844    0.062889760475
            0.107396806279    0.064077313363    -0.000104524816    0.000025239483    0.121850747614    0.071664573427    -0.000109004126    0.000015771825
            -0.000106853435    0.000027110159    0.109511860941    0.062889758563    -0.000109003882    0.000015771557    0.122182356516    0.070919932511
0.475     0.132354995460    0.053267068357    -0.000106859976    0.000038935929    0.118272751357    0.050224605841    -0.000106176841    0.000033558616
            -0.000106860230    0.000038936254    0.133042978975    0.057258805680    -0.000104285668    0.000031461293    0.120554597377    0.053153920769
            0.118272814034    0.050224534997    -0.000104285899    0.000031461601    0.131598035459    0.053999456690    -0.000109642215    0.000022442905
            -0.000106177066    0.000033558931    0.120554590082    0.053153912527    -0.000109641992    0.000022442600    0.132413500129    0.057887637032
0.500     0.134665582539    0.034327028039    -0.000105914307    0.000044495088    0.123631137424    0.034224903101    -0.000105257852    0.000039191245
            -0.000105914499    0.000044495407    0.138191151697    0.042678690229    -0.000103795267    0.000037032987    0.128189080477    0.041226581347
            0.123631199867    0.034224827462    -0.000103795488    0.000037033290    0.134136620150    0.035408397417    -0.000110015081    0.000028444439
            -0.000105258067    0.000039191555    0.128189080477    0.041226581347    -0.000110014869    0.000028444139    0.137730878094    0.043704225098
0.525     0.129851174644    0.017498182239    -0.000105085500    0.000049495594    0.122984949405    0.018427954644    -0.000104515662    0.000044152326
            -0.000105085548    0.000049495774    0.138356304797    0.028989266983    -0.000103408379    0.000042076306    0.131889754906    0.028555104898
            0.122985028233    0.018427833457    -0.000103408637    0.000042076706    0.129689893372    0.018823307829    -0.000110529108    0.000033922608
            -0.000104515820    0.000044152672    0.131889755404    0.028555102596    -0.000110528912    0.000033922294    0.138228285341    0.030338819292
0.550     0.119334582366    0.005549094662    -0.000104663837    0.000054191296    0.116831282236    0.005317919820    -0.000104282666    0.000048741082
            -0.000104663819    0.000054191286    0.134431207902    0.018051604306    -0.000103409359    0.000046840989    0.131746265036    0.016722622647
            0.116831336119    0.005317835637    -0.000103409599    0.000046841402    0.119629649956    0.006956490692    -0.000111502811    0.000039173790
            -0.000104282845    0.000048741432    0.131746265269    0.016722620807    -0.000111502667    0.000039173565    0.134762083125    0.019586370572
0.575     0.105623630486    0.000566564539    -0.000104805562    0.000058951603    0.106725095232    -0.002897117585    -0.000104741524    0.000053381091
            -0.000104805759    0.000058952027    0.127994856292    0.011254684801    -0.000103953733    0.000051688070    0.128498453448    0.007194459083
            0.106725161712    -0.002897248198    -0.000103953831    0.000051688277    0.106389695320    0.001861534176    -0.000113102362    0.000044620857
            -0.000104741732    0.000053381520    0.128498453574    0.007194456840    -0.000113102195    0.000044620517    0.128849225965    0.012787177399
0.600     0.092052095723    0.003491274672    -0.000105521825    0.000064213203    0.095188918660    -0.004773172650    -0.000105903947    0.000058572718
            -0.000105521819    0.000064213174    0.121120248698    0.009256193703    -0.000105057076    0.000057044900    0.123493401674    0.001042280113
            0.095188956133    -0.004773263969    -0.000105057465    0.000057045776    0.093215711582    0.004481100618    -0.000115325082    0.000050759916
            -0.000105904324    0.000058573627    0.123493401696    0.001042277526    -0.000115324698    0.000050759074    0.122480430173    0.010578754453
0.625     0.082256265921    0.013724584233    -0.000106606082    0.000070437259    0.085328777112    -0.000121770986    -0.000107540922    0.000064843319
            -0.000106606065    0.000070437248    0.116048765512    0.011786419394    -0.000106525069    0.000063372660    0.118481556285    -0.001333476616
            0.085328807982    -0.000121861812    -0.000106525232    0.000063373109    0.083659975587    0.014259464418    -0.000117923686    0.000058113616
            -0.000107540914    0.000064843314    0.118481556267    -0.001333478250    -0.000117923523    0.000058113178    0.117808953169    0.012707402656
0.650     0.079421677873    0.028995352815    -0.000107625347    0.000078010433    0.080174480948    0.009720526696    -0.000109162660    0.000072632177
            -0.000107625622    0.000078011349    0.114781165344    0.017591974160    -0.000107934896    0.000071065126    0.115294051856    -0.000374474623
            0.080174506061    0.009720435887    -0.000107935196    0.000071066053    0.080848808184    0.029007791895    -0.000120392197    0.000067120201
            -0.000109162651    0.000072632171    0.115294051841    -0.000374479050    -0.000120392203    0.000067120232    0.116758085919    0.017975748558
0.675     0.085436686582    0.045665100443    -0.000107907735    0.000087108789    0.081853858815    0.022026279276    -0.000110017700    0.000082139340
            -0.000107907727    0.000087108783    0.118615530789    0.024588838891    -0.000108617660    0.000080313888    0.115403674549    0.002641433304
            0.081853893208    0.022026139920    -0.000108617899    0.000080314827    0.086656231926    0.045192954508    -0.000121952191    0.000077974947
            -0.000110017833    0.000082139797    0.115403674622    0.002641430082    -0.000121952068    0.000077974508    0.120578537246    0.024388082797
0.700     0.100298392782    0.059512967523    -0.000106692750    0.000097549128    0.090956754336    0.033304866057    -0.000109254531    0.000093165233
            -0.000106692759    0.000097549102    0.127801698896    0.030248249023    -0.000107803076    0.000090955916    0.119551144550    0.005850448221
            0.090956773741    0.033304772344    -0.000107803069    0.000090955909    0.101117609572    0.058696700425    -0.000121721919    0.000090465375
            -0.000109254720    0.000093166184    0.119551144550    0.005850448221    -0.000121721927    0.000090465381    0.129516656516    0.029519515748
0.725     0.122034162785    0.066768592732    -0.000103324731    0.000108742080    0.106342649852    0.040205155828    -0.000106144411    0.000105058891
            -0.000103324782    0.000108742514    0.141408224326    0.032145017393    -0.000104812993    0.000102408648    0.127518064724    0.007231007007
            0.106342668805    0.040205020865    -0.000104813082    0.000102409128    0.122343604061    0.065820681417    -0.000118936649    0.000103913405
            -0.000106144487    0.000105059370    0.127518064901    0.007231003891    -0.000118936656    0.000103913412    0.142685494014    0.031040470976
0.750     0.147225434517    0.065002846768    -0.000097511790    0.000119805309    0.125518611388    0.040343452956    -0.000100358917    0.000116843359
            -0.000097511892    0.000119806245    0.157513957109    0.028499740820    -0.000099330315    0.000113785478    0.138200679857    0.005085332482
            0.125518637045    0.040343275092    -0.000099330418    0.000113786437    0.147021027424    0.064161331440    -0.000113242768    0.000117300115
            -0.000100359038    0.000116844284    0.138200679849    0.005085332724    -0.000113242748    0.000117300135    0.158246317328    0.027238500270
0.775     0.171863768755    0.053560907949    -0.000089417000    0.000129796662    0.145328481485    0.032730902947    -0.000092075216    0.000127478461
            -0.000089417011    0.000129796630    0.173623328906    0.018551105888    -0.000091498403    0.000124124101    0.149873554621    -0.001606085814
            0.145328489438    0.032730822120    -0.000091498397    0.000124124093    0.171242956908    0.053038279978    -0.000104806276    0.000129528204
            -0.000092075296    0.000127479415    0.149873544545    -0.001606092796    -0.000104806234    0.000129527736    0.173805704350    0.017375433234
