# GHz S RI R 45
0.000     0.028296624000    0.000000000000    -0.000005061710    0.000000000000    0.000753732210    -0.000000000000    -0.000008118570    0.000000000000
            -0.000005061537    0.000000000000    0.028330068000    0.000000000000    -0.000056348469    0.000000000000    0.000478796670    0.000000000000
            0.000753724160    -0.000000000000    -0.000056348374    0.000000000000    0.028163071000    0.000000000000    0.000004606470    -0.000000000000
            -0.000008118376    0.000000000000    0.000478797870    0.000000000000    0.000004606398    -0.000000000000    0.028157388000    0.000000000000
0.025     0.034772256290    0.007363876353    -0.000018425417    -0.000031200565    0.003596056700    0.009803449631    -0.000015822721    -0.000025707530
            -0.000018425350    -0.000031200702    0.033270763028    0.008306301370    -0.000054468713    -0.000018664837    0.002325657466    0.011461994770
            0.003596031292    0.009803501557    -0.000054468531    -0.000018664828    0.034713479983    0.007371866527    -0.000028654884    -0.000044909006
            -0.000015822548    -0.000025707592    0.002325533864    0.011461826998    -0.000028654929    -0.000044909006    0.033266857442    0.008371899884
0.050     0.043324644105    0.007427286054    -0.000043432817    -0.000049884522    0.011295793583    0.016759121246    -0.000034858577    -0.000045401176
            -0.000043432662    -0.000049884696    0.037835313474    0.011090448285    -0.000082131956    -0.000049851781    0.007327311054    0.021389542508
            0.011295777924    0.016759139037    -0.000082131926    -0.000049851704    0.043267916777    0.007464637177    -0.000060634929    -0.000057525095
            -0.000034858373    -0.000045401222    0.007327341018    0.021389530129    -0.000060634910    -0.000057525057    0.037822374882    0.011055782973
0.075     0.052243331405    0.002248648877    -0.000075448875    -0.000054947761    0.021819369117    0.018703786518    -0.000062740694    -0.000055252846
            -0.000075448696    -0.000054947973    0.041466078916    0.011843067646    -0.000126151607    -0.000053573595    0.014423815870    0.028715751913
            0.021819359324    0.018703797942    -0.000126151561    -0.000053573550    0.052212261285    0.002321906910    -0.000094161018    -0.000060619295
            -0.000062740551    -0.000055252954    0.014423822281    0.028715750931    -0.000094161063    -0.000060619208    0.041349528521    0.011796445208
0.100     0.059120418456    -0.008467841925    -0.000108002811    -0.000045684473    0.032388115386    0.014761611009    -0.000094999908    -0.000053353635
            -0.000108002796    -0.000045684534    0.043600387397    0.011008866659    -0.000167776819    -0.000033363752    0.022251210769    0.033021090540
            0.032388116054    0.014761616776    -0.000167776704    -0.000033363820    0.059144984367    -0.008362041411    -0.000129689685    -0.000051546300
            -0.000094999780    -0.000053353803    0.022251211345    0.033021090152    -0.000129689749    -0.000051546273    0.043380137721    0.011039593806
0.125     0.061157625348    -0.023587677009    -0.000135776625    -0.000024448469    0.040117016514    0.005392672983    -0.000127593649    -0.000039091517
            -0.000135776534    -0.000024448526    0.043541975993    0.009504596103    -0.000198059832    0.000003249715    0.029450324451    0.034547682880
            0.040117019847    0.005392678207    -0.000198059784    0.000003249575    0.061270074912    -0.023467364682    -0.000163448765    -0.000029656173
            -0.000127593528    -0.000039091674    0.029450326351    0.034547683888    -0.000163448820    -0.000029656094    0.043269208718    0.009678321766
0.150     0.056271151806    -0.040794866678    -0.000156107052    0.000004835008    0.042588134387    -0.007680975173    -0.000156983171    -0.000013016156
            -0.000156106987    0.000004834843    0.041040490058    0.008585501211    -0.000214476431    0.000047803108    0.034961352370    0.034105571452
            0.042588140112    -0.007680971600    -0.000214476360    0.000047803013    0.056498673646    -0.040697741067    -0.000191862294    0.000003865008
            -0.000156983154    -0.000013016238    0.034961343554    0.034105574761    -0.000191862334    0.000003865008    0.040793088913    0.008934301735
0.175     0.043507682534    -0.056768588024    -0.000168781735    0.000038895379    0.038324005630    -0.021779961318    -0.000180013968    0.000023953824
            -0.000168781691    0.000038895214    0.036517641691    0.009569534356    -0.000218766934    0.000094358134    0.038215870931    0.032881542540
            0.038324014159    -0.021779956431    -0.000218766928    0.000094357996    0.043861107314    -0.056748435796    -0.000212235255    0.000047462603
            -0.000180013943    0.000023953629    0.038215872447    0.032881543844    -0.000212235276    0.000047462646    0.036384888615    0.010077385752
0.200     0.023508931878    -0.067931629500    -0.000174817687    0.000076223229    0.027144059326    -0.033731383990    -0.000193666291    0.000070499139
            -0.000174817689    0.000076223048    0.030978287849    0.013518912976    -0.000214505251    0.000140710493    0.039268839980    0.032191953231
            0.027144064777    -0.033731384737    -0.000214505216    0.000140710309    0.023974512069    -0.068051292866    -0.000222267497    0.000099411742
            -0.000193666296    0.000070498949    0.039268833377    0.032191958131    -0.000222267517    0.000099411844    0.031032284526    0.014124122006
0.225     -0.001518473402    -0.071142139531    -0.000174579870    0.000117186751    0.010298536697    -0.040456920553    -0.000194643395    0.000124625972
            -0.000174579906    0.000117186554    0.025889556663    0.020975612348    -0.000203927300    0.000188026395    0.038798597166    0.033179239314
            0.010298546651    -0.040456924211    -0.000203927282    0.000188026444    -0.000985407963    -0.071461658268    -0.000219456298    0.000157967669
            -0.000194643439    0.000124625809    0.038798601183    0.033179239232    -0.000219456298    0.000157967669    0.026165818785    0.021583411960
0.250     -0.028057011707    -0.064363888841    -0.000166545627    0.000162867220    -0.009651588360    -0.039605925000    -0.000179671062    0.000183104362
            -0.000166545684    0.000162867048    0.022921493437    0.031787988443    -0.000186166744    0.000239064663    0.037973467089    0.036539615264
            -0.009651589543    -0.039605929858    -0.000186166744    0.000239064663    -0.027530579257    -0.064925044780    -0.000200948716    0.000220533979
            -0.000179671141    0.000183104187    0.037973471802    0.036539614693    -0.000200948716    0.000220533979    0.023404409345    0.032293142161
0.275     -0.051837564426    -0.047178329455    -0.000146996682    0.000213123450    -0.029235051196    -0.030094679178    -0.000146112481    0.000240953057
            -0.000146996952    0.000213123045    0.023612940656    0.045028234231    -0.000156715296    0.000295108161    0.038187199507    0.042323265407
            -0.029235042781    -0.030094691535    -0.000156715300    0.000295108170    -0.051413060735    -0.047989946043    -0.000163888154    0.000282993563
            -0.000146112486    0.000240953066    0.038187203801    0.042323264226    -0.000163888154    0.000282993563    0.024235371546    0.045339932884
0.300     -0.068600824991    -0.021047593184    -0.000111319191    0.000264982032    -0.044705163766    -0.012440408808    -0.000093171886    0.000291638707
            -0.000111319187    0.000264982023    0.029011242848    0.059111641222    -0.000109184333    0.000353632866    0.040728417574    0.049896300729
            -0.044705164485    -0.012440417415    -0.000109184335    0.000353632875    -0.068379476872    -0.022075821461    -0.000106655420    0.000339307191
            -0.000093171835    0.000291638723    0.040728422322    0.049896299435    -0.000106655420    0.000339307191    0.029665947860    0.059179071305
0.325     -0.074928610109    0.010817028219    -0.000056167728    0.000312056170    -0.052774824977    0.011237410906    -0.000022895585    0.000327931979
            -0.000056167775    0.000312056121    0.039391545203    0.072059999871    -0.000038358473    0.000407153872    0.046455863099    0.058061625291
            -0.052774827912    0.011237411531    -0.000038358503    0.000407153889    -0.074996832118    0.009651196322    -0.000030113695    0.000382109049
            -0.000022895579    0.000327931979    0.046455867153    0.058061622048    -0.000030113670    0.000382109061    0.039953781019    0.071888277114
0.350     -0.068961391440    0.043948160457    0.000018327235    0.000345751866    -0.051294043519    0.037558422466    0.000059487016    0.000343618912
            0.000018327241    0.000345751865    0.054141654498    0.081909111368    0.000056643741    0.000444695475    0.055592083703    0.065337919279
            -0.051294045940    0.037558424238    0.000056643749    0.000444695474    -0.069370664642    0.042760929184    0.000061495517    0.000404234014
            0.000059486216    0.000343618573    0.055592087124    0.065337916368    0.000061495502    0.000404234017    0.054497816608    0.081562818800
0.375     -0.050797253618    0.073398727001    0.000107504115    0.000357523885    -0.039678594187    0.062490499659    0.000146311086    0.000335051975
            0.000107504118    0.000357523874    0.071847239366    0.087100309404    0.000170557762    0.000454721075    0.067665550089    0.070281751463
            -0.039678606702    0.062490495266    0.000170557304    0.000454720991    -0.051548927510    0.072326884487    0.000160928651    0.000400526150
            0.000146311096    0.000335051982    0.067665552382    0.070281746479    0.000160928679    0.000400526139    0.071921745008    0.086693144397
0.400     -0.022519710025    0.094605848887    0.000202752938    0.000341504817    -0.019024149564    0.082074956057    0.000229146227    0.000302166838
            0.000202752938    0.000341504817    0.090565587761    0.086802454226    0.000292460522    0.000428831311    0.081631372341    0.071795532072
            -0.019024164566    0.082074955659    0.000292460533    0.000428831328    -0.023557756828    0.093784382224    0.000259299528    0.000369258129
            0.000229146227    0.000302166838    0.081631368592    0.071795521194    0.000259299573    0.000369258097    0.090339856174    0.086475624701
0.425     0.012155302830    0.104141330522    0.000293398861    0.000296152764    0.008105875928    0.093076394775    0.000300620231    0.000248214011
            0.000293398847    0.000296152749    0.108186817907    0.081044289896    0.000408076463    0.000364323321    0.096081508693    0.069314234948
            0.008105871402    0.093076399184    0.000408076464    0.000364323335    0.010941003579    0.103679451470    0.000348013633    0.000312319653
            0.000300620231    0.000248214011    0.096081503003    0.069314225744    0.000348013627    0.000312319660    0.107706885945    0.080939168659
0.450     0.048469807150    0.100231323028    0.000369163038    0.000224670489    0.038104492774    0.093467827386    0.000355815006    0.000178646058
            0.000369162188    0.000224670829    0.122811510797    0.070689978249    0.000503184659    0.000265132068    0.109511859844    0.062889760475
            0.038104493287    0.093467837976    0.000503184678    0.000265132011    0.047231608733    0.100191834674    0.000420374680    0.000234470989
            0.000355815020    0.000178646097    0.109511860941    0.062889758563    0.000420374720    0.000234471021    0.122182356516    0.070919932511
0.475     0.081321544098    0.082977683472    0.000422231929    0.000134061134    0.066846012883    0.082679589092    0.000392632973    0.000099492059
            0.000422231932    0.000134061126    0.133042978975    0.057258805680    0.000566680266    0.000140830371    0.120554597377    0.053153920769
            0.066845973407    0.082679608150    0.000566680266    0.000140830371    0.080233704416    0.083361889711    0.000472359743    0.000141833468
            0.000392632983    0.000099492062    0.120554590082    0.053153912527    0.000472359741    0.000141833476    0.132413500129    0.057887637032
0.500     0.105948002985    0.054332461733    0.000448605065    0.000033449502    0.090225182638    0.061670110174    0.000411371517    0.000015980603
            0.000448605015    0.000033449495    0.138191151697    0.042678690229    0.000592784314    0.000004376602    0.128189080477    0.041226581347
            0.090225189818    0.061670117392    0.000592783649    0.000004377221    0.105183084787    0.055072585142    0.000502539810    0.000040520047
            0.000411371527    0.000015980595    0.128189080477    0.041226581347    0.000502539850    0.000040520056    0.137730878094    0.043704225098
0.525     0.118528673741    0.017862540946    0.000448351951    -0.000067935308    0.104654777697    0.032833363407    0.000413634156    -0.000068290532
            0.000448351953    -0.000067935295    0.138356304797    0.028989266983    0.000581698775    -0.000130802777    0.131889754906    0.028555104898
            0.104654777124    0.032833365234    0.000581698510    -0.000130802408    0.118231034840    0.018823960938    0.000511311957    -0.000064423241
            0.000413634165    -0.000068290534    0.131889755404    0.028555102596    0.000511312224    -0.000064423602    0.138228285341    0.030338819292
0.550     0.116693399756    -0.021635966586    0.000425030348    -0.000162603705    0.107538100024    -0.000212511046    0.000401172227    -0.000151477461
            0.000425030348    -0.000162603705    0.134431207902    0.018051604306    0.000538948151    -0.000253647826    0.131746265036    0.016722622647
            0.107538110027    -0.000212509320    0.000538948142    -0.000253647822    0.116952748561    -0.020643951165    0.000499918852    -0.000169408835
            0.000401172224    -0.000151477468    0.131746265269    0.016722620807    0.000499918855    -0.000169408826    0.134762083125    0.019586370572
0.575     0.099906508669    -0.058665477465    0.000384183004    -0.000246120763    0.097680418441    -0.032975364733    0.000374802854    -0.000232971522
            0.000384183004    -0.000246120763    0.127994856292    0.011254684801    0.000473290885    -0.000357574197    0.128498453448    0.007194459083
            0.097680428491    -0.032975366226    0.000473290885    -0.000357574197    0.100736732601    -0.057867868571    0.000469387816    -0.000272168113
            0.000374802837    -0.000232971511    0.128498453574    0.007194456840    0.000469387802    -0.000272168116    0.128849225965    0.012787177399
0.600     0.069706921110    -0.087697954043    0.000331400117    -0.000317528717    0.075629300561    -0.060609685879    0.000333839637    -0.000312389541
            0.000331400104    -0.000317528716    0.121120248698    0.009256193703    0.000393885072    -0.000441295419    0.123493401674    0.001042280113
            0.075629304463    -0.060609689006    0.000393885072    -0.000441295419    0.071031750830    -0.087323400946    0.000419804772    -0.000371058380
            0.000333839639    -0.000312389554    0.123493401696    0.001042277526    0.000419804786    -0.000371058379    0.122480430173    0.010578754453
0.625     0.029710301742    -0.103963798788    0.000270288097    -0.000378509391    0.043822125628    -0.078598422236    0.000276109873    -0.000388239626
            0.000270288078    -0.000378509380    0.116048765512    0.011786419394    0.000307258032    -0.000507846509    0.118481556285    -0.001333476616
            0.043822128550    -0.078598427476    0.000307258039    -0.000507846540    0.031361405200    -0.104208202260    0.000349982883    -0.000463921882
            0.000276110024    -0.000388238733    0.118481556267    -0.001333478250    0.000349982903    -0.000463921892    0.117808953169    0.012707402656
0.650     -0.014717980386    -0.104292149926    0.000201322627    -0.000431445587    0.006439897216    -0.083557730027    0.000198948528    -0.000456724093
            0.000201322925    -0.000431444731    0.114781165344    0.017591974160    0.000215388900    -0.000561989512    0.115294051856    -0.000374474623
            0.006439899289    -0.083557737891    0.000215388880    -0.000561989520    -0.012985009289    -0.105278842135    0.000258090148    -0.000546826096
            0.000198948524    -0.000456724106    0.115294051841    -0.000374479050    0.000258090167    -0.000546826087    0.116758085919    0.017975748558
0.675     -0.057177827543    -0.087809536622    0.000122185405    -0.000476917797    -0.031128939722    -0.073964524187    0.000100964190    -0.000511191295
            0.000122185639    -0.000476917397    0.118615530789    0.024588838891    0.000115772599    -0.000606702109    0.115403674549    0.002641433304
            -0.031128942050    -0.073964529718    0.000115772811    -0.000606701723    -0.055651666242    -0.089559248016    0.000143133100    -0.000613220382
            0.000100964183    -0.000511191307    0.115403674622    0.002641430082    0.000143133111    -0.000613220380    0.120578537246    0.024388082797
0.700     -0.091285979084    -0.056292798112    0.000029828792    -0.000512050258    -0.063188482517    -0.050616024544    -0.000015837792    -0.000543026048
            0.000029829390    -0.000512049592    0.127801698896    0.030248249023    0.000003848366    -0.000640541980    0.119551144550    0.005850448221
            -0.063188488761    -0.050616029545    0.000003848344    -0.000640541960    -0.090253055051    -0.058708329875    0.000007116209    -0.000654437621
            -0.000015837811    -0.000543026048    0.119551144550    0.005850448221    0.000007116220    -0.000654437621    0.129516656516    0.029519515748
0.725     -0.111833833931    -0.013979315774    -0.000076717377    -0.000530561205    -0.084788889198    -0.016584809029    -0.000144756693    -0.000543891242
            -0.000076717377    -0.000530561205    0.141408224326    0.032145017393    -0.000123315616    -0.000657121970    0.127518064724    0.007231007007
            -0.084788892192    -0.016584824979    -0.000123315614    -0.000657121960    -0.111528598037    -0.016852779239    -0.000143390848    -0.000661651168
            -0.000144756696    -0.000543891252    0.127518064901    0.007231003891    -0.000143390848    -0.000661651168    0.142685494014    0.031040470976
0.750     -0.115752890355    0.033171515276    -0.000194276248    -0.000524860208    -0.092663395589    0.023336842734    -0.000274855870    -0.000508728051
            -0.000194276248    -0.000524860208    0.157513957109    0.028499740820    -0.000263906583    -0.000647278748    0.138200679857    0.005085332482
            -0.092663399468    0.023336843711    -0.000263906583    -0.000647278748    -0.116314917123    0.030128758123    -0.000297302041    -0.000628897898
            -0.000274855870    -0.000508728051    0.138200679849    0.005085332724    -0.000297302041    -0.000628897898    0.158246317328    0.027238500270
0.775     -0.102594885937    0.078575594243    -0.000315274629    -0.000488874974    -0.085738794337    0.063562828449    -0.000393291911    -0.000437835268
            -0.000315274635    -0.000488874982    0.173623328906    0.018551105888    -0.000410361290    -0.000602567187    0.149873554621    -0.001606085814
            -0.085738781332    0.063562795619    -0.000410361273    -0.000602567162    -0.104044342201    0.075688400641    -0.000441079231    -0.000555416967
            -0.000393291911    -0.000437835268    0.149873544545    -0.001606092796    -0.000441079225    -0.000555416959    0.173805704350    0.017375433234
