# GHz S RI R 45
0.000     0.029216525000    0.000000000000    -0.000075329737    0.000000000000    0.000573631870    0.000000000000    -0.000041543213    0.000000000000
            -0.000075329248    0.000000000000    0.028330068000    0.000000000000    -0.000054310598    0.000000000000    0.000478796670    0.000000000000
            0.000573606760    0.000000000000    -0.000054310477    0.000000000000    0.029164179000    0.000000000000    -0.000049349182    0.000000000000
            -0.000041542856    0.000000000000    0.000478797870    0.000000000000    -0.000049349556    0.000000000000    0.028157388000    0.000000000000
0.025     0.034833206878    0.008779167198    -0.000110904569    -0.000035131475    0.002686843926    0.012162453798    -0.000098774329    -0.000047567707
            -0.000110904575    -0.000035131456    0.033270763028    0.008306301370    -0.000115499177    -0.000051043555    0.002325657466    0.011461994770
            0.002686694223    0.012162282047    -0.000115499168    -0.000051043551    0.034757989068    0.008759313576    -0.000088018543    -0.000035988482
            -0.000098774205    -0.000047567711    0.002325533864    0.011461826998    -0.000088018745    -0.000035988457    0.033266857442    0.008371899884
0.050     0.040268392900    0.011336817866    -0.000129935137    -0.000035528974    0.008660145583    0.022407061993    -0.000125119781    -0.000037717208
            -0.000129935140    -0.000035528999    0.037835313474    0.011090448285    -0.000143852558    -0.000040650179    0.007327311054    0.021389542508
            0.008660150099    0.022407052743    -0.000143852574    -0.000040650157    0.040141576723    0.011346628870    -0.000107920748    -0.000033780621
            -0.000125119790    -0.000037717211    0.007327341018    0.021389530129    -0.000107921744    -0.000033780519    0.037822374882    0.011055782973
0.075     0.044722084294    0.011123359570    -0.000141919008    -0.000036804113    0.016953628699    0.029203167868    -0.000136370896    -0.000031645294
            -0.000141918031    -0.000036804256    0.041466078916    0.011843067646    -0.000156005089    -0.000034158305    0.014423815870    0.028715751913
            0.016953608365    0.029203171579    -0.000156005108    -0.000034158309    0.044553620824    0.011205400967    -0.000119360556    -0.000032910907
            -0.000136370926    -0.000031645301    0.014423822281    0.028715750931    -0.000119360556    -0.000032910907    0.041349528521    0.011796445208
0.100     0.047143971678    0.008629867192    -0.000154134375    -0.000037629262    0.025624368607    0.032105752725    -0.000145694594    -0.000027399936
            -0.000154134375    -0.000037629262    0.043600387397    0.011008866659    -0.000166014247    -0.000029623511    0.022251210769    0.033021090540
            0.025624343190    0.032105757658    -0.000166014271    -0.000029623545    0.046968405180    0.008820336923    -0.000130531125    -0.000031920385
            -0.000145693657    -0.000027400155    0.022251211345    0.033021090152    -0.000130531129    -0.000031920410    0.043380137721    0.011039593806
0.125     0.046414952780    0.005162937259    -0.000167256619    -0.000036388861    0.032804266215    0.031648609565    -0.000154965970    -0.000022909169
            -0.000167256129    -0.000036388999    0.043541975993    0.009504596103    -0.000175914083    -0.000024911371    0.029450324451    0.034547682880
            0.032804243217    0.031648616119    -0.000175913637    -0.000024911527    0.046286289968    0.005475136839    -0.000142242876    -0.000029127179
            -0.000154966006    -0.000022909202    0.029450326351    0.034547683888    -0.000142242886    -0.000029127181    0.043269208718    0.009678321766
0.150     0.042074896481    0.002492412515    -0.000180825144    -0.000032498307    0.037137932528    0.029181752410    -0.000164322920    -0.000017074607
            -0.000180825134    -0.000032498305    0.041040490058    0.008585501211    -0.000185913247    -0.000018905655    0.034961352370    0.034105571452
            0.037137905964    0.029181761940    -0.000185912342    -0.000018905957    0.042063954108    0.002910254971    -0.000154085384    -0.000023855936
            -0.000164322960    -0.000017074611    0.034961343554    0.034105574761    -0.000154085394    -0.000023855937    0.040793088913    0.008934301735
0.175     0.034699346242    0.002630535378    -0.000194127456    -0.000025593006    0.038078561133    0.026552621330    -0.000173323979    -0.000009362984
            -0.000194127491    -0.000025592976    0.036517641691    0.009569534356    -0.000195648754    -0.000011049107    0.038215870931    0.032881542540
            0.038078538883    0.026552630509    -0.000195648343    -0.000011049289    0.034863657531    0.003097110659    -0.000165300827    -0.000015778884
            -0.000173323510    -0.000009363141    0.038215872447    0.032881543844    -0.000165300837    -0.000015778885    0.036384888615    0.010077385752
0.200     0.025807225712    0.007193794275    -0.000206459848    -0.000015857186    0.036062366710    0.025684685220    -0.000181419166    0.000000284973
            -0.000206459836    -0.000015857221    0.030978287849    0.013518912976    -0.000204629538    -0.000001235847    0.039268839980    0.032191953231
            0.036062341776    0.025684697819    -0.000204629588    -0.000001235847    0.026171676103    0.007621383921    -0.000175167335    -0.000005121521
            -0.000181419216    0.000000284973    0.039268833377    0.032191958131    -0.000175167345    -0.000005121522    0.031032284526    0.014124122006
0.225     0.017658847843    0.016969129279    -0.000217061853    -0.000003550543    0.032458335083    0.028087337553    -0.000187966118    0.000011693066
            -0.000217061400    -0.000003550763    0.025889556663    0.020975612348    -0.000212245885    0.000010454599    0.038798597166    0.033179239314
            0.032458315308    0.028087348180    -0.000212245945    0.000010454602    0.018200620011    0.017258089321    -0.000182919399    0.000007726273
            -0.000187965731    0.000011692844    0.038798601183    0.033179239232    -0.000182919419    0.000007726274    0.026165818785    0.021583411960
0.250     0.012813771077    0.031605482515    -0.000225422709    0.000010697029    0.029285833719    0.034425235226    -0.000192521604    0.000024343700
            -0.000225421828    0.000010696593    0.022921493437    0.031787988443    -0.000218029542    0.000023597768    0.037973467089    0.036539615264
            0.029285818557    0.034425244186    -0.000218029601    0.000023597774    0.013459102109    0.031671032216    -0.000188113609    0.000022030571
            -0.000192521674    0.000024343709    0.037973471802    0.036539614693    -0.000188113629    0.000022030573    0.023404409345    0.032293142161
0.275     0.013543522550    0.049504875999    -0.000231126679    0.000026144585    0.028714770863    0.044258486533    -0.000194788201    0.000037555815
            -0.000231126254    0.000026144333    0.023612940656    0.045028234231    -0.000221602510    0.000037598789    0.038187199507    0.042323265407
            0.028714749779    0.044258501405    -0.000221602570    0.000037598800    0.014177377043    0.049303381349    -0.000190455428    0.000036932826
            -0.000194788264    0.000037555862    0.038187203801    0.042323264226    -0.000190456296    0.000036933339    0.024235371546    0.045339932884
0.300     0.021219476530    0.068069372715    -0.000234214930    0.000041920691    0.032485239110    0.056088403814    -0.000194884576    0.000050565000
            -0.000234214920    0.000041920689    0.029011242848    0.059111641222    -0.000222968923    0.000051713735    0.040728417574    0.049896300729
            0.032485226886    0.056088412050    -0.000222968148    0.000051713227    0.021710958269    0.067616738298    -0.000190148805    0.000051536830
            -0.000194884635    0.000050565051    0.040728422322    0.049896299435    -0.000190148825    0.000051536835    0.029665947860    0.059179071305
0.325     0.035885390355    0.084226053890    -0.000234956954    0.000057251829    0.041413726815    0.067701912803    -0.000193180144    0.000062718460
            -0.000234956954    0.000057251829    0.039391545203    0.072059999871    -0.000222384006    0.000065258897    0.046455863099    0.058061625291
            0.041413691090    0.067701939345    -0.000222383668    0.000065258629    0.036118234936    0.083601396019    -0.000187633504    0.000065082651
            -0.000193179796    0.000062718236    0.046455867153    0.058061622048    -0.000187633921    0.000065082942    0.039953781019    0.071888277114
0.350     0.056170271882    0.095142692222    -0.000234007075    0.000071623001    0.055176698106    0.076734676726    -0.000190354439    0.000073654114
            -0.000234007066    0.000071622998    0.054141654498    0.081909111368    -0.000220452531    0.000077780102    0.055592083703    0.065337919279
            0.055176701540    0.076734673025    -0.000220451819    0.000077779505    0.056073191588    0.094476446806    -0.000183698772    0.000077163797
            -0.000190354482    0.000073654169    0.055592087124    0.065337916368    -0.000183698777    0.000077163837    0.054497816608    0.081562818800
0.375     0.079568315130    0.098855356737    -0.000232040324    0.000084851930    0.072400437620    0.081224708357    -0.000187084146    0.000083347231
            -0.000232039597    0.000084851297    0.071847239366    0.087100309404    -0.000217829447    0.000089148780    0.067665550089    0.070281751463
            0.072400403596    0.081224738684    -0.000217829477    0.000089148837    0.079135200945    0.098302356326    -0.000179097331    0.000087721940
            -0.000187084177    0.000083347284    0.067665552382    0.070281746479    -0.000179097710    0.000087722280    0.071921745008    0.086693144397
0.400     0.102988101099    0.094672332733    -0.000229732379    0.000097135144    0.091013422373    0.080023282535    -0.000183971843    0.000092123706
            -0.000229732379    0.000097135144    0.090565587761    0.086802454226    -0.000215155329    0.000099594315    0.081631372341    0.071795532072
            0.091013425167    0.080023279358    -0.000215155365    0.000099594332    0.102283334105    0.094380774535    -0.000174510425    0.000097104609
            -0.000183971863    0.000092123756    0.081631368592    0.071795521194    -0.000174510425    0.000097104649    0.090339856174    0.086475624701
0.425     0.123362244247    0.083241063691    -0.000227474057    0.000108890912    0.108675163843    0.072952597572    -0.000181319146    0.000100496585
            -0.000227473718    0.000108890555    0.108186817907    0.081044289896    -0.000212803268    0.000109576685    0.096081508693    0.069314234948
            0.108675166389    0.072952593778    -0.000212803285    0.000109576740    0.122511767162    0.083321585440    -0.000170277645    0.000105831053
            -0.000181319146    0.000100496667    0.096081503003    0.069314225744    -0.000170278304    0.000105831793    0.107706885945    0.080939168659
0.450     0.138182901214    0.066368089223    -0.000225411007    0.000120677782    0.123191779657    0.060784750311    -0.000179155651    0.000109064496
            -0.000225411007    0.000120677782    0.122811510797    0.070689978249    -0.000210888572    0.000119680284    0.109511859844    0.062889760475
            0.123191771750    0.060784743736    -0.000210888586    0.000119680341    0.137353439856    0.066870727028    -0.000166453335    0.000114531487
            -0.000179155666    0.000109064548    0.109511860941    0.062889758563    -0.000166453343    0.000114531493    0.122182356516    0.070919932511
0.475     0.145860106947    0.046673736650    -0.000223360299    0.000132985825    0.132827143325    0.045084308158    -0.000177196737    0.000118320806
            -0.000223360299    0.000132985825    0.133042978975    0.057258805680    -0.000209202184    0.000130433914    0.120554597377    0.053153920769
            0.132827144112    0.045084305840    -0.000209202195    0.000130433972    0.145232257166    0.047574744969    -0.000162755503    0.000123690714
            -0.000177196767    0.000118320870    0.120554590082    0.053153912527    -0.000162755503    0.000123690714    0.132413500129    0.057887637032
0.500     0.145936400882    0.027198285298    -0.000220938257    0.000146194421    0.136557041573    0.028008446242    -0.000174966902    0.000128599514
            -0.000220938248    0.000146194416    0.138191151697    0.042678690229    -0.000207324105    0.000142238212    0.128189080477    0.041226581347
            0.136557041573    0.028008446242    -0.000207324113    0.000142238271    0.145672353433    0.028397698065    -0.000158710233    0.000133641124
            -0.000174966918    0.000128599526    0.128189080477    0.041226581347    -0.000158710751    0.000133641938    0.137730878094    0.043704225098
0.525     0.139161671512    0.010980430582    -0.000217581141    0.000160425614    0.134256344145    0.012039196700    -0.000171847303    0.000139956528
            -0.000217580863    0.000160425233    0.138356304797    0.028989266983    -0.000204649894    0.000155245192    0.131889754906    0.028555104898
            0.134256344145    0.012039196700    -0.000204649918    0.000155245211    0.139375923356    0.012311693953    -0.000153711320    0.000144401496
            -0.000171847309    0.000139956583    0.131889755404    0.028555102596    -0.000153711320    0.000144401496    0.138228285341    0.030338819292
0.550     0.127481928672    0.000622804899    -0.000212689012    0.000175562339    0.126853585759    -0.000354108213    -0.000167219180    0.000152180208
            -0.000212689004    0.000175562333    0.134431207902    0.018051604306    -0.000200532240    0.000169346107    0.131746265036    0.016722622647
            0.126853575760    -0.000354107920    -0.000200532330    0.000169346123    0.128211459616    0.001874374631    -0.000147162100    0.000155732548
            -0.000167219277    0.000152180190    0.131746265269    0.016722620807    -0.000147162100    0.000155732548    0.134762083125    0.019586370572
0.575     0.113871012994    -0.002184250958    -0.000205702103    0.000191163370    0.116350040237    -0.007177079829    -0.000160559276    0.000164741145
            -0.000205701858    0.000191162942    0.127994856292    0.011254684801    -0.000194357854    0.000184107174    0.128498453448    0.007194459083
            0.116349995518    -0.007176992680    -0.000194357851    0.000184107236    0.115056765485    -0.001233747576    -0.000138586545    0.000167061389
            -0.000160559069    0.000164740761    0.128498453574    0.007194456840    -0.000138586552    0.000167061397    0.128849225965    0.012787177399
0.600     0.101962939890    0.002868452483    -0.000196267107    0.000206540345    0.105631817503    -0.007436365148    -0.000151597330    0.000176875888
            -0.000196267100    0.000206540337    0.121120248698    0.009256193703    -0.000185719061    0.000198817309    0.123493401674    0.001042280113
            0.105631827530    -0.007436365113    -0.000185719095    0.000198817346    0.103446562471    0.003332615030    -0.000127772058    0.000177607501
            -0.000151597356    0.000176875918    0.123493401696    0.001042277526    -0.000127772064    0.000177607509    0.122480430173    0.010578754453
0.625     0.095385375987    0.014378269335    -0.000184356298    0.000220788190    0.097935886152    -0.001604764523    -0.000140433124    0.000187664762
            -0.000184356292    0.000220788183    0.116048765512    0.011786419394    -0.000174538771    0.000212538099    0.118481556285    -0.001333476616
            0.097935886152    -0.001604764540    -0.000174538815    0.000212538153    0.096929539631    0.014253554178    -0.000114895836    0.000186431904
            -0.000140432964    0.000187664345    0.118481556267    -0.001333478250    -0.000114895995    0.000186432381    0.117808953169    0.012707402656
0.650     0.096889352418    0.029266132963    -0.000170398613    0.000233012291    0.096052296365    0.008246195347    -0.000127628148    0.000196265507
            -0.000170398308    0.000233011362    0.114781165344    0.017591974160    -0.000161219722    0.000224315542    0.115294051856    -0.000374474623
            0.096052300595    0.008246192839    -0.000161219410    0.000224314695    0.098223353396    0.028568829152    -0.000100598460    0.000192708083
            -0.000127627840    0.000196264658    0.115294051841    -0.000374479050    -0.000100598736    0.000192709022    0.116758085919    0.017975748558
0.675     0.107499569136    0.043342951179    -0.000155268316    0.000242534138    0.101461484808    0.018820347946    -0.000114154201    0.000202128641
            -0.000155268074    0.000242533200    0.118615530789    0.024588838891    -0.000146633552    0.000233409882    0.115403674549    0.002641433304
            0.101461476267    0.018820393988    -0.000146633584    0.000233409933    0.108381888355    0.042215408662    -0.000085944537    0.000195916432
            -0.000114154190    0.000202128704    0.115403674622    0.002641430082    -0.000085944790    0.000195917380    0.120578537246    0.024388082797
0.700     0.126109976142    0.052335381983    -0.000140141776    0.000249192065    0.113844424108    0.026462778488    -0.000101208268    0.000205254267
            -0.000140141586    0.000249191116    0.127801698896    0.030248249023    -0.000131989851    0.000239599078    0.119551144550    0.005850448221
            0.113844404248    0.026462863928    -0.000131989828    0.000239599136    0.126386934325    0.051019173626    -0.000072204935    0.000196123143
            -0.000101208254    0.000205254330    0.119551144550    0.005850448221    -0.000072205133    0.000196124104    0.129516656516    0.029519515748
0.725     0.149724468017    0.053000238340    -0.000126172709    0.000253420863    0.131169992851    0.028159692748    -0.000089884608    0.000206233613
            -0.000126172637    0.000253420385    0.141408224326    0.032145017393    -0.000118495965    0.000243287591    0.127518064724    0.007231007007
            0.131169974175    0.028159779743    -0.000118495796    0.000243286705    0.149368210081    0.051780642701    -0.000060541117    0.000194010263
            -0.000089884600    0.000206233693    0.127518064901    0.007231003891    -0.000060541120    0.000194010273    0.142685494014    0.031040470976
0.750     0.174289117974    0.043869505861    -0.000114163737    0.000256211938    0.150351572984    0.022254397509    -0.000080867601    0.000206155845
            -0.000114163729    0.000256211920    0.157513957109    0.028499740820    -0.000107022370    0.000245460664    0.138200679857    0.005085332482
            0.150351559117    0.022254491191    -0.000107022245    0.000245459791    0.173399473992    0.043013693724    -0.000051658175    0.000190779022
            -0.000080867612    0.000206155873    0.138200679849    0.005085332724    -0.000051658293    0.000190779985    0.158246317328    0.027238500270
0.775     0.195687106673    0.025401170932    -0.000104323964    0.000258806832    0.168060722208    0.008637334889    -0.000074233601    0.000206299191
            -0.000104323928    0.000258806350    0.173623328906    0.018551105888    -0.000097835499    0.000247393608    0.149873554621    -0.001606085814
            0.168060710277    0.008637372214    -0.000097835470    0.000247393662    0.194465815671    0.025104823243    -0.000045624903    0.000187821208
            -0.000074233581    0.000206298794    0.149873544545    -0.001606092796    -0.000045624877    0.000187821245    0.173805704350    0.017375433234
