# GHz S RI R 45
0.000     0.028379456000    0.000000000000    0.971190150000    -0.000000000000    0.000720390640    -0.000000000000    -0.000857029030    0.000000000000
            0.971190150000    -0.000000000000    0.028330068000    0.000000000000    -0.000857186350    0.000000000000    0.000478796670    0.000000000000
            0.000720360600    -0.000000000000    -0.000857221440    0.000000000000    0.028344525000    0.000000000000    0.971251500000    -0.000000000000
            -0.000857064160    0.000000000000    0.000478797870    0.000000000000    0.971251500000    -0.000000000000    0.028157388000    0.000000000000
0.025     0.035525515107    0.008360178273    0.943990872441    -0.211440755803    0.004006869365    0.010923450003    -0.001342932994    -0.001968546583
            0.943990872441    -0.211440755803    0.033270763028    0.008306301370    -0.001339468111    -0.001967544049    0.002325657466    0.011461994770
            0.004006823810    0.010923510384    -0.001339502860    -0.001967598783    0.035451925258    0.008287700751    0.944102998135    -0.211146091089
            -0.001343068800    -0.001968609852    0.002325533864    0.011461826998    0.944102998135    -0.211146091089    0.033266857442    0.008371899884
0.050     0.044985111312    0.008772967934    0.873932389075    -0.407756816090    0.012748688974    0.018468938278    -0.002915973418    -0.003535946351
            0.873932389075    -0.407756816090    0.037835313474    0.011090448285    -0.002912031077    -0.003536652771    0.007327311054    0.021389542508
            0.012748656203    0.018468969405    -0.002912064658    -0.003536647012    0.044902364419    0.008656729001    0.874237952273    -0.407191967041
            -0.002916006660    -0.003535942657    0.007327341018    0.021389530129    0.874237952273    -0.407191967041    0.037822374882    0.011055782973
0.075     0.054896588679    0.003289973495    0.764440704245    -0.583813411854    0.024548862280    0.020229187947    -0.005119238887    -0.004182900537
            0.764440704245    -0.583813411854    0.041466078916    0.011843067646    -0.005114482126    -0.004182986949    0.014423815870    0.028715751913
            0.024548841581    0.020229216212    -0.005114508804    -0.004182968546    0.054816492055    0.003131031000    0.765058151681    -0.583071454443
            -0.005119266220    -0.004182881151    0.014423822281    0.028715750931    0.765058151681    -0.583071454443    0.041349528521    0.011796445208
0.100     0.062454468922    -0.008419381129    0.620540703680    -0.731786128126    0.036154743451    0.015260274803    -0.007485772159    -0.003909445431
            0.620540703680    -0.731786128126    0.043600387397    0.011008866659    -0.007476599859    -0.003909343241    0.022251210769    0.033021090540
            0.036154738469    0.015260299464    -0.007476623111    -0.003909318842    0.062391097489    -0.008623722614    0.621546291218    -0.730989254299
            -0.007485796681    -0.003909423318    0.022251211345    0.033021090152    0.621546291218    -0.730989254299    0.043380137721    0.011039593806
0.125     0.064453752257    -0.024997584251    0.449087138451    -0.845274741622    0.044213921420    0.004215441310    -0.009751910667    -0.002861234884
            0.449087138451    -0.845274741622    0.043541975993    0.009504596103    -0.009735355056    -0.002865540376    0.029450324451    0.034547682880
            0.044213925622    0.004215470989    -0.009735376570    -0.002865509781    0.064420844482    -0.025261110312    0.450516873964    -0.844561865977
            -0.009751927792    -0.002861208483    0.029450326351    0.034547683888    0.450516873964    -0.844561865977    0.043269208718    0.009678321766
0.150     0.058572065288    -0.043707441226    0.258031268379    -0.919418637518    0.045981640073    -0.010762658101    -0.011837584734    -0.001173540077
            0.258031268379    -0.919418637518    0.041040490058    0.008585501211    -0.011814530303    -0.001189875188    0.034961352370    0.034105571452
            0.045981651551    -0.010762635393    -0.011814543991    -0.001189839074    0.058580250616    -0.044053091361    0.259880950112    -0.918938863511
            -0.011837594362    -0.001173513909    0.034961343554    0.034105574761    0.259880950112    -0.918938863511    0.040793088913    0.008934301735
0.175     0.043842473339    -0.060690882195    0.056071988161    -0.951103841650    0.039885498469    -0.026435740379    -0.013737820420    0.001160157766
            0.056071988161    -0.951103841650    0.036517641691    0.009569534356    -0.013715441885    0.001124532281    0.038215870931    0.032881542540
            0.039885516017    -0.026435722953    -0.013715447714    0.001124571318    0.043888411715    -0.061153839635    0.058295241069    -0.951004436904
            -0.013737826351    0.001160194489    0.038215872447    0.032881543844    0.058295241069    -0.951004436904    0.036384888615    0.010077385752
0.200     0.021178377179    -0.071856269649    -0.147598577420    -0.938977714586    0.025936372937    -0.039049307838    -0.015365824692    0.004291256086
            -0.147598577420    -0.938977714586    0.030978287849    0.013518912976    -0.015356656862    0.004234239312    0.039268839980    0.032191953231
            0.025936396278    -0.039049297137    -0.015356656959    0.004234265295    0.021238629382    -0.072474763090    -0.145090415702    -0.939397411423
            -0.015365823624    0.004291293370    0.039268833377    0.032191958131    -0.145090415702    -0.939397411423    0.031032284526    0.014124122006
0.225     -0.006685809566    -0.073703620382    -0.343564886312    -0.883594337288    0.005863186310    -0.045060437210    -0.016417802264    0.008405879885
            -0.343564886312    -0.883594337288    0.025889556663    0.020975612348    -0.016435649616    0.008333765641    0.038798597166    0.033179239314
            0.005863220385    -0.045060434793    -0.016435640751    0.008333800813    -0.006657507103    -0.074508046663    -0.340903329989    -0.884650599966
            -0.016417794137    0.008405915507    0.038798601183    0.033179239232    -0.340903329989    -0.884650599966    0.026165818785    0.021583411960
0.250     -0.035535936493    -0.064122250349    -0.522584835102    -0.787577380151    -0.017076658551    -0.041913876591    -0.016351691757    0.013531161188
            -0.522584835102    -0.787577380151    0.022921493437    0.031787988443    -0.016405739661    0.013458749635    0.037973467089    0.036539615264
            -0.017076627403    -0.041913883882    -0.016405723129    0.013458783977    -0.035605504255    -0.065122695140    -0.519943725314    -0.789354186541
            -0.016351677436    0.013531192611    0.037973471802    0.036539614693    -0.519943725314    -0.789354186541    0.023404409345    0.032293142161
0.275     -0.060391251542    -0.042980250308    -0.676112820183    -0.655653494559    -0.038640726797    -0.028682803445    -0.014510211824    0.019343761037
            -0.676112820183    -0.655653494559    0.023612940656    0.045028234231    -0.014600101398    0.019290493603    0.038187199507    0.042323265407
            -0.038640716973    -0.028682806612    -0.014600082658    0.019290517820    -0.060633777847    -0.044154930518    -0.673694155689    -0.658188317896
            -0.014510188040    0.019343792629    0.038187203801    0.042323264226    -0.673694155689    -0.658188317896    0.024235371546    0.045339932884
0.300     -0.076461789957    -0.012378342069    -0.796901305301    -0.494507474443    -0.054433796388    -0.006421076517    -0.010374179742    0.025095545161
            -0.796901305301    -0.494507474443    0.029011242848    0.059111641222    -0.010488026716    0.025078471320    0.040728417574    0.049896300729
            -0.054433794401    -0.006421076282    -0.010487996716    0.025078497958    -0.076946210115    -0.013668343007    -0.794925897411    -0.497772006972
            -0.010374150051    0.025095572584    0.040728422322    0.049896299435    -0.794925897411    -0.497772006972    0.029665947860    0.059179071305
0.325     -0.080152470153    0.023603821181    -0.879550613627    -0.312369730427    -0.060829542318    0.021932057094    -0.003837799517    0.029718210586
            -0.879550613627    -0.312369730427    0.039391545203    0.072059999871    -0.003955555596    0.029745562272    0.046455863099    0.058061625291
            -0.060829537549    0.021932067372    -0.003955523959    0.029745582620    -0.080922093938    0.022291390509    -0.878234804285    -0.316271081630
            -0.003837767852    0.029718230808    0.046455867153    0.058061622048    -0.878234804285    -0.316271081630    0.039953781019    0.071888277114
0.350     -0.069870076763    0.059610134786    -0.920901507048    -0.118394161220    -0.055762856872    0.052083504421    0.004620475876    0.032106881213
            -0.920901507048    -0.118394161220    0.054141654498    0.081909111368    0.004520343489    0.032173816117    0.055592083703    0.065337919279
            -0.055762846320    0.052083512788    0.004520378563    0.032173829366    -0.070926139064    0.058389572043    -0.920431613891    -0.122774028433
            0.004620510942    0.032106894352    0.055592087124    0.065337916368    -0.920431613891    -0.122774028433    0.054497816608    0.081562818800
0.375     -0.046377684268    0.090010746668    -0.920107499050    0.078052357376    -0.039145667744    0.079215925466    0.013970182000    0.031465069880
            -0.920107499050    0.078052357376    0.071847239366    0.087100309404    0.013902235494    0.031555408844    0.067665550089    0.070281751463
            -0.039145697259    0.079215880763    0.013902264378    0.031555414695    -0.047670371954    0.088997381802    -0.920621062222    0.073403228329
            0.013970214972    0.031465076029    0.067665552382    0.070281746479    -0.920621062222    0.073403228329    0.071921745008    0.086693144397
0.400     -0.012667464252    0.109932051119    -0.878455701561    0.268048883596    -0.012861405632    0.098886625589    0.022870180345    0.027583862052
            -0.878455701561    0.268048883596    0.090565587761    0.086802454226    0.022836156258    0.027676363592    0.081631372341    0.071795532072
            -0.012861401922    0.098886624055    0.022836193599    0.027676362600    -0.014096883631    0.109219207763    -0.880030223305    0.263371094355
            0.022870217014    0.027583860228    0.081631368592    0.071795521194    -0.880030223305    0.263371094355    0.090339856174    0.086475624701
0.425     0.026597998387    0.116058305647    -0.798973729998    0.443569334133    0.019624988206    0.107751003684    0.030027536812    0.020928613897
            -0.798973729998    0.443569334133    0.108186817907    0.081044289896    0.030015365065    0.021005877252    0.096081508693    0.069314234948
            0.019624990087    0.107751003341    0.030015396655    0.021005870483    0.025170737431    0.115696349055    -0.801623337000    0.439115478917
            0.030027568376    0.020928607085    0.096081503003    0.069314225744    -0.801623337000    0.439115478917    0.107706885945    0.080939168659
0.450     0.065858970212    0.107100200378    -0.685990341490    0.597719030427    0.053855119950    0.104030669887    0.034549116164    0.012513256854
            -0.685990341490    0.597719030427    0.122811510797    0.070689978249    0.034537775563    0.012570084669    0.109511859844    0.062889760475
            0.053855033415    0.104030658383    0.034537806796    0.012570074874    0.064593174989    0.107081521561    -0.689668295710    0.593732702495
            0.034549147381    0.012513247015    0.109511860941    0.062889758563    -0.689668295710    0.593732702495    0.122182356516    0.070919932511
0.475     0.099470565350    0.083900497014    -0.544754895586    0.724753166031    0.085012857541    0.087687140400    0.036158542139    0.003604085808
            -0.544754895586    0.724753166031    0.133042978975    0.057258805680    0.036127114321    0.003651433707    0.120554597377    0.053153920769
            0.085012852110    0.087687131736    0.036127152170    0.003651407276    0.098521826143    0.084152913662    -0.549368179209    0.721460136777
            0.036158579973    0.003604059113    0.120554590082    0.053153912527    -0.549368179209    0.721460136777    0.132413500129    0.057887637032
0.500     0.122433622306    0.049288451793    -0.381203225966    0.820016386333    0.108525780811    0.060413303655    0.035225314258    -0.004642385168
            -0.381203225966    0.820016386333    0.138191151697    0.042678690229    0.035163412663    -0.004579399842    0.128189080477    0.041226581347
            0.108525780811    0.060413303655    0.035163412663    -0.004579399842    0.121929639621    0.049677224838    -0.386617370983    0.817619086839
            0.035225314250    -0.004642385230    0.128189080477    0.041226581347    -0.386617370983    0.817619086839    0.137730878094    0.043704225098
0.525     0.131000504496    0.007745095341    -0.201847990275    0.879862216133    0.120594589714    0.025473374205    0.032591306980    -0.011499579563
            -0.201847990275    0.879862216133    0.138356304797    0.028989266983    0.032507301717    -0.011389683342    0.131889754906    0.028555104898
            0.120594535016    0.025473439605    0.032507302910    -0.011389679938    0.131016982946    0.008083590753    -0.207896515630    0.878543595936
            0.032591359503    -0.011499653105    0.131889755404    0.028555102596    -0.207896515630    0.878543595936    0.138228285341    0.030338819292
0.550     0.123182524698    -0.035058334337    -0.013784160336    0.901671434563    0.118709991876    -0.012564540184    0.029253706793    -0.016853819028
            -0.013784144599    0.901671434803    0.134431207902    0.018051604306    0.029177403511    -0.016671796640    0.131746265036    0.016722622647
            0.118709991744    -0.012564541428    0.029177438673    -0.016671880229    0.123721701473    -0.034990019878    -0.020263889150    0.901588195493
            0.029253706793    -0.016853819028    0.131746265269    0.016722620807    -0.020263889150    0.901588195493    0.134762083125    0.019586370572
0.575     0.099140831615    -0.072868504777    0.175288543696    0.883981040147    0.102118191998    -0.048259657559    0.025983281939    -0.021180976616
            0.175288543696    0.883981040147    0.127994856292    0.011254684801    0.025960894363    -0.020921067220    0.128498453448    0.007194459083
            0.102118182115    -0.048259655068    0.025960913132    -0.020921157082    0.100117050549    -0.073295101806    0.168621165430    0.885268000286
            0.025983290214    -0.021181021859    0.128498453574    0.007194456840    0.168621165430    0.885268000286    0.128849225965    0.012787177399
0.600     0.061428488738    -0.099641097172    0.357130549483    0.826778463151    0.072212560168    -0.075958461073    0.023004552465    -0.025306581000
            0.357130545518    0.826778453971    0.121120248698    0.009256193703    0.023085698284    -0.024991427463    0.123493401674    0.001042280113
            0.072212581398    -0.075958371900    0.023085699692    -0.024991517374    0.062663425466    -0.100755628264    0.350561886950    0.829529894724
            0.023004552922    -0.025306671129    0.123493401696    0.001042277526    0.350561886950    0.829529894724    0.122480430173    0.010578754453
0.625     0.014934931555    -0.110495238899    0.523197196212    0.731866462435    0.032659897993    -0.090680903623    0.019861529259    -0.029991390496
            0.523197196212    0.731866462435    0.116048765512    0.011786419394    0.020082180934    -0.029672501737    0.118481556285    -0.001333476616
            0.032659954304    -0.090680836575    0.020082174012    -0.029672545063    0.016169132294    -0.112419480632    0.517061595077    0.736117354819
            0.019861520755    -0.029991434508    0.118481556267    -0.001333478250    0.517061595077    0.736117354819    0.117808953169    0.012707402656
0.650     -0.033614261995    -0.102726500776    0.665166499684    0.603182819632    -0.010898553433    -0.089153297927    0.015567529683    -0.035485324320
            0.665166499684    0.603182819632    0.114781165344    0.017591974160    0.015933129777    -0.035233081277    0.115294051856    -0.000374474623
            -0.010898554019    -0.089153289796    0.015933096703    -0.035233165376    -0.032690551308    -0.105474129758    0.659831400962    0.608887451428
            0.015567494918    -0.035485408367    0.115294051841    -0.000374479050    0.659831400962    0.608887451428    0.116758085919    0.017975748558
0.675     -0.076680654510    -0.076580719649    0.775671476052    0.446893051505    -0.051694586473    -0.070668618605    0.009030812062    -0.041235032910
            0.775671476052    0.446893051505    0.118615530789    0.024588838891    0.009508095471    -0.041119270622    0.115403674549    0.002641433304
            -0.051694541731    -0.070668609208    0.009508072088    -0.041119306821    -0.076378626213    -0.080036146268    0.771512353113    0.453899601639
            0.009030788253    -0.041235068836    0.115403674622    0.002641430082    0.771512353113    0.453899601639    0.120578537246    0.024388082797
0.700     -0.107329855252    -0.035478749632    0.849145339651    0.271076472572    -0.083127140048    -0.037474863960    -0.000386764119    -0.045924276408
            0.849145339651    0.271076472572    0.127801698896    0.030248249023    0.000134177765    -0.045992030274    0.119551144550    0.005850448221
            -0.083127140048    -0.037474863960    0.000134177765    -0.045992030274    -0.107903497113    -0.039401035031    0.846505156426    0.279121631264
            -0.000386764127    -0.045924277408    0.119551144550    0.005850448221    0.846505156426    0.279121631264    0.129516656516    0.029519515748
0.725     -0.120644827432    0.014534213357    0.882449347607    0.085021218693    -0.100121135481    0.005589542118    -0.012427930695    -0.047873133923
            0.882449347607    0.085021218693    0.141408224326    0.032145017393    -0.011948615406    -0.048131615378    0.127518064724    0.007231007007
            -0.100121135481    0.005589542118    -0.011948615406    -0.048131615378    -0.122239262786    0.010479837961    0.881598704383    0.093733440773
            -0.012427964304    -0.047873160325    0.127518064901    0.007231003891    0.881598694276    0.093733441254    0.142685494014    0.031040470976
0.750     -0.114691252260    0.066005490287    0.875107719512    -0.101758582872    -0.100129357479    0.052112716877    -0.025839075216    -0.045653806990
            0.875107719689    -0.101758581345    0.157513957109    0.028499740820    -0.025480301998    -0.046066857605    0.138200679857    0.005085332482
            -0.100129295610    0.052112662467    -0.025480300062    -0.046066854105    -0.117309471196    0.062192536974    0.876204005647    -0.092816229118
            -0.025839065278    -0.045653808019    0.138200679849    0.005085332724    0.876204005485    -0.092816230647    0.158246317328    0.027238500270
0.775     -0.090707256154    0.111563127460    0.829047053845    -0.280406564351    -0.083420512098    0.095434635214    -0.038664942730    -0.038645188738
            0.829047053845    -0.280406564351    0.173623328906    0.018551105888    -0.038476909866    -0.039143194212    0.149873554621    -0.001606085814
            -0.083420488860    0.095434642244    -0.038476909866    -0.039143194212    -0.094207753020    0.108342379254    0.832125921968    -0.271703073213
            -0.038665028793    -0.038645207309    0.149873544545    -0.001606092796    0.832125926710    -0.271703058689    0.173805704350    0.017375433234
