# GHz S RI R 45
0.000     0.029341096000    0.000000000000    0.000014657210    0.000000000000    0.000467817490    0.000000000000    0.000023684094    0.000000000000
            0.000014657108    0.000000000000    0.028330068000    0.000000000000    0.000042955180    0.000000000000    0.000478796670    0.000000000000
            0.000467792680    0.000000000000    0.000042954991    0.000000000000    0.029269272000    0.000000000000    0.000022872854    0.000000000000
            0.000023683807    0.000000000000    0.000478797870    0.000000000000    0.000022872865    0.000000000000    0.028157388000    0.000000000000
0.025     0.035238300057    0.009134850632    -0.000045800473    -0.000021425614    0.002766299788    0.012497222538    -0.000028585444    -0.000017919590
            -0.000045800619    -0.000021425604    0.033270763028    0.008306301370    -0.000042204775    -0.000033481699    0.002325657466    0.011461994770
            0.002766149677    0.012497056045    -0.000042204967    -0.000033481707    0.035128139826    0.009104553944    -0.000021161883    -0.000009402756
            -0.000028585720    -0.000017919575    0.002325533864    0.011461826998    -0.000021161878    -0.000009402750    0.033266857442    0.008371899884
0.050     0.041086032329    0.011680251329    -0.000057610492    0.000021208030    0.009101865433    0.022831612936    -0.000038102729    0.000019606773
            -0.000057610593    0.000021207999    0.037835313474    0.011090448285    -0.000060096040    0.000022993105    0.007327311054    0.021389542508
            0.009101869615    0.022831603733    -0.000060096233    0.000022993131    0.040922753466    0.011657605480    -0.000025636850    0.000028701775
            -0.000038103007    0.000019606806    0.007327341018    0.021389530129    -0.000025636843    0.000028701777    0.037822374882    0.011055782973
0.075     0.045890506377    0.011159411632    -0.000043099823    0.000050701812    0.017772566250    0.029449045751    -0.000025149456    0.000045518290
            -0.000043099932    0.000050701797    0.041466078916    0.011843067646    -0.000042689345    0.000062013882    0.014423815870    0.028715751913
            0.017772545669    0.029449048828    -0.000042689536    0.000062013927    0.045677327002    0.011196751202    -0.000009744368    0.000055099233
            -0.000025149686    0.000045518331    0.014423822281    0.028715750931    -0.000009744359    0.000055099240    0.041349528521    0.011796445208
0.100     0.048445898394    0.008127744228    -0.000020043993    0.000068174588    0.026678641194    0.031923835467    -0.000004552077    0.000060955142
            -0.000020044103    0.000068174609    0.043600387397    0.011008866659    -0.000013570811    0.000085464177    0.022251210769    0.033021090540
            0.026678615670    0.031923841159    -0.000013570987    0.000085464223    0.048220622718    0.008267214495    0.000013869184    0.000070702838
            -0.000004552362    0.000060955198    0.022251211345    0.033021090152    0.000013869205    0.000070702835    0.043380137721    0.011039593806
0.125     0.047511817680    0.004032735954    0.000005442352    0.000075224703    0.033815550452    0.030895025434    0.000018163785    0.000067252719
            0.000005442263    0.000075224730    0.043541975993    0.009504596103    0.000018940967    0.000095461515    0.029450324451    0.034547682880
            0.033815522463    0.030895032348    0.000018940786    0.000095461561    0.047335855376    0.004289634638    0.000039572403    0.000076563999
            0.000018163531    0.000067252789    0.029450326351    0.034547683888    0.000039572413    0.000076564001    0.043269208718    0.009678321766
0.150     0.042595908314    0.000851685869    0.000030401502    0.000073602725    0.037760877887    0.027883033441    0.000040540732    0.000065908079
            0.000030401408    0.000073602751    0.041040490058    0.008585501211    0.000051147929    0.000094252346    0.034961352370    0.034105571452
            0.037760850099    0.027883042455    0.000051147759    0.000094252405    0.042546640447    0.001205637506    0.000064780785    0.000074108918
            0.000040540461    0.000065908170    0.034961343554    0.034105574761    0.000064780797    0.000074108918    0.040793088913    0.008934301735
0.175     0.034349455839    0.000796617551    0.000052566039    0.000065004605    0.037997382454    0.024930350800    0.000060505730    0.000058385189
            0.000052565938    0.000065004640    0.036517641691    0.009569534356    0.000079979802    0.000083985058    0.038215870931    0.032881542540
            0.037997364555    0.024930358030    0.000079979633    0.000083985122    0.034489229063    0.001182127986    0.000087200140    0.000064882381
            0.000060505511    0.000058385274    0.038215872447    0.032881543844    0.000087200154    0.000064882380    0.036384888615    0.010077385752
0.200     0.024473339904    0.005639119720    0.000070807007    0.000051019490    0.035095927203    0.024129246490    0.000077116436    0.000046077233
            0.000070806904    0.000051019532    0.030978287849    0.013518912976    0.000104011809    0.000066706476    0.039268839980    0.032191953231
            0.035095900945    0.024129258206    0.000104011646    0.000066706545    0.024827224115    0.005956240495    0.000105815407    0.000050452636
            0.000077116277    0.000046077311    0.039268833377    0.032191958131    0.000105815428    0.000050452639    0.031032284526    0.014124122006
0.225     0.015487671059    0.016216087618    0.000084223270    0.000033285519    0.030646723042    0.027075305480    0.000089532409    0.000030407306
            0.000084223173    0.000033285566    0.025889556663    0.020975612348    0.000122015546    0.000044521033    0.038798597166    0.033179239314
            0.030646698063    0.027075318650    0.000122015390    0.000044521111    0.016026871858    0.016352233717    0.000119714617    0.000032404521
            0.000089532161    0.000030407433    0.038798601183    0.033179239232    0.000119714628    0.000032404518    0.026165818785    0.021583411960
0.250     0.010228109528    0.032081092531    0.000092503991    0.000013191929    0.026926197664    0.034391140334    0.000097533344    0.000012591246
            0.000092503899    0.000013191981    0.022921493437    0.031787988443    0.000133668516    0.000019213151    0.037973467089    0.036539615264
            0.026926172373    0.034391153785    0.000133668538    0.000019213142    0.010865507602    0.031940403997    0.000128749321    0.000012103133
            0.000097533104    0.000012591382    0.037973471802    0.036539614693    0.000128749342    0.000012103129    0.023404409345    0.032293142161
0.275     0.011173003829    0.051393850305    0.000095510665    -0.000007768908    0.026319462921    0.045454806524    0.000100957349    -0.000006091926
            0.000095510614    -0.000007768879    0.023612940656    0.045028234231    0.000138773107    -0.000007354079    0.038187199507    0.042323265407
            0.026319448348    0.045454816117    0.000138772710    -0.000007353819    0.011775454637    0.050927935879    0.000132784181    -0.000009071028
            0.000100957117    -0.000006091780    0.038187203801    0.042323264226    0.000132784191    -0.000009071033    0.024235371546    0.045339932884
0.300     0.019752841576    0.071220469889    0.000093512269    -0.000028378308    0.030662786354    0.058484214964    0.000100071325    -0.000024608840
            0.000093512184    -0.000028378246    0.029011242848    0.059111641222    0.000137727365    -0.000033705307    0.040728417574    0.049896300729
            0.030662788396    0.058484213894    0.000137727383    -0.000033705319    0.020169202898    0.070448146725    0.000132193930    -0.000030038273
            0.000100071106    -0.000024608686    0.040728422322    0.049896299435    0.000132193949    -0.000030038282    0.029665947860    0.059179071305
0.325     0.035886568778    0.088152831652    0.000087032384    -0.000047426731    0.040707441856    0.070963095834    0.000095260640    -0.000041929363
            0.000087032388    -0.000047426729    0.039391545203    0.072059999871    0.000131110625    -0.000058385552    0.046455863099    0.058061625291
            0.040707403970    0.070963124484    0.000131110640    -0.000058385567    0.035982608423    0.087164610251    0.000127390450    -0.000049736928
            0.000095259877    -0.000041928789    0.046455867153    0.058061622048    0.000127390468    -0.000049736937    0.039953781019    0.071888277114
0.350     0.057921429780    0.099125735100    0.000076840150    -0.000064113173    0.055919093963    0.080295740836    0.000087183694    -0.000057376519
            0.000076840143    -0.000064113165    0.054141654498    0.081909111368    0.000119851109    -0.000080453670    0.055592083703    0.065337919279
            0.055919094793    0.080295739039    0.000119851122    -0.000080453686    0.057613394235    0.098068611480    0.000119098570    -0.000067502703
            0.000087183709    -0.000057376533    0.055592087124    0.065337916368    0.000119098575    -0.000067502714    0.054497816608    0.081562818800
0.375     0.082992211755    0.102107320900    0.000063849561    -0.000077832215    0.074631869029    0.084421010951    0.000076545821    -0.000070399625
            0.000063849553    -0.000077832208    0.071847239366    0.087100309404    0.000104949934    -0.000099145824    0.067665550089    0.070281751463
            0.074631871976    0.084421008346    0.000104949592    -0.000099145502    0.082268969392    0.101155512966    0.000108015633    -0.000082767129
            0.000076545487    -0.000070399308    0.067665552382    0.070281746479    0.000108015645    -0.000082767147    0.071921745008    0.086693144397
0.400     0.107664018286    0.096510212954    0.000048929499    -0.000088389790    0.094478490414    0.082234555723    0.000064086653    -0.000080805424
            0.000048929503    -0.000088389787    0.090565587761    0.086802454226    0.000087426749    -0.000114194593    0.081631372341    0.071795532072
            0.094478491849    0.082234554074    0.000087426758    -0.000114194612    0.106591318306    0.095829875415    0.000094905980    -0.000095345231
            0.000064085977    -0.000080804748    0.081631368592    0.071795521194    0.000094906003    -0.000095345251    0.090339856174    0.086475624701
0.425     0.128611901673    0.083218001160    0.000032888805    -0.000095767457    0.112878444429    0.073718098160    0.000050454501    -0.000088503291
            0.000032888737    -0.000095767385    0.108186817907    0.081044289896    0.000068192047    -0.000125477252    0.096081508693    0.069314234948
            0.112878411611    0.073718130124    0.000068192056    -0.000125477270    0.127321888192    0.082935284544    0.000080403918    -0.000105105528
            0.000050454175    -0.000088502959    0.096081503003    0.069314225744    0.000080403935    -0.000105105553    0.107706885945    0.080939168659
0.450     0.143191474922    0.064350775806    0.000016317855    -0.000100155917    0.127483099760    0.059877939733    0.000036189124    -0.000093611158
            0.000016317789    -0.000100155846    0.122811510797    0.070689978249    0.000047980650    -0.000133152821    0.109511859844    0.062889760475
            0.127483100805    0.059877937508    0.000047980664    -0.000133152837    0.141860249081    0.064526943882    0.000065071586    -0.000112151097
            0.000036188517    -0.000093610428    0.109511860941    0.062889758563    0.000065071601    -0.000112151123    0.122182356516    0.070919932511
0.475     0.149803790721    0.042868796666    -0.000000312546    -0.000101774300    0.136495680780    0.042553627435    0.000021707912    -0.000096242173
            -0.000000312611    -0.000101774220    0.133042978975    0.057258805680    0.000027372879    -0.000137378937    0.120554597377    0.053153920769
            0.136495680780    0.042553627435    0.000027372590    -0.000137378576    0.148622340702    0.043487375973    0.000049340993    -0.000116541301
            0.000021707770    -0.000096242001    0.120554590082    0.053153912527    0.000049340993    -0.000116541312    0.132413500129    0.057887637032
0.500     0.148107169257    0.022141891621    -0.000016717348    -0.000100851367    0.138931682976    0.024194588218    0.000007334156    -0.000096572748
            -0.000016717415    -0.000100851285    0.138191151697    0.042678690229    0.000006794437    -0.000138390200    0.128189080477    0.041226581347
            0.138931683271    0.024194586520    0.000006794452    -0.000138390209    0.147248345816    0.023106183532    0.000033580635    -0.000118438421
            0.000007333995    -0.000096572528    0.128189080477    0.041226581347    0.000033580639    -0.000118438441    0.137730878094    0.043704225098
0.525     0.139092827543    0.005494545630    -0.000032658910    -0.000097551004    0.134820407634    0.007567083205    -0.000006673677    -0.000094717107
            -0.000032658973    -0.000097550909    0.138356304797    0.028989266983    -0.000013406308    -0.000136334559    0.131889754906    0.028555104898
            0.134820385248    0.007567125146    -0.000013406549    -0.000136334153    0.138679793847    0.006637391650    0.000018095472    -0.000117918608
            -0.000006673785    -0.000094716851    0.131889755404    0.028555102596    0.000018095477    -0.000117918627    0.138228285341    0.030338819292
0.550     0.125072852868    -0.004274957238    -0.000047961717    -0.000091963300    0.125376115000    -0.004627662540    -0.000020073884    -0.000090797214
            -0.000047961770    -0.000091963205    0.134431207902    0.018051604306    -0.000032923148    -0.000131348547    0.131746265036    0.016722622647
            0.125376115000    -0.004627662540    -0.000032923599    -0.000131347723    0.125148052911    -0.003167846171    0.000003189414    -0.000115119537
            -0.000020074030    -0.000090796972    0.131746265269    0.016722620807    0.000003189412    -0.000115119537    0.134762083125    0.019586370572
0.575     0.109492390127    -0.005440265647    -0.000062384514    -0.000084127931    0.113012937109    -0.010290989531    -0.000032619901    -0.000084893503
            -0.000062384526    -0.000084127886    0.127994856292    0.011254684801    -0.000051419324    -0.000123500197    0.128498453448    0.007194459083
            0.113012920909    -0.010290946888    -0.000051419389    -0.000123500051    0.109997944423    -0.004593389061    -0.000010835053    -0.000110124930
            -0.000032620009    -0.000084893299    0.128498453574    0.007194456840    -0.000010835050    -0.000110124941    0.128849225965    0.012787177399
0.600     0.096489405907    0.002107045022    -0.000075626610    -0.000074063082    0.101096776945    -0.008542284692    -0.000044018005    -0.000077131922
            -0.000075626652    -0.000074062968    0.121120248698    0.009256193703    -0.000068489639    -0.000112896486    0.123493401674    0.001042280113
            0.101096777005    -0.008542283987    -0.000068489705    -0.000112896329    0.097264044549    0.002508071131    -0.000023635771    -0.000103117318
            -0.000044018113    -0.000077131673    0.123493401696    0.001042277526    -0.000023635758    -0.000103117341    0.122480430173    0.010578754453
0.625     0.090086222829    0.016490835397    -0.000087273271    -0.000061878098    0.093274988193    -0.000236098452    -0.000053962469    -0.000067684772
            -0.000087273300    -0.000061878004    0.116048765512    0.011786419394    -0.000083662190    -0.000099712845    0.118481556285    -0.001333476616
            0.093274988193    -0.000236098452    -0.000083662254    -0.000099712673    0.090888517803    0.016349352694    -0.000034880970    -0.000094312359
            -0.000053962570    -0.000067684512    0.118481556267    -0.001333478250    -0.000034880977    -0.000094312378    0.117808953169    0.012707402656
0.650     0.093145178974    0.033958355308    -0.000096881565    -0.000047814313    0.092503754772    0.011958777033    -0.000062142412    -0.000056853526
            -0.000096881597    -0.000047814203    0.114781165344    0.017591974160    -0.000096442361    -0.000084304227    0.115294051856    -0.000374474623
            0.092503754772    0.011958777033    -0.000096442418    -0.000084304070    0.093704051216    0.033302386558    -0.000044260872    -0.000084088003
            -0.000062142500    -0.000056853268    0.115294051841    -0.000374479050    -0.000044260865    -0.000084088024    0.116758085919    0.017975748558
0.675     0.106412744241    0.049645013361    -0.000104066432    -0.000032325893    0.100067786356    0.024116799874    -0.000068364499    -0.000045026347
            -0.000104066445    -0.000032325817    0.118615530789    0.024588838891    -0.000106445760    -0.000067193368    0.115403674549    0.002641433304
            0.100067786356    0.024116799874    -0.000106445808    -0.000067193217    0.106494558708    0.048631781257    -0.000051613540    -0.000072872466
            -0.000068364570    -0.000045026086    0.115403674622    0.002641430082    -0.000051613547    -0.000072872476    0.120578537246    0.024388082797
0.700     0.128171163455    0.058846338127    -0.000108628452    -0.000015969996    0.115132568224    0.032157129700    -0.000072563061    -0.000032659933
            -0.000108628456    -0.000015969899    0.127801698896    0.030248249023    -0.000113476734    -0.000049031997    0.119551144550    0.005850448221
            0.115132572153    0.032157115633    -0.000113476784    -0.000049031831    0.127639811546    0.057727803617    -0.000056923909    -0.000061167079
            -0.000072563097    -0.000032659767    0.119551144550    0.005850448221    -0.000056923898    -0.000061167110    0.129516656516    0.029519515748
0.725     0.154691558128    0.058279722473    -0.000110610088    0.000000670397    0.135020403873    0.032989770820    -0.000074875903    -0.000020127382
            -0.000110610098    0.000000670494    0.141408224326    0.032145017393    -0.000117615646    -0.000030428425    0.127518064724    0.007231007007
            0.135020393509    0.032989813238    -0.000117615689    -0.000030428261    0.153542454420    0.057342600388    -0.000060393269    -0.000049326094
            -0.000074875949    -0.000020127128    0.127518064901    0.007231003891    -0.000060393272    -0.000049326115    0.142685494014    0.031040470976
0.750     0.181311837942    0.046800709273    -0.000110222097    0.000017176940    0.156099785405    0.025211755235    -0.000075498819    -0.000007682630
            -0.000110222102    0.000017177039    0.157513957109    0.028499740820    -0.000119086002    -0.000011847236    0.138200679857    0.005085332482
            0.156099771808    0.025211839421    -0.000119086030    -0.000011847050    0.179666665159    0.046300918256    -0.000062259411    -0.000037588704
            -0.000075498855    -0.000007682394    0.138200679849    0.005085332724    -0.000062259416    -0.000037588723    0.158246317328    0.027238500270
0.775     0.203576070448    0.025392661087    -0.000107749499    0.000033308957    0.174730685029    0.009149486596    -0.000074655868    0.000004625306
            -0.000107749508    0.000033309063    0.173623328906    0.018551105888    -0.000118193325    0.000006487006    0.149873554621    -0.001606085814
            0.174730685492    0.009149477752    -0.000118193346    0.000006487172    0.201651130430    0.025505419056    -0.000062778328    -0.000025924300
            -0.000074655893    0.000004625530    0.149873544545    -0.001606092796    -0.000062778333    -0.000025924328    0.173805704350    0.017375433234
0.800     0.218061916934    -0.003368322250    -0.000103374594    0.000049009276    0.187962486599    -0.013541851959    -0.000072407269    0.000016822192
