# GHz S RI R 45
0.000     0.027933485000    0.000000000000    -0.000005408523    0.000000000000    0.000726327340    -0.000000000000    -0.000002347616    0.000000000000
            -0.000005408501    0.000000000000    0.028330068000    0.000000000000    -0.000006233848    0.000000000000    0.000478796670    0.000000000000
            0.000726329370    -0.000000000000    -0.000006233827    0.000000000000    0.027854186000    0.000000000000    -0.000012913457    0.000000000000
            -0.000002347667    0.000000000000    0.000478797870    0.000000000000    -0.000012913464    0.000000000000    0.028157388000    0.000000000000
0.025     0.034391253206    0.007310186283    0.000001375740    -0.000005261028    0.003523329728    0.009555303912    0.000007191440    -0.000003128976
            0.000001375721    -0.000005261038    0.033270763028    0.008306301370    -0.000007014298    -0.000009747065    0.002325657466    0.011461994770
            0.003523315036    0.009555350896    -0.000007014191    -0.000009747053    0.034313904168    0.007221056571    -0.000002624352    -0.000001971955
            0.000007191467    -0.000003128986    0.002325533864    0.011461826998    -0.000002624351    -0.000001971957    0.033266857442    0.008371899884
0.050     0.042913934496    0.007423778268    -0.000004098234    -0.000017776427    0.011113940459    0.016337725966    0.000003377207    -0.000016561596
            -0.000004098187    -0.000017776493    0.037835313474    0.011090448285    -0.000014738562    -0.000019626939    0.007327311054    0.021389542508
            0.011113932728    0.016337736062    -0.000014738602    -0.000019626872    0.042812095270    0.007265916837    -0.000002788772    -0.000016989649
            0.000003377247    -0.000016561589    0.007327341018    0.021389530129    -0.000002788771    -0.000016989619    0.037822374882    0.011055782973
0.075     0.051897413845    0.002376412433    -0.000016577670    -0.000024058548    0.021539890239    0.018224112634    -0.000007401575    -0.000024339901
            -0.000016577635    -0.000024058614    0.041466078916    0.011843067646    -0.000027458986    -0.000024369811    0.014423815870    0.028715751913
            0.021539884768    0.018224114456    -0.000027458999    -0.000024369754    0.051769500152    0.002167570884    -0.000014937148    -0.000026140964
            -0.000007401550    -0.000024339893    0.014423822281    0.028715750931    -0.000014937161    -0.000026140923    0.041349528521    0.011796445208
0.100     0.059008709947    -0.008175953098    -0.000031155580    -0.000023470807    0.032112226033    0.014323424660    -0.000020803311    -0.000026165052
            -0.000031155593    -0.000023470817    0.043600387397    0.011008866659    -0.000042107320    -0.000023280066    0.022251210769    0.033021090540
            0.032112226283    0.014323424100    -0.000042107221    -0.000023280146    0.058867403924    -0.008418492628    -0.000030443728    -0.000028404697
            -0.000020803296    -0.000026165089    0.022251211345    0.033021090152    -0.000030443742    -0.000028404709    0.043380137721    0.011039593806
0.125     0.061497199444    -0.023199030930    -0.000044811207    -0.000016598578    0.040019068185    0.005024937459    -0.000034215612    -0.000022424900
            -0.000044811191    -0.000016598563    0.043541975993    0.009504596103    -0.000056486127    -0.000016351088    0.029450324451    0.034547682880
            0.040019068317    0.005024936411    -0.000056486136    -0.000016351123    0.061364309514    -0.023467235355    -0.000046357956    -0.000024113475
            -0.000034215590    -0.000022424929    0.029450326351    0.034547683888    -0.000046357957    -0.000024113476    0.043269208718    0.009678321766
0.150     0.057266597971    -0.040508039595    -0.000055633382    -0.000004574366    0.042871270690    -0.008060701632    -0.000046029841    -0.000013754237
            -0.000055633384    -0.000004574366    0.041040490058    0.008585501211    -0.000068890853    -0.000004186077    0.034961352370    0.034105571452
            0.042871269426    -0.008060702944    -0.000068890812    -0.000004186171    0.057171374685    -0.040813065019    -0.000060771092    -0.000013887085
            -0.000046029840    -0.000013754271    0.034961343554    0.034105574761    -0.000060771108    -0.000013887089    0.040793088913    0.008934301735
0.175     0.045278976024    -0.056913224099    -0.000062259073    0.000011156905    0.039156378575    -0.022382384301    -0.000054912704    -0.000001062546
            -0.000062259061    0.000011156858    0.036517641691    0.009569534356    -0.000077955408    0.000012432852    0.038215870931    0.032881542540
            0.039156378185    -0.022382384984    -0.000077955413    0.000012432839    0.045242669039    -0.057283597012    -0.000072078620    0.000001432004
            -0.000054912704    -0.000001062575    0.038215872447    0.032881543844    -0.000072078626    0.000001432004    0.036384888615    0.010077385752
0.200     0.026018611338    -0.068928970429    -0.000063955592    0.000029218017    0.028587631523    -0.034878852556    -0.000059898706    0.000014757003
            -0.000063955589    0.000029217934    0.030978287849    0.013518912976    -0.000082592095    0.000032636143    0.039268839980    0.032191953231
            0.028587630280    -0.034878852282    -0.000082592093    0.000032636042    0.026046015923    -0.069406216042    -0.000079002407    0.000020953558
            -0.000059898705    0.000014756914    0.039268833377    0.032191958131    -0.000079002413    0.000020953559    0.031032284526    0.014124122006
0.225     0.001478892373    -0.073427995535    -0.000060208680    0.000048145839    0.012245116647    -0.042529001596    -0.000060108071    0.000032565868
            -0.000060208679    0.000048145838    0.025889556663    0.020975612348    -0.000081702866    0.000055370379    0.038798597166    0.033179239314
            0.012245115628    -0.042529000848    -0.000081702884    0.000055370287    0.001551349383    -0.074058300199    -0.000080288782    0.000043496284
            -0.000060108090    0.000032565811    0.038798601183    0.033179239232    -0.000080288788    0.000043496288    0.026165818785    0.021583411960
0.250     -0.025052439163    -0.068279455540    -0.000050771104    0.000066503509    -0.007516390304    -0.042949152900    -0.000054847614    0.000051048258
            -0.000050771104    0.000066503508    0.022921493437    0.031787988443    -0.000074279874    0.000079262218    0.037973467089    0.036539615264
            -0.007516390881    -0.042949151784    -0.000074279874    0.000079262218    -0.024979029807    -0.069101087999    -0.000074838457    0.000067557015
            -0.000054847650    0.000051048166    0.037973471802    0.036539614693    -0.000074838457    0.000067557015    0.023404409345    0.032293142161
0.275     -0.049495621439    -0.052849246329    -0.000035692232    0.000082567482    -0.027418666088    -0.034911603643    -0.000043760712    0.000068457987
            -0.000035692231    0.000082567480    0.023612940656    0.045028234231    -0.000059558957    0.000102360969    0.038187199507    0.042323265407
            -0.027418665471    -0.034911602857    -0.000059558957    0.000102360969    -0.049486515937    -0.053879299020    -0.000061894075    0.000091034851
            -0.000043760737    0.000068457947    0.038187203801    0.042323264226    -0.000061894075    0.000091034851    0.024235371546    0.045339932884
0.300     -0.067674224007    -0.028283278105    -0.000015538486    0.000094559638    -0.043832459494    -0.018685477767    -0.000027077129    0.000082855116
            -0.000015538551    0.000094559568    0.029011242848    0.059111641222    -0.000037435934    0.000122260723    0.040728417574    0.049896300729
            -0.043832464595    -0.018685470901    -0.000037435934    0.000122260723    -0.067805182791    -0.029506921923    -0.000041410485    0.000111438073
            -0.000027077187    0.000082855051    0.040728422322    0.049896299435    -0.000041410485    0.000111438073    0.029665947860    0.059179071305
0.325     -0.076092900276    0.002566022882    0.000008377753    0.000100734425    -0.053457140625    0.003916069810    -0.000005855294    0.000092292225
            0.000008377717    0.000100734388    0.039391545203    0.072059999871    -0.000008801879    0.000136338605    0.046455863099    0.058061625291
            -0.053457139628    0.003916069737    -0.000008801957    0.000136338560    -0.076433582196    0.001199900707    -0.000014379442    0.000126131331
            -0.000005855294    0.000092292223    0.046455867153    0.058061622048    -0.000014379440    0.000126131331    0.039953781019    0.071888277114
0.350     -0.072638381404    0.035544468985    0.000034082068    0.000099900142    -0.053973776066    0.029802487796    0.000018102795    0.000095328697
            0.000034082065    0.000099900133    0.054141654498    0.081909111368    0.000024365427    0.000142377171    0.055592083703    0.065337919279
            -0.053973775191    0.029802487312    0.000024365427    0.000142377171    -0.073235085679    0.034119850523    0.000017167255    0.000132962730
            0.000018102794    0.000095328692    0.055592087124    0.065337916368    0.000017167265    0.000132962729    0.054497816608    0.081562818800
0.375     -0.057013596570    0.065884977025    0.000059126545    0.000091688369    -0.044495026369    0.055134488568    0.000042478989    0.000091340505
            0.000059126546    0.000091688368    0.071847239366    0.087100309404    0.000059241287    0.000139047035    0.067665550089    0.070281751463
            -0.044495026369    0.055134488568    0.000059241197    0.000139047019    -0.057874535701    0.064506889774    0.000050409435    0.000130709149
            0.000042478944    0.000091340504    0.067665552382    0.070281746479    0.000050409486    0.000130709161    0.071921745008    0.086693144397
0.400     -0.030844112408    0.089012135143    0.000081151509    0.000076747107    -0.025743244507    0.075992375251    0.000064977014    0.000080690880
            0.000081151418    0.000076747102    0.090565587761    0.086802454226    0.000092726287    0.000126265646    0.081631372341    0.071795532072
            -0.025743244186    0.075992374304    0.000092726196    0.000126265638    -0.031930974242    0.087788216742    0.000082344859    0.000119378952
            0.000064977013    0.000080690881    0.081631368592    0.071795521194    0.000082344853    0.000119378943    0.090339856174    0.086475624701
0.425     0.002578285982    0.101284118923    0.000098267515    0.000056570934    0.000082157233    0.089012752085    0.000083721667    0.000064566004
            0.000098267514    0.000056570936    0.108186817907    0.081044289896    0.000122029477    0.000105121294    0.096081508693    0.069314234948
            0.000082158786    0.089012751084    0.000122029483    0.000105121303    0.001349585402    0.100304701172    0.000110330470    0.000100089394
            0.000083721667    0.000064566004    0.096081503003    0.069314225744    0.000110330473    0.000100089390    0.107706885945    0.080939168659
0.450     0.038802403745    0.100551072446    0.000109434040    0.000033126460    0.029657295496    0.091900315418    0.000097591824    0.000044613329
            0.000109434039    0.000033126462    0.122811510797    0.070689978249    0.000145165210    0.000077530736    0.109511859844    0.062889760475
            0.029657296793    0.091900313949    0.000145165210    0.000077530736    0.037553088460    0.099870270044    0.000132548253    0.000074703504
            0.000097591824    0.000044613329    0.109511860941    0.062889758563    0.000132548257    0.000074703497    0.122182356516    0.070919932511
0.475     0.072864735608    0.086443114544    0.000114454027    0.000008430826    0.059017906331    0.083727995966    0.000106221255    0.000022537292
            0.000114454028    0.000008430824    0.133042978975    0.057258805680    0.000161110141    0.000045733416    0.120554597377    0.053153920769
            0.059017906331    0.083727995966    0.000161110140    0.000045733422    0.071737306631    0.086065026398    0.000148105950    0.000045325075
            0.000106221255    0.000022537294    0.120554590082    0.053153912527    0.000148105950    0.000045325077    0.132413500129    0.057887637032
0.500     0.099960347755    0.060415873517    0.000113855523    -0.000015854274    0.084084770429    0.065059487564    0.000109862077    -0.000000257865
            0.000113855524    -0.000015854270    0.138191151697    0.042678690229    0.000169744616    0.000011815745    0.128189080477    0.041226581347
            0.084084771565    0.065059486097    0.000169744626    0.000011815749    0.099098699467    0.060287074731    0.000156944264    0.000013844473
            0.000109862008    -0.000000257807    0.128189080477    0.041226581347    0.000156944274    0.000013844472    0.137730878094    0.043704225098
0.525     0.116054890643    0.025573725534    0.000108563304    -0.000038615660    0.101164217625    0.037896144490    0.000109077893    -0.000022837344
            0.000108563304    -0.000038615658    0.138356304797    0.028989266983    0.000171536163    -0.000022631594    0.131889754906    0.028555104898
            0.101164218287    0.037896142725    0.000171536163    -0.000022631594    0.115581878334    0.025583519700    0.000159499238    -0.000018349301
            0.000109077870    -0.000022837308    0.131889755404    0.028555102596    0.000159499239    -0.000018349298    0.138228285341    0.030338819292
0.550     0.118410375851    -0.013670895958    0.000099563486    -0.000059374105    0.107425192769    0.005496747130    0.000104433982    -0.000044771770
            0.000099563485    -0.000059374107    0.134431207902    0.018051604306    0.000167167719    -0.000056644456    0.131746265036    0.016722622647
            0.107425192788    0.005496746755    0.000167167720    -0.000056644453    0.118405897277    -0.013682652669    0.000156333040    -0.000050471348
            0.000104433940    -0.000044771689    0.131746265269    0.016722620807    0.000156333040    -0.000050471348    0.134762083125    0.019586370572
0.575     0.105988684376    -0.052084881634    0.000087571351    -0.000078126727    0.101307903914    -0.027942941314    0.000096206787    -0.000065968995
            0.000087571351    -0.000078126727    0.127994856292    0.011254684801    0.000157114077    -0.000089798817    0.128498453448    0.007194459083
            0.101307894274    -0.027942938655    0.000157114087    -0.000089798819    0.106469838078    -0.052311165562    0.000147726478    -0.000082195161
            0.000096206778    -0.000065968954    0.128498453574    0.007194456840    0.000147726478    -0.000082195161    0.128849225965    0.012787177399
0.600     0.079712034388    -0.084236421410    0.000072804094    -0.000095087882    0.082863389714    -0.057759410139    0.000084219390    -0.000086391508
            0.000072804087    -0.000095087875    0.121120248698    0.009256193703    0.000141351274    -0.000121899531    0.123493401674    0.001042280113
            0.082863380502    -0.057759405866    0.000141351278    -0.000121899526    0.080619538186    -0.084878626227    0.000133436468    -0.000113322769
            0.000084219399    -0.000086391514    0.123493401696    0.001042277526    0.000133436466    -0.000113322771    0.122480430173    0.010578754453
0.625     0.042509381090    -0.105221553470    0.000054958097    -0.000110260820    0.053922240628    -0.079432061613    0.000067872217    -0.000105657086
            0.000054958097    -0.000110260820    0.116048765512    0.011786419394    0.000119267256    -0.000152490570    0.118481556285    -0.001333476616
            0.053922240628    -0.079432061613    0.000119267256    -0.000152490570    0.043702926783    -0.106458694740    0.000112667979    -0.000143275584
            0.000067872241    -0.000105657070    0.118481556267    -0.001333478250    0.000112667988    -0.000143275564    0.117808953169    0.012707402656
0.650     -0.000919414355    -0.111442857436    0.000033446148    -0.000123061484    0.018024022138    -0.089308730686    0.000046450979    -0.000122703486
            0.000033446148    -0.000123061484    0.114781165344    0.017591974160    0.000089955827    -0.000180358137    0.115294051856    -0.000374474623
            0.018024022138    -0.089308730686    0.000089955827    -0.000180358137    0.000348550502    -0.113397364330    0.000084424944    -0.000170637789
            0.000046450979    -0.000122703486    0.115294051841    -0.000374479050    0.000084424944    -0.000170637789    0.116758085919    0.017975748558
0.675     -0.044675553533    -0.101291842433    0.000007923081    -0.000132132246    -0.019985101348    -0.085291412281    0.000019668850    -0.000135677590
            0.000007923083    -0.000132132246    0.118615530789    0.024588838891    0.000052834434    -0.000203260873    0.115403674549    0.002641433304
            -0.019985101348    -0.085291412281    0.000052834431    -0.000203260874    -0.043592460839    -0.103999734591    0.000048174419    -0.000192944272
            0.000019668849    -0.000135677570    0.115403674622    0.002641430082    0.000048174404    -0.000192944255    0.120578537246    0.024388082797
0.700     -0.082544371209    -0.075573098940    -0.000021134815    -0.000135567939    -0.054680639244    -0.067341045446    -0.000011751450    -0.000142256597
            -0.000021134805    -0.000135567890    0.127801698896    0.030248249023    0.000008426437    -0.000218176958    0.119551144550    0.005850448221
            -0.054680639244    -0.067341045446    0.000008426458    -0.000218176997    -0.081914344225    -0.078966008562    0.000004618040    -0.000207019078
            -0.000011751450    -0.000142256597    0.119551144550    0.005850448221    0.000004618040    -0.000207019078    0.129516656516    0.029519515748
0.725     -0.109028816813    -0.037491746697    -0.000052076054    -0.000131550160    -0.080976590338    -0.037585779901    -0.000045793084    -0.000140342716
            -0.000052076054    -0.000131550160    0.141408224326    0.032145017393    -0.000041135135    -0.000222058883    0.127518064724    0.007231007007
            -0.080976587617    -0.037585778638    -0.000041135135    -0.000222058883    -0.109085493237    -0.041396607882    -0.000043861971    -0.000209790601
            -0.000045793084    -0.000140342716    0.127518064901    0.007231003891    -0.000043861971    -0.000209790601    0.142685494014    0.031040470976
0.750     -0.120308855977    0.007841006463    -0.000082245906    -0.000119112783    -0.095032592737    0.000007065771    -0.000079393889    -0.000128865126
            -0.000082245912    -0.000119112791    0.157513957109    0.028499740820    -0.000092203648    -0.000212857102    0.138200679857    0.005085332482
            -0.095032592737    0.000007065771    -0.000092203652    -0.000212857111    -0.121208044152    0.003681134584    -0.000093388247    -0.000199344445
            -0.000079393093    -0.000128864689    0.138200679849    0.005085332724    -0.000093388255    -0.000199344463    0.158246317328    0.027238500270
0.775     -0.114857299290    0.054285978682    -0.000108633481    -0.000098650968    -0.094873766953    0.040345121355    -0.000109167022    -0.000108256692
            -0.000108633050    -0.000098650819    0.173623328906    0.018551105888    -0.000140356941    -0.000190255087    0.149873554621    -0.001606085814
            -0.094873766953    0.040345121355    -0.000140356522    -0.000190254936    -0.116648875203    0.050175795539    -0.000139410005    -0.000175607955
            -0.000109167022    -0.000108256692    0.149873544545    -0.001606092796    -0.000139410005    -0.000175607955    0.173805704350    0.017375433234
