# GHz S RI R 45
0.000     0.029648232000    0.000000000000    0.000023884142    -0.000000000000    0.000685649210    0.000000000000    -0.000002954369    0.000000000000
            0.000023884043    -0.000000000000    0.028330068000    0.000000000000    0.000002450965    0.000000000000    0.000478796670    0.000000000000
            0.000685567600    0.000000000000    0.000002450818    0.000000000000    0.029584818000    0.000000000000    0.000001714162    0.000000000000
            -0.000002954476    0.000000000000    0.000478797870    0.000000000000    0.000001714257    0.000000000000    0.028157388000    0.000000000000
0.025     0.035273132790    0.008360292210    -0.000009140827    -0.000018503545    0.002961792750    0.011629186725    0.000001009569    0.000004354614
            -0.000009140908    -0.000018503538    0.033270763028    0.008306301370    -0.000005832262    -0.000002854327    0.002325657466    0.011461994770
            0.002961585494    0.011629023837    -0.000005832444    -0.000002854332    0.035224632760    0.008396691300    -0.000002365514    -0.000001054326
            0.000001009460    0.000004354623    0.002325533864    0.011461826998    -0.000002365419    -0.000001054325    0.033266857442    0.008371899884
0.050     0.040809034134    0.010245852918    -0.000018782450    -0.000002649299    0.008960932408    0.021119844630    0.000003848598    0.000004750738
            -0.000018782546    -0.000002649286    0.037835313474    0.011090448285    -0.000007000790    0.000003183133    0.007327311054    0.021389542508
            0.008960881381    0.021119840209    -0.000007000943    0.000003183125    0.040796507673    0.010329016166    -0.000002394784    0.000002431128
            0.000003848490    0.000004750749    0.007327341018    0.021389530129    -0.000002394700    0.000002431119    0.037822374882    0.011055782973
0.075     0.045259084542    0.009265659891    -0.000016355281    0.000008141092    0.017159962170    0.027097660494    0.000006352835    0.000004811438
            -0.000016355414    0.000008141076    0.041466078916    0.011843067646    -0.000004159576    0.000007106438    0.014423815870    0.028715751913
            0.017159888421    0.027097671687    -0.000004159729    0.000007106451    0.045315073137    0.009367755902    0.000000000070    0.000004520540
            0.000006352728    0.000004811455    0.014423822281    0.028715750931    0.000000000157    0.000004520526    0.041349528521    0.011796445208
0.100     0.047555387032    0.005905328293    -0.000010268223    0.000014591119    0.025595662551    0.029115626521    0.000009106216    0.000004171509
            -0.000010268352    0.000014591097    0.043600387397    0.011008866659    0.000000068295    0.000008895815    0.022251210769    0.033021090540
            0.025595584309    0.029115642045    0.000000068151    0.000008895849    0.047691978453    0.005983099065    0.000003343907    0.000004982025
            0.000009106103    0.000004171533    0.022251211345    0.033021090152    0.000003344000    0.000004982009    0.043380137721    0.011039593806
0.125     0.046518399035    0.001434992919    -0.000002890601    0.000017437367    0.032358708779    0.027715111923    0.000011920374    0.000002562253
            -0.000002890692    0.000017437388    0.043541975993    0.009504596103    0.000004636767    0.000008717269    0.029450324451    0.034547682880
            0.032358631758    0.027715131134    0.000004636629    0.000008717305    0.046723467327    0.001440415651    0.000006825178    0.000003867410
            0.000011920280    0.000002562278    0.029450326351    0.034547683888    0.000006825273    0.000003867388    0.043269208718    0.009678321766
0.150     0.041625685116    -0.002276696081    0.000004632967    0.000017214619    0.036037778353    0.024281277663    0.000014452638    -0.000000108245
            0.000004632844    0.000017214646    0.041040490058    0.008585501211    0.000008924242    0.000006764372    0.034961352370    0.034105571452
            0.036037693346    0.024281303608    0.000008924101    0.000006764415    0.041866676137    -0.002381521020    0.000009887268    0.000001273907
            0.000014452544    -0.000000108216    0.034961343554    0.034105574761    0.000009887355    0.000001273881    0.040793088913    0.008934301735
0.175     0.033380797671    -0.003180981779    0.000011428290    0.000014410429    0.036037733406    0.020726270932    0.000016324025    -0.000003770106
            0.000011428182    0.000014410459    0.036517641691    0.009569534356    0.000012412863    0.000003364205    0.038215870931    0.032881542540
            0.036037658305    0.020726297212    0.000012412749    0.000003364248    0.033605490414    -0.003419779985    0.000012064374    -0.000002473768
            0.000016323957    -0.000003770069    0.038215872447    0.032881543844    0.000012064473    -0.000002473801    0.036384888615    0.010077385752
0.200     0.023247497542    0.000444309079    0.000016864117    0.000009495938    0.032764410326    0.019072282786    0.000017187588    -0.000008218636
            0.000016864018    0.000009495978    0.030978287849    0.013518912976    0.000014730061    -0.000001175195    0.039268839980    0.032191953231
            0.032764337219    0.019072312964    0.000014729973    -0.000001175156    0.023391682882    0.000072746587    0.000013010585    -0.000007044981
            0.000017187501    -0.000008218597    0.039268833377    0.032191958131    0.000013010681    -0.000007045020    0.031032284526    0.014124122006
0.225     0.013481854993    0.009535111884    0.000020451694    0.000003120157    0.027600228490    0.020953204926    0.000016765181    -0.000013104821
            0.000020451629    0.000003120177    0.025889556663    0.020975612348    0.000015603688    -0.000006389193    0.038798597166    0.033179239314
            0.027600156233    0.020953238914    0.000015603550    -0.000006389132    0.013481486626    0.009062677805    0.000012543512    -0.000011959525
            0.000016765094    -0.000013104778    0.038798601183    0.033179239232    0.000012543606    -0.000011959568    0.026165818785    0.021583411960
0.250     0.006709098084    0.023905242927    0.000021882821    -0.000004072790    0.022635803719    0.027164632279    0.000014914635    -0.000017982452
            0.000021882731    -0.000004072740    0.022921493437    0.031787988443    0.000014871510    -0.000011819280    0.037973467089    0.036539615264
            0.022635724872    0.027164674550    0.000014871331    -0.000011819188    0.006515193283    0.023394034344    0.000010591758    -0.000016750554
            0.000014914552    -0.000017982406    0.037973471802    0.036539614693    0.000010591850    -0.000016750602    0.023404409345    0.032293142161
0.275     0.005351329663    0.042098130175    0.000021124437    -0.000011282007    0.020180783533    0.037371222739    0.000011686443    -0.000022332645
            0.000021124351    -0.000011281953    0.023612940656    0.045028234231    0.000012581764    -0.000016895713    0.038187199507    0.042323265407
            0.020180715643    0.037371263946    0.000012581638    -0.000016895636    0.004944254880    0.041632696698    0.000007313672    -0.000020910260
            0.000011686363    -0.000022332596    0.038187203801    0.042323264226    0.000007313762    -0.000020910313    0.024235371546    0.045339932884
0.300     0.011000305117    0.061586792968    0.000018371878    -0.000017839279    0.022167612865    0.050114388532    0.000007350999    -0.000025701666
            0.000018371793    -0.000017839226    0.029011242848    0.059111641222    0.000008952566    -0.000021142121    0.040728417574    0.049896300729
            0.022167546806    0.050114433061    0.000008952489    -0.000021142069    0.010400603772    0.061259518265    0.000003007643    -0.000024043916
            0.000007350924    -0.000025701612    0.040728422322    0.049896299435    0.000003007650    -0.000024043919    0.029665947860    0.059179071305
0.325     0.023953933435    0.079261949387    0.000014134366    -0.000023175109    0.029624165223    0.063127761008    0.000002375270    -0.000027782885
            0.000014134288    -0.000023175050    0.039391545203    0.072059999871    0.000004437859    -0.000024188917    0.046455863099    0.058061625291
            0.029624102607    0.063127808066    0.000004437707    -0.000024188803    0.023223356837    0.079152962627    -0.000001837137    -0.000025913588
            0.000002375199    -0.000027782831    0.046455867153    0.058061622048    -0.000001837050    -0.000025913654    0.039953781019    0.071888277114
0.350     0.043065891662    0.092135405365    0.000008986564    -0.000027052298    0.042402569818    0.073895532268    -0.000002712918    -0.000028536338
            0.000008986489    -0.000027052236    0.054141654498    0.081909111368    -0.000000466984    -0.000025928889    0.055592083703    0.065337919279
            0.042402509222    0.073895582026    -0.000000467136    -0.000025928762    0.042300165185    0.092294470976    -0.000006739570    -0.000026529609
            -0.000002713065    -0.000028536217    0.055592087124    0.065337916368    -0.000006739566    -0.000026529613    0.054497816608    0.081562818800
0.375     0.065970294456    0.097992353693    0.000003557041    -0.000029490956    0.059225049404    0.080232716806    -0.000007435781    -0.000028161829
            0.000003556954    -0.000029490885    0.071847239366    0.087100309404    -0.000005260322    -0.000026479530    0.067665550089    0.070281751463
            0.059224977519    0.080232783542    -0.000005260387    -0.000026479470    0.065283558233    0.098424666416    -0.000011266849    -0.000026117703
            -0.000007435882    -0.000028161735    0.067665552382    0.070281746479    -0.000011266809    -0.000026117736    0.071921745008    0.086693144397
0.400     0.089590431574    0.095846196534    -0.000001751276    -0.000030760522    0.078006738189    0.080742777780    -0.000011522749    -0.000027036202
            -0.000001751348    -0.000030760454    0.090565587761    0.086802454226    -0.000009641166    -0.000026143135    0.081631372341    0.071795532072
            0.078006674675    0.080742853045    -0.000009641231    -0.000026143072    0.089094197254    0.096507928819    -0.000015211479    -0.000025038596
            -0.000011522814    -0.000027036143    0.081631368592    0.071795521194    -0.000015211409    -0.000025038668    0.090339856174    0.086475624701
0.425     0.110744932467    0.086066421410    -0.000006691655    -0.000031222397    0.096290538795    0.075026904345    -0.000014911210    -0.000025576592
            -0.000006691693    -0.000031222360    0.108186817907    0.081044289896    -0.000013468558    -0.000025283803    0.096081508693    0.069314234948
            0.096290470671    0.075026975506    -0.000013468685    -0.000025283658    0.110528248355    0.086867963557    -0.000018541985    -0.000023673573
            -0.000014911272    -0.000025576524    0.096081503003    0.069314225744    -0.000018541949    -0.000023673614    0.107706885945    0.080939168659
0.450     0.126703279329    0.070252161930    -0.000011288212    -0.000031220331    0.111682570315    0.063701236483    -0.000017759857    -0.000024125670
            -0.000011288281    -0.000031220250    0.122811510797    0.070689978249    -0.000016823803    -0.000024223219    0.109511859844    0.062889760475
            0.111682505135    0.063701310391    -0.000016823923    -0.000024223075    0.126814473606    0.071068895101    -0.000021431092    -0.000022312632
            -0.000017759915    -0.000024125608    0.109511860941    0.062889758563    -0.000021431031    -0.000022312709    0.122182356516    0.070919932511
0.475     0.135581937741    0.050919039370    -0.000015666656    -0.000031001705    0.122197825291    0.048262983398    -0.000020332189    -0.000022886339
            -0.000015666705    -0.000031001627    0.133042978975    0.057258805680    -0.000019882172    -0.000023184641    0.120554597377    0.053153920769
            0.122197798301    0.048263024512    -0.000019882260    -0.000023184531    0.136016694744    0.051609974454    -0.000024121732    -0.000021117738
            -0.000020332267    -0.000022886265    0.120554590082    0.053153912527    -0.000024121677    -0.000021117817    0.132413500129    0.057887637032
0.500     0.136598353260    0.031127696840    -0.000020078248    -0.000030663153    0.126543043079    0.030901809671    -0.000022951665    -0.000021889276
            -0.000020078255    -0.000030663152    0.138191151697    0.042678690229    -0.000022911503    -0.000022248912    0.128189080477    0.041226581347
            0.126542993441    0.030901886481    -0.000022911585    -0.000022248797    0.137292995450    0.031554540431    -0.000026906523    -0.000020091052
            -0.000022951725    -0.000021889195    0.128189080477    0.041226581347    -0.000026906471    -0.000020091130    0.137730878094    0.043704225098
0.525     0.130192192724    0.014068369654    -0.000024750014    -0.000030168210    0.124337572300    0.014239054980    -0.000025900194    -0.000021019417
            -0.000024750074    -0.000030168122    0.138356304797    0.028989266983    -0.000026163704    -0.000021371922    0.131889754906    0.028555104898
            0.124337522569    0.014239137667    -0.000026163778    -0.000021371800    0.131025342092    0.014121122715    -0.000030027310    -0.000019115267
            -0.000025900257    -0.000021019326    0.131889755404    0.028555102596    -0.000030027266    -0.000019115342    0.138228285341    0.030338819292
0.550     0.118058902516    0.002628510766    -0.000029904155    -0.000029323835    0.116303426607    0.000994679093    -0.000029399103    -0.000020022724
            -0.000029904209    -0.000029323765    0.134431207902    0.018051604306    -0.000029876731    -0.000020364345    0.131746265036    0.016722622647
            0.116303375879    0.000994763961    -0.000029876801    -0.000020364217    0.118861351166    0.002249731640    -0.000033677095    -0.000017947721
            -0.000029399155    -0.000020022632    0.131746265269    0.016722620807    -0.000033677046    -0.000017947808    0.134762083125    0.019586370572
0.575     0.103042077949    -0.001099140707    -0.000035640442    -0.000027829140    0.104337618546    -0.006482765077    -0.000033541446    -0.000018552193
            -0.000035640493    -0.000027829050    0.127994856292    0.011254684801    -0.000034183551    -0.000018925281    0.128498453448    0.007194459083
            0.104337573859    -0.006482678027    -0.000034183612    -0.000018925159    0.103619599711    -0.001892472396    -0.000037931442    -0.000016266779
            -0.000033541494    -0.000018552097    0.128498453574    0.007194456840    -0.000037931401    -0.000016266863    0.128849225965    0.012787177399
0.600     0.088828446673    0.003671538876    -0.000041929485    -0.000025267659    0.091384536977    -0.006777639219    -0.000038269310    -0.000016181641
            -0.000041929525    -0.000025267563    0.121120248698    0.009256193703    -0.000039085099    -0.000016637460    0.123493401674    0.001042280113
            0.091384498452    -0.006777550241    -0.000039085158    -0.000016637348    0.088995750546    0.002568830029    -0.000042733122    -0.000013668201
            -0.000038269354    -0.000016181541    0.123493401696    0.001042277526    -0.000042733085    -0.000013668288    0.122480430173    0.010578754453
0.625     0.079335321646    0.015999082171    -0.000048496931    -0.000021215836    0.080954751994    0.000044088965    -0.000043301639    -0.000012492850
            -0.000048496962    -0.000021215749    0.116048765512    0.011786419394    -0.000044347025    -0.000013061182    0.118481556285    -0.001333476616
            0.080954717945    0.000044180265    -0.000044347084    -0.000013061039    0.078958502219    0.014775145871    -0.000047810899    -0.000009751467
            -0.000043301678    -0.000012492746    0.118481556267    -0.001333478250    -0.000047810864    -0.000009751565    0.117808953169    0.012707402656
0.650     0.077836364251    0.033119671962    -0.000054831144    -0.000015327463    0.076323479223    0.012179199043    -0.000048128119    -0.000007166116
            -0.000054831176    -0.000015327359    0.114781165344    0.017591974160    -0.000049486545    -0.000007828992    0.115294051856    -0.000374474623
            0.076323479138    0.012179199576    -0.000049486601    -0.000007828815    0.076872891959    0.032018762706    -0.000052671202    -0.000004200576
            -0.000048128148    -0.000007166026    0.115294051841    -0.000374479050    -0.000052671172    -0.000004200676    0.116758085919    0.017975748558
0.675     0.086026176373    0.050880501443    -0.000060196396    -0.000007537422    0.079583833401    0.026336615068    -0.000052044555    -0.000000152140
            -0.000060196417    -0.000007537318    0.118615530789    0.024588838891    -0.000053793044    -0.000000840964    0.115403674549    0.002641433304
            0.079583821080    0.026336661848    -0.000053793087    -0.000000840823    0.084548009199    0.050154682963    -0.000056622426    0.000003038691
            -0.000052044576    -0.000000152049    0.115403674622    0.002641430082    -0.000056622397    0.000003038600    0.120578537246    0.024388082797
0.700     0.103442038224    0.064705239677    -0.000063830351    0.000001860321    0.090988596733    0.038553884994    -0.000054326389    0.000008243039
            -0.000063830367    0.000001860422    0.127801698896    0.030248249023    -0.000056512661    0.000007640159    0.119551144550    0.005850448221
            0.090988577219    0.038553979749    -0.000056512706    0.000007640356    0.101630697955    0.064558142320    -0.000058946963    0.000011674914
            -0.000054326429    0.000008243219    0.119551144550    0.005850448221    -0.000058946943    0.000011674813    0.129516656516    0.029519515748
0.725     0.127524022179    0.070763760601    -0.000065151671    0.000012176375    0.108870270863    0.045259283620    -0.000054441373    0.000017343683
            -0.000065151682    0.000012176471    0.141408224326    0.032145017393    -0.000057064264    0.000016958904    0.127518064724    0.007231007007
            0.108870263018    0.045259380642    -0.000057064298    0.000016959098    0.125637125128    0.071302731426    -0.000059107405    0.000021046514
            -0.000054441390    0.000017343772    0.127518064901    0.007231003891    -0.000059107390    0.000021046416    0.142685494014    0.031040470976
0.750     0.154333652499    0.066874023019    -0.000063968247    0.000022531482    0.130201537155    0.044145552442    -0.000052237432    0.000026289566
            -0.000063968243    0.000022531493    0.157513957109    0.028499740820    -0.000055245611    0.000026255519    0.138200679857    0.005085332482
            0.130201536385    0.044145554715    -0.000055245631    0.000026255706    0.152652236520    0.068088173069    -0.000056939511    0.000030305991
            -0.000052237445    0.000026289652    0.138200679849    0.005085332724    -0.000056939500    0.000030305895    0.158246317328    0.027238500270
0.775     0.179553843170    0.052826419223    -0.000060508419    0.000032054557    0.151434958738    0.034520959583    -0.000047979997    0.000034247697
            -0.000060508428    0.000032054643    0.173623328906    0.018551105888    -0.000051273359    0.000034673761    0.149873554621    -0.001606085814
            0.151434958245    0.034521006737    -0.000051273366    0.000034673857    0.178329926790    0.054590750984    -0.000052687889    0.000038623324
            -0.000047980004    0.000034247841    0.149873544545    -0.001606092796    -0.000052687888    0.000038623267    0.173805704350    0.017375433234
