# GHz S RI R 45
0.000     0.028983910000    0.000000000000    0.000080227445    -0.000000000000    0.000634902450    0.000000000000    0.000059319819    -0.000000000000
            0.000080227446    -0.000000000000    0.028330068000    0.000000000000    0.000049945763    -0.000000000000    0.000478796670    0.000000000000
            0.000634903320    0.000000000000    0.000049945745    -0.000000000000    0.028966263000    0.000000000000    0.000059951355    -0.000000000000
            0.000059319856    -0.000000000000    0.000478797870    0.000000000000    0.000059951280    -0.000000000000    0.028157388000    0.000000000000
0.025     0.034664336001    0.008778590070    0.000098077556    0.000036020926    0.002830205601    0.012043436766    0.000096909947    0.000047597988
            0.000098077521    0.000036020962    0.033270763028    0.008306301370    0.000100487512    0.000057220555    0.002325657466    0.011461994770
            0.002830082224    0.012043268529    0.000100487620    0.000057220507    0.034574395904    0.008714573918    0.000092138086    0.000044595389
            0.000096909978    0.000047597970    0.002325533864    0.011461826998    0.000092137995    0.000044595393    0.033266857442    0.008371899884
0.050     0.039953172385    0.011348411225    0.000115103004    0.000056232438    0.008571363732    0.022125748771    0.000120405278    0.000058915794
            0.000115102991    0.000056232397    0.037835313474    0.011090448285    0.000129464210    0.000064669478    0.007327311054    0.021389542508
            0.008571394239    0.022125736952    0.000129464245    0.000064669519    0.039776188244    0.011260613655    0.000113434457    0.000058535990
            0.000120405321    0.000058915797    0.007327341018    0.021389530129    0.000113434469    0.000058535989    0.037822374882    0.011055782973
0.075     0.044233035960    0.011347869259    0.000134408863    0.000072680858    0.016522650978    0.029024295096    0.000138611486    0.000069278945
            0.000134408854    0.000072680832    0.041466078916    0.011843067646    0.000149057362    0.000072317312    0.014423815870    0.028715751913
            0.016522657022    0.029024295108    0.000149057401    0.000072317346    0.043947500448    0.011305864072    0.000131284485    0.000071087073
            0.000138611533    0.000069278963    0.014423822281    0.028715750931    0.000131284494    0.000071087078    0.041349528521    0.011796445208
0.100     0.046617072381    0.009248226701    0.000156814591    0.000084586358    0.024942909655    0.032296826973    0.000157976906    0.000077466641
            0.000156814578    0.000084586361    0.043600387397    0.011008866659    0.000168930183    0.000078495922    0.022251210769    0.033021090540
            0.024942910830    0.032296827329    0.000168930234    0.000078495931    0.046246344693    0.009325554810    0.000150791354    0.000081166342
            0.000157976945    0.000077466650    0.022251211345    0.033021090152    0.000150791356    0.000081166339    0.043380137721    0.011039593806
0.125     0.046106660955    0.006251430620    0.000181312880    0.000090845114    0.032124300610    0.032383809218    0.000178680308    0.000081982420
            0.000181312887    0.000090845122    0.043541975993    0.009504596103    0.000189719858    0.000081398624    0.029450324451    0.034547682880
            0.032124301315    0.032383809928    0.000189719899    0.000081398630    0.045712463884    0.006499573299    0.000171950409    0.000087364330
            0.000178680358    0.000081982432    0.029450326351    0.034547683888    0.000171950411    0.000087364327    0.043269208718    0.009678321766
0.150     0.042283906448    0.003965488501    0.000206485882    0.000091913872    0.036795638188    0.030472444200    0.000199945237    0.000082792233
            0.000206485873    0.000091913868    0.041040490058    0.008585501211    0.000210816104    0.000080810061    0.034961352370    0.034105571452
            0.036795639728    0.030472445476    0.000210816155    0.000080810068    0.041959775450    0.004399397260    0.000193882183    0.000089708750
            0.000199945288    0.000082792242    0.034961343554    0.034105574761    0.000193882190    0.000089708757    0.040793088913    0.008934301735
0.175     0.035675431924    0.004226362591    0.000231304198    0.000087971426    0.038402740036    0.028213440491    0.000221117959    0.000079863751
            0.000231304197    0.000087971430    0.036517641691    0.009569534356    0.000231623748    0.000076676532    0.038215870931    0.032881542540
            0.038402741647    0.028213441675    0.000231623810    0.000076676535    0.035513926518    0.004808524250    0.000215891831    0.000088175485
            0.000221118021    0.000079863756    0.038215872447    0.032881543844    0.000215891841    0.000088175488    0.036384888615    0.010077385752
0.200     0.027650798419    0.008511134233    0.000255191073    0.000079725824    0.037264050211    0.027352840614    0.000241829678    0.000073630249
            0.000255191072    0.000079725828    0.030978287849    0.013518912976    0.000251829655    0.000069405573    0.039268839980    0.032191953231
            0.037264043019    0.027352845343    0.000251829718    0.000069405567    0.027718286529    0.009156949394    0.000237577215    0.000083226140
            0.000241829751    0.000073630248    0.039268833377    0.032191958131    0.000237577215    0.000083226140    0.031032284526    0.014124122006
0.225     0.020250720033    0.017555212429    0.000277524275    0.000067483926    0.034541860011    0.029296318332    0.000261679051    0.000064198093
            0.000277524273    0.000067483931    0.025889556663    0.020975612348    0.000271075863    0.000059095032    0.038798597166    0.033179239314
            0.034541862559    0.029296318420    0.000271075928    0.000059095016    0.020565280127    0.018150466312    0.000258529733    0.000074983259
            0.000261679135    0.000064198085    0.038798601183    0.033179239232    0.000258529285    0.000074983476    0.026165818785    0.021583411960
0.250     0.015794474279    0.031081675027    0.000298019338    0.000051659030    0.032002717795    0.034726717176    0.000280474879    0.000051748062
            0.000298019347    0.000051659034    0.022921493437    0.031787988443    0.000289204912    0.000045909529    0.037973467089    0.036539615264
            0.032002720968    0.034726716971    0.000289204986    0.000045909505    0.016314423102    0.031509687268    0.000278572243    0.000063639627
            0.000280474954    0.000051748040    0.037973471802    0.036539614693    0.000278572253    0.000063639629    0.023404409345    0.032293142161
0.275     0.016368891111    0.047694610080    0.000316042798    0.000032527271    0.031593194758    0.043358946343    0.000297705428    0.000036311240
            0.000316042798    0.000032527275    0.023612940656    0.045028234231    0.000305727526    0.000029864853    0.038187199507    0.042323265407
            0.031593198963    0.043358945754    0.000305727590    0.000029864818    0.016995746015    0.047867712376    0.000297217594    0.000049207950
            0.000297705512    0.000036311206    0.038187203801    0.042323264226    0.000297217605    0.000049207947    0.024235371546    0.045339932884
0.300     0.023283392195    0.065084235114    0.000331162359    0.000010487490    0.034932521227    0.053957237315    0.000312919543    0.000018041740
            0.000331162369    0.000010487489    0.029011242848    0.059111641222    0.000320205823    0.000011104699    0.040728417574    0.049896300729
            0.034932524994    0.053957234876    0.000320205875    0.000011104658    0.023882292031    0.064970334331    0.000314027818    0.000031803735
            0.000312919616    0.000018041687    0.040728422322    0.049896299435    0.000314027839    0.000031803731    0.029665947860    0.059179071305
0.325     0.036678983313    0.080471298771    0.000342669452    -0.000013833107    0.042867558296    0.064606520259    0.000325377636    -0.000002689327
            0.000342669451    -0.000013833112    0.039391545203    0.072059999871    0.000331914963    -0.000010005320    0.046455863099    0.058061625291
            0.042867562806    0.064606517266    0.000331915021    -0.000010005371    0.037109042562    0.080107101113    0.000328254635    0.000011738652
            0.000325377706    -0.000002689390    0.046455867153    0.058061622048    0.000328254645    0.000011738645    0.039953781019    0.071888277114
0.350     0.055420492701    0.091236093401    0.000350201689    -0.000039605377    0.055250898460    0.073190852871    0.000334561213    -0.000025237585
            0.000350201698    -0.000039605386    0.054141654498    0.081909111368    0.000340348645    -0.000032824286    0.055592083703    0.065337919279
            0.055250901690    0.073190849180    0.000340348690    -0.000032824340    0.055569847233    0.090723537985    0.000339337976    -0.000010392549
            0.000334561268    -0.000025237651    0.055592087124    0.065337916368    0.000339337986    -0.000010392564    0.054497816608    0.081562818800
0.375     0.077312742575    0.095485388915    0.000353505510    -0.000065705058    0.070981433729    0.077880679511    0.000340055445    -0.000048629368
            0.000353505509    -0.000065705064    0.071847239366    0.087100309404    0.000345108093    -0.000056382400    0.067665550089    0.070281751463
            0.070981431071    0.077880668403    0.000345108135    -0.000056382454    0.077125762529    0.094971472326    0.000346798415    -0.000033652719
            0.000340055495    -0.000048629443    0.067665552382    0.070281746479    0.000346798424    -0.000033652731    0.071921745008    0.086693144397
0.400     0.099566492795    0.092448747730    0.000352886673    -0.000091052734    0.088284219222    0.077521939147    0.000341952537    -0.000071817840
            0.000352886669    -0.000091052746    0.090565587761    0.086802454226    0.000346304464    -0.000079640694    0.081631372341    0.071795532072
            0.088284221928    0.077521936065    0.000346304503    -0.000079640748    0.099059922106    0.092094449895    0.000350652602    -0.000056994850
            0.000341952571    -0.000071817922    0.081631368592    0.071795521194    0.000350652609    -0.000056994872    0.090339856174    0.086475624701
0.425     0.119345278833    0.082573372734    0.000348953370    -0.000114623295    0.105078787229    0.071808550426    0.000340691653    -0.000093772370
            0.000348953370    -0.000114623295    0.108186817907    0.081044289896    0.000344394668    -0.000101584403    0.096081508693    0.069314234948
            0.105078780226    0.071808542950    0.000344394694    -0.000101584457    0.118606872342    0.082521855453    0.000351273066    -0.000079366050
            0.000340691676    -0.000093772440    0.096081503003    0.069314225744    0.000351273064    -0.000079366062    0.107706885945    0.080939168659
0.450     0.134266671406    0.067398066508    0.000342710256    -0.000135831793    0.119356203900    0.061295272283    0.000337134156    -0.000113808381
            0.000342710247    -0.000135831789    0.122811510797    0.070689978249    0.000340254297    -0.000121549993    0.109511859844    0.062889760475
            0.119356204970    0.061295270200    0.000340254318    -0.000121550054    0.133441308629    0.067744194847    0.000349471449    -0.000100025046
            0.000337134174    -0.000113808453    0.109511860941    0.062889758563    0.000349471445    -0.000100025058    0.122182356516    0.070919932511
0.475     0.142753645416    0.049250238090    0.000335227043    -0.000154434212    0.129472368617    0.047273936940    0.000332283895    -0.000131586625
            0.000335227040    -0.000154434218    0.133042978975    0.057258805680    0.000334892133    -0.000139223797    0.120554597377    0.053153920769
            0.129472369442    0.047273934680    0.000334892441    -0.000139224227    0.142020014017    0.050021218950    0.000346230738    -0.000118571942
            0.000332283902    -0.000131586688    0.120554590082    0.053153912527    0.000346230733    -0.000118571954    0.132413500129    0.057887637032
0.500     0.144253763578    0.030888837945    0.000327549230    -0.000170713390    0.134390112007    0.031602373199    0.000327176011    -0.000147258504
            0.000327549224    -0.000170713401    0.138191151697    0.042678690229    0.000329334795    -0.000154790150    0.128189080477    0.041226581347
            0.134390112007    0.031602373199    0.000329334818    -0.000154790196    0.143793391948    0.032033542418    0.000342591739    -0.000135095000
            0.000327175476    -0.000147257768    0.128189080477    0.041226581347    0.000342591743    -0.000135095015    0.137730878094    0.043704225098
0.525     0.139319041379    0.015109705666    0.000320462049    -0.000185218608    0.133853981816    0.016465601890    0.000322648688    -0.000161306232
            0.000320462040    -0.000185218603    0.138356304797    0.028989266983    0.000324400440    -0.000168753339    0.131889754906    0.028555104898
            0.133853972092    0.016465599034    0.000324400461    -0.000168753386    0.139285085610    0.016500570860    0.000339427439    -0.000150030231
            0.000322648695    -0.000161306284    0.131889755404    0.028555102596    0.000339427434    -0.000150030242    0.138228285341    0.030338819292
0.550     0.129596252885    0.004347676777    0.000314435880    -0.000198801486    0.128531335574    0.004083293536    0.000319263143    -0.000174532334
            0.000314435871    -0.000198801481    0.134431207902    0.018051604306    0.000320611962    -0.000181927748    0.131746265036    0.016722622647
            0.128531335574    0.004083293536    0.000320611990    -0.000181927800    0.130079907249    0.005794875114    0.000337348713    -0.000164148426
            0.000319263151    -0.000174532382    0.131746265269    0.016722620807    0.000337348713    -0.000164148426    0.134762083125    0.019586370572
0.575     0.117674272886    0.000250728999    0.000309563194    -0.000212313440    0.120037177787    -0.003685747950    0.000317213696    -0.000187842754
            0.000309563186    -0.000212313435    0.127994856292    0.011254684801    0.000318123200    -0.000195204092    0.128498453448    0.007194459083
            0.120037187113    -0.003685770045    0.000318123241    -0.000195204178    0.118679488973    0.001530710380    0.000336615080    -0.000178362184
            0.000317213702    -0.000187842802    0.128498453574    0.007194456840    0.000336615062    -0.000178362175    0.128849225965    0.012787177399
0.600     0.106769426807    0.003272945247    0.000305585215    -0.000226610897    0.110796120797    -0.005790287687    0.000316312933    -0.000202187524
            0.000305585203    -0.000226610896    0.121120248698    0.009256193703    0.000316719493    -0.000209495578    0.123493401674    0.001042280113
            0.110796120807    -0.005790287493    0.000316719519    -0.000209495611    0.108199296763    0.004169666861    0.000337096605    -0.000193659202
            0.000316312954    -0.000202187584    0.123493401696    0.001042277526    0.000337096223    -0.000193658301    0.122480430173    0.010578754453
0.625     0.100165733293    0.012377653882    0.000301951313    -0.000242334427    0.103620265255    -0.002398474163    0.000316010151    -0.000218382987
            0.000301951316    -0.000242334456    0.116048765512    0.011786419394    0.000315847514    -0.000225559858    0.118481556285    -0.001333476616
            0.103620265239    -0.002398474887    0.000315847526    -0.000225559909    0.101828963557    0.012729919973    0.000338272794    -0.000210931155
            0.000316010168    -0.000218383015    0.118481556267    -0.001333478250    0.000338272638    -0.000210930706    0.117808953169    0.012707402656
0.650     0.100483551437    0.025029304743    0.000297846481    -0.000259926243    0.101065107385    0.004940871844    0.000315400585    -0.000237026830
            0.000297846500    -0.000259926268    0.114781165344    0.017591974160    0.000314638596    -0.000243941401    0.115294051856    -0.000374474623
            0.101065107385    0.004940871844    0.000314638610    -0.000243941464    0.102126205133    0.024774808250    0.000339229227    -0.000230866918
            0.000315400576    -0.000237026892    0.115294051841    -0.000374479050    0.000339229202    -0.000230866901    0.116758085919    0.017975748558
0.675     0.108930284870    0.037613503120    0.000292293497    -0.000279450020    0.104686660596    0.013534934695    0.000313313211    -0.000258309730
            0.000292293497    -0.000279450049    0.118615530789    0.024588838891    0.000311988567    -0.000264803669    0.115403674549    0.002641433304
            0.104686660596    0.013534934695    0.000311988565    -0.000264803780    0.110289441932    0.036811882277    0.000338729858    -0.000253745758
            0.000313313192    -0.000258309769    0.115403674622    0.002641430082    0.000338729857    -0.000253745793    0.120578537246    0.024388082797
0.700     0.124876072320    0.046263642977    0.000284240901    -0.000300543750    0.114556264975    0.020210989714    0.000308459976    -0.000281880735
            0.000284240903    -0.000300543679    0.127801698896    0.030248249023    0.000306682639    -0.000287810254    0.119551144550    0.005850448221
            0.114556264975    0.020210989714    0.000306682640    -0.000287810325    0.125739662871    0.045089822957    0.000335378514    -0.000279265080
            0.000308459949    -0.000281880809    0.119551144550    0.005850448221    0.000335378484    -0.000279265084    0.129516656516    0.029519515748
0.725     0.145941931423    0.047829633418    0.000272827512    -0.000322314984    0.129214007966    0.022157276488    0.000299736194    -0.000306760169
            0.000272827509    -0.000322315013    0.141408224326    0.032145017393    0.000297678157    -0.000312029716    0.127518064724    0.007231007007
            0.129214009242    0.022157269045    0.000297678133    -0.000312029822    0.146198181729    0.046534968850    0.000327939467    -0.000306440251
            0.000299736187    -0.000306760301    0.127518064901    0.007231003891    0.000327939486    -0.000306440290    0.142685494014    0.031040470976
0.750     0.168625604160    0.040614590316    0.000257627050    -0.000343464087    0.146131820056    0.017609036576    0.000286550686    -0.000331450428
            0.000257627038    -0.000343464158    0.157513957109    0.028499740820    0.000284405764    -0.000336039100    0.138200679857    0.005085332482
            0.146131820056    0.017609036576    0.000284405740    -0.000336039226    0.168284663850    0.039472333027    0.000315705823    -0.000333702482
            0.000286550664    -0.000331450566    0.138200679849    0.005085332724    0.000315705830    -0.000333702420    0.158246317328    0.027238500270
0.775     0.189149245186    0.024640856354    0.000238898620    -0.000362538896    0.162382742110    0.006128259746    0.000269078000    -0.000354266501
            0.000238898626    -0.000362538892    0.173623328906    0.018551105888    0.000267033925    -0.000358220012    0.149873554621    -0.001606085814
            0.162382742110    0.006128259746    0.000267033873    -0.000358220151    0.188335701526    0.023889571319    0.000298777987    -0.000359254427
            0.000269077950    -0.000354266628    0.149873544545    -0.001606092796    0.000298777993    -0.000359254422    0.173805704350    0.017375433234
0.800     0.204239929649    0.001446231804    0.000217561743    -0.000378307172    0.175281150484    -0.011505246474    0.000248267972    -0.000373733777
