# GHz S RI R 45
0.000     0.027465670000    0.000000000000    -0.000010040318    0.000000000000    0.000642826820    -0.000000000000    -0.000007908525    0.000000000000
            -0.000010040434    0.000000000000    0.028330068000    0.000000000000    -0.000020636486    0.000000000000    0.000478796670    0.000000000000
            0.000642822390    -0.000000000000    -0.000020636315    0.000000000000    0.027422994000    0.000000000000    -0.000024254745    0.000000000000
            -0.000007908560    0.000000000000    0.000478797870    0.000000000000    -0.000024254926    0.000000000000    0.028157388000    0.000000000000
0.025     0.034355511561    0.007801654787    -0.000011750714    -0.000023026238    0.003789862296    0.010100755758    -0.000011727637    -0.000021499864
            -0.000011750927    -0.000023026277    0.033270763028    0.008306301370    -0.000018987863    -0.000024772983    0.002325657466    0.011461994770
            0.003789841442    0.010100806306    -0.000018987497    -0.000024772925    0.034276155891    0.007695965907    -0.000013572271    -0.000016027137
            -0.000011727671    -0.000021499873    0.002325533864    0.011461826998    -0.000013572417    -0.000016027133    0.033266857442    0.008371899884
0.050     0.043641516236    0.008044694375    -0.000029345865    -0.000046446086    0.012174744467    0.017068159972    -0.000028050535    -0.000040849069
            -0.000029345810    -0.000046446250    0.037835313474    0.011090448285    -0.000038874642    -0.000054508529    0.007327311054    0.021389542508
            0.012174732178    0.017068174879    -0.000038874518    -0.000054508374    0.043517324261    0.007875988807    -0.000027194578    -0.000046704262
            -0.000028050524    -0.000040849008    0.007327341018    0.021389530129    -0.000027194664    -0.000046704146    0.037822374882    0.011055782973
0.075     0.053658880717    0.002679969694    -0.000058663865    -0.000058536673    0.023663230357    0.018641419124    -0.000053721961    -0.000050505390
            -0.000058663864    -0.000058536795    0.041466078916    0.011843067646    -0.000075166095    -0.000069140828    0.014423815870    0.028715751913
            0.023663221954    0.018641426560    -0.000075166012    -0.000069140727    0.053489322357    0.002475757086    -0.000059458643    -0.000062671559
            -0.000053721961    -0.000050505319    0.014423822281    0.028715750931    -0.000059458772    -0.000062671388    0.041349528521    0.011796445208
0.100     0.061854145516    -0.008767614655    -0.000092969787    -0.000057272949    0.035311607935    0.013817360240    -0.000083453344    -0.000048706856
            -0.000092969868    -0.000057272932    0.043600387397    0.011008866659    -0.000117525682    -0.000066367924    0.022251210769    0.033021090540
            0.035311607901    0.013817363069    -0.000117525474    -0.000066368049    0.061655964976    -0.008978426516    -0.000097990900    -0.000062123983
            -0.000083453368    -0.000048706889    0.022251211345    0.033021090152    -0.000097990981    -0.000062123986    0.043380137721    0.011039593806
0.125     0.065176475640    -0.025268218290    -0.000127197937    -0.000042372430    0.044011775930    0.003002398795    -0.000112979677    -0.000035174802
            -0.000127197980    -0.000042372272    0.043541975993    0.009504596103    -0.000159007483    -0.000046104140    0.029450324451    0.034547682880
            0.044011776718    0.003002401936    -0.000159007381    -0.000046104381    0.064990706967    -0.025468795758    -0.000135964315    -0.000045368116
            -0.000112979662    -0.000035174818    0.029450326351    0.034547683888    -0.000135964376    -0.000045368030    0.043269208718    0.009678321766
0.150     0.061310920685    -0.044500348578    -0.000157253529    -0.000014917062    0.047109996989    -0.012043032300    -0.000138815665    -0.000010849437
            -0.000157253541    -0.000014917036    0.041040490058    0.008585501211    -0.000194163255    -0.000010276931    0.034961352370    0.034105571452
            0.047109999557    -0.012043030328    -0.000194163132    -0.000010277162    0.061169370721    -0.044696980632    -0.000168376693    -0.000014333500
            -0.000138815695    -0.000010849439    0.034961343554    0.034105574761    -0.000168376761    -0.000014333417    0.040793088913    0.008934301735
0.175     0.049012275623    -0.063057360528    -0.000179727868    0.000023384968    0.042907500160    -0.028516261689    -0.000158067829    0.000022838415
            -0.000179727866    0.000023385063    0.036517641691    0.009569534356    -0.000218662274    0.000038276457    0.038215870931    0.032881542540
            0.042907502486    -0.028516259996    -0.000218662231    0.000038276292    0.048954985301    -0.063276210875    -0.000191321984    0.000028292474
            -0.000158067863    0.000022838533    0.038215872447    0.032881543844    -0.000191322053    0.000028292621    0.036384888615    0.010077385752
0.200     0.028680718928    -0.077159512026    -0.000191839495    0.000070495694    0.031046511397    -0.043040438889    -0.000168346458    0.000064197609
            -0.000191839505    0.000070495811    0.030978287849    0.013518912976    -0.000229435637    0.000096315459    0.039268839980    0.032191953231
            0.031046514820    -0.043040438885    -0.000229435628    0.000096315455    0.028733109702    -0.077451887632    -0.000202099784    0.000079607266
            -0.000168346460    0.000064197744    0.039268833377    0.032191958131    -0.000202099793    0.000079607351    0.031032284526    0.014124122006
0.225     0.002350837261    -0.083369627406    -0.000190904299    0.000123847124    0.012666817772    -0.052264000404    -0.000167264140    0.000111099986
            -0.000190904289    0.000123847212    0.025889556663    0.020975612348    -0.000223856096    0.000160133772    0.038798597166    0.033179239314
            0.012666820744    -0.052264000712    -0.000223856141    0.000160133332    0.002508650497    -0.083801013177    -0.000198363416    0.000136339096
            -0.000167264148    0.000111099992    0.038798601183    0.033179239232    -0.000198363433    0.000136339159    0.026165818785    0.021583411960
0.250     -0.026530595318    -0.079278255950    -0.000174513561    0.000180113901    -0.009689302773    -0.053509261023    -0.000152595109    0.000160708586
            -0.000174513561    0.000180113901    0.022921493437    0.031787988443    -0.000199909893    0.000225543991    0.037973467089    0.036539615264
            -0.009689303129    -0.053509262991    -0.000199909893    0.000225543991    -0.026306083769    -0.079912011869    -0.000178235582    0.000194839981
            -0.000152595052    0.000160708695    0.037973471802    0.036539614693    -0.000178235582    0.000194839981    0.023404409345    0.032293142161
0.275     -0.053624476205    -0.064040110001    -0.000140901610    0.000234690379    -0.032447580937    -0.045333634140    -0.000122617524    0.000208971439
            -0.000140901605    0.000234690370    0.023612940656    0.045028234231    -0.000156339192    0.000287218034    0.038187199507    0.042323265407
            -0.032447582101    -0.045333635766    -0.000156339428    0.000287217632    -0.053404166813    -0.064919947478    -0.000140437521    0.000250367698
            -0.000122617534    0.000208971456    0.038187203801    0.042323264226    -0.000140437565    0.000250367674    0.024235371546    0.045339932884
0.300     -0.074421129995    -0.038691988697    -0.000089805266    0.000281937246    -0.051606617431    -0.027908878878    -0.000076948896    0.000250803356
            -0.000089805275    0.000281937275    0.029011242848    0.059111641222    -0.000093476242    0.000339024052    0.040728417574    0.049896300729
            -0.051606619190    -0.027908879829    -0.000093476180    0.000339024059    -0.074297891676    -0.039826810977    -0.000085074052    0.000297367083
            -0.000076948905    0.000250803385    0.040728422322    0.049896299435    -0.000085074068    0.000297367141    0.029665947860    0.059179071305
0.325     -0.085052735189    -0.006103937248    -0.000023241851    0.000315725542    -0.063458246109    -0.003093145770    -0.000017302444    0.000280583621
            -0.000023241821    0.000315725514    0.039391545203    0.072059999871    -0.000014014117    0.000374407337    0.046455863099    0.058061625291
            -0.063458247108    -0.003093145819    -0.000014014486    0.000374407073    -0.085123510989    -0.007458360677    -0.000014431707    0.000329771355
            -0.000017302419    0.000280583612    0.046455867153    0.058061622048    -0.000014431706    0.000329771335    0.039953781019    0.071888277114
0.350     -0.083043735857    0.029408275264    0.000054272589    0.000330774327    -0.065297623851    0.025819415415    0.000052252342    0.000293412143
            0.000054272630    0.000330774321    0.054141654498    0.081909111368    0.000076772521    0.000387836566    0.055592083703    0.065337919279
            -0.065297624781    0.025819415783    0.000076772572    0.000387836576    -0.083388088013    0.027914389264    0.000066770566    0.000342370091
            0.000052252385    0.000293412145    0.055592087124    0.065337916368    0.000066770527    0.000342370078    0.054497816608    0.081562818800
0.375     -0.067801621927    0.062775011723    0.000136187342    0.000323805193    -0.055934347948    0.054635794252    0.000125707733    0.000286218452
            0.000136187369    0.000323805160    0.071847239366    0.087100309404    0.000171447436    0.000375950520    0.067665550089    0.070281751463
            -0.055934358914    0.054635785887    0.000171447451    0.000375950535    -0.068462086522    0.061256605581    0.000151708527    0.000331918725
            0.000125707753    0.000286218443    0.067665552382    0.070281746479    0.000151708510    0.000331918733    0.071921745008    0.086693144397
0.400     -0.040784157067    0.089007134933    0.000215179328    0.000294398983    -0.035935668183    0.078969198247    0.000196281992    0.000258598826
            0.000215179340    0.000294398925    0.090565587761    0.086802454226    0.000261787188    0.000338532375    0.081631372341    0.071795532072
            -0.035935668598    0.078969199157    0.000261786289    0.000338532312    -0.041752042006    0.087596228733    0.000232740993    0.000298111228
            0.000196282000    0.000258598845    0.081631368592    0.071795521194    0.000232740951    0.000298111261    0.090339856174    0.086475624701
0.425     -0.005285596362    0.103996867541    0.000284512926    0.000244940079    -0.007535856039    0.094941669805    0.000257717910    0.000212799558
            0.000284512944    0.000244940043    0.108186817907    0.081044289896    0.000340200680    0.000278475562    0.096081508693    0.069314234948
            -0.007535857775    0.094941670670    0.000340200718    0.000278475563    -0.006495527243    0.102819710245    0.000302750530    0.000243597597
            0.000257717920    0.000212799529    0.096081503003    0.069314225744    0.000302751020    0.000243598009    0.107706885945    0.080939168659
0.450     0.034058292710    0.105153814827    0.000339249602    0.000179906489    0.025705790884    0.099782166270    0.000305440111    0.000153064422
            0.000339249600    0.000179906450    0.122811510797    0.070689978249    0.000401133458    0.000201045104    0.109511859844    0.062889760475
            0.025705787401    0.099782167167    0.000401133488    0.000201045111    0.032723241644    0.104307109758    0.000356514185    0.000173322773
            0.000305440138    0.000153064435    0.109511860941    0.062889758563    0.000356514179    0.000173322809    0.122182356516    0.070919932511
0.475     0.071944414218    0.091765181618    0.000376753800    0.000104701758    0.059421619586    0.092204128120    0.000337064428    0.000084535066
            0.000376753804    0.000104701745    0.133042978975    0.057258805680    0.000441642956    0.000112605820    0.120554597377    0.053153920769
            0.059421617977    0.092204129157    0.000441642972    0.000112605800    0.070639258918    0.091296054419    0.000391288216    0.000093332953
            0.000337064830    0.000084534861    0.120554590082    0.053153912527    0.000391288612    0.000093332758    0.132413500129    0.057887637032
0.500     0.103129367743    0.065093493114    0.000396629084    0.000024484533    0.089025600953    0.072586856147    0.000352363007    0.000012127924
            0.000396629104    0.000024484532    0.138191151697    0.042678690229    0.000461422032    0.000019285431    0.128189080477    0.041226581347
            0.089025600953    0.072586856147    0.000461421281    0.000019285937    0.102026733476    0.064986154416    0.000406882019    0.000009481201
            0.000352363047    0.000012127922    0.128189080477    0.041226581347    0.000406882038    0.000009481241    0.137730878094    0.043704225098
0.525     0.123110981845    0.028215308705    0.000400050451    -0.000056728797    0.110291673109    0.042937117479    0.000352651384    -0.000060333318
            0.000400050776    -0.000056729143    0.138356304797    0.028989266983    0.000462079493    -0.000074087295    0.131889754906    0.028555104898
            0.110291640233    0.042937146797    0.000462079479    -0.000074087315    0.122375648158    0.028385309373    0.000404999232    -0.000073609743
            0.000352651360    -0.000060333340    0.131889755404    0.028555102596    0.000404999208    -0.000073609709    0.138228285341    0.030338819292
0.550     0.128715398437    -0.014334809724    0.000388841372    -0.000136494387    0.119902319146    0.006693054664    0.000339912792    -0.000130578275
            0.000388841422    -0.000136494397    0.134431207902    0.018051604306    0.000446112912    -0.000164577504    0.131746265036    0.016722622647
            0.119902319018    0.006693056966    0.000446112869    -0.000164577533    0.128477997280    -0.014037127392    0.000388264265    -0.000153175505
            0.000339912792    -0.000130578275    0.131746265269    0.016722620807    0.000388264265    -0.000153175505    0.134762083125    0.019586370572
0.575     0.118534761909    -0.057087849716    0.000364419511    -0.000213801486    0.115899739508    -0.031638959553    0.000315778359    -0.000197792053
            0.000364419503    -0.000213801498    0.127994856292    0.011254684801    0.000415658528    -0.000251072165    0.128498453448    0.007194459083
            0.115899740060    -0.031638957531    0.000415658523    -0.000251072192    0.118866740265    -0.056863188327    0.000359011144    -0.000228288255
            0.000315778367    -0.000197792059    0.128498453574    0.007194456840    0.000359011156    -0.000228288254    0.128849225965    0.012787177399
0.600     0.093201524347    -0.094294763153    0.000326991721    -0.000288378546    0.098045699880    -0.066995461495    0.000280711825    -0.000261979525
            0.000326991679    -0.000288378549    0.121120248698    0.009256193703    0.000371466069    -0.000333553011    0.123493401674    0.001042280113
            0.098045701049    -0.066995459784    0.000371466099    -0.000333553038    0.094094490514    -0.094371579270    0.000318239439    -0.000299208968
            0.000280711825    -0.000261979525    0.123493401696    0.001042277526    0.000318239439    -0.000299208968    0.122480430173    0.010578754453
0.625     0.055428832584    -0.120667147077    0.000275244640    -0.000359503496    0.067985190339    -0.094391360332    0.000233649610    -0.000322842163
            0.000275244609    -0.000359503495    0.116048765512    0.011786419394    0.000312402980    -0.000411748770    0.118481556285    -0.001333476616
            0.067985191987    -0.094391359145    0.000312402990    -0.000411748813    0.056783729565    -0.121269839649    0.000265074562    -0.000366095712
            0.000233649617    -0.000322842196    0.118481556267    -0.001333478250    0.000265074606    -0.000366095705    0.117808953169    0.012707402656
0.650     0.009784829513    -0.132150826595    0.000206909009    -0.000424747635    0.029184910012    -0.109651205681    0.000172479580    -0.000378539773
            0.000206909023    -0.000424747683    0.114781165344    0.017591974160    0.000235957691    -0.000483603115    0.115294051856    -0.000374474623
            0.029184915753    -0.109651204153    0.000235957644    -0.000483603105    0.011414949897    -0.133461700435    0.000197161589    -0.000427500031
            0.000172479576    -0.000378539764    0.115294051841    -0.000374479050    0.000197161424    -0.000427500911    0.116758085919    0.017975748558
0.675     -0.037841944770    -0.126596987107    0.000120176783    -0.000479168625    -0.013439588858    -0.110093579819    0.000095349003    -0.000424850771
            0.000120176773    -0.000479168658    0.118615530789    0.024588838891    0.000139776084    -0.000544195099    0.115403674549    0.002641433304
            -0.013439590069    -0.110093589745    0.000139776043    -0.000544195099    -0.036193147402    -0.128721637225    0.000112103747    -0.000479253229
            0.000095349001    -0.000424850761    0.115403674622    0.002641430082    0.000112103587    -0.000479253636    0.120578537246    0.024388082797
0.700     -0.081056504618    -0.104213680547    0.000015584999    -0.000515675015    -0.054190997494    -0.095069997700    0.000002472267    -0.000455435420
            0.000015584992    -0.000515675075    0.127801698896    0.030248249023    0.000023845350    -0.000585935413    0.119551144550    0.005850448221
            -0.054190997494    -0.095069997700    0.000023845317    -0.000585935374    -0.079680628211    -0.107153948945    0.000009549211    -0.000514553599
            0.000002472235    -0.000455435370    0.119551144550    0.005850448221    0.000009548739    -0.000514554318    0.129516656516    0.029519515748
0.725     -0.113927088040    -0.067635811031    -0.000102561595    -0.000526614878    -0.087455131049    -0.066156985855    -0.000102466955    -0.000463282120
            -0.000102561585    -0.000526614829    0.141408224326    0.032145017393    -0.000107731179    -0.000600234090    0.127518064724    0.007231007007
            -0.087455131049    -0.066156985855    -0.000107730907    -0.000600233783    -0.113107412603    -0.071279159885    -0.000107048467    -0.000525487264
            -0.000102467036    -0.000463282102    0.127518064901    0.007231003891    -0.000107048465    -0.000525487254    0.142685494014    0.031040470976
0.750     -0.131937272531    -0.021571793410    -0.000226063383    -0.000506182117    -0.108611471326    -0.026969166931    -0.000212109448    -0.000442971611
            -0.000226063407    -0.000506182171    0.157513957109    0.028499740820    -0.000246352300    -0.000580184669    0.138200679857    0.005085332482
            -0.108611471326    -0.026969166931    -0.000246352281    -0.000580184623    -0.131901839900    -0.025701170920    -0.000229971902    -0.000505562309
            -0.000212109431    -0.000442971575    0.138200679849    0.005085332724    -0.000229971877    -0.000505562254    0.158246317328    0.027238500270
0.775     -0.132686752009    0.027935895831    -0.000344223354    -0.000452420812    -0.114747272811    0.017419451739    -0.000316687653    -0.000392607653
            -0.000344223354    -0.000452420812    0.173623328906    0.018551105888    -0.000380317799    -0.000522970042    0.149873554621    -0.001606085814
            -0.114747272811    0.017419451739    -0.000380317387    -0.000522969860    -0.133570819776    0.023613824000    -0.000348492137    -0.000452034003
            -0.000316687665    -0.000392607669    0.149873544545    -0.001606092796    -0.000348492143    -0.000452034011    0.173805704350    0.017375433234
