# GHz S RI R 45
0.000     0.028232246000    0.000000000000    -0.000089458482    0.000000000000    0.000725177740    -0.000000000000    -0.000099919644    0.000000000000
            -0.000089458038    0.000000000000    0.028330068000    0.000000000000    -0.000059425678    0.000000000000    0.000478796670    0.000000000000
            0.000725174750    -0.000000000000    -0.000059424845    0.000000000000    0.028163758000    0.000000000000    -0.000061892654    0.000000000000
            -0.000099918973    0.000000000000    0.000478797870    0.000000000000    -0.000061893028    0.000000000000    0.028157388000    0.000000000000
0.025     0.035139852520    0.008135772500    -0.000113840033    -0.000186762000    0.003936033186    0.010629401566    -0.000083612099    -0.000127414963
            -0.000113486689    -0.000186014549    0.033270763028    0.008306301370    -0.000127513449    -0.000261236343    0.002325657466    0.011461994770
            0.003936013288    0.010629452655    -0.000127497432    -0.000261230362    0.035083788018    0.008116913739    -0.000103008227    -0.000198614063
            -0.000082706728    -0.000128182423    0.002325533864    0.011461826998    -0.000103008691    -0.000198618520    0.033266857442    0.008371899884
0.050     0.044466588562    0.008505731758    -0.000256091972    -0.000365764684    0.012512503080    0.017996537339    -0.000184788864    -0.000287484268
            -0.000254773552    -0.000366607144    0.037835313474    0.011090448285    -0.000316981896    -0.000471479530    0.007327311054    0.021389542508
            0.012512492999    0.017996551656    -0.000317000682    -0.000471464465    0.044413125060    0.008487671020    -0.000251162692    -0.000369787188
            -0.000184628341    -0.000287598354    0.007327341018    0.021389530129    -0.000251160783    -0.000369780071    0.037822374882    0.011055782973
0.075     0.054326521822    0.003111552914    -0.000487287779    -0.000457658666    0.024158656238    0.019735318576    -0.000372705016    -0.000369935902
            -0.000487172406    -0.000458020221    0.041466078916    0.011843067646    -0.000599929187    -0.000583784897    0.014423815870    0.028715751913
            0.024158649264    0.019735325533    -0.000599940612    -0.000583766660    0.054296940028    0.003099493159    -0.000478508645    -0.000457231571
            -0.000372834507    -0.000369960843    0.014423822281    0.028715750931    -0.000478508753    -0.000457223207    0.041349528521    0.011796445208
0.100     0.062012058449    -0.008424408152    -0.000758358123    -0.000446810840    0.035738012636    0.014880767571    -0.000593976105    -0.000364134063
            -0.000758195060    -0.000446908207    0.043600387397    0.011008866659    -0.000931209210    -0.000577873358    0.022251210769    0.033021090540
            0.035738013444    0.014880770835    -0.000931200899    -0.000577871577    0.062033658364    -0.008434283074    -0.000741719127    -0.000446545767
            -0.000593982934    -0.000364073784    0.022251211345    0.033021090152    -0.000741719709    -0.000446551586    0.043380137721    0.011039593806
0.125     0.064391783057    -0.024862986318    -0.001032162402    -0.000329156345    0.043991813403    0.003994783085    -0.000815457477    -0.000269995803
            -0.001032242123    -0.000329158149    0.043541975993    0.009504596103    -0.001270527568    -0.000447084436    0.029450324451    0.034547682880
            0.043991814211    0.003994785248    -0.001270527778    -0.000447093481    0.064495060698    -0.024888493224    -0.001006363358    -0.000335827662
            -0.000815524225    -0.000269966100    0.029450326351    0.034547683888    -0.001006361263    -0.000335827939    0.043269208718    0.009678321766
0.150     0.059137723204    -0.043615373487    -0.001277335461    -0.000110321981    0.046211979263    -0.010923068781    -0.001011904350    -0.000094717357
            -0.001277291585    -0.000110311678    0.041040490058    0.008585501211    -0.001583012693    -0.000195210091    0.034961352370    0.034105571452
            0.046211981591    -0.010923067628    -0.001583011334    -0.000195210484    0.059345836533    -0.043694989831    -0.001245212296    -0.000131733660
            -0.001011918029    -0.000094736454    0.034961343554    0.034105574761    -0.001245215586    -0.000131734887    0.040793088913    0.008934301735
0.175     0.045201355619    -0.060989848425    -0.001466163107    0.000200305485    0.040779891814    -0.026796659679    -0.001162345799    0.000152489781
            -0.001466139042    0.000200305065    0.036517641691    0.009569534356    -0.001837126942    0.000170701623    0.038215870931    0.032881542540
            0.040779894888    -0.026796658642    -0.001837127261    0.000170700359    0.045521869739    -0.061176908552    -0.001435749391    0.000157735160
            -0.001162368147    0.000152507777    0.038215872447    0.032881543844    -0.001435750368    0.000157734506    0.036384888615    0.010077385752
0.200     0.023317558374    -0.073012953896    -0.001572922626    0.000589869620    0.027570131482    -0.040010046776    -0.001248077342    0.000461413369
            -0.001572926110    0.000589876563    0.030978287849    0.013518912976    -0.002001512242    0.000640387966    0.039268839980    0.032191953231
            0.027570134014    -0.040010047461    -0.002001510801    0.000640385579    0.023732787124    -0.073369296078    -0.001556509117    0.000524366412
            -0.001248065588    0.000461415461    0.039268833377    0.032191958131    -0.001556509976    0.000524367307    0.031032284526    0.014124122006
0.225     -0.004026774004    -0.076210007079    -0.001570416563    0.001039411216    0.008095640110    -0.047087181621    -0.001248415741    0.000818177302
            -0.001570416187    0.001039418850    0.025889556663    0.020975612348    -0.002040463323    0.001196599497    0.038798597166    0.033179239314
            0.008095642914    -0.047087183168    -0.002040463014    0.001196598837    -0.003566677146    -0.076793666568    -0.001581685401    0.000956540414
            -0.001248430849    0.000818177236    0.038798601183    0.033179239232    -0.001581686762    0.000956540482    0.026165818785    0.021583411960
0.250     -0.032886493883    -0.068364657487    -0.001432687008    0.001519938232    -0.014643571400    -0.045422193662    -0.001142263115    0.001201507124
            -0.001432687264    0.001519937441    0.022921493437    0.031787988443    -0.001916704410    0.001808608012    0.037973467089    0.036539615264
            -0.014643564086    -0.045422198121    -0.001916704823    0.001808607138    -0.032461944151    -0.069212930496    -0.001482122095    0.001433070446
            -0.001142263469    0.001201506236    0.037973471802    0.036539614693    -0.001482121632    0.001433071500    0.023404409345    0.032293142161
0.275     -0.058499285085    -0.049092366027    -0.001140307979    0.001988342603    -0.036637999049    -0.033896182942    -0.000912307722    0.001577963188
            -0.001140312228    0.001988330713    0.023612940656    0.045028234231    -0.001598441795    0.002425976990    0.038187199507    0.042323265407
            -0.036638000517    -0.033896184300    -0.001598442422    0.002425976098    -0.058211846178    -0.050206300280    -0.001230690140    0.001916378107
            -0.000912305447    0.001577947177    0.038187203801    0.042323264226    -0.001230690637    0.001916378145    0.024235371546    0.045339932884
0.300     -0.076160515212    -0.020124666066    -0.000689944101    0.002390115335    -0.053619269295    -0.013245137824    -0.000553557547    0.001903450292
            -0.000689952970    0.002390116314    0.029011242848    0.059111641222    -0.001072478565    0.002980193458    0.040728417574    0.049896300729
            -0.053619271237    -0.013245138304    -0.001072484945    0.002980186698    -0.076114867571    -0.021457578114    -0.000813772927    0.002352448454
            -0.000553567861    0.001903465934    0.040728422322    0.049896299435    -0.000813772236    0.002352449116    0.029665947860    0.059179071305
0.325     -0.082165120512    0.014867900372    -0.000101787880    0.002666707892    -0.061915401982    0.013968500513    -0.000080706430    0.002128887053
            -0.000101794492    0.002666715045    0.039391545203    0.072059999871    -0.000355392022    0.003393442918    0.046455863099    0.058061625291
            -0.061915403933    0.013968500953    -0.000355392750    0.003393444149    -0.082445923157    0.013410908655    -0.000242016808    0.002677345884
            -0.000080709471    0.002128899547    0.046455867153    0.058061622048    -0.000242016557    0.002677345706    0.039953781019    0.071888277114
0.350     -0.074604208908    0.050866702580    0.000578936143    0.002769402629    -0.059223033022    0.043787078438    0.000469740707    0.002212367293
            0.000578935850    0.002769404121    0.054141654498    0.081909111368    0.000502108307    0.003596225976    0.055592083703    0.065337919279
            -0.059223033826    0.043787079032    0.000502108704    0.003596226526    -0.075253888111    0.049418502635    0.000444644699    0.002832214775
            0.000469737406    0.002212373412    0.055592087124    0.065337916368    0.000444644458    0.002832214205    0.054497816608    0.081562818800
0.375     -0.053776392599    0.082405173162    0.001288531387    0.002670885249    -0.045066046200    0.071588824498    0.001044450825    0.002129755053
            0.001288531002    0.002670884214    0.071847239366    0.087100309404    0.001421654830    0.003543797117    0.067665550089    0.070281751463
            -0.045066046732    0.071588825345    0.001421654793    0.003543796485    -0.054778942196    0.081116491671    0.001181465976    0.002778201966
            0.001044448657    0.002129758344    0.067665552382    0.070281746479    0.001181466354    0.002778201914    0.071921745008    0.086693144397
0.400     -0.022165244858    0.104542936391    0.001958132756    0.002372422491    -0.020879920085    0.092929547981    0.001584804048    0.001881611822
            0.001958133621    0.002372424889    0.090565587761    0.086802454226    0.002313137544    0.003227861071    0.081631372341    0.071795532072
            -0.020879936743    0.092929546288    0.002313137668    0.003227861721    -0.023440719056    0.103556126903    0.001892355806    0.002507473814
            0.001584803622    0.001881612049    0.081631368592    0.071795521194    0.001892355034    0.002507473520    0.090339856174    0.086475624701
0.425     0.016005045881    0.113677718360    0.002527358586    0.001901486048    0.010279074432    0.104268143698    0.002039076843    0.001491727404
            0.002527358372    0.001901485334    0.108186817907    0.081044289896    0.003093150224    0.002676334653    0.096081508693    0.069314234948
            0.010279072613    0.104268143878    0.003093145894    0.002676335532    0.014594673998    0.113099801694    0.002506052427    0.002044035579
            0.002039077387    0.001491733266    0.096081503003    0.069314225744    0.002506052707    0.002044036026    0.107706885945    0.080939168659
0.450     0.055458323879    0.108075334072    0.002954897261    0.001303407041    0.044245250995    0.103482266489    0.002372284221    0.001000006247
            0.002954897737    0.001303405218    0.122811510797    0.070689978249    0.003700697764    0.001944542339    0.109511859844    0.062889760475
            0.044245249189    0.103482267262    0.003700698022    0.001944542062    0.054093339026    0.107955795829    0.002970561643    0.001436498828
            0.002372277553    0.001000006362    0.109511860941    0.062889758563    0.002970561588    0.001436498482    0.122182356516    0.070919932511
0.475     0.090640144485    0.088058917572    0.003221704163    0.000629604757    0.076346313466    0.090107534108    0.002569471372    0.000451953728
            0.003221704011    0.000629603969    0.133042978975    0.057258805680    0.004104406538    0.001100068250    0.120554597377    0.053153920769
            0.076346311893    0.090107535440    0.004104406480    0.001100068465    0.089518914044    0.088375123027    0.003260214781    0.000745000920
            0.002569471739    0.000451955684    0.120554590082    0.053153912527    0.003260214651    0.000745001489    0.132413500129    0.057887637032
0.500     0.116450797352    0.055937873484    0.003328917992    -0.000073013386    0.102000304910    0.065385708243    0.002634234113    -0.000111059214
            0.003328917436    -0.000073011398    0.138191151697    0.042678690229    0.004302141924    0.000207579580    0.128189080477    0.041226581347
            0.102000304910    0.065385708243    0.004302142036    0.000207579337    0.115761864919    0.056588450567    0.003376084699    0.000027414181
            0.002634231658    -0.000111058093    0.128189080477    0.041226581347    0.003376091751    0.000027407731    0.137730878094    0.043704225098
0.525     0.128870817196    0.015725942906    0.003290671942    -0.000769329895    0.117254396140    0.032140935957    0.002582456934    -0.000658823482
            0.003290671418    -0.000769328622    0.138356304797    0.028989266983    0.004312738206    -0.000683378482    0.131889754906    0.028555104898
            0.117254395580    0.032140938004    0.004312738160    -0.000683378776    0.128763394604    0.016535432669    0.003339284072    -0.000672189560
            0.002582456492    -0.000658824809    0.131889755404    0.028555102596    0.003339286583    -0.000672192794    0.138228285341    0.030338819292
0.550     0.125487347881    -0.027283290213    0.003125612013    -0.001438844992    0.119301086864    -0.005459689232    0.002434435674    -0.001175491338
            0.003125609695    -0.001438840223    0.134431207902    0.018051604306    0.004164180730    -0.001544782002    0.131746265036    0.016722622647
            0.119301096987    -0.005459686774    0.004164180273    -0.001544782659    0.126041629469    -0.026550201263    0.003180273848    -0.001330361239
            0.002434436825    -0.001175490794    0.131746265269    0.016722620807    0.003180274286    -0.001330361487    0.134762083125    0.019586370572
0.575     0.105894781364    -0.067085521121    0.002847555488    -0.002073427979    0.106931559983    -0.042300125457    0.002205965012    -0.001658063827
            0.002847556765    -0.002073425715    0.127994856292    0.011254684801    0.003879083965    -0.002369144962    0.128498453448    0.007194459083
            0.106931559983    -0.042300125457    0.003879083970    -0.002369145338    0.107098089765    -0.066697054891    0.002925372452    -0.001944514998
            0.002205967718    -0.001658064054    0.128498453574    0.007194456840    0.002925372767    -0.001944515427    0.128849225965    0.012787177399
0.600     0.071952218878    -0.097693348127    0.002459012904    -0.002670504542    0.080920951035    -0.072903927797    0.001901395088    -0.002110406025
            0.002459012722    -0.002670504438    0.121120248698    0.009256193703    0.003463149014    -0.003160774188    0.123493401674    0.001042280113
            0.080920959737    -0.072903933078    0.003463149014    -0.003160774188    0.073683824529    -0.097913542259    0.002584822232    -0.002525701377
            0.001901391810    -0.002110408978    0.123493401696    0.001042277526    0.002584821985    -0.002525701488    0.122480430173    0.010578754453
0.625     0.027780537805    -0.114005320129    0.001949341933    -0.003221864894    0.044189761399    -0.092217813462    0.001510846725    -0.002532699470
            0.001949341769    -0.003221864877    0.116048765512    0.011786419394    0.002899672514    -0.003919588349    0.118481556285    -0.001333476616
            0.044189761399    -0.092217813462    0.002899672514    -0.003919588349    0.029812619638    -0.115048581215    0.002146060263    -0.003083855402
            0.001510847931    -0.002532701894    0.118481556267    -0.001333478250    0.002146060700    -0.003083855342    0.117808953169    0.012707402656
0.650     -0.020610968320    -0.112740020855    0.001301348870    -0.003702708371    0.001623076587    -0.096541530211    0.001015327869    -0.002910223618
            0.001301349036    -0.003702708843    0.114781165344    0.017591974160    0.002156377061    -0.004623335931    0.115294051856    -0.000374474623
            0.001623078339    -0.096541534182    0.002156377099    -0.004623335803    -0.018591184613    -0.114724960401    0.001578245599    -0.003610178468
            0.001015327815    -0.002910222154    0.115294051841    -0.000374479050    0.001578245897    -0.003610178120    0.116758085919    0.017975748558
0.675     -0.066150464261    -0.093206647318    0.000505705601    -0.004065676139    -0.040578648380    -0.084358098063    0.000399735725    -0.003206290790
            0.000505705604    -0.004065672108    0.118615530789    0.024588838891    0.001204403335    -0.005215432385    0.115403674549    0.002641433304
            -0.040578634105    -0.084358143768    0.001204402857    -0.005215432392    -0.064498076941    -0.096121164623    0.000848927734    -0.004063903216
            0.000399735314    -0.003206291144    0.115403674622    0.002641430082    0.000848927734    -0.004063903216    0.120578537246    0.024388082797
0.700     -0.101909580335    -0.057664170539    -0.000421596134    -0.004247309064    -0.075968999763    -0.056832279654    -0.000330172349    -0.003366462704
            -0.000421596425    -0.004247308231    0.127801698896    0.030248249023    0.000044291080    -0.005609244940    0.119551144550    0.005850448221
            -0.075968996250    -0.056832297705    0.000044290688    -0.005609244843    -0.100961931455    -0.061351549546    -0.000051531826    -0.004373715132
            -0.000330172810    -0.003366460146    0.119551144550    0.005850448221    -0.000051531825    -0.004373715032    0.129516656516    0.029519515748
0.725     -0.122406379863    -0.011037907862    -0.001428362876    -0.004185962508    -0.099081027144    -0.017695678581    -0.001136163881    -0.003334189686
            -0.001428360309    -0.004185964546    0.141408224326    0.032145017393    -0.001274421794    -0.005709368627    0.127518064724    0.007231007007
            -0.099081027144    -0.017695678581    -0.001274418995    -0.005709365460    -0.122422640834    -0.015212831911    -0.001090035839    -0.004455754039
            -0.001136163653    -0.003334192828    0.127518064901    0.007231003891    -0.001090035839    -0.004455754039    0.142685494014    0.031040470976
0.750     -0.124644859975    0.039983213707    -0.002430168940    -0.003845256997    -0.106474935633    0.027462172628    -0.001949183618    -0.003072520597
            -0.002430160853    -0.003845253117    0.157513957109    0.028499740820    -0.002651792875    -0.005443941432    0.138200679857    0.005085332482
            -0.106474935633    0.027462172628    -0.002651792831    -0.005443941342    -0.125756778331    0.035692140641    -0.002186982464    -0.004242844531
            -0.001949183618    -0.003072520597    0.138200679849    0.005085332724    -0.002186982464    -0.004242844531    0.158246317328    0.027238500270
0.775     -0.108557018462    0.088223783435    -0.003328553260    -0.003229842126    -0.097248605515    0.072301300464    -0.002684790338    -0.002579836337
            -0.003328552553    -0.003229842568    0.173623328906    0.018551105888    -0.003956422725    -0.004790766723    0.149873554621    -0.001606085814
            -0.097248613540    0.072301306430    -0.003956422725    -0.004790766723    -0.110745272468    0.084214583893    -0.003231724014    -0.003709601554
            -0.002684790716    -0.002579835800    0.149873544545    -0.001606092796    -0.003231723949    -0.003709601478    0.173805704350    0.017375433234
