!$
! Info: Touchstone file created by Circ.  Input file=Intel_C2M_200G_6p5in_202208016_staggered.circ
!$
# Hz S RI R 50
0	0.02139997	3.813075e-24	0.9784004	-6.571449e-24	0.0001123088	2.87584e-22	-0.0002429487	2.975263e-20
	0.9784004	-6.568866e-24	0.02195354	7.032714e-24	-0.0002430043	2.975944e-20	0.0003356724	7.144322e-22
	0.0001123661	2.877097e-22	-0.0002431406	2.977613e-20	0.02139793	3.61134e-24	0.9784008	-6.682138e-24
	-0.000243085	2.976932e-20	0.0003357397	7.149383e-22	0.9784008	-6.684734e-24	0.02195496	7.182974e-24
1e+07	0.02592201	0.003767392	0.9686382	-0.1049248	0.001763114	0.006193459	-0.001117529	-0.0006582877
	0.9686382	-0.1049248	0.02611298	0.003753994	-0.001118784	-0.0006585418	0.001626073	0.006232461
	0.001763114	0.006193459	-0.001118784	-0.0006585418	0.02599584	0.003285367	0.9685832	-0.1044224
	-0.001117529	-0.0006582877	0.001626073	0.006232461	0.9685832	-0.1044224	0.02615355	0.003260489
2e+07	0.03076267	0.003220123	0.9478149	-0.2042159	0.003977621	0.0114907	-0.001433685	-0.0007570515
	0.9478149	-0.2042159	0.03161753	0.003091466	-0.001436993	-0.0007543265	0.003406789	0.01173407
	0.00397763	0.01149068	-0.001436996	-0.0007544367	0.03030328	0.002443932	0.9483429	-0.203439
	-0.001433687	-0.0007571553	0.003406878	0.01173396	0.9483429	-0.203439	0.03104023	0.002374772
3e+07	0.03407452	0.0003322246	0.9184421	-0.2987466	0.007247756	0.01626688	-0.001701503	-0.0008017427
	0.9184421	-0.2987466	0.03540868	-0.0003985327	-0.001704934	-0.0007940989	0.006127987	0.01675315
	0.007247733	0.01626691	-0.001704977	-0.0007940947	0.0332113	-0.000421946	0.9194099	-0.2980323
	-0.001701516	-0.000801747	0.006127964	0.01675313	0.9194099	-0.2980323	0.03438727	-0.000980028
4e+07	0.03602228	-0.003505831	0.880464	-0.3889481	0.01149232	0.02017401	-0.001925365	-0.0008000887
	0.880464	-0.3889481	0.03803901	-0.004909993	-0.001926031	-0.0007869626	0.009610023	0.02118928
	0.01149232	0.02017404	-0.001926036	-0.0007869582	0.03484637	-0.004131149	0.8817737	-0.3884269
	-0.001925365	-0.0008000753	0.009610023	0.02118929	0.8817737	-0.3884269	0.03669682	-0.005213103
5e+07	0.03682031	-0.007705602	0.8341829	-0.4742985	0.01649789	0.02307296	-0.002109465	-0.0007736238
	0.8341829	-0.4742985	0.0395803	-0.01006662	-0.002104425	-0.0007560004	0.01375483	0.02489843
	0.0164979	0.02307297	-0.002104422	-0.0007560013	0.0354018	-0.008136945	0.8357483	-0.4740538
	-0.002109462	-0.0007736252	0.01375483	0.02489844	0.8357483	-0.4740538	0.03803757	-0.01000843
6e+07	0.03661006	-0.01195355	0.7800567	-0.5541545	0.02205015	0.02483152	-0.002262031	-0.0007453604
	0.7800567	-0.5541545	0.04005136	-0.01552441	-0.002248812	-0.0007254621	0.01840933	0.02778361
	0.02205016	0.0248315	-0.00224881	-0.0007254632	0.03501219	-0.01214575	0.7817927	-0.5542445
	-0.002262029	-0.0007453609	0.01840933	0.02778361	0.7817927	-0.5542445	0.03842701	-0.01506026
7e+07	0.03552138	-0.01600458	0.7186388	-0.6278701	0.02790793	0.02536112	-0.002399325	-0.0007316822
	0.7186388	-0.6278701	0.03952433	-0.02100906	-0.002376298	-0.0007129209	0.02340825	0.02978151
	0.02790793	0.02536111	-0.002376258	-0.0007129787	0.03380476	-0.01592498	0.7204581	-0.628335
	-0.002399323	-0.0007316844	0.02340825	0.02978151	0.7204581	-0.628335	0.03793487	-0.02012456
8e+07	0.03371199	-0.0196697	0.6505568	-0.6948321	0.03381784	0.02462168	-0.002541195	-0.0007400491
	0.6505568	-0.6948321	0.03809368	-0.0263082	-0.002508187	-0.0007265734	0.02857846	0.03086166
	0.03381783	0.02462168	-0.002508188	-0.0007265709	0.03193753	-0.01929298	0.6523697	-0.6956999
	-0.002541197	-0.0007400466	0.02857846	0.03086166	0.6523697	-0.6956999	0.03665295	-0.02501453
9e+07	0.03136152	-0.02282171	0.5765003	-0.754481	0.03952454	0.02262226	-0.002708524	-0.0007689277
	0.5765003	-0.754481	0.03586718	-0.03124772	-0.002667025	-0.0007652637	0.03374699	0.03102795
	0.03952455	0.02262227	-0.002667023	-0.000765255	0.02959475	-0.02212387	0.5782037	-0.7557685
	-0.002708524	-0.0007689182	0.03374699	0.03102795	0.5782037	-0.7557685	0.03468966	-0.0295772
1e+08	0.0286744	-0.02538904	0.497188	-0.8063344	0.04478133	0.01941876	-0.002922271	-0.0008074673
	0.497188	-0.8063344	0.03297966	-0.03566571	-0.002876299	-0.0008188031	0.03875052	0.03031609
	0.04478133	0.01941876	-0.002876299	-0.000818804	0.02701598	-0.02431457	0.4986283	-0.808072
	-0.002922271	-0.0008074682	0.03875052	0.03031609	0.4986283	-0.808072	0.03222038	-0.03366477
1.1e+08	0.02574272	-0.0274689	0.4134142	-0.8498228	0.04935486	0.01509652	-0.003184745	-0.0008305177
	0.4134142	-0.8498228	0.02964719	-0.03953743	-0.003141587	-0.0008546232	0.04342009	0.02878312
	0.04935486	0.01509652	-0.003141587	-0.0008546245	0.02441562	-0.02623234	0.4144272	-0.8517678
	-0.003184745	-0.0008305191	0.04342009	0.02878312	0.4144272	-0.8517678	0.02937398	-0.03748229
1.2e+08	0.02269024	-0.02891206	0.3261279	-0.8846746	0.05300161	0.009844708	-0.00350491	-0.0008400786
	0.3261279	-0.8846746	0.02588607	-0.04278315	-0.003467396	-0.000875739	0.04761598	0.02654196
	0.05300161	0.009844706	-0.003467396	-0.0008757404	0.02158187	-0.02759435	0.3267773	-0.886726
	-0.003504911	-0.0008400799	0.04761598	0.02654196	0.3267773	-0.886726	0.0259983	-0.04077371
1.3e+08	0.0197041	-0.02976824	0.2361634	-0.9106566	0.05556244	0.003848006	-0.003891937	-0.0008097654
	0.2361634	-0.9106566	0.02186823	-0.04532531	-0.003863298	-0.0008552377	0.05123065	0.02371409
	0.05556244	0.003848004	-0.003863299	-0.0008552388	0.01878288	-0.02838983	0.2364725	-0.9127556
	-0.003891937	-0.0008097666	0.05123065	0.02371409	0.2364725	-0.9127556	0.0223053	-0.04342304
1.4e+08	0.01691507	-0.03011775	0.1443904	-0.9275998	0.05690743	-0.002677185	-0.004343351	-0.0007137385
	0.1443904	-0.9275998	0.01775467	-0.04714325	-0.004325891	-0.000765849	0.05418102	0.02043819
	0.05690742	-0.002677186	-0.004325892	-0.0007658499	0.01617178	-0.0287015	0.1443777	-0.9296954
	-0.004343351	-0.0007137394	0.05418102	0.02043819	0.1443777	-0.9296954	0.01846111	-0.04538962
1.5e+08	0.01442183	-0.03006067	0.05168696	-0.9354135	0.05694615	-0.009492209	-0.004847948	-0.0005270884
	0.05168696	-0.9354135	0.0136982	-0.04825261	-0.004842787	-0.000582706	0.05641401	0.01686388
	0.05694615	-0.00949221	-0.004842788	-0.0005827065	0.01384834	-0.02863354	0.05137205	-0.9374631
	-0.004847949	-0.000527089	0.05641401	0.01686388	0.05137205	-0.9374631	0.01462204	-0.04667458
1.6e+08	0.01229159	-0.02971159	-0.04106548	-0.934085	0.05563302	-0.01634427	-0.005386893	-0.0002285013
	-0.04106548	-0.934085	0.0098388	-0.04869929	-0.00539418	-0.0002844327	0.05790771	0.01314624
	0.05563302	-0.01634427	-0.00539418	-0.000284433	0.01187559	-0.02830089	-0.04166337	-0.9360514
	-0.005386894	-0.0002285017	0.05790771	0.01314624	-0.04166337	-0.9360514	0.01093131	-0.04731232
1.7e+08	0.01055954	-0.02919384	-0.132993	-0.9236843	0.0529695	-0.02297511	-0.00593523	0.0001978639
	-0.132993	-0.9236843	0.006299413	-0.04855478	-0.005954291	0.0001446283	0.05867131	0.009438594
	0.05296949	-0.02297511	-0.005954291	0.0001446281	0.01028364	-0.02782355	-0.1338522	-0.925534
	-0.005935231	0.0001978637	0.05867131	0.009438594	-0.1338522	-0.925534	0.007515993	-0.04736501
1.8e+08	0.009227659	-0.02863209	-0.2232344	-0.9043596	0.04900462	-0.02912964	-0.006463803	0.0007610064
	-0.2232344	-0.9043596	0.003183014	-0.04791086	-0.006493365	0.0007129214	0.05874433	0.005887229
	0.04900462	-0.02912964	-0.006493366	0.0007129213	0.009070721	-0.02732125	-0.2243309	-0.9060623
	-0.006463803	0.0007610063	0.05874433	0.005887229	-0.2243309	-0.9060623	0.004482948	-0.04691692
1.9e+08	0.008265884	-0.02814561	-0.3109448	-0.8763359	0.04383434	-0.03456472	-0.006941158	0.001462554
	-0.3109448	-0.8763359	0.0005693835	-0.04687523	-0.006979524	0.001421569	0.05819416	0.00262596
	0.04383434	-0.03456472	-0.006979524	0.001421569	0.008204476	-0.02690738	-0.3122521	-0.8778674
	-0.006941158	0.001462554	0.05819416	0.002625961	-0.3122521	-0.8778674	0.001917125	-0.04606958
2e+08	0.007613847	-0.02784024	-0.3953056	-0.8399148	0.03759829	-0.03905738	-0.007335887	0.002296173
	-0.3953056	-0.8399148	-0.00148531	-0.04556627	-0.007381172	0.00226355	0.0571123	-0.0002298163
	0.03759829	-0.03905738	-0.007381173	0.00226355	0.007624256	-0.02668256	-0.3967966	-0.841251
	-0.007335887	0.002296173	0.05711231	-0.0002298162	-0.3967966	-0.841251	-0.0001209832	-0.04493613
2.1e+08	0.007185779	-0.02780153	-0.4755305	-0.7954721	0.03047575	-0.04241233	-0.007618904	0.003248016
	-0.4755305	-0.7954721	-0.002951097	-0.04410823	-0.007668933	0.003224786	0.05561146	-0.002586478
	0.03047575	-0.04241232	-0.007668934	0.003224786	0.007244351	-0.02672698	-0.4771752	-0.796595
	-0.007618904	0.003248016	0.05561146	-0.002586478	-0.4771752	-0.796595	-0.001595209	-0.04363727
2.2e+08	0.006874865	-0.02808948	-0.5508693	-0.7434544	0.02268017	-0.0444688	-0.007764519	0.004298129
	-0.5508693	-0.7434544	-0.003822173	-0.0426263	-0.007817308	0.004284532	0.05381934	-0.004376145
	0.02268017	-0.0444688	-0.007817308	0.004284532	0.006959782	-0.02709592	-0.552637	-0.7443495
	-0.007764519	0.004298129	0.05381934	-0.004376145	-0.552637	-0.7443495	-0.002495015	-0.04229532
2.3e+08	0.006560966	-0.02873388	-0.6206133	-0.6843779	0.01445254	-0.04510668	-0.00775278	0.005421011
	-0.6206133	-0.6843779	-0.004117584	-0.04124192	-0.007806281	0.005417154	0.051874	-0.005559055
	0.01445254	-0.04510668	-0.007806281	0.005417154	0.00665246	-0.02781573	-0.6224738	-0.6850346
	-0.00775278	0.00542101	0.051874	-0.005559055	-0.6224738	-0.6850346	-0.002833743	-0.04103015
2.4e+08	0.006117897	-0.02973159	-0.6841086	-0.618825	0.00605402	-0.04425053	-0.007569372	0.006588506
	-0.6841086	-0.618825	-0.00387903	-0.04006821	-0.007621968	0.006593759	0.04991818	-0.006124599
	0.00605402	-0.04425053	-0.007621968	0.006593759	0.006198411	-0.02887964	-0.68603	-0.6192379
	-0.007569372	0.006588506	0.04991818	-0.006124599	-0.68603	-0.6192379	-0.002647735	-0.03995453
2.5e+08	0.005421354	-0.03104535	-0.7407549	-0.5474421	-0.002242605	-0.04187297	-0.00720668	0.007770374
	-0.7407549	-0.5474421	-0.003168128	-0.03920634	-0.007256875	0.00778391	0.04809304	-0.006091955
	-0.002242605	-0.04187297	-0.007256875	0.00778391	0.005476322	-0.03024825	-0.7427054	-0.5476066
	-0.00720668	0.007770374	0.04809304	-0.006091955	-0.7427054	-0.5476066	-0.001993521	-0.03916992
2.6e+08	0.00435723	-0.03260523	-0.790016	-0.4709294	-0.01016175	-0.03799677	-0.006663625	0.008936521
	-0.790016	-0.4709294	-0.002064181	-0.03874139	-0.006710064	0.008957503	0.04653248	-0.005509111
	-0.01016175	-0.03799677	-0.006710064	0.008957503	0.004374804	-0.03184919	-0.7919634	-0.4708482
	-0.006663625	0.008936521	0.04653248	-0.005509111	-0.7919634	-0.4708482	-0.0009458904	-0.03876336
2.7e+08	0.002829296	-0.03431096	-0.831424	-0.3900409	-0.01743371	-0.03269402	-0.005944442	0.01005849
	-0.831424	-0.3900409	-0.0006594467	-0.0387406	-0.005986514	0.01008574	0.04535763	-0.004450292
	-0.01743371	-0.03269402	-0.005986514	0.01008574	0.002800827	-0.03358071	-0.8333398	-0.3897188
	-0.005944442	0.01005849	0.04535763	-0.004450292	-0.8333398	-0.3897188	0.0004068239	-0.03880398
2.8e+08	0.0007667267	-0.03603608	-0.8645886	-0.3055766	-0.02380417	-0.02608527	-0.005058284	0.01111037
	-0.8645886	-0.3055766	0.0009441967	-0.03925084	-0.005095241	0.01114293	0.04467188	-0.003013841
	-0.02380417	-0.02608527	-0.005095241	0.01114293	0.0006869845	-0.03531565	-0.8664444	-0.3050217
	-0.005058284	0.01111037	0.04467188	-0.003013841	-0.8664444	-0.3050217	0.00196591	-0.03934141
2.9e+08	-0.001870091	-0.03763481	-0.8892003	-0.2183748	-0.02904266	-0.01833616	-0.004017186	0.01206987
	-0.8892003	-0.2183748	0.002639313	-0.0402973	-0.004048996	0.01210682	0.04455613	-0.001317305
	-0.02904266	-0.01833616	-0.004048996	0.01210682	-0.002003213	-0.03690734	-0.8909692	-0.2175984
	-0.004017186	0.01206987	0.04455613	-0.001317305	-0.8909692	-0.2175984	0.003626465	-0.04040451
3e+08	-0.005084742	-0.038949	-0.9050343	-0.1293019	-0.0329501	-0.009652216	-0.002836184	0.01291822
	-0.9050343	-0.1293019	0.004318355	-0.04188397	-0.002862748	0.01295883	0.04506551	0.0005066116
	-0.0329501	-0.009652216	-0.002862748	0.01295883	-0.005270064	-0.03819784	-0.9066907	-0.1283173
	-0.002836184	0.01291822	0.04506551	0.0005066116	-0.9066907	-0.1283173	0.005282364	-0.04200075
3.1e+08	-0.008842039	-0.03981687	-0.9119575	-0.03924374	-0.03536643	-0.0002729513	-0.00153097	0.0136403
	-0.9119575	-0.03924374	0.005877098	-0.04399394	-0.001552004	0.01368383	0.04622723	0.002316593
	-0.03536643	-0.0002729513	-0.001552004	0.01368383	-0.009075037	-0.0390254	-0.913477	-0.0380691
	-0.00153097	0.0136403	0.04622723	0.002316593	-0.913477	-0.0380691	0.006829701	-0.04411707
3.2e+08	-0.01306697	-0.04008146	-0.9099267	0.05090009	-0.03617598	0.009535723	-0.0001171922	0.01422393
	-0.9099267	0.05090009	0.007218629	-0.04659115	-0.000132609	0.01426998	0.04803866	0.003967355
	-0.03617598	0.009535724	-0.000132609	0.01426998	-0.01333939	-0.03923488	-0.9112907	0.05224842
	-0.0001171923	0.01422393	0.04803866	0.003967355	-0.9112907	0.05224842	0.008171441	-0.04672092
3.3e+08	-0.01764578	-0.0396007	-0.8989924	0.1402353	-0.03531116	0.01948986	0.001390397	0.01465904
	-0.8989924	0.1402353	0.00825714	-0.0496226	0.001380208	0.01470746	0.05046723	0.005316508
	-0.03531116	0.01948986	0.001380208	0.01470746	-0.01794638	-0.03868547	-0.9001825	0.1417349
	0.001390397	0.01465904	0.05046723	0.005316508	-0.9001825	0.1417349	0.009220774	-0.04976257
3.4e+08	-0.02242888	-0.03825593	-0.8792992	0.2278734	-0.03275594	0.02929683	0.002977081	0.01493707
	-0.8792992	0.2278734	0.008920649	-0.0530212	0.002972924	0.01498742	0.05345227	0.006230523
	-0.03275594	0.02929683	0.002972924	0.01498742	-0.02274374	-0.0372613	-0.8803009	0.229505
	0.002977081	0.01493707	0.05345227	0.006230523	-0.8803009	0.229505	0.009903673	-0.05317768
3.5e+08	-0.02723656	-0.03596024	-0.8510827	0.312954	-0.02854563	0.03866413	0.004629736	0.01504979
	-0.8510827	0.312954	0.009152989	-0.05670919	0.004632068	0.01510169	0.05690658	0.006589556
	-0.02854563	0.03866413	0.004632068	0.01510169	-0.02754921	-0.03487778	-0.8518815	0.3146901
	0.004629736	0.01504979	0.05690658	0.006589556	-0.8518815	0.3146901	0.0101617	-0.05689115
3.6e+08	-0.03186566	-0.03266508	-0.8146653	0.3946429	-0.02276681	0.04730898	0.006335234	0.0149886
	-0.8146653	0.3946429	0.008915332	-0.06060221	0.006344476	0.01504183	0.06072007	0.006293503
	-0.02276681	0.04730898	0.006344476	0.01504183	-0.03215776	-0.03149034	-0.8152513	0.3964599
	0.006335234	0.0149886	0.06072007	0.006293503	-0.8152513	0.3964599	0.009953317	-0.0608195
3.7e+08	-0.03609845	-0.0283663	-0.7704511	0.4721508	-0.01555401	0.0549674	0.008079685	0.01474441
	-0.7704511	0.4721508	0.008186719	-0.06461215	0.008096797	0.01479808	0.06476441	0.005265519
	-0.01555401	0.0549674	0.008096797	0.01479808	-0.03635052	-0.02709851	-0.770818	0.4740243
	0.008079685	0.01474441	0.06476441	0.005265519	-0.770818	0.4740243	0.009254442	-0.06487592
3.8e+08	-0.03971184	-0.02310661	-0.7189223	0.5447392	-0.007085626	0.06140167	0.009848596	0.01430662
	-0.7189223	0.5447392	0.006963903	-0.06865137	0.009873807	0.01436019	0.06889768	0.003455165
	-0.007085626	0.06140167	0.009873807	0.01436019	-0.0399037	-0.02174883	-0.7190646	0.5466412
	0.009848596	0.01430662	0.06889768	0.003455165	-0.7190646	0.5466412	0.008058849	-0.06897301
3.9e+08	-0.04248697	-0.01697781	-0.6606308	0.611724	0.002420893	0.06640811	0.01162384	0.01366522
	-0.6606308	0.611724	0.005259878	-0.07263666	0.01165841	0.01371667	0.07297034	0.0008407226
	0.002420893	0.06640811	0.01165841	0.01371667	-0.0425995	-0.01553789	-0.6605498	0.6136299
	0.01162384	0.01366522	0.07297034	0.0008407226	-0.6605498	0.6136299	0.006376504	-0.07302607
4e+08	-0.04422116	-0.01011935	-0.5961926	0.6724876	0.01271671	0.06982278	0.01338516	0.01280913
	-0.5961926	0.6724876	0.00310303	-0.07649106	0.01342924	0.01285729	0.07683078	-0.002570121
	0.01271671	0.06982278	0.01342924	0.01285729	-0.04423617	-0.008608507	-0.5958875	0.6743706
	0.01338516	0.01280913	0.07683078	-0.002570121	-0.5958875	0.6743706	0.004233269	-0.07695749
4.1e+08	-0.04473765	-0.002715125	-0.5262707	0.7264831	0.02352815	0.07152587	0.01510805	0.01172892
	-0.5262707	0.7264831	0.0005346586	-0.0801476	0.01516167	0.01177197	0.08033169	-0.006740171
	0.02352815	0.07152587	0.01516167	0.01177197	-0.04463873	-0.00114853	-0.5257461	0.7283187
	0.01510805	0.01172892	0.08033169	-0.006740171	-0.5257461	0.7283187	0.001667999	-0.08069795
4.2e+08	-0.04389351	0.005011014	-0.4515808	0.7732352	0.03456512	0.07144591	0.01676385	0.01041824
	-0.4515808	0.7732352	-0.002393796	-0.08355065	0.01682676	0.01045375	0.08333484	-0.01160537
	0.03456512	0.07144591	0.01682676	0.01045375	-0.04366714	0.00661447	-0.4508454	0.7749968
	0.01676385	0.01041824	0.08333484	-0.01160537	-0.4508454	0.7749968	-0.001269223	-0.08418943
4.3e+08	-0.04158964	0.0128035	-0.3728698	0.8123447	0.04552956	0.06956053	0.01832048	0.008873449
	-0.3728698	0.8123447	-0.005622869	-0.08665756	0.0183919	0.008899599	0.08571708	-0.01707578
	0.04552956	0.06956053	0.0183919	0.008899599	-0.0412258	0.01442218	-0.3719334	0.8140094
	0.01832048	0.008873449	0.08571708	-0.01707578	-0.3719334	0.8140094	-0.004520621	-0.08738675
4.4e+08	-0.03777642	0.02038318	-0.290914	0.8434905	0.05612333	0.06589748	0.01974244	0.007096987
	-0.290914	0.8434905	-0.009088724	-0.08943971	0.01982081	0.007111319	0.08737403	-0.02304044
	0.05612333	0.06589748	0.01982081	0.007111319	-0.03726903	0.02199277	-0.2897903	0.8450355
	0.01974244	0.007096987	0.08737403	-0.02304044	-0.2897903	0.8450355	-0.008022215	-0.09025828
4.5e+08	-0.03245877	0.02745602	-0.2065129	0.8664276	0.06605698	0.06053374	0.02099221	0.005097388
	-0.2065129	0.8664276	-0.01272574	-0.09188274	0.02107557	0.005097986	0.08822443	-0.02937067
	0.06605698	0.06053374	0.02107557	0.005097986	-0.03180625	0.02903076	-0.2052176	0.8678324
	0.02099221	0.005097388	0.08822443	-0.02937067	-0.2052176	0.8678324	-0.01170832	-0.09278668
4.6e+08	-0.02569909	0.03372499	-0.1204777	0.8809898	0.07505737	0.05359299	0.02203161	0.002889999
	-0.1204777	0.8809898	-0.01646954	-0.09398641	0.0221175	0.002875715	0.08821242	-0.0359256
	0.07505737	0.05359299	0.0221175	0.002875715	-0.02490467	0.03523903	-0.119027	0.8822357
	0.02203161	0.002889999	0.08821242	-0.0359256	-0.119027	0.8822357	-0.01551379	-0.09496874
4.7e+08	-0.01761907	0.03890244	-0.0336216	0.8870915	0.08287557	0.04524223	0.02282372	0.0004990903
	-0.0336216	0.8870915	-0.02025979	-0.09576271	0.02290909	0.0004686228	0.08730943	-0.04255655
	0.08287557	0.04524223	0.02290909	0.0004686228	-0.01669052	0.04032904	-0.03203679	0.8881606
	0.02282372	0.0004990903	0.08730943	-0.04255655	-0.03203679	0.8881606	-0.01937647	-0.09681415
4.8e+08	-0.008395975	0.04271871	0.0532391	0.8847148	0.08929271	0.0356874	0.02333463	-0.002044921
	0.0532391	0.8847148	-0.02404217	-0.09723614	0.0234162	-0.002091381	0.08551479	-0.04911309
	0.08929271	0.0356874	0.0234162	-0.002091381	-0.007346838	0.04403297	0.05493658	0.8855964
	0.02333463	-0.002044922	0.08551479	-0.04911309	0.05493658	0.8855964	-0.02324019	-0.09834486
4.9e+08	0.001737628	0.04493453	0.1392915	0.8739241	0.09412708	0.02516755	0.02353546	-0.004702852
	0.1392915	0.8739241	-0.02777141	-0.09844041	0.02360977	-0.004765344	0.08285556	-0.05544788
	0.09412708	0.02516755	0.02360977	-0.004765344	0.002889861	0.04611353	0.1410813	0.8746058
	0.02353546	-0.004702852	0.08285556	-0.05544788	0.1410813	0.8746058	-0.02705704	-0.09959314
5e+08	0.01250158	0.04535314	0.2237444	0.8548544	0.09723768	0.01394825	0.02340353	-0.007430957
	0.2237444	0.8548544	-0.0314123	-0.09941722	0.02346747	-0.007507839	0.07938518	-0.06142199
	0.09723768	0.01394825	0.02346747	-0.007507839	0.01373472	0.04637613	0.2255996	0.8553273
	0.02340353	-0.007430957	0.07938518	-0.06142199	0.2255996	0.8553273	-0.03078884	-0.1005995
5.1e+08	0.02357491	0.0438259	0.3058146	0.8277086	0.09852878	0.002315365	0.02292513	-0.01017951
	0.3058146	0.8277086	-0.03494095	-0.1002135	0.02297556	-0.0102688	0.07518119	-0.06690973
	0.09852877	0.002315365	0.02297556	-0.0102688	0.02486296	0.04467681	0.3077129	0.8279692
	0.02292513	-0.01017951	0.07518119	-0.06690973	0.3077129	0.8279692	-0.03440855	-0.1014103
5.2e+08	0.03460427	0.04026407	0.3847457	0.7927643	0.097953	-0.009434272	0.02209484	-0.01289719
