!$
! Info: Touchstone file created by Circ.  Input file=Intel_C2M_200G_6p5in_202208016_staggered.circ
!$
# Hz S RI R 50
0	0.02138692	3.636259e-24	6.974567e-05	9.759425e-23	0.0001126911	2.894809e-22	6.968016e-05	9.742549e-23
	6.974567e-05	9.759425e-23	0.02139997	3.813075e-24	6.972874e-05	9.753182e-23	0.0001123088	2.87584e-22
	0.0001127484	2.896071e-22	6.972873e-05	9.753314e-23	0.02138179	3.474124e-24	6.969332e-05	9.736603e-23
	6.968015e-05	9.742681e-23	0.0001123661	2.877097e-22	6.969332e-05	9.736603e-23	0.02139793	3.61134e-24
1e+07	0.02661059	0.003575131	5.901579e-05	3.133189e-06	0.001463165	0.006055984	2.606346e-06	1.176551e-05
	5.901579e-05	3.133189e-06	0.02592201	0.003767392	6.554211e-05	2.302874e-05	0.001763114	0.006193459
	0.001463165	0.006055984	6.554211e-05	2.302874e-05	0.02682495	0.003324268	2.612035e-05	1.137907e-05
	2.606346e-06	1.176551e-05	0.001763114	0.006193459	2.612035e-05	1.137907e-05	0.02599584	0.003285367
2e+07	0.03109456	0.002665275	4.122923e-05	3.227238e-05	0.003648171	0.01136017	2.536323e-05	2.991222e-05
	4.122923e-05	3.227238e-05	0.03076267	0.003220123	5.890891e-05	2.599632e-06	0.003977621	0.0114907
	0.003648181	0.01136016	5.890891e-05	2.599631e-06	0.03097006	0.002211752	1.615827e-05	1.786945e-05
	2.536323e-05	2.991222e-05	0.00397763	0.01149068	1.615827e-05	1.786945e-05	0.03030328	0.002443932
3e+07	0.03413167	-0.0003014656	3.393844e-05	4.367835e-05	0.006894503	0.01612426	4.303683e-05	3.154036e-05
	3.393844e-05	4.367835e-05	0.03407452	0.0003322246	5.58165e-05	1.655425e-07	0.007247756	0.01626688
	0.00689448	0.0161243	5.58165e-05	1.655461e-07	0.03375079	-0.0007318525	1.03315e-05	2.50197e-05
	4.303684e-05	3.154036e-05	0.007247733	0.01626691	1.033149e-05	2.50197e-05	0.0332113	-0.000421946
4e+07	0.03585133	-0.004133952	2.833087e-05	4.850383e-05	0.01112146	0.02002328	5.752703e-05	2.792215e-05
	2.833086e-05	4.850383e-05	0.03602228	-0.003505831	5.505572e-05	2.88513e-06	0.01149232	0.02017401
	0.01112146	0.0200233	5.505572e-05	2.88513e-06	0.03527763	-0.004469786	1.71126e-05	2.601558e-05
	5.752703e-05	2.792215e-05	0.01149232	0.02017404	1.71126e-05	2.601558e-05	0.03484637	-0.004131149
5e+07	0.03645642	-0.008277762	3.621199e-05	4.5404e-05	0.0161166	0.02291921	6.929218e-05	2.088928e-05
	3.621199e-05	4.5404e-05	0.03682031	-0.007705602	5.744889e-05	2.608686e-07	0.01649789	0.02307296
	0.0161166	0.02291921	5.744889e-05	2.608681e-07	0.03573908	-0.008477548	2.580007e-05	2.279843e-05
	6.929218e-05	2.088927e-05	0.0164979	0.02307297	2.580007e-05	2.279843e-05	0.0354018	-0.008136945
6e+07	0.03608369	-0.01243294	4.92175e-05	3.627074e-05	0.02166681	0.02467923	7.823872e-05	1.12522e-05
	4.92175e-05	3.627074e-05	0.03661006	-0.01195355	5.836535e-05	-3.783876e-06	0.02205015	0.02483152
	0.02166683	0.02467921	5.836535e-05	-3.783877e-06	0.03526757	-0.01247016	3.264438e-05	1.77025e-05
	7.823872e-05	1.12522e-05	0.02205016	0.0248315	3.264438e-05	1.77025e-05	0.03501219	-0.01214575
7e+07	0.03486138	-0.01636092	5.868749e-05	2.479279e-05	0.02753218	0.02521348	8.452721e-05	-1.706507e-07
	5.868749e-05	2.479279e-05	0.03552138	-0.01600458	5.781944e-05	-8.406268e-06	0.02790793	0.02536112
	0.02753218	0.02521348	5.781944e-05	-8.406269e-06	0.03398903	-0.01621927	3.761779e-05	1.134261e-05
	8.452721e-05	-1.70651e-07	0.02790793	0.02536111	3.761779e-05	1.134261e-05	0.03380476	-0.01592498
8e+07	0.03294779	-0.01987543	6.462616e-05	1.171955e-05	0.03346058	0.02448032	8.810298e-05	-1.292998e-05
	6.462616e-05	1.171955e-05	0.03371199	-0.0196697	5.58109e-05	-1.303752e-05	0.03381784	0.02462168
	0.03346058	0.02448032	5.58109e-05	-1.303752e-05	0.03206102	-0.01954519	4.069742e-05	4.108353e-06
	8.810298e-05	-1.292998e-05	0.03381783	0.02462168	4.069742e-05	4.108354e-06	0.03193753	-0.01929298
9e+07	0.03052646	-0.02284761	6.686538e-05	-2.506039e-06	0.03919784	0.02248684	8.875917e-05	-2.683219e-05
	6.686538e-05	-2.506038e-06	0.03136152	-0.02282171	5.240206e-05	-1.714866e-05	0.03952454	0.02262226
	0.03919785	0.02248685	5.240206e-05	-1.714866e-05	0.02966821	-0.02232199	4.178485e-05	-3.753717e-06
	8.875917e-05	-2.683219e-05	0.03952455	0.02262227	4.178485e-05	-3.753716e-06	0.02959475	-0.02212387
1e+08	0.02782212	-0.02518202	6.379489e-05	-1.879452e-05	0.04450029	0.01928787	8.505066e-05	-4.293643e-05
	6.379489e-05	-1.879452e-05	0.0286744	-0.02538904	4.737967e-05	-1.999919e-05	0.04478133	0.01941876
	0.04450029	0.01928787	4.737967e-05	-1.999919e-05	0.02705502	-0.02443878	4.002697e-05	-1.26122e-05
	8.505066e-05	-4.293643e-05	0.04478133	0.01941876	4.002697e-05	-1.26122e-05	0.02701598	-0.02431457
1.1e+08	0.02500283	-0.02710111	5.397825e-05	-2.683099e-05	0.04913352	0.01495137	7.442444e-05	-5.226235e-05
	5.397825e-05	-2.683099e-05	0.02574272	-0.0274689	4.318164e-05	-2.00949e-05	0.04935486	0.01509652
	0.04913352	0.01495137	4.318164e-05	-2.00949e-05	0.0244641	-0.02629953	3.460521e-05	-1.710036e-05
	7.442444e-05	-5.226235e-05	0.04935486	0.01509652	3.460521e-05	-1.710036e-05	0.02441562	-0.02623234
1.2e+08	0.0220457	-0.02843895	4.700782e-05	-3.147615e-05	0.05284061	0.009675532	6.796401e-05	-5.641112e-05
	4.700782e-05	-3.147615e-05	0.02269024	-0.02891206	4.006239e-05	-2.016179e-05	0.05300161	0.009844708
	0.05284061	0.009675529	4.006239e-05	-2.016178e-05	0.02163674	-0.02762085	3.06501e-05	-1.988342e-05
	6.796401e-05	-5.641112e-05	0.05300161	0.009844706	3.06501e-05	-1.988342e-05	0.02158187	-0.02759435
1.3e+08	0.01915253	-0.02921379	4.149149e-05	-3.541925e-05	0.05546519	0.003646225	6.662282e-05	-5.585232e-05
	4.149149e-05	-3.541925e-05	0.0197041	-0.02976824	3.747472e-05	-2.016254e-05	0.05556244	0.003848006
	0.05546518	0.003646223	3.747472e-05	-2.016254e-05	0.01884446	-0.0283815	2.716419e-05	-2.222855e-05
	6.662282e-05	-5.585232e-05	0.05556244	0.003848004	2.716419e-05	-2.222855e-05	0.01878288	-0.02838983
1.4e+08	0.01645625	-0.02949926	3.689542e-05	-3.904699e-05	0.05687721	-0.00292093	6.497956e-05	-5.620993e-05
	3.689542e-05	-3.904699e-05	0.01691507	-0.03011775	3.529468e-05	-2.018522e-05	0.05690743	-0.002677185
	0.05687721	-0.002920931	3.529468e-05	-2.018522e-05	0.01624095	-0.02866175	2.396503e-05	-2.405939e-05
	6.497956e-05	-5.620993e-05	0.05690742	-0.002677186	2.396503e-05	-2.405939e-05	0.01617178	-0.0287015
1.5e+08	0.01405614	-0.02939245	3.242155e-05	-4.213523e-05	0.05698549	-0.009788248	6.299629e-05	-5.73605e-05
	3.242155e-05	-4.213523e-05	0.01442183	-0.03006067	3.337058e-05	-2.041583e-05	0.05694615	-0.009492209
	0.05698548	-0.009788248	3.337058e-05	-2.041583e-05	0.0139262	-0.02856457	2.259473e-05	-2.450628e-05
	6.299629e-05	-5.73605e-05	0.05694615	-0.00949221	2.259473e-05	-2.450628e-05	0.01384834	-0.02863354
1.6e+08	0.01201936	-0.02900623	2.799462e-05	-4.483727e-05	0.05574312	-0.01670395	6.0649e-05	-5.907026e-05
	2.799462e-05	-4.483727e-05	0.01229159	-0.02971159	3.162399e-05	-2.082568e-05	0.05563302	-0.01634427
	0.05574312	-0.01670395	3.162399e-05	-2.082568e-05	0.01196352	-0.02820409	2.165064e-05	-2.484636e-05
	6.0649e-05	-5.907026e-05	0.05563302	-0.01634427	2.165064e-05	-2.484636e-05	0.01187559	-0.02830089
1.7e+08	0.01038086	-0.02846288	2.497363e-05	-4.658167e-05	0.05314982	-0.0234106	5.781117e-05	-6.127722e-05
	2.497363e-05	-4.658167e-05	0.01055954	-0.02919384	2.993923e-05	-2.192939e-05	0.0529695	-0.02297511
	0.05314982	-0.0234106	2.993923e-05	-2.192939e-05	0.01038345	-0.02769978	2.057634e-05	-2.555266e-05
	5.781117e-05	-6.127722e-05	0.05296949	-0.02297511	2.057634e-05	-2.555266e-05	0.01028364	-0.02782355
1.8e+08	0.009142268	-0.02788636	2.299307e-05	-4.78753e-05	0.04925265	-0.02965366	5.439207e-05	-6.383661e-05
	2.299307e-05	-4.78753e-05	0.009227659	-0.02863209	2.798795e-05	-2.350663e-05	0.04900462	-0.02912964
	0.04925265	-0.02965366	2.798795e-05	-2.350663e-05	0.009184692	-0.02717111	1.926135e-05	-2.661125e-05
	5.439207e-05	-6.383661e-05	0.04900462	-0.02912964	1.926135e-05	-2.661125e-05	0.009070721	-0.02732125
1.9e+08	0.008273116	-0.02739548	2.051858e-05	-4.943192e-05	0.0441452	-0.03519011	5.040699e-05	-6.6549e-05
	2.051858e-05	-4.943192e-05	0.008265884	-0.02814561	2.571229e-05	-2.513451e-05	0.04383434	-0.03456472
	0.0441452	-0.03519011	2.571229e-05	-2.513451e-05	0.008335514	-0.02673146	1.762614e-05	-2.778908e-05
	5.040699e-05	-6.6549e-05	0.04383434	-0.03456472	1.762614e-05	-2.778908e-05	0.008204476	-0.02690738
2e+08	0.007712568	-0.02709578	1.748777e-05	-5.114952e-05	0.03796466	-0.03979678	4.580327e-05	-6.92973e-05
	1.748777e-05	-5.114952e-05	0.007613847	-0.02784024	2.307322e-05	-2.676373e-05	0.03759829	-0.03905738
	0.03796466	-0.03979678	2.307322e-05	-2.676373e-05	0.007775936	-0.0264817	1.564268e-05	-2.902502e-05
	4.580327e-05	-6.92973e-05	0.03759829	-0.03905738	1.564268e-05	-2.902502e-05	0.007624256	-0.02668256
2.1e+08	0.007374367	-0.02707257	1.383834e-05	-5.291095e-05	0.03088774	-0.04327755	4.053904e-05	-7.195259e-05
	1.383834e-05	-5.291095e-05	0.007185779	-0.02780153	2.003065e-05	-2.833289e-05	0.03047575	-0.04241233
	0.03088774	-0.04327755	2.003065e-05	-2.833289e-05	0.007420896	-0.02650255	1.328678e-05	-3.025318e-05
	4.053904e-05	-7.195259e-05	0.03047575	-0.04241232	1.328678e-05	-3.025318e-05	0.007244351	-0.02672698
2.2e+08	0.007151155	-0.02738583	9.525507e-06	-5.458233e-05	0.02312539	-0.04547034	3.458998e-05	-7.437466e-05
	9.525507e-06	-5.458233e-05	0.006874865	-0.02808948	1.655712e-05	-2.976849e-05	0.02268017	-0.0444688
	0.02312539	-0.04547034	1.655712e-05	-2.976849e-05	0.007165958	-0.02685023	1.054058e-05	-3.140198e-05
	3.458998e-05	-7.437466e-05	0.02268017	-0.0444688	1.054058e-05	-3.140198e-05	0.006959782	-0.02709592
2.3e+08	0.006922164	-0.02806533	4.524296e-06	-5.601528e-05	0.0149162	-0.04625317	2.795163e-05	-7.641395e-05
	4.524296e-06	-5.601528e-05	0.006560966	-0.02873388	1.263381e-05	-3.098737e-05	0.01445254	-0.04510668
	0.0149162	-0.04625317	1.263381e-05	-3.098737e-05	0.006893397	-0.0275522	7.395664e-06	-3.239383e-05
	2.795163e-05	-7.641395e-05	0.01445254	-0.04510668	7.395664e-06	-3.239383e-05	0.00665246	-0.02781573
2.4e+08	0.006560423	-0.02910806	-1.164532e-06	-5.70497e-05	0.006519241	-0.04554818	2.064767e-05	-7.791387e-05
	-1.164532e-06	-5.70497e-05	0.006117897	-0.02973159	8.258547e-06	-3.189756e-05	0.00605402	-0.04425053
	0.006519241	-0.04554818	8.258547e-06	-3.189756e-05	0.006479291	-0.02860317	3.853668e-06	-3.314739e-05
	2.064767e-05	-7.791387e-05	0.00605402	-0.04425053	3.853667e-06	-3.314739e-05	0.006198411	-0.02887964
2.5e+08	0.005940677	-0.03047686	-7.51032e-06	-5.751884e-05	-0.001794392	-0.04332504	1.272967e-05	-7.871634e-05
	-7.51032e-06	-5.751884e-05	0.005421354	-0.03104535	3.444209e-06	-3.240122e-05	-0.002242605	-0.04187297
	-0.001794392	-0.04332504	3.444209e-06	-3.240122e-05	0.005801997	-0.02996533	-6.975819e-08	-3.357747e-05
	1.272967e-05	-7.871634e-05	-0.002242605	-0.04187297	-6.975819e-08	-3.357747e-05	0.005476322	-0.03024825
2.6e+08	0.004947676	-0.03210185	-1.4449e-05	-5.725472e-05	-0.00975028	-0.03960319	4.2803e-06	-7.866702e-05
	-1.4449e-05	-5.725472e-05	0.00435723	-0.03260523	-1.77745e-06	-3.239778e-05	-0.01016175	-0.03799677
	-0.00975028	-0.03960319	-1.77745e-06	-3.239778e-05	0.004749315	-0.03156804	-4.345825e-06	-3.359773e-05
	4.2803e-06	-7.866702e-05	-0.01016175	-0.03799677	-4.345825e-06	-3.359773e-05	0.004374804	-0.03184919
2.7e+08	0.003483813	-0.03388277	-2.188271e-05	-5.609547e-05	-0.01707929	-0.03445099	-4.587374e-06	-7.762137e-05
	-2.188271e-05	-5.609547e-05	0.002829296	-0.03431096	-7.355989e-06	-3.178626e-05	-0.01743371	-0.03269402
	-0.01707929	-0.03445099	-7.355989e-06	-3.178626e-05	0.003226912	-0.03331122	-8.931365e-06	-3.312206e-05
	-4.587374e-06	-7.762137e-05	-0.01743371	-0.03269402	-8.931365e-06	-3.312206e-05	0.002800827	-0.03358071
2.8e+08	0.001476694	-0.03569293	-2.967653e-05	-5.389279e-05	-0.02352688	-0.02798511	-1.372851e-05	-7.545119e-05
	-2.967653e-05	-5.389279e-05	0.0007667267	-0.03603608	-1.322152e-05	-3.046884e-05	-0.02380417	-0.02608527
	-0.02352688	-0.02798511	-1.322152e-05	-3.046884e-05	0.001165533	-0.03506919	-1.376531e-05	-3.206769e-05
	-1.372851e-05	-7.545119e-05	-0.02380417	-0.02608527	-1.376531e-05	-3.206769e-05	0.0006869845	-0.03531565
2.9e+08	-0.001115125	-0.03738605	-3.766325e-05	-5.051906e-05	-0.02886161	-0.02036721	-2.296995e-05	-7.205152e-05
	-3.766325e-05	-5.051906e-05	-0.001870091	-0.03763481	-1.928203e-05	-2.835504e-05	-0.02904266	-0.01833616
	-0.02886161	-0.02036721	-1.928203e-05	-2.835504e-05	-0.001473694	-0.03669641	-1.877094e-05	-3.035741e-05
	-2.296995e-05	-7.205152e-05	-0.02904266	-0.01833616	-1.877094e-05	-3.035741e-05	-0.002003213	-0.03690734
3e+08	-0.004297117	-0.03880311	-4.564779e-05	-4.587351e-05	-0.03288263	-0.01179896	-3.211472e-05	-6.734496e-05
	-4.564779e-05	-4.587351e-05	-0.005084742	-0.038949	-2.542513e-05	-2.536599e-05	-0.0329501	-0.009652216
	-0.03288263	-0.01179896	-2.542513e-05	-2.536599e-05	-0.004693905	-0.03803559	-2.385464e-05	-2.792282e-05
	-3.211472e-05	-6.734496e-05	-0.0329501	-0.009652216	-2.385464e-05	-2.792282e-05	-0.005270064	-0.03819784
3.1e+08	-0.008036123	-0.03978102	-5.340645e-05	-3.989233e-05	-0.03542729	-0.00251638	-4.094635e-05	-6.128859e-05
	-5.340645e-05	-3.989233e-05	-0.008842039	-0.03981687	-3.152121e-05	-2.143526e-05	-0.03536643	-0.0002729513
	-0.03542729	-0.00251638	-3.152121e-05	-2.143526e-05	-0.0084597	-0.03892497	-2.89058e-05	-2.47086e-05
	-4.094635e-05	-6.128859e-05	-0.03536643	-0.0002729513	-2.89058e-05	-2.47086e-05	-0.009075037	-0.0390254
3.2e+08	-0.01225904	-0.04016098	-6.070071e-05	-3.254815e-05	-0.0363766	0.007217757	-4.92343e-05	-5.387743e-05
	-6.070071e-05	-3.254815e-05	-0.01306697	-0.04008146	-3.741995e-05	-1.65185e-05	-0.03617598	0.009535723
	-0.0363766	0.007217757	-3.741995e-05	-1.65185e-05	-0.01269572	-0.03920869	-3.380016e-05	-2.067355e-05
	-4.92343e-05	-5.387743e-05	-0.03617598	0.009535724	-3.380016e-05	-2.067355e-05	-0.01333939	-0.03923488
3.3e+08	-0.0168539	-0.03979859	-6.727904e-05	-2.38588e-05	-0.03565904	0.01712195	-5.674272e-05	-4.514587e-05
	-6.727904e-05	-2.38588e-05	-0.01764578	-0.0396007	-4.295821e-05	-1.059119e-05	-0.03531116	0.01948986
	-0.03565904	0.01712195	-4.295821e-05	-1.059119e-05	-0.01728855	-0.03874431	-3.839882e-05	-1.579775e-05
	-5.674272e-05	-4.514587e-05	-0.03531116	0.01948986	-3.839882e-05	-1.579775e-05	-0.01794638	-0.03868547
3.4e+08	-0.02167247	-0.03857227	-7.288743e-05	-1.388667e-05	-0.03325408	0.0269053	-6.323512e-05	-3.517329e-05
	-7.288743e-05	-1.388667e-05	-0.02242888	-0.03825593	-4.795899e-05	-3.656641e-06	-0.03275594	0.02929683
	-0.03325408	0.0269053	-4.795899e-05	-3.656641e-06	-0.02208908	-0.03741353	-4.255348e-05	-1.008219e-05
	-6.323512e-05	-3.517329e-05	-0.03275594	0.02929683	-4.255348e-05	-1.008219e-05	-0.02274374	-0.0372613
3.5e+08	-0.026536	-0.03639182	-7.727712e-05	-2.744061e-06	-0.02919226	0.03627618	-6.848549e-05	-2.407557e-05
	-7.727712e-05	-2.744061e-06	-0.02723656	-0.03596024	-5.223725e-05	4.249533e-06	-0.02854563	0.03866413
	-0.02919226	0.03627618	-5.223725e-05	4.249533e-06	-0.02691773	-0.03512847	-4.610878e-05	-3.554427e-06
	-6.848549e-05	-2.407557e-05	-0.02854563	0.03866413	-4.610878e-05	-3.554427e-06	-0.02754921	-0.03487778
3.6e+08	-0.03124162	-0.03320494	-8.021249e-05	9.41709e-06	-0.02355513	0.04495174	-7.228132e-05	-1.201358e-05
	-8.021249e-05	9.41709e-06	-0.03186566	-0.03266508	-5.560585e-05	1.306336e-05	-0.02276681	0.04730898
	-0.02355513	0.04495174	-5.560585e-05	1.306336e-05	-0.03157153	-0.03184057	-4.890681e-05	3.728664e-06
	-7.228132e-05	-1.201358e-05	-0.02276681	0.04730898	-4.890681e-05	3.728664e-06	-0.03215776	-0.03149034
3.7e+08	-0.03557117	-0.02900354	-8.148156e-05	2.239394e-05	-0.01647225	0.05266707	-7.443326e-05	8.143754e-07
	-8.148156e-05	2.239394e-05	-0.03609845	-0.0283663	-5.787978e-05	2.267899e-05	-0.01555401	0.0549674
	-0.01647225	0.05266707	-5.787978e-05	2.267899e-05	-0.03583285	-0.02754476	-5.07928e-05	1.168461e-05
	-7.443326e-05	8.143754e-07	-0.01555401	0.0549674	-5.07928e-05	1.168461e-05	-0.03635052	-0.02709851
3.8e+08	-0.03930034	-0.02382632	-8.089827e-05	3.595069e-05	-0.008117182	0.05918251	-7.478111e-05	1.417583e-05
	-8.089827e-05	3.595069e-05	-0.03971184	-0.02310661	-5.888418e-05	3.295964e-05	-0.007085626	0.06140167
	-0.008117182	0.05918251	-5.888418e-05	3.295964e-05	-0.03947815	-0.02228256	-5.162067e-05	2.019538e-05
	-7.478111e-05	1.417583e-05	-0.007085626	0.06140167	-5.162067e-05	2.019538e-05	-0.0399037	-0.02174883
3.9e+08	-0.04220818	-0.01776115	-7.83141e-05	4.981252e-05	0.001297061	0.06429169	-7.319703e-05	2.78123e-05
	-7.83141e-05	4.981252e-05	-0.04248697	-0.01697781	-5.84606e-05	4.373145e-05	0.002420893	0.06640811
	0.001297061	0.06429169	-5.84606e-05	4.373145e-05	-0.0422888	-0.0161454	-5.125716e-05	2.9119e-05
	-7.319703e-05	2.78123e-05	0.002420893	0.06640811	-5.125716e-05	2.9119e-05	-0.0425995	-0.01553789
4e+08	-0.04408911	-0.01094389	-7.362195e-05	6.36735e-05	0.01152563	0.06782704	-6.959518e-05	4.143365e-05
	-7.362195e-05	6.36735e-05	-0.04422116	-0.01011935	-5.647486e-05	5.478457e-05	0.01271671	0.06982278
	0.01152563	0.06782704	-5.647486e-05	5.478457e-05	-0.04406114	-0.009270938	-4.959131e-05	3.827962e-05
	-6.959518e-05	4.143365e-05	0.01271671	0.06982278	-4.959131e-05	3.827962e-05	-0.04423617	-0.008608507
4.1e+08	-0.04476272	-0.003555202	-6.675783e-05	7.720833e-05	0.02229821	0.06966456	-6.392766e-05	5.473721e-05
	-6.675783e-05	7.720833e-05	-0.04473765	-0.002715125	-5.282505e-05	6.588245e-05	0.02352815	0.07152587
	0.02229821	0.06966456	-5.282505e-05	6.588245e-05	-0.04461714	-0.001842198	-4.653518e-05	4.748245e-05
	-6.392766e-05	5.473721e-05	0.02352815	0.07152587	-4.653518e-05	4.748245e-05	-0.04463873	-0.00114853
4.2e+08	-0.04408172	0.004183433	-5.771089e-05	9.007147e-05	0.03332726	0.06972789	-5.619823e-05	6.740241e-05
	-5.771089e-05	9.007147e-05	-0.04389351	0.005011014	-4.744567e-05	7.676248e-05	0.03456512	0.07144591
	0.03332726	0.06972789	-4.744567e-05	7.676248e-05	-0.04381271	0.005917601	-4.203253e-05	5.650762e-05
	-5.619823e-05	6.740241e-05	0.03456512	0.07144591	-4.203253e-05	5.650762e-05	-0.04366714	0.00661447
4.3e+08	-0.04194215	0.01201825	-4.652322e-05	0.0001019084	0.04431652	0.06798941	-4.645642e-05	7.910384e-05
	-4.652322e-05	0.0001019084	-0.04158964	0.0128035	-4.031127e-05	8.713698e-05	0.04552956	0.06956053
	0.04431652	0.06798941	-4.031127e-05	8.713698e-05	-0.04154721	0.01375372	-3.606256e-05	6.51209e-05
	-4.645642e-05	7.910384e-05	0.04552956	0.06956053	-3.606256e-05	6.51209e-05	-0.0412258	0.01442218
4.4e+08	-0.03828916	0.019671	-3.329427e-05	0.0001123629	0.05496872	0.06447127	-3.479908e-05	8.95193e-05
	-3.329427e-05	0.0001123629	-0.03777642	0.02038318	-3.144709e-05	9.671132e-05	0.05612333	0.06589748
	0.05496872	0.06447127	-3.144709e-05	9.671132e-05	-0.03776917	0.021387	-2.864303e-05	7.307643e-05
	-3.479908e-05	8.95193e-05	0.05612333	0.06589748	-2.864303e-05	7.307643e-05	-0.03726903	0.02199277
4.5e+08	-0.03312216	0.02684756	-1.817626e-05	0.0001210835	0.06499434	0.0592447	-2.137993e-05	9.832974e-05
	-1.817626e-05	0.0001210835	-0.03245877	0.02745602	-2.092972e-05	0.0001051868	0.06605698	0.06053374
	0.06499434	0.0592447	-2.092972e-05	0.0001051868	-0.03248162	0.02852364	-1.982844e-05	8.012683e-05
	-2.137993e-05	9.832974e-05	0.06605698	0.06053374	-1.982844e-05	8.012683e-05	-0.03180625	0.02903076
4.6e+08	-0.02649799	0.03324999	-1.381547e-06	0.0001277318	0.07411918	0.05242756	-6.402288e-06	0.0001052322
	-1.381547e-06	0.0001277318	-0.02569909	0.03372499	-8.88063e-06	0.0001122699	0.07505737	0.05359299
	0.07411918	0.05242756	-8.88063e-06	0.0001122699	-0.0257449	0.034867	-9.719948e-06	8.602585e-05
	-6.402288e-06	0.0001052322	0.07505737	0.05359299	-9.719948e-06	8.602585e-05	-0.02490467	0.03523903
4.7e+08	-0.01853288	0.03858864	1.682157e-05	0.0001319933	0.08209227	0.04418126	9.884305e-06	0.0001099495
	1.682157e-05	0.0001319933	-0.01761907	0.03890244	4.520574e-06	0.0001176771	0.08287557	0.04524223
	0.08209227	0.04418126	4.520574e-06	0.0001176771	-0.01767816	0.04012774	1.53953e-06	9.053512e-05
	9.884305e-06	0.0001099495	0.08287557	0.04524223	1.53953e-06	9.053512e-05	-0.01669052	0.04032904
4.8e+08	-0.009398887	0.04259103	3.610391e-05	0.0001335843	0.08869174	0.03470643	2.717279e-05	0.000112232
