!$
! Info: Touchstone file created by Circ.  Input file=Intel_C2M_200G_6p5in_202208016_staggered.circ
!$
# Hz S RI R 50
0	0.02195355	7.032149e-24	-9.137163e-05	1.11898e-20	0.0003356741	7.144269e-22	-8.707942e-05	1.066415e-20
	-9.137173e-05	1.118981e-20	0.02139997	3.813075e-24	-9.849161e-05	1.206174e-20	0.0001123088	2.87584e-22
	0.0003357415	7.149299e-22	-9.84917e-05	1.206175e-20	0.02195477	7.184881e-24	-9.139699e-05	1.11929e-20
	-8.707941e-05	1.066415e-20	0.0001123661	2.877097e-22	-9.13969e-05	1.119289e-20	0.02139793	3.61134e-24
1e+07	0.02699299	0.003205464	-0.0006161923	-9.217722e-05	0.001331094	0.006169353	-5.628226e-05	-0.0001020559
	-0.0006161923	-9.217722e-05	0.02592201	0.003767392	-0.0004622183	0.0001359272	0.001763114	0.006193459
	0.001331094	0.006169353	-0.0004622183	0.0001359272	0.02680707	0.00356595	-0.0004892983	-5.705386e-05
	-5.628226e-05	-0.0001020559	0.001763114	0.006193459	-0.0004892983	-5.705386e-05	0.02599584	0.003285367
2e+07	0.03167105	0.001979553	-0.0005826808	-0.0002389529	0.003096753	0.01174982	-8.436755e-05	-0.0001531779
	-0.0005826807	-0.0002389529	0.03076267	0.003220123	-0.0005489962	5.9205e-05	0.003977621	0.0114907
	0.003096841	0.01174971	-0.0005489962	5.920503e-05	0.03189338	0.002607117	-0.0004599569	-0.0002987569
	-8.436754e-05	-0.0001531778	0.00397763	0.01149068	-0.0004599569	-0.0002987569	0.03030328	0.002443932
3e+07	0.03482932	-0.00149732	-0.000597451	-0.0003478404	0.005814117	0.01682305	-0.0001281036	-0.000211491
	-0.000597451	-0.0003478404	0.03407452	0.0003322246	-0.0006266247	3.19922e-05	0.007247756	0.01626688
	0.005814093	0.01682302	-0.0006266247	3.199221e-05	0.03538097	-0.0008603136	-0.0004726022	-0.0004174743
	-0.0001281036	-0.000211491	0.007247733	0.01626691	-0.0004726023	-0.0004174743	0.0332113	-0.000421946
4e+07	0.03696998	-0.005783381	-0.0006399407	-0.0004188246	0.009303557	0.02131103	-0.0001879736	-0.0002604149
	-0.0006399407	-0.0004188246	0.03602228	-0.003505831	-0.0007039257	1.926191e-05	0.01149232	0.02017401
	0.009303557	0.02131103	-0.0007039257	1.926191e-05	0.03778321	-0.005239289	-0.0005147769	-0.0004983493
	-0.0001879736	-0.0002604149	0.01149232	0.02017404	-0.0005147769	-0.0004983493	0.03484637	-0.004131149
5e+07	0.03815978	-0.01058666	-0.0007018071	-0.0004629756	0.01346656	0.02506965	-0.0002576823	-0.0002967195
	-0.0007018071	-0.0004629756	0.03682031	-0.007705602	-0.0007826482	1.760303e-05	0.01649789	0.02307296
	0.01346657	0.02506966	-0.0007826482	1.760303e-05	0.03917196	-0.01020106	-0.0005772372	-0.0005517391
	-0.0002576823	-0.0002967195	0.0164979	0.02307297	-0.0005772372	-0.0005517391	0.0354018	-0.008136945
6e+07	0.03841849	-0.01561291	-0.0007766079	-0.0004832496	0.01814942	0.02800031	-0.0003350513	-0.0003197292
	-0.0007766079	-0.0004832495	0.03661006	-0.01195355	-0.0008639079	2.558284e-05	0.02205015	0.02483152
	0.01814941	0.02800031	-0.0008639079	2.558284e-05	0.03956605	-0.01542961	-0.0006527919	-0.0005805521
	-0.0003350513	-0.0003197292	0.02205016	0.0248315	-0.0006527919	-0.000580552	0.03501219	-0.01214575
7e+07	0.03781936	-0.02062605	-0.0008680989	-0.0004728271	0.02318592	0.03003786	-0.0004179846	-0.0003287338
	-0.0008680989	-0.0004728271	0.03552138	-0.01600458	-0.0009486855	4.26029e-05	0.02790793	0.02536112
	0.02318592	0.03003786	-0.0009486855	4.260288e-05	0.03903627	-0.02067218	-0.0007351804	-0.0005861554
	-0.0004179846	-0.0003287338	0.02790793	0.02536111	-0.0007351804	-0.0005861554	0.03380476	-0.01592498
8e+07	0.03645739	-0.02544643	-0.0009697305	-0.0004286927	0.0284019	0.03115009	-0.0005037096	-0.0003229948
	-0.0009697305	-0.0004286927	0.03371199	-0.0196697	-0.001037312	6.835778e-05	0.03381784	0.02462168
	0.0284019	0.03115009	-0.001037312	6.835778e-05	0.03767531	-0.02573442	-0.0008495301	-0.0005372935
	-0.0005037096	-0.0003229948	0.03381783	0.02462168	-0.0008495301	-0.0005372935	0.03193753	-0.01929298
9e+07	0.03444415	-0.02992894	-0.001062782	-0.0003612717	0.03362343	0.03133933	-0.0005900369	-0.0003026116
	-0.001062782	-0.0003612717	0.03136152	-0.02282171	-0.00113411	0.0001015231	0.03952454	0.02262226
	0.03362343	0.03133933	-0.00113411	0.0001015231	0.03559109	-0.03045726	-0.0009707418	-0.0004378114
	-0.0005900369	-0.0003026116	0.03952455	0.02262227	-0.0009707418	-0.0004378113	0.02959475	-0.02212387
1e+08	0.03196529	-0.03393355	-0.001136278	-0.0002685429	0.0386888	0.03063971	-0.0006747524	-0.0002681482
	-0.001136278	-0.0002685429	0.0286744	-0.02538904	-0.001255111	0.0001355244	0.04478133	0.01941876
	0.0386888	0.03063971	-0.001255111	0.0001355244	0.03294316	-0.03469348	-0.001064142	-0.0003013838
	-0.0006747524	-0.0002681482	0.04478133	0.01941876	-0.001064142	-0.0003013838	0.02701598	-0.02431457
1.1e+08	0.02912631	-0.03772971	-0.001202732	-0.0001574356	0.0434183	0.02909314	-0.0007567292	-0.0002207883
	-0.001202732	-0.0001574356	0.02574272	-0.0274689	-0.001351071	0.0001385826	0.04935486	0.01509652
	0.0434183	0.02909314	-0.001351071	0.0001385826	0.02987452	-0.03854725	-0.001118931	-0.0001874308
	-0.0007567292	-0.0002207883	0.04935486	0.01509652	-0.001118931	-0.0001874309	0.02441562	-0.02623234
1.2e+08	0.02574307	-0.04099238	-0.001268091	-4.169401e-05	0.04766235	0.02682976	-0.0008357818	-0.0001598422
	-0.001268091	-4.169401e-05	0.02269024	-0.02891206	-0.001434106	0.0001729501	0.05300161	0.009844708
	0.04766235	0.02682976	-0.001434106	0.0001729501	0.02631674	-0.04183063	-0.001174428	-7.472281e-05
	-0.0008357818	-0.0001598422	0.05300161	0.009844706	-0.001174428	-7.472283e-05	0.02158187	-0.02759435
1.3e+08	0.02204516	-0.04360883	-0.001324223	8.300351e-05	0.05131658	0.02397358	-0.0009106814	-8.592955e-05
	-0.001324223	8.300351e-05	0.0197041	-0.02976824	-0.001515828	0.0002293552	0.05556244	0.003848006
	0.05131658	0.02397358	-0.001515828	0.0002293552	0.0224641	-0.04444518	-0.001221356	4.281372e-05
	-0.0009106814	-8.592954e-05	0.05556244	0.003848004	-0.001221356	4.281372e-05	0.01878288	-0.02838983
1.4e+08	0.01820246	-0.04554313	-0.001368827	0.0002163068	0.05429825	0.02066506	-0.0009783631	9.956307e-07
	-0.001368827	0.0002163068	0.01691507	-0.03011775	-0.001596384	0.0003068989	0.05690743	-0.002677185
	0.05429825	0.02066506	-0.001596384	0.0003068989	0.01848016	-0.04635686	-0.001257948	0.000165022
	-0.0009783631	9.956478e-07	0.05690742	-0.002677186	-0.001257948	0.000165022	0.01617178	-0.0287015
1.5e+08	0.01437111	-0.0467996	-0.001400597	0.0003572965	0.05655452	0.01705548	-0.001037226	0.0001002287
	-0.001400597	0.0003572965	0.01442183	-0.03006067	-0.001673896	0.0004059381	0.05694615	-0.009492209
	0.05655452	0.01705548	-0.001673896	0.0004059381	0.01452031	-0.04757152	-0.001283669	0.0002911605
	-0.001037226	0.0001002287	0.05694615	-0.00949221	-0.001283669	0.0002911605	0.01384834	-0.02863354
1.6e+08	0.01069323	-0.04741474	-0.001418644	0.0005048715	0.05806372	0.01330142	-0.001085725	0.0002108637
	-0.001418644	0.0005048715	0.01229159	-0.02971159	-0.001745386	0.0005268341	0.05563302	-0.01634427
	0.05806372	0.01330142	-0.001745386	0.0005268341	0.01072733	-0.04812724	-0.001298557	0.000420496
	-0.001085725	0.0002108637	0.05563302	-0.01634427	-0.001298557	0.000420496	0.01187559	-0.02830089
1.7e+08	0.007293791	-0.04745192	-0.001422271	0.0006580157	0.05883546	0.009557574	-0.001122359	0.0003319385
	-0.001422271	0.0006580157	0.01055954	-0.02919384	-0.001807237	0.0006695101	0.0529695	-0.02297511
	0.05883546	0.009557574	-0.001807237	0.0006695101	0.007227824	-0.04808947	-0.00130282	0.0005525573
	-0.001122359	0.0003319385	0.05296949	-0.02297511	-0.00130282	0.0005525573	0.01028364	-0.02782355
1.8e+08	0.004278219	-0.04699579	-0.001410866	0.0008157272	0.05890986	0.005971463	-0.001145648	0.0004623441
	-0.001410866	0.0008157272	0.009227659	-0.02863209	-0.001855409	0.0008333749	0.04900462	-0.02912964
	0.05890986	0.005971463	-0.001855409	0.0008333749	0.004128126	-0.04754525	-0.001296752	0.0006871599
	-0.001145648	0.0004623441	0.04900462	-0.02912964	-0.001296752	0.0006871599	0.009070721	-0.02732125
1.9e+08	0.001729151	-0.04614785	-0.001383736	0.0009770909	0.05835505	0.002677953	-0.001154161	0.0006008457
	-0.001383736	0.0009770909	0.008265884	-0.02814561	-0.001885735	0.001016958	0.04383434	-0.03456472
	0.05835505	0.002677954	-0.001885735	0.001016958	0.001512523	-0.04659871	-0.001280337	0.0008244081
	-0.001154161	0.0006008457	0.04383434	-0.03456472	-0.001280337	0.0008244081	0.008204476	-0.02690738
2e+08	-0.0002938455	-0.04502126	-0.001340173	0.001140663	0.05726341	-0.0002066426	-0.001146487	0.000745967
	-0.001340173	0.001140663	0.007613847	-0.02784024	-0.001890813	0.001225956	0.03759829	-0.03905738
	0.05726341	-0.0002066424	-0.001890813	0.001225956	-0.0005593182	-0.04536512	-0.001253144	0.0009645526
	-0.001146487	0.000745967	0.03759829	-0.03905738	-0.001253144	0.0009645526	0.007624256	-0.02668256
2.1e+08	-0.001757161	-0.04373575	-0.00127927	0.001305902	0.0557486	-0.00258808	-0.001121286	0.0008960748
	-0.00127927	0.001305902	0.007185779	-0.02780153	-0.001868895	0.00144812	0.03047575	-0.04241233
	0.0557486	-0.00258808	-0.001868895	0.00144812	-0.002052058	-0.0439673	-0.001214581	0.001107975
	-0.001121286	0.0008960748	0.03047575	-0.04241232	-0.001214581	0.001107975	0.007244351	-0.02672698
2.2e+08	-0.002651001	-0.04241298	-0.001199907	0.001471548	0.05393935	-0.004397988	-0.001077293	0.001049281
	-0.001199907	0.001471548	0.006874865	-0.02808948	-0.001817005	0.001679438	0.02268017	-0.0444688
	0.05393935	-0.004397988	-0.001817005	0.001679438	-0.00295622	-0.0425294	-0.001163412	0.001254913
	-0.001077293	0.001049281	0.02268017	-0.0444688	-0.001163412	0.001254913	0.006959782	-0.02709592
2.3e+08	-0.0029902	-0.04117171	-0.001100931	0.001635971	0.05197478	-0.005596347	-0.001013416	0.001203432
	-0.001100931	0.001635971	0.006560966	-0.02873388	-0.001732995	0.001915228	0.01445254	-0.04510668
	0.05197478	-0.005596347	-0.001732995	0.001915228	-0.003286277	-0.04117295	-0.001097987	0.001405285
	-0.001013416	0.001203432	0.01445254	-0.04510668	-0.001097987	0.001405285	0.00665246	-0.02781573
2.4e+08	-0.002812236	-0.04012322	-0.0009810986	0.001797243	0.04999869	-0.0061725	-0.0009287594	0.001356103
	-0.0009810986	0.001797243	0.006117897	-0.02973159	-0.001615521	0.002150508	0.00605402	-0.04425053
	0.04999869	-0.0061725	-0.001615521	0.002150508	-0.003079853	-0.04001213	-0.001016229	0.001558537
	-0.0009287594	0.001356103	0.00605402	-0.04425053	-0.001016229	0.001558537	0.006198411	-0.02887964
2.5e+08	-0.002174548	-0.03936759	-0.0008393979	0.001952902	0.04815319	-0.006145787	-0.0008226306	0.001504624
	-0.0008393979	0.001952902	0.005421354	-0.03104535	-0.001464107	0.002380087	-0.002242605	-0.04187297
	0.04815319	-0.006145787	-0.001464107	0.002380087	-0.002394838	-0.03914966	-0.0009158646	0.001713502
	-0.0008226306	0.001504624	-0.002242605	-0.04187297	-0.0009158646	0.001713502	0.005476322	-0.03024825
2.6e+08	-0.001152434	-0.03898962	-0.0006750135	0.002100044	0.04657309	-0.005564507	-0.000694776	0.001646072
	-0.0006750135	0.002100044	0.00435723	-0.03260523	-0.00127921	0.002598822	-0.01016175	-0.03799677
	0.04657309	-0.005564507	-0.00127921	0.002598822	-0.001307482	-0.0386736	-0.0007945025	0.001868266
	-0.000694776	0.001646072	-0.01016175	-0.03799677	-0.0007945025	0.001868266	0.004374804	-0.03184919
2.7e+08	0.0001656123	-0.03905684	-0.0004875465	0.002235343	0.04538033	-0.004503385	-0.0005452102	0.001777345
	-0.0004875465	0.002235343	0.002829296	-0.03431096	-0.001062206	0.002801728	-0.01743371	-0.03269402
	0.04538033	-0.004503385	-0.001062206	0.002801728	9.235749e-05	-0.03865393	-0.0006498877	0.002020114
	-0.0005452102	0.001777345	-0.01743371	-0.03269402	-0.0006498877	0.002020114	0.002800827	-0.03358071
2.8e+08	0.001681064	-0.03961706	-0.0002771515	0.002355109	0.04467891	-0.003061368	-0.0003745336	0.001895167
	-0.0002771515	0.002355109	0.0007667267	-0.03603608	-0.0008150707	0.00298422	-0.02380417	-0.02608527
	0.04467891	-0.003061368	-0.0008150707	0.00298422	0.001704334	-0.0391409	-0.0004801766	0.002165525
	-0.0003745336	0.001895167	-0.02380417	-0.02608527	-0.0004801766	0.002165525	0.0006869845	-0.03531565
2.9e+08	0.003289471	-0.04069683	-4.4693e-05	0.002455375	0.04455022	-0.001356711	-0.0001838172	0.001996237
	-4.4693e-05	0.002455375	-0.001870091	-0.03763481	-0.0005404586	0.003142169	-0.02904266	-0.01833616
	0.04455022	-0.001356711	-0.0005404586	0.003142169	0.003421965	-0.04016377	-0.0002840489	0.00230024
	-0.0001838172	0.001996237	-0.02904266	-0.01833616	-0.0002840489	0.00230024	-0.002003213	-0.03690734
3e+08	0.004885757	-0.04230196	0.0002082251	0.002532085	0.04504973	0.000477146	2.531933e-05	0.002077297
	0.0002082251	0.002532085	-0.005084742	-0.038949	-0.0002415437	0.003271963	-0.0329501	-0.009652216
	0.04504973	0.000477146	-0.0002415437	0.003271963	0.005137478	-0.04173018	-6.105965e-05	0.002419362
	2.531933e-05	0.002077297	-0.0329501	-0.009652216	-6.105966e-05	0.002419362	-0.005270064	-0.03819784
3.1e+08	0.00636769	-0.04441753	0.0004791548	0.00258129	0.04620476	0.002298092	0.0002507396	0.002135195
	0.0004791548	0.00258129	-0.008842039	-0.03981687	7.826108e-05	0.003370514	-0.03536643	-0.0002729513
	0.04620476	0.002298092	7.826108e-05	0.003370514	0.006745339	-0.04382699	0.0001881514	0.002517606
	0.0002507396	0.002135195	-0.03536643	-0.0002729513	0.0001881514	0.002517606	-0.009075037	-0.0390254
3.2e+08	0.007639813	-0.04700973	0.0007648302	0.002599278	0.04801265	0.003960065	0.0004896267	0.002167056
	0.0007648302	0.002599278	-0.01306697	-0.04008146	0.0004151501	0.003435316	-0.03617598	0.009535723
	0.04801265	0.003960065	0.0004151501	0.003435316	0.008146935	-0.04642138	0.0004618847	0.002589467
	0.0004896267	0.002167056	-0.03617598	0.009535724	0.0004618847	0.002589467	-0.01333939	-0.03923488
3.3e+08	0.008617279	-0.05002776	0.00106118	0.002582819	0.05044064	0.005320003	0.0007387344	0.002170344
	0.00106118	0.002582819	-0.01764578	-0.0396007	0.0007654031	0.003464284	-0.03531116	0.01948986
	0.05044064	0.005320003	0.0007654031	0.003464284	0.009253964	-0.04946306	0.0007571982	0.002629555
	0.0007387344	0.002170344	-0.03531116	0.01948986	0.0007571982	0.002629555	-0.01794638	-0.03868547
3.4e+08	0.009228586	-0.05340685	0.001363412	0.002529362	0.05342776	0.006243736	0.0009943317	0.002143024
	0.001363412	0.002529362	-0.02242888	-0.03825593	0.001125016	0.003455815	-0.03275594	0.02929683
	0.05342776	0.006243736	0.001125016	0.003455815	0.009991026	-0.05288702	0.001069931	0.002632881
	0.0009943317	0.002143024	-0.03275594	0.02929683	0.001069931	0.002632881	-0.02274374	-0.0372613
3.5e+08	0.009417569	-0.05707131	0.001666143	0.002437165	0.05688632	0.006610903	0.001252245	0.002083591
	0.001666143	0.002437165	-0.02723656	-0.03596024	0.001490033	0.00340868	-0.02854563	0.03866413
	0.05688632	0.006610903	0.001490033	0.00340868	0.01029848	-0.05661722	0.001394707	0.00259515
	0.001252245	0.002083591	-0.02854563	0.03866413	0.001394707	0.00259515	-0.02754921	-0.03487778
3.6e+08	0.009145075	-0.06093872	0.001963663	0.002305468	0.06070571	0.006321004	0.001508041	0.001991233
	0.001963663	0.002305468	-0.03186566	-0.03266508	0.001856515	0.003321846	-0.02276681	0.04730898
	0.06070571	0.006321004	0.001856515	0.003321846	0.0101337	-0.0605691	0.001725207	0.002513055
	0.001508041	0.001991233	-0.02276681	0.04730898	0.001725207	0.002513055	-0.03215776	-0.03149034
3.7e+08	0.008389428	-0.06492264	0.002250092	0.002134462	0.06475702	0.005296962	0.001757183	0.001865753
	0.002250092	0.002134462	-0.03609845	-0.0283663	0.002220364	0.003194621	-0.01555401	0.0549674
	0.06475702	0.005296962	0.002220364	0.003194621	0.009471751	-0.06465463	0.002054403	0.002384408
	0.001757183	0.001865753	-0.01555401	0.0549674	0.002054403	0.002384408	-0.03635052	-0.02709851
3.8e+08	0.007146473	-0.06893681	0.002519551	0.001925476	0.0688977	0.003488205	0.001994978	0.001707779
	0.002519551	0.001925476	-0.03971184	-0.02310661	0.002577281	0.003026643	-0.007085626	0.06140167
	0.0688977	0.003488205	0.002577281	0.003026643	0.008305801	-0.06878509	0.002374655	0.00220847
	0.001994978	0.001707779	-0.007085626	0.06140167	0.002374655	0.00220847	-0.0399037	-0.02174883
3.9e+08	0.005428077	-0.07289906	0.002766468	0.001680825	0.07297762	0.0008731061	0.002216904	0.0015186
	0.002766468	0.001680825	-0.04248697	-0.01697781	0.002922874	0.002817828	0.002420893	0.06640811
	0.07297762	0.0008731061	0.002922874	0.002817828	0.006645372	-0.07287437	0.002678209	0.001985947
	0.002216904	0.0015186	0.002420893	0.06640811	0.002678209	0.001985947	-0.0425995	-0.01553789
4e+08	0.003261434	-0.07673322	0.002985742	0.001403762	0.07684461	-0.002540497	0.00241863	0.001300238
	0.002985742	0.001403762	-0.04422116	-0.01011935	0.003252544	0.002568387	0.01271671	0.06982278
	0.07684461	-0.002540497	0.003252544	0.002568387	0.004516162	-0.07684344	0.002957451	0.001718962
	0.00241863	0.001300238	0.01271671	0.06982278	0.002957451	0.001718962	-0.04423617	-0.008608507
4.1e+08	0.0006866575	-0.08037249	0.003172165	0.001098428	0.08035085	-0.006715121	0.002596181	0.001055345
	0.003172165	0.001098428	-0.04473765	-0.002715125	0.003575177	0.002261236	0.02352815	0.07152587
	0.08035085	-0.006715121	0.003575177	0.002261236	0.001957099	-0.08062174	0.003205095	0.001411763
	0.002596181	0.001055345	0.02352815	0.07152587	0.003205095	0.001411763	-0.04463873	-0.00114853
4.2e+08	-0.002245931	-0.08376153	0.003322518	0.0007696387	0.08335773	-0.01158629	0.002746068	0.0007872476
	0.003322518	0.0007696387	-0.04389351	0.005011014	0.003873881	0.001904146	0.03456512	0.07144591
	0.08335773	-0.01158629	0.003873881	0.001904146	-0.0009815038	-0.08414975	0.003414862	0.001068872
	0.002746068	0.0007872476	0.03456512	0.07144591	0.003414862	0.001068872	-0.04366714	0.00661447
4.3e+08	-0.005477932	-0.08685763	0.003434432	0.0004225015	0.08574181	-0.01706363	0.002865364	0.0004995625
	0.003434432	0.0004225015	-0.04158964	0.0128035	0.004135675	0.001508125	0.04552956	0.06956053
	0.08574181	-0.01706363	0.004135675	0.001508125	-0.004241334	-0.08738092	0.003581406	0.0006959826
	0.002865364	0.0004995625	0.04552956	0.06956053	0.003581406	0.0006959826	-0.0412258	0.01442218
4.4e+08	-0.008946441	-0.08963178	0.00350609	6.242406e-05	0.08739851	-0.02303559	0.002951744	0.0001964148
	0.00350609	6.242406e-05	-0.03777642	0.02038318	0.004355213	0.001076804	0.05612333	0.06589748
	0.08739851	-0.02303559	0.004355213	0.001076804	-0.007757672	-0.09028243	0.003700513	0.0003001007
	0.002951744	0.0001964148	0.05612333	0.06589748	0.003700513	0.0003001007	-0.03726903	0.02199277
4.5e+08	-0.01258656	-0.09206915	0.003536637	-0.0003051646	0.0882466	-0.02937304	0.003003558	-0.0001178625
	0.003536637	-0.0003051646	-0.03245877	0.02745602	0.004527425	0.0006146992	0.06605698	0.06053374
	0.0882466	-0.02937304	0.004527425	0.0006146992	-0.01146389	-0.09283592	0.003769413	-0.0001113422
	0.003003558	-0.0001178625	0.06605698	0.06053374	0.003769413	-0.0001113422	-0.03180625	0.02903076
4.6e+08	-0.01633449	-0.0941688	0.003526074	-0.00067488	0.08823023	-0.03593452	0.003019803	-0.0004389355
	0.003526074	-0.00067488	-0.02569909	0.03372499	0.004647683	0.0001274351	0.07505737	0.05359299
	0.08823023	-0.03593452	0.004647683	0.0001274351	-0.01529372	-0.09503734	0.003786691	-0.0005308119
	0.003019803	-0.0004389355	0.07505737	0.05359299	0.003786691	-0.0005308119	-0.02490467	0.03523903
4.7e+08	-0.02013017	-0.09594205	0.003475194	-0.00104181	0.08732107	-0.0425709	0.003000126	-0.0007623903
	0.003475194	-0.00104181	-0.01761907	0.03890244	0.004712055	-0.000378664	0.08287557	0.04524223
	0.08732107	-0.0425709	0.004712055	-0.000378664	-0.01918381	-0.0968958	0.003752413	-0.0009505755
	0.003000126	-0.0007623903	0.08287557	0.04524223	0.003752413	-0.0009505755	-0.01669052	0.04032904
4.8e+08	-0.02391939	-0.09741265	0.003385465	-0.001401397	0.08551876	-0.04913128	0.002944744	-0.001084043
	0.003385465	-0.001401397	-0.008395975	0.04271871	0.004717479	-0.0008966958	0.08929271	0.0356874
	0.08551876	-0.04913128	0.004717479	-0.0008966958	-0.02307664	-0.09843282	0.00366789	-0.001363478
	0.002944744	-0.001084043	0.08929271	0.0356874	0.00366789	-0.001363478	-0.007346838	0.04403297
4.9e+08	-0.02765679	-0.09861365	0.003258867	-0.001749537	0.08285071	-0.05546801	0.002854419	-0.001399894
	0.003258867	-0.001749537	0.001737628	0.04493453	0.004661948	-0.001418822	0.09412708	0.02516755
