!$
! Info: Touchstone file created by Circ.  Input file=Intel_C2M_200G_2p5in_202208016_staggered.circ
!$
# Hz S RI R 50
0	0.01341258	2.149107e-24	0.9863863	-3.937532e-24	8.068724e-05	2.620384e-22	-0.0002124244	2.601449e-20
	0.9863863	-3.936048e-24	0.01396923	4.446978e-24	-0.0002124797	2.602125e-20	0.0003062446	2.991741e-22
	8.07454e-05	2.621892e-22	-0.0002126175	2.603814e-20	0.0134105	2.040763e-24	0.9863866	-3.95565e-24
	-0.0002125623	2.603137e-20	0.0003063143	2.993789e-22	0.9863866	-3.957144e-24	0.01397065	4.50644e-24
1e+07	0.01611897	0.004436725	0.9821476	-0.06194939	0.0009537447	0.004348476	-0.0007289571	-0.0007620144
	0.9821476	-0.06194939	0.01606903	0.004488879	-0.0007289489	-0.0007620418	0.0009303788	0.004354379
	0.0009537447	0.004348476	-0.0007289489	-0.0007620418	0.01620081	0.004107609	0.9820668	-0.06160314
	-0.0007289571	-0.0007620144	0.0009303788	0.004354379	0.9820668	-0.06160314	0.01615191	0.004159239
2e+07	0.0194047	0.006491988	0.9737815	-0.1212949	0.001902579	0.008264679	-0.0009968111	-0.00118618
	0.9737815	-0.1212949	0.0193793	0.00676601	-0.0009966757	-0.001186298	0.001761436	0.008348771
	0.001902591	0.008264667	-0.0009966688	-0.001186409	0.01911155	0.005947074	0.9740828	-0.1207164
	-0.0009968036	-0.001186285	0.001761524	0.008348667	0.9740828	-0.1207164	0.0190811	0.006222818
3e+07	0.02238761	0.00720076	0.9625795	-0.1788006	0.003252838	0.01210788	-0.001289762	-0.001565254
	0.9625795	-0.1788006	0.02199628	0.007439617	-0.001289626	-0.001565344	0.003059253	0.01216656
	0.003252805	0.01210791	-0.001289668	-0.001565346	0.02180142	0.006668132	0.9631742	-0.1782136
	-0.001289774	-0.00156526	0.00305923	0.01216653	0.9631742	-0.1782136	0.02141808	0.006903393
4e+07	0.02506877	0.007147245	0.9483707	-0.2350195	0.005073019	0.01571557	-0.001614216	-0.001893423
	0.9483707	-0.2350195	0.02434707	0.007579778	-0.00161399	-0.001893453	0.004731677	0.0158286
	0.00507301	0.0157156	-0.001613995	-0.00189345	0.02425166	0.006705987	0.9492053	-0.2345044
	-0.001614219	-0.00189341	0.004731677	0.0158286	0.9492053	-0.2345044	0.02354347	0.007130527
5e+07	0.02754079	0.006602652	0.9311411	-0.2899609	0.007307512	0.01907304	-0.001966746	-0.002168271
	0.9311411	-0.2899609	0.02647235	0.007263758	-0.001966385	-0.002168351	0.006789843	0.0192763
	0.007307513	0.01907305	-0.001966382	-0.002168352	0.02653993	0.006302485	0.9321733	-0.2895695
	-0.001966743	-0.002168272	0.006789846	0.01927631	0.9321733	-0.2895695	0.02549097	0.006951289
6e+07	0.02983442	0.005651818	0.9109316	-0.3435402	0.00993112	0.02214128	-0.00234089	-0.002392417
	0.9109316	-0.3435402	0.02835418	0.006614302	-0.002340416	-0.002392587	0.009206516	0.02247229
	0.00993114	0.02214127	-0.002340414	-0.002392587	0.02869302	0.005528947	0.9121224	-0.3433112
	-0.002340887	-0.002392416	0.009206515	0.02247229	0.9121224	-0.3433112	0.02723923	0.006473784
7e+07	0.03194115	0.004357527	0.887805	-0.3956445	0.01290973	0.02488163	-0.002732229	-0.002568805
	0.887805	-0.3956445	0.03000703	0.00572193	-0.002731596	-0.00256918	0.01195298	0.02538439
	0.01290973	0.02488162	-0.00273154	-0.002569224	0.03070168	0.004439518	0.8891152	-0.3956092
	-0.002732226	-0.002568806	0.01195298	0.02538439	0.8891152	-0.3956092	0.02880108	0.005779538
8e+07	0.03385352	0.002776919	0.8618373	-0.4461477	0.01620557	0.02725935	-0.003136983	-0.002699765
	0.8618373	-0.4461477	0.03144427	0.004642922	-0.003136244	-0.002700474	0.01499705	0.02798314
	0.01620557	0.02725935	-0.003136245	-0.002700472	0.03255943	0.003086425	0.8632285	-0.4463343
	-0.003136985	-0.002699763	0.01499705	0.02798314	0.8632285	-0.4463343	0.03019021	0.004919546
9e+07	0.03557105	0.0009568117	0.8331154	-0.4949186	0.01977845	0.02924374	-0.003552132	-0.002787338
	0.8331154	-0.4949186	0.03267014	0.003420498	-0.003551377	-0.002788484	0.01830456	0.03024311
	0.01977845	0.02924375	-0.003551378	-0.002788475	0.03426931	0.001515437	0.8345413	-0.4953559
	-0.003552135	-0.002787329	0.01830456	0.03024311	0.8345413	-0.4953559	0.03141469	0.003936964
1e+08	0.03710046	-0.001061118	0.8017308	-0.5418316	0.0235867	0.03080808	-0.00397653	-0.002833944
	0.8017308	-0.5418316	0.03368928	0.002102377	-0.003975999	-0.002835572	0.0218412	0.03214288
	0.0235867	0.03080808	-0.003975999	-0.002835573	0.03586116	-0.000207846	0.8031213	-0.5425774
	-0.003976529	-0.002833945	0.0218412	0.03214288	0.8031213	-0.5425774	0.03250273	0.002903891
1.1e+08	0.03844049	-0.003310772	0.7677838	-0.5867163	0.02760227	0.03192924	-0.004408947	-0.002830902
	0.7677838	-0.5867163	0.03455196	0.0007130323	-0.004409127	-0.002832034	0.02556513	0.03365674
	0.02760227	0.03192924	-0.004409126	-0.002832036	0.03746835	-0.002268345	0.7689868	-0.587664
	-0.004408946	-0.002830903	0.02556513	0.03365674	0.7689868	-0.587664	0.03357689	0.001707483
1.2e+08	0.03953732	-0.005698233	0.7314162	-0.6294486	0.03173284	0.03258138	-0.004835627	-0.002791236
	0.7314162	-0.6294486	0.03521459	-0.0007368071	-0.004835771	-0.002792266	0.02943015	0.0347743
	0.03173284	0.03258138	-0.004835771	-0.002792268	0.03875042	-0.004569227	0.7324593	-0.6305288
	-0.004835627	-0.002791237	0.02943015	0.0347743	0.7324593	-0.6305288	0.03442739	0.0003648348
1.3e+08	0.04041199	-0.008195904	0.6927541	-0.6699152	0.03594108	0.032759	-0.005259565	-0.002716877
	0.6927541	-0.6699152	0.03569388	-0.002201928	-0.005259681	-0.002718564	0.0333962	0.03548814
	0.03594108	0.032759	-0.005259681	-0.002718565	0.03977395	-0.007005742	0.6936455	-0.6710976
	-0.005259565	-0.002716878	0.0333962	0.03548814	0.6936455	-0.6710976	0.03508261	-0.001036023
1.4e+08	0.04106975	-0.01078495	0.6519326	-0.708003	0.0401813	0.03245852	-0.005681095	-0.002609352
	0.6519326	-0.708003	0.03600788	-0.003651653	-0.005681795	-0.002611693	0.03742161	0.03579418
	0.0401813	0.03245852	-0.005681795	-0.002611694	0.04056784	-0.009545621	0.6526754	-0.7092627
	-0.005681095	-0.002609353	0.03742161	0.03579418	0.6526754	-0.7092627	0.03556096	-0.002450924
1.5e+08	0.04151201	-0.01344566	0.609092	-0.7436048	0.04440498	0.03167963	-0.006100278	-0.002469397
	0.609092	-0.7436048	0.0361764	-0.005062652	-0.006101902	-0.002472362	0.04146509	0.03569233
	0.04440498	0.03167963	-0.006101902	-0.002472363	0.04114259	-0.0121696	0.6096898	-0.7449224
	-0.006100278	-0.002469398	0.04146509	0.03569233	0.6096898	-0.7449224	0.03588308	-0.003849144
1.6e+08	0.04173962	-0.01615764	0.5643777	-0.7766178	0.04856276	0.03042635	-0.00651691	-0.002297402
	0.5643777	-0.7766178	0.03621992	-0.006417111	-0.006519757	-0.002300691	0.04548592	0.03518687
	0.04856276	0.03042634	-0.006519757	-0.002300692	0.04150163	-0.01485918	0.564833	-0.7779783
	-0.00651691	-0.002297403	0.04548592	0.03518688	0.564833	-0.7779783	0.03607003	-0.005208323
1.7e+08	0.04175516	-0.01890033	0.5179407	-0.8069504	0.05260548	0.02870731	-0.006930613	-0.002093463
	0.5179407	-0.8069504	0.0361592	-0.007701873	-0.006934891	-0.002096596	0.04944423	0.0342857
	0.05260548	0.02870731	-0.006934891	-0.002096596	0.04164664	-0.01759491	0.5182566	-0.8083397
	-0.006930613	-0.002093463	0.04944423	0.0342857	0.5182566	-0.8083397	0.03614335	-0.006512331
1.8e+08	0.04156267	-0.02165414	0.469937	-0.834519	0.05648495	0.0265359	-0.007340873	-0.001857374
	0.469937	-0.834519	0.0360153	-0.008907264	-0.007346598	-0.001859964	0.05330185	0.03300079
	0.05648495	0.02653589	-0.007346598	-0.001859964	0.04157977	-0.02035734	0.470116	-0.8359236
	-0.007340873	-0.001857374	0.05330185	0.03300079	0.470116	-0.8359236	0.03612385	-0.007749587
1.9e+08	0.0411684	-0.02440048	0.4205268	-0.8592461	0.06015468	0.02393054	-0.007747086	-0.001588316
	0.4205268	-0.8592461	0.03580842	-0.01002726	-0.007754181	-0.001589994	0.05702231	0.03134818
	0.06015468	0.02393054	-0.007754181	-0.001589994	0.04130524	-0.02312722	0.4205743	-0.8606551
	-0.007747086	-0.001588316	0.05702231	0.03134818	0.4205743	-0.8606551	0.03603225	-0.008912466
2e+08	0.04058001	-0.02712278	0.3698745	-0.8810636	0.06357044	0.02091419	-0.008148308	-0.00128533
	0.3698745	-0.8810636	0.03555924	-0.01105884	-0.0081566	-0.001285949	0.06057103	0.02934686
	0.06357044	0.02091419	-0.0081566	-0.001285949	0.04082897	-0.02588645	0.3697921	-0.8824658
	-0.008148308	-0.00128533	0.06057103	0.02934686	0.3697921	-0.8824658	0.03588818	-0.009996398
2.1e+08	0.03980587	-0.02980591	0.318147	-0.8999151	0.06669045	0.01751414	-0.008543336	-0.0009475106
	0.318147	-0.8999151	0.03528675	-0.01200194	-0.008552698	-0.0009466013	0.06391679	0.02701962
	0.06669045	0.01751414	-0.008552698	-0.0009466015	0.04015801	-0.02861867	0.3179394	-0.9012999
	-0.008543336	-0.0009475107	0.06391679	0.02701962	0.3179394	-0.9012999	0.03571133	-0.01100017
2.2e+08	0.03885548	-0.03243711	0.2655136	-0.9157507	0.06947611	0.01376172	-0.008930514	-0.0005732409
	0.2655136	-0.9157507	0.03500998	-0.01285928	-0.008940689	-0.0005707165	0.06703066	0.02439184
	0.06947611	0.01376172	-0.008940689	-0.0005707166	0.03930052	-0.03130908	0.265185	-0.9171084
	-0.008930514	-0.0005732411	0.06703066	0.02439184	0.265185	-0.9171084	0.03551973	-0.011925
2.3e+08	0.03773869	-0.03500492	0.2121476	-0.928529	0.07189251	0.009691869	-0.009307677	-0.0001615811
	0.2121476	-0.928529	0.03474645	-0.0136361	-0.009318543	-0.0001570289	0.06988699	0.02149142
	0.07189251	0.009691869	-0.009318543	-0.0001570291	0.03826609	-0.03394452	0.2117016	-0.9298511
	-0.009307677	-0.0001615811	0.06988699	0.02149142	0.2117016	-0.9298511	0.03533091	-0.01277483
2.4e+08	0.03646556	-0.03749978	0.1582216	-0.9382218	0.07390836	0.005342939	-0.009672509	0.0002892522
	0.1582216	-0.9382218	0.03451228	-0.01434014	-0.009683734	0.0002958105	0.07246393	0.01834873
	0.07390836	0.005342939	-0.009683734	0.0002958103	0.03706419	-0.03651409	0.157664	-0.9395005
	-0.009672509	0.0002892522	0.07246393	0.01834873	0.157664	-0.9395005	0.03516099	-0.01355607
2.5e+08	0.0350461	-0.03991373	0.1039117	-0.9448089	0.07549641	0.0007559375	-0.01002201	0.0007804098
	0.1039117	-0.9448089	0.03432242	-0.01498144	-0.01003322	0.000789122	0.07474295	0.01499559
	0.07549641	0.0007559374	-0.01003322	0.000789122	0.0357047	-0.03900787	0.1032462	-0.9460345
	-0.01002201	0.0007804098	0.07474295	0.01499559	0.1032462	-0.9460345	0.03502487	-0.01427721
2.6e+08	0.03349011	-0.04224005	0.04939213	-0.9482784	0.07663426	-0.004025638	-0.01035293	0.001312663
	0.04939213	-0.9482784	0.03418934	-0.01557165	-0.0103638	0.001323898	0.07670935	0.01146508
	0.07663426	-0.004025638	-0.0103638	0.001323898	0.03419757	-0.04141809	0.04862611	-0.9494432
	-0.01035293	0.001312663	0.07670935	0.01146508	0.04862611	-0.9494432	0.03493538	-0.01494899
2.7e+08	0.03180731	-0.04447333	-0.005161608	-0.9486284	0.07730341	-0.008956463	-0.01066152	0.001886843
	-0.005161608	-0.9486284	0.03412414	-0.01612449	-0.01067164	0.001900418	0.07835228	0.007791439
	0.07730341	-0.008956463	-0.01067164	0.001900418	0.03255253	-0.04373826	-0.006023056	-0.9497262
	-0.01066152	0.001886843	0.07835228	0.007791439	-0.006023056	-0.9497262	0.03490384	-0.01558366
2.8e+08	0.03000649	-0.04660942	-0.05957461	-0.9458672	0.07749037	-0.01398976	-0.01094362	0.002503086
	-0.05957461	-0.9458672	0.03413552	-0.01665511	-0.01095257	0.002519266	0.07966483	0.004008922
	0.07749037	-0.01398976	-0.01095257	0.002519266	0.03077881	-0.04596266	-0.06052529	-0.9468917
	-0.01094362	0.002503086	0.07966483	0.004008922	-0.06052529	-0.9468917	0.03493944	-0.01619504
2.9e+08	0.02809652	-0.0486451	-0.1136722	-0.9400136	0.07718649	-0.01907784	-0.01119476	0.00316175
	-0.1136722	-0.9400136	0.03422946	-0.01717947	-0.01120223	0.003180257	0.08064383	0.0001521884
	0.07718649	-0.01907784	-0.01120223	0.003180257	0.02888531	-0.04808745	-0.1147057	-0.9409584
	-0.01119476	0.00316175	0.08064383	0.0001521884	-0.1147057	-0.9409584	0.0350489	-0.01679832
3e+08	0.0260852	-0.05057774	-0.1672826	-0.9310932	0.07638757	-0.0241725	-0.01141041	0.003861814
	-0.1672826	-0.9310932	0.03441012	-0.01771459	-0.01141602	0.003882534	0.0812897	-0.003745126
	0.07638757	-0.0241725	-0.01141602	0.003882534	0.02688043	-0.05010902	-0.168392	-0.9319522
	-0.01141041	0.003861814	0.0812897	-0.003745126	-0.168392	-0.9319522	0.03523706	-0.01740938
3.1e+08	0.02397999	-0.05240564	-0.2202364	-0.9191434	0.0750945	-0.02922568	-0.01158584	0.004602101
	-0.2202364	-0.9191434	0.03467892	-0.01827792	-0.01158891	0.00462504	0.08160696	-0.007649581
	0.0750945	-0.02922568	-0.01158891	0.00462504	0.02477183	-0.05202514	-0.2214128	-0.9199103
	-0.01158584	0.004602101	0.08160696	-0.007649581	-0.2214128	-0.9199103	0.03550599	-0.01804502
3.2e+08	0.02178768	-0.05412777	-0.2723628	-0.9042091	0.07331284	-0.03418989	-0.01171617	0.005380865
	-0.2723628	-0.9042091	0.03503474	-0.01888719	-0.01171632	0.005405797	0.08160341	-0.01152956
	0.07331284	-0.03418989	-0.01171632	0.005405797	0.02256635	-0.05383358	-0.2736017	-0.9048805
	-0.01171617	0.005380865	0.08160341	-0.01152956	-0.2736017	-0.9048805	0.03585542	-0.01872223
3.3e+08	0.01951414	-0.05574334	-0.323499	-0.8863439	0.07105251	-0.03901828	-0.01179637	0.006196002
	-0.323499	-0.8863439	0.035474	-0.01955986	-0.01179351	0.006222077	0.08128967	-0.01535484
	0.07105251	-0.03901828	-0.01179351	0.006222076	0.02027044	-0.0555331	-0.3247907	-0.8869157
	-0.01179637	0.006196002	0.08128967	-0.01535484	-0.3247907	-0.8869157	0.03628291	-0.01945787
3.4e+08	0.01716471	-0.05725182	-0.3734804	-0.8656117	0.06832819	-0.04366586	-0.0118219	0.007043994
	-0.3734804	-0.8656117	0.0359908	-0.02031305	-0.01181539	0.007071278	0.08068012	-0.01909701
	0.06832819	-0.04366586	-0.01181539	0.007071278	0.01788968	-0.05712238	-0.3748199	-0.8660812
	-0.0118219	0.007043994	0.08068012	-0.01909701	-0.3748199	-0.8660812	0.03678316	-0.02026857
3.5e+08	0.01474371	-0.058653	-0.4221518	-0.842085	0.0651585	-0.04808908	-0.01178814	0.007921498
	-0.4221518	-0.842085	0.03657651	-0.02116297	-0.01177765	0.007949502	0.07979147	-0.02273037
	0.0651585	-0.04808908	-0.01177765	0.007949502	0.01542904	-0.05860067	-0.4235272	-0.8424482
	-0.01178814	0.007921498	0.07979147	-0.02273037	-0.4235272	-0.8424482	0.03734893	-0.02117066
3.6e+08	0.01225509	-0.05994679	-0.4693568	-0.8158445	0.06156642	-0.05224674	-0.01169074	0.008824324
	-0.4693568	-0.8158445	0.03722058	-0.02212533	-0.01167633	0.008852343	0.07864284	-0.02623144
	0.06156642	-0.05224674	-0.01167633	0.008852343	0.01289265	-0.05996693	-0.470761	-0.816099
	-0.01169074	0.008824324	0.07864284	-0.02623144	-0.470761	-0.816099	0.03797044	-0.02217903
3.7e+08	0.009702186	-0.06113244	-0.514947	-0.7869776	0.05757838	-0.0561005	-0.01152603	0.009747472
	-0.514947	-0.7869776	0.0379102	-0.02321389	-0.01150735	0.009775167	0.07725556	-0.02957956
	0.05757838	-0.0561005	-0.01150735	0.009775167	0.0102842	-0.06122008	-0.5163726	-0.7871224
	-0.01152603	0.009747472	0.07725556	-0.02957956	-0.5163726	-0.7871224	0.03863579	-0.02330792
3.8e+08	0.007087529	-0.06220966	-0.5587791	-0.7555817	0.05322419	-0.0596145	-0.01129007	0.01068625
	-0.5587791	-0.7555817	0.03863078	-0.024441	-0.01126753	0.01071249	0.07565253	-0.03275715
	0.05322419	-0.0596145	-0.01126753	0.01071249	0.007606822	-0.06235917	-0.5602155	-0.7556146
	-0.01129007	0.01068625	0.07565253	-0.03275715	-0.5602155	-0.7556146	0.03933152	-0.02456998
3.9e+08	0.004412822	-0.06317731	-0.6007116	-0.7217618	0.04853724	-0.06275652	-0.0109806	0.01163424
	-0.6007116	-0.7217618	0.03936559	-0.02581784	-0.01095351	0.01165907	0.07385835	-0.03574978
	0.04853724	-0.06275652	-0.01095351	0.01165907	0.004863006	-0.06338243	-0.6021525	-0.7216849
	-0.0109806	0.01163424	0.07385835	-0.03574978	-0.6021525	-0.7216849	0.04004155	-0.02597591
4e+08	0.001679711	-0.06403429	-0.6406118	-0.6856325	0.04355307	-0.06549763	-0.01059466	0.01258576
	-0.6406118	-0.6856325	0.04009662	-0.02735304	-0.01056362	0.01260828	0.07189827	-0.03854623
	0.04355307	-0.06549763	-0.01056362	0.01260828	0.002055032	-0.06428829	-0.6420478	-0.6854432
	-0.01059466	0.01258576	0.07189827	-0.03854623	-0.6420478	-0.6854432	0.04074905	-0.0275353
4.1e+08	-0.001110112	-0.06477824	-0.6783546	-0.6473093	0.03831001	-0.06781244	-0.01013038	0.01353447
	-0.6783546	-0.6473093	0.04080482	-0.02905303	-0.01009572	0.01355389	0.06979814	-0.04113814
	0.03831001	-0.06781244	-0.01009572	0.01355389	-0.0008153549	-0.06507426	-0.6797784	-0.6470088
	-0.01013038	0.01353447	0.06979814	-0.04113814	-0.6797784	-0.6470088	0.04143538	-0.02925492
4.2e+08	-0.003956315	-0.06540673	-0.7138187	-0.6069225	0.03284818	-0.06967993	-0.00958713	0.01447344
	-0.7138187	-0.6069225	0.04146961	-0.03092232	-0.009548856	0.01448931	0.06758413	-0.04352144
	0.03284818	-0.06967993	-0.009548856	0.01448931	-0.0037466	-0.06573734	-0.7152208	-0.606513
	-0.00958713	0.01447344	0.06758413	-0.04352144	-0.7152208	-0.606513	0.04208093	-0.03113986
4.3e+08	-0.006857826	-0.06591649	-0.746892	-0.5646037	0.0272091	-0.07108276	-0.008963769	0.0153962
	-0.746892	-0.5646037	0.0420701	-0.03296282	-0.008922681	0.01540801	0.065282	-0.04569422
	0.0272091	-0.07108276	-0.008922681	0.01540801	-0.00673715	-0.06627397	-0.748265	-0.5640866
	-0.008963769	0.0153962	0.065282	-0.04569422	-0.748265	-0.5640866	0.04266494	-0.03319262
4.4e+08	-0.009813687	-0.06630383	-0.7774698	-0.5204915	0.02143568	-0.07200768	-0.008260705	0.0162958
	-0.7774698	-0.5204915	0.0425847	-0.03517392	-0.008216946	0.01630303	0.06291672	-0.04765839
	0.02143568	-0.07200768	-0.008216946	0.01630303	-0.009785427	-0.06668	-0.7788053	-0.5198699
	-0.008260705	0.0162958	0.06291672	-0.04765839	-0.7788053	-0.5198699	0.04316681	-0.03541332
4.5e+08	-0.012823	-0.06656374	-0.8054533	-0.4747336	0.01557148	-0.07244587	-0.007478706	0.01716541
	-0.8054533	-0.4747336	0.04299161	-0.03755262	-0.00743285	0.01716777	0.06051277	-0.04941872
	0.01557148	-0.07244587	-0.00743285	0.01716777	-0.01288985	-0.0669503	-0.8067437	-0.4740108
	-0.007478706	0.01716541	0.06051277	-0.04941872	-0.8067437	-0.4740108	0.04356498	-0.03779966
4.6e+08	-0.01588483	-0.06669064	-0.8307527	-0.4274814	0.009660422	-0.07239243	-0.006618707	0.01799838
	-0.8307527	-0.4274814	0.0432692	-0.04009352	-0.006571754	0.01799547	0.05809296	-0.05098307
	0.009660422	-0.07239243	-0.006571754	0.01799547	-0.01604838	-0.06707943	-0.8319907	-0.4266594
	-0.006618707	0.01799838	0.05809296	-0.05098307	-0.8319907	-0.4266594	0.04383803	-0.04034702
4.7e+08	-0.01899684	-0.06667824	-0.8532918	-0.3788892	0.003745885	-0.07184682	-0.00568342	0.01878789
	-0.8532918	-0.3788892	0.0433963	-0.0427879	-0.005635718	0.01877954	0.05567822	-0.05236152
	0.003745885	-0.07184682	-0.005635718	0.01877954	-0.01925871	-0.06706073	-0.8544685	-0.377973
	-0.00568342	0.01878789	0.05567822	-0.05236152	-0.8544685	-0.377973	0.0439651	-0.04304785
4.8e+08	-0.02215694	-0.0665197	-0.8729942	-0.3291165	-0.002128619	-0.07081232	-0.004674652	0.01952786
	-0.8729942	-0.3291165	0.04335276	-0.04562558	-0.004627381	0.01951375	0.05328784	-0.05356682
	-0.002128619	-0.07081232	-0.004627381	0.01951375	-0.02251756	-0.06688724	-0.8741057	-0.3281119
	-0.004674652	0.01952786	0.05328784	-0.05356682	-0.8741057	-0.3281119	0.04392586	-0.04589241
4.9e+08	-0.02536227	-0.06620707	-0.8897991	-0.2783326	-0.007921203	-0.06929657	-0.003596301	0.02021196
	-0.8897991	-0.2783326	0.04311891	-0.04859323	-0.003549717	0.02019221	0.05093864	-0.05461406
	-0.007921203	-0.06929657	-0.003549717	0.02019221	-0.02582138	-0.0665511	-0.8908385	-0.2772418
	-0.003596301	0.02021196	0.05093864	-0.05461406	-0.8908385	-0.2772418	0.04370057	-0.04886862
5e+08	-0.02860826	-0.065732	-0.9036569	-0.2267006	-0.01359091	-0.06731039	-0.002451062	0.02083432
	-0.9036569	-0.2267006	0.04267669	-0.0516757	-0.00240642	0.02080908	0.0486449	-0.05551967
	-0.01359091	-0.06731039	-0.00240642	0.02080908	-0.02916521	-0.06604424	-0.9046165	-0.2255322
	-0.002451062	0.02083432	0.0486449	-0.05551967	-0.9046165	-0.2255322	0.04327099	-0.05196212
5.1e+08	-0.03189033	-0.06508568	-0.9145204	-0.1743939	-0.01909796	-0.06486856	-0.001243858	0.02138961
	-0.9145204	-0.1743939	0.04200951	-0.05485571	-0.001201826	0.021359	0.04641823	-0.05630193
	-0.01909796	-0.06486856	-0.001201826	0.021359	-0.03254353	-0.06535791	-0.9153972	-0.1731531
	-0.001243858	0.02138961	0.04641823	-0.05630193	-0.9153972	-0.1731531	0.04262021	-0.05515618
5.2e+08	-0.03520212	-0.06425887	-0.922359	-0.1215871	-0.02440564	-0.06198927	2.152033e-05	0.02187251
	-0.922359	-0.1215871	0.04110264	-0.05811378	6.062833e-05	0.02183695	0.04426757	-0.05698008
