!$
! Info: Touchstone file created by Circ.  Input file=Intel_C2M_200G_2p5in_202208016_staggered.circ
!$
# Hz S RI R 50
0	0.01339932	1.958626e-24	3.759618e-05	4.238156e-23	8.107485e-05	2.631539e-22	3.752907e-05	4.228868e-23
	3.759618e-05	4.238156e-23	0.01341258	2.149107e-24	3.757837e-05	4.236436e-23	8.068724e-05	2.620384e-22
	8.1133e-05	2.633037e-22	3.757836e-05	4.236522e-23	0.01339411	1.892038e-24	3.754188e-05	4.227336e-23
	3.752906e-05	4.228954e-23	8.07454e-05	2.621892e-22	3.754188e-05	4.227336e-23	0.0134105	2.040763e-24
1e+07	0.01655241	0.004270222	3.957968e-05	2.868117e-06	0.0007844321	0.004231454	1.285523e-06	6.138428e-06
	3.957968e-05	2.868117e-06	0.01611897	0.004436725	3.907491e-05	1.738558e-05	0.0009537447	0.004348476
	0.0007844321	0.004231454	3.907491e-05	1.738558e-05	0.01665528	0.004119236	1.52735e-05	5.658782e-06
	1.285523e-06	6.138428e-06	0.0009537447	0.004348476	1.52735e-05	5.658782e-06	0.01620081	0.004107609
2e+07	0.01955573	0.006068472	2.752453e-05	2.254742e-05	0.001705125	0.008114651	1.693047e-05	2.225645e-05
	2.752453e-05	2.254742e-05	0.0194047	0.006491988	3.652615e-05	2.184704e-06	0.001902579	0.008264679
	0.001705137	0.008114639	3.652615e-05	2.184702e-06	0.01944844	0.005803412	8.715745e-06	1.179362e-05
	1.693047e-05	2.225645e-05	0.001902591	0.008264667	8.715744e-06	1.179362e-05	0.01911155	0.005947074
3e+07	0.0223188	0.006734938	1.930023e-05	3.194959e-05	0.003030037	0.01191872	2.901281e-05	2.525421e-05
	1.930023e-05	3.194959e-05	0.02238761	0.00720076	3.500248e-05	-2.806668e-09	0.003252838	0.01210788
	0.003030005	0.01191875	3.500248e-05	-2.805318e-09	0.02204503	0.006495066	4.600726e-06	1.769569e-05
	2.901281e-05	2.525421e-05	0.003252805	0.01210791	4.600726e-06	1.769569e-05	0.02180142	0.006668132
4e+07	0.02481862	0.006707583	1.301925e-05	3.786454e-05	0.004826723	0.01549141	3.89193e-05	2.433324e-05
	1.301925e-05	3.786454e-05	0.02506877	0.007147245	3.452049e-05	2.271397e-06	0.005073019	0.01571557
	0.004826714	0.01549143	3.45205e-05	2.271397e-06	0.02441686	0.00653843	9.387414e-06	1.94674e-05
	3.89193e-05	2.433324e-05	0.00507301	0.0157156	9.387414e-06	1.94674e-05	0.02425166	0.006705987
5e+07	0.02714074	0.006230974	1.733023e-05	3.916716e-05	0.007039514	0.01881842	4.700703e-05	2.102048e-05
	1.733023e-05	3.916716e-05	0.02754079	0.006602652	3.413985e-05	3.767208e-06	0.007307512	0.01907304
	0.007039515	0.01881843	3.413985e-05	3.767208e-06	0.02663888	0.006160713	1.49059e-05	1.923475e-05
	4.700703e-05	2.102048e-05	0.007307513	0.01907305	1.49059e-05	1.923475e-05	0.02653993	0.006302485
6e+07	0.02931334	0.005378173	2.634653e-05	3.67687e-05	0.009643515	0.0218607	5.341602e-05	1.604482e-05
	2.634653e-05	3.67687e-05	0.02983442	0.005651818	3.38016e-05	4.851519e-06	0.00993112	0.02214128
	0.009643536	0.0218607	3.38016e-05	4.851519e-06	0.02873697	0.005427286	1.954347e-05	1.786145e-05
	5.341602e-05	1.604482e-05	0.00993114	0.02214127	1.954347e-05	1.786145e-05	0.02869302	0.005528947
7e+07	0.03132729	0.004205205	3.381648e-05	3.279284e-05	0.01260511	0.02457947	5.821671e-05	9.873293e-06
	3.381648e-05	3.279284e-05	0.03194115	0.004357527	3.349974e-05	5.745813e-06	0.01290973	0.02488163
	0.01260512	0.02457947	3.349974e-05	5.745813e-06	0.03070163	0.004388997	2.332154e-05	1.56354e-05
	5.821671e-05	9.873293e-06	0.01290973	0.02488162	2.332154e-05	1.56354e-05	0.03070168	0.004439518
8e+07	0.03317574	0.002765165	3.970715e-05	2.753122e-05	0.01588727	0.02693993	6.137209e-05	2.755387e-06
	3.970715e-05	2.753122e-05	0.03385352	0.002776919	3.321467e-05	6.546125e-06	0.01620557	0.02725935
	0.01588727	0.02693993	3.321467e-05	6.546125e-06	0.03252668	0.003096137	2.621329e-05	1.272524e-05
	6.137209e-05	2.755387e-06	0.01620557	0.02725935	2.621329e-05	1.272524e-05	0.03255943	0.003086425
9e+07	0.03486074	0.001103909	4.38648e-05	2.106575e-05	0.01945076	0.02891136	6.273689e-05	-5.248753e-06
	4.38648e-05	2.106575e-05	0.03557105	0.0009568117	3.293087e-05	7.323762e-06	0.01977845	0.02924374
	0.01945076	0.02891137	3.293087e-05	7.323762e-06	0.03421592	0.001593652	2.81323e-05	9.188821e-06
	6.273689e-05	-5.248753e-06	0.01977845	0.02924375	2.81323e-05	9.188821e-06	0.03426931	0.001515437
1e+08	0.03640413	-0.0007218378	4.53744e-05	1.242711e-05	0.02325694	0.03046841	6.137144e-05	-1.507606e-05
	4.53744e-05	1.242711e-05	0.03710046	-0.001061118	3.260274e-05	8.180613e-06	0.0235867	0.03080808
	0.02325694	0.03046841	3.260274e-05	8.180613e-06	0.03580384	-4.844528e-05	2.854799e-05	4.559356e-06
	6.137144e-05	-1.507606e-05	0.0235867	0.03080808	2.854799e-05	4.559356e-06	0.03586116	-0.000207846
1.1e+08	0.03785298	-0.002844682	4.149923e-05	7.832917e-06	0.02728112	0.03157383	5.460535e-05	-2.047932e-05
	4.149923e-05	7.832917e-06	0.03844049	-0.003310772	3.247031e-05	9.212817e-06	0.02760227	0.03192924
	0.02728112	0.03157382	3.247031e-05	9.212817e-06	0.037441	-0.002046722	2.602462e-05	2.230853e-06
	5.460535e-05	-2.047932e-05	0.02760227	0.03192924	2.602462e-05	2.230852e-06	0.03746835	-0.002268345
1.2e+08	0.03904221	-0.0051493	3.904031e-05	5.75576e-06	0.03141808	0.03220788	5.049001e-05	-2.168117e-05
	3.904031e-05	5.75576e-06	0.03953732	-0.005698233	3.250561e-05	1.018999e-05	0.03173284	0.03258138
	0.03141808	0.03220788	3.250561e-05	1.018999e-05	0.03875084	-0.0042989	2.432063e-05	1.273082e-06
	5.049001e-05	-2.168117e-05	0.03173284	0.03258138	2.432063e-05	1.273081e-06	0.03875042	-0.004569227
1.3e+08	0.04000526	-0.007584131	3.724132e-05	4.603993e-06	0.03563321	0.03236779	4.985964e-05	-1.897239e-05
	3.724132e-05	4.603993e-06	0.04041199	-0.008195904	3.266623e-05	1.115055e-05	0.03594108	0.032759
	0.03563321	0.03236779	3.266623e-05	1.115055e-05	0.03980355	-0.006692784	2.302144e-05	8.032769e-07
	4.985964e-05	-1.897239e-05	0.03594108	0.032759	2.302144e-05	8.032769e-07	0.03977395	-0.007005742
1.4e+08	0.0407493	-0.01012486	3.588409e-05	4.143381e-06	0.03988173	0.03205055	4.92727e-05	-1.665582e-05
	3.588409e-05	4.143381e-06	0.04106975	-0.01078495	3.295324e-05	1.210646e-05	0.0401813	0.03245852
	0.03988173	0.03205054	3.295324e-05	1.210646e-05	0.04062856	-0.009194602	2.196873e-05	7.427869e-07
	4.92727e-05	-1.665582e-05	0.0401813	0.03245852	2.196873e-05	7.427869e-07	0.04056784	-0.009545621
1.5e+08	0.04127625	-0.01274909	3.493308e-05	4.177729e-06	0.04411576	0.031256	4.882099e-05	-1.462794e-05
	3.493308e-05	4.177729e-06	0.04151201	-0.01344566	3.338978e-05	1.300883e-05	0.04440498	0.03167963
	0.04411576	0.031256	3.338978e-05	1.300883e-05	0.04123644	-0.01178451	2.220032e-05	1.845388e-06
	4.882099e-05	-1.462794e-05	0.04440498	0.03167963	2.220032e-05	1.845388e-06	0.04114259	-0.0121696
1.6e+08	0.04158696	-0.0154348	3.438112e-05	4.5752e-06	0.0482865	0.02998817	4.852798e-05	-1.278028e-05
	3.438112e-05	4.5752e-06	0.04173962	-0.01615764	3.396086e-05	1.388592e-05	0.04856276	0.03042635
	0.0482865	0.02998817	3.396086e-05	1.388592e-05	0.04163059	-0.01444374	2.285314e-05	3.130607e-06
	4.852798e-05	-1.278028e-05	0.04856276	0.03042634	2.285314e-05	3.130607e-06	0.04150163	-0.01485918
1.7e+08	0.04168386	-0.01816029	3.51643e-05	5.839403e-06	0.05234529	0.02825549	4.843062e-05	-1.110746e-05
	3.51643e-05	5.839403e-06	0.04175516	-0.01890033	3.467931e-05	1.469619e-05	0.05260548	0.02870731
	0.05234529	0.02825549	3.467931e-05	1.469619e-05	0.04181247	-0.01715278	2.359993e-05	4.309231e-06
	4.843063e-05	-1.110746e-05	0.05260548	0.02870731	2.359993e-05	4.309231e-06	0.04164664	-0.01759491
1.8e+08	0.04157073	-0.02090508	3.710545e-05	7.568136e-06	0.05624435	0.02607106	4.854278e-05	-9.591654e-06
	3.710545e-05	7.568136e-06	0.04156267	-0.02165414	3.554245e-05	1.54306e-05	0.05648495	0.0265359
	0.05624435	0.02607106	3.554245e-05	1.54306e-05	0.04178403	-0.01989211	2.445518e-05	5.391301e-06
	4.854278e-05	-9.591654e-06	0.05648495	0.02653589	2.445518e-05	5.391301e-06	0.04157977	-0.02035734
1.9e+08	0.04125351	-0.02364979	3.925989e-05	9.066292e-06	0.0599376	0.02345298	4.886908e-05	-8.183062e-06
	3.925989e-05	9.066292e-06	0.0411684	-0.02440048	3.654364e-05	1.612299e-05	0.06015468	0.02393054
	0.0599376	0.02345298	3.654364e-05	1.612299e-05	0.04154921	-0.02264248	2.543042e-05	6.378818e-06
	4.886908e-05	-8.183062e-06	0.06015468	0.02393054	2.543042e-05	6.378818e-06	0.04130524	-0.02312722
2e+08	0.04073955	-0.02637728	4.163453e-05	1.03241e-05	0.06338109	0.02042374	4.942386e-05	-6.888652e-06
	4.163453e-05	1.03241e-05	0.04058001	-0.02712278	3.768953e-05	1.675908e-05	0.06357044	0.02091419
	0.06338109	0.02042374	3.768953e-05	1.675908e-05	0.04111367	-0.0253857	2.653358e-05	7.268696e-06
	4.942386e-05	-6.888652e-06	0.06357044	0.02091419	2.653358e-05	7.268696e-06	0.04082897	-0.02588645
2.1e+08	0.04003696	-0.02907173	4.423079e-05	1.132682e-05	0.06653333	0.01701015	5.021666e-05	-5.722871e-06
	4.423079e-05	1.132682e-05	0.03980587	-0.02980591	3.898587e-05	1.73215e-05	0.06669045	0.01751414
	0.06653333	0.01701015	3.898587e-05	1.73215e-05	0.04048418	-0.02810538	2.777087e-05	8.053192e-06
	5.021666e-05	-5.722871e-06	0.06669045	0.01751414	2.777087e-05	8.053192e-06	0.04015801	-0.02861867
2.2e+08	0.03915496	-0.03171984	4.704572e-05	1.205429e-05	0.06935583	0.01324298	5.125278e-05	-4.705191e-06
	4.704572e-05	1.205429e-05	0.03885548	-0.03243711	4.043605e-05	1.779242e-05	0.06947611	0.01376172
	0.06935583	0.01324298	4.043605e-05	1.779242e-05	0.03966864	-0.03078669	2.914634e-05	8.72101e-06
	5.125278e-05	-4.705191e-06	0.06947611	0.01376172	2.914634e-05	8.72101e-06	0.03930052	-0.03130908
2.3e+08	0.03810321	-0.03430958	5.007198e-05	1.248266e-05	0.07181386	0.009156595	5.253407e-05	-3.860913e-06
	5.007198e-05	1.248266e-05	0.03773869	-0.03500492	4.204256e-05	1.814943e-05	0.07189251	0.009691869
	0.07181386	0.009156595	4.204256e-05	1.814943e-05	0.03867638	-0.03341632	3.066113e-05	9.258652e-06
	5.253407e-05	-3.860913e-06	0.07189251	0.009691869	3.066113e-05	9.258652e-06	0.03826609	-0.03394452
2.4e+08	0.0368916	-0.03683085	5.329783e-05	1.258565e-05	0.0738761	0.00478875	5.405672e-05	-3.216348e-06
	5.329783e-05	1.258565e-05	0.03646556	-0.03749978	4.380423e-05	1.837105e-05	0.07390836	0.005342939
	0.0738761	0.00478875	4.380423e-05	1.837105e-05	0.03751666	-0.03598329	3.231521e-05	9.649757e-06
	5.405672e-05	-3.216348e-06	0.07390836	0.005342939	3.231521e-05	9.649757e-06	0.03706419	-0.03651409
2.5e+08	0.03552998	-0.03927517	5.670701e-05	1.233548e-05	0.07551527	0.0001798283	5.58129e-05	-2.80084e-06
	5.670701e-05	1.233548e-05	0.0350461	-0.03991373	4.571763e-05	1.843316e-05	0.07549641	0.0007559375
	0.07551527	0.0001798281	4.571763e-05	1.843316e-05	0.03619914	-0.03847755	3.410493e-05	9.877625e-06
	5.58129e-05	-2.80084e-06	0.07549641	0.0007559374	3.410493e-05	9.877625e-06	0.0357047	-0.03900787
2.6e+08	0.03402809	-0.04163536	6.027838e-05	1.170368e-05	0.07670885	-0.004627335	5.779011e-05	-2.644868e-06
	6.027838e-05	1.170368e-05	0.03349011	-0.04224005	4.777637e-05	1.831159e-05	0.07663426	-0.004025638
	0.07670885	-0.004627335	4.777637e-05	1.831159e-05	0.03473356	-0.04089119	3.602479e-05	9.923415e-06
	5.779011e-05	-2.644868e-06	0.07663426	-0.004025638	3.602479e-05	9.923415e-06	0.03419757	-0.04141809
2.7e+08	0.03239556	-0.04390547	6.398691e-05	1.066093e-05	0.07743809	-0.009587997	5.997168e-05	-2.780298e-06
	6.398691e-05	1.066093e-05	0.03180731	-0.04447333	4.997079e-05	1.798074e-05	0.07730341	-0.008956463
	0.07743809	-0.009587997	4.997079e-05	1.798074e-05	0.03312955	-0.04321758	3.806681e-05	9.766527e-06
	5.997168e-05	-2.780298e-06	0.07730341	-0.008956463	3.806681e-05	9.766527e-06	0.03255253	-0.04373826
2.8e+08	0.03064126	-0.04608096	6.78019e-05	9.180623e-06	0.07768922	-0.01465603	6.23357e-05	-3.237982e-06
	6.78019e-05	9.180623e-06	0.03000649	-0.04660942	5.228826e-05	1.741398e-05	0.07749037	-0.01398976
	0.07768922	-0.01465603	5.228826e-05	1.741398e-05	0.0313962	-0.04545087	4.021958e-05	9.387545e-06
	6.23357e-05	-3.237982e-06	0.07749037	-0.01398976	4.021958e-05	9.387545e-06	0.03077881	-0.04596266
2.9e+08	0.02877406	-0.04815811	7.168841e-05	7.236732e-06	0.07745326	-0.01978433	6.485592e-05	-4.047485e-06
	7.168841e-05	7.236732e-06	0.02809652	-0.0486451	5.471201e-05	1.65865e-05	0.07718649	-0.01907784
	0.07745326	-0.01978433	5.471201e-05	1.65865e-05	0.02954231	-0.04758707	4.24692e-05	8.765832e-06
	6.485592e-05	-4.047485e-06	0.07718649	-0.01907784	4.24692e-05	8.765832e-06	0.02888531	-0.04808745
3e+08	0.02680188	-0.05013396	7.560773e-05	4.803141e-06	0.0767255	-0.02492523	6.750125e-05	-5.237942e-06
	7.560773e-05	4.803141e-06	0.0260852	-0.05057774	5.722191e-05	1.547484e-05	0.07638757	-0.0241725
	0.0767255	-0.02492523	5.722191e-05	1.547484e-05	0.0275762	-0.0496224	4.479872e-05	7.881114e-06
	6.750125e-05	-5.237942e-06	0.07638757	-0.0241725	4.479872e-05	7.881114e-06	0.02688043	-0.05010902
3.1e+08	0.02473226	-0.05200644	7.951588e-05	1.861465e-06	0.07550635	-0.03003121	7.023669e-05	-6.835948e-06
	7.951588e-05	1.861465e-06	0.02397999	-0.05240564	5.97945e-05	1.405318e-05	0.0750945	-0.02922568
	0.07550635	-0.03003121	5.97945e-05	1.405318e-05	0.02550553	-0.05155454	4.718812e-05	6.714823e-06
	7.023669e-05	-6.835948e-06	0.0750945	-0.02922568	4.718812e-05	6.714823e-06	0.02477183	-0.05202514
3.2e+08	0.02257217	-0.05377415	8.336559e-05	-1.608397e-06	0.07380081	-0.03505524	7.302253e-05	-8.864508e-06
	8.336559e-05	-1.608397e-06	0.02178768	-0.05412777	6.24024e-05	1.230197e-05	0.07331284	-0.03418989
	0.07380081	-0.03505524	6.24024e-05	1.230197e-05	0.02333708	-0.05338116	4.961451e-05	5.247164e-06
	7.302253e-05	-8.864508e-06	0.07331284	-0.03418989	4.961451e-05	5.247164e-06	0.02256635	-0.05383358
3.3e+08	0.02032766	-0.05543604	8.710551e-05	-5.619655e-06	0.07161809	-0.03995088	7.581559e-05	-1.134498e-05
	8.710551e-05	-5.619655e-06	0.01951414	-0.05574334	6.501535e-05	1.019941e-05	0.07105251	-0.03901828
	0.07161809	-0.03995088	6.501535e-05	1.019941e-05	0.02107728	-0.05510094	5.205197e-05	3.462379e-06
	7.581559e-05	-1.134498e-05	0.07105251	-0.03901828	5.205197e-05	3.462379e-06	0.02027044	-0.0555331
3.4e+08	0.01800429	-0.05699135	9.068086e-05	-1.01826e-05	0.06897224	-0.04467352	7.856893e-05	-1.429121e-05
	9.068086e-05	-1.01826e-05	0.01716471	-0.05725182	6.759911e-05	7.727999e-06	0.06832819	-0.04366586
	0.06897224	-0.04467352	6.759911e-05	7.727999e-06	0.01873178	-0.05671244	5.447158e-05	1.344375e-06
	7.856893e-05	-1.429121e-05	0.06832819	-0.04366586	5.447158e-05	1.344375e-06	0.01788968	-0.05712238
3.5e+08	0.01560655	-0.05843964	9.403514e-05	-1.529896e-05	0.06588108	-0.04917983	8.123247e-05	-1.77189e-05
	9.403514e-05	-1.529896e-05	0.01474371	-0.058653	7.011699e-05	4.87501e-06	0.0651585	-0.04808908
	0.06588108	-0.04917983	7.011699e-05	4.87501e-06	0.01630552	-0.0582149	5.684192e-05	-1.119781e-06
	8.123247e-05	-1.77189e-05	0.0651585	-0.04808908	5.684192e-05	-1.119781e-06	0.01542904	-0.05860067
3.6e+08	0.01313868	-0.05978069	9.710691e-05	-2.097113e-05	0.06236682	-0.05342885	8.375318e-05	-2.163364e-05
	9.710691e-05	-2.097113e-05	0.01225509	-0.05994679	7.252884e-05	1.625718e-06	0.06156642	-0.05224674
	0.06236682	-0.05342885	7.252884e-05	1.625718e-06	0.01380267	-0.05960727	5.912881e-05	-3.938944e-06
	8.375318e-05	-2.163364e-05	0.06156642	-0.05224674	5.912881e-05	-3.938944e-06	0.01289265	-0.05996693
3.7e+08	0.01060422	-0.06101365	9.983716e-05	-2.718821e-05	0.05845509	-0.05738239	8.607616e-05	-2.603654e-05
	9.983716e-05	-2.718821e-05	0.009702186	-0.06113244	7.479288e-05	-2.023816e-06	0.05757838	-0.0561005
	0.05845509	-0.05738239	7.479288e-05	-2.023816e-06	0.01122698	-0.06088845	6.129526e-05	-7.123416e-06
	8.607616e-05	-2.603654e-05	0.05757838	-0.0561005	6.129526e-05	-7.123416e-06	0.0102842	-0.06122008
3.8e+08	0.00800597	-0.06213813	0.000102161	-3.393981e-05	0.05417481	-0.06100457	8.814513e-05	-3.092334e-05
	0.000102161	-3.393981e-05	0.007087529	-0.06220966	7.686434e-05	-6.079233e-06	0.05322419	-0.0596145
	0.05417481	-0.06100457	7.686434e-05	-6.079233e-06	0.008581594	-0.06205754	6.330341e-05	-1.067449e-05
	8.814513e-05	-3.092334e-05	0.05322419	-0.0596145	6.330341e-05	-1.067449e-05	0.007606822	-0.06235917
3.9e+08	0.005345849	-0.06315302	0.0001040159	-4.12054e-05	0.04955856	-0.06426315	8.990081e-05	-3.628808e-05
	0.0001040159	-4.12054e-05	0.004412822	-0.06317731	7.869671e-05	-1.054063e-05	0.04853724	-0.06275652
	0.04955856	-0.06426315	7.869671e-05	-1.054063e-05	0.00586901	-0.06311283	6.511148e-05	-1.459586e-05
	8.990081e-05	-3.628808e-05	0.04853724	-0.06275652	6.511148e-05	-1.459586e-05	0.004863006	-0.06338243
4e+08	0.002625735	-0.06405723	0.0001053393	-4.895608e-05	0.04464098	-0.06712905	9.128696e-05	-4.21111e-05
	0.0001053393	-4.895608e-05	0.001679711	-0.06403429	8.024216e-05	-1.540125e-05	0.04355307	-0.06549763
	0.04464098	-0.06712905	8.024216e-05	-1.540125e-05	0.003091541	-0.06405285	6.667868e-05	-1.888077e-05
	9.128696e-05	-4.21111e-05	0.04355307	-0.06549763	6.667868e-05	-1.888077e-05	0.002055032	-0.06428829
4.1e+08	-0.000152531	-0.06484852	0.0001060697	-5.716067e-05	0.03945952	-0.06957667	9.224268e-05	-4.837359e-05
	0.0001060697	-5.716067e-05	-0.001110112	-0.06477824	8.145151e-05	-2.065238e-05	0.03831001	-0.06781244
	0.03945952	-0.06957667	8.145151e-05	-2.065238e-05	0.0002508935	-0.06487523	6.796048e-05	-2.352466e-05
	9.224268e-05	-4.837359e-05	0.03831001	-0.06781244	6.796048e-05	-2.352466e-05	-0.0008153549	-0.06507426
4.2e+08	-0.002988421	-0.06552449	0.000106145	-6.577828e-05	0.03405348	-0.07158466	9.271316e-05	-5.504483e-05
	0.000106145	-6.577828e-05	-0.003956315	-0.06540673	8.227682e-05	-2.628027e-05	0.03284818	-0.06967993
	0.03405348	-0.07158466	8.227682e-05	-2.628027e-05	-0.002651386	-0.06557709	6.891265e-05	-2.851438e-05
	9.271316e-05	-5.504483e-05	0.03284818	-0.06967993	6.891265e-05	-2.851438e-05	-0.0037466	-0.06573734
4.3e+08	-0.0058807	-0.06608206	0.0001055062	-7.47618e-05	0.02846353	-0.07313524	9.264218e-05	-6.208945e-05
	0.0001055062	-7.47618e-05	-0.006857826	-0.06591649	8.266577e-05	-3.226116e-05	0.0272091	-0.07108276
	0.02846353	-0.07313524	8.266577e-05	-3.226116e-05	-0.005613827	-0.06615506	6.949153e-05	-3.383357e-05
	9.264218e-05	-6.208945e-05	0.0272091	-0.07108276	6.949153e-05	-3.383357e-05	-0.00673715	-0.06627397
4.4e+08	-0.008828268	-0.0665177	0.0001041008	-8.405674e-05	0.02273186	-0.07421468	9.197416e-05	-6.947e-05
	0.0001041008	-8.405674e-05	-0.009813687	-0.06630383	8.257042e-05	-3.856996e-05	0.02143568	-0.07200768
	0.02273186	-0.07421468	8.257042e-05	-3.856996e-05	-0.00863493	-0.06660516	6.965302e-05	-3.945931e-05
	9.197416e-05	-6.947e-05	0.02143568	-0.07200768	6.965302e-05	-3.945931e-05	-0.009785427	-0.06668
4.5e+08	-0.01183019	-0.06682663	0.0001018758	-9.360299e-05	0.01690122	-0.07481356	9.066028e-05	-7.713621e-05
	0.0001018758	-9.360299e-05	-0.012823	-0.06656374	8.194499e-05	-4.517474e-05	0.01557148	-0.07244587
	0.01690122	-0.07481356	8.194499e-05	-4.517474e-05	-0.01171328	-0.06692244	6.935093e-05	-4.536807e-05
	9.066028e-05	-7.713621e-05	0.01557148	-0.07244587	6.935093e-05	-4.536807e-05	-0.01288985	-0.0669503
4.6e+08	-0.01488548	-0.06700351	9.878426e-05	-0.0001033331	0.01101485	-0.0749263	8.86534e-05	-8.503331e-05
	9.878426e-05	-0.0001033331	-0.01588483	-0.06669064	8.073962e-05	-5.204193e-05	0.009660422	-0.07239243
	0.01101485	-0.0749263	8.073962e-05	-5.204193e-05	-0.01484699	-0.0671017	6.854436e-05	-5.152741e-05
	8.86534e-05	-8.503331e-05	0.009660422	-0.07239243	6.854436e-05	-5.152741e-05	-0.01604838	-0.06707943
4.7e+08	-0.01799184	-0.06704228	9.478386e-05	-0.0001131759	0.005115557	-0.07455164	8.590857e-05	-9.310639e-05
	9.478386e-05	-0.0001131759	-0.01899684	-0.06667824	7.89109e-05	-5.912538e-05	0.003745885	-0.07184682
	0.005115557	-0.07455164	7.89109e-05	-5.912538e-05	-0.01803397	-0.06713643	6.719221e-05	-5.789813e-05
	8.590857e-05	-9.310639e-05	0.003745885	-0.07184682	6.719221e-05	-5.789813e-05	-0.01925871	-0.06706073
4.8e+08	-0.02114725	-0.06693637	8.984115e-05	-0.0001230514	-0.0007537378	-0.07369205	8.239107e-05	-0.0001012867
	8.984115e-05	-0.0001230514	-0.02215694	-0.0665197	7.641577e-05	-6.63795e-05	-0.002128619	-0.07081232
	-0.0007537378	-0.07369205	7.641577e-05	-6.63795e-05	-0.02127124	-0.06701992	6.525424e-05	-6.444201e-05
	8.239107e-05	-0.0001012867	-0.002128619	-0.07081232	6.525424e-05	-6.444201e-05	-0.02251756	-0.06688724
